t,iq,id,vq,vd,ia,ib,va,vb,theta_e,omega,omega_obs,r
0,0,0,0,0,0,0,0,0,0,-0.144963141214248,0,0
0.01,0.0148415973074918,-0.00452381114200889,-0.086150894262736,-0.0564818050766853,0.00351876091465155,0.0151114592118641,-0.0920382363056557,-0.0462723885782231,-0.524637440120955,-0.144963141214248,169.843394029655,-0.144963141214248
0.02,0.00512958303817967,-0.0247098636906969,-0.027848879358281,0.0644689472517311,-0.0188171212647233,0.0168168348111974,0.0418487526555123,-0.0563958078445226,-0.524637440120955,-0.144963141214248,169.843394029655,-0.144963141214248
0.03,0.00501235937039655,0.0150174410643984,-0.0857990921934926,-0.173910030254143,0.0155083664052784,-0.00318399968911953,-0.193496805930837,0.012851806829713,-0.524637440120955,-0.144963141214248,169.843394029655,-0.144963141214248
0.04,0.00501236762562847,-0.0726252378853778,-0.0274970525106215,0.294394564025136,-0.0603468592816571,0.0407161587328918,0.241026892385187,-0.171260866433231,-0.524637440120955,-0.144963141214248,169.843394029655,-0.144963141214248
0.05,-0.0239479057224904,0.014783010239296,0.0884035466087118,-0.172501277353976,0.000799290437212783,-0.0281318452118839,-0.105019553019293,0.162919523769805,-0.524637440120955,-0.144963141214248,169.843394029655,-0.144963141214248
0.06,-0.0144116856786916,-0.00493404857550736,0.0308050367290811,-0.0543687253340098,-0.0114892490983412,-0.0100019335432273,-0.0316262169989741,0.0538951851342848,-0.524637440120955,-0.144963141214248,169.843394029655,-0.144963141214248
0.07,0.00512958303817967,-0.073035491829307,-0.027848879358281,0.296507693375386,-0.060643223258322,0.0410231052181044,0.2426795878802,-0.172623839427236,-0.524637440120955,-0.144963141214248,169.843394029655,-0.144963141214248
0.08,-0.0241237288402064,0.0638705715826384,0.0891072250757787,-0.408766431014682,0.0431967802237031,-0.0528719432757472,-0.309155895644727,0.281873597332729,-0.524637440120955,-0.144963141214248,166.791538425151,-0.144963141214248
0.09,-0.0142359244707721,0.0342071378362606,0.0301016308045846,-0.289225671739727,0.0224757057621963,-0.0294556017588784,-0.2352485558553,0.170926049326566,-0.524637440120955,-0.144963141214248,169.843394029655,-0.144963141214248
0.1,0.014665885629853,-0.00452388543687478,-0.0854477608941442,-0.0564813586204322,0.00343068276624122,0.0149594169843383,-0.0916856509253238,-0.0456640463366135,-0.524637440120955,-0.144963141214248,169.843394029655,-0.144963141214248
0.11,-0.0142359492364679,-0.180805363842472,0.0301017299182475,0.767629049365691,-0.163618831877418,0.0782439754865568,0.679465178020132,-0.358451591476752,-0.524637440120955,-0.144963141214248,169.843394029655,-0.144963141214248
0.12,0.00512958303817967,-0.0725083196511802,-0.027848879358281,0.293691774969135,-0.0601869527836316,0.0407590450747342,0.240242394717854,-0.171213348037657,-0.524637440120955,-0.144963141214248,169.843394029655,-0.144963141214248
0.13,-0.0241237494782863,-0.072391215682038,0.0891073489678578,0.292988043406236,-0.0747385706668495,0.015381464543105,0.298216596987356,-0.0696345783384558,-0.524637440120955,-0.144963141214248,166.791538425151,-0.144963141214248
0.14,0.00512958303817967,-0.111590931382009,-0.027848879358281,0.411824376610019,-0.0940131722740683,0.0603354955877228,0.342486823508902,-0.230385878418199,-0.524637440120955,-0.144963141214248,166.791538425151,-0.144963141214248
0.15,0.00518814534179026,0.0147830927893941,-0.028200433650034,-0.172501773417965,0.0153935877193367,-0.00291447107284693,-0.163426827457444,0.0619983738301884,-0.524637440120955,-0.144963141214248,166.791538425151,-0.144963141214248
0.16,-0.0144116856786916,0.0344414861134865,0.0308050367290811,-0.290633928589255,0.0225904968540662,-0.029725108943338,-0.236115074558114,0.172240245882083,-0.524637440120955,-0.144963141214248,169.797616195452,-0.144963141214248
0.17,-0.014470239727077,-0.00452394322348501,0.0311565414640435,-0.0564810113663767,-0.0111636302960768,-0.0102580338594153,-0.0332783439436384,0.0552574569206577,-0.524637440120955,-0.144963141214248,166.791538425151,-0.144963141214248
0.18,0.00501248319443279,0.0150173172403622,-0.0274973993951073,-0.173909286164836,0.0155083212582467,-0.00318383049535655,-0.164292888304243,0.0633118759831543,-0.524637440120955,-0.144963141214248,166.791538425151,-0.144963141214248
0.19,-0.0338358628070494,-0.00493378029154371,0.147409958534288,-0.0543700150818463,-0.0212185724581883,-0.0268138020933122,0.0267799834289406,0.154818044499427,-0.524637440120955,-0.144963141214248,166.791538425151,-0.144963141214248
0.2,0.0147245923966903,-0.00440688465368929,-0.0857999346329569,-0.0571844453094899,0.00356135377470727,0.0149516224166801,-0.0924705799532504,-0.0456166790931042,-0.524637440120955,-0.144963141214248,166.791538425151,-0.144963141214248
0.21,-0.0241237824981034,-0.0240652449590779,0.089107547188517,0.0609475114442194,-0.0329121887041772,-0.00882500604287927,0.0973843153981354,0.0465945193304269,-0.524637440120955,-0.144963141214248,166.791538425151,-0.144963141214248
0.22,-0.0142946188558723,-0.00505078520012323,0.0304536558795703,-0.0536668291906733,-0.0115316466186146,-0.00984213826542987,-0.0311947283536277,0.0532394837949765,-0.524637440120955,-0.144963141214248,166.791538425151,-0.144963141214248
0.23,-0.0142946271111041,0.0340903104107242,0.0304536806579856,-0.288523626799726,0.0223451868627104,-0.0294478904544213,-0.234464590521129,0.170879096670849,-0.524637440120955,-0.144963141214248,166.791538425151,-0.144963141214248
0.24,-0.0337188537708543,0.0826508811877114,0.14705887502577,-0.521973655764573,0.0546450526551961,-0.0705836204868828,-0.378109445716081,0.388736487992002,-0.524637440120955,-0.144963141214248,166.791538425151,-0.144963141214248
0.25,0.00518810406674134,0.0144905701966836,-0.0282001858725442,-0.171095600053203,0.0151403871012704,-0.00276798245226306,-0.162209652417826,0.0612942371132841,-0.524637440120955,-0.144963141214248,166.791538425151,-0.144963141214248
0.26,-0.0241238031361765,0.0150172511985202,0.0891076710805553,-0.173908889303048,0.000913920419385733,-0.0284014165276925,-0.105885153637328,0.164234019201929,-0.524637440120955,-0.144963141214248,166.791538425151,-0.144963141214248
0.27,-0.0142946601320185,-0.00505064073361175,0.0304537797716086,-0.0536675733064339,-0.0115315422572295,-0.00984224635333149,-0.0311953103325611,0.0532399637512489,-0.524637440120955,-0.144963141214248,166.791538425151,-0.144963141214248
0.28,-0.0142361597382172,0.0342074515261874,0.0301025723577102,-0.289227556780202,0.0224758594173015,-0.0294559625112165,-0.235249715745151,0.170927808461415,-0.524637440120955,-0.144963141214248,166.791538425151,-0.144963141214248
0.29,-0.0144116856786916,-0.053201700516394,0.0308050367290811,0.177673096388883,-0.0532651723678843,0.0141752966303022,0.169207280174091,-0.062334387013749,-0.524637440120955,-0.144963141214248,166.791538425151,-0.144963141214248
0.3,-0.0142361845039141,0.0342074845471166,0.030102671471378,-0.289227755211146,0.0224758755919821,-0.0294560004862244,-0.235249837842284,0.170927993638758,-0.524637440120955,-0.144963141214248,166.791538425151,-0.144963141214248
0.31,0.00495409424624992,-0.0725090254535178,-0.0271465636574085,0.176970257738492,-0.0602754658620156,0.0406075120776515,0.139571056793056,-0.11213977059056,-0.524637440120955,-0.144963141214248,171.947648468675,-0.144963141214248
0.32,-0.0142947014059702,-0.0530847781579109,0.0304539036570602,0.17697040656169,-0.0531053780780316,0.0142179808534751,0.168423215901538,-0.0622863178551056,-0.524637440120955,-0.144963141214248,169.843394029655,-0.144963141214248
0.33,0.0147247533703809,-0.00440709928527674,-0.0858005788584318,-0.0571831555351134,0.00356124864146471,0.0149518692491105,-0.0924697863383498,-0.0456178827208682,-0.524637440120955,-0.144963141214248,169.843394029655,-0.144963141214248
0.34,0.00501261527592185,-0.0726261046614046,-0.0274977958430907,0.17767359246621,-0.0603474854333224,0.0407168072430617,0.140003865006846,-0.112796063846315,-0.524637440120955,-0.144963141214248,166.791538425151,-0.144963141214248
0.35,-0.0142362464181525,0.0339151683318693,0.0301029192555312,-0.287822573987691,0.0222228432566125,-0.0293096331032891,-0.234033521503191,0.170224353890448,-0.524637440120955,-0.144963141214248,169.843394029655,-0.144963141214248
0.36,0.0246708517550509,-0.073035491829307,-0.145156711533001,0.296507693375386,-0.0508550166095047,0.0579361828110506,0.183920183898431,-0.274154425622922,-0.524637440120955,-0.144963141214248,169.843394029655,-0.144963141214248
0.37,-0.0145286286752663,0.0344414861134865,0.031507055089043,-0.290633928589255,0.0225319201959592,-0.0298263237622772,-0.235763434095147,0.172847846707072,-0.524637440120955,-0.144963141214248,169.843394029655,-0.144963141214248
0.38,0.00512958303817967,-0.0250008632419874,-0.027848879358281,0.0651644937922093,-0.019068983007264,0.0169625962652777,0.0424507520844674,-0.0567442065780293,-0.524637440120955,-0.144963141214248,169.843394029655,-0.144963141214248
0.39,0.00501265654986025,-0.198650620629139,-0.0274979197285023,0.876622913011987,-0.169422389630188,0.103842427234853,0.744948357127032,-0.462899354526179,-0.524637440120955,-0.144963141214248,166.791538425151,-0.144963141214248
0.4,-0.0142363083290601,-0.00569331541804475,0.0301031670263545,-0.050859145427905,-0.0120585524247044,-0.0094698272798435,-0.0289402219215691,0.0515297670652965,-0.524637440120955,-0.144963141214248,169.797616195424,-0.144963141214248
0.41,-0.0144116856786916,0.0344414861134865,0.0308050367290811,-0.290633928589255,0.0225904968540662,-0.029725108943338,-0.236115074558114,0.172240245882083,-0.524637440120955,-0.144963141214248,169.843394029655,-0.144963141214248
0.42,-0.0627972505803794,0.122143391894161,0.263315389311349,-0.758942243341769,0.0742606951441384,-0.11553290449294,-0.524974286697862,0.608054538082642,-0.524637440120955,-0.144963141214248,169.843394029655,-0.144963141214248
0.43,0.00501268957078845,-0.0243576602382158,-0.0274980188421669,0.0623534863913942,-0.0185708390516631,0.0165392444183727,0.0401935551907153,-0.0550325033642562,-0.524637440120955,-0.144963141214248,169.843394029655,-0.144963141214248
0.44,-0.0241238774310492,0.0150171026087747,0.0891081170787443,-0.17390799639046,0.000913754599883023,-0.0284014064018307,-0.105884157416324,0.164233957956625,-0.524637440120955,-0.144963141214248,169.843394029655,-0.144963141214248
0.45,0.00512958303817967,0.0143742710904408,-0.027848879358281,-0.170396233850723,0.015010416434292,-0.00276037859653355,-0.161428377884002,0.0612479828709662,-0.524637440120955,-0.144963141214248,169.843394029655,-0.144963141214248
0.46,-0.0147038574329645,-0.00388140475914635,0.0322081814527131,-0.0599910376758882,-0.0107245285854312,-0.0107820783216195,-0.035789525715292,0.0579258267355347,-0.524637440120955,-0.144963141214248,169.843394029655,-0.144963141214248
0.47,0.0244371308620961,-0.0726264802666362,-0.144104427325523,0.29440096326234,-0.0506180854273712,0.057529022487425,0.182623885538264,-0.272188408231353,-0.524637440120955,-0.144963141214248,169.843394029655,-0.144963141214248
0.48,0.0148417912998889,-0.0533189448222566,-0.0861520588149406,0.178377175205911,-0.0387136035859209,0.0395530724892576,0.111232944066205,-0.163914081234217,-0.524637440120955,-0.144963141214248,169.843394029655,-0.144963141214248
0.49,0.0341493762679339,-0.0532021132668832,-0.202407780211215,0.17767508064483,-0.0289413305833349,0.0562053746506268,0.0523928747962651,-0.264182381022583,-0.524637440120955,-0.144963141214248,169.797616195327,-0.144963141214248
0.5,-0.0338361187125753,-0.00440737995427742,0.147411494756062,-0.0571814689255623,-0.0207630981989717,-0.0270776971098487,0.0243474238628086,0.156227629201579,-0.524637440120955,-0.144963141214248,169.843394029655,-0.144963141214248
0.51,-0.0241239063232502,0.0635781480471571,0.0891082905209866,-0.407360208028836,0.0429435971137428,-0.0527256221616371,-0.307938268088644,0.281170143456654,-0.524637440120955,-0.144963141214248,169.843394029655,-0.144963141214248
0.52,-0.0241239104508661,0.0137320256713583,0.089108315299402,-0.167589641431404,-0.000198503231229875,-0.0277577409193803,-0.100415486499641,0.161069270320705,-0.524637440120955,-0.144963141214248,169.843394029655,-0.144963141214248
0.53,-0.024123914578482,0.0633445509782646,0.0891083400778173,-0.405956415768536,0.0427414134063888,-0.0526086207123132,-0.306723253196862,0.280467027872073,-0.524637440120955,-0.144963141214248,166.791538425151,-0.144963141214248
0.54,-0.0337193490714403,0.0823602366091674,0.147061105023174,-0.52057730446406,0.0543932500478697,-0.0704384655238145,-0.37689977883567,0.38803898676206,-0.524637440120955,-0.144963141214248,166.791538425151,-0.144963141214248
0.55,-0.0144116856786916,0.0339159112827499,0.0308050367290811,-0.287826542499586,0.0221356088924942,-0.0294618489100616,-0.233685266163589,0.170834028323395,-0.524637440120955,-0.144963141214248,169.843394029655,-0.144963141214248
0.56,0.00518797611398561,0.013440390501467,-0.0281994177617007,-0.166187635048684,0.0142313865979197,-0.00224205898489817,-0.157961396453725,0.0588365059768387,-0.524637440120955,-0.144963141214248,169.843394029655,-0.144963141214248
0.57,-0.0240071531925588,0.0149002173966153,0.0887579255664343,-0.173205604196326,0.000871056876027952,-0.0282418332053022,-0.105451643698133,0.163579037523862,-0.524637440120955,-0.144963141214248,169.843394029655,-0.144963141214248
0.58,-0.0241823200371289,-0.247564059407969,0.0894589528164431,1.11219068483231,-0.226380986611358,0.103074715686238,1.00741719244046,-0.479668243729103,-0.524637440120955,-0.144963141214248,169.843394029655,-0.144963141214248
0.59,0.00495444095599567,0.0149002173966153,-0.0271479512086898,-0.173205604196326,0.0153778973740803,-0.00317541115528364,-0.163508809285738,0.0632618515837465,-0.524637440120955,-0.144963141214248,169.843394029655,-0.144963141214248
0.6,0.00495445333884334,-0.0239488137713472,-0.0271480007655204,0.0602478475953467,-0.0182461506275412,0.0162840497487118,0.0385464368003192,-0.0536748478846081,-0.524637440120955,-0.144963141214248,169.843394029655,-0.144963141214248
0.61,-0.0142949408010325,-0.00452430644259684,0.0304546222111161,-0.0564788286927587,-0.0110761375654261,-0.0101061297202887,-0.0336280456477184,0.0546488485738059,-0.524637440120955,-0.144963141214248,169.843394029655,-0.144963141214248
0.62,-0.0144116856786916,0.0344414861134865,0.0308050367290811,-0.290633928589255,0.0225904968540662,-0.029725108943338,-0.236115074558114,0.172240245882083,-0.524637440120955,-0.144963141214248,169.843394029655,-0.144963141214248
0.63,0.014725124845822,-0.0532024021944469,-0.0858020655233743,0.177676469634672,-0.0386711734265668,0.039393720905712,0.110801790840962,-0.163260177190745,-0.524637440120955,-0.144963141214248,169.843394029655,-0.144963141214248
0.64,0.00512958303817967,0.0146667771726878,-0.027848879358281,-0.171802804064007,0.0152635820878189,-0.00290689467082494,-0.162645772286683,0.0619525328217994,-0.524637440120955,-0.144963141214248,169.843394029655,-0.144963141214248
0.65,-0.0241239641087629,0.0635783214036954,0.0891086374121394,-0.407360902523757,0.0429437182100788,-0.0527257590094805,-0.307938695420376,0.281170791564868,-0.524637440120955,-0.144963141214248,169.843394029655,-0.144963141214248
0.66,-0.0337195471925641,0.0828861953004139,0.14706199702614,-0.523386674823026,0.054848371004144,-0.0707020893074716,-0.379330857822785,0.389446970273297,-0.524637440120955,-0.144963141214248,169.843394029655,-0.144963141214248
0.67,-0.0144700333518324,-0.00452435597397425,0.031155302576594,-0.0564785310464422,-0.0111638841607353,-0.0102576484940781,-0.0332768177706161,0.0552551422662567,-0.524637440120955,-0.144963141214248,169.843394029655,-0.144963141214248
0.68,0.0148418738510903,-0.00452436422920603,-0.0861525543765454,-0.0564784814387095,0.00351842073506101,0.0151119756028552,-0.0920361912281058,-0.0462754902237653,-0.524637440120955,-0.144963141214248,169.843394029655,-0.144963141214248
0.69,-0.0142950068406651,-0.0533192048553961,0.0304548204317705,0.178378216941611,-0.0533084286905495,0.0143351406526396,0.169642142887149,-0.062990695530815,-0.524637440120955,-0.144963141214248,169.843394029655,-0.144963141214248
0.7,-0.0239489788715396,-0.0240656494543343,0.0884083782597573,0.0609499421564144,-0.0328249797933944,-0.00867350991303975,0.0970362060081192,0.0459881671622215,-0.524637440120955,-0.144963141214248,169.843394029655,-0.144963141214248
0.71,0.00501292071061896,-0.0238323330544468,-0.0274987126178075,0.0595478861134246,-0.0181160496521641,0.0162763084840929,0.0377649449145332,-0.0536277807839969,-0.524637440120955,-0.144963141214248,171.94764846872,-0.144963141214248
0.72,-0.014470012714856,0.0346164672219799,0.0311551786911392,-0.29133493180689,0.022712728016058,-0.0298632392242884,-0.236546410929045,0.172894427691552,-0.524637440120955,-0.144963141214248,171.979692952807,-0.144963141214248
0.73,0.0148418944880667,-0.266756814650112,-0.0861526782620002,1.22752284519998,-0.223445224441624,0.146464028582112,1.01927409107308,-0.68943088611311,-0.524637440120955,-0.144963141214248,169.843394029655,-0.144963141214248
0.74,-0.0142950481168262,0.121502413625417,0.0304549443238536,-0.755440898145779,0.098000641212269,-0.0732329109038303,-0.638583472726657,0.404758696738481,-0.524637440120955,-0.144963141214248,169.843394029655,-0.144963141214248
0.75,-0.0141201124121076,-0.00569071507995835,0.0294047662218323,-0.0508712990423422,-0.011998099371025,-0.00937056156987552,-0.0293005693751761,0.0509313849910496,-0.524637440120955,-0.144963141214248,169.843394029655,-0.144963141214248
0.76,-0.0240073884600262,-0.0241823200371289,0.0887588671196494,0.061651044589528,-0.0329552161551616,-0.0086656235329782,0.0978185736968346,0.045940335558858,-0.524637440120955,-0.144963141214248,169.843394029655,-0.144963141214248
0.77,-0.0144116856786916,0.0344414861134865,0.0308050367290811,-0.290633928589255,0.0225904968540662,-0.029725108943338,-0.236115074558114,0.172240245882083,-0.524637440120955,-0.144963141214248,171.979692952807,-0.144963141214248
0.78,0.0146087060442365,-0.00493256267263474,-0.0851028222792189,-0.0543758686607639,0.00304832911729232,0.0151146338493213,-0.0896905580750103,-0.0464201383528116,-0.524637440120955,-0.144963141214248,169.843394029655,-0.144963141214248
0.79,-0.0142950893907635,-0.00452445503232787,0.030455068209262,-0.056477935780257,-0.0110763405991544,-0.0101061838970504,-0.0336270494268115,0.0546487873285072,-0.524637440120955,-0.144963141214248,169.843394029655,-0.144963141214248
0.8,0.0148419233802671,-0.00528228550008552,-0.0861528517042392,-0.0529748543269071,0.00286246043649326,0.0154916606591948,-0.0890039312580765,-0.0480307117200781,-0.524637440120955,-0.144963141214248,169.843394029655,-0.144963141214248
0.81,0.0146670578416863,-0.0919355717701235,-0.0854530385566776,0.293705466329823,-0.0722240344915211,0.0587448787912484,0.211400365104239,-0.221076928656932,-0.524637440120955,-0.144963141214248,169.875438513787,-0.144963141214248
0.82,-0.0142368283953425,-0.140613931682727,0.0301052483599348,0.52786180639295,-0.128833362461414,0.0581113567465003,0.471947047843182,-0.238349316465029,-0.524637440120955,-0.144963141214248,171.979692952807,-0.144963141214248
0.83,-0.0241823200371289,-0.0241823200371289,0.0894589528164431,0.061651044589528,-0.0330428392491834,-0.00881702779335975,0.0981692460902899,0.0465462636530437,-0.524637440120955,-0.144963141214248,169.843394029655,-0.144963141214248
0.84,-0.0144116856786916,-0.0529697255594843,0.0308050367290811,0.176277737229739,-0.0530643967425818,0.0140591005506883,0.167999589001601,-0.0616354526714138,-0.524637440120955,-0.144963141214248,169.843394029655,-0.144963141214248
0.85,0.00512958303817967,-0.0239492265240585,-0.027848879358281,0.0602503279286343,-0.018158785534028,0.0164358322325163,0.038197513988238,-0.0542827046317556,-0.524637440120955,-0.144963141214248,169.843394029655,-0.144963141214248
