t,iq,id,vq,vd,ia,ib,va,vb,theta_e,omega,omega_obs,r
0,0,0,0,0,0,0,0,0,0,-0.144963141214248,0,0
0.01,-0.0238892198137364,-0.00516863172236244,0.0876994482359439,-0.0529591808469123,0.0164378375462464,0.0180888660228783,0.001917701657303,-0.102431394002125,2.61705109019401,-0.144963141214248,380.726616300876,-0.144963141214248
0.02,0.0048951195565427,-0.0527908326675249,-0.0850952920151608,0.176261470699712,0.0432417411377385,-0.030675495637076,-0.109946649387302,0.161929148286763,2.61705109019401,-0.144963141214248,380.726616300876,-0.144963141214248
0.03,0.00518819473431964,-0.00475827471253588,-0.0868546462447841,-0.0550728554011509,0.00152020966506539,-0.00687368208571085,0.0911667283710487,0.0475959726706168,2.61705109019401,-0.144963141214248,380.726616300876,-0.144963141214248
0.04,-0.0142944706350034,0.0144899647437068,-0.0282007050987829,-0.171092481495845,-0.00538293824831318,0.0196294407669624,0.162213089121314,-0.0612766734589516,2.61705109019401,-0.144963141214248,383.73269407118,-0.144963141214248
0.05,0.0148416140490405,-0.0718634248778103,-0.144804910850979,0.290873100854921,0.0547687263343209,-0.0488365842219296,-0.179245613600061,0.271010392812996,2.61705109019401,-0.144963141214248,380.726616300876,-0.144963141214248
0.06,0.00512958303817967,0.0342070894202644,-0.086502795445643,-0.172501330299705,-0.0321770488221487,0.0126915372531701,0.192631157906409,-0.0115186621929172,2.61705109019401,-0.144963141214248,383.732694071236,-0.144963141214248
0.07,0.00512958303817967,-0.00464105132025594,-0.086502795445643,-0.0557772798034009,0.00144810022314399,-0.00676424313922558,0.0916002328661621,0.0469386397442714,2.61705109019401,-0.144963141214248,380.726616300876,-0.144963141214248
0.08,-0.0144702764990421,-0.0235378210132732,0.0308050367290811,0.0588343505628483,0.0276201960017139,0.000736676888818946,-0.0663519485644484,0.00280178795288913,2.61705109019401,-0.144963141214248,380.726616300876,-0.144963141214248
0.09,0.00524675633034211,-0.0537285696967607,-0.0872061962888279,0.180487615658923,0.0438772974102851,-0.0314494900693006,-0.112547429302035,0.165872771228168,2.61705109019401,-0.144963141214248,380.726616300876,-0.144963141214248
0.1,-0.0240065726217727,0.121615623206197,0.0301016860031736,-0.639398535920647,-0.093241961715378,0.0816860570253214,0.53835830695343,-0.346275804196507,2.61705109019401,-0.144963141214248,380.726616300876,-0.144963141214248
0.11,0.00530531793072797,0.033562811650745,-0.0875577463590655,-0.285705767581964,-0.0317074027540957,0.0122167644996152,0.291144005536952,-0.0673001680308217,2.61705109019401,-0.144963141214248,380.726616300876,-0.144963141214248
0.12,-0.0241237459138821,-0.00452390307376236,0.0304534114830865,-0.0564812526360058,0.0159972448106364,0.0186147515268646,0.0336359894509286,-0.0546457901758911,2.61705109019401,-0.144963141214248,380.726616300876,-0.144963141214248
0.13,0.0147245075496824,-0.0241823200371289,-0.144101910970454,0.061651044589528,0.0135568220305408,-0.0248557498657962,0.0188062943790463,0.155603776740943,2.61705109019401,-0.144963141214248,383.77847190538,-0.144963141214248
0.14,-0.0141774225975239,0.0142559939234043,-0.0289036046658535,-0.169686241983051,-0.00523904351652417,0.0194109530236124,0.161347936942715,-0.0599640085829863,2.61705109019401,-0.144963141214248,383.77847190538,-0.144963141214248
0.15,-0.0140017545065343,0.0139632318602558,-0.0296066295784999,-0.168278848276809,-0.00507361968708397,0.0191122828703258,0.160481848522893,-0.058650657174862,2.61705109019401,-0.144963141214248,383.77847190538,-0.144963141214248
0.16,-0.014294570835185,-0.0240652051936223,-0.028200404343846,0.0609472724837463,0.0279886790381166,0.000320471643924673,-0.0386299117196646,0.0549323470179032,2.61705109019401,-0.144963141214248,383.77847190538,-0.144963141214248
0.17,-0.0142360259363191,-0.023948107047299,0.029750536948302,0.0602436007154745,0.027858004076028,0.00032844254969042,-0.0670436195106841,0.00442028944577501,2.61705109019401,-0.144963141214248,383.77847190538,-0.144963141214248
0.18,0.00489538674542745,-0.00452395317387983,-0.0850968959718591,-0.0564809515719893,0.00146403480852894,-0.00650288903382027,0.0915052012057635,0.0453693480977582,2.61705109019401,-0.144963141214248,380.726616300876,-0.144963141214248
0.19,-0.0144116856786916,-0.0241823200371289,0.0308050367290811,0.061651044589528,0.028148701232893,0.000363187803842209,-0.0687899482899617,0.00421243410920552,2.61705109019401,-0.144963141214248,380.726616300876,-0.144963141214248
0.2,0.0148416766763821,0.0633436041471612,-0.144805286808026,-0.405951538846269,-0.0622602391383468,0.018877239611617,0.423893667618698,-0.0779703888150942,2.61705109019401,-0.144963141214248,380.726616300876,-0.144963141214248
0.21,0.0149002173966153,0.0143733884829418,-0.145156711533001,-0.170391519355526,-0.0199032095939106,-0.00569851057810962,0.22017983804126,0.0403060751188219,2.61705109019401,-0.144963141214248,380.726616300876,-0.144963141214248
0.22,0.0243781898965782,-0.0920499692009273,-0.202053754580282,0.411122133601251,0.067465190741294,-0.0672007515639975,-0.254656448236892,0.3807850073837,2.61705109019401,-0.144963141214248,383.77847190538,-0.144963141214248
0.23,-0.0142361010864953,-0.0239482072475339,-0.0285515784570365,0.0602442028435075,0.0278581284411345,0.000328457414291366,-0.0378454935393579,0.0548841983397809,2.61705109019401,-0.144963141214248,380.726616300876,-0.144963141214248
0.24,0.00495401096879172,-0.0532016029967892,-0.0854488219729509,0.177672627573313,0.0435677911087213,-0.0309321897707502,-0.110991027785002,0.162941877725154,2.61705109019401,-0.144963141214248,380.726616300876,-0.144963141214248
0.25,-0.0142946459809713,0.0144905784545943,-0.0282001787906995,-0.171095642587915,-0.00538338163188552,0.0196298998946894,0.162215561632371,-0.0612787121331161,2.61705109019401,-0.144963141214248,383.77847190538,-0.144963141214248
0.26,-0.0144116856786916,-0.023948257338765,0.0304537623551413,0.0602445038541238,0.0279461074158298,0.000480410208070931,-0.0673965879408876,0.00381206245215885,2.61705109019401,-0.144963141214248,383.77847190538,-0.144963141214248
0.27,-0.0142946626868811,-0.0243578545248447,0.030102538151185,0.0623542647357147,0.0282420287284537,0.000173987604153485,-0.069046800329196,0.00517266838056334,2.61705109019401,-0.144963141214248,383.77847190538,-0.144963141214248
0.28,-0.0240067980722207,-0.00464105132025594,0.0301025882681425,-0.0557772798034009,0.0160400735198692,0.0184548571523819,0.0332023611826881,-0.0539895728321915,2.61705109019401,-0.144963141214248,383.77847190538,-0.144963141214248
0.29,0.0148417142492489,-0.024357829479228,-0.144805512361014,0.0623541643988382,0.0136500358439467,-0.0250450965311471,0.0185500814932685,0.156564915305461,2.61705109019401,-0.144963141214248,383.77847190538,-0.144963141214248
0.3,0.014666221504333,-0.0240653220909878,-0.144103189192955,0.0609479749489724,0.0134847446331324,-0.0247467056946243,0.0194154790097149,0.155252774406078,2.61705109019401,-0.144963141214248,383.77847190538,-0.144963141214248
0.31,0.00518807783698108,-0.0530847595208259,-0.0868539445005129,0.176970310566095,0.0433494323219901,-0.0310762700848685,-0.109679426550191,0.163806354848582,2.61705109019401,-0.144963141214248,383.77847190538,-0.144963141214248
0.32,0.00501260178911521,-0.0533187512388391,-0.0861516714492518,0.178376399678771,0.0436398459590369,-0.03104157301164,-0.11124818183896,0.163902692148074,2.61705109019401,-0.144963141214248,383.77847190538,-0.144963141214248
0.33,0.0050126101464867,-0.00452407842856296,-0.0861516965342436,-0.0564801988855709,0.0014054358383575,-0.00660441490313188,0.0920328109836272,0.0462827115058527,2.61705109019401,-0.144963141214248,383.77847190538,-0.144963141214248
0.34,0.00512958303817967,-0.0534942231124358,-0.086502795445643,0.179079368982457,0.0437331401641657,-0.031230705722575,-0.111680790862868,0.164558667250649,2.61705109019401,-0.144963141214248,383.77847190538,-0.144963141214248
0.35,-0.0240068857452045,0.0339151832377132,0.0301029391401975,-0.287822653608055,-0.0173323711628797,0.0377645220690418,0.234049899938232,-0.170201971826898,2.61705109019401,-0.144963141214248,383.77847190538,-0.144963141214248
0.36,0.00518805696119151,-0.00475799916627963,-0.0868538191814431,-0.0550745112268618,0.0015200401640266,-0.00687342483763599,0.0911677473702294,0.0475944275385109,2.61705109019401,-0.144963141214248,383.77847190538,-0.144963141214248
0.37,0.0245539122575656,-0.0923428815512076,-0.203108630265721,0.412530580952103,0.0676307174730088,-0.0674995439571161,-0.255347236055977,0.382403432186048,2.61705109019401,-0.144963141214248,383.77847190538,-0.144963141214248
0.38,0.00512958303817967,-0.0529680329421743,-0.086502795445643,0.17626869602378,0.0432776943548183,-0.0309671811316396,-0.109248002694592,0.163151036543067,2.61705109019401,-0.144963141214248,383.77847190538,-0.144963141214248
0.39,0.00501266023777103,-0.0533188389118228,-0.0861518468852792,0.178376750911223,0.0436398925726688,-0.0310416675101414,-0.111248397988267,0.163903019900285,2.61705109019401,-0.144963141214248,383.77847190538,-0.144963141214248
0.4,0.0148417601750967,0.0144910168459853,-0.14480578805763,-0.171097900647171,-0.0199757469231459,-0.00558900252175136,0.220615500747901,0.0396485647989066,2.61705109019401,-0.144963141214248,380.726616300876,-0.144963141214248
0.41,-0.0144116856786916,0.0639872013777909,-0.027848879358281,-0.292038963951822,-0.0481667476487179,0.0445199173989362,0.26672255540081,-0.12215316200585,2.61705109019401,-0.144963141214248,380.726616300876,-0.144963141214248
0.42,0.00501268529222032,0.121500462244712,-0.0861519220872319,-0.638704096690986,-0.107675599823725,0.0565106586593935,0.595978929293677,-0.245304285831159,2.61705109019401,-0.144963141214248,380.726616300876,-0.144963141214248
0.43,0.00512958303817967,-0.0532019996190161,-0.086502795445643,0.177674534294282,0.0434802050601049,-0.0310843554467292,-0.11046483110589,0.16385510320203,2.61705109019401,-0.144963141214248,380.726616300876,-0.144963141214248
0.44,-0.0239485579394699,-0.00423196764935264,0.0297525670051992,-0.0578843813303587,0.0156568220603364,0.0186093229467458,0.0352014668861179,-0.0547418813566249,2.61705109019401,-0.144963141214248,380.726616300876,-0.144963141214248
0.45,0.0244371063544686,-0.00475792402054712,-0.202758233071918,-0.0550749627961832,-0.00812026172444455,-0.0235344716849864,0.149214952828792,0.147915686990084,2.61705109019401,-0.144963141214248,380.726616300876,-0.144963141214248
0.46,0.00518801520963949,-0.0536110874553554,-0.0868535685434662,0.179781635768159,0.0438050287384899,-0.0313398094630662,-0.112112967555496,0.165213986799271,2.61705109019401,-0.144963141214248,380.726616300876,-0.144963141214248
0.47,0.00501272704379839,-0.0533189391208639,-0.0861520474062985,0.17837715236519,0.0436399458514231,-0.0310417755206573,-0.111248645044018,0.163903394516653,2.61705109019401,-0.144963141214248,380.726616300876,-0.144963141214248
0.48,0.0536906357157531,-0.140611998817463,-0.319715567871638,0.644579667861216,0.0948180821518146,-0.116892899151556,-0.397799514527062,0.599546944618679,2.61705109019401,-0.144963141214248,380.726616300876,-0.144963141214248
0.49,-0.014236426732816,0.0629355141080407,-0.0285502752027292,-0.287123347188899,-0.0473442284490204,0.0438415193022459,0.26281909593288,-0.119084245507677,2.61705109019401,-0.144963141214248,380.726616300876,-0.144963141214248
0.5,-0.0144701011530476,0.0633444808683012,-0.0271475336307902,-0.289229796365983,-0.0475811831626698,0.0442485942454048,0.263939824872152,-0.121353337550314,2.61705109019401,-0.144963141214248,380.726616300876,-0.144963141214248
0.51,0.0148418060965284,-0.0723929675283517,-0.144806063727735,0.29299761365938,0.0552269777146237,-0.049101954016886,-0.181083915980053,0.272075381237886,2.61705109019401,-0.144963141214248,380.726616300876,-0.144963141214248
0.52,-0.0240070986596759,-0.00493308694934433,0.0884070845760797,-0.0543733482538684,0.0162929965563609,0.0183088611366085,0.00278734360048347,-0.103752129227459,2.61705109019401,-0.144963141214248,380.726616300876,-0.144963141214248
0.53,-0.0144116856786916,-0.0239487082486014,-0.027848879358281,0.0602472134830275,0.0279464977024732,0.000480184385094985,-0.038200022540936,0.0542774823647299,2.61705109019401,-0.144963141214248,380.726616300876,-0.144963141214248
0.54,0.00512958303817967,-0.00493304518456956,-0.086502795445643,-0.0543735490337703,0.00170083657089964,-0.00691047841308226,0.0903852286098823,0.047641650932539,2.61705109019401,-0.144963141214248,380.726616300876,-0.144963141214248
0.55,-0.0142948964815045,-0.0238319524455676,-0.0281994269031191,0.0595455989403872,0.0277869493654502,0.000437570276224448,-0.0374171776212467,0.0542295200946299,2.61705109019401,-0.144963141214248,380.726616300876,-0.144963141214248
0.56,0.00501280218958403,-0.0533190518395423,-0.086152272959443,0.178377603934831,0.0436400057812528,-0.031041897014711,-0.111248922941076,0.163903815898411,2.61705109019401,-0.144963141214248,380.726616300876,-0.144963141214248
0.57,-0.0142949131786343,-0.0726267880791064,-0.0281993767860022,0.294402548737812,0.0700215045950813,-0.0239996621583124,-0.240698486991397,0.171849654973442,2.61705109019401,-0.144963141214248,380.726616300876,-0.144963141214248
0.58,-0.0239487917340954,-0.0533190768851606,0.0297536196213733,0.178377704271714,0.0581444644918796,-0.00597409694943893,-0.169296564941289,0.0635811006581382,2.61705109019401,-0.144963141214248,380.726616300876,-0.144963141214248
0.59,-0.0237152968605481,-0.00545834187927238,0.0287023530236182,-0.0515675928680383,0.016601493780558,0.0177932348241975,0.0302599119678355,-0.0506693144910705,2.61705109019401,-0.144963141214248,380.726616300876,-0.144963141214248
0.6,-0.0142949382330847,0.101901947057681,-0.028199301584046,-0.521281191450356,-0.0810424622342459,0.0634071871970753,0.465319493578987,-0.23665808683653,2.61705109019401,-0.144963141214248,380.726616300876,-0.144963141214248
0.61,0.00489610484404264,0.0828860710659248,-0.0854516039437843,-0.523386034918038,-0.0741943881753883,0.0372728504768444,0.495814232179237,-0.188157288809933,2.61705109019401,-0.144963141214248,380.726616300876,-0.144963141214248
0.62,-0.0240072239143337,0.0342080246164262,0.0301042925114662,-0.172504140212404,-0.0175856717191988,0.0379114744954024,0.134234864840298,-0.112449757133324,2.61705109019401,-0.144963141214248,383.77847190538,-0.144963141214248
0.63,-0.014003157278906,-0.0248826544367614,-0.0296006146091277,0.065158113665369,0.028550280547669,-0.000341154285404155,-0.0415733725065627,0.0582531618034406,2.61705109019401,-0.144963141214248,380.726616300876,-0.144963141214248
0.64,-0.014236614601591,0.0632281759574916,-0.0285495233416621,-0.288529837649055,-0.0475974488859966,0.0439882517244172,0.264036112305053,-0.119789289569893,2.61705109019401,-0.144963141214248,383.77847190538,-0.144963141214248
0.65,0.0051879358896107,0.0343247804106245,-0.0868530923788548,-0.289932615110957,-0.0323081407420651,0.01269997129222,0.294449666570263,-0.0700269577913333,2.61705109019401,-0.144963141214248,380.726616300876,-0.144963141214248
0.66,-0.0144116856786916,-0.0236571819824219,-0.027848879358281,0.0588459915623999,0.0276941660859777,0.000626185478204852,-0.0369871898280054,0.0535757276488264,2.61705109019401,-0.144963141214248,383.77847190538,-0.144963141214248
0.67,0.0246125072565749,-0.0919349710629417,-0.203460380830623,0.410429952326576,0.0672483037431697,-0.0673459728674645,-0.253352866933314,0.381655862199453,2.61705109019401,-0.144963141214248,383.77847190538,-0.144963141214248
0.68,0.00501290238976592,-0.00452437067184219,-0.086152573714381,-0.0564784427233129,0.00140554243040234,-0.00660481421554651,0.0920317302370907,0.0462843502669072,2.61705109019401,-0.144963141214248,383.77847190538,-0.144963141214248
0.69,0.0147252089468818,0.0149002173966153,-0.144456318187754,-0.173205604196326,-0.0202715611933961,-0.00528318689600501,0.222264811003688,0.0382905076862523,2.61705109019401,-0.144963141214248,383.77847190538,-0.144963141214248
0.7,0.00501291908689567,-0.0530858992829418,-0.0861526238314978,0.176976181234287,0.0434381411966183,-0.0309252316051643,-0.110035740719932,0.163202264327241,2.61705109019401,-0.144963141214248,383.77847190538,-0.144963141214248
0.71,0.00495459963406442,-0.05296927290009,-0.0858025023343231,0.176275319325356,0.043366402138172,-0.0308163446029608,-0.109604453691289,0.162548212359047,2.61705109019401,-0.144963141214248,383.77847190538,-0.144963141214248
0.72,0.0148418937739294,0.0144919520378138,-0.144806590062334,-0.17110271761805,-0.0199766232902903,-0.00558864979943522,0.2206200717515,0.0396468465596656,2.61705109019401,-0.144963141214248,383.77847190538,-0.144963141214248
0.73,0.053691157588274,0.208738279458077,-0.319718074146332,-1.10492216707219,-0.207563578991985,0.0580669474858539,1.11648939595403,-0.276629844639976,2.61705109019401,-0.144963141214248,383.77847190538,-0.144963141214248
0.74,-0.0240073742146862,-0.00493262769099387,0.0301048940216609,-0.054375556091623,0.0162927370460594,0.0183093296482941,0.0319879393837645,-0.0532895625644393,2.61705109019401,-0.144963141214248,383.77847190538,-0.144963141214248
0.75,-0.0142950634789347,0.150756120816661,-0.0281989256535123,-0.872869868741718,-0.123328306706106,0.0878742599886856,0.769638159470926,-0.41273973718483,2.61705109019401,-0.144963141214248,383.77847190538,-0.144963141214248
0.76,-0.0241240131115462,-0.0533193023356876,0.0304550154924877,0.178378607463757,0.0582324133456003,-0.00582254636028491,-0.169648617156476,0.0629744572525413,2.61705109019401,-0.144963141214248,380.726616300876,-0.144963141214248
0.77,0.00512958303817967,0.121852470577585,-0.086502795445643,-0.640816767717242,-0.108038826203748,0.0565857688869131,0.597983282440676,-0.246058646117056,2.61705109019401,-0.144963141214248,380.726616300876,-0.144963141214248
0.78,0.0148419188195709,-0.0243572157682621,-0.144806740413366,0.0623517057713583,0.0136494021920527,-0.0250449662413028,0.018552824595777,0.156564746930017,2.61705109019401,-0.144963141214248,380.726616300876,-0.144963141214248
0.79,-0.0241240256387704,0.0826534195237205,0.0304550906944376,-0.405259809140929,-0.0594592626969779,0.0622748139420422,0.335521692405054,-0.229321214412877,2.61705109019401,-0.144963141214248,380.726616300876,-0.144963141214248
0.8,0.00512958303817967,-0.00411643930345155,-0.086502795445643,-0.0578789621790372,0.000994020390242239,-0.00650150891319576,0.0934193516651456,0.0458860830459195,2.61705109019401,-0.144963141214248,383.77847190538,-0.144963141214248
0.81,-0.0144699717285118,-0.0240657479374885,-0.0274989834405951,0.0609505339660842,0.0280769924307061,0.000472018708033735,-0.0389840176980662,0.0543268630157656,2.61705109019401,-0.144963141214248,380.726616300876,-0.144963141214248
0.82,0.0246708517550509,-0.0537273506145339,-0.203810627620364,0.180480289891837,0.0341483394853715,-0.0482614757417194,-0.0541436937428156,0.266796490603479,2.61705109019401,-0.144963141214248,383.77847190538,-0.144963141214248
0.83,0.00512958303817967,-0.00464105132025594,-0.086502795445643,-0.0557772798034009,0.00144810022314399,-0.00676424313922558,0.0916002328661621,0.0469386397442714,2.61705109019401,-0.144963141214248,383.77847190538,-0.144963141214248
0.84,0.0245543047010807,-0.0920522988033123,-0.203110986136196,0.411134577297082,0.0673790059800926,-0.0673543550742078,-0.254137740173528,0.381706329994618,2.61705109019401,-0.144963141214248,383.77847190538,-0.144963141214248
0.85,0.00524612173477819,-0.00516547545494927,-0.087202386759826,-0.0529760402182383,0.00184365296031134,-0.00712775376214209,0.0895259764911217,0.0489470798631114,2.61705109019401,-0.144963141214248,383.77847190538,-0.144963141214248
0.86,0.00495478751608941,-0.00464105132025594,-0.0858032542484175,-0.0557772798034009,0.00153564066205656,-0.00661294824143387,0.091249891262955,0.0463331493251252,2.61705109019401,-0.144963141214248,383.77847190538,-0.144963141214248
