t,iq,id,vq,vd,ia,ib,va,vb,theta_e,omega,omega_obs,r
0,0,0,0,0,0,0,0,0,0,-0.144963141214248,0,0
0.01,-0.0246512785803574,0.0149002173966153,0.0915703501449514,-0.173205604196326,0.0252013486070884,-0.0139496968603905,-0.195800040883436,-0.00690321234847996,0.52156938491557,-0.144963141214248,132.915941215158,-0.144963141214248
0.02,-0.0433718964250879,0.0147243712321591,0.205007420178211,-0.172501135421646,0.0343762713564249,-0.030268803665167,-0.251708291730616,0.0918020692791714,0.52156938491557,-0.144963141214248,129.864085610653,-0.144963141214248
0.03,-0.00464105132025594,-0.0144116856786916,0.0308050367290811,-0.0557772798034009,-0.0101831194470447,-0.0112044687417955,-0.0637093854144421,-0.0010814066122332,0.52156938491557,-0.144963141214248,129.864085610653,-0.144963141214248
0.04,0.0148416108679663,-0.0145288987359896,-0.144804891754731,-0.0550729175066172,-0.0199918178624001,0.0056293454498186,0.0243974721976158,-0.152991000614927,0.52156938491557,-0.144963141214248,132.915941215158,-0.144963141214248
0.05,0.00507098093926883,0.0147244110998827,-0.0274970861720901,-0.172501295138331,0.0102400556049319,0.0117330469671215,-0.135865043716862,-0.109788325737175,0.52156938491557,-0.144963141214248,132.915941215158,-0.144963141214248
0.06,0.0536311688154021,-0.033835759057246,-0.319007860230905,0.0609467887704813,-0.0560581717889245,0.0296418999925711,0.211786145540197,-0.246225820148417,0.52156938491557,-0.144963141214248,132.915941215158,-0.144963141214248
0.07,-0.0436064022751845,0.0149002173966153,0.147409388900064,-0.173205604196326,0.0346455772575114,-0.030384515371245,-0.223621365508557,0.0415113737304958,0.52156938491557,-0.144963141214248,132.915941215158,-0.144963141214248
0.08,-0.0724496037327441,0.0149002173966153,0.321260909888205,-0.173205604196326,0.0490164562853146,-0.0553926761650662,-0.310241402490109,0.192247303565438,0.52156938491557,-0.144963141214248,132.915941215158,-0.144963141214248
0.09,0.0146658798769964,-0.0142359325389774,-0.0854477349929934,-0.0564813759056023,-0.019650248477698,0.00562294785548756,-0.0063979121038624,-0.102227823807093,0.52156938491557,-0.144963141214248,129.864085610653,-0.144963141214248
0.1,-0.00475821122497906,-0.0142359458216069,-0.0271455588809877,-0.056481322693195,-0.00997237233457574,-0.011218489983854,-0.0354464277636689,-0.0516775767517111,0.52156938491557,-0.144963141214248,129.864085610653,-0.144963141214248
0.11,0.0247880028002709,0.0147244908287853,-0.145508345179488,-0.172501614545481,0.000416286821958208,0.0288285001044987,-0.0770672177604022,-0.212108768051538,0.52156938491557,-0.144963141214248,132.915941215158,-0.144963141214248
0.12,0.0440949782862053,-0.0145288278644084,-0.261761329599074,-0.0550733433915046,-0.0345669971320825,0.0309931711582588,0.0826696501893411,-0.254396925616969,0.52156938491557,-0.144963141214248,132.915941215158,-0.144963141214248
0.13,-0.0241823200371289,0.0149002173966153,0.0894589528164431,-0.173205604196326,0.0249676940142129,-0.0135430918352185,-0.194748055179551,-0.00873387473069411,0.52156938491557,-0.144963141214248,132.915941215158,-0.144963141214248
0.14,-0.0242994445038401,0.0149002173966153,0.090162060556456,-0.173205604196326,0.0250260502804124,-0.0136446432354925,-0.195098372611897,-0.00812425338046031,0.52156938491557,-0.144963141214248,132.915941215158,-0.144963141214248
0.15,0.953935156271554,-0.0146459168931603,1.78550113745897,0.0630585979799502,-0.487988623471448,0.819801127478438,-0.834936486788662,1.57951630623919,0.52156938491557,-0.144963141214248,61.8992612993706,241.867186295947
0.16,0.904554924379057,0.0731727033040345,2.37450117542318,-0.406654806069656,-0.387243235767153,0.820741452638897,-1.53566024861447,1.85617121090996,0.52156938491557,-0.144963141214248,-0.0396741217496609,241.867186295947
0.17,1.02080716476258,0.0149002173966153,2.02714702826101,-0.408062252982184,-0.495689400638748,0.892502830361608,-1.36381431891525,1.55430060799642,0.52156938491557,-0.144963141214248,-0.144963141214248,241.867186295947
0.18,0.914501112545052,0.0147245838535274,2.31479328912173,-0.642918901768038,-0.442875598166213,0.800243902047818,-1.71076132716219,1.68668561596401,0.52156938491557,-0.144963141214248,-0.144963141214248,241.867186295947
0.19,0.669474179327197,0.0634021486811262,1.90843319334322,-0.405951561763928,-0.383969791222299,-0.552071289483443,-0.583475005362672,-1.86184608441992,2.62831085278895,90.8003338730032,6.84226026501868,241.867186295947
0.2,0.592070072429138,0.0729972026336167,2.66706871168692,-0.522676535267064,0.035979281550698,-0.595467088559623,0.999355995756381,-2.52739665805031,-2.95857165538935,87.7484782684987,67.8198611703459,241.867186295947
0.21,0.483832135374214,-0.0436650575266838,2.1423460158741,-0.172502146908265,0.478363031968768,-0.0846698418282881,2.11266725804958,-0.395019618734125,-1.83598559601658,140.850765786868,132.796918845689,241.867186295947
0.22,0.503080774533012,0.121265186185674,2.08544880551704,-0.754719993768059,0.435165791469171,0.280046862186298,0.894621375582801,2.02937221420222,-0.762442399101193,140.850765786868,197.842643272639,241.867186295947
0.23,0.406193770676551,0.02431971754817,2.43315639443359,-0.405952200551685,-0.135860858640513,0.383570925758874,-1.32186499406953,2.08271941613829,0.400212461255828,153.973744886234,223.861238229374,241.867186295947
0.24,0.142796233127406,-0.0824550185592921,2.90063146946795,0.295101098232635,-0.111843761805028,-0.12116339061899,-2.85729693291075,-0.580173954107498,1.87251079321526,187.849342096228,223.907016063702,241.867186295947
0.25,0.356755392925218,-0.0726844107793651,2.14269727724376,0.295101204710529,0.113720063301162,-0.345868733993621,-0.0436639890395989,-2.16248232339378,-3.02491834872966,179.914517524518,197.966243425391,241.867186295947
0.26,0.180825474254306,-0.0339529543955646,2.31901023369118,0.061651044589528,0.182550801604989,0.0229316393844375,2.31101115824253,-0.202081027664476,-1.63143835547414,210.738259130007,176.862661920014,241.867186295947
0.27,0.278707345074379,-0.0239483014418458,2.37696168022354,0.0602447688804609,0.0543535817438667,0.274402976463396,0.717651116361722,2.26683769525155,-0.281263960961737,187.849342096228,179.868739690273,241.867186295947
0.28,0.132264830135981,-0.0241823200371289,2.43526441471772,-0.0550741951878146,-0.134012725474025,0.0109251683877942,-2.36631994997456,0.577992933277259,1.30861758673847,218.978269262167,187.803564262011,241.867186295947
0.29,0.288711962598917,-0.0241238242456033,2.49356720236971,0.0609480131863553,-0.116968050955292,-0.265056656772984,-1.24670758375021,-2.1603963186566,2.64263867060155,184.797486491724,200.972321195594,241.867186295947
0.3,0.102543469813665,-0.0438405714775487,1.84977869228152,0.0630570009179786,0.109453914160876,0.0213775485911662,1.79548926016901,-0.449305811670881,-1.78192646329932,252.853866472162,218.978269262167,241.867186295947
0.31,0.356930906873888,0.0538072940342893,2.67023126066035,-0.290633928589255,0.234381063462315,0.274518513516635,1.16505503299692,2.42017557956929,-0.557066783644401,161.908569457944,221.756983790115,241.867186295947
0.32,0.443346066611001,0.00466172302000858,2.03205968845529,-0.405953637923192,-0.417756868469887,0.148514865542796,-2.05366985737704,0.276595463608987,1.23973974738735,184.797486491724,223.861238229374,241.867186295947
0.33,0.288477979432814,-0.0430803299562807,2.61157734457299,-0.176719696433243,-0.0615850534218665,-0.285101281375246,-0.757064804792865,-2.50567734537755,2.78060911319264,192.732311063812,229.964949438382,241.867186295947
0.34,0.132615618840097,-0.0628555419713986,3.07870254095054,0.0595427489637404,0.133141332547239,0.0617341646449173,3.07809043282606,-0.0855217045793542,-1.57923539614335,205.855290162801,242.736965143249,241.867186295947
0.35,0.229912642495231,-0.053377284686375,2.43526460084951,-0.0557772798034009,-0.110894440163152,0.208353979660892,-0.682263364449841,2.3384057566262,0.260984116051997,213.790114734511,244.919041900452,241.867186295947
0.36,0.151864492764551,-0.0337775600457293,2.72818323900924,-0.0564799385340955,-0.12422742857546,-0.0936551851997858,-2.45967380181519,-1.18159999904019,1.99793289002708,218.978269262167,255.905722076665,241.867186295947
0.37,0.239215585165947,0.0339738032852706,2.14445166953654,-0.405251831015194,0.138628241778621,-0.19789018691517,1.76104879926864,-1.28903418733317,-2.38943207453808,223.861238229374,257.709368738577,241.867186295947
0.38,0.141801552208729,-0.179226439449036,2.43631742768073,0.641767144026168,-0.0835550496396643,0.212716596639983,1.78032054169967,1.78268517814407,-0.527168585696092,229.964949438382,257.709368738594,241.867186295947
0.39,0.102894378118768,0.0149002173966153,2.4356155963109,-0.173205604196326,-0.0991402846778836,0.0313125131681033,-2.43163668167946,0.22218587405327,1.4086822072466,237.899774010092,257.782613273962,241.867186295947
0.4,-0.023364061106395,0.17023676700141,3.01724268199059,-0.9902867543367,-0.171427747357697,-0.0117882834348897,1.58389926696753,-2.75239611428664,-2.93654301798613,242.782742976855,255.905722076665,241.867186295947
0.41,0.0148417747598857,-0.014762341499069,2.61157734457299,-0.0543724946784039,0.00667428423761237,0.0198408400647219,2.31163042616341,1.21641167690055,-1.10721510282422,247.970897504706,255.905722076665,241.867186295947
0.42,0.0828855904568214,-0.00475792773421114,2.08579695576391,-0.0550749404798562,-0.0663484186475779,0.0499053737052999,-1.6278793055528,1.30521690009583,0.868566428617275,250.717567549009,260.74291320935,241.867186295947
0.43,0.0248461530867294,-0.00493322020638677,2.25895228257408,-0.0543727076342062,-0.00417750032229122,-0.0249843246030617,-0.748453224702511,-2.1320505567914,2.77991880074573,252.853866472162,257.736835439367,241.867186295947
0.44,-0.0434898713640481,-0.024299178732105,2.55152040390447,0.0623532774353377,-0.0420060316761078,0.0267826865930597,2.54359862370834,-0.210357657851475,-1.62887652939182,255.905722076665,255.905722076665,241.867186295947
0.45,0.0538659049948846,-0.00434892673157299,1.96708572671827,0.17697283016187,-0.0182576745501521,0.0508636039290891,-0.342589206225737,1.94509081398578,0.26406751150441,252.853866472301,247.970897504955,241.867186295947
0.46,0.0442121204719221,0.0148417969086301,2.02503818369937,-0.172503477828411,-0.0458609175181712,-0.00847152740019643,-1.68706244049941,-1.13329493829255,2.07733415871752,255.905722076665,247.970897504955,241.867186295947
0.47,0.0926563798564641,-0.00458263526202221,1.85118049365015,0.0609489714605602,0.0633854863366059,-0.0677383598555652,1.15001029436127,-1.45191608574877,-2.43879708278014,252.853866472162,244.964819734835,241.867186295947
0.48,-0.014061215907801,-0.00423216992088364,2.31690516502959,0.0588429650294724,-0.0116648673336878,-0.00891963705161208,1.40448225286083,1.84362188088372,-0.625622477223889,252.853866472162,242.782742977299,241.867186295947
0.49,0.0148418101956767,0.00489595423442514,2.25965384804882,-0.0550753131257938,-0.0115880719075237,0.0104864811646299,-2.08841222269986,0.864640498239346,1.15389556272987,252.853866472142,239.730887372794,241.867186295947
0.5,0.00536319412292848,0.072939995835357,2.25860205823206,-0.287826274834616,-0.0730493979979863,0.00357663190640196,0.0100930031313643,-2.27684548294852,3.01927312760605,250.717567549009,239.730887372794,241.867186295947
0.51,0.0833530562471004,-0.0141780923129485,1.96638426761201,0.0609491843898155,0.0822613074426776,0.019540409033284,1.96620837497278,0.0663816026975992,-1.5060622795079,247.970897504955,237.899774010092,241.867186295947
0.52,0.0928317166173628,-0.062856100089081,1.90913252520971,0.411830596886016,-0.0830953620686452,0.0752580741928445,-0.0531175410272392,1.95232424719367,0.239661132358212,244.919041900452,234.847918405589,241.867186295947
0.53,0.0931820712279926,0.00518797252012587,2.024337150041,0.061651044589528,-0.0863308098206948,-0.0354514419017237,-1.85350716564677,-0.816243183880386,2.01606509627818,244.919041900452,234.847918405589,241.867186295947
0.54,0.073524023547229,0.0440369653153378,2.20135042219848,-0.289932228106225,-0.00572200762266094,-0.0855119581200428,1.26063254919124,-1.82778826840739,-2.66876316068773,239.730887372794,234.847918405589,241.867186295947
0.55,0.0929485310192135,-0.0530271781328891,2.02608957463397,0.411831076036063,0.0240512958077511,0.104272940925894,1.67653132971089,1.20991177369564,-0.74513856773748,239.730887372794,237.899774010092,241.867186295947
0.56,0.102544045659076,-0.0241823200371289,2.20205124311958,0.061651044589528,-0.0917715103238078,0.0517499352211778,-1.5768349383675,1.53831794690402,0.825751718249767,237.899774010092,234.802140571455,241.867186295947
0.57,0.112606560980971,0.0635199021370315,2.25965384804882,-0.406659171449808,-0.118392834399948,-0.0519437417424451,-1.03097733492734,-2.05146116940882,2.49784180518657,234.847918405589,231.796062801084,241.867186295947
0.58,0.0544496935135279,0.0244957497488621,2.43316290913944,-0.172504116642558,0.0395953660173576,-0.0446880058788427,2.28952475012071,-0.841496186120415,-1.99379101549653,237.899774010092,234.847918405589,241.867186295947
0.59,0.0638117520944382,0.0155422093587085,2.49391915510878,-0.176712775770431,0.0342330999738572,0.0560499316974772,0.591002532409186,2.42931598686234,-0.309382686910123,234.847918405589,237.899774010092,241.867186295947
0.6,0.0639284646164736,-0.0338945959196712,2.43456460421895,0.061651044589528,-0.0649223838654645,-0.0319495898878652,-2.43159455571298,0.135105810540271,1.54060858111099,237.899774010092,239.730887372794,241.867186295947
0.61,0.0837031362286585,0.0340330077904926,2.37521015969774,-0.171802948522473,-0.0184490690982938,-0.088453900327727,0.595531160106567,-2.30574981149181,-2.96104143996768,234.847918405589,237.899774010092,241.867186295947
0.62,0.0154253639441303,-0.0821642804074466,2.78473687273107,0.29300132038549,-0.006573988016016,0.0833408273851877,2.76458227220234,0.444628029166228,-1.30650062869426,234.847918405589,237.899774010092,241.867186295947
0.63,0.141451702563061,-0.043548553194043,2.02784019106673,0.178378147623266,-0.116538026578131,0.0912356783531412,-1.01180406626522,1.76641080599735,0.607919798639341,237.899774010092,239.703420672021,241.867186295947
0.64,0.112664901737872,-0.0244740238216337,2.25965384804882,0.0630533808300158,-0.0687449768688675,-0.0925553136287983,-1.74320749298963,-1.43917993253823,2.28884588456273,234.847918405589,239.730887372794,241.867186295947
0.65,0.0635783802073448,0.00512958303817967,2.49496990787146,-0.173205604196326,0.0460448730040692,-0.044140601740058,2.0434962291638,-1.44187315111368,-2.25457570798293,237.899774010092,242.782742977299,241.867186295947
0.66,0.0734656916498309,0.0242041965758661,2.37731185136798,-0.287829682019858,0.0525744748074032,0.056736016604948,0.72731238281869,2.28155084587324,-0.429082860776847,237.899774010092,244.886997416267,241.867186295947
0.67,0.0543327196362378,-0.0434319514157668,2.43421501810178,0.177677352175653,-0.0627752893052153,-0.0299606722137216,-2.33029082207967,0.725752492492891,1.34173724267475,239.730887372794,242.782742977299,241.867186295947
0.68,0.0642199735096219,0.014666925236201,2.37486097238327,-0.0550763246124055,-0.00632637487312101,-0.0655690527186842,0.358596386945616,-2.34827738373293,-3.01324439828761,239.730887372794,242.782742977299,241.867186295947
0.69,0.073990572430046,-0.0234241781025512,2.31620721584887,0.0581465348292879,0.0659398273407402,0.0409296481609517,2.25914979462671,0.51423641615614,-1.32188692553931,239.730887372794,242.782742977299,241.867186295947
0.7,0.0838777997116716,0.00495464049637755,2.31550724582371,-0.0550764310903001,-0.0280403152851096,0.0792071617066998,-0.950837623608355,2.11199314209458,0.399246023855207,239.730887372794,239.776665207233,241.867186295947
0.71,0.0929486727624038,-0.00522414882873785,2.20170000835524,-0.0529740979068394,-0.0617022591070682,-0.0697106786680596,-1.51183667359796,-1.60144904826996,2.36091450133818,242.782742977299,242.782742977299,241.867186295947
0.72,0.0931235975852102,0.00530449900150973,2.14199600426928,-0.0571787642741056,0.0658660682127631,-0.0660439489662818,1.63450445267375,-1.38557262082475,-2.30064255688099,242.782742977299,239.730887372794,241.867186295947
0.73,0.0737572271126633,0.0246708517550509,2.1999499769235,-0.173205604196326,0.0574802672487554,0.0523908231914746,0.920592345688642,2.00556471233171,-0.508898316934121,242.782742977299,237.927240710706,241.867186295947
0.74,0.0642197608816506,-0.00434956901222015,2.31620801361322,-0.0571785513183163,-0.0634093033911548,0.0110614954566249,-2.26324673444795,0.495785405258828,1.33046213979196,242.782742977299,237.853996175764,241.867186295947
0.75,0.131972953602275,-0.05302788685759,1.96708413126868,0.294405945819854,0.0486107654749664,-0.133663049295711,-0.359644311788527,-1.95620827352848,3.10833877021886,242.782742977299,239.730887372794,241.867186295947
0.76,-0.00458276371815164,-0.0631482822666628,2.66988135542418,0.295807164095823,-0.0155215206248494,0.0613823237912911,2.68056546172296,0.174175588961287,-1.39556627128573,242.782742977299,239.703420672231,241.867186295947
0.77,0.0546821529250922,-0.00469933449481714,2.3738127723081,-0.0550768037362442,-0.0204239825512801,0.0509419525534932,-0.744159466368458,2.25482753684114,0.295576438479034,239.730887372794,239.730887372794,241.867186295947
0.78,0.0836443303745232,-0.00440793634101686,2.25790458772326,0.0609506217613187,-0.068137337537145,-0.0487145475185597,-1.93611032051642,-1.1633249470138,2.13883332532184,239.730887372794,239.730887372794,241.867186295947
0.79,0.0445034920472138,0.00512958303817967,2.4342162944191,-0.173205604196326,0.0231151525524985,-0.0383739905276572,1.62367349095858,-1.82183795769515,-2.48467984836459,239.730887372794,234.893696239778,241.867186295947
0.8,0.0832946579056646,-0.00452451154964212,2.20134973084225,0.177678736281827,0.0527609248404907,0.0646123521500389,1.61409699693417,1.50738225254712,-0.739033137872556,239.730887372794,237.927240710589,241.867186295947
0.81,0.103010722989202,0.024437789932829,2.25860453118292,-0.172505341084959,-0.0773960415185592,0.0722375759893471,-2.04770756626952,0.968476248560296,1.05278780344831,239.730887372794,237.899774010092,241.867186295947
0.82,0.132089568672025,-0.0340694764471992,2.08404184548328,0.0623512544621072,-0.01609572595323,-0.135459628610839,-0.813085952254138,-1.91989825951933,2.7708987184659,237.899774010092,234.893696239694,241.867186295947
0.83,0.141976720652346,-0.00434976833992659,1.96638426761201,-0.0571775930706647,0.14194863234463,-0.00518608400380102,1.96578946671066,-0.0748874998299487,-1.63794263249986,239.730887372794,239.730887372794,241.867186295947
0.84,0.0738152843787958,0.0144342000661084,2.37556291017463,-0.171105294012311,0.0134943426747692,0.0739928716515776,-0.20130088851416,2.37319491700952,0.0127170888273124,237.899774010092,237.927240710522,241.867186295947
0.85,0.0637533891887934,-0.0144699334152535,2.37696168022354,-0.0550772296476766,-0.0559812777906484,-0.0337634438857455,-2.23935088207914,-0.798929256823253,1.89032085369692,239.730887372794,242.782742977299,241.867186295947
0.86,0.161052029625478,-0.0240658334235079,1.90982818749209,0.061651044589528,0.101544386216432,-0.127301446232091,0.903859756198721,-1.68353262462083,-2.61660622222422,239.730887372794,239.730887372794,241.867186295947
0.87,0.05415747146816,-0.00458281244098853,2.4352659835619,-0.0564772235077714,0.0398599482913857,0.0369488620650474,1.88444292776454,1.54356241839035,-0.907699472822789,237.899774010309,239.730887372794,241.867186295947
0.88,0.121794850844247,-0.0145863890272395,2.02818445911098,0.0630508255203745,-0.111833279889001,0.0503990669188899,-1.7043182802537,1.10127508206223,1.02819734094854,242.782742977299,244.919041900452,241.867186295947
0.89,0.0641609993271452,0.286556388780584,2.49252171457483,-1.45581928857435,-0.28709338544313,0.0617137409369235,0.278458857744924,-2.87307065056806,2.70958363515817,237.899774010092,239.7766652074,241.867186295947
