t,iq,id,vq,vd,ia,ib,va,vb,theta_e,omega,omega_obs,r
0,0,0,0,0,0,0,0,0,0,-0.144963141214248,0,0
0.01,-0.00464105132025594,-0.00464105132025594,-0.027848879358281,-0.0557772798034009,-0.00464082883052229,0.00464127379932405,-0.0278462054548192,0.0557786147689861,-1.57084426515748,-0.144963141214248,273.911670143239,-0.144963141214248
0.02,-0.00464105132025594,-0.00464105132025594,-0.027848879358281,-0.0557772798034009,-0.00464082883052229,0.00464127379932405,-0.0278462054548192,0.0557786147689861,-1.57084426515748,-0.144963141214248,273.911670143239,-0.144963141214248
0.03,-0.00464105132025594,-0.00464105132025594,-0.027848879358281,-0.0557772798034009,-0.00464082883052229,0.00464127379932405,-0.0278462054548192,0.0557786147689861,-1.57084426515748,-0.144963141214248,273.911670143239,-0.144963141214248
0.04,-0.00464105132025594,-0.00464105132025594,-0.027848879358281,-0.0557772798034009,-0.00464082883052229,0.00464127379932405,-0.0278462054548192,0.0557786147689861,-1.57084426515748,-0.144963141214248,273.911670143239,-0.144963141214248
0.05,-0.00464105132025594,-0.00464105132025594,-0.027848879358281,-0.0557772798034009,-0.00464082883052229,0.00464127379932405,-0.0278462054548192,0.0557786147689861,-1.57084426515748,-0.144963141214248,273.911670143239,-0.144963141214248
0.06,-0.00464105132025594,-0.00464105132025594,-0.027848879358281,-0.0557772798034009,-0.00464082883052229,0.00464127379932405,-0.0278462054548192,0.0557786147689861,-1.57084426515748,-0.144963141214248,273.911670143239,-0.144963141214248
0.07,-0.00464105132025594,-0.00464105132025594,-0.027848879358281,-0.0557772798034009,-0.00464082883052229,0.00464127379932405,-0.0278462054548192,0.0557786147689861,-1.57084426515748,-0.144963141214248,273.911670143239,-0.144963141214248
0.08,-0.00464105132025594,-0.00464105132025594,-0.027848879358281,-0.0557772798034009,-0.00464082883052229,0.00464127379932405,-0.0278462054548192,0.0557786147689861,-1.57084426515748,-0.144963141214248,273.911670143239,-0.144963141214248
0.09,-0.00464105132025594,-0.00464105132025594,-0.027848879358281,-0.0557772798034009,-0.00464082883052229,0.00464127379932405,-0.0278462054548192,0.0557786147689861,-1.57084426515748,-0.144963141214248,273.911670143239,-0.144963141214248
0.1,-0.00464105132025594,-0.00464105132025594,-0.027848879358281,-0.0557772798034009,-0.00464082883052229,0.00464127379932405,-0.0278462054548192,0.0557786147689861,-1.57084426515748,-0.144963141214248,273.911670143239,-0.144963141214248
0.11,-0.00464105132025594,-0.00464105132025594,-0.027848879358281,-0.0557772798034009,-0.00464082883052229,0.00464127379932405,-0.0278462054548192,0.0557786147689861,-1.57084426515748,-0.144963141214248,273.911670143239,-0.144963141214248
0.12,-0.00464105132025594,-0.00464105132025594,-0.027848879358281,-0.0557772798034009,-0.00464082883052229,0.00464127379932405,-0.0278462054548192,0.0557786147689861,-1.57084426515748,-0.144963141214248,273.911670143239,-0.144963141214248
0.13,-0.00464105132025594,-0.00464105132025594,-0.027848879358281,-0.0557772798034009,-0.00464082883052229,0.00464127379932405,-0.0278462054548192,0.0557786147689861,-1.57084426515748,-0.144963141214248,273.911670143239,-0.144963141214248
0.14,-0.00464105132025594,-0.00464105132025594,-0.027848879358281,-0.0557772798034009,-0.00464082883052229,0.00464127379932405,-0.0278462054548192,0.0557786147689861,-1.57084426515748,-0.144963141214248,273.911670143239,-0.144963141214248
0.15,-0.00464105132025594,-0.00464105132025594,-0.027848879358281,-0.0557772798034009,-0.00464082883052229,0.00464127379932405,-0.0278462054548192,0.0557786147689861,-1.57084426515748,-0.144963141214248,273.911670143239,-0.144963141214248
0.16,-0.00464105132025594,-0.00464105132025594,-0.027848879358281,-0.0557772798034009,-0.00464082883052229,0.00464127379932405,-0.0278462054548192,0.0557786147689861,-1.57084426515748,-0.144963141214248,273.911670143239,-0.144963141214248
0.17,-0.00464105132025594,-0.00464105132025594,-0.027848879358281,-0.0557772798034009,-0.00464082883052229,0.00464127379932405,-0.0278462054548192,0.0557786147689861,-1.57084426515748,-0.144963141214248,273.911670143239,-0.144963141214248
0.18,-0.00464105132025594,-0.00464105132025594,-0.027848879358281,-0.0557772798034009,-0.00464082883052229,0.00464127379932405,-0.0278462054548192,0.0557786147689861,-1.57084426515748,-0.144963141214248,273.911670143239,-0.144963141214248
0.19,-0.00464105132025594,-0.00464105132025594,-0.027848879358281,-0.0557772798034009,-0.00464082883052229,0.00464127379932405,-0.0278462054548192,0.0557786147689861,-1.57084426515748,-0.144963141214248,273.911670143239,-0.144963141214248
0.2,-0.00464105132025594,-0.00464105132025594,-0.027848879358281,-0.0557772798034009,-0.00464082883052229,0.00464127379932405,-0.0278462054548192,0.0557786147689861,-1.57084426515748,-0.144963141214248,273.911670143239,-0.144963141214248
0.21,-0.00464105132025594,-0.00464105132025594,-0.027848879358281,-0.0557772798034009,-0.00464082883052229,0.00464127379932405,-0.0278462054548192,0.0557786147689861,-1.57084426515748,-0.144963141214248,273.911670143239,-0.144963141214248
0.22,-0.00464105132025594,-0.00464105132025594,-0.027848879358281,-0.0557772798034009,-0.00464082883052229,0.00464127379932405,-0.0278462054548192,0.0557786147689861,-1.57084426515748,-0.144963141214248,273.911670143239,-0.144963141214248
0.23,-0.00464105132025594,-0.00464105132025594,-0.027848879358281,-0.0557772798034009,-0.00464082883052229,0.00464127379932405,-0.0278462054548192,0.0557786147689861,-1.57084426515748,-0.144963141214248,273.911670143239,-0.144963141214248
0.24,-0.00464105132025594,-0.00464105132025594,-0.027848879358281,-0.0557772798034009,-0.00464082883052229,0.00464127379932405,-0.0278462054548192,0.0557786147689861,-1.57084426515748,-0.144963141214248,273.911670143239,-0.144963141214248
0.25,-0.00464105132025594,-0.00464105132025594,-0.027848879358281,-0.0557772798034009,-0.00464082883052229,0.00464127379932405,-0.0278462054548192,0.0557786147689861,-1.57084426515748,-0.144963141214248,273.911670143239,-0.144963141214248
0.26,-0.00464105132025594,-0.00464105132025594,-0.027848879358281,-0.0557772798034009,-0.00464082883052229,0.00464127379932405,-0.0278462054548192,0.0557786147689861,-1.57084426515748,-0.144963141214248,273.911670143239,-0.144963141214248
0.27,-0.00464105132025594,-0.00464105132025594,-0.027848879358281,-0.0557772798034009,-0.00464082883052229,0.00464127379932405,-0.0278462054548192,0.0557786147689861,-1.57084426515748,-0.144963141214248,273.911670143239,-0.144963141214248
0.28,-0.00464105132025594,-0.00464105132025594,-0.027848879358281,-0.0557772798034009,-0.00464082883052229,0.00464127379932405,-0.0278462054548192,0.0557786147689861,-1.57084426515748,-0.144963141214248,273.911670143239,-0.144963141214248
0.29,-0.00464105132025594,-0.00464105132025594,-0.027848879358281,-0.0557772798034009,-0.00464082883052229,0.00464127379932405,-0.0278462054548192,0.0557786147689861,-1.57084426515748,-0.144963141214248,273.911670143239,-0.144963141214248
0.3,-0.00464105132025594,-0.00464105132025594,-0.027848879358281,-0.0557772798034009,-0.00464082883052229,0.00464127379932405,-0.0278462054548192,0.0557786147689861,-1.57084426515748,-0.144963141214248,273.911670143239,-0.144963141214248
0.31,-0.00464105132025594,-0.00464105132025594,-0.027848879358281,-0.0557772798034009,-0.00464082883052229,0.00464127379932405,-0.0278462054548192,0.0557786147689861,-1.57084426515748,-0.144963141214248,273.911670143239,-0.144963141214248
0.32,-0.00464105132025594,-0.00464105132025594,-0.027848879358281,-0.0557772798034009,-0.00464082883052229,0.00464127379932405,-0.0278462054548192,0.0557786147689861,-1.57084426515748,-0.144963141214248,273.911670143239,-0.144963141214248
0.33,-0.00464105132025594,-0.00464105132025594,-0.027848879358281,-0.0557772798034009,-0.00464082883052229,0.00464127379932405,-0.0278462054548192,0.0557786147689861,-1.57084426515748,-0.144963141214248,273.911670143239,-0.144963141214248
0.34,-0.00464105132025594,-0.00464105132025594,-0.027848879358281,-0.0557772798034009,-0.00464082883052229,0.00464127379932405,-0.0278462054548192,0.0557786147689861,-1.57084426515748,-0.144963141214248,273.911670143239,-0.144963141214248
0.35,-0.00464105132025594,-0.00464105132025594,-0.027848879358281,-0.0557772798034009,-0.00464082883052229,0.00464127379932405,-0.0278462054548192,0.0557786147689861,-1.57084426515748,-0.144963141214248,273.911670143239,-0.144963141214248
0.36,-0.00464105132025594,-0.00464105132025594,-0.027848879358281,-0.0557772798034009,-0.00464082883052229,0.00464127379932405,-0.0278462054548192,0.0557786147689861,-1.57084426515748,-0.144963141214248,273.911670143239,-0.144963141214248
0.37,-0.00464105132025594,-0.00464105132025594,-0.027848879358281,-0.0557772798034009,-0.00464082883052229,0.00464127379932405,-0.0278462054548192,0.0557786147689861,-1.57084426515748,-0.144963141214248,273.911670143239,-0.144963141214248
0.38,-0.00464105132025594,-0.00464105132025594,-0.027848879358281,-0.0557772798034009,-0.00464082883052229,0.00464127379932405,-0.0278462054548192,0.0557786147689861,-1.57084426515748,-0.144963141214248,273.911670143239,-0.144963141214248
0.39,-0.00464105132025594,-0.00464105132025594,-0.027848879358281,-0.0557772798034009,-0.00464082883052229,0.00464127379932405,-0.0278462054548192,0.0557786147689861,-1.57084426515748,-0.144963141214248,273.911670143239,-0.144963141214248
0.4,-0.00464105132025594,-0.00464105132025594,-0.027848879358281,-0.0557772798034009,-0.00464082883052229,0.00464127379932405,-0.0278462054548192,0.0557786147689861,-1.57084426515748,-0.144963141214248,273.911670143239,-0.144963141214248
0.41,-0.00464105132025594,-0.00464105132025594,-0.027848879358281,-0.0557772798034009,-0.00464082883052229,0.00464127379932405,-0.0278462054548192,0.0557786147689861,-1.57084426515748,-0.144963141214248,273.911670143239,-0.144963141214248
0.42,-0.00464105132025594,-0.00464105132025594,-0.027848879358281,-0.0557772798034009,-0.00464082883052229,0.00464127379932405,-0.0278462054548192,0.0557786147689861,-1.57084426515748,-0.144963141214248,273.911670143239,-0.144963141214248
0.43,-0.00464105132025594,-0.00464105132025594,-0.027848879358281,-0.0557772798034009,-0.00464082883052229,0.00464127379932405,-0.0278462054548192,0.0557786147689861,-1.57084426515748,-0.144963141214248,273.911670143239,-0.144963141214248
0.44,-0.00464105132025594,-0.00464105132025594,-0.027848879358281,-0.0557772798034009,-0.00464082883052229,0.00464127379932405,-0.0278462054548192,0.0557786147689861,-1.57084426515748,-0.144963141214248,273.911670143239,-0.144963141214248
0.45,-0.00464105132025594,-0.00464105132025594,-0.027848879358281,-0.0557772798034009,-0.00464082883052229,0.00464127379932405,-0.0278462054548192,0.0557786147689861,-1.57084426515748,-0.144963141214248,273.911670143239,-0.144963141214248
0.46,-0.00464105132025594,-0.00464105132025594,-0.027848879358281,-0.0557772798034009,-0.00464082883052229,0.00464127379932405,-0.0278462054548192,0.0557786147689861,-1.57084426515748,-0.144963141214248,273.911670143239,-0.144963141214248
0.47,-0.00464105132025594,-0.00464105132025594,-0.027848879358281,-0.0557772798034009,-0.00464082883052229,0.00464127379932405,-0.0278462054548192,0.0557786147689861,-1.57084426515748,-0.144963141214248,273.911670143239,-0.144963141214248
0.48,-0.00464105132025594,-0.00464105132025594,-0.027848879358281,-0.0557772798034009,-0.00464082883052229,0.00464127379932405,-0.0278462054548192,0.0557786147689861,-1.57084426515748,-0.144963141214248,273.911670143239,-0.144963141214248
0.49,-0.00464105132025594,-0.00464105132025594,-0.027848879358281,-0.0557772798034009,-0.00464082883052229,0.00464127379932405,-0.0278462054548192,0.0557786147689861,-1.57084426515748,-0.144963141214248,273.911670143239,-0.144963141214248
0.5,-0.00464105132025594,-0.00464105132025594,-0.027848879358281,-0.0557772798034009,-0.00464082883052229,0.00464127379932405,-0.0278462054548192,0.0557786147689861,-1.57084426515748,-0.144963141214248,273.911670143239,-0.144963141214248
0.51,-0.023940552580512,0.0246708517550509,0.0296439568979995,-0.173205604196326,-0.0239417352332395,-0.0246697040558134,0.0296522600569897,0.173204182914552,-1.57084426515748,-0.144963141214248,281.846494714949,-0.144963141214248
0.52,-0.0635065758531244,-0.0437235887540002,0.266581545231675,0.179079368982457,-0.0635044797429022,0.0437266331050184,0.266572960153643,-0.179092148259456,-1.57084426515748,-0.144963141214248,281.846494714949,-0.144963141214248
0.53,-0.0823227875941805,-0.0824194553128929,0.380117164304038,0.294764992571908,-0.0823188364458568,0.0824234016378285,0.380103033316181,-0.29478321442765,-1.57084426515748,-0.144963141214248,281.846494714949,-0.144963141214248
0.54,0.00508125899591784,-0.0240856719526053,-0.0275587861856324,0.061070262308406,0.00508241361775396,0.0240854283376937,-0.0275617137623427,-0.0610689411151496,-1.57084426515748,-0.144963141214248,281.846494714949,-0.144963141214248
0.55,-0.160053230777046,-0.0822746697109006,0.730011481940151,0.294185036197714,-0.160049286480191,0.0822823423061703,0.72999737835241,-0.294220031414781,-1.57084426515748,-0.144963141214248,281.846494714949,-0.144963141214248
0.56,-0.0043029204637444,-0.00420631164759824,0.0287752095800124,-0.058099465034257,-0.00430271881510733,0.00420651791772629,0.0287779947401682,0.0580980855310684,-1.57084426515748,-0.144963141214248,281.846494714949,-0.144963141214248
0.57,0.0246708517550509,0.0246708517550509,-0.203810627620364,-0.173205604196326,0.0246696690464668,-0.0246720344069393,-0.203802324193124,0.173215374345067,-1.57084426515748,-0.144963141214248,281.846494714949,-0.144963141214248
0.58,-0.0729872070554238,-0.0631682879231049,0.323784759724523,0.178499058648164,-0.0729841787872692,0.0631717867377163,0.323776202399889,-0.178514580154265,-1.57084426515748,-0.144963141214248,281.846494714949,-0.144963141214248
0.59,0.0828601832745706,0.112027261472846,-0.436397702316641,-0.640017939896592,0.082854812775883,-0.11203123352563,-0.43636702040315,0.64003885935246,-1.57084426515748,-0.144963141214248,281.846494714949,-0.144963141214248
0.6,-0.0239892594694647,-0.062975266619375,0.0302255575509569,0.177919220207286,-0.0239862405107361,0.0629764165528319,0.0302170283601407,-0.177920668966586,-1.57084426515748,-0.144963141214248,281.846494714949,-0.144963141214248
0.61,0.0442121204719221,0.0442121204719221,-0.262464543707726,-0.290633928589255,0.0442100009644595,-0.0442142398777815,-0.2624506108915,0.290646510375761,-1.57084426515748,-0.144963141214248,281.846494714949,-0.144963141214248
0.62,-0.0628306479013257,-0.0433858701999091,0.263103727291139,0.177339853739924,-0.0628285679815547,0.0433888821484362,0.263095225606616,-0.177352466298025,-1.57084426515748,-0.144963141214248,281.846494714949,-0.144963141214248
0.63,-0.00517164391721808,-0.00483399408278763,0.0331215390539126,-0.0546178389484538,-0.00517141217751466,0.00483424199737433,0.0331241573056205,0.0546162510933477,-1.57084426515748,-0.144963141214248,281.846494714949,-0.144963141214248
0.64,0.0249602069962822,0.0251048846168978,-0.146604230821924,-0.175524013959404,0.0249590034805409,-0.0251060811395039,-0.146595816319649,0.175531041724491,-1.57084426515748,-0.144963141214248,278.846520656244,-0.144963141214248
0.65,-0.0633130735273156,-0.0436271566411119,0.265710146003491,0.178499884528391,-0.0633109820401133,0.0436301917160563,0.265701588705996,-0.178512622032604,-1.57084426515748,-0.144963141214248,278.794639110445,-0.144963141214248
0.66,0.0149002173966153,-0.00464105132025594,-0.145156711533001,-0.0557772798034009,0.0149004398638952,0.0046403370228993,-0.145154037494748,0.0557842383143767,-1.57084426515748,-0.144963141214248,281.846494714949,-0.144963141214248
0.67,0.0246708517550509,0.0246708517550509,-0.203810627620364,-0.173205604196326,0.0246696690464668,-0.0246720344069393,-0.203802324193124,0.173215374345067,-1.57084426515748,-0.144963141214248,281.846494714949,-0.144963141214248
0.68,0.0139364852489631,-0.00526747721622986,-0.140239153155665,-0.0528816272001314,0.0139367377471821,0.00526680911789455,-0.140236617935906,0.052888349974738,-1.57084426515748,-0.144963141214248,281.846494714949,-0.144963141214248
0.69,-0.208812660251355,-0.131032999706174,0.964640346814483,0.52846927949149,-0.208806378503972,0.131043009692627,0.964615011754144,-0.528515522162947,-1.57084426515748,-0.144963141214248,281.846494714949,-0.144963141214248
0.7,0.0829093221201138,0.111932223356258,-0.436691390324584,-0.639445534484562,0.0829039561773413,-0.111936197764786,-0.436660735850934,0.63946646802001,-1.57084426515748,-0.144963141214248,278.846520656077,-0.144963141214248
0.71,0.0149002173966153,-0.00464105132025594,-0.145156711533001,-0.0557772798034009,0.0149004398638952,0.0046403370228993,-0.145154037494748,0.0557842383143767,-1.57084426515748,-0.144963141214248,278.794639110445,-0.144963141214248
0.72,-0.00464105132025594,-0.00464105132025594,0.0308050367290811,-0.0557772798034009,-0.00464082883052229,0.00464127379932405,0.0308077105651469,0.0557758029962908,-1.57084426515748,-0.144963141214248,281.846494714949,-0.144963141214248
0.73,0.0246227142309197,0.0245264391826573,-0.144867738043925,-0.172627063582505,0.0246215384452931,-0.0245276195270775,-0.144859462418703,0.172634008106299,-1.57084426515748,-0.144963141214248,278.794639110445,-0.144963141214248
0.74,0.0245745963409772,0.0246708517550509,-0.202943883951593,-0.173205604196326,0.0245734136325037,-0.0246720297926123,-0.202935580525349,0.173215332794795,-1.57084426515748,-0.144963141214248,278.794639110445,-0.144963141214248
0.75,0.0048889935884674,0.0244302623053386,-0.0853473729518931,-0.172627299555913,0.00488782243607777,-0.0244304966476144,-0.0853390973837504,0.172631390770865,-1.57084426515748,-0.144963141214248,278.794639110445,-0.144963141214248
0.76,0.0247670679007471,0.0247670679007471,-0.204099424310982,-0.173783790850036,0.0247658805796079,-0.0247682551649693,-0.204091093166089,0.173793574842553,-1.57084426515748,-0.144963141214248,278.794639110445,-0.144963141214248
0.77,-0.0728911970620459,-0.0630724644478566,0.264843225562928,0.178501300315451,-0.0728881733876222,0.0630759586600163,0.264834668198559,-0.178513996260916,-1.57084426515748,-0.144963141214248,278.794639110445,-0.144963141214248
0.78,-0.004496786004278,-0.004496786004278,-0.0287149158332189,-0.0563552304837024,-0.00449657043055314,0.00449700156766885,-0.0287122142227528,0.056356606964994,-1.57084426515748,-0.144963141214248,278.794639110445,-0.144963141214248
0.79,-0.0240861627939991,-0.0240861627939991,0.0305164168369212,-0.0557772798034009,-0.0240850081151182,0.0240873174175279,0.0305190906733186,0.0557758168322558,-1.57084426515748,-0.144963141214248,278.846520655828,-0.144963141214248
0.8,-0.0240381136170525,0.0244305077215902,0.0302279147837273,-0.172627889462732,-0.0240392847479685,-0.0244293553457125,0.0302361902473481,0.172626440187637,-1.57084426515748,-0.144963141214248,278.794639110445,-0.144963141214248
0.81,-0.0337607184371735,-0.00449687435146266,0.0885934466968706,-0.0563548765502907,-0.0337605028255879,0.00449849277985648,0.0885961481555773,0.0563506294607677,-1.57084426515748,-0.144963141214248,281.794613169622,-0.144963141214248
0.82,0.0440199237819086,0.0438757762643985,-0.261599214386611,-0.289478971068883,0.0440178203984574,-0.0438778864570497,-0.261585336938152,0.289491511374246,-1.57084426515748,-0.144963141214248,281.846494714949,-0.144963141214248
0.83,-0.0433873132661372,-0.0239421232600839,0.146382563858493,-0.0563546405768828,-0.0433861654700978,0.0239442031493275,0.146385265239485,0.0563476231717093,-1.57084426515748,-0.144963141214248,278.794639110445,-0.144963141214248
0.84,0.0148041583199882,-0.00464105132025594,-0.144580061050216,-0.172628361409561,0.0148043807873785,0.00464034162781415,-0.144571785363109,0.17263529214259,-1.57084426515748,-0.144963141214248,278.794639110445,-0.144963141214248
