t,iq,id,vq,vd,ia,ib,va,vb,theta_e,omega,omega_obs,r
0,0,0,0,0,0,0,0,0,0,-0.144963141214248,0,0
0.01,-0.015642705729688,-0.0233616400031313,-0.0218665680963073,0.0574238992014909,0.0124640086064039,0.0252013681303418,-0.0606844768978017,-0.00964599727625976,-2.62011914539939,-0.144963141214248,-0.144963141214248,-0.144963141214248
0.02,-0.00487551443739305,-0.00446520398240311,-0.0854471695138732,-0.056481753278902,0.0014429380590554,0.00645186929435386,0.00640832225668259,0.102226907598958,-2.62011914539939,-0.144963141214248,-0.144963141214248,-0.144963141214248
0.03,-0.00446521665183554,-0.00464105132025594,-0.0872064953630644,-0.0557772798034009,0.00179980610044286,0.00618370561280915,0.00492106027310643,0.103401455219757,-2.62011914539939,-0.144963141214248,-0.144963141214248,-0.144963141214248
0.04,-0.0534942231124358,-0.00434801465534243,0.148464693510557,-0.0571860237307294,-0.0228784902179483,0.0485500960163147,0.123544129965026,-0.100243974784024,-2.62011914539939,-0.144963141214248,-0.144963141214248,-0.144963141214248
0.05,0.0630501518972293,-0.0237720982837166,-0.376254383466286,0.0595380810456694,0.0520214143284051,-0.0428276401678493,-0.239058899174153,0.296585547351583,-2.62011914539939,-0.144963141214248,-0.144963141214248,-0.144963141214248
0.06,0.0635775925353349,-0.0241823200371289,-0.320766685905351,0.061651044589528,0.0526398608518107,-0.0430806212173084,-0.213249361332015,0.247420346732377,-2.62011914539939,-0.144963141214248,-0.144963141214248,-0.144963141214248
0.07,-0.0143530910173494,-0.0240651307144447,-0.027848879358281,0.0609468249199181,0.0137164279302007,0.0244336109261656,-0.0667192949796738,-0.00621379326551079,-2.62011914539939,-0.144963141214248,-0.144963141214248,-0.144963141214248
0.08,0.0343828956752886,-0.024065139160733,-0.262112820521747,0.060946875675757,0.0379946733187107,-0.0178246805650951,-0.183419874251854,0.196913184083585,-2.62011914539939,-0.144963141214248,-0.144963141214248,-0.144963141214248
0.09,-0.0532598782522207,-0.00446529267509462,0.147057775401507,-0.0564813979613328,-0.022660059233666,0.0484053218731409,0.122232290783177,-0.0993750708759662,-2.62011914539939,-0.144963141214248,-0.144963141214248,-0.144963141214248
0.1,-0.0433720968026217,0.0243779417955688,0.146706178975241,-0.171797469392457,-0.0427439456106669,0.0254632665005195,0.222046100531309,-0.0416245441777732,-2.62011914539939,-0.144963141214248,-0.144963141214248,-0.144963141214248
0.11,-0.024123742270585,-0.00446531802062401,0.0308050367290811,-0.0564812964229564,-0.00814562822045843,0.0231417965390976,0.0643199318148677,0.0014260101081942,-2.62011914539939,-0.144963141214248,-0.144963141214248,-0.144963141214248
0.12,0.0149002173966153,-0.0241823200371289,-0.086502795445643,0.061651044589528,0.0283908206211671,-0.000873146781039884,-0.0965488513280158,0.0442933880633603,-2.62011914539939,-0.144963141214248,-0.144963141214248,-0.144963141214248
0.13,-0.208594417122036,0.0827675340233627,0.963290555101665,-0.522674916943592,-0.175679624563851,0.139637978558467,0.933075365925113,-0.574880964942989,-2.62011914539939,-0.144963141214248,-0.144963141214248,-0.144963141214248
0.14,-0.0154072923295909,0.0250222423377212,0.0357270315882407,-0.175317197252452,-0.0293717091621845,0.000894410101221214,0.169812820104196,0.0563573115648923,-2.62011914539939,-0.144963141214248,-0.144963141214248,-0.144963141214248
0.15,0.0339729991217472,-0.0238895156672919,-0.260003723741307,0.0602434173971254,0.0376381992467706,-0.017556753276287,-0.18175925122604,0.195434849228022,-2.62011914539939,-0.144963141214248,-0.144963141214248,-0.144963141214248
0.16,0.0144903208409449,-0.0240652067355088,-0.143399109745353,0.060947281749324,0.0280850799210837,-0.000576072150552229,-0.124282001656988,0.0939779755715323,-2.62011914539939,-0.144963141214248,-0.144963141214248,-0.144963141214248
0.17,-0.00376276490526561,-0.00475815617558799,-0.0320668194260953,-0.0550735677190342,0.00225127828413852,0.00563295624081627,0.0317791705669148,0.0552400496694906,-2.62011914539939,-0.144963141214248,-0.144963141214248,-0.144963141214248
0.18,0.0344414861134865,-0.0241823200371289,-0.262464543707726,0.061651044589528,0.0381254665408133,-0.0178171088880585,-0.18420566315285,0.196867370747677,-2.62011914539939,-0.144963141214248,-0.144963141214248,-0.144963141214248
0.19,-0.00475813927859475,-0.00464105132025594,-0.0271459907810091,-0.0557772798034009,0.00165388425193505,0.00643769474524514,0.0348407013328919,0.0513238276863848,-2.62011914539939,-0.144963141214248,-2.28126206436718,-0.144963141214248
0.2,-0.0046995910762813,-0.00446543205217986,-0.0274974604215236,-0.0564808395937121,0.00153077350413016,0.0062994422114939,0.0352756607026386,0.0519790662943863,-2.62011914539939,-0.144963141214248,-2.28126206436718,-0.144963141214248
0.21,0.0343244150477244,-0.0238896423727237,-0.203107840450609,0.0602440265205866,0.0378133698844372,-0.0178613980149321,-0.153416620807298,0.146100917327692,-2.62011914539939,-0.144963141214248,-2.28126206436718,-0.144963141214248
0.22,-0.0238311321787069,-0.00475811393972998,0.0877021116514505,-0.0550738215247675,-0.00774598279781363,0.0230339371293408,0.0914432821239373,-0.0486097969535716,-2.62011914539939,-0.144963141214248,-2.28126206436718,-0.144963141214248
0.23,-0.0235385220847526,-0.00475810549341528,0.0859455240060428,-0.0550738722807648,-0.00760022396380999,0.0227802147821478,0.090568267354174,-0.04708665897188,-2.62011914539939,-0.144963141214248,-2.28126206436718,-0.144963141214248
0.24,0.0633437291602038,-0.0240652743146748,-0.378015788302933,0.0609476878492727,0.0524218711450908,-0.0429361488423135,-0.241158608116619,0.297410629587638,-2.62011914539939,-0.144963141214248,-2.28126206436718,-0.144963141214248
0.25,0.0149002173966153,-0.0241823200371289,-0.086502795445643,0.061651044589528,0.0283908206211671,-0.000873146781039884,-0.0965488513280158,0.0442933880633603,-2.62011914539939,-0.144963141214248,-2.28126206436718,-0.144963141214248
0.26,0.0341489140387915,-0.0241823200371289,-0.260708209646995,0.061651044589528,0.0379797193227388,-0.0175634237144381,-0.183330730698589,0.195344477930252,-2.62011914539939,-0.144963141214248,-2.28126206436718,-0.144963141214248
0.27,-0.0154063589392059,-0.0235387079273844,0.0357224171728266,0.0581350222258115,0.0127352798629074,0.0250846429806721,-0.0326126486640687,-0.059934856677722,-2.62011914539939,-0.144963141214248,-2.28126206436718,-0.144963141214248
0.28,-0.024123814068478,-0.0047580632575578,0.0891077367080542,-0.0550741260864949,-0.00789182866698995,0.0232876922743387,0.0921437700452957,-0.0498284431551169,-2.62011914539939,-0.144963141214248,-2.28126206436718,-0.144963141214248
0.29,-0.043548083517521,0.0243783430275857,0.147410487390951,-0.171799398274522,-0.0428319627625272,0.0256156622543534,0.222398630146944,-0.0422342793129964,-2.62011914539939,-0.144963141214248,-5.05997659186742,-0.144963141214248
0.3,0.0143737397153488,-0.0237728373961439,-0.0836934723153059,0.059541888053954,0.0277734946768366,-0.000620632503035051,-0.0933205433159687,0.0429081569918224,-2.62011914539939,-0.144963141214248,-7.16423103157285,-0.144963141214248
0.31,-0.0239483468491422,-0.00475803791424931,0.0884055326982025,-0.0550742783807135,-0.00780444018370249,0.0231355344658226,0.0917940933159699,-0.0492194959656059,-2.62011914539939,-0.144963141214248,-7.16423103157285,-0.144963141214248
0.32,0.0341490407442233,-0.0238898746678657,-0.261060084957586,0.060245143255828,0.0377262071330017,-0.0177092176776618,-0.182286982840481,0.196349945584131,-2.62011914539939,-0.144963141214248,-7.16423103157285,-0.144963141214248
0.33,-0.00423165736529574,-0.00475802102167315,-0.0879071527882683,-0.0550743798923882,0.00201757840611299,0.00603945903828578,0.00396254720653235,0.103658830070125,-2.62011914539939,-0.144963141214248,-5.02793210842083,-0.144963141214248
0.34,0.0824174484921961,-0.0238899168993061,-0.492516376268063,0.0602453462791774,0.061771553466829,-0.0595620611439383,-0.297589039961094,0.397042372972403,-2.62011914539939,-0.144963141214248,-7.16423103157285,-0.144963141214248
0.35,0.082885323074814,-0.0241823200371289,-0.494622937634438,0.061651044589528,0.0622581677814676,-0.0598220856213577,-0.299857302506191,0.398168682679605,-2.62011914539939,-0.144963141214248,-7.16423103157285,-0.144963141214248
0.36,0.0139061903151503,-0.0235391260432398,-0.0815886095265184,0.0581373063728563,0.0273379331842957,-0.000331652184816256,-0.0910540951451403,0.0417827638394323,-2.62011914539939,-0.144963141214248,-5.02793210842083,-0.144963141214248
0.37,0.0343245502016659,-0.0241823200371289,-0.261411579963319,0.061651044589528,0.0380672139414884,-0.0177157153865646,-0.183681120485404,0.195954360541236,-2.62011914539939,-0.144963141214248,-7.16423103157285,-0.144963141214248
0.38,-0.0141193670148602,0.0243785330912195,0.0294011864773862,-0.171800311986087,-0.0281719671019223,9.83371151238779e-05,0.163612105363495,0.0600903980958671,-2.62011914539939,-0.144963141214248,-7.16423103157285,-0.144963141214248
0.39,-0.150440593071703,0.0827685223190644,0.672488741579605,-0.522680195977981,-0.14671066924368,0.0892131148470814,0.788214595589068,-0.322728130350088,-2.62011914539939,-0.144963141214248,-5.0599765921515,-0.144963141214248
0.4,0.0830023814732736,-0.0241823200371289,-0.495676560620508,0.061651044589528,0.0623164813985329,-0.0599235853293114,-0.300382173580367,0.399082264505315,-2.62011914539939,-0.144963141214248,-5.02793210842083,-0.144963141214248
0.41,0.0139065493199345,-0.0235393583404532,-0.14024430043097,0.0581385754014913,0.0273383134472022,-0.000331847752074241,-0.120275016917081,0.0926416648095396,-2.62011914539939,-0.144963141214248,-5.02793210842083,-0.144963141214248
0.42,-0.0141778983179864,-0.0240654263567764,0.0294015921077759,0.0609486015079242,0.0138039579812559,0.0242818510517693,-0.0382010357975623,-0.0558557652193319,-2.62011914539939,-0.144963141214248,-5.02793210842083,-0.144963141214248
0.43,0.0242617534512832,-0.00446572347578407,-0.201705612879217,-0.0564796721026269,0.0159583614099155,-0.0188123913366573,-0.0515085950684287,0.20303194886982,-2.62011914539939,-0.144963141214248,-5.02793210842083,-0.144963141214248
0.44,0.141275641747801,-0.0241823200371289,-0.728889388900118,0.061651044589528,0.0913457918069279,-0.110451518200505,-0.416559088197033,0.601297861787836,-2.62011914539939,-0.144963141214248,-2.28126206436718,-0.144963141214248
0.45,0.0145496123854,-0.0238901491944495,-0.0850996550999073,0.0602464630144253,0.0279628265410412,-0.000714689396931523,-0.0946319721341012,0.0437764486211751,-2.62011914539939,-0.144963141214248,-2.28126206436718,-0.144963141214248
0.46,-0.189231365113483,0.0632275196802668,0.905352382021175,-0.405253292855328,-0.149090884326202,0.132582566721503,0.802398326155366,-0.583138142453886,-2.62011914539939,-0.144963141214248,-2.28126206436718,-0.144963141214248
0.47,0.0146665145076241,-0.0237733399813943,-0.0854505922976128,0.0595444767618979,0.0279197786650389,-0.000874243083215355,-0.0941981119162405,0.044430441684463,-2.62011914539939,-0.144963141214248,-2.28126206436718,-0.144963141214248
0.48,-0.0244160060334887,0.0440952774737423,0.0905110799085885,-0.289931790069382,-0.0503974382825643,-0.000795651097405023,0.296484668585953,0.0659510407236515,-2.62011914539939,-0.144963141214248,-5.02793210842083,-0.144963141214248
0.49,-0.0240654854896537,-0.00464105132025594,0.0887575854852833,-0.0557772798034009,-0.00796423122131538,0.0231788259034708,0.092579034095235,-0.0491745500176418,-2.62011914539939,-0.144963141214248,-5.02793210842083,-0.144963141214248
0.5,-0.00475787742144306,-0.00464105132025594,-0.085450820504539,-0.0557772798034009,0.00165401469825817,0.00643746769255373,0.00579566434029345,0.10187913398739,-2.62011914539939,-0.144963141214248,-2.32246211461268,-0.144963141214248
0.51,0.0247292605825004,-0.00475786897515499,-0.204161260582186,-0.0550752935775801,0.0164445692808601,-0.0190722255468245,-0.053949613514837,0.204461603942559,-2.62011914539939,-0.144963141214248,-2.28126206436718,-0.144963141214248
0.52,0.0344414861134865,-0.0241823200371289,-0.262464543707726,0.061651044589528,0.0381254665408133,-0.0178171088880585,-0.18420566315285,0.196867370747677,-2.62011914539939,-0.144963141214248,-0.177007624699629,-0.144963141214248
0.53,-0.0144116856786916,0.0246708517550509,0.0308050367290811,-0.173205604196326,-0.0285710535258505,0.000206181580371476,0.165529954384816,0.0595731971129232,-2.62011914539939,-0.144963141214248,-0.144963141214248,-0.144963141214248
0.54,0.0333903552694123,-0.0236567546150918,-0.257206190116117,0.0588437087569314,0.0371461264859112,-0.0171675027604169,-0.179151968649456,0.193706423288808,-2.62011914539939,-0.144963141214248,-0.144963141214248,-0.144963141214248
0.55,-0.0432564532751195,0.0243788920807505,0.0873557634910713,-0.171802037791702,-0.0426871608024181,0.0253625202149938,0.192484157470784,0.00983965076881176,-2.62011914539939,-0.144963141214248,-0.144963141214248,-0.144963141214248
0.56,-0.0631480820518559,0.0246708517550509,0.206416278802074,-0.173205604196326,-0.0528494956764711,0.0424648325075031,0.253012158629515,-0.092696866533573,-2.62011914539939,-0.144963141214248,-0.144963141214248,-0.144963141214248
0.57,-0.00452428434752854,-0.00475781829298335,-0.0285498410327105,-0.0550755981393043,0.00187162805216557,0.00629309083048113,0.0335329432224833,0.0521915381286362,-2.62011914539939,-0.144963141214248,-0.144963141214248,-0.144963141214248
0.58,0.024378955438958,-0.00464105132025594,-0.143754889591683,-0.0557772798034009,0.0161687708906766,-0.0188266745214538,-0.0232489937349481,0.152433780751171,-2.62011914539939,-0.144963141214248,-0.144963141214248,-0.144963141214248
0.59,0.0144915921160935,-0.0240655699569799,-0.143054130732295,0.0609494644371191,0.028086028161679,-0.000576993513734751,-0.124112040063877,0.0936777617469951,-2.62011914539939,-0.144963141214248,-0.144963141214248,-0.144963141214248
0.6,-0.072685266927724,0.0440953788380611,0.321972188476453,-0.289932399192683,-0.0744432608916104,0.0410579026625843,0.411789477587109,-0.134745361339371,-2.62011914539939,-0.144963141214248,-0.144963141214248,-0.144963141214248
0.61,0.0244373853799582,-0.00446595153893638,-0.202409109901907,-0.0564787584439756,0.0160460516697484,-0.0189645657258079,-0.0518598401957757,0.203641486199457,-2.62011914539939,-0.144963141214248,-0.144963141214248,-0.144963141214248
0.62,-0.0530856865334899,-0.00475777605709762,0.205015014668773,-0.0550758519452041,-0.0223196759073866,0.0483999856934966,0.149885443305641,-0.150329170795952,-2.62011914539939,-0.144963141214248,-0.144963141214248,-0.144963141214248
0.63,0.0346165605493169,-0.0241823200371289,-0.263165201132926,0.061651044589528,0.0382126813305531,-0.0179689134944839,-0.184554701490336,0.197474901048529,-2.62011914539939,-0.144963141214248,-0.144963141214248,-0.144963141214248
0.64,0.0147835095523498,-0.0240656121928634,-0.0861524920849213,0.0609497182430059,0.0282314858883046,-0.000830090019319486,-0.095766234475303,0.0443390164614137,-2.62011914539939,-0.144963141214248,-0.144963141214248,-0.144963141214248
0.65,0.0344414861134865,-0.0241823200371289,-0.203810627620364,0.061651044589528,0.0381254665408133,-0.0178171088880585,-0.154986725877905,0.14600937651957,-2.62011914539939,-0.144963141214248,-0.144963141214248,-0.144963141214248
0.66,0.0343247951617972,-0.0241823200371289,-0.203110122306434,0.061651044589528,0.0380673359704199,-0.0177159277880847,-0.154637763315917,0.145401978112284,-2.62011914539939,-0.144963141214248,-0.144963141214248,-0.144963141214248
0.67,0.0142584636170542,-0.0238906137736921,-0.0837009770055926,0.0602486964318266,0.0278181911850846,-0.000462006918412528,-0.0939371455462974,0.0425625617184737,-2.62011914539939,-0.144963141214248,-0.144963141214248,-0.144963141214248
0.68,-0.0433735665899901,0.0246708517550509,0.146712061144321,-0.173205604196326,-0.0429986559463138,0.0253186253944904,0.223270004871303,-0.0409281704330608,-2.62011914539939,-0.144963141214248,-0.144963141214248,-0.144963141214248
0.69,0.0144918877672784,0.0247875173634329,-0.0847519125056811,-0.173906676736961,-0.0142736565804732,-0.0249138225875636,0.108572187009599,0.160120264473355,-2.62011914539939,-0.144963141214248,-0.144963141214248,-0.144963141214248
0.7,-0.0629148859845898,0.0244958660119101,0.263669944897957,-0.172504582411528,-0.0525815994092642,0.0423498020501991,0.28092570346585,-0.142689943330581,-2.62011914539939,-0.144963141214248,-0.144963141214248,-0.144963141214248
0.71,-0.0148782805419061,-0.0238906982476199,0.0329057920344531,0.0602491025316328,0.0133035524261954,0.0248021004652017,-0.0358488635649401,-0.0585457469538495,-2.62011914539939,-0.144963141214248,-0.144963141214248,-0.144963141214248
0.72,-0.111243227241683,0.0632285079759734,0.495835159039773,-0.405258571889743,-0.110241300224527,0.0649596455718332,0.598398484910669,-0.228048828733512,-2.62011914539939,-0.144963141214248,-0.144963141214248,-0.144963141214248
0.73,0.0150168492198162,-0.0241823200371289,-0.0872029458064267,0.061651044589528,0.028448921736211,-0.000974276611524393,-0.096897637067135,0.0449004786957148,-2.62011914539939,-0.144963141214248,-0.144963141214248,-0.144963141214248
0.74,0.0635784541234241,-0.0241823200371289,-0.320418360138061,0.061651044589528,0.0526402900591001,-0.043081368288348,-0.213075839947176,0.247118318307951,-2.62011914539939,-0.144963141214248,-0.144963141214248,-0.144963141214248
0.75,-0.0627983977660388,0.0243793144395305,0.26297052983488,-0.17180406823853,-0.0524225095859595,0.042306857874736,0.279969877932552,-0.14243245723984,-2.62011914539939,-0.144963141214248,-0.144963141214248,-0.144963141214248
0.76,0.063228660029153,-0.0240657135572089,-0.318668466014592,0.0609503273664671,0.0523649293592564,-0.042836155188111,-0.211596533450605,0.245950077596776,-2.62011914539939,-0.144963141214248,-0.144963141214248,-0.144963141214248
0.77,-0.0626818673027114,0.0243793566709709,0.26262091100156,-0.171804271261879,-0.0523644955824757,0.042205794894043,0.279795888434811,-0.142129206478083,-2.62011914539939,-0.144963141214248,-0.144963141214248,-0.144963141214248
0.78,0.0343248965261426,-0.0241823200371289,-0.203110730804879,0.061651044589528,0.0380673864659137,-0.0177160156796978,-0.15463806644449,0.145402505732816,-2.62011914539939,-0.144963141214248,-2.28126206436718,-0.144963141214248
0.79,-0.0241823200371289,0.0439206676192825,0.0894589528164431,-0.289232798678157,-0.0501296238809384,-0.000911293617486795,0.295354456997824,0.0665151170917899,-2.62011914539939,-0.144963141214248,-2.28126206436718,-0.144963141214248
0.8,0.0143756402702796,-0.0237743156055346,-0.0840535115183054,0.0595495019908714,0.0277757231889069,-0.00062154406543027,-0.0935065017851784,0.0432165490271623,-2.62011914539939,-0.144963141214248,-2.28126206436718,-0.144963141214248
0.81,-0.00440792283218292,-0.00475761556429246,-0.0875524124619529,-0.0550768163862268,0.00192941872787189,0.00619209438918809,0.00414137670731902,0.10335245343057,-2.62011914539939,-0.144963141214248,-0.144963141214248,-0.144963141214248
0.82,-0.0244737095315,-0.00434966182588486,0.0908583407640086,-0.0571781051260742,-0.0084202512056562,0.0233876331822064,0.0948401789895786,-0.0502982528664943,-2.62011914539939,-0.144963141214248,-0.144963141214248,-0.144963141214248
0.83,-0.00446623029306541,-0.00464105132025594,-0.0285485226283065,-0.0557772798034009,0.00179930114661385,0.00618458452701058,0.034142018400771,0.052539943529159,-2.62011914539939,-0.144963141214248,-0.144963141214248,-0.144963141214248
0.84,0.0147254090388601,-0.0241823200371289,-0.0858032028793877,0.061651044589528,0.0283037383804386,-0.000721572887209931,-0.0962003434588909,0.0436867810868773,-2.62011914539939,-0.144963141214248,-0.144963141214248,-0.144963141214248
0.85,-0.0433739973773541,0.0243795256078458,0.146713785178809,-0.171805083408703,-0.0427462656993943,0.0254641254731262,0.222056491632533,-0.0416273464253469,-2.62011914539939,-0.144963141214248,-0.144963141214248,-0.144963141214248
