t,iq,id,vq,vd,ia,ib,va,vb,theta_e,omega,omega_obs,r
0,0,0,0,0,0,0,0,0,0,-0.144963141214248,0,0
0.01,-0.0142944380687274,-0.0335425877606901,-0.0282008028477902,0.059537334792588,0.036191795383643,-0.00442607052505952,-0.0374093354627025,0.0542265722289693,2.61705109019401,-0.144963141214248,51.7365821353524,-0.144963141214248
0.02,0.00501233542803782,-0.0530838564769393,-0.0857989484655575,0.177670229115694,0.0434366653443214,-0.0309237033466705,-0.110813602752215,0.163243729793499,2.61705109019401,-0.144963141214248,46.8836800741526,-0.144963141214248
0.03,-0.014294438068372,0.0144898507604968,0.0301011897479289,-0.171091894392979,-0.00538285589963105,0.0196293554941521,0.133014044266218,-0.111739795861472,2.61705109019401,-0.144963141214248,48.9899120912987,-0.144963141214248
0.04,-0.024006448621383,-0.00464105132025594,0.0884031823431141,-0.0557772798034009,0.0160398985092091,0.0184545546839425,0.0040044759442385,-0.104451863377676,2.61705109019401,-0.144963141214248,48.9899120912987,-0.144963141214248
0.05,-0.0142358142626789,-0.0341874496169147,0.0297492662541514,0.0630601844626993,0.0367205981459204,-0.00479976987327516,-0.0694808873991285,0.00583198022627604,2.61705109019401,-0.144963141214248,46.8536131681467,-0.144963141214248
0.06,-0.0338357067847118,0.0149002173966153,0.147057098427276,-0.173205604196326,0.00404853480394099,0.0367488897523268,0.0762701531645489,-0.214029986822221,2.61705109019401,-0.144963141214248,46.8536131681467,-0.144963141214248
0.07,0.00512958303817967,0.121321966840252,-0.086502795445643,-0.637986912197544,-0.107579646770784,0.0563200839914673,0.595533890737169,-0.244641408471085,2.61705109019401,-0.144963141214248,46.8536131681467,-0.144963141214248
0.08,0.00512958303817967,-0.00464105132025594,-0.086502795445643,-0.0557772798034009,0.00144810022314399,-0.00676424313922558,0.0916002328661621,0.0469386397442714,2.61705109019401,-0.144963141214248,46.8536131681467,-0.144963141214248
0.09,0.00495371162443324,0.0827670436644253,-0.0271450323840639,-0.522672297665081,-0.0741202139886042,0.0371633778616861,0.46599557545261,-0.238267301970325,2.61705109019401,-0.144963141214248,46.8536131681467,-0.144963141214248
0.1,-0.0241236962324578,-0.00481692273426923,0.0304531132414386,-0.0550727098748249,0.0162508441587408,0.0184679595156623,0.032416969522184,-0.0539401109198926,2.61705109019401,-0.144963141214248,46.8536131681467,-0.144963141214248
0.11,-0.0239478248180893,0.209140428470131,0.0880512588637405,-1.1069956399026,-0.169028796050441,0.12546905291715,0.91406658727039,-0.630614497919866,2.61705109019401,-0.144963141214248,46.8536131681467,-0.144963141214248
0.12,0.00501233542848223,-0.0045238037105585,-0.0857989484682254,-0.0564818497341116,0.00140533563843528,-0.00660403953672483,0.0918575779158846,0.0459765623667881,2.61705109019401,-0.144963141214248,46.8536131681467,-0.144963141214248
0.13,0.00512958303817967,-0.00493417034494431,-0.086502795445643,-0.0543681399398412,0.00170181045754079,-0.00691104191168837,0.0903805467490236,0.0476443598947081,2.61705109019401,-0.144963141214248,46.8536131681467,-0.144963141214248
0.14,-0.0241236962321023,-0.00428930849009621,0.0304531132393043,-0.0571864196690986,0.0157941657368788,0.0187321973056543,0.0342464986980382,-0.0549986911431666,2.61705109019401,-0.144963141214248,48.9899120912987,-0.144963141214248
0.15,0.0246122279499356,-0.00399618946398763,-0.203458704130054,-0.0585955595390595,-0.00886728757297804,-0.0233045597682039,0.152613025394675,0.146758810174588,2.61705109019401,-0.144963141214248,48.9899120912987,-0.144963141214248
0.16,-0.0337184591747475,0.0536310119991322,0.146705174940433,-0.289224788719288,-0.0295337643752442,0.0560444171974135,0.176867227909406,-0.271829671771979,2.61705109019401,-0.144963141214248,48.9899120912987,-0.144963141214248
0.17,-0.0144116856786916,0.0149002173966153,0.0308050367290811,-0.173205604196326,-0.00567933071992469,0.0199363578705219,0.134491075439065,-0.113407593397171,2.61705109019401,-0.144963141214248,48.9899120912987,-0.144963141214248
0.18,0.00501233542741591,-0.0530838564747626,-0.0857989484618242,0.176965659171101,0.0434366653427488,-0.0309237033450421,-0.110203759684425,0.162890869708632,2.61705109019401,-0.144963141214248,48.9899120912987,-0.144963141214248
0.19,-0.0142944380677632,0.0144898507583661,-0.0282008028506843,-0.171091894382004,-0.00538285589809168,0.0196293554925581,0.162212629898542,-0.0612762948132833,2.61705109019401,-0.144963141214248,46.8536131681467,-0.144963141214248
0.2,-0.0142944380675853,-0.0337770829789052,0.0301011897432064,0.0609464746503514,0.0363947635692593,-0.00454350954324926,-0.0678276072128332,0.0044687913404031,2.61705109019401,-0.144963141214248,46.8536131681467,-0.144963141214248
0.21,0.00518820684382147,0.0823566770153959,-0.0285527263452203,-0.520558587793413,-0.0738824586657165,0.0367548913857898,0.464871042229844,-0.235990287095371,2.61705109019401,-0.144963141214248,46.8536131681467,-0.144963141214248
0.22,0.0147243459827354,0.0149002173966153,-0.144100941070875,-0.173205604196326,-0.0202711290069235,-0.00528243995425985,0.222086832366598,0.0379829097344702,2.61705109019401,-0.144963141214248,46.8536131681467,-0.144963141214248
0.23,-0.033894330590849,0.0144898507636063,0.147760945415896,-0.171091894408995,0.00443308888584408,0.0365941135195751,0.0740881259822408,-0.213580623913073,2.61705109019401,-0.144963141214248,46.8536131681467,-0.144963141214248
0.24,0.00501233542857118,-0.0530838564788061,-0.0274969558698391,0.176965659191928,0.0434366653456701,-0.0309237033480671,-0.139402345340956,0.112427368682107,2.61705109019401,-0.144963141214248,43.8017575636422,-0.144963141214248
0.25,-0.0144703094835848,-0.033777082980885,0.0311569602180569,0.0609464746582827,0.0364828428350447,-0.00439128340257576,-0.0683563542359495,0.00355496538262361,2.61705109019401,-0.144963141214248,43.8017575636422,-0.144963141214248
0.26,0.00501233542821538,-0.00399618946545233,-0.0274969558687712,-0.0585955595326582,0.000948657216077266,-0.00633980174572673,0.0644885214521236,-0.00554551890389375,2.61705109019401,-0.144963141214248,43.8017575636422,-0.144963141214248
0.27,-0.0142944380685494,0.0150174650067575,0.0304531132390373,-0.17391017412971,-0.00583953432303313,0.019893593285651,0.135277167503652,-0.113455844820637,2.61705109019401,-0.144963141214248,43.8017575636422,-0.144963141214248
0.28,0.00512958303817967,0.0342069908928463,-0.0282008028488587,-0.28922478872035,-0.0321769635413848,0.0126914879090375,0.264462984832517,-0.120439168650101,2.61705109019401,-0.144963141214248,43.8017575636422,-0.144963141214248
0.29,-0.0144116856786916,-0.0336598353693223,0.0308050367290811,0.060241904718498,0.0363519989853552,-0.00438330593958647,-0.0675702621663572,0.00350671395502755,2.61705109019401,-0.144963141214248,43.8017575636422,-0.144963141214248
0.3,0.00495371162216745,-0.00464105132025594,-0.0854470249707158,-0.0557772798034009,0.00153617948722225,-0.00661201699754953,0.0910714858498723,0.0460248137824533,2.61705109019401,-0.144963141214248,48.9578676073858,-0.144963141214248
0.31,-0.0142944380678388,-0.0337770829792855,0.0304531132369047,0.0609464746518749,0.0363947635697154,-0.00454350954322027,-0.0680038562206114,0.00416418268544726,2.61705109019401,-0.144963141214248,46.8536131681467,-0.144963141214248
0.32,0.0048950878161451,-0.0530838564738753,-0.0267931088802699,0.176965659166531,0.0434953848516648,-0.0308222192496311,-0.13975484333298,0.11181815135607,2.61705109019401,-0.144963141214248,48.9899120912987,-0.144963141214248
0.33,-0.0142944380674964,-0.0335425877563814,0.0304531132358767,0.0595373347703948,0.036191795379297,-0.0044260705239672,-0.0667841700874469,0.00345846252692542,2.61705109019401,-0.144963141214248,48.9899120912987,-0.144963141214248
0.34,0.00495371162112004,0.0344414861134865,-0.0271450323708043,-0.290633928589255,-0.0322918524650693,0.0129611530700358,0.265153923936426,-0.122058714767739,2.61705109019401,-0.144963141214248,48.9899120912987,-0.144963141214248
0.35,0.00512958303817967,-0.0534942231124358,-0.086502795445643,0.179079368982457,0.0437331401641657,-0.031230705722575,-0.111680790862868,0.164558667250649,2.61705109019401,-0.144963141214248,48.9899120912987,-0.144963141214248
0.36,0.00501233542866013,-0.00399618946789846,-0.0857989484692933,-0.0585955595219678,0.000948657217971784,-0.00633980174733675,0.09368710708565,0.0449179821458052,2.61705109019401,-0.144963141214248,48.9899120912987,-0.144963141214248
0.37,-0.0142358142641454,0.0149002173966153,-0.0285527263356985,-0.173205604196326,-0.00576740998326872,0.0197841317301148,0.164218408092791,-0.0620302664002431,2.61705109019401,-0.144963141214248,48.9899120912987,-0.144963141214248
0.38,0.00512958303817967,0.0349691003579256,-0.027848879358281,-0.292747638384594,-0.0328366101515864,0.0130731647178862,0.267335951125093,-0.122508077681888,2.61705109019401,-0.144963141214248,46.885657652147,-0.144963141214248
0.39,-0.0144116856786916,0.102015193352163,0.0308050367290811,-0.521967727710865,-0.0810820139563721,0.0635649539570297,0.436363395735135,-0.288073334277967,2.61705109019401,-0.144963141214248,46.8078353338883,-0.144963141214248
0.4,0.00501233542794853,-0.0530838564766268,-0.0274969558679702,0.177670229114621,0.0434366653440956,-0.0309237033464367,-0.140012188392596,0.112780228751157,2.61705109019401,-0.144963141214248,46.8536131681467,-0.144963141214248
0.41,0.0148415935914108,-0.033777082979951,-0.144804788042157,0.060946474654541,0.0218029652843831,-0.0297623073664507,0.0197681497037644,0.155859294461511,2.61705109019401,-0.144963141214248,43.8017575636422,-0.144963141214248
0.42,0.00495371162230087,0.0344414861134865,-0.0271450323755301,-0.290633928589255,-0.0322918524656607,0.0129611530690138,0.265153923938792,-0.122058714763649,2.61705109019401,-0.144963141214248,43.8017575636422,-0.144963141214248
0.43,-0.0241823200371289,-0.00464105132025594,0.0894589528164431,-0.0557772798034009,0.016127977773154,0.0186067808253881,0.00347572892874905,-0.105365689338111,2.61705109019401,-0.144963141214248,43.8017575636422,-0.144963141214248
0.44,0.0146657221747586,0.10219106476243,-0.0854470249684329,-0.522672297622679,-0.0957966786240594,0.0384849774429587,0.495194161050598,-0.187803800918726,2.61705109019401,-0.144963141214248,43.8017575636422,-0.144963141214248
0.45,0.0148415935910622,-0.0723906299682227,-0.144452864547127,0.292984843679503,0.0552250608571722,-0.0491005993938977,-0.18124975076888,0.271763272993229,2.61705109019401,-0.144963141214248,43.8017575636422,-0.144963141214248
0.46,-0.0142944380674074,0.053337892968295,-0.0282008028517523,-0.404539403280956,-0.0390079196600519,0.0390850865389239,0.364273967490762,-0.178190602156608,2.61705109019401,-0.144963141214248,43.8017575636422,-0.144963141214248
0.47,0.00524683064743345,-0.00516866556189795,-0.0872066424203972,-0.0529590000912221,0.0018460591339634,-0.00712996502147851,0.0895133586514046,0.0489592973381573,2.61705109019401,-0.144963141214248,43.8017575636422,-0.144963141214248
0.48,0.0244363565361897,-0.0914042844518723,-0.20275485715664,0.407594888406346,0.0668771851674296,-0.0669277284912905,-0.251252304804663,0.379625347528238,2.61705109019401,-0.144963141214248,43.8017575636422,-0.144963141214248
0.49,0.0146657221773983,-0.0335425877619348,-0.144100941067676,0.0595373347989992,0.0216880763614438,-0.029492642209404,0.0206353378075124,0.154544357014832,2.61705109019401,-0.144963141214248,46.8536131681467,-0.144963141214248
0.5,0.00512958303817967,-0.00493417034472193,-0.0861508719566672,-0.0543681399409102,0.00170181045734831,-0.006911041911577,0.0902042977458544,0.0473397512425415,2.61705109019401,-0.144963141214248,46.8536131681467,-0.144963141214248
0.51,-0.0142944380687273,-0.0335425877606895,0.0301011897500615,0.0602419047248993,0.0361917953836424,-0.00442607052505937,-0.067217764163174,0.00411593126242025,2.61705109019401,-0.144963141214248,46.8536131681467,-0.144963141214248
0.52,0.00512958303817967,-0.00493417034561144,-0.0861508719555992,-0.0543681399366341,0.00170181045811822,-0.00691104191202248,0.0902042977416183,0.0473397512437587,2.61705109019401,-0.144963141214248,46.8536131681467,-0.144963141214248
0.53,-0.0141771904580514,0.0142553555398548,0.0297492662573479,-0.169682754524064,-0.00523860722055019,0.0194104323815913,0.131970607149343,-0.110729467055333,2.61705109019401,-0.144963141214248,46.8536131681467,-0.144963141214248
0.54,-0.0141771904576956,0.0150174650071133,0.029749266255746,-0.173910174131848,-0.00589825383281624,0.0197921091912235,0.135629665516366,-0.112846627513823,2.61705109019401,-0.144963141214248,46.8536131681467,-0.144963141214248
0.55,0.0148415935912773,0.0144898507592496,-0.144804788041356,-0.171091894386555,-0.01997465418466,-0.00558944232971556,0.220609801182846,0.0396507072641493,2.61705109019401,-0.144963141214248,46.8536131681467,-0.144963141214248
0.56,0.0146657221749077,0.0155450792563112,-0.144100941056463,-0.176023883946964,-0.0207999317713144,-0.00490874060276571,0.224526204614014,0.0365714694093433,2.61705109019401,-0.144963141214248,46.8536131681467,-0.144963141214248
0.57,0.00495371162165211,-0.00440655609821921,-0.0857989484602958,-0.0564818497420494,0.00133321129798421,-0.00649457797798836,0.0918575779187838,0.0459765623559493,2.61705109019401,-0.144963141214248,46.8536131681467,-0.144963141214248
0.58,0.00518820684377672,0.0340311194743072,-0.0285527263446831,-0.171796464316917,-0.0320540971523443,0.0125526665962436,0.162998721966434,-0.0613245462340921,2.61705109019401,-0.144963141214248,43.8017575636422,-0.144963141214248
0.59,-0.0144703094843776,0.0150174650079873,0.0311569602228161,-0.173205604196326,-0.0057514550601115,0.0200458194277836,0.134314826432587,-0.113712202052921,2.61705109019401,-0.144963141214248,43.8017575636422,-0.144963141214248
0.6,-0.0435477173399877,0.0340311194807908,0.205711014528245,-0.288520218803537,-0.00764635408286083,0.0547362224480173,0.146706301209065,-0.322549530060478,2.61705109019401,-0.144963141214248,40.7499019591387,-0.144963141214248
0.61,-0.0144116856786916,0.0146070983728164,0.0308050367290811,-0.171796464337043,-0.0054256204862978,0.0197895590985046,0.133271389325628,-0.112701873248876,2.61705109019401,-0.144963141214248,40.7499019591387,-0.144963141214248
0.62,-0.0240064486225828,-0.00464105132025594,0.0887551058390255,-0.0557772798034009,0.0160398985098099,0.018454554684981,0.00382822693667059,-0.104756472035311,2.61705109019401,-0.144963141214248,40.7499019591387,-0.144963141214248
0.63,0.00512958303817967,0.0342069908937358,-0.027848879358281,-0.289224788725695,-0.0321769635421547,0.012691487909483,0.264286735832246,-0.120743777305796,2.61705109019401,-0.144963141214248,40.7499019591387,-0.144963141214248
0.64,-0.0144703094837182,0.0150174650066685,0.0311569602188578,-0.173205604196326,-0.00575145505930028,0.0200458194265525,0.13431482643457,-0.113712202049495,2.61705109019401,-0.144963141214248,43.8017575636422,-0.144963141214248
0.65,-0.0144116856786916,0.0146070983710374,0.0308050367290811,-0.17179646432849,-0.00542562048475798,0.0197895590976136,0.133271389318226,-0.112701873244593,2.61705109019401,-0.144963141214248,43.8017575636422,-0.144963141214248
0.66,-0.0241236962319244,-0.00481692273586952,0.0891070293255984,-0.0550727098684139,0.0162508441598588,0.0184679595143991,0.00304213487243429,-0.104708220608038,2.61705109019401,-0.144963141214248,43.8017575636422,-0.144963141214248
0.67,0.00501233542759273,-0.004523803709669,-0.0857989484628856,-0.0564818497394569,0.00140533563811084,-0.00660403953550944,0.0918575779178369,0.0459765623594893,2.61705109019401,-0.144963141214248,46.8536131681467,-0.144963141214248
0.68,-0.03360121156327,0.102425559984859,0.146001327952329,-0.524081437500859,-0.0718267817778623,0.0803800359303658,0.380500749647999,-0.388840481964161,2.61705109019401,-0.144963141214248,46.8536131681467,-0.144963141214248
0.69,-0.0240064486207148,-0.00464105132025594,0.0887551058315498,-0.0557772798034009,0.0160398985088744,0.0184545546833641,0.00382822694041451,-0.10475647202884,2.61705109019401,-0.144963141214248,46.8536131681467,-0.144963141214248
0.7,0.00495371162151869,0.0344414861134865,-0.0271450323723998,-0.290633928589255,-0.032291852465269,0.0129611530696908,0.265153923937225,-0.122058714766358,2.61705109019401,-0.144963141214248,48.9591540373407,-0.144963141214248
0.71,0.00495371162125509,-0.00411343706948223,-0.0271450323713448,-0.0585955595643571,0.00107950106028195,-0.00634777920315432,0.064312272471234,-0.00585012757871472,2.61705109019401,-0.144963141214248,48.9899120912987,-0.144963141214248
0.72,-0.0241236962325026,-0.00481692273413499,0.0891070293290692,-0.0550727098753627,0.016250844158647,0.0184679595157682,0.00304213487671061,-0.104708220614522,2.61705109019401,-0.144963141214248,46.8842123889904,-0.144963141214248
0.73,-0.014294438069261,-0.0337770829814187,0.0301011897532654,0.0609464746604208,0.036394763572274,-0.00454350954305768,-0.0678276072265864,0.00446879133673938,2.61705109019401,-0.144963141214248,46.8536131681467,-0.144963141214248
0.74,0.0146657221773983,-0.0335425877619348,-0.143749017579234,0.0595373347989992,0.0216880763614438,-0.029492642209404,0.0204590888036853,0.154239748363663,2.61705109019401,-0.144963141214248,46.8536131681467,-0.144963141214248
0.75,0.00518820684307287,0.0340311194792341,-0.0868547189346188,-0.171796464333836,-0.0320540971562564,0.0125526665993204,0.192197307618555,-0.0108610452073834,2.61705109019401,-0.144963141214248,46.8536131681467,-0.144963141214248
0.76,-0.0144116856786916,0.0149002173966153,0.0308050367290811,-0.173205604196326,-0.00567933071992469,0.0199363578705219,0.134491075439065,-0.113407593397171,2.61705109019401,-0.144963141214248,46.8536131681467,-0.144963141214248
0.77,0.00495371162296637,-0.00440655609997155,-0.0854470249755118,-0.0571864196701677,0.00133321129884275,-0.00649457798000352,0.0922911719721887,0.0453190936345616,2.61705109019401,-0.144963141214248,43.8017575636422,-0.144963141214248
0.78,-0.0144703094838516,0.0153105840327356,0.0311569602196588,-0.174614744065231,-0.00600516529482361,0.0201926181998212,0.135534512555934,-0.114417922203302,2.61705109019401,-0.144963141214248,43.8017575636422,-0.144963141214248
0.79,-0.0140599428471976,-0.0344805686428055,0.0290454192735226,0.064469324331614,0.0368862291175456,-0.00509879478755671,-0.0703480755113724,0.00714691768497438,2.61705109019401,-0.144963141214248,43.8017575636422,-0.144963141214248
0.8,0.0148415935912773,-0.0726251251919414,-0.14445286454971,0.294393983565614,0.0554280290480164,-0.0492180384140414,-0.182469436904244,0.272468993157196,2.61705109019401,-0.144963141214248,40.792707513281,-0.144963141214248
0.81,0.00489508781647207,-0.0530838564744475,-0.0850951014769244,0.176965659169478,0.0434953848519963,-0.0308222192502007,-0.110556257694689,0.162281652398543,2.61705109019401,-0.144963141214248,43.7590315847637,-0.144963141214248
0.82,-0.0241236962316198,0.0343242385024682,0.0891070293237695,-0.289929358650606,-0.0176279298396929,0.0380704893351353,0.206323158599208,-0.222328248110997,2.61705109019401,-0.144963141214248,40.7499019591387,-0.144963141214248
0.83,-0.0144116856786916,0.0149002173966153,0.0308050367290811,-0.173205604196326,-0.00567933071992469,0.0199363578705219,0.134491075439065,-0.113407593397171,2.61705109019401,-0.144963141214248,40.7499019591387,-0.144963141214248
0.84,-0.0142944380673196,0.0147829697852433,-0.028200802852016,-0.172501034255553,-0.0056365661346052,0.0197761542657331,0.163432316024994,-0.0619820149675702,2.61705109019401,-0.144963141214248,40.7499019591387,-0.144963141214248
0.85,-0.0142944380693499,-0.0335425877628688,0.0304531132414402,0.0595373348038099,0.0361917953858405,-0.00442607052561186,-0.0667841701191558,0.00345846253884477,2.61705109019401,-0.144963141214248,40.7499019591387,-0.144963141214248
