t,iq,id,vq,vd,ia,ib,va,vb,theta_e,omega,omega_obs,r
0,0,0,0,0,0,0,0,0,0,-0.144963141214248,0,0
0.01,0.0146071178402314,-0.0725079126278161,-0.14339721095661,0.293689600832049,0.05544400455596,-0.0489563851202282,-0.18238844435574,0.271202502039557,2.61705109019401,-0.144963141214248,155.804858248936,-0.144963141214248
0.02,0.00518819862414608,-0.00423074221849113,-0.0868546695957299,-0.0571862221076232,0.00106360005441299,-0.00660948860405759,0.092995972279477,0.0465375844809394,2.61705109019401,-0.144963141214248,155.804858248936,-0.144963141214248
0.03,0.00512958303817967,-0.00440660626007245,-0.086502795445643,-0.0564816990245484,0.00124517545142178,-0.00664682924198199,0.0922099454765973,0.0465858551473876,2.61705109019401,-0.144963141214248,155.804858248936,-0.144963141214248
0.04,-0.0241237130974201,0.0340898444752333,0.0304532144831843,-0.288520826877942,-0.0174250407930574,0.0379531155942765,0.234478782757121,-0.170854810442753,2.61705109019401,-0.144963141214248,155.804858248936,-0.144963141214248
0.05,0.00512958303817967,-0.0534942231124358,-0.086502795445643,0.179079368982457,0.0437331401641657,-0.031230705722575,-0.111680790862868,0.164558667250649,2.61705109019401,-0.144963141214248,155.804858248936,-0.144963141214248
0.06,-0.0144116856786916,-0.0241823200371289,-0.027848879358281,0.061651044589528,0.028148701232893,0.000363187803842209,-0.0394151136441573,0.054980543803333,2.61705109019401,-0.144963141214248,155.804858248936,-0.144963141214248
0.07,-0.0145288736149736,-0.0239479441645649,-0.0271453906052501,0.0602426219127771,0.0280045259702452,0.000581999493864964,-0.0385483668939864,0.0536662755913249,2.61705109019401,-0.144963141214248,155.804858248936,-0.144963141214248
0.08,-0.0144702753214955,-0.0240651407515211,-0.0274971609471173,0.0609468852351964,0.0280766189229923,0.000472585572644166,-0.0389817722601793,0.0543234582061875,2.61705109019401,-0.144963141214248,155.804858248936,-0.144963141214248
0.09,-0.0142945150437046,-0.024065149402142,-0.0282005718042528,0.0609469372189202,0.0279886028063182,0.000320451294686889,-0.038629537663085,0.0549323240577905,2.61705109019401,-0.144963141214248,155.804858248936,-0.144963141214248
0.1,0.00501242104503352,-0.00423098434424439,-0.0857994624313756,-0.057185390682692,0.00115184189626995,-0.0064574649437634,0.0924667877354159,0.0456246624857509,2.61705109019401,-0.144963141214248,158.810936019429,-0.144963141214248
0.11,0.0147244873829073,0.0149002173966153,-0.0857995143620792,-0.173205604196326,-0.0202711998224281,-0.00528256234369118,0.192888530131594,-0.0124801015002397,2.61705109019401,-0.144963141214248,158.856713853441,-0.144963141214248
0.12,-0.0144702580245905,0.0150173620884131,-0.0271456502054206,-0.173909555667884,-0.00575139174959889,0.0200457233427826,0.164123029241612,-0.063600716585844,2.61705109019401,-0.144963141214248,158.856713853441,-0.144963141214248
0.13,-0.0239480479371083,-0.0533185190374203,0.0880525982654354,0.178375469441541,0.0581436091391236,-0.00597446136640075,-0.198491706780321,0.0131190891154536,2.61705109019401,-0.144963141214248,155.804858248936,-0.144963141214248
0.14,0.00501245563884326,-0.0533185320134312,-0.085799670100841,0.178375521425583,0.0436397294021223,-0.0310413367190943,-0.111423709661095,0.163597576261453,2.61705109019401,-0.144963141214248,155.804858248936,-0.144963141214248
0.15,-0.0144702450530226,-0.023538166919488,-0.0274973426512325,0.0588358622982163,0.0276204796534143,0.000736476435147371,-0.0371544777040898,0.0532663808775316,2.61705109019401,-0.144963141214248,158.856713853441,-0.144963141214248
0.16,0.00495391789111761,-0.0529672276712496,-0.0857997739619283,0.176264394626034,0.0433649733108852,-0.0308147302340317,-0.109596364191436,0.162540379539419,2.61705109019401,-0.144963141214248,158.856713853441,-0.144963141214248
0.17,0.00518813376627996,-0.0527916143752324,-0.0868542802486622,0.176264602349882,0.0430956714682471,-0.0309295066404392,-0.109068430097273,0.163453215310044,2.61705109019401,-0.144963141214248,158.856713853441,-0.144963141214248
0.18,-0.0144702320814546,0.0147831245910891,-0.0271459616829476,-0.172501964522228,-0.00554865962740632,0.0199283909412179,0.162904839615878,-0.0628955024580067,2.61705109019401,-0.144963141214248,158.856713853441,-0.144963141214248
0.19,-0.014177517368987,-0.0238310675725722,-0.0289031779752282,0.0595402815193606,0.0277273980927752,0.000336415518657675,-0.0370601251312171,0.0548359913353535,2.61705109019401,-0.144963141214248,155.804858248936,-0.144963141214248
0.2,0.0245537762419862,-0.0923426095200488,-0.203107813753088,0.412528946249483,0.0676305501342664,-0.0674992899907118,-0.255346230055999,0.382401906764934,2.61705109019401,-0.144963141214248,158.856713853441,-0.144963141214248
0.21,0.0148416839654201,0.0635777888952079,-0.144805330564717,-0.289930444813887,-0.0624629422464241,0.0189945168312576,0.323471211008129,-0.0198651010284302,2.61705109019401,-0.144963141214248,158.902491687842,-0.144963141214248
0.22,0.00477840840303045,0.0344414861134865,-0.0847460204309729,-0.290633928589255,-0.0322040577637473,0.0131128874059402,0.294001435109972,-0.0722019707444899,2.61705109019401,-0.144963141214248,158.856713853441,-0.144963141214248
0.23,-0.0142946361087627,0.101899530063105,-0.0282002084225367,-0.521270298211006,-0.0810405215046006,0.0634057152220991,0.465310519055635,-0.236651846407841,2.61705109019401,-0.144963141214248,155.804858248936,-0.144963141214248
0.24,0.0147246560177336,0.0645141551639472,-0.144454105335195,-0.294853895849085,-0.063214807966137,0.0195647582444266,0.327556822595104,-0.0226348496123676,2.61705109019401,-0.144963141214248,158.856713853441,-0.144963141214248
0.25,0.00501255076959912,-0.00452401905167539,-0.0861515183120907,-0.0564805556959969,0.00140541418138774,-0.00660433377234107,0.0920330305656336,0.0462823785485606,2.61705109019401,-0.144963141214248,158.856713853441,-0.144963141214248
0.26,0.053690195785458,-0.140903326057537,-0.319713455121643,0.645979770918674,0.0950704618247859,-0.117038419785895,-0.399012436903462,0.600246310291302,2.61705109019401,-0.144963141214248,161.908569457944,-0.144963141214248
0.27,0.00518809052623924,-0.004231498903839,-0.0868540206751661,-0.0571836237592243,0.00106430914334785,-0.00660977399984524,0.092993398279634,0.0465383241005095,2.61705109019401,-0.144963141214248,161.908569457944,-0.144963141214248
0.28,0.0149002173966153,-0.0241823200371289,-0.145156711533001,0.061651044589528,0.0134688236828839,-0.0250078361607699,0.0193345556474496,0.156516763191585,2.61705109019401,-0.144963141214248,158.810936019908,-0.144963141214248
0.29,-0.0144116856786916,-0.0239483246875884,-0.027848879358281,0.0602449085698866,0.027946165709848,0.000480376478685389,-0.0381980275150114,0.0542763280267606,2.61705109019401,-0.144963141214248,158.856713853441,-0.144963141214248
0.3,0.00495409948870557,-0.00464105132025594,-0.0858005007253635,-0.0557772798034009,0.00153598523735486,-0.00661235271683764,0.0912485122538486,0.046330766003264,2.61705109019401,-0.144963141214248,158.856713853441,-0.144963141214248
0.31,0.0243784007992788,0.0342075253488688,-0.202406142041208,-0.289228000398982,-0.0418175469823824,-0.00396912841818193,0.351710630435966,0.0303432857339928,2.61705109019401,-0.144963141214248,158.856713853441,-0.144963141214248
0.32,-0.0144116856786916,-0.023948376573859,-0.027848879358281,0.0602452203673398,0.0279462106201976,0.000480350493197607,-0.0381982973924273,0.0542764841799937,2.61705109019401,-0.144963141214248,158.856713853441,-0.144963141214248
0.33,0.00512958303817967,0.0347338938160222,-0.086502795445643,-0.291336788716626,-0.0326330262766011,0.0129553694582188,0.295489619726355,-0.0710333915394813,2.61705109019401,-0.144963141214248,158.856713853441,-0.144963141214248
0.34,0.0150171718357888,-0.0732694007076541,-0.145858798583819,0.297913309768205,0.0558977516171622,-0.0496926744515772,-0.184811487837776,0.275448440228928,2.61705109019401,-0.144963141214248,155.804858248936,-0.144963141214248
0.35,0.00512958303817967,-0.00493341579150508,-0.086502795445643,-0.0543717673786658,0.00170115735107616,-0.0069106640190601,0.090383686491848,0.0476425432143776,2.61705109019401,-0.144963141214248,158.856713853441,-0.144963141214248
0.36,-0.0240069143303919,-0.00464105132025594,0.030103053539674,-0.0557772798034009,0.0160401317438512,0.0184549577800634,0.0332021281671418,-0.0539899755496521,2.61705109019401,-0.144963141214248,158.856713853441,-0.144963141214248
0.37,0.00512958303817967,0.121324838875073,-0.086502795445643,-0.638000335684301,-0.107582132670935,0.0563215223531932,0.595545509484793,-0.244648131171463,2.61705109019401,-0.144963141214248,161.908569457944,-0.144963141214248
0.38,-0.0142947658333283,0.0150171372419785,-0.0281998190489553,-0.173205604196326,-0.00583908647511117,0.0198937128337141,0.164041666386782,-0.0623357265815983,2.61705109019401,-0.144963141214248,158.856713853441,-0.144963141214248
0.39,0.00512958303817967,-0.00464105132025594,-0.086502795445643,-0.0557772798034009,0.00144810022314399,-0.00676424313922558,0.0916002328661621,0.0469386397442714,2.61705109019401,-0.144963141214248,158.856713853441,-0.144963141214248
0.4,0.00512958303817967,-0.00440724623211864,-0.086502795445643,-0.0564797761492701,0.0012457293815463,-0.00664714975038601,0.0922082811249297,0.0465868181545849,2.61705109019401,-0.144963141214248,158.856713853441,-0.144963141214248
0.41,0.00495424218483774,0.0830024231500947,-0.0858010718030544,-0.406657364152368,-0.0743242132689684,0.0372808005059214,0.394954327232911,-0.129395189794302,2.61705109019401,-0.144963141214248,161.862791624078,-0.144963141214248
0.42,0.00512958303817967,-0.0532020099835533,-0.086502795445643,0.177674584120739,0.0434802140311677,-0.0310843606374579,-0.110464874233361,0.163855128155929,2.61705109019401,-0.144963141214248,161.908569457944,-0.144963141214248
0.43,0.0342661712121679,-0.111767399460412,-0.261412114035958,0.52925732082079,0.0795796221991227,-0.0856341392338934,-0.327181156447427,0.491326872736342,2.61705109019401,-0.144963141214248,161.908569457944,-0.144963141214248
0.44,0.0149002173966153,0.101784114990712,-0.145156711533001,-0.520574557761886,-0.0955618807929512,0.0380782021926276,0.523282036372865,-0.135071283037978,2.61705109019401,-0.144963141214248,155.804858248936,-0.144963141214248
0.45,-0.0144116856786916,-0.0236564531492494,-0.027848879358281,0.0595443349931307,0.0276935352417832,0.000626550489705445,-0.0375916435160202,0.0539254693911024,2.61705109019401,-0.144963141214248,158.856713853441,-0.144963141214248
0.46,0.0343246354557427,-0.111592201303202,-0.261763079665307,0.528555603968879,0.0793986989554755,-0.0855970010867312,-0.326398013590058,0.491279221102661,2.61705109019401,-0.144963141214248,158.856713853441,-0.144963141214248
0.47,-0.0142948436715685,0.0153091644215459,-0.0281995854142985,-0.0578836774965023,-0.00609181267634944,0.0200400321655625,0.0642242376733452,-0.00458083325772499,2.61705109019401,-0.144963141214248,161.862791624245,-0.144963141214248
0.48,-0.0237149865760038,-0.00545888487722486,0.0287009560260215,-0.0515647960030051,0.0166018083788605,0.0177926943140839,0.030258190770273,-0.0506667045992624,2.61705109019401,-0.144963141214248,161.908569457944,-0.144963141214248
0.49,-0.0142948609640842,0.0144913308954894,-0.0281995335101066,-0.171099518248255,-0.00538392524279229,0.019630462808734,0.162218593057218,-0.0612812116517729,2.61705109019401,-0.144963141214248,158.856713853441,-0.144963141214248
0.5,0.00501276697424617,-0.0520340223132669,-0.0861521672591683,0.172059602329309,0.0425277614528733,-0.0303983028579419,-0.105780406684617,0.160739566500625,2.61705109019401,-0.144963141214248,158.856713853441,-0.144963141214248
0.51,0.00495437190496072,-0.00464105132025594,-0.08580159095005,-0.0557772798034009,0.00153584880686592,-0.00661258850771482,0.0912490582560942,0.0463317096511936,2.61705109019401,-0.144963141214248,158.856713853441,-0.144963141214248
0.52,0.0148418180108792,-0.0240655212656569,-0.144806135250556,0.0609491718388975,0.0133969754445405,-0.0248987936373275,0.0197664898499334,0.155861811336396,2.61705109019401,-0.144963141214248,161.908569457944,-0.144963141214248
0.53,0.0244372715134545,-0.00475784144105415,-0.20275897666908,-0.0550754590368127,-0.00812041591572902,-0.0235345732817929,0.149215754757214,0.147916082087929,2.61705109019401,-0.144963141214248,161.908569457944,-0.144963141214248
0.54,-0.0142365134734254,0.0149002173966153,-0.0285499280620871,-0.173205604196326,-0.00576705980789503,0.0197847369332418,0.164217006671878,-0.0620326884561115,2.61705109019401,-0.144963141214248,161.908569457944,-0.144963141214248
0.55,0.00501281020984291,0.170062638848219,-0.0861522970325775,-0.872161815738665,-0.149708830385089,0.0808312779989805,0.798049292095329,-0.362223382048562,2.61705109019401,-0.144963141214248,158.856713853441,-0.144963141214248
0.56,0.0148418353077838,-0.0243574663036233,-0.144806239085287,0.0623527094573895,0.0136496608679033,-0.0250450194295543,0.018551704778443,0.156564815665961,2.61705109019401,-0.144963141214248,158.856713853441,-0.144963141214248
0.57,0.00489607198420166,-0.0530855787679743,-0.0854514559985523,0.176974530330999,0.0434963827022044,-0.0308239336527423,-0.110385468023425,0.162594539168447,2.61705109019401,-0.144963141214248,161.862791623155,-0.144963141214248
0.58,-0.0241239465945293,-0.00452430443505665,0.0304546161854023,-0.056478840756565,0.01599769271449,0.0186147242184656,0.0336332985054323,-0.0546456250019165,2.61705109019401,-0.144963141214248,161.908569457944,-0.144963141214248
0.59,0.0245541135205255,0.121326551228678,-0.203109838463708,-0.638008338984184,-0.117311735432616,0.0395094071533846,0.65395113946005,-0.143722490560848,2.61705109019401,-0.144963141214248,161.908569457944,-0.144963141214248
0.6,0.0342663917377092,-0.111767840511495,-0.261413437868795,0.529259971206001,0.0795798935097102,-0.0856345509961271,-0.327182787500949,0.491329345940651,2.61705109019401,-0.144963141214248,158.856713853441,-0.144963141214248
0.61,0.0148418569299999,-0.0240655991038982,-0.144806368885216,0.0609496395881716,0.0133970233263841,-0.0248988663065701,0.0197662019958894,0.155862247816163,2.61705109019401,-0.144963141214248,158.856713853441,-0.144963141214248
0.62,0.00501287074678958,-0.00370735298913517,-0.0861524787366952,-0.0599853982257729,0.000698385660703702,-0.00619561109003718,0.0950671407188447,0.0445279277344529,2.61705109019401,-0.144963141214248,158.856713853441,-0.144963141214248
0.63,0.00512958303817967,-0.0534942231124358,-0.086502795445643,0.179079368982457,0.0437331401641657,-0.031230705722575,-0.111680790862868,0.164558667250649,2.61705109019401,-0.144963141214248,161.908569457944,-0.144963141214248
0.64,0.00512958303817967,-0.0534942231124358,-0.086502795445643,0.179079368982457,0.0437331401641657,-0.031230705722575,-0.111680790862868,0.164558667250649,2.61705109019401,-0.144963141214248,161.908569457944,-0.144963141214248
0.65,0.00489621034167009,0.0359000654666713,-0.0851018400873723,-0.297645900305942,-0.033525533536194,0.013741403761432,0.300248872916334,-0.0754056991722977,2.61705109019401,-0.144963141214248,161.908569457944,-0.144963141214248
0.66,0.0148418785478248,-0.0726271198877739,-0.144806498658785,0.294404257812506,0.0554296128533539,-0.0492192840353125,-0.182301224105439,0.272780227952115,2.61705109019401,-0.144963141214248,158.856713853441,-0.144963141214248
0.67,-0.014236682108331,-0.0244739926543965,-0.0285492531760125,0.0630532309966964,0.028313514891235,6.5638441002127e-05,-0.0402780225788181,0.0562889926466182,2.61705109019401,-0.144963141214248,158.856713853441,-0.144963141214248
0.68,-0.0144116856786916,-0.0236573482140913,-0.027848879358281,0.0595479207707015,0.0276943099684017,0.000626102226682596,-0.0375947471987953,0.0539272652067997,2.61705109019401,-0.144963141214248,161.908569457944,-0.144963141214248
0.69,0.0147252397649469,-0.0241823200371289,-0.144456441523328,0.061651044589528,0.0135564553252335,-0.0248563836373727,0.0189838490431211,0.155910641946182,2.61705109019401,-0.144963141214248,161.908569457944,-0.144963141214248
0.7,-0.0144116856786916,-0.0234241398626128,-0.027848879358281,0.0581463580652399,0.0274924556343823,0.000742896760102958,-0.0363816195183163,0.0532253398203116,2.61705109019401,-0.144963141214248,161.908569457944,-0.144963141214248
0.71,0.0246125345285031,-0.00504927190609074,-0.203460544546235,-0.0536746238409939,-0.00795594178724555,-0.0238322259341496,0.148354613372806,0.149224887745068,2.61705109019401,-0.144963141214248,161.908569457944,-0.144963141214248
0.72,0.0148419044909612,0.0144920270570369,-0.144806654397551,-0.171103104025845,-0.0199766935907146,-0.00558862150475457,0.220620438428292,0.039646708725941,2.61705109019401,-0.144963141214248,161.908569457944,-0.144963141214248
0.73,-0.0240073942961776,-0.00411627409740192,0.030104974388883,-0.0578796240217548,0.0155861492909221,0.0187181901800941,0.0350208578339798,-0.0550445263075918,2.61705109019401,-0.144963141214248,161.908569457944,-0.144963141214248
0.74,-0.0144116856786916,-0.0239491030172082,-0.027848879358281,0.0602495857453766,0.027946839395872,0.000479986678559354,-0.0382020758612118,0.0542786704322774,2.61705109019401,-0.144963141214248,161.908569457944,-0.144963141214248
0.75,-0.014178485942346,-0.0233078210258329,0.0294051196648016,0.0574469796409261,0.0272749852247214,0.000599304247263942,-0.0644500034110254,0.00331867333208537,2.61705109019401,-0.144963141214248,161.908569457944,-0.144963141214248
0.76,0.00512958303817967,-0.00493252936400324,-0.086502795445643,-0.0543760287886181,0.00170039010053858,-0.00691022008175755,0.0903873749706801,0.0476404090310007,2.61705109019401,-0.144963141214248,161.908569457944,-0.144963141214248
0.77,0.0244376866214008,-0.0921687215622906,-0.20276084561426,0.411834297198264,0.0675381803511969,-0.067311722282839,-0.254918741335749,0.381753695697625,2.61705109019401,-0.144963141214248,161.908569457944,-0.144963141214248
0.78,0.00512958303817967,-0.0534942231124358,-0.086502795445643,0.179079368982457,0.0437331401641657,-0.031230705722575,-0.111680790862868,0.164558667250649,2.61705109019401,-0.144963141214248,161.908569457944,-0.144963141214248
0.79,0.00512958303817967,-0.0516291787226181,-0.086502795445643,0.169973264069815,0.0421188442316374,-0.0302966611742727,-0.103798968745438,0.159998181882924,2.61705109019401,-0.144963141214248,161.908569457944,-0.144963141214248
0.8,0.0148419390847704,0.0144922692137012,-0.144806862067014,-0.171104351322459,-0.0199769205154353,-0.00558853017155755,0.220621622034639,0.039646263808577,2.61705109019401,-0.144963141214248,161.908569457944,-0.144963141214248
0.81,-0.0144116856786916,-0.0239492240910973,-0.027848879358281,0.0602503133083675,0.0279469441918155,0.000479926042787581,-0.0382027056059961,0.0542790348076504,2.61705109019401,-0.144963141214248,161.908569457944,-0.144963141214248
0.82,0.00501304370695138,-0.00475759065148425,-0.0861529978836843,-0.0550769660934627,0.0016073360552772,-0.00672173689014239,0.0908188894905514,0.046986599686608,2.61705109019401,-0.144963141214248,161.908569457944,-0.144963141214248
0.83,-0.0240075240162973,0.209031067079231,0.0301054935358655,-1.10632984380669,-0.16890423957318,0.125465955812247,0.942510486279872,-0.580125889174794,2.61705109019401,-0.144963141214248,161.908569457944,-0.144963141214248
0.84,-0.0240075369923114,-0.00464105132025594,0.0301055454665804,-0.0557772798034009,0.0160404435830624,0.018455496727345,0.0332008801696387,-0.0539921324460194,2.61705109019401,-0.144963141214248,161.908569457944,-0.144963141214248
0.85,0.0148419607069866,0.0144924205692142,-0.144806991866943,-0.171105130921976,-0.0199770623505055,-0.00558847308544382,0.220622361825742,0.0396459857212651,2.61705109019401,-0.144963141214248,161.908569457944,-0.144963141214248
0.86,0.024554347017634,-0.00464105132025594,-0.203111240165921,-0.0557772798034009,-0.00828013734381348,-0.0235774180178243,0.149999637551447,0.147869501786,2.61705109019401,-0.144963141214248,161.908569457944,-0.144963141214248
