t,iq,id,vq,vd,ia,ib,va,vb,theta_e,omega,omega_obs,r
0,0,0,0,0,0,0,0,0,0,-0.144963141214248,0,0
0.01,-0.0338357067833788,0.014607098366151,0.0887551058240882,-0.171796464304999,0.00430224504266957,0.0366020909758176,0.104249052667491,-0.162860765611226,2.61705109019401,-0.144963141214248,-2.28126206436718,-0.144963141214248
0.02,-0.0241236962309472,0.121732333471408,0.0308050367290811,-0.640100621981112,-0.0932843233010965,0.0818458841878664,0.53861375061108,-0.3472362080791,2.61705109019401,-0.144963141214248,-2.28126206436718,-0.144963141214248
0.03,-0.0144116856786916,0.189423288304235,0.0308050367290811,-0.988862745416628,-0.156738407402839,0.107340348801895,0.840486070838751,-0.52190194892032,2.61705109019401,-0.144963141214248,-2.28126206436718,-0.144963141214248
0.04,-0.0241236962307728,0.121439214437709,0.0887551058209275,-0.638691482075073,-0.0930306130589878,0.08169908541074,0.508371727828354,-0.396689380283051,2.61705109019401,-0.144963141214248,-2.28126206436718,-0.144963141214248
0.05,0.00501233542528967,-0.0525562422093158,-0.0861508719473516,0.174851949283083,0.0429799869037161,-0.0306594655422477,-0.108197981426131,0.162136898085209,2.61705109019401,-0.144963141214248,-2.28126206436718,-0.144963141214248
0.06,-0.0337184591716375,0.0536310119944672,0.0884031823299117,-0.289224788700599,-0.029533764372764,0.0560444171923853,0.206065813541017,-0.22136617070962,2.61705109019401,-0.144963141214248,-2.28126206436718,-0.144963141214248
0.07,-0.0142944380665502,0.0147829697844739,-0.0282008028543254,-0.172501034250929,-0.00563656613432457,0.0197761542646818,0.163432316022149,-0.0619820149632557,2.61705109019401,-0.144963141214248,-2.28126206436718,-0.144963141214248
0.08,-0.0144116856786916,-0.033659835364767,-0.027848879358281,0.0602419046965989,0.0363519989814124,-0.0043833059373051,-0.0381954275015979,0.0542748236381875,2.61705109019401,-0.144963141214248,-0.144963141214248,-0.144963141214248
0.09,-0.0142944380661949,-0.0335425877518262,-0.0282008028553917,0.059537334746932,0.0361917953747025,-0.0044260705228124,-0.0374093354193779,0.0542265722126836,2.61705109019401,-0.144963141214248,-0.144963141214248,-0.144963141214248
0.1,0.00489508781284387,-0.0530838564680981,-0.085095101455144,0.176965659136774,0.0434953848483177,-0.0308222192438804,-0.110556257677289,0.162281652363312,2.61705109019401,-0.144963141214248,-0.144963141214248,-0.144963141214248
0.11,-0.0144703094851143,-0.0332494687184914,-0.027496955860123,0.058128194841386,0.0360261643983559,-0.00412704560182691,-0.0365421472827595,0.0529116347229681,2.61705109019401,-0.144963141214248,-0.144963141214248,-0.144963141214248
0.12,0.00495371162030112,-0.0532011040826382,-0.085447024959512,0.177670229094335,0.0435675091903596,-0.0309316808042619,-0.110989851746371,0.162939121116396,2.61705109019401,-0.144963141214248,-0.144963141214248,-0.144963141214248
0.13,0.0148415935905668,0.0147829697845184,-0.144804788037091,-0.172501034251196,-0.0202283644192033,-0.00544264355634714,0.221829487298785,0.0389449871094788,2.61705109019401,-0.144963141214248,-0.144963141214248,-0.144963141214248
0.14,0.0148415935904779,0.0144898507536534,-0.144804788036557,-0.171091894357729,-0.0199746541794158,-0.00558944233182628,0.220609801155492,0.0396507072744313,2.61705109019401,-0.144963141214248,-0.144963141214248,-0.144963141214248
0.15,-0.0240064486184507,0.0339138718574517,0.0301011897351265,-0.287815648800196,-0.0173314550131246,0.0377634869518428,0.234044713031895,-0.170196949501352,2.61705109019401,-0.144963141214248,-0.144963141214248,-0.144963141214248
0.16,-0.0241823200371289,-0.00411343706345054,0.0311569602265723,-0.057890989648282,0.015671299340536,0.0188710186220143,0.034503843784783,-0.0559607685534517,2.61705109019401,-0.144963141214248,-0.144963141214248,-0.144963141214248
0.17,-0.0241236962307283,0.0825911722288566,0.0304531132310559,-0.521967727628295,-0.0594055492981598,0.0622433543645667,0.436539644672293,-0.287768725577151,2.61705109019401,-0.144963141214248,-0.144963141214248,-0.144963141214248
0.18,0.00512958303817967,-0.00464105132025594,-0.086502795445643,-0.0557772798034009,0.00144810022314399,-0.00676424313922558,0.0916002328661621,0.0469386397442714,2.61705109019401,-0.144963141214248,-0.144963141214248,-0.144963141214248
0.19,0.0148415935905891,0.0144898507544317,-0.144804788037224,-0.171091894361738,-0.0199746541801451,-0.00558944233153273,0.220609801159297,0.0396507072730013,2.61705109019401,-0.144963141214248,-0.144963141214248,-0.144963141214248
0.2,-0.0240064486187834,0.082767043650628,0.0884031823275088,-0.522672297591382,-0.0596164949548422,0.0622299495359792,0.408127151126834,-0.338280478047699,2.61705109019401,-0.144963141214248,-0.113466747044458,-0.144963141214248
0.21,-0.0144116856786916,-0.0336598353645453,-0.027848879358281,0.0602419046955331,0.0363519989812205,-0.00438330593719407,-0.0381954275006754,0.0542748236376538,2.61705109019401,-0.144963141214248,-0.144963141214248,-0.144963141214248
0.22,-0.0240064486182605,0.121321966826197,0.0301011897343656,-0.637986912131853,-0.0929878484741177,0.0815388818048938,0.537136719405286,-0.345568410508668,2.61705109019401,-0.144963141214248,-0.144963141214248,-0.144963141214248
0.23,0.00512958303817967,-0.0534942231124358,-0.086502795445643,0.179079368982457,0.0437331401641657,-0.031230705722575,-0.111680790862868,0.164558667250649,2.61705109019401,-0.144963141214248,-0.144963141214248,-0.144963141214248
0.24,0.0146657221707469,-0.0337770829761632,-0.144100941037729,0.0609464746393667,0.0218910445475125,-0.0296100812188514,0.0194156516954501,0.155250077127733,2.61705109019401,-0.144963141214248,-0.144963141214248,-0.144963141214248
0.25,0.0148415935906113,0.0147829697846073,-0.144804788037358,-0.172501034251731,-0.0202283644193026,-0.00544264355634108,0.221829487299381,0.0389449871094421,2.61705109019401,-0.144963141214248,-0.144963141214248,-0.144963141214248
0.26,-0.0142944380665057,-0.0340702020077504,-0.0282008028544589,0.0623556145351924,0.0366484738067134,-0.00469030831872837,-0.039848707707043,0.0556380125433701,2.61705109019401,-0.144963141214248,-0.144963141214248,-0.144963141214248
0.27,0.0149588412027972,0.0147829697842515,-0.145508635029713,-0.172501034249593,-0.0202870839291369,-0.00554412765227788,0.222181985312933,0.0395542044262431,2.61705109019401,-0.144963141214248,-0.144963141214248,-0.144963141214248
0.28,0.0245536041425092,-0.00493417035161015,-0.203106780625872,-0.0543681399077958,-0.0080260550597085,-0.0237235737953682,0.148777717996421,0.14857136198143,2.61705109019401,-0.144963141214248,-0.144963141214248,-0.144963141214248
0.29,0.00512958303817967,-0.00464105132025594,-0.086502795445643,-0.0557772798034009,0.00144810022314399,-0.00676424313922558,0.0916002328661621,0.0469386397442714,2.61705109019401,-0.144963141214248,-0.144963141214248,-0.144963141214248
0.3,0.0149002173966153,-0.0339529543955646,-0.145156711533001,0.061651044589528,0.0219258316710879,-0.0299011286774396,0.0193345556474496,0.156516763191585,2.61705109019401,-0.144963141214248,-0.144963141214248,-0.144963141214248
0.31,0.00501233542621617,-0.0525562422167277,-0.0861508719501325,0.17414737937216,0.0429799869096676,-0.0306594655467616,-0.107588138384222,0.161784038022843,2.61705109019401,-0.144963141214248,-0.144963141214248,-0.144963141214248
0.32,0.00512958303817967,-0.00440655609597313,-0.086502795445643,-0.0571864196941951,0.00124513203170377,-0.00664680411898559,0.0928199190068737,0.0462329195801951,2.61705109019401,-0.144963141214248,-0.144963141214248,-0.144963141214248
0.33,0.00501233542586037,-0.0530838564693182,-0.0857989484524861,0.176965659143058,0.0434366653388155,-0.030923703340969,-0.110203759664829,0.162890869686505,2.61705109019401,-0.144963141214248,-0.144963141214248,-0.144963141214248
0.34,0.0147243459778695,0.0149002173966153,-0.144452864538777,-0.173205604196326,-0.0202711290044865,-0.00528243995004811,0.222263081360138,0.0382875183678606,2.61705109019401,-0.144963141214248,-0.144963141214248,-0.144963141214248
0.35,0.00512958303817967,-0.0529666088554278,-0.086502795445643,0.1762610891882,0.0432764617313724,-0.0309664679258472,-0.10924141857048,0.163147226916152,2.61705109019401,-0.144963141214248,-0.144963141214248,-0.144963141214248
0.36,-0.0140599428401558,0.0140794841066985,-0.0292565733509093,-0.168978184498566,-0.00514510057703682,0.0192208690082264,0.16091184767554,-0.0593038885597924,2.61705109019401,-0.144963141214248,-0.144963141214248,-0.144963141214248
0.37,-0.0241823200371289,-0.00464105132025594,0.0311569602244581,-0.0557772798034009,0.016127977773154,0.0186067808253881,0.0326743145672531,-0.0549021883011554,2.61705109019401,-0.144963141214248,-0.144963141214248,-0.144963141214248
0.38,-0.0239478248129351,-0.0530838564700965,0.0880512588327993,0.176965659147067,0.0579403843590946,-0.00585713166398252,-0.197270769559637,0.0124141925530902,2.61705109019401,-0.144963141214248,-0.144963141214248,-0.144963141214248
0.39,-0.0145875570971038,-0.0332494687219156,0.0318608072184159,0.0588327648047322,0.0360848839113637,-0.00402556150795318,-0.066879323029268,0.00188716780515823,2.61705109019401,-0.144963141214248,-0.144963141214248,-0.144963141214248
0.4,-0.0144116856786916,-0.0339529543955646,-0.027496955861302,0.061651044589528,0.036605709221097,-0.00453010471282749,-0.0395913626522599,0.0546759351447746,2.61705109019401,-0.144963141214248,-0.144963141214248,-0.144963141214248
0.41,-0.0145289332913155,0.0151347126218632,0.0315088837240668,-0.17461474409292,-0.0058235794018386,0.020155280987383,0.135358263568077,-0.114722530882158,2.61705109019401,-0.144963141214248,-0.144963141214248,-0.144963141214248
0.42,0.00518820684458006,-0.053083856467633,-0.0282008028563046,0.176965659134378,0.0433485860719227,-0.0310759294841446,-0.13904984727869,0.113036585963917,2.61705109019401,-0.144963141214248,-0.114117729054705,-0.144963141214248
0.43,0.0244363565290935,-0.00481692273972397,-0.202402933626133,-0.0550727098529723,-0.00806881964444953,-0.023563370188553,0.149035063047486,0.147609284577382,2.61705109019401,-0.144963141214248,-0.144963141214248,-0.144963141214248
0.44,0.0147243459785366,-0.0336598353654334,-0.144100941045669,0.0602419046998027,0.0217602006970933,-0.0296021037587863,0.0200254947647333,0.154897217055489,2.61705109019401,-0.144963141214248,-0.144963141214248,-0.144963141214248
0.45,0.00501233542594932,0.0340311194706803,-0.0861508719493315,-0.28852021875146,-0.0319660178842177,0.0127048927376744,0.292875478374966,-0.0699274161731681,2.61705109019401,-0.144963141214248,-0.144963141214248,-0.144963141214248
0.46,0.00501233542577142,0.0825911722312151,-0.0861508719487976,-0.521967727640105,-0.0739973475847322,0.0370245565452309,0.494936815957462,-0.186841723512718,2.61705109019401,-0.144963141214248,-0.144963141214248,-0.144963141214248
0.47,0.00501233542560019,-0.0533769754998563,-0.0861508719482836,0.178374799034427,0.0436903755784058,-0.0310705021161363,-0.111247196798527,0.163901198508405,2.61705109019401,-0.144963141214248,1.99133578193869,-0.144963141214248
0.48,-0.0144703094850697,-0.0335425877509175,-0.0274969558603908,0.0595373347422512,0.0362798746394278,-0.00427384437820349,-0.0377618334320539,0.0536173548923198,2.61705109019401,-0.144963141214248,1.99133578193869,-0.144963141214248
0.49,-0.0142358142592902,-0.0339529543955646,-0.0285527263551291,0.061651044589528,0.0365176299553215,-0.00468233085743698,-0.0390626156265047,0.0555897611229514,2.61705109019401,-0.144963141214248,1.99133578193869,-0.144963141214248
0.5,0.00512958303817967,-0.00464105132025594,-0.086502795445643,-0.0557772798034009,0.00144810022314399,-0.00676424313922558,0.0916002328661621,0.0469386397442714,2.61705109019401,-0.144963141214248,1.99133578193869,-0.144963141214248
0.51,0.0050123354259938,-0.00481692273853477,-0.0857989484532871,-0.0550727098577364,0.00165904587692418,-0.00675083830868038,0.0906378917801722,0.0466822825107132,2.61705109019401,-0.144963141214248,1.99133578193869,-0.144963141214248
0.52,0.00542270206908912,-0.0054617846068024,-0.0879104894324907,-0.0522544300697336,0.00201169011895372,-0.0074289899506266,0.0892560135404754,0.0499213747911173,2.61705109019401,-0.144963141214248,1.99133578193869,-0.144963141214248
0.53,-0.0140599428410665,0.0140794841088235,-0.0292565733472645,-0.169682754457314,-0.00514510057842005,0.019220869010079,0.161521690755626,-0.0596567486516717,2.61705109019401,-0.144963141214248,1.99133578193869,-0.144963141214248
0.54,0.00501233542546676,-0.0042893084821172,-0.0861508719478831,-0.0578909896498954,0.00120236744490585,-0.00648660051179215,0.0932535130776537,0.0455754508337627,2.61705109019401,-0.144963141214248,1.99133578193869,-0.144963141214248
0.55,-0.0144116856786916,0.0149002173966153,0.0304531132307872,-0.173205604196326,-0.00567933071992469,0.0199363578705219,0.134667324447827,-0.113102984737474,2.61705109019401,-0.144963141214248,1.99133578193869,-0.144963141214248
0.56,0.00518820684416197,-0.0533769755004712,-0.0868547189411567,0.178374799038122,0.0436022963135829,-0.031222728260327,-0.110894698786063,0.164510415826434,2.61705109019401,-0.144963141214248,1.99133578193869,-0.144963141214248
0.57,-0.0144116856786916,-0.0339529543955646,-0.0274969558622332,0.061651044589528,0.036605709221097,-0.00453010471282749,-0.0395913626517935,0.0546759351455806,2.61705109019401,-0.144963141214248,1.99133578193869,-0.144963141214248
0.58,-0.0142944380663733,0.0147829697842971,-0.0282008028548561,-0.172501034249866,-0.00563656613426008,0.0197761542644402,0.163432316021495,-0.0619820149622642,2.61705109019401,-0.144963141214248,1.99133578193869,-0.144963141214248
0.59,-0.0338943305893165,0.0536310119928694,0.147760945406696,-0.289224788694198,-0.029445685106468,0.0561966433347038,0.176338480875738,-0.272743497713732,2.61705109019401,-0.144963141214248,1.99133578193869,-0.144963141214248
0.6,-0.0142944380660242,0.0147829697839479,0.0301011897338348,-0.172501034247768,-0.00563656613413273,0.0197761542639631,0.134233730382824,-0.112445515995318,2.61705109019401,-0.144963141214248,1.99133578193869,-0.144963141214248
0.61,0.00512958303817967,0.0344414861134865,-0.086502795445643,-0.290633928589255,-0.0323799317296722,0.0128089269274532,0.294881256595189,-0.070681387762105,2.61705109019401,-0.144963141214248,-0.144963141214248,-0.144963141214248
0.62,-0.0240064486192504,0.0339138718598509,0.0301011897383271,-0.287815648813012,-0.0173314550148008,0.0377634869537366,0.234044713041385,-0.170196949510541,2.61705109019401,-0.144963141214248,-0.144963141214248,-0.144963141214248
0.63,-0.0241236962310805,-0.00428930848396515,0.0304531132331701,-0.0578909896387905,0.0157941657310603,0.0187321973078404,0.0348563417924945,-0.0553515512320624,2.61705109019401,-0.144963141214248,-0.144963141214248,-0.144963141214248
0.64,-0.0241236962309915,0.0340311194705246,0.0304531132326361,-0.288520218750658,-0.017374219599331,0.0379236905584952,0.234478307098266,-0.170854418244945,2.61705109019401,-0.144963141214248,-0.144963141214248,-0.144963141214248
0.65,-0.0239478248122235,-0.00481692273893504,0.0297492662381444,-0.0550727098561329,0.0161627648965865,0.018315733367995,0.032769467526886,-0.0533308935853334,2.61705109019401,-0.144963141214248,-0.144963141214248,-0.144963141214248
0.66,-0.0144703094850035,-0.0337770829766286,-0.0274969558607881,0.060946474641231,0.0364828428320712,-0.00439128339921607,-0.0389815195796515,0.0543230750608393,2.61705109019401,-0.144963141214248,-0.144963141214248,-0.144963141214248
0.67,-0.0144116856786916,0.0149002173966153,-0.027848879358281,-0.173205604196326,-0.00567933071992469,0.0199363578705219,0.16386591008487,-0.0626394837030434,2.61705109019401,-0.144963141214248,-0.144963141214248,-0.144963141214248
0.68,0.0245536041420711,-0.00493417035270536,-0.203106780623242,-0.0543681399025307,-0.00802605505854113,-0.0237235737955375,0.148777717990547,0.14857136198179,2.61705109019401,-0.144963141214248,-0.144963141214248,-0.144963141214248
0.69,-0.014294438066638,-0.0337770829774842,-0.0282008028540617,0.0609464746446588,0.0363947635675549,-0.00454350954335756,-0.038629021566756,0.0549322923790805,2.61705109019401,-0.144963141214248,-0.144963141214248,-0.144963141214248
0.7,0.00501233542594824,-0.00481692273860311,-0.0861508719493283,-0.0550727098574627,0.00165904587700615,-0.00675083830867517,0.0908141407875681,0.046986891168597,2.61705109019401,-0.144963141214248,-0.144963141214248,-0.144963141214248
0.71,0.0147243459780045,-0.0334253401397323,-0.144452864539317,0.0595373347485454,0.0215572325046919,-0.0294846647373755,0.0208115868465958,0.154848965626191,2.61705109019401,-0.144963141214248,-0.144963141214248,-0.144963141214248
0.72,0.00512958303817967,0.0339138718568837,-0.086502795445643,-0.287815648797162,-0.0319232532972295,0.0125446891309284,0.292441884304674,-0.0692699474286918,2.61705109019401,-0.144963141214248,-0.144963141214248,-0.144963141214248
0.73,-0.0239478248116163,0.0343242385007302,0.0297492662354108,-0.289929358640163,-0.0177160091042657,0.0379182631891342,0.236050491255703,-0.17095092108843,2.61705109019401,-0.144963141214248,-0.144963141214248,-0.144963141214248
0.74,-0.0144116856786916,0.102015193331996,-0.027848879358281,-0.521967727624303,-0.0810820139389167,0.0635649539469299,0.465738230306015,-0.237305224540488,2.61705109019401,-0.144963141214248,-0.144963141214248,-0.144963141214248
0.75,0.0440948728599142,-0.121185177949437,-0.262112620212082,0.527841492438263,0.0828088409513406,-0.0988579841361553,-0.325604856178124,0.491224128527008,2.61705109019401,-0.144963141214248,-0.144963141214248,-0.144963141214248
0.76,0.0147243459783365,-0.0728009966049353,-0.144100941044468,0.295098553484057,0.0556389746976003,-0.0492046335801959,-0.183255528963511,0.272517244560024,2.61705109019401,-0.144963141214248,-0.144963141214248,-0.144963141214248
0.77,0.0148415935904334,-0.0723906299613062,-0.144452864539578,0.292984843641718,0.0552250608515005,-0.0491005993898896,-0.181249750739956,0.271763272967771,2.61705109019401,-0.144963141214248,-0.144963141214248,-0.144963141214248
0.78,0.00512958303817967,-0.00493417035161015,-0.086502795445643,-0.0543681399077958,0.00170181046331043,-0.00691104191502673,0.0903805467212866,0.0476443599107569,2.61705109019401,-0.144963141214248,-0.144963141214248,-0.144963141214248
0.79,-0.0142358142596222,-0.0336598353637823,-0.0285527263538007,0.060241904691865,0.0362639197149507,-0.00453553208113412,-0.0378429294805132,0.0548840409542854,2.61705109019401,-0.144963141214248,-0.144963141214248,-0.144963141214248
0.8,0.0149002173966153,-0.0339529543955646,-0.145156711533001,0.061651044589528,0.0219258316710879,-0.0299011286774396,0.0193345556474496,0.156516763191585,2.61705109019401,-0.144963141214248,-0.144963141214248,-0.144963141214248
0.81,-0.0144116856786916,-0.0339529543955646,-0.027848879358281,0.061651044589528,0.036605709221097,-0.00453010471282749,-0.0394151136441573,0.054980543803333,2.61705109019401,-0.144963141214248,-0.144963141214248,-0.144963141214248
0.82,0.00512958303817967,-0.00464105132025594,-0.086502795445643,-0.0557772798034009,0.00144810022314399,-0.00676424313922558,0.0916002328661621,0.0469386397442714,2.61705109019401,-0.144963141214248,-0.144963141214248,-0.144963141214248
0.83,0.0246708517550509,-0.052966608856994,-0.203810627620364,0.176261089196566,0.0334898766993887,-0.0478804839030397,-0.0504917492861141,0.264683446308594,2.61705109019401,-0.144963141214248,-0.177007625068676,-0.144963141214248
0.84,-0.043547717335256,-0.140785070469628,0.205359091002731,0.645269816816525,0.143666432847756,-0.0328145672689842,-0.661362800156272,0.145412308011923,2.61705109019401,-0.144963141214248,-0.144963141214248,-0.144963141214248
0.85,-0.0144703094850252,0.102191064752865,0.0308050367290811,-0.522672297580878,-0.0812048803296049,0.0637037752615281,0.436973238740242,-0.288426194322252,2.61705109019401,-0.144963141214248,-0.144963141214248,-0.144963141214248
