t,iq,id,vq,vd,ia,ib,va,vb,theta_e,omega,omega_obs,r
0,0,0,0,0,0,0,0,0,0,-0.144963141214248,0,0
0.01,0.0636947690996698,0.0831774177274175,-0.438074390786905,-0.524786052101825,0.0636907816372735,-0.0831804710547777,-0.438049232899503,0.524807052067799,-1.57084426515748,-0.144963141214248,35.9127108258574,-0.144963141214248
0.02,-0.00481689920477861,-0.00487551516628616,-0.0271451265492987,-0.0543683284722993,-0.00481666547503005,0.0048757460749445,-0.0271425201894653,0.0543696297027461,-1.57084426515748,-0.144963141214248,35.8669329919321,-0.144963141214248
0.03,0.0148416055627204,-0.00475827498804573,-0.144804859906906,-0.055072853745544,0.0148418336495783,0.00475756350030975,-0.144802219638089,0.0550797953901384,-1.57084426515748,-0.144963141214248,35.8669329919321,-0.144963141214248
0.04,0.0146071788652206,-0.00464105132025594,-0.143749404142284,-0.0557772798034009,0.0146074013328372,0.00464035107068667,-0.143746730105647,0.0557841708503647,-1.57084426515748,-0.144963141214248,35.8669329919321,-0.144963141214248
0.05,0.0829430364303743,0.112079128768036,-0.495321197694284,-0.640101594371939,0.0829376634451583,-0.112083104792605,-0.495290511702829,0.640125338523596,-1.57084426515748,-0.144963141214248,35.8669329919321,-0.144963141214248
0.06,-0.0627960618580793,-0.0434891909476041,0.204656121226197,0.177670814499876,-0.0627939769853205,0.0434922012380142,0.204647603743115,-0.177680625175065,-1.57084426515748,-0.144963141214248,33.7306340687792,-0.144963141214248
0.07,0.0051881783621628,0.0244950657831015,-0.0868545479613894,-0.172501376562768,0.00518700410285678,-0.024495314467731,-0.086846278428057,0.172505540029367,-1.57084426515748,-0.144963141214248,33.7306340687792,-0.144963141214248
0.08,0.0243778957731987,0.0243778957731987,-0.202403716670962,-0.171797248144599,0.0243767271087813,-0.0243790643815936,-0.202395480759622,0.171806950849951,-1.57084426515748,-0.144963141214248,33.7306340687792,-0.144963141214248
0.09,0.0243193293425245,0.0244950905487877,-0.202052112825693,-0.172501475778197,0.0243181550600487,-0.0244962563494691,-0.202043843155237,0.172511161627427,-1.57084426515748,-0.144963141214248,33.7306340687792,-0.144963141214248
0.1,0.014665885629853,-0.00475821720363711,-0.144101676981503,-0.0550732009863695,0.0146661137141427,0.00475751413962704,-0.144099036696847,0.0550801089215254,-1.57084426515748,-0.144963141214248,33.7306340687792,-0.144963141214248
0.11,-0.0337186391392663,-0.00475820894840506,0.0884039926001927,-0.0550732505941038,-0.0337184109997764,0.00475982535928596,0.0884066326200674,0.0550690125881727,-1.57084426515748,-0.144963141214248,33.7306340687792,-0.144963141214248
0.12,-0.00458247663379741,-0.00475820069317301,-0.0282005079852816,-0.0550733002018381,-0.00458224852818195,0.00475842036413195,-0.0281978678290452,0.0550746520247329,-1.57084426515748,-0.144963141214248,33.7306340687792,-0.144963141214248
0.13,0.0146073646023854,-0.00487533355563983,-0.14375029613858,-0.0543694198156608,0.0146075983011086,0.00487463329689742,-0.143747689592445,0.0543763109070032,-1.57084426515748,-0.144963141214248,33.7306340687792,-0.144963141214248
0.14,-0.0247679843494297,-0.0244165857620493,0.0339692483607912,0.0630588053618026,-0.0247668138298294,0.0244177730706073,0.0339662253858846,-0.0630604337194893,-1.57084426515748,-0.144963141214248,33.7306340687792,-0.144963141214248
0.15,0.0149587797007813,-0.00446536440775798,-0.145508265828089,-0.0564811105884372,0.014958993745851,0.00446464730322225,-0.145505558048936,0.0564880859515415,-1.57084426515748,-0.144963141214248,35.8669329919321,-0.144963141214248
0.16,-0.00499240037955653,-0.00487528402645634,-0.0264427612915935,-0.0543697174487936,-0.00499216666068677,0.00487552334835389,-0.026440154865982,0.0543709850089985,-1.57084426515748,-0.144963141214248,35.8669329919321,-0.144963141214248
0.17,-0.0627964250793977,-0.0434893725582633,0.204657756561628,0.177671905843315,-0.0627943401979325,0.0434923828660855,0.204649239026227,-0.177681716596898,-1.57084426515748,-0.144963141214248,35.8669329919321,-0.144963141214248
0.18,-0.0629135579429431,-0.0434893890687147,0.205360865151729,0.177672005058707,-0.0629114730605518,0.0434924049916944,0.205352347610764,-0.177681849518165,-1.57084426515748,-0.144963141214248,35.8669329919321,-0.144963141214248
0.19,-0.00428977655802304,-0.00423123076431756,-0.0296061552655022,-0.0578881768658275,-0.00428957371481942,0.00423143640431965,-0.0296033801670726,0.0578895960699168,-1.57084426515748,-0.144963141214248,35.8669329919321,-0.144963141214248
0.2,-0.00434834298704763,-0.00434834298704763,-0.0292546009836531,-0.0571844453094899,-0.00434813452960852,0.00434855143449387,-0.0292518596213659,0.0571858476614512,-1.57084426515748,-0.144963141214248,35.8669329919321,-0.144963141214248
0.21,0.00466128272597566,0.0241440139038214,-0.0843943616780864,-0.1710950047604,0.00466012529612733,-0.0241442373303402,-0.0843861595667422,0.171099050291314,-1.57084426515748,-0.144963141214248,35.8669329919321,-0.144963141214248
0.22,0.0246123183436413,0.0244952515208221,-0.203459246770853,-0.17250212065875,0.0246111440531121,-0.0244964313669163,-0.203450977067866,0.172511873963677,-1.57084426515748,-0.144963141214248,35.8669329919321,-0.144963141214248
0.23,-0.0238896736181437,-0.0238896736181437,0.0293996124446194,0.0602441767297617,-0.0238885283588579,0.0238908188225289,0.0293967244036514,-0.0602455860298192,-1.57084426515748,-0.144963141214248,35.8669329919321,-0.144963141214248
0.24,0.0828264566562175,0.111787208794439,-0.436318304213621,-0.638698595835155,0.0828210976653009,-0.1117911792307,-0.436287685547415,0.638719511486324,-1.57084426515748,-0.144963141214248,35.8669329919321,-0.144963141214248
0.25,0.0440365573845709,0.0439195153263368,-0.261761930672531,-0.289227259147156,0.0440344519043216,-0.0439216263163254,-0.261748065290542,0.28923980725316,-1.57084426515748,-0.144963141214248,33.7626785525463,-0.144963141214248
0.26,-0.0334848191835551,-0.00434846681275006,0.0873512623813513,-0.0571838500300344,-0.033484610686701,0.00435007201515595,0.0873540035811166,0.0571796624878411,-1.57084426515748,-0.144963141214248,33.7306340687792,-0.144963141214248
0.27,-0.130781606371641,-0.0823380239966603,0.554475197986136,0.294397986858633,-0.13077765907132,0.0823442933581136,0.554461084391587,-0.294424567153432,-1.57084426515748,-0.144963141214248,33.7306340687792,-0.144963141214248
0.28,-0.00428999944261961,-0.0430799936450002,-0.0296050402701375,0.175563439493,-0.00428793425333552,0.0430801992510481,-0.0296134564599357,-0.175562020074116,-1.57084426515748,-0.144963141214248,33.7306340687792,-0.144963141214248
0.29,0.0048955649635545,-0.0240653109998164,-0.0854491732337848,0.0609479082993759,0.00489671860953326,0.0240650762867961,-0.0854520948785257,-0.0609438119358967,-1.57084426515748,-0.144963141214248,30.9839640247255,-0.144963141214248
0.3,-0.0240653192550481,-0.0242993208192097,0.0304538541035437,0.0623541312719473,-0.0240641543577445,0.0243004744432885,0.0304508649135985,-0.0623555911081993,-1.57084426515748,-0.144963141214248,30.9839640247255,-0.144963141214248
0.31,-0.0431971223782109,-0.0237728461892929,0.203957522187677,0.0595419333455628,-0.0431959826972557,0.0237749169612912,0.203954667610533,-0.0595517106667932,-1.57084426515748,-0.144963141214248,30.9839640247255,-0.144963141214248
0.32,-0.121011281576075,-0.0627384282436252,0.554125551579064,0.17697040656169,-0.121008273859508,0.0627442292542268,0.554117067270837,-0.176996970229942,-1.57084426515748,-0.144963141214248,30.9839640247255,-0.144963141214248
0.33,0.00442772693324205,0.0242614356938373,-0.0829917125095871,-0.171096790598757,0.00442656387465374,-0.0242616479239389,-0.0829835103142445,0.171100768888964,-1.57084426515748,-0.144963141214248,30.9839640247255,-0.144963141214248
0.34,-0.0238899006314678,0.0246708517550509,0.0294007026682402,-0.173205604196326,-0.0238910832842535,-0.0246697064839849,0.0294090058275099,0.173204194575761,-1.57084426515748,-0.144963141214248,30.9839640247255,-0.144963141214248
0.35,0.00495414377763063,0.0243784529874692,-0.0858006779720532,-0.171799926895464,0.00495297510882,-0.0243786904529979,-0.0857924420662802,0.171804039842068,-1.57084426515748,-0.144963141214248,30.9839640247255,-0.144963141214248
0.36,0.0149586930230673,-0.00446562444089998,-0.145507745494692,-0.0564800688527275,0.0149589070806026,0.00446490734051914,-0.145505037765479,0.0564870441908891,-1.57084426515748,-0.144963141214248,30.9839640247255,-0.144963141214248
0.37,-0.00434869382607546,-0.00434869382607546,-0.0292529160913815,-0.0571827586865888,-0.0043484853518173,0.00434890229033995,-0.0292501748099502,0.057184160957781,-1.57084426515748,-0.144963141214248,33.7306340687792,-0.144963141214248
0.38,0.0634610523326923,0.0827684515646827,-0.37836843826301,-0.522679818039664,0.0634570844757327,-0.0827714936885137,-0.378343381413626,0.522697955802459,-1.57084426515748,-0.144963141214248,33.7306340687792,-0.144963141214248
0.39,-0.024006930306306,0.0243785355370127,0.0301031174761521,-0.171800323743989,-0.0240080989457964,-0.0243773846560716,0.0301113532677709,0.171798880452423,-1.57084426515748,-0.144963141214248,33.7306340687792,-0.144963141214248
0.4,0.0245539335230674,0.0246708517550509,-0.203108757924265,-0.173205604196326,0.0245527508146176,-0.0246720288020707,-0.203100454497832,0.173215340698583,-1.57084426515748,-0.144963141214248,35.834888508094,-0.144963141214248
0.41,-0.00557633114310287,-0.00540096617631907,-0.0236379584829053,-0.0522645747167102,-0.00557607222322065,0.00540123349029725,-0.0236354529776122,0.05226570782168,-1.57084426515748,-0.144963141214248,35.8669329919321,-0.144963141214248
0.42,-0.0240069674531944,-0.0241823200371289,0.0301032661400223,0.061651044589528,-0.0240058081647838,0.0241834708640523,0.0301003106553042,-0.0616524876199749,-1.57084426515748,-0.144963141214248,35.8669329919321,-0.144963141214248
0.43,-0.0340114011292602,-0.00475794478764717,0.0898098133325572,-0.0550748380015347,-0.0340111730020973,0.00475957523305879,0.0898124534269142,0.0550705326028578,-1.57084426515748,-0.144963141214248,35.8669329919321,-0.144963141214248
0.44,0.00495425521993054,0.0243786387246357,-0.0858011239702056,-0.171800819807979,0.00495308654221584,-0.0243788761955065,-0.0857928880216273,0.171804932775962,-1.57084426515748,-0.144963141214248,35.8669329919321,-0.144963141214248
0.45,-0.179285261724289,-0.130724282324446,0.845645264684681,0.527150286642596,-0.17927899481024,0.130732876816118,0.845619992991431,-0.527190824886178,-1.57084426515748,-0.144963141214248,35.8669329919321,-0.144963141214248
0.46,0.0246708517550509,0.0246708517550509,-0.203810627620364,-0.173205604196326,0.0246696690464668,-0.0246720344069393,-0.203802324193124,0.173215374345067,-1.57084426515748,-0.144963141214248,35.8669329919321,-0.144963141214248
0.47,-0.0336023730528399,-0.0044657606488936,0.0877051457875086,-0.0564795231810112,-0.0336021589329762,0.00446737148650472,0.0877078532225914,0.0564753186750361,-1.57084426515748,-0.144963141214248,35.8669329919321,-0.144963141214248
0.48,-0.0725096569637679,-0.0240654678447869,0.262614808059579,0.0609488508196568,-0.0725085032213283,0.0240689438113597,0.262611885969715,-0.0609614400735079,-1.57084426515748,-0.144963141214248,35.8348885081279,-0.144963141214248
0.49,-0.0242407420056874,-0.0242991639742458,0.031155748578054,0.0623531887517063,-0.0242395771157011,0.0243003260078042,0.0311527594324852,-0.0623546822356311,-1.57084426515748,-0.144963141214248,33.7626785525658,-0.144963141214248
0.5,-0.00528364757062406,-0.00487472268402617,-0.0250433827938199,-0.0550751852489552,-0.00528341387832949,0.00487497596783782,-0.0250407425508452,0.0550763857244357,-1.57084426515748,-0.144963141214248,33.7306340687792,-0.144963141214248
0.51,0.0147833899688578,-0.00464105132025594,-0.144455386942089,-0.0557772798034009,0.0147836124362719,0.00464034262341489,-0.144452712904641,0.0557842046940242,-1.57084426515748,-0.144963141214248,33.7306340687792,-0.144963141214248
0.52,0.0249044901001023,0.025021309272628,-0.204862540171487,-0.175311590233172,0.0249032905908902,-0.0250225031243534,-0.204854135785516,0.175321410806458,-1.57084426515748,-0.144963141214248,30.9839640247255,-0.144963141214248
0.53,0.0052463939554736,-0.0238902927438941,-0.0875546336615205,0.0602471531137628,0.00524753921096062,0.0238900412129075,-0.0875575217107859,-0.0602429558187634,-1.57084426515748,-0.144963141214248,30.9839640247255,-0.144963141214248
0.54,-0.033719349071427,-0.00475785398232473,0.0884071889357518,-0.0550753836732111,-0.0337191209489528,0.00475947042723902,0.0884098290578791,0.0550711455140504,-1.57084426515748,-0.144963141214248,30.9839640247255,-0.144963141214248
0.55,0.0535155772030097,0.0632278143580268,-0.319015080704197,-0.405254866892356,0.0535125461036291,-0.0632303797345182,-0.318995653082894,0.405270159487303,-1.57084426515748,-0.144963141214248,27.932108420222,-0.144963141214248
0.56,-0.0240655338844196,-0.0240655338844196,0.0304544983223671,0.0609492476681685,-0.0240643801944785,0.0240666875190559,0.0304515764802407,-0.0609507075369175,-1.57084426515748,-0.144963141214248,27.932108420222,-0.144963141214248
0.57,-0.0433148661128286,-0.0238903752934349,0.146009787134013,0.0602475499622744,-0.0433137207975853,0.0238924517097401,0.146006898797348,-0.0602545493631612,-1.57084426515748,-0.144963141214248,27.932108420222,-0.144963141214248
0.58,0.0143747540065189,-0.00499136024698689,-0.142703289583864,-0.0536721866857578,0.0143749932676389,0.00499067113908224,-0.142700716463146,0.0536790275861215,-1.57084426515748,-0.144963141214248,27.932108420222,-0.144963141214248
0.59,-0.00458267062674669,-0.00475781270727446,-0.0281993434297624,-0.0550756317052127,-0.00458244253973042,0.00475803238753355,-0.0281967031617589,0.0550769834722778,-1.57084426515748,-0.144963141214248,27.932108420222,-0.144963141214248
0.6,0.0246124751891575,0.0244957220573708,-0.203460188327297,-0.172504005705871,0.0246113008760714,-0.0244969019109834,-0.203451918533943,0.172513759055932,-1.57084426515748,-0.144963141214248,27.932108420222,-0.144963141214248
0.61,0.0149002173966153,-0.00464105132025594,-0.145156711533001,-0.0557772798034009,0.0149004398638952,0.0046403370228993,-0.145154037494748,0.0557842383143767,-1.57084426515748,-0.144963141214248,30.9381861907308,-0.144963141214248
0.62,-0.00446594638661496,-0.00446594638661496,-0.0289000485769299,-0.056478779085026,-0.00446573229132631,0.00446616047164047,-0.0288973410435334,0.0564801644411363,-1.57084426515748,-0.144963141214248,30.9839640247255,-0.144963141214248
0.63,-0.0336027692939779,-0.00446595876946263,0.0877071280107715,-0.0564787294772933,-0.0336025551646162,0.00446756962606868,0.0877098354078032,0.0564745248762946,-1.57084426515748,-0.144963141214248,30.9839640247255,-0.144963141214248
0.64,0.00512958303817967,-0.0241823200371289,-0.086502795445643,0.061651044589528,0.00513074229311118,0.0241820741055309,-0.0865057507963756,-0.0616468977163172,-1.57084426515748,-0.144963141214248,30.9839640247255,-0.144963141214248
0.65,0.0149585733249846,-0.00446598353514802,-0.145507026937325,-0.0564786302618678,0.0149587873997345,0.00446526644050489,-0.145504319277076,0.0564856055655846,-1.57084426515748,-0.144963141214248,30.9839640247255,-0.144963141214248
0.66,-0.00458269951895044,-0.00475775492286694,-0.0281991699875034,-0.0550759789460315,-0.00458247143470423,0.00475797460451115,-0.028196529702854,0.0550773307047817,-1.57084426515748,-0.144963141214248,30.9839640247255,-0.144963141214248
0.67,0.0246708517550509,0.0246708517550509,-0.203810627620364,-0.173205604196326,0.0246696690464668,-0.0246720344069393,-0.203802324193124,0.173215374345067,-1.57084426515748,-0.144963141214248,33.7306340687792,-0.144963141214248
0.68,-0.0336028931191222,-0.00446602068203479,0.087707747454484,-0.0564784814453048,-0.0336026789867924,0.00446763154457674,0.0877104548396247,0.0564742768146113,-1.57084426515748,-0.144963141214248,33.7306340687792,-0.144963141214248
0.69,-0.150208796582952,-0.111476295659977,0.671095085574107,0.411131409631467,-0.150203452419277,0.111483496295637,0.671075375836412,-0.411163580358587,-1.57084426515748,-0.144963141214248,30.9839640247255,-0.144963141214248
0.7,0.00518791832902493,-0.0240656494554384,-0.0868529869612241,0.0609499421630496,0.00518907199089276,0.0240654007274761,-0.086855908701852,-0.0609457785030366,-1.57084426515748,-0.144963141214248,30.9839640247255,-0.144963141214248
0.71,0.00507125187439932,-0.0240656577095682,-0.0861526287051695,0.0609499917641602,0.00507240553679689,0.0240654145744047,-0.08615555044898,-0.0609458616781751,-1.57084426515748,-0.144963141214248,30.9839640247255,-0.144963141214248
0.72,0.0440954663995932,0.0440954663995932,-0.262114401745667,-0.28993292537162,0.0440933524844698,-0.0440975802133814,-0.26210050253479,0.289945490373699,-1.57084426515748,-0.144963141214248,30.9839640247255,-0.144963141214248
0.73,-0.023890705494386,-0.023890705494386,0.0294045679945098,0.0602491373697232,-0.0238895601856326,0.0238918507482365,0.0294016797157312,-0.060250546907336,-1.57084426515748,-0.144963141214248,30.9839640247255,-0.144963141214248
0.74,-0.024532232722745,0.0240293451647548,0.0325554987553181,-0.170401988187488,-0.0245333846220171,-0.0240281691020773,0.0325636675102021,0.170400427334386,-1.57084426515748,-0.144963141214248,27.932108420222,-0.144963141214248
0.75,0.0246708517550509,0.0246708517550509,-0.203810627620364,-0.173205604196326,0.0246696690464668,-0.0246720344069393,-0.203802324193124,0.173215374345067,-1.57084426515748,-0.144963141214248,27.932108420222,-0.144963141214248
0.76,0.0246125412287946,0.024495920176282,-0.203460584768633,-0.172504799402947,0.0246113669062109,-0.0244971000330602,-0.203452314937229,0.172514552772012,-1.57084426515748,-0.144963141214248,27.932108420222,-0.144963141214248
0.77,0.0435124436882371,0.0438039756814392,-0.259314381047885,-0.288531663032315,0.0435103437473714,-0.0438060615464082,-0.259300549014447,0.288544093807597,-1.57084426515748,-0.144963141214248,27.932108420222,-0.144963141214248
0.78,-0.0242406223081535,-0.0240657154950799,0.0311550300239814,0.0609503390116141,-0.0242394686093051,0.0240668775231684,0.0311521081287329,-0.0609518324627046,-1.57084426515748,-0.144963141214248,27.932108420222,-0.144963141214248
0.79,-0.00434956060319619,-0.00434956060319619,-0.0292487534243005,-0.0571785917438428,-0.00434935208738516,0.00434976910901155,-0.0292460123426304,0.0571799938154883,-1.57084426515748,-0.144963141214248,25.7958094970691,-0.144963141214248
0.8,0.0243210876602745,0.0244959697076627,-0.260364881279188,-0.172504997833838,0.0243199133356513,-0.024497135592634,-0.260356611372887,0.1725174791017,-1.57084426515748,-0.144963141214248,25.7958094970691,-0.144963141214248
0.81,0.0048381335945184,0.0243794023113896,-0.0851031195936891,-0.171804490673545,0.00483696488033203,-0.024379634215579,-0.0850948834699376,0.171808570180336,-1.57084426515748,-0.144963141214248,25.7958094970691,-0.144963141214248
0.82,-0.0244154630815944,-0.0242988915593617,0.0318547192828005,0.062351551743186,-0.0244142982044665,0.0243000619687626,0.0318517302149041,-0.0623530787346238,-1.57084426515748,-0.144963141214248,22.7439538925655,-0.144963141214248
0.83,-0.00481589622075737,-0.00464105132025594,-0.0271491405459653,-0.0557772798034009,-0.00481567373082282,0.00464128218110228,-0.0271464666433076,0.0557785812246532,-1.57084426515748,-0.144963141214248,22.7439538925655,-0.144963141214248
0.84,-0.0728606593116466,-0.0244154300606762,0.264371167195258,0.0623514525277473,-0.0728594887921881,0.0244189228533247,0.264368177864946,-0.0623641259769678,-1.57084426515748,-0.144963141214248,22.7439538925655,-0.144963141214248
0.85,-0.0241823200371289,-0.0241823200371289,0.0308050367290811,0.061651044589528,-0.0241811607485168,0.024183479270168,0.0308020812435567,-0.0616525212617078,-1.57084426515748,-0.144963141214248,25.7500316630491,-0.144963141214248
