t,iq,id,vq,vd,ia,ib,va,vb,theta_e,omega,omega_obs,r
0,0,0,0,0,0,0,0,0,0,-0.144963141214248,0,0
0.01,-0.0340115744402431,-0.0142358255446561,0.148464769819905,-0.056481804542523,0.00460297057411132,-0.0365822168100286,-0.12294319346328,0.100583066681762,0.52156938491557,-0.144963141214248,268.723515615582,-0.144963141214248
0.02,-0.00487551480189292,-0.0142358380674638,0.0318606643019427,-0.056481754374087,-0.00991383340127537,-0.011320142991954,-0.0648461492905024,-0.000517135504153565,0.52156938491557,-0.144963141214248,268.723515615582,-0.144963141214248
0.03,-0.0431374717926005,0.0146071589159154,0.203951978598038,-0.171796755391826,0.0341578437142812,-0.0301239485632769,-0.250571702494379,0.0912379123296991,0.52156938491557,-0.144963141214248,268.723515615582,-0.144963141214248
0.04,0.00483654542895929,0.0149002173966153,-0.0264415763962731,-0.173205604196326,0.0105092918929758,0.0116173763845809,-0.137001605395705,-0.109224074298361,0.52156938491557,-0.144963141214248,268.723515615582,-0.144963141214248
0.05,-0.00475825801540562,-0.014235875635967,0.0311568374111039,-0.0564816038684589,-0.00997228816800603,-0.0112184955835504,-0.0644953430532476,-0.00112730539756277,0.52156938491557,-0.144963141214248,268.723515615582,-0.144963141214248
0.06,-0.02429951838374,0.0149002173966153,0.0901625040635295,-0.173205604196326,0.0250260870904421,-0.0136447072921965,-0.195098593585512,-0.00812386884283456,0.52156938491557,-0.144963141214248,265.976845571528,-0.144963141214248
0.07,0.0243778767819517,-0.0336599794224654,-0.143749709378795,0.0602425972393149,-0.0413305609523247,0.00436575566001912,0.123854706192,-0.094621145748292,0.52156938491557,-0.144963141214248,268.723515615582,-0.144963141214248
0.08,-0.00458246049990541,-0.01423591321764,0.030453311249009,-0.0564814533100708,-0.0100599103648998,-0.0110660911266604,-0.0641446866057787,-0.00173721452134122,0.52156938491557,-0.144963141214248,268.723515615582,-0.144963141214248
0.09,-0.101878701735964,0.0149002173966153,0.497574462476827,-0.173205604196326,0.0636792532679566,-0.080908831712659,-0.398088125709844,0.345117909130981,0.52156938491557,-0.144963141214248,266.018045622789,-0.144963141214248
0.1,-0.024475232396056,0.0149002173966153,0.0908656542682581,-0.173205604196326,0.0251136350978365,-0.0137970580733742,-0.19544893217554,-0.0075142106740652,0.52156938491557,-0.144963141214248,268.723515615582,-0.144963141214248
0.11,-0.00393811175006277,-0.014645998868756,0.0269368833798652,-0.0543692338013177,-0.0107365116037313,-0.0107117377489614,-0.0605612811791555,-0.00373369686799393,0.52156938491557,-0.144963141214248,268.723515615582,-0.144963141214248
0.12,-0.0237137270511546,0.0146073467803813,0.0873492013404756,-0.171797658531116,0.0244802915114788,-0.013282724047875,-0.192476146670338,-0.00986161318099775,0.52156938491557,-0.144963141214248,265.976845571528,-0.144963141214248
0.13,-0.00487533111616643,-0.0142359758317587,0.0318598372916285,-0.0564812024675709,-0.00991404436804343,-0.0113200523692757,-0.0648452587155738,-0.000517577571070335,0.52156938491557,-0.144963141214248,265.976845571528,-0.144963141214248
0.14,-0.0728012287481394,0.0147245200857396,0.323019891858315,-0.172501731753671,0.0490393141486812,-0.0557850882120053,-0.310507515871856,0.194123106768004,0.52156938491557,-0.144963141214248,268.723515615582,-0.144963141214248
0.15,0.0631092116325462,-0.0530842919402785,-0.317954509398694,0.176967902159807,-0.0774697412722312,0.0282693089921878,0.311856073144519,-0.187505994796666,0.52156938491557,-0.144963141214248,265.976845571528,-0.144963141214248
0.16,-0.0247678942546619,0.0149002173966153,0.0926226776865281,-0.173205604196326,0.0252594513718124,-0.0140508071181536,-0.196324354102268,-0.00599080404989906,0.52156938491557,-0.144963141214248,265.976845571528,-0.144963141214248
0.17,0.0439779074820922,-0.0142360259363191,-0.202756127839584,-0.0564810017404276,-0.0342547971124264,0.0310375523479142,0.0520503181388101,-0.203938508663157,0.52156938491557,-0.144963141214248,265.976845571528,-0.144963141214248
0.18,-0.0436650396808121,0.0147245701770511,0.26506922621008,-0.172501932427738,0.0345224999752516,-0.0305228709770978,-0.281634265156344,0.143877559281356,0.52156938491557,-0.144963141214248,265.976845571528,-0.144963141214248
0.19,-0.0431381397648114,0.0146074929020209,0.20395518651143,-0.171798360996019,0.034158466104486,-0.0301243613150498,-0.25057469293021,0.0912398937349315,0.52156938491557,-0.144963141214248,265.976845571528,-0.144963141214248
0.2,-0.0437235887540002,0.0149002173966153,0.206766784991167,-0.173205604196326,0.0347039644207128,-0.0304861205383897,-0.253195681656707,0.0929765104259854,0.52156938491557,-0.144963141214248,265.976845571528,-0.144963141214248
0.21,-0.0436065156620727,0.0149002173966153,0.206063985658177,-0.173205604196326,0.034645633751561,-0.0303846136820215,-0.252845517885529,0.092367156476457,0.52156938491557,-0.144963141214248,265.976845571528,-0.144963141214248
0.22,-0.0240652552937398,0.0147246202815317,0.0891075782084268,-0.172502133154561,0.0247571180778508,-0.0135290819816986,-0.193963049432363,-0.00868803153445334,0.52156938491557,-0.144963141214248,265.976845571528,-0.144963141214248
0.23,-0.0443673989253865,0.0149002173966153,0.209577581386189,-0.173205604196326,0.0350247373454339,-0.0310443286246321,-0.25459613697801,0.0954135785964114,0.52156938491557,-0.144963141214248,265.976845571528,-0.144963141214248
0.24,0.0440950724256635,-0.0145287337249502,-0.203459303129466,-0.0550739090988288,-0.0345669624137471,0.0309932996849579,0.0536206724604612,-0.203847116678755,0.52156938491557,-0.144963141214248,265.976845571528,-0.144963141214248
0.25,0.00489550364273909,-0.0338359146978443,-0.0267949810610252,0.0609477240533909,-0.0317761773896103,-0.0126138665705598,0.0661943826635968,0.00713440825396894,0.52156938491557,-0.144963141214248,265.976845571528,-0.144963141214248
0.26,-0.00411441024893719,-0.0145287170278735,0.0279948417375626,-0.0550740094356988,-0.0105469845311858,-0.0108061606258424,-0.0616994673826322,-0.00316755488257468,0.52156938491557,-0.144963141214248,265.976845571528,-0.144963141214248
0.27,-0.0428459163154216,0.0143736139334681,0.202551793523791,-0.170392723611579,0.0338100862373304,-0.0299875205884178,-0.248656722878823,0.0907234450770051,0.52156938491557,-0.144963141214248,265.976845571528,-0.144963141214248
0.28,-0.0242993346804011,0.0149002173966153,0.0901614012773817,-0.173205604196326,0.0250259955618209,-0.013644548014363,-0.195098044131723,-0.00812482500067811,0.52156938491557,-0.144963141214248,265.976845571528,-0.144963141214248
0.29,-0.0631478511761387,-0.0142361762365925,0.265069501906538,-0.0557772798034009,0.0191195677953979,-0.0618446598286406,-0.180429656377841,0.202034860562779,0.52156938491557,-0.144963141214248,265.976845571528,-0.144963141214248
0.3,0.180182015867034,-0.0726844979908836,-0.962097447395878,0.294398484453719,-0.152794396713198,0.120010280489401,0.734611610203448,-0.68749381676391,0.52156938491557,-0.144963141214248,265.976845571528,-0.144963141214248
0.31,-0.00423158772864611,-0.0146456648738972,0.0286981423998613,-0.0543712408591597,-0.0105900001150834,-0.0109660262568657,-0.0614405536543537,-0.00220761781428877,0.52156938491557,-0.144963141214248,265.976845571528,-0.144963141214248
0.32,0.0440951392228577,-0.014528666927756,-0.203459503623972,-0.0550743104997153,-0.0345669377791525,0.0309933908818166,0.05362042432519,-0.203847490509741,0.52156938491557,-0.144963141214248,263.840546648375,-0.144963141214248
0.33,0.0146662716132293,-0.0142362263411521,-0.143752315887404,-0.0564801988855709,-0.0196506983946761,0.00562314112138418,0.0226528683769199,-0.152779542948143,0.52156938491557,-0.144963141214248,265.976845571528,-0.144963141214248
0.34,-0.101411678559377,0.0146078060387287,0.437169563105565,-0.171799866368856,0.0631930311039392,-0.0806495961886484,-0.366773071432552,0.293444943834784,0.52156938491557,-0.144963141214248,263.872591132704,-0.144963141214248
0.35,0.0148417392993071,-0.0142362513867671,-0.0861517466512012,-0.056480098548701,-0.0197381453876319,0.00577526584951141,-0.00604603678461323,-0.102837592456858,0.52156938491557,-0.144963141214248,263.840546648375,-0.144963141214248
0.36,0.00483721342312048,-0.0336605847805054,-0.0264447844150804,0.0602455074364499,-0.0315951170289181,-0.0125770497890154,0.0654110514603456,0.00708816872594391,0.52156938491557,-0.144963141214248,263.840546648375,-0.144963141214248
0.37,0.00483723429446633,0.0149002173966153,-0.0264448846489955,-0.173205604196326,0.0105089486716145,0.0116179736573694,-0.136999957087013,-0.109226942680227,0.52156938491557,-0.144963141214248,265.976845571528,-0.144963141214248
0.38,-0.0726262328079925,0.0147248206731948,0.322319749071675,-0.172502935956657,0.0489523845354591,-0.0556332102617764,-0.310159719792359,0.193515456162084,0.52156938491557,-0.144963141214248,263.840546648375,-0.144963141214248
0.39,-0.0239484744363116,0.0147248331960023,0.0884061071353517,-0.172502986125092,0.0246991176170487,-0.0134277224210199,-0.193614287013486,-0.00929665881703225,0.52156938491557,-0.144963141214248,263.840546648375,-0.144963141214248
0.4,-0.043606674310963,0.0149002173966153,0.206064938040423,-0.173205604196326,0.034645712797017,-0.0303847512366881,-0.252845992401858,0.0923679822283552,0.52156938491557,-0.144963141214248,265.976845571528,-0.144963141214248
0.41,0.0827685804804201,-0.0338360483010658,-0.435619104634667,0.0609485269082445,-0.0705758893277826,0.0549050081956866,0.269888210135994,-0.347331371005533,0.52156938491557,-0.144963141214248,263.840546648375,-0.144963141214248
0.42,0.0438029783610644,-0.0142363390597525,-0.202056260828308,-0.0564797473162428,-0.0341679116604336,0.0308857260864775,0.0517027030057383,-0.20333107214276,0.52156938491557,-0.144963141214248,263.840546648375,-0.144963141214248
0.43,-0.0337191756008288,-0.0142363515826398,0.147060324004487,-0.0564796971474884,0.00445682925211645,-0.0363289579069031,-0.12224161312664,0.0993664083399091,0.52156938491557,-0.144963141214248,265.976845571528,-0.144963141214248
0.44,-0.0237147958418109,0.0146080147745415,0.0873540133686793,-0.171800869845021,0.0244814032038352,-0.013283317907934,-0.19248132855453,-0.00985904097792499,0.52156938491557,-0.144963141214248,263.872591132509,-0.144963141214248
0.45,-0.0247666835385848,0.0149002173966153,0.0926161364617798,-0.173205604196326,0.0252588481428572,-0.0140497573809261,-0.196321094992848,-0.00599647554238349,0.52156938491557,-0.144963141214248,263.840546648375,-0.144963141214248
0.46,0.0533984331157596,-0.0336607935382655,-0.259307585827317,0.0602465110181243,-0.0557905114035678,0.029527284300666,0.181433825555882,-0.194812302233729,0.52156938491557,-0.144963141214248,265.976845571528,-0.144963141214248
0.47,-0.10199682692147,0.0149002173966153,0.439979457183234,-0.0557772798034009,0.0637381081337571,-0.0810112507744708,-0.267577049212802,0.353688493479912,0.52156938491557,-0.144963141214248,265.976845571528,-0.144963141214248
0.48,0.0149586412195362,-0.0145285333245334,-0.0868535184265054,-0.0550751133545755,-0.0200498104108002,0.00573099731179949,-0.00447820898983151,-0.102746033589263,0.52156938491557,-0.144963141214248,263.840546648375,-0.144963141214248
0.49,-0.0242991593343793,0.0149002173966153,0.0901603486608914,-0.173205604196326,0.0250259081971617,-0.0136443959826438,-0.195097519674538,-0.0081257376595063,0.52156938491557,-0.144963141214248,265.976845571528,-0.144963141214248
0.5,-0.101996902058478,0.0149002173966153,0.43997975788563,-0.173205604196326,0.0637381455701301,-0.0810113159211354,-0.369392055561736,0.295181093503611,0.52156938491557,-0.144963141214248,265.976845571528,-0.144963141214248
0.51,-0.0434899435536528,0.0147249834963547,0.205714841575367,-0.172503588253125,0.0344356181875371,-0.0303708499932087,-0.252062885104701,0.0924142086330707,0.52156938491557,-0.144963141214248,263.840546648375,-0.144963141214248
0.52,0.00559684004472109,0.0143745532642562,-0.0303032385857956,-0.170397741097261,0.00967471064409451,0.0120146732783782,-0.132643040268138,-0.111173289545026,0.52156938491557,-0.144963141214248,265.94480108755,-0.144963141214248
0.53,0.00507118009104778,-0.0338361485013008,-0.0274982816964852,0.0609491290362777,-0.0318639093976135,-0.012461664849393,0.066546014378448,0.00652531967672735,0.52156938491557,-0.144963141214248,265.976845571528,-0.144963141214248
0.54,0.0436865315161576,-0.0142364893601034,-0.201356619397145,-0.0564791451882161,-0.0341100233296795,0.0307846873244035,0.0513546347002712,-0.202724156209959,0.52156938491557,-0.144963141214248,263.872591132315,-0.144963141214248
0.55,-0.0436067995568131,0.0149002173966153,0.206065689901491,-0.173205604196326,0.0346457751996931,-0.0303848598296389,-0.252846367010219,0.0923686341207083,0.52156938491557,-0.144963141214248,265.976845571528,-0.144963141214248
0.56,0.014666655699424,-0.0142365144057981,-0.085451227987043,-0.056479044851027,-0.0196511395254308,0.00562333061307924,-0.00639415063574906,-0.102229690938715,0.52156938491557,-0.144963141214248,265.976845571528,-0.144963141214248
0.57,0.0535156648301285,-0.0339529543955646,-0.318664977801039,0.061651044589528,-0.0561022357624481,0.0294833620344192,0.212225924073832,-0.245577638491221,0.52156938491557,-0.144963141214248,265.976845571528,-0.144963141214248
0.58,-0.0724516710717231,0.0146083070178233,0.321270838212,-0.17180227477484,0.048764388836334,-0.0555399104827417,-0.309029608815595,0.192955108713222,0.52156938491557,-0.144963141214248,263.840546648375,-0.144963141214248
0.59,0.0924815132933742,-0.10182199383096,-0.493926182498979,0.411129559811403,-0.134361694890969,0.0294530758117178,0.602559586937214,-0.223411129755854,0.52156938491557,-0.144963141214248,265.976845571528,-0.144963141214248
0.6,0.19012952489762,-0.140787821387519,-0.962807314498413,0.645284844950208,-0.216798848983157,0.0947032521533285,1.03919721422657,-0.51328316348562,0.52156938491557,-0.144963141214248,265.976845571528,-0.144963141214248
0.61,0.0146667392024783,-0.0142365770330888,-0.0854516039437843,-0.056478793955758,-0.0196512354303757,0.00562337180991347,-0.00639374578269916,-0.102229891901188,0.52156938491557,-0.144963141214248,263.840546648375,-0.144963141214248
0.62,-0.0434901272569398,0.01472512127382,0.205715668664745,-0.172504140212404,0.0344358291744739,-0.0303709406245507,-0.252063775764769,0.0924146507422495,0.52156938491557,-0.144963141214248,265.976845571528,-0.144963141214248
0.63,0.0926567638643146,-0.053377500712497,-0.494978125756158,0.178377955167289,-0.0924457803033987,0.0537420801255006,0.401279149562421,-0.340289705975956,0.52156938491557,-0.144963141214248,263.840546648375,-0.144963141214248
0.64,-0.0340113114212648,-0.014236614601591,0.148463190895496,-0.0564786434501341,0.00460215538455419,-0.0365823819033822,-0.122939665989446,0.100583272681114,0.52156938491557,-0.144963141214248,263.840546648375,-0.144963141214248
0.65,-0.0438986473082933,0.0149002173966153,0.207467378857591,-0.173205604196326,0.0347911858517398,-0.0306379030123476,-0.253544746572986,0.093583952151498,0.52156938491557,-0.144963141214248,263.840546648375,-0.144963141214248
0.66,-0.0820475934420547,0.0341497427497604,0.379225814771054,-0.289231402075691,0.0704886487938363,-0.0541235892262026,-0.439720734076211,0.184696233201757,0.52156938491557,-0.144963141214248,265.976845571528,-0.144963141214248
0.67,-0.043490210760096,0.0147251839011871,0.205716044621945,-0.172504391107979,0.0344359250795358,-0.0303709818214352,-0.252064180618313,0.0924148517049671,0.52156938491557,-0.144963141214248,263.840546648375,-0.144963141214248
0.68,-0.00458271099604906,-0.0142366647060709,0.0304548149978191,-0.0564784427233129,-0.0100604371265965,-0.0110666827391135,-0.0641428255417229,-0.0017344107143417,0.52156938491557,-0.144963141214248,263.840546648375,-0.144963141214248
0.69,-0.0728604833795735,0.0149002173966153,0.382028139908002,-0.173205604196326,0.0492211735636049,-0.0557489245617616,-0.340518156364125,0.244934820295031,0.52156938491557,-0.144963141214248,265.976845571528,-0.144963141214248
0.7,-0.101997403050762,0.0149002173966153,0.498635678971393,-0.173205604196326,0.0637383951852611,-0.0810117503006412,-0.39861686777366,0.346038024492385,0.52156938491557,-0.144963141214248,263.840546648375,-0.144963141214248
0.71,-0.0238906810302702,0.0146085783897565,0.0880583665938034,-0.171803579367776,0.0245695251742689,-0.0134355362889147,-0.192834615799249,-0.00924968974097301,0.52156938491557,-0.144963141214248,263.840546648375,-0.144963141214248
0.72,0.00483796492475001,0.0149002173966153,-0.0264483934756103,-0.173205604196326,0.0105085846413096,0.0116186071418196,-0.136998208844091,-0.109229984967343,0.52156938491557,-0.144963141214248,265.976845571528,-0.144963141214248
0.73,-0.0438985470992505,0.0149002173966153,0.207466977815545,-0.173205604196326,0.0347911359234392,-0.030637816127268,-0.253544546757208,0.0935836044326783,0.52156938491557,-0.144963141214248,265.976845571528,-0.144963141214248
0.74,0.00518789831232726,0.0147252715741725,-0.028198950711991,-0.172504742340437,0.0101825485855564,0.011834847533237,-0.135518334554671,-0.110398586724316,0.52156938491557,-0.144963141214248,263.840546648375,-0.144963141214248
0.75,0.0052462052379365,-0.0339529543955646,-0.0285489719487435,0.061651044589528,-0.0320523893694424,-0.0123681088811304,0.0676780995104784,0.00596405440618154,0.52156938491557,-0.144963141214248,268.723515615582,-0.144963141214248
0.76,0.0438039719928431,-0.0142367649019434,-0.202060521437397,-0.0564780413221011,-0.0341687759504851,0.0308863754310625,0.0517063049801502,-0.203333916257061,0.52156938491557,-0.144963141214248,265.976845571528,-0.144963141214248
0.77,-0.00429123481237463,-0.0145282911813187,0.0290550558385082,-0.0550765684531355,-0.0104585139758914,-0.0109592621229808,-0.0622299287785458,-0.00224958364345031,0.52156938491557,-0.144963141214248,263.840546648375,-0.144963141214248
0.78,-0.0242989171912177,0.0149002173966153,0.0901588950557147,-0.173205604196326,0.0250257875513975,-0.0136441860352449,-0.195096795428161,-0.00812699799088949,0.52156938491557,-0.144963141214248,268.682315564172,-0.144963141214248
0.79,-0.024298908833846,0.0149002173966153,0.09015884488573,-0.173205604196326,0.0250257833874083,-0.0136441787890835,-0.195096770431395,-0.00812704149018847,0.52156938491557,-0.144963141214248,265.976845571528,-0.144963141214248
0.8,-0.0242406102612183,0.0147253467243472,0.0898088737926078,-0.172505043404447,0.0248451170479731,-0.0136807595133108,-0.194314987271685,-0.0080814313999335,0.52156938491557,-0.144963141214248,265.976845571528,-0.144963141214248
0.81,-0.0436070166543598,0.0149002173966153,0.206066993155795,-0.173205604196326,0.0346458833666934,-0.0303850480615299,-0.252847016345557,0.0923697640921247,0.52156938491557,-0.144963141214248,265.976845571528,-0.144963141214248
0.82,0.0150750630231889,-0.0144116856786916,-0.0872025371637389,-0.0557772798034009,-0.0200065051951521,0.00589015781884252,-0.00491311859664088,-0.103398494649175,0.52156938491557,-0.144963141214248,265.976845571528,-0.144963141214248
0.83,-0.101939450995826,0.0147253842928492,0.497937290624558,-0.172505193910071,0.0635579340686401,-0.081048612750799,-0.397661619184226,0.345781468485888,0.52156938491557,-0.144963141214248,265.976845571528,-0.144963141214248
0.84,-0.00411658957739003,-0.0145282327326618,0.0280064707924096,-0.0550769196855935,-0.0105454787968745,-0.0108078088911551,-0.0617077847581525,-0.00315892205363291,0.52156938491557,-0.144963141214248,265.976845571528,-0.144963141214248
0.85,-0.00475759001685447,-0.0142368776337938,0.0311548323861726,-0.0564775896996915,-0.00997348976309201,-0.0112184156400799,-0.0644908636285585,-0.00112704380566257,0.52156938491557,-0.144963141214248,265.976845571528,-0.144963141214248
0.86,-0.00475758166831612,-0.0142368901566013,0.0311548073276938,-0.0564775395312565,-0.00997350478043394,-0.0112184146409593,-0.0644908076454299,-0.00112704053632912,0.52156938491557,-0.144963141214248,265.976845571528,-0.144963141214248
