t,iq,id,vq,vd,ia,ib,va,vb,theta_e,omega,omega_obs,r
0,0,0,0,0,0,0,0,0,0,-0.144963141214248,0,0
0.01,0.0147243571292447,0.0537482744738636,-0.085798993079829,-0.28992940331597,-0.0145619641558419,0.0537924985635664,0.0849229824462084,-0.290187203668784,1.5677762099521,-0.144963141214248,90.8003338730032,-0.144963141214248
0.02,-0.0631476255478563,-0.0728010279832768,0.323018987952414,0.295098742044284,0.0629274702834437,-0.0729914088881728,-0.322126283482061,0.296072949834928,1.5677762099521,-0.144963141214248,90.8003338730032,-0.144963141214248
0.03,0.131327264023314,0.102132584615797,-0.727473652893476,-0.522672873143681,-0.131018213228745,0.102528741914154,0.725891804466144,-0.524867541560091,1.5677762099521,-0.144963141214248,90.8003338730032,-0.144963141214248
0.04,0.189306443191485,0.101898203322073,-0.959274999802473,-0.521264318674369,-0.188997835837822,0.102469465318685,0.957696348226256,-0.524159059602314,1.5677762099521,-0.144963141214248,87.7484782684987,-0.144963141214248
0.05,-0.0825717118708825,-0.101937169850109,0.381321324962938,0.411823037221236,0.0822634736029462,-0.102186080799272,-0.380075834127965,0.412972792287272,1.5677762099521,-0.144963141214248,87.7484782684987,-0.144963141214248
0.06,-0.024299518940327,-0.0145288845818896,0.0898107301106049,-0.0550730025621104,0.0242555292588415,-0.014602205597055,-0.0899766471741071,-0.0548015129126229,1.5677762099521,-0.144963141214248,87.7484782684987,-0.144963141214248
0.07,0.160463612265438,0.102425759354654,-0.844079169360893,-0.523377894474436,-0.160153543172493,0.102909910358268,0.842494659904783,-0.525924721424456,1.5677762099521,-0.144963141214248,87.7484782684987,-0.144963141214248
0.08,-0.0240651376443881,-0.0144116856786916,0.0887554973417426,-0.0557772798034009,0.0240215029856535,-0.0144842993705249,-0.088923546214011,-0.0555089738634358,1.5677762099521,-0.144963141214248,90.8003338730032,-0.144963141214248
0.09,0.0339727895634513,0.0146072820528432,-0.201348706907825,-0.0550731513852718,-0.0339285189973746,0.0147098170735957,0.201181461547862,-0.055680995918034,1.5677762099521,-0.144963141214248,93.8521894775067,-0.144963141214248
0.1,0.0342071543467242,0.0147244685715435,-0.202755593068865,-0.0557772798034009,-0.0341625287953745,0.0148277108658144,0.202586214745866,-0.0563893700790824,1.5677762099521,-0.144963141214248,93.8521894775067,-0.144963141214248
0.11,-0.0046996301343305,-0.0142359492364679,-0.0274972259528642,-0.0564813090126979,0.00465661453673188,-0.0142500777232651,0.0273265206570671,-0.0565640961358848,1.5677762099521,-0.144963141214248,93.8521894775067,-0.144963141214248
0.12,-0.00464105132025594,-0.0144116856786916,-0.027848879358281,-0.0557772798034009,0.00459750524602667,-0.0144256364494399,0.0276802987059917,-0.0558611321701058,1.5677762099521,-0.144963141214248,93.8521894775067,-0.144963141214248
0.13,0.0145487940435395,0.0146073646023854,-0.0847447762026163,-0.171797744208586,-0.0145046118122452,0.0146512369759154,0.0842255412477841,-0.17205289945336,1.5677762099521,-0.144963141214248,93.8521894775067,-0.144963141214248
0.14,-0.0242994528995891,-0.0145288185411517,0.0898105318866331,-0.0550733994172636,0.0242554634178552,-0.0146021393571679,-0.0899764501495865,-0.0548019103646248,1.5677762099521,-0.144963141214248,93.8521894775067,-0.144963141214248
0.15,-0.0435479018415022,-0.0336601428747346,0.147409760313631,0.0602433830194553,0.0434460458292554,-0.0337915089178761,-0.147227146264997,0.0606883022996695,1.5677762099521,-0.144963141214248,93.8521894775067,-0.144963141214248
0.16,-0.13136650709717,-0.0537870139951863,0.615938079536011,0.180486931337064,0.131203465173777,-0.0541835102943947,-0.615390179727371,0.182346310357773,1.5677762099521,-0.144963141214248,93.8521894775067,-0.144963141214248
0.17,-0.00452394322238753,-0.0142360235318889,-0.0282003840965375,-0.0557772798034009,0.00448092820163724,-0.0142496214241521,0.0280318018411935,-0.0558621937538723,1.5677762099521,-0.144963141214248,95.9564439168585,-0.144963141214248
0.18,-0.0631477576282287,-0.0728012921440215,0.323371657246169,0.295100329451636,0.0629276015654186,-0.0729916734466104,-0.322478946373301,0.296075602335896,1.5677762099521,-0.144963141214248,98.7351584447133,-0.144963141214248
0.19,-0.0141189567101641,-0.0336602254270371,0.0293992160033041,0.0602437798812435,0.0140172346607584,-0.0337027127520572,-0.0292171389490208,0.0603322940689501,1.5677762099521,-0.144963141214248,98.7351584447133,-0.144963141214248
0.2,-0.0437235887540002,-0.0339529543955646,0.206415354584824,0.061651044589528,0.0436208476168631,-0.0340848496975215,-0.206228220142308,0.0622741609682075,1.5677762099521,-0.144963141214248,98.7351584447133,-0.144963141214248
0.21,-0.0141775355225896,-0.0338358793175135,0.0880533303047387,0.0609475114442194,0.0140752827115655,-0.0338785427560445,-0.0878688604071541,0.0612131644317359,1.5677762099521,-0.144963141214248,95.9884884006597,-0.144963141214248
0.22,0.102367659331259,0.0732898899015905,-0.494971922960109,-0.406655285907032,-0.102145848784076,0.0735987174815478,0.493741521005026,-0.408148302104274,1.5677762099521,-0.144963141214248,93.8842339613303,-0.144963141214248
0.23,-0.0139434514083152,0.0151343345318035,0.0286969003023885,-0.173909038126209,0.0139890952076565,0.0150921547224943,-0.0292219942454779,-0.173821577145261,1.5677762099521,-0.144963141214248,95.9884884006597,-0.144963141214248
0.24,0.0339732848640394,0.0146075916157108,-0.201702639864173,-0.0550738954812537,-0.0339290133607893,0.0147101281309149,0.201535390642828,-0.0556828089278802,1.5677762099521,-0.144963141214248,95.9884884006597,-0.144963141214248
0.25,-0.00446548823456095,-0.0141190805358666,-0.0285514923868473,-0.0564806145178153,0.00442282666137256,-0.0141325024208291,0.0283807843804686,-0.0565665856471433,1.5677762099521,-0.144963141214248,95.9884884006597,-0.144963141214248
0.26,-0.0239482524311242,-0.014236134974188,0.0884051075988972,-0.0564805649167176,0.0239051484882839,-0.0143083964601644,-0.0885752820691224,-0.0562133139857413,1.5677762099521,-0.144963141214248,98.6939583941806,-0.144963141214248
0.27,-0.0142361473570357,-0.0336603905261381,0.0301025228075478,0.0602445735783599,0.0141344242745584,-0.0337032317793137,-0.0299204401487447,0.0603352118279429,1.5677762099521,-0.144963141214248,98.7351584447133,-0.144963141214248
0.28,-0.0627967883006896,-0.0725089140128525,0.321615991889289,0.294398135681712,0.0625775168532686,-0.0726982366820802,-0.320725409727227,0.295368109461907,1.5677762099521,-0.144963141214248,98.7351584447133,-0.144963141214248
0.29,-0.0824550990758049,-0.101820854236707,0.380972496233486,0.411123472607703,0.0821472126258961,-0.102069413532602,-0.379729119753023,0.412272177362218,1.5677762099521,-0.144963141214248,98.7351584447133,-0.144963141214248
0.3,-0.0433140860167174,-0.0338359536134838,0.146356955776118,0.0609479579071086,0.0432117001026331,-0.0339666127047946,-0.146172218633601,0.0613896943861919,1.5677762099521,-0.144963141214248,98.7351584447133,-0.144963141214248
0.31,-0.0237728461892929,-0.0141192043588087,0.0873520057138258,-0.0564803168847226,0.0237300961899854,-0.0141909366315129,-0.0875221842376898,-0.0562162464407827,1.5677762099521,-0.144963141214248,95.9884884006597,-0.144963141214248
0.32,-0.00487501986569871,-0.0145286699514129,-0.0267954801422182,-0.0550742923298119,0.00483111941880904,-0.0145433267999194,0.0266290273950899,-0.0551549665186476,1.5677762099521,-0.144963141214248,95.9884884006597,-0.144963141214248
0.33,0.0341490460697625,0.0534563627516545,-0.202406194445941,-0.288525114991686,-0.0339874461152748,0.0535592529136893,0.201533893127791,-0.289135088586304,1.5677762099521,-0.144963141214248,95.9884884006597,-0.144963141214248
0.34,0.0241444968248608,-0.014762588965485,-0.14269912692653,-0.0536686150289102,-0.0241889713884911,-0.0146896025492975,0.142536390898332,-0.0540993376520732,1.5677762099521,-0.144963141214248,95.9884884006597,-0.144963141214248
0.35,0.0632855511606626,0.0537488358162924,-0.319012107374318,-0.289931089938824,-0.0631229350262181,0.0539397201604851,0.318135028066977,-0.290893220067676,1.5677762099521,-0.144963141214248,98.7351584447133,-0.144963141214248
0.36,-0.0039978194292841,-0.0138854050406237,-0.0306571510518047,0.0588398883922213,0.0039558657151485,-0.0138974155789863,0.0308347143061729,0.0587470320125104,1.5677762099521,-0.144963141214248,98.7351584447133,-0.144963141214248
0.37,-0.0435481742574919,-0.0339529543955646,0.206064766624617,0.061651044589528,0.0434454339203412,-0.0340843199260515,-0.205877633780975,0.0622731021532136,1.5677762099521,-0.144963141214248,98.7351584447133,-0.144963141214248
0.38,-0.0630309879859906,-0.0726846876019858,0.264367747863946,0.294399623873802,0.0628111846145203,-0.0728747167789282,-0.263477422290823,0.295196701524042,1.5677762099521,-0.144963141214248,98.7351584447133,-0.144963141214248
0.39,-0.0527926641891441,-0.0142362959478686,0.203608148352987,-0.0564799200295693,0.0527494282137803,-0.0143956707944535,-0.203777795486422,-0.055864742986723,1.5677762099521,-0.144963141214248,98.6939583941931,-0.144963141214248
0.4,0.033856894953569,0.0143740853526895,-0.200652213987921,-0.0536695079480936,-0.0338133291962467,0.0144762714222159,0.200489210965091,-0.0542752553954405,1.5677762099521,-0.144963141214248,96.0296884513087,-0.144963141214248
0.41,0.0732317486025893,0.0729979286468776,-0.37801782551771,-0.405954629930169,-0.0730109526869288,0.0732187638373833,0.376790072997266,-0.407094434820219,1.5677762099521,-0.144963141214248,95.9884884006597,-0.144963141214248
0.42,0.072822613211491,0.034032330084306,-0.376263522937156,-0.171800621377128,-0.0727194996433251,0.0342521073445419,0.375742949807304,-0.172936195947385,1.5677762099521,-0.144963141214248,95.9884884006597,-0.144963141214248
0.43,-0.00516707192351644,-0.0150545997493433,-0.0250419952293683,-0.0522650707940699,0.00512158177768268,-0.0150701362293188,0.0248840346434723,-0.0523404620732308,1.5677762099521,-0.144963141214248,98.7351584447133,-0.144963141214248
0.44,-0.0241823200371289,-0.0144116856786916,0.0894589528164431,-0.0557772798034009,0.0241386848439782,-0.0144846532745049,-0.0896269984805681,-0.0555068493489381,1.5677762099521,-0.144963141214248,98.7351584447133,-0.144963141214248
0.45,0.00495426760277821,-0.0338360774386302,-0.0854503625677328,0.0609487020030873,-0.00505643376061688,-0.0338209606832422,0.0856340447887755,0.0606903543566202,1.5677762099521,-0.144963141214248,101.787014049217,-0.144963141214248
0.46,-0.062680513956838,-0.072509582666677,0.262614411604908,0.294400814419356,0.0624612410202823,-0.0726985541712848,-0.26172409043238,0.29519259679185,1.5677762099521,-0.144963141214248,98.7351584447133,-0.144963141214248
0.47,0.170061762655838,0.072998151533142,-0.901694676770324,-0.405955522849353,-0.169840524468973,0.0735114242344028,0.900464533299011,-0.408676890609713,1.5677762099521,-0.144963141214248,98.7351584447133,-0.144963141214248
0.48,0.0242618690818538,-0.0145285378710336,-0.14340302839616,-0.0550750860335297,-0.0243056362496243,-0.0144551980448563,0.143236041457472,-0.0555079281038646,1.5677762099521,-0.144963141214248,98.7351584447133,-0.144963141214248
0.49,-0.0434314789112079,-0.0339529543955646,0.146710021507913,0.061651044589528,0.0433287391062522,-0.0340839674930064,-0.146523159354519,0.0620938441602919,1.5677762099521,-0.144963141214248,98.7351584447133,-0.144963141214248
0.5,-0.0238902308324162,-0.0144116856786916,0.146359433551017,-0.0557772798034009,0.0238465969713527,-0.0144837711323192,-0.146527219717688,-0.0553350035099458,1.5677762099521,-0.144963141214248,98.7351584447133,-0.144963141214248
0.51,-0.0241239063232502,-0.014528513106449,0.147762206608349,0.061651044589528,0.0240799185645522,-0.0146013037534922,-0.147575339656412,0.0620970218774048,1.5677762099521,-0.144963141214248,101.741236215292,-0.144963141214248
0.52,-0.0440156366853144,-0.0344786406719302,0.149866056489011,0.0644590259719892,0.0439113065847145,-0.0346114155940044,-0.149670699523387,0.0649113443167285,1.5677762099521,-0.144963141214248,101.787014049217,-0.144963141214248
0.53,-0.0242991309544229,-0.0145284965959855,0.148463481642431,0.0623529903274106,0.0242551424464678,-0.0146018164411593,-0.148274491537372,0.0628010823433514,1.5677762099521,-0.144963141214248,106.975168576873,-0.144963141214248
0.54,-0.0143532843476572,-0.0338361517334958,0.0891083648562127,0.178377472852267,0.0142510299123951,-0.0338793459519641,-0.0885692384819293,0.178645776617418,1.5677762099521,-0.144963141214248,103.92331297237,-0.144963141214248
0.55,0.0439201344548296,0.034149500096394,-0.261062290980465,-0.172503757673869,-0.043816798831257,0.0342819880920736,0.260540119680979,-0.173291408385399,1.5677762099521,-0.144963141214248,103.92331297237,-0.144963141214248
0.56,-0.023423210044518,-0.0138861479914994,0.0859535687493034,-0.0578826705674793,0.0233811654961337,-0.0139568253866643,-0.0861279889163467,-0.057622817164646,1.5677762099521,-0.144963141214248,101.787014049217,-0.144963141214248
0.57,-0.0241823200371289,-0.0144116856786916,0.0894589528164431,-0.0557772798034009,0.0241386848439782,-0.0144846532745049,-0.0896269984805681,-0.0555068493489381,1.5677762099521,-0.144963141214248,101.787014049217,-0.144963141214248
0.58,-0.0047578209624996,-0.0144116856786916,-0.0271479016585273,-0.0557772798034009,0.00471427435573661,-0.0144259891068671,0.0269793242030815,-0.0558590151387666,1.5677762099521,-0.144963141214248,101.787014049217,-0.144963141214248
0.59,-0.0235985131020364,-0.0141197822111453,0.0866552402445917,-0.056478927901589,0.0235557621526047,-0.0141909879757216,-0.0868254177512041,-0.0562169617739139,1.5677762099521,-0.144963141214248,101.787014049217,-0.144963141214248
0.6,0.17006283581372,0.1215599234169,-0.901700152686577,-0.639410909315761,-0.169694935619731,0.122072977890858,0.899764947717406,-0.642131228929179,1.5677762099521,-0.144963141214248,106.929390742853,-0.144963141214248
0.61,-0.0239488302818107,-0.0142365683622029,0.0884077092625482,0.0609494957001701,0.0239057250274546,-0.0143088315913768,-0.0882232317561251,0.0612162189428695,1.5677762099521,-0.144963141214248,103.92331297237,-0.144963141214248
0.62,0.0436868056709992,0.0340329079349909,-0.259661425791328,-0.171802605633076,-0.0435838232329491,0.0341646917832761,0.259141378438426,-0.172586028772123,1.5677762099521,-0.144963141214248,103.92331297237,-0.144963141214248
0.63,-0.0144700498622893,-0.033836226028369,0.0311554016902154,0.0609495949156355,0.0143677946701335,-0.0338797728914599,-0.0309711849861277,0.0610434097623469,1.5677762099521,-0.144963141214248,103.92331297237,-0.144963141214248
0.64,-0.0241823200371289,-0.0144116856786916,0.0894589528164431,-0.0557772798034009,0.0241386848439782,-0.0144846532745049,-0.0896269984805681,-0.0555068493489381,1.5677762099521,-0.144963141214248,103.92331297237,-0.144963141214248
0.65,-0.0430816735419378,-0.033661174753718,0.145310345669216,0.060949694131061,0.0429798165395578,-0.0337911327303539,-0.145125608056225,0.0613882697222196,1.5677762099521,-0.144963141214248,101.787014049217,-0.144963141214248
0.66,0.0242623891459124,0.034033023504348,-0.143054967757667,-0.171803002481587,-0.0241594949448412,0.0341061434337773,0.14253545099575,-0.172234261026294,1.5677762099521,-0.144963141214248,101.787014049217,-0.144963141214248
0.67,-0.0241823200371289,-0.0144116856786916,0.147762603052998,-0.0557772798034009,0.0241386848439782,-0.0144846532745049,-0.147930382820445,-0.0553307657805417,1.5677762099521,-0.144963141214248,101.787014049217,-0.144963141214248
0.68,-0.00475773841240339,-0.0144116856786916,-0.0271483972134973,-0.0557772798034009,0.00471419180601687,-0.0144259888575565,0.0269798197557915,-0.0558590166353983,1.5677762099521,-0.144963141214248,103.92331297237,-0.144963141214248
0.69,-0.0430235157324664,-0.0335445784663365,0.144960922257837,0.0602487405211058,0.0429220111291941,-0.0336743613316027,-0.144778303196994,0.0606862640110722,1.5677762099521,-0.144963141214248,103.92331297237,-0.144963141214248
0.7,-0.0241823200371289,-0.0144116856786916,0.0894589528164431,-0.0557772798034009,0.0241386848439782,-0.0144846532745049,-0.0896269984805681,-0.0555068493489381,1.5677762099521,-0.144963141214248,103.92331297237,-0.144963141214248
0.71,-0.0627982081606285,-0.0725105113552838,0.263319700635685,0.293703482073914,0.0625789318825787,-0.0726998383053631,-0.262431482268611,0.29449739767867,1.5677762099521,-0.144963141214248,103.92331297237,-0.144963141214248
0.72,0.102136002188562,0.0340331968603352,-0.552232704523951,-0.28853091893635,-0.102032752317477,0.0343415038418057,0.551358790276153,-0.290197407833544,1.5677762099521,-0.144963141214248,103.92331297237,-0.144963141214248
0.73,-0.00499098877154743,-0.014761623129983,-0.0260982934400669,-0.0536744189736937,0.00494638425102716,-0.0147766291552083,0.0259360716471665,-0.0537529939646202,1.5677762099521,-0.144963141214248,103.92331297237,-0.144963141214248
0.74,-0.00487432644399997,-0.0145283232405636,-0.0267986021425387,-0.0550763758011913,0.00483042704737836,-0.0145429779964398,0.0266321430888549,-0.0551570594093167,1.5677762099521,-0.144963141214248,103.92331297237,-0.144963141214248
0.75,0.0244959077950906,0.0341499128468859,-0.144456576279337,-0.289232219800301,-0.0243926595101105,0.0342237374957689,0.143582403707388,-0.289667175818329,1.5677762099521,-0.144963141214248,103.92331297237,-0.144963141214248
0.76,-0.00469936184651225,-0.0145283067312042,-0.027148793654819,-0.0550764750100216,0.00465546329768545,-0.0145424330744312,0.0269823327044477,-0.0551582162353712,1.5677762099521,-0.144963141214248,103.92331297237,-0.144963141214248
0.77,-0.0435486695580789,-0.0336614224023625,0.206066748844536,0.0602495342182349,0.0434468096780138,-0.0337927907582588,-0.205883848710497,0.0608716041601045,1.5677762099521,-0.144963141214248,106.929390742805,-0.144963141214248
0.78,-0.0534942231124358,-0.0534942231124358,0.265420701078526,0.179079368982457,0.053332420590773,-0.0536555377080038,-0.26487865081802,0.179880152593321,1.5677762099521,-0.144963141214248,106.975168576873,-0.144963141214248
0.79,-0.0142367912484557,0.0149002173966153,0.0301050996960713,-0.173205604196326,0.0142817266499779,0.0148571527357638,-0.0306280627675679,-0.173113893503181,1.5677762099521,-0.144963141214248,106.975168576873,-0.144963141214248
0.8,-0.0437235887540002,-0.0339529543955646,0.148112868903805,0.061651044589528,0.0436208476168631,-0.0340848496975215,-0.147926000352656,0.0620980809168995,1.5677762099521,-0.144963141214248,103.92331297237,-0.144963141214248
0.81,0.0244959820905104,0.0341500366725857,-0.144456873613653,-0.172505047441571,-0.024392733431224,0.0342238615452844,0.143935230203691,-0.172940536697617,1.5677762099521,-0.144963141214248,103.92331297237,-0.144963141214248
0.82,0.0246125659939345,0.0343249145912538,-0.144806817348428,-0.172505097042668,-0.0245087886520168,0.0343990907628883,0.14428517219273,-0.17294164316785,1.5677762099521,-0.144963141214248,103.92331297237,-0.144963141214248
0.83,0.0147253724961139,0.0149002173966153,-0.0858030566333273,-0.0557772798034009,-0.014680305011213,0.0149446217213236,0.0856342116781493,-0.0560361602909296,1.5677762099521,-0.144963141214248,103.92331297237,-0.144963141214248
0.84,0.1508732133323,0.121736142774652,-0.78615165296091,-0.639416862076941,-0.150504868451292,0.122191241630992,0.784216956978373,-0.641788212223528,1.5677762099521,-0.144963141214248,106.929390742826,-0.144963141214248
0.85,-0.0145865058135043,0.0146088505052607,0.0315046764277622,-0.171804887535353,0.0146305596594177,0.0145647309959598,-0.0320234027948711,-0.171708956351411,1.5677762099521,-0.144963141214248,106.975168576873,-0.144963141214248
0.86,0.0434546202134067,0.0336257166043161,-0.258616797927548,-0.169704060582556,-0.0433528685977765,0.0337568010834724,0.25810309318034,-0.170484338398712,1.5677762099521,-0.144963141214248,106.975168576873,-0.144963141214248
