t,iq,id,vq,vd,ia,ib,va,vb,theta_e,omega,omega_obs,r
0,0,0,0,0,0,0,0,0,0,-0.144963141214248,0,0
0.01,-0.00487553115210946,-0.0145289255946183,-0.0267931781716553,-0.055072756106464,0.00483162993081687,-0.0145435839861012,0.0266267300745922,-0.0551534233500962,1.5677762099521,-0.144963141214248,-0.144963141214248,-0.144963141214248
0.02,-0.0144116856786916,0.0149002173966153,-0.027848879358281,-0.173205604196326,0.0144566202825991,0.0148566245349523,0.0273256519847996,-0.173288921025356,1.5677762099521,-0.144963141214248,-0.144963141214248,-0.144963141214248
0.03,0.102073978270386,0.0729965208418948,-0.551863784136409,-0.405948990030918,-0.101853055070042,0.0733044628100061,0.550635255816011,-0.407613829256216,1.5677762099521,-0.144963141214248,-0.144963141214248,-0.144963141214248
0.04,-0.00464105132025594,-0.0144116856786916,-0.027848879358281,-0.0557772798034009,0.00459750524602667,-0.0144256364494399,0.0276802987059917,-0.0558611321701058,1.5677762099521,-0.144963141214248,-0.144963141214248,-0.144963141214248
0.05,0.0632259634047636,0.0535725347761124,-0.318655875304011,-0.289225292061377,-0.0630638799910034,0.053763239962623,0.317780929210101,-0.290186349548215,1.5677762099521,-0.144963141214248,-0.144963141214248,-0.144963141214248
0.06,0.0341484931546913,0.0537483604633216,-0.260705683045365,-0.289929661681947,-0.0339860113368588,0.0538512476238208,0.259828873960849,-0.290715699870846,1.5677762099521,-0.144963141214248,-0.144963141214248,-0.144963141214248
0.07,0.0339727315644518,0.0146072458034686,-0.201700148737211,-0.17179717309489,-0.0339284611081169,0.0147097806492229,0.201180382126451,-0.17240554669576,1.5677762099521,-0.144963141214248,-0.144963141214248,-0.144963141214248
0.08,-0.00475823141125496,-0.0144116856786916,-0.0271454377011248,-0.0557772798034009,0.0047146848026201,-0.0144259903464684,0.0269768602569159,-0.0558590076973387,1.5677762099521,-0.144963141214248,-0.144963141214248,-0.144963141214248
0.09,-0.00440670823077726,-0.0140015852721039,-0.028903964888173,-0.057185505478471,0.00436440177454358,-0.0140148301706998,0.0287311264244997,-0.0572725378996286,1.5677762099521,-0.144963141214248,-0.144963141214248,-0.144963141214248
0.1,-0.00464105132025594,-0.0144116856786916,-0.027848879358281,-0.0557772798034009,0.00459750524602667,-0.0144256364494399,0.0276802987059917,-0.0558611321701058,1.5677762099521,-0.144963141214248,-0.144963141214248,-0.144963141214248
0.11,-0.0437821659801103,-0.0340701088477848,0.148464512776542,0.0623550547138819,0.0436790707562324,-0.0342021805252513,-0.148275516432101,0.0628031498345488,1.5677762099521,-0.144963141214248,-0.144963141214248,-0.144963141214248
0.12,-0.033660089630663,-0.0530842124415736,0.0884040981540752,0.176967492679169,0.0334996158417962,-0.053185627597486,-0.0878692332900304,0.177233675910108,1.5677762099521,-0.144963141214248,-0.144963141214248,-0.144963141214248
0.13,-0.0144702543585422,0.0147245113570635,0.0311566292979238,-0.172501696785153,0.0145146580433816,0.0146807424127289,-0.0316774616944712,-0.172406813564779,1.5677762099521,-0.144963141214248,-0.144963141214248,-0.144963141214248
0.14,0.0438021696287402,0.0341486640826423,-0.260355142226234,-0.172501748148378,-0.0436988370680074,0.0342807958151181,0.259832980220727,-0.173287263200456,1.5677762099521,-0.144963141214248,-0.144963141214248,-0.144963141214248
0.15,-0.0435479083548835,-0.0336601537303702,0.147409786380538,0.0602434352068179,0.0434460523098218,-0.0337915197931333,-0.147227172174173,0.0606883545655191,1.5677762099521,-0.144963141214248,-0.144963141214248,-0.144963141214248
0.16,-0.0239480965975056,-0.014236018098974,0.0884044059874415,-0.0564810331381261,0.0239049930083521,-0.0143082791148484,-0.0885745818749477,-0.0562137843239598,1.5677762099521,-0.144963141214248,-0.144963141214248,-0.144963141214248
0.17,-0.0814008881051151,-0.0527330524843459,0.317396307969196,0.175560859091779,0.0812412571344673,-0.0529786518121177,-0.316864646966196,0.17651863091614,1.5677762099521,-0.144963141214248,-0.112918657414947,-0.144963141214248
0.18,-0.0435479468130616,-0.0336602178273337,0.14740994029226,0.0602437433464429,0.0434460905742445,-0.0337915840059524,-0.147227325154578,0.0606886631685695,1.5677762099521,-0.144963141214248,-0.144963141214248,-0.144963141214248
0.19,-0.0434894165919342,-0.0338358683145316,0.147058552942328,0.0609474453245752,0.0433870301358587,-0.0339670569242497,-0.146873814148199,0.0613913007081935,1.5677762099521,-0.144963141214248,-0.144963141214248,-0.144963141214248
0.2,0.0732898684776818,0.034324408578713,-0.437020639962295,-0.289930380680892,-0.0731858706687358,0.0345455956702645,0.436143024613249,-0.291248909828049,1.5677762099521,-0.144963141214248,-0.144963141214248,-0.144963141214248
0.21,0.112021216038403,0.0537486168533305,-0.611225554082515,-0.289930432037485,-0.111858378303844,0.0540866883771123,0.61034714410825,-0.291775079579843,1.5677762099521,-0.144963141214248,-0.144963141214248,-0.144963141214248
0.22,-0.0430797563216019,-0.0334261824054205,0.14530197531993,0.0595407090039871,0.0429786090312356,-0.03355613566353,-0.145121493038357,0.0599792657414976,1.5677762099521,-0.144963141214248,-0.144963141214248,-0.144963141214248
0.23,-0.0439576925459899,-0.0343626360315465,0.207820793129281,0.0637612261052996,0.0438537130566827,-0.0344952364848604,-0.207627279292144,0.0643885774425591,1.5677762099521,-0.144963141214248,-0.144963141214248,-0.144963141214248
0.24,-0.0425531552676926,-0.0333092159780954,0.142491902651398,0.0588376746880781,0.0424523636306566,-0.0334375793753414,-0.142313556427851,0.0592677478969169,1.5677762099521,-0.144963141214248,-0.144963141214248,-0.144963141214248
0.25,-0.00469956872144162,-0.0142361334751345,-0.0274975946194521,-0.0564805709221736,0.00465655256770163,-0.0142502617756176,0.0273268915510899,-0.0565633591621411,1.5677762099521,-0.144963141214248,-0.144963141214248,-0.144963141214248
0.26,-0.0049921300885719,-0.0147627644470075,-0.0257413248371071,-0.0536675605169719,0.00494752211594107,-0.0147777739139333,0.0255791253854889,-0.0537450574539254,1.5677762099521,-0.144963141214248,-0.144963141214248,-0.144963141214248
0.27,-0.0141776502589997,0.0147246908318464,0.0297513364243339,-0.172502415790773,0.0142220558203086,0.0146818055839193,-0.0302721774012666,-0.172411776709344,1.5677762099521,-0.144963141214248,-0.144963141214248,-0.144963141214248
0.28,-0.00475806048384247,-0.0144116856786916,-0.0271464637923427,-0.0557772798034009,0.00471451387598714,-0.0144259898302484,0.0269778863434543,-0.0558590107962494,1.5677762099521,-0.144963141214248,-0.144963141214248,-0.144963141214248
0.29,-0.0240653194198029,-0.0144116856786916,0.0887565885544045,-0.0557772798034009,0.0240216847602393,-0.0144842999195071,-0.0889246374216964,-0.0555089705678511,1.5677762099521,-0.144963141214248,-0.144963141214248,-0.144963141214248
0.3,-0.0328415297204314,-0.0524412944728359,0.0841916056303528,0.174158128632014,0.0326830013490817,-0.0525402404179938,-0.0836652445723664,0.174411602474916,1.5677762099521,-0.144963141214248,-0.144963141214248,-0.144963141214248
0.31,0.034207519063872,0.0147247421094044,-0.202757235138985,-0.0550742968242131,-0.034162892684744,0.0148279855039146,0.202589979896006,-0.0556863952651193,1.5677762099521,-0.144963141214248,-0.144963141214248,-0.144963141214248
0.32,-0.0436066137754523,-0.0338359794170167,0.147761763728626,0.06094811296693,0.0435042264493512,-0.0339675219748779,-0.147577019711114,0.0613940921230147,1.5677762099521,-0.144963141214248,-0.144963141214248,-0.144963141214248
0.33,-0.0919334451685917,-0.0336605383148434,0.379919897067386,0.0602452840575115,0.0918313672974105,-0.0339380341283872,-0.379736216903438,0.0613924100417033,1.5677762099521,-0.144963141214248,-0.144963141214248,-0.144963141214248
0.34,-0.00475800920628502,-0.0144116856786916,-0.0271467716157083,-0.0557772798034009,0.00471446259866353,-0.0144259896753845,0.0269781941654161,-0.0558590117259105,1.5677762099521,-0.144963141214248,-0.144963141214248,-0.144963141214248
0.35,-0.0141777870013605,0.0150171667352808,0.0297519520810043,-0.17390838174252,0.014223075872105,0.0149742797405256,-0.0302770392301255,-0.173817734389762,1.5677762099521,-0.144963141214248,-0.144963141214248,-0.144963141214248
0.36,-0.0144116856786916,0.0149002173966153,0.0308050367290811,-0.173205604196326,0.0144566202825991,0.0148566245349523,-0.0313279966084803,-0.173111779614772,1.5677762099521,-0.144963141214248,-0.144963141214248,-0.144963141214248
0.37,0.0339737571289305,0.0534565597227322,-0.201704766147708,-0.405251553650313,-0.0338121573789819,0.0535589204915909,0.20047994108097,-0.405858876516044,1.5677762099521,-0.144963141214248,-0.144963141214248,-0.144963141214248
0.38,-0.0144116856786916,0.0146079081469163,0.0308050367290811,-0.17180035724357,0.0144557374758528,0.014564316618344,-0.0313237526049416,-0.171706539070715,1.5677762099521,-0.144963141214248,-0.144963141214248,-0.144963141214248
0.39,-0.0242992351907492,-0.0145286008323118,0.0898098784246591,-0.0550747076836127,0.0242552463675133,-0.0146019209918157,-0.0899758006417038,-0.054803220598536,1.5677762099521,-0.144963141214248,-0.144963141214248,-0.144963141214248
0.4,-0.0432559623245569,-0.0336606878771625,0.204310485297281,0.0602460030631311,0.0431541059977462,-0.0337911722277066,-0.204127603837254,0.0608627689080485,1.5677762099521,-0.144963141214248,-0.144963141214248,-0.144963141214248
0.41,-0.00423190810640098,-0.0142363385870394,-0.0296032508798951,-0.0564797492100095,0.00418889346598935,-0.014249054499034,0.0294325406902466,-0.0565688967719945,1.5677762099521,-0.144963141214248,-0.144963141214248,-0.144963141214248
0.42,0.0241448489382667,-0.0147623542232144,-0.142700770966391,-0.0536700256533636,-0.0241893227913432,-0.0146893667446754,0.142538030670451,-0.0541007532352782,1.5677762099521,-0.144963141214248,-0.144963141214248,-0.144963141214248
0.43,0.015484622239523,0.0151339793337784,-0.0896602024494805,-0.0571820131902462,-0.0154388453047358,0.015180675611856,0.0894870974510866,-0.0574525362847548,1.5677762099521,-0.144963141214248,-0.144963141214248,-0.144963141214248
0.44,0.0143158552850046,0.0141989828626824,-0.0840472140062844,-0.169694027512162,-0.0142729074747344,0.0142421535974589,0.0835343356932879,-0.169947085634904,1.5677762099521,-0.144963141214248,-0.144963141214248,-0.144963141214248
0.45,-0.0532020634250393,-0.0532604953625186,0.205363698218291,0.177674841035241,0.0530409681198262,-0.0534209286689622,-0.204826163682775,0.178294252161387,1.5677762099521,-0.144963141214248,-0.144963141214248,-0.144963141214248
0.46,0.0242034304402541,0.0339156371343401,-0.143052235285367,-0.171098966345271,-0.0241008910280812,0.0339885795372064,0.142534844804073,-0.171530219848396,1.5677762099521,-0.144963141214248,-0.144963141214248,-0.144963141214248
0.47,-0.0435483185803504,-0.0339529543955646,0.147411428125193,0.061651044589528,0.0434455782425416,-0.0340843203619227,-0.147224562772999,0.0620959624870102,1.5677762099521,-0.144963141214248,-0.144963141214248,-0.144963141214248
0.48,-0.0532021275220041,-0.0532605466400904,0.205364006041743,0.177675149174872,0.0530410320616347,-0.0534209801398802,-0.204826470574207,0.178294561229275,1.5677762099521,-0.144963141214248,-0.144963141214248,-0.144963141214248
0.49,-0.014178026298865,-0.0338361247056513,0.0297530294728526,0.0609489860423253,0.014075772744503,-0.0338787896252625,-0.0295688210032185,0.0610385655702985,1.5677762099521,-0.144963141214248,-0.144963141214248,-0.144963141214248
0.5,-0.00452423017660205,-0.0142364539632107,-0.0281995227917439,-0.0564792869940137,0.00448121385459218,-0.0142500527201448,0.0280288203998108,-0.0565641951417096,1.5677762099521,-0.144963141214248,-0.144963141214248,-0.144963141214248
0.51,0.0154258740848905,0.0150170299940098,-0.0889571199162572,-0.056479235637424,-0.015380450618161,0.0150635493794191,0.0887861405914033,-0.0567476385488118,1.5677762099521,-0.144963141214248,-0.144963141214248,-0.144963141214248
0.52,-0.0436067847028651,-0.0338361503444294,0.206065600732028,0.0609491401120946,0.0435043968597645,-0.0339676934177311,-0.205880587714894,0.0615712033959483,1.5677762099521,-0.144963141214248,-0.144963141214248,-0.144963141214248
0.53,-0.0534942231124358,-0.0534942231124358,0.206766784991167,0.179079368982457,0.053332420590773,-0.0536555377080038,-0.206225002224744,0.179703011182737,1.5677762099521,-0.144963141214248,-0.144963141214248,-0.144963141214248
0.54,-0.0238903526405882,-0.0144116856786916,0.088056789513737,-0.0557772798034009,0.0238467187789692,-0.0144837715001935,-0.0882248415724969,-0.0555110840395075,1.5677762099521,-0.144963141214248,-0.144963141214248,-0.144963141214248
0.55,0.0632278863381559,0.0147250497797361,-0.376968254519123,-0.172503853795297,-0.0631831266810102,0.0149159379395962,0.376445554334467,-0.173641553526913,1.5677762099521,-0.144963141214248,-0.144963141214248,-0.144963141214248
0.56,-0.00487459105024268,-0.0145284555436849,-0.0267974108028734,-0.0550755807589616,0.00483069125284404,-0.0145431110980983,0.0266309541557395,-0.0551562607727333,1.5677762099521,-0.144963141214248,-0.144963141214248,-0.144963141214248
0.57,-0.00458267066089228,-0.0145284469974189,-0.0281993432247836,-0.0550756321155912,0.00453877222062168,-0.0145422209195269,0.0280328800289649,-0.0551605461224121,1.5677762099521,-0.144963141214248,-0.144963141214248,-0.144963141214248
0.58,0.0732905180022975,0.0731737652298317,-0.437024539111613,-0.40665906031977,-0.0730691907723977,0.0733947771086101,0.435794390029287,-0.407977068895885,1.5677762099521,-0.144963141214248,-0.144963141214248,-0.144963141214248
0.59,0.150638400378858,0.121559985755962,-0.785093600054936,-0.639411176894953,-0.150270588582697,0.122014376254198,0.78315892606759,-0.641779331628923,1.5677762099521,-0.144963141214248,-0.144963141214248,-0.144963141214248
0.6,-0.0144116856786916,-0.0336611151956971,0.0308050367290811,0.0602480573534733,0.0143099596070796,-0.0337044865910036,-0.0306229403450366,0.0603408172580698,1.5677762099521,-0.144963141214248,-0.144963141214248,-0.144963141214248
0.61,-0.0437235887540002,-0.0339529543955646,0.148112868903805,0.061651044589528,0.0436208476168631,-0.0340848496975215,-0.147926000352656,0.0620980809168995,1.5677762099521,-0.144963141214248,-0.144963141214248,-0.144963141214248
0.62,-0.0823392518380299,-0.101822161261187,0.321972603525308,0.41113045414892,0.0820313619690875,-0.102070370679459,-0.320729475031733,0.41210097257278,1.5677762099521,-0.144963141214248,-0.144963141214248,-0.144963141214248
0.63,0.0244374316727133,0.0343247760723177,-0.144105781668552,-0.289932589040997,-0.024333655547847,0.0343984233192747,0.143229495502694,-0.290366482425854,1.5677762099521,-0.144963141214248,-0.144963141214248,-0.144963141214248
0.64,-0.043373484269272,-0.0336612006582911,0.146711731692325,0.0602484682061913,0.0432716258578401,-0.0337920399359616,-0.14652910546925,0.0606912793384231,1.5677762099521,-0.144963141214248,-0.144963141214248,-0.144963141214248
0.65,0.0343247931648365,0.0149002173966153,-0.261413767754955,-0.173205604196326,-0.0342796362958094,0.0150038141718108,0.260889475197261,-0.173994313206363,1.5677762099521,-0.144963141214248,-0.144963141214248,-0.144963141214248
0.66,-0.0435485621520705,-0.0339529543955646,0.14741240291248,0.061651044589528,0.0434458218131508,-0.0340843210975366,-0.14722553755584,0.0620959654309772,1.5677762099521,-0.144963141214248,-0.144963141214248,-0.144963141214248
0.67,-0.0131282512733941,0.015541934599264,0.0245013045421919,-0.176010140657382,0.0131751297884534,0.0155022149269897,-0.0250327631849995,-0.17593534126441,1.5677762099521,-0.144963141214248,-0.144963141214248,-0.144963141214248
0.68,-0.0239489854196069,-0.01423668471555,0.0884084077411944,-0.0564783625620352,0.0239058798131431,-0.0143089484127268,-0.0885785755450109,-0.0562111016743026,1.5677762099521,-0.144963141214248,-0.144963141214248,-0.144963141214248
0.69,0.0145502411091104,0.0146085704903612,-0.0851021712864311,-0.171803541392237,-0.0145060552292997,0.0146524472286921,0.0845829171935355,-0.172059775983844,1.5677762099521,-0.144963141214248,-0.144963141214248,-0.144963141214248
0.7,0.0149002173966153,0.0149002173966153,-0.086502795445643,-0.173205604196326,-0.0148551491143256,0.0149451497725498,0.0859793005780795,-0.17346606243594,1.5677762099521,-0.144963141214248,-0.144963141214248,-0.144963141214248
0.71,-0.0431987012390872,-0.0335447085506322,0.145312031016579,0.0595482585229719,0.0430971954440035,-0.0336750204952,-0.145131525888751,0.059986845595385,1.5677762099521,-0.144963141214248,-0.144963141214248,-0.144963141214248
0.72,0.0146669511491728,0.0147252677110334,-0.0854525581937729,-0.172504726864064,-0.0146224122983942,0.0147694963945827,0.0849311848440864,-0.172762016465672,1.5677762099521,-0.144963141214248,-0.144963141214248,-0.144963141214248
0.73,-0.043840213331462,-0.0341862035504883,0.148812975767825,0.063052696540873,0.0437367672238223,-0.0343184500080162,-0.148621870877573,0.0635018408772591,1.5677762099521,-0.144963141214248,-0.144963141214248,-0.144963141214248
0.74,-0.043198816613589,-0.0335447982863559,0.145662674443361,0.0602494953513624,0.0430973105469672,-0.0336751105789583,-0.14548004990247,0.0606891382082596,1.5677762099521,-0.144963141214248,-0.144963141214248,-0.144963141214248
0.75,0.0827116204809492,0.0534580211481139,-0.493930188904121,-0.288531758801776,-0.0825497940458982,0.0537075757285373,0.493056538011339,-0.290022167553413,1.5677762099521,-0.144963141214248,-0.144963141214248,-0.144963141214248
0.76,0.0246708517550509,-0.0141201883347428,-0.145156711533001,-0.0564779517026689,-0.0247133837961982,-0.0140456151972817,0.144985479784761,-0.0569160836950927,1.5677762099521,-0.144963141214248,-0.144963141214248,-0.144963141214248
0.77,-0.0437235887540002,-0.0339529543955646,0.148112868903805,0.061651044589528,0.0436208476168631,-0.0340848496975215,-0.147926000352656,0.0620980809168995,1.5677762099521,-0.144963141214248,-0.144963141214248,-0.144963141214248
0.78,-0.00464105132025594,0.0341500315008513,-0.027848879358281,-0.172505035010277,0.00474416708304272,0.0341358592619925,0.0273277677823815,-0.172588355034288,1.5677762099521,-0.144963141214248,-0.144963141214248,-0.144963141214248
0.79,-0.0242988933359236,-0.0145282589774863,0.0898088523334396,-0.0550767619739419,0.0242549055466868,-0.0146015781061093,-0.0899747807593512,-0.0548052779784072,1.5677762099521,-0.144963141214248,-0.144963141214248,-0.144963141214248
0.8,-0.0241823200371289,-0.0144116856786916,0.0894589528164431,-0.0557772798034009,0.0241386848439782,-0.0144846532745049,-0.0896269984805681,-0.0555068493489381,1.5677762099521,-0.144963141214248,-0.144963141214248,-0.144963141214248
0.81,-0.0239492076245771,-0.0142368513692777,0.0884094081771333,-0.0564776949196803,0.023906101513787,-0.0143091157367784,-0.0885795739600323,-0.0562104310135637,1.5677762099521,-0.144963141214248,-0.144963141214248,-0.144963141214248
0.82,0.112023822680889,0.0537496595103247,-0.611239637181484,-0.406661525462804,-0.111860981785501,0.0540877389017044,0.610008686137587,-0.408505683179784,1.5677762099521,-0.144963141214248,-0.144963141214248,-0.144963141214248
0.83,0.0149584869534938,0.0150167565103724,-0.145506508442212,-0.173905916599426,-0.0149130664442578,0.0150618643354271,0.144980629463231,-0.174344569481746,1.5677762099521,-0.144963141214248,-0.144963141214248,-0.144963141214248
0.84,-0.0047575818877515,-0.0144116856786916,-0.027149336843767,-0.0557772798034009,0.00471403528207883,-0.0144259883848345,0.0269807593817759,-0.0558590194731872,1.5677762099521,-0.144963141214248,-0.144963141214248,-0.144963141214248
0.85,0.0342084420710142,0.0147254343647611,-0.261415306891794,-0.172505394506419,-0.0341638135969879,0.0148286805436993,0.260893129038944,-0.173294111358162,1.5677762099521,-0.144963141214248,-0.144963141214248,-0.144963141214248
