t,iq,id,vq,vd,ia,ib,va,vb,theta_e,omega,omega_obs,r
0,0,0,0,0,0,0,0,0,0,-0.144963141214248,0,0
0.01,0.0147829772183682,-0.00464105132025594,-0.144452909167188,-0.0557772798034009,0.0147831996857828,0.00464034264320148,-0.144450235129743,0.0557842045752437,-1.57084426515748,-0.144963141214248,4.73800582599233,-0.144963141214248
0.02,-0.00487551516628616,-0.00475828324327106,-0.0267932501448075,-0.0550728041378501,-0.00487528705637667,0.00475851696201732,-0.0267906100139686,0.0550740884991088,-1.57084426515748,-0.144963141214248,4.73800582599233,-0.144963141214248
0.03,0.00536403037374592,0.024788075422834,-0.0875583503238686,-0.173910030254143,0.00536284206783549,-0.0247883325371843,-0.0875500132611761,0.173914227458256,-1.57084426515748,-0.144963141214248,4.73800582599233,-0.144963141214248
0.04,-0.0337185235704621,-0.043606373341449,0.0884034722734646,0.061651044589528,-0.0337164331135827,0.0436079897021515,0.0884005167217571,-0.0616552824363942,-1.57084426515748,-0.144963141214248,4.73800582599233,-0.144963141214248
0.05,0.0151346317112539,-0.00423082626963842,-0.146212117740733,-0.0578902603304502,0.0151348345127472,0.00423010073531475,-0.14620934240844,0.0578972694334436,-1.57084426515748,-0.144963141214248,4.73800582599233,-0.144963141214248
0.06,0.0538069564772269,0.0635189913846189,-0.320414905213432,-0.406653698512953,0.0538039114189616,-0.063521570729021,-0.320395410532824,0.406669058211588,-1.57084426515748,-0.144963141214248,4.73800582599233,-0.144963141214248
0.07,-0.0240651293902735,0.0244950657847677,0.0304532842166688,-0.172501376569443,-0.0240663036159663,-0.0244939121137239,0.0304615536152097,0.172499916490652,-1.57084426515748,-0.144963141214248,4.73800582599233,-0.144963141214248
0.08,0.00518817423399138,0.0244950781676158,-0.0868545231796392,-0.172501426177178,0.00518699997409167,-0.0244953268520474,-0.0868462536439283,0.172505589642589,-1.57084426515748,-0.144963141214248,6.87430474914527,-0.144963141214248
0.09,0.0147830432602239,-0.00464105132025594,-0.144453305621841,-0.0557772798034009,0.0147832657276385,0.00464034264003554,-0.144450631584396,0.0557842045942491,-1.57084426515748,-0.144963141214248,6.87430474914527,-0.144963141214248
0.1,-0.0239479882748098,0.0244951029333115,0.0880522401077842,-0.172501525392645,-0.023949162502418,-0.024493954877821,0.0880605094472758,0.172497304114222,-1.57084426515748,-0.144963141214248,6.87430474914527,-0.144963141214248
0.11,-0.0437235887540002,-0.0241823200371289,0.148112868903805,0.061651044589528,-0.0437224294429343,0.0241844160465928,0.148109913283489,-0.0616581448070984,-1.57084426515748,-0.144963141214248,6.87430474914527,-0.144963141214248
0.12,0.0440949711012,0.0440949711012,-0.262112915087313,-0.289929949000882,0.044092857209821,-0.044097084891245,-0.26209901601912,0.289942513931697,-1.57084426515748,-0.144963141214248,6.87430474914527,-0.144963141214248
0.13,0.0151930701963825,-0.00411391628067504,-0.146563126954016,-0.058592999832121,0.0151932673933352,0.00411318794504041,-0.146560317933138,0.0586000257611138,-1.57084426515748,-0.144963141214248,6.87430474914527,-0.144963141214248
0.14,0.0243780195933632,0.0243780195933632,-0.202052732236173,-0.171797843397431,0.0243768509230099,-0.0243791882076937,-0.2020444962967,0.171807529277164,-1.57084426515748,-0.144963141214248,6.87430474914527,-0.144963141214248
0.15,-0.0436064641445574,-0.062737796728379,0.147409760306963,0.176967876607323,-0.0436034565472056,0.0627398870787789,0.147401276587351,-0.176974942986514,-1.57084426515748,-0.144963141214248,6.87430474914527,-0.144963141214248
0.16,0.0149587755737208,-0.00446537678893946,-0.145508241053007,-0.0564810609873795,0.014958989619384,0.00446465968460156,-0.145505533276232,0.0564880363492962,-1.57084426515748,-0.144963141214248,6.87430474914527,-0.144963141214248
0.17,0.0147831092976361,-0.00464105132025594,-0.14445370204982,-0.0557772798034009,0.0147833317650505,0.00464034263686981,-0.144451028012375,0.0557842046132532,-1.57084426515748,-0.144963141214248,6.87430474914527,-0.144963141214248
0.18,-0.0336602047861973,-0.00464105132025594,0.0880530329637484,-0.0557772798034009,-0.0336599822631194,0.00464266493002425,0.0880557067340338,0.0557730586210911,-1.57084426515748,-0.144963141214248,6.87430474914527,-0.144963141214248
0.19,0.0146660342195851,-0.00475814290877105,-0.144102345978726,-0.0550736474426236,0.0146662623003131,0.00475743983763792,-0.144099705672668,0.0550805554098497,-1.57084426515748,-0.144963141214248,9.92616035364881,-0.144963141214248
0.2,0.0247879350883342,0.0247879350883342,-0.204162058026707,-0.173909186949371,0.0247867467668323,-0.0247891233528713,-0.204153720870458,0.173918973944301,-1.57084426515748,-0.144963141214248,9.92616035364881,-0.144963141214248
0.21,0.0633436264156149,0.0825336698983331,-0.377663942114893,-0.521972911648566,0.0633396698138388,-0.0825367063932277,-0.377638919154253,0.521991015639782,-1.57084426515748,-0.144963141214248,9.92616035364881,-0.144963141214248
0.22,0.0147831505737961,-0.00464105132025594,-0.14445394983398,-0.0557772798034009,0.0147833730412105,0.0046403426348911,-0.144451275796534,0.0557842046251315,-1.57084426515748,-0.144963141214248,9.92616035364881,-0.144963141214248
0.23,-0.0240067321857478,-0.0238896736181603,0.0301023245868902,0.0602441767298417,-0.0240055869263275,0.0238908244341416,0.0300994365451147,-0.0602456197167686,-1.57084426515748,-0.144963141214248,9.92616035364881,-0.144963141214248
0.24,-0.0433139126607572,-0.0238896942562411,0.146004881147734,0.0602442759453136,-0.0433127673781628,0.0238917706268401,0.146001992968025,-0.0602512751110192,-1.57084426515748,-0.144963141214248,9.92616035364881,-0.144963141214248
0.25,0.0238515573551875,0.0242612045551192,-0.199946255963468,-0.171798934767577,0.0238503942853608,-0.0242623479318463,-0.199938019974098,0.171808519666285,-1.57084426515748,-0.144963141214248,9.92616035364881,-0.144963141214248
0.26,-0.179459165555075,-0.131132645871409,0.846690635914424,0.529254486841314,-0.179452879064546,0.131141248699276,0.84666526334806,-0.529295075195864,-1.57084426515748,-0.144963141214248,12.9780159581524,-0.144963141214248
0.27,-0.0434895376606806,-0.0240652944904692,0.147059098031507,0.0609478090906189,-0.0434883839598967,0.0240673792800413,0.14705617612436,-0.0609548587929473,-1.57084426515748,-0.144963141214248,12.9780159581524,-0.144963141214248
0.28,0.0246123431093369,0.0244953258179089,-0.203459395441346,-0.17250241830515,0.024611168815246,-0.0244965056651903,-0.20345112572409,0.172512171617203,-1.57084426515748,-0.144963141214248,12.9780159581524,-0.144963141214248
0.29,0.0248463653093436,0.0249048698274412,-0.204513042421561,-0.1746118767632,0.0248451713821146,-0.024906060892893,-0.20450467157911,0.174621680582941,-1.57084426515748,-0.144963141214248,12.9780159581524,-0.144963141214248
0.3,-0.0628553547374996,-0.0436065879730368,0.20501087188025,0.061651044589528,-0.0628532642368516,0.0436096011057156,0.205007916194556,-0.0616608724041944,-1.57084426515748,-0.144963141214248,12.9780159581524,-0.144963141214248
0.31,-0.0436650924911211,-0.0240653275113708,0.206064469303471,0.0609480075213964,-0.0436639387885525,0.024067420716754,0.206061547319012,-0.0609578858446059,-1.57084426515748,-0.144963141214248,12.9780159581524,-0.144963141214248
0.32,-0.00487501986130874,-0.00475803559078235,-0.0264443470965507,-0.0550742923430021,-0.00487479176327188,0.00475826928578478,-0.0264417068947706,0.0550755599784182,-1.57084426515748,-0.144963141214248,12.9780159581524,-0.144963141214248
0.33,0.0243784117057729,0.0243784117057729,-0.202406194419268,-0.171799728437913,0.024377243016622,-0.0243795803389002,-0.202397958389024,0.171809431262042,-1.57084426515748,-0.144963141214248,12.9780159581524,-0.144963141214248
0.34,0.0147832496321359,-0.00464105132025594,-0.144454544489285,-0.0557772798034009,0.0147834720995502,0.0046403426301424,-0.144451870451838,0.0557842046536383,-1.57084426515748,-0.144963141214248,9.92616035364881,-0.144963141214248
0.35,0.0244954124911795,0.0244954124911795,-0.202406392646591,-0.172502765532585,0.024494238193068,-0.0244965867329984,-0.2023981229139,0.172512468365408,-1.57084426515748,-0.144963141214248,9.92616035364881,-0.144963141214248
0.36,0.00489568053015014,-0.0240653687831142,-0.0854496935505693,0.0609482555335263,0.00489683417889879,0.0240651340645538,-0.0854526152119554,-0.0609441591451035,-1.57084426515748,-0.144963141214248,9.92616035364881,-0.144963141214248
0.37,-0.13084069698844,-0.0824552971913937,0.613132087363387,0.295102214478848,-0.130836744066166,0.0824615693854196,0.61311793994192,-0.295131606688067,-1.57084426515748,-0.144963141214248,9.92616035364881,-0.144963141214248
0.38,0.0537488853432553,0.0633441175863642,-0.320065506570506,-0.405954183460575,0.0537458486682203,-0.0633466941471321,-0.320046045423905,0.405969526410415,-1.57084426515748,-0.144963141214248,9.92616035364881,-0.144963141214248
0.39,0.0243785355342523,0.0243785355342523,-0.202406789101249,-0.171800323730719,0.0243773668391651,-0.0243797041733156,-0.202398553042467,0.171810026583355,-1.57084426515748,-0.144963141214248,9.92616035364881,-0.144963141214248
0.4,-0.00464105132025594,-0.00464105132025594,-0.027848879358281,-0.0557772798034009,-0.00464082883052229,0.00464127379932405,-0.0278462054548192,0.0557786147689861,-1.57084426515748,-0.144963141214248,9.92616035364881,-0.144963141214248
0.41,-0.0629141275373038,-0.0434897687982884,0.205363144699375,0.0609485035721898,-0.0629120426367082,0.0434927847485732,0.205360222691942,-0.0609583482750456,-1.57084426515748,-0.144963141214248,9.92616035364881,-0.144963141214248
0.42,0.0243785974484934,0.0243785974484934,-0.202407086442246,-0.171800621377128,0.024377428750438,-0.0243797660905247,-0.202398850369195,0.171810324244018,-1.57084426515748,-0.144963141214248,9.92616035364881,-0.144963141214248
0.43,0.0148417706629197,-0.00446571111916911,-0.144805851016887,-0.056479721605267,0.0148419847247446,0.00446499962385466,-0.144803143305127,0.0564866632957571,-1.57084426515748,-0.144963141214248,9.92616035364881,-0.144963141214248
0.44,-0.0241823200371289,0.0243786387246523,0.0308050367290811,-0.171800819808059,-0.0241834886813645,-0.0243774794358146,0.0308132725436738,0.171799342867633,-1.57084426515748,-0.144963141214248,9.92616035364881,-0.144963141214248
0.45,-0.0434898348401448,-0.0240654430802013,0.147060436025955,0.0609487020031272,-0.0434886811322375,0.0240675278840195,0.147057514076001,-0.0609557517695958,-1.57084426515748,-0.144963141214248,9.92616035364881,-0.144963141214248
0.46,0.0144327425898318,-0.00487478872364771,-0.143051994447793,-0.0543726938460648,0.0144329762626372,0.00487409683599928,-0.143049387745509,0.0543795514619638,-1.57084426515748,-0.144963141214248,9.92616035364881,-0.144963141214248
0.47,0.0235606775136419,0.0240281192994983,-0.198198445181119,-0.170396630712585,0.0235595256178749,-0.0240292487321899,-0.198190276417917,0.170406131825717,-1.57084426515748,-0.144963141214248,9.92616035364881,-0.144963141214248
0.48,0.00483745256010157,0.0243787212769728,-0.085099848949506,-0.171801216669934,0.00483628387856366,-0.0243789531485153,-0.0850916129827086,0.17180529601994,-1.57084426515748,-0.144963141214248,9.92616035364881,-0.144963141214248
0.49,-0.0240070541331298,-0.0241823200371289,0.0301036130378432,-0.0550751356479375,-0.024005894844719,0.0241834708682076,0.0301062532150739,0.0550736924667374,-1.57084426515748,-0.144963141214248,9.92616035364881,-0.144963141214248
0.5,-0.0238902308352097,-0.0238902308352097,0.0877055174804251,0.0602468554940666,-0.0238890855492113,0.0238913760663064,0.0877026292440456,-0.0602510598837364,-1.57084426515748,-0.144963141214248,9.92616035364881,-0.144963141214248
0.51,-0.0638489945986837,-0.0439572436051251,0.26822599938947,0.179781413922614,-0.0638468872870371,0.0439603043708688,0.268217380654663,-0.179794272031246,-1.57084426515748,-0.144963141214248,9.92616035364881,-0.144963141214248
0.52,-0.1113587046559,-0.0823388495064199,0.496179352812994,0.294401707378111,-0.111354757338323,0.0823441877657677,0.496165239107074,-0.294425493065543,-1.57084426515748,-0.144963141214248,9.92616035364881,-0.144963141214248
0.53,-0.0436067778344847,-0.0241823200371289,0.147411643413217,0.061651044589528,-0.043605618523553,0.0241844104468686,0.147408687793707,-0.0616581111914966,-1.57084426515748,-0.144963141214248,9.92616035364881,-0.144963141214248
0.54,0.00489597770961221,-0.0242991227014127,-0.0851004435781282,0.0623529407330279,0.00489714256414061,0.0242988879683374,-0.085103432578224,-0.0623488610854629,-1.57084426515748,-0.144963141214248,9.92616035364881,-0.144963141214248
0.55,-0.0245911004688108,-0.0244159088552328,0.0332589790483247,0.0623528911252952,-0.0245899299818635,0.0244170876842681,0.0332559899146069,-0.0623544854346452,-1.57084426515748,-0.144963141214248,9.92616035364881,-0.144963141214248
0.56,0.0245540656012307,0.0246708517550509,-0.203109550800267,-0.173205604196326,0.0245528828927808,-0.0246720288084023,-0.203101247373833,0.173215340736592,-1.57084426515748,-0.144963141214248,9.92616035364881,-0.144963141214248
0.57,-0.111417361871519,-0.0436068108554118,0.496881742743279,0.178377621662155,-0.111415271304387,0.0436121519711952,0.49687319104124,-0.178401441154327,-1.57084426515748,-0.144963141214248,9.92616035364881,-0.144963141214248
0.58,-0.179461542981909,-0.130900295298117,0.905356445241341,0.527855853598459,-0.179455267629884,0.130908898240221,0.905331139655755,-0.527899254297453,-1.57084426515748,-0.144963141214248,9.92616035364881,-0.144963141214248
0.59,-0.0434900659777548,-0.0240655586490063,0.147061476679418,0.0609493964847046,-0.043488912264307,0.0240676434639048,0.147058554696172,-0.0609564463010597,-1.57084426515748,-0.144963141214248,9.92616035364881,-0.144963141214248
0.6,0.0251378642866144,0.0246708517550509,-0.205913263398645,-0.173205604196326,0.0251366815774937,-0.0246720567947553,-0.205904959968989,0.173215475141983,-1.57084426515748,-0.144963141214248,9.92616035364881,-0.144963141214248
0.61,-0.00475779619791505,-0.00475779619791505,-0.027498464840316,-0.0550757309140429,-0.00475756811148899,0.00475802427340729,-0.0274958245683619,0.0550770490821361,-1.57084426515748,-0.144963141214248,9.92616035364881,-0.144963141214248
0.62,-0.0336611128394963,-0.0434901155091455,0.0880573938582446,0.177676370419206,-0.0336590279558929,0.0434917291178052,0.0880488762427983,-0.177680591542322,-1.57084426515748,-0.144963141214248,9.92616035364881,-0.144963141214248
0.63,-0.0630314007364803,-0.0433150394688158,0.264019241233988,0.176975019960779,-0.0630293242119879,0.0433180610411865,0.264010757037947,-0.176987676407538,-1.57084426515748,-0.144963141214248,12.9322381235297,-0.144963141214248
0.64,-0.00481613148820159,-0.00464105132025594,-0.0271481989928429,-0.0557772798034009,-0.00481590899826677,0.00464128219238062,-0.0271455250901863,0.0557785811795167,-1.57084426515748,-0.144963141214248,9.92616035364881,-0.144963141214248
0.65,0.0146084377547853,-0.00487447503371991,-0.0854518492327319,-0.0543745788865467,0.0146086714123511,0.00487377472353332,-0.085449242506267,0.0543786752457984,-1.57084426515748,-0.144963141214248,9.92616035364881,-0.144963141214248
0.66,-0.0240072646348786,-0.0241823200371289,0.088408080938778,0.061651044589528,-0.0240061053464676,0.0241834708782987,0.0884051253870652,-0.061655282657326,-1.57084426515748,-0.144963141214248,12.9780159581524,-0.144963141214248
0.67,-0.131075821248579,-0.0823393448026689,0.61419180497544,0.294403939646501,-0.131071873884602,0.0823456282683001,0.614177691026908,-0.29443338265765,-1.57084426515748,-0.144963141214248,12.9780159581524,-0.144963141214248
0.68,0.0146084996690237,-0.00464105132025594,-0.143755747256771,-0.0557772798034009,0.0146087221366388,0.0046403510073695,-0.143753073220127,0.0557841711544433,-1.57084426515748,-0.144963141214248,12.9780159581524,-0.144963141214248
0.69,0.00542128012769183,0.0249042094266606,-0.0879036606082127,-0.174607908251319,0.00542008625444164,-0.0249044692853369,-0.087895290089995,0.17461212200824,-1.57084426515748,-0.144963141214248,12.9780159581524,-0.144963141214248
0.7,0.0246125164647644,0.0244958458841913,-0.203460436108136,-0.172504501776563,0.0246113421457422,-0.0244970257397824,-0.203452166291001,0.172514255138501,-1.57084426515748,-0.144963141214248,12.9780159581524,-0.144963141214248
0.71,-0.0242989823624946,-0.0241823200371289,0.0315053701968509,0.061651044589528,-0.0242978230737484,0.0241834848627689,0.0315024147105217,-0.0616525548345475,-1.57084426515748,-0.144963141214248,12.9780159581524,-0.144963141214248
0.72,-0.0919934901955089,-0.0630315493306036,0.379927397609493,0.178378365778012,-0.0919904684605395,0.0630359592754643,0.379918846006168,-0.178396578670383,-1.57084426515748,-0.144963141214248,12.9780159581524,-0.144963141214248
0.73,-0.0339529543955646,-0.0437235887540002,0.0894589528164431,0.061651044589528,-0.0339508583193008,0.0437252163527979,0.0894559972635228,-0.0616553330344031,-1.57084426515748,-0.144963141214248,12.9780159581524,-0.144963141214248
0.74,0.0536328421380969,0.063345157714489,-0.319367997735609,-0.405959540935625,0.0536298054133331,-0.0633477287123345,-0.319348536332981,0.405974850448027,-1.57084426515748,-0.144963141214248,12.9780159581524,-0.144963141214248
0.75,0.00542115631031764,0.0249041103727613,-0.0879030659795644,-0.1746073130119,0.00541996244181606,-0.0249043702255021,-0.0878946954898822,0.174611526740316,-1.57084426515748,-0.144963141214248,12.9780159581524,-0.144963141214248
0.76,0.0827698631643593,0.111906834659231,-0.435625949129291,-0.639414877767766,0.0827644984388396,-0.111910802382355,-0.435595296126498,0.639435760227743,-1.57084426515748,-0.144963141214248,12.9780159581524,-0.144963141214248
0.77,-0.0239490944403457,0.0244959325574635,0.0297549824991319,-0.172504849004005,-0.0239502687077235,-0.0244947844489442,0.0297632520649381,0.17250342240065,-1.57084426515748,-0.144963141214248,12.9780159581524,-0.144963141214248
0.78,0.0049546762234399,0.0243793403971513,-0.0858028088491742,-0.171804193027148,0.00495350751208768,-0.0243795778882036,-0.0857945727388874,0.171808306075898,-1.57084426515748,-0.144963141214248,12.9780159581524,-0.144963141214248
0.79,-0.043490396178144,-0.0240657237492009,0.147062963344348,0.0609503886126718,-0.0434892424567812,0.0240678085799284,0.147060041313538,-0.060957438500294,-1.57084426515748,-0.144963141214248,12.9780159581524,-0.144963141214248
0.8,0.0146670413312227,-0.00475763935295224,-0.0854529642214316,-0.0550766734342774,0.0146672693878099,0.0047569362335404,-0.0854503238377025,0.0550807698461731,-1.57084426515748,-0.144963141214248,12.9780159581524,-0.144963141214248
0.81,0.00518787292691193,0.0244959820888541,-0.0868527144086314,-0.172505047434935,0.00518669862368006,-0.0244962307588405,-0.0868444446993255,0.172509210813633,-1.57084426515748,-0.144963141214248,12.9780159581524,-0.144963141214248
0.82,-0.0337780971122155,-0.00464105132025594,0.147413080534659,-0.0557772798034009,-0.0337778745890021,0.00464267058158932,0.147415754236737,0.0557702129976087,-1.57084426515748,-0.144963141214248,12.9780159581524,-0.144963141214248
0.83,-0.00458276968675547,-0.00446620641975452,0.0304551673229233,-0.0564777373493261,-0.00458255557886702,0.00446642610509745,0.0304578747381789,0.0564762773135776,-1.57084426515748,-0.144963141214248,12.9780159581524,-0.144963141214248
0.84,-0.0248233726018474,-0.0245319850724299,0.0926075544660671,0.0637522684040666,-0.0248221965501294,0.0245331750360775,0.0926044981802999,-0.0637567077853349,-1.57084426515748,-0.144963141214248,12.9780159581524,-0.144963141214248
0.85,-0.111651842236909,-0.0434904952409297,0.497587626482729,0.177678652321563,-0.111649757245487,0.0434958475974516,0.497579108287324,-0.177702505653449,-1.57084426515748,-0.144963141214248,12.9780159581524,-0.144963141214248
