t,iq,id,vq,vd,ia,ib,va,vb,theta_e,omega,omega_obs,r
0,0,0,0,0,0,0,0,0,0,-0.144963141214248,0,0
0.01,-0.0436649686248481,-0.024299560295433,0.147760967480604,-0.0550727540490338,-0.0436638036935436,0.0243016534946091,0.147763607408471,0.0550656705669207,-1.57084426515748,-0.144963141214248,85.9173649057966,-0.144963141214248
0.02,0.0146071371556685,-0.00464105132025594,-0.143749203833605,-0.0557772798034009,0.0146073596232852,0.00464035107268615,-0.143746529796969,0.0557841708407623,-1.57084426515748,-0.144963141214248,85.9173649057966,-0.144963141214248
0.03,0.0149588293638419,-0.00446521541857603,-0.145508563959498,-0.0564817074637047,0.0149590434017693,0.0044644983116597,-0.145505856151732,0.0564886828411003,-1.57084426515748,-0.144963141214248,85.9173649057966,-0.144963141214248
0.04,0.00583287767334721,-0.0237720648332812,-0.0896692467989418,-0.057186037029946,0.0058340172605079,0.0237717851873614,-0.0896665052909311,0.0571903355611008,-1.57084426515748,-0.144963141214248,85.9173649057966,-0.144963141214248
0.05,-0.16968696691824,-0.111590595015338,0.7880288944179,0.411118699503346,-0.16968161725286,0.111598729402458,0.788009185155146,-0.411156475845805,-1.57084426515748,-0.144963141214248,85.9173649057966,-0.144963141214248
0.06,0.043977721574568,0.0440949210232451,-0.261409206913407,-0.289929648070046,0.0439756076857243,-0.0440970291925397,-0.261395307860449,0.289942179266243,-1.57084426515748,-0.144963141214248,85.9173649057966,-0.144963141214248
0.07,-0.0434306105371205,-0.0238893418202493,0.146705851171455,0.0602425816451705,-0.0434294652712872,0.0238914237851538,0.146702963072163,-0.0602496144142331,-1.57084426515748,-0.144963141214248,85.9173649057966,-0.144963141214248
0.08,-0.0434306309419342,-0.0241823200371289,0.146705949164866,-0.0557772798034009,-0.0434294716312049,0.024184402002675,0.146708622867756,0.0557702468963287,-1.57084426515748,-0.144963141214248,85.9173649057966,-0.144963141214248
0.09,0.00518817051963012,-0.024065145074228,-0.0868545008820251,0.0609469112114134,0.00518932415731845,0.0240648963341767,-0.0868574224773525,-0.060942747478829,-1.57084426515748,-0.144963141214248,85.9173649057966,-0.144963141214248
0.1,0.00489524943622832,-0.0242994868381046,-0.0854477526315521,-0.0550731954723168,0.00489641430821368,0.0242992521399411,-0.0854451124145567,0.0550772916343814,-1.57084426515748,-0.144963141214248,82.8655093012931,-0.144963141214248
0.11,-0.0824546502705921,-0.04360643011495,0.380618594615184,0.060947009305476,-0.0824525597549911,0.0436103828057642,0.380615672478007,-0.0609652554676332,-1.57084426515748,-0.144963141214248,82.8655093012931,-0.144963141214248
0.12,0.0242608250851145,0.0243779755622392,-0.201700835972414,-0.171797631722286,0.0242596564170066,-0.0243791385584569,-0.201692600043493,0.171807300732688,-1.57084426515748,-0.144963141214248,82.8655093012931,-0.144963141214248
0.13,0.0246122805974512,0.0244951382822517,-0.20345902017739,-0.172501667006337,0.0246111063123505,-0.0244963181265366,-0.203450750496151,0.172511420300401,-1.57084426515748,-0.144963141214248,82.8655093012931,-0.144963141214248
0.14,-0.023948051730687,-0.0240651858839079,0.029750287895697,-0.0557772798034009,-0.0239468980575635,0.0240663338866426,0.0297529617329748,0.0557758535592228,-1.57084426515748,-0.144963141214248,87.7484782684987,-0.144963141214248
0.15,-0.0240651940458337,0.0244951627681081,0.0304534782829732,-0.172501765100721,-0.0240663682761756,-0.0244940090939647,0.0304617477001395,0.172500305012626,-1.57084426515748,-0.144963141214248,87.7210115677459,-0.144963141214248
0.16,-0.0628549450680763,-0.0436064709246302,0.263311497391989,0.177671788885307,-0.0628528545730399,0.0436094840376702,0.2633029797948,-0.177684411403184,-1.57084426515748,-0.144963141214248,85.9173649057966,-0.144963141214248
0.17,0.00483680886956764,0.0243780775864389,-0.0850967576480262,-0.171798122193238,0.00483564021888794,-0.0243783094271247,-0.0850885218295766,0.171802201395055,-1.57084426515748,-0.144963141214248,85.9173649057966,-0.144963141214248
0.18,0.0146660143855772,0.0438022652026054,-0.144102256679849,-0.289226544680234,0.0146639145598548,-0.0438029682169898,-0.144088391467307,0.289233452374127,-1.57084426515748,-0.144963141214248,85.9173649057966,-0.144963141214248
0.19,-0.00434831796127134,-0.00434831796127134,-0.0292547211690764,-0.0571845656183611,-0.00434810950503196,0.00434852640751792,-0.0292519798010217,0.0571859679760837,-1.57084426515748,-0.144963141214248,82.8655093012931,-0.144963141214248
0.2,-0.00458250872942163,-0.00475813650192458,-0.028200315312628,-0.0557772798034009,-0.00458228062688336,0.0047583561744222,-0.0281976414087624,0.0557786316162503,-1.57084426515748,-0.144963141214248,82.8655093012931,-0.144963141214248
0.21,-0.0334846463165931,-0.00434835877089877,0.0873504840804819,-0.0571843694302328,-0.0334844378249184,0.00434996396501783,0.0873532253051473,0.0571801819253494,-1.57084426515748,-0.144963141214248,82.8655093012931,-0.144963141214248
0.22,-0.00446544803352946,-0.0433138477516384,-0.028903040231206,0.0602440530567569,-0.00446337163346083,0.0433140617681357,-0.028905928199253,-0.060242667423112,-1.57084426515748,-0.144963141214248,82.8655093012931,-0.144963141214248
0.23,0.0149002173966153,-0.00464105132025594,-0.145156711533001,-0.0557772798034009,0.0149004398638952,0.0046403370228993,-0.145154037494748,0.0557842383143767,-1.57084426515748,-0.144963141214248,82.8655093012931,-0.144963141214248
0.24,-0.160268885904426,-0.0826890736626091,0.731489988367608,0.295804295756145,-0.160264921741477,0.0826967565955562,0.731475807153516,-0.295839361848528,-1.57084426515748,-0.144963141214248,85.9173649057966,-0.144963141214248
0.25,-0.179342026140015,-0.0823379487349092,0.845987533538926,0.294397647658754,-0.179338078787504,0.0823465460033717,0.845973419625678,-0.294438202577587,-1.57084426515748,-0.144963141214248,85.9173649057966,-0.144963141214248
0.26,0.014666144994049,-0.00475808752153909,-0.144102844719842,-0.0550739802782207,0.0146663730721217,0.00475738444509568,-0.144100204397827,0.0550808882693553,-1.57084426515748,-0.144963141214248,85.9173649057966,-0.144963141214248
0.27,0.00548066715625344,0.0250219358731247,-0.0882591176424822,-0.175315355630775,0.00547946763932194,-0.0250221985785826,-0.0882507132099871,0.175319586426911,-1.57084426515748,-0.144963141214248,85.9173649057966,-0.144963141214248
0.28,0.0149002173966153,-0.00464105132025594,-0.145156711533001,-0.0557772798034009,0.0149004398638952,0.0046403370228993,-0.145154037494748,0.0557842383143767,-1.57084426515748,-0.144963141214248,85.9173649057966,-0.144963141214248
0.29,-0.0824550910412234,-0.0433140477497277,0.322318539952583,0.0602447398213636,-0.0824530145419537,0.0433180004620078,0.322315651548045,-0.0602601911751697,-1.57084426515748,-0.144963141214248,82.8655093012931,-0.144963141214248
0.3,-0.169630301654642,-0.111474509718353,0.787686890755836,0.411123604420104,-0.169624957554266,0.111482641389167,0.787667181258342,-0.411161364367462,-1.57084426515748,-0.144963141214248,82.8655093012931,-0.144963141214248
0.31,-0.0337189636122526,-0.00475804671191192,0.0884054534785717,-0.0550742255133796,-0.0337187354805397,0.0047596631383477,0.0884080935451807,0.0550699874374153,-1.57084426515748,-0.144963141214248,82.8655093012931,-0.144963141214248
0.32,0.0435101970935376,0.043568690708403,-0.259304266179278,-0.287821907617292,0.0435081084318508,-0.0435707764659443,-0.259290468170364,0.287834337908499,-1.57084426515748,-0.144963141214248,82.8655093012931,-0.144963141214248
0.33,0.0250217889584675,0.0251972575601758,-0.205215097417377,-0.176017428980168,0.0250205810144478,-0.0251984570348142,-0.205206659194248,0.17602726645366,-1.57084426515748,-0.144963141214248,82.8655093012931,-0.144963141214248
0.34,-0.0247086891135904,-0.0245332327547699,0.0336137803362936,0.0630568588873877,-0.0247075130021923,0.0245344172206774,0.0336107574551063,-0.0630584702045216,-1.57084426515748,-0.144963141214248,82.8655093012931,-0.144963141214248
0.35,0.0240860380352754,0.0241445194072529,-0.201002079999966,-0.171097029890628,0.0240848805588742,-0.024145674024734,-0.200993877657553,0.171106665404618,-1.57084426515748,-0.144963141214248,85.8715870703968,-0.144963141214248
0.36,0.0144323990685001,-0.00487496048431355,-0.142699403853639,-0.0550744707485384,0.0144326327495398,0.00487426861313276,-0.142696763509725,0.0550813114610153,-1.57084426515748,-0.144963141214248,85.9173649057966,-0.144963141214248
0.37,0.0150756370267707,-0.00434868526999699,-0.145858750444687,-0.0571827998190648,0.0150758454782993,0.00434796256364646,-0.145856009027299,0.0571897919830215,-1.57084426515748,-0.144963141214248,85.9173649057966,-0.144963141214248
0.38,0.0246708517550509,0.0246708517550509,-0.203810627620364,-0.173205604196326,0.0246696690464668,-0.0246720344069393,-0.203802324193124,0.173215374345067,-1.57084426515748,-0.144963141214248,82.8655093012931,-0.144963141214248
0.39,0.0153094727335013,-0.00393947074273707,-0.146911563828697,-0.059290589372256,0.0153096615676868,0.00393873682715585,-0.146908721366119,0.0592976320039405,-1.57084426515748,-0.144963141214248,82.8655093012931,-0.144963141214248
0.4,0.0146663735280658,-0.0044656684188438,-0.144103873651119,-0.0564798926698219,0.0146665875880452,0.00446496533178084,-0.144101165931965,0.0564868007086663,-1.57084426515748,-0.144963141214248,82.8655093012931,-0.144963141214248
0.41,0.0148417605104405,-0.0047579650926055,-0.144805790070726,-0.0557772798034009,0.0148419885824424,0.00475725359744192,-0.144803116032875,0.0557842214917764,-1.57084426515748,-0.144963141214248,82.8655093012931,-0.144963141214248
0.42,-0.0241823200371289,-0.0241823200371289,0.0308050367290811,0.061651044589528,-0.0241811607485168,0.024183479270168,0.0308020812435567,-0.0616525212617078,-1.57084426515748,-0.144963141214248,82.8655093012931,-0.144963141214248
0.43,0.00518803176242869,-0.0240654225886309,-0.0868536679112117,0.0609485788642048,0.00518918541342077,0.0240651738552311,-0.0868565895864846,-0.0609444151715497,-1.57084426515748,-0.144963141214248,82.8655093012931,-0.144963141214248
0.44,0.00524647232475249,0.0246708517550509,-0.0872044913800768,-0.173205604196326,0.00524528963848783,-0.0246711032339955,-0.0871961880868227,0.173209784437831,-1.57084426515748,-0.144963141214248,82.8655093012931,-0.144963141214248
0.45,-0.00446572963328453,-0.00446572963328453,-0.0289013497648761,-0.0564796474346632,-0.00446551554838693,0.0044659437079195,-0.0288986421898509,0.0564810328531493,-1.57084426515748,-0.144963141214248,82.8655093012931,-0.144963141214248
0.46,0.00495427359409608,-0.023890137630323,-0.0858011975046166,0.0602464074210642,0.00495541884248287,0.0238899001031084,-0.0858040855201495,-0.0602422941829239,-1.57084426515748,-0.144963141214248,82.8655093012931,-0.144963141214248
0.47,-0.0725096002257197,-0.0626221010664869,0.262965279773396,0.176270290833651,-0.0725065981414175,0.0626255769860365,0.262956829362126,-0.176282896756033,-1.57084426515748,-0.144963141214248,82.8655093012931,-0.144963141214248
0.48,0.0149002173966153,-0.00464105132025594,-0.145156711533001,-0.0557772798034009,0.0149004398638952,0.0046403370228993,-0.145154037494748,0.0557842383143767,-1.57084426515748,-0.144963141214248,82.8655093012931,-0.144963141214248
0.49,-0.0239486230832376,-0.0240654715601833,0.0297528603027179,-0.0557772798034009,-0.0239474693964186,0.0240666195903073,0.0297555341399927,0.0557758534359058,-1.57084426515748,-0.144963141214248,82.8655093012931,-0.144963141214248
0.5,0.0245540114400305,0.0243787509674998,-0.203109225666158,-0.172503481800223,0.024552842734414,-0.0243799280185904,-0.203100955898323,0.172513218325709,-1.57084426515748,-0.144963141214248,82.8655093012931,-0.144963141214248
0.51,0.00518799911031069,0.0244956035386579,-0.0868534718978804,-0.172503530900334,0.00518682482522575,-0.0244958522146937,-0.0868452022612739,0.172507694315346,-1.57084426515748,-0.144963141214248,80.7292103781401,-0.144963141214248
0.52,0.0246708517550509,0.0246708517550509,-0.203810627620364,-0.173205604196326,0.0246696690464668,-0.0246720344069393,-0.203802324193124,0.173215374345067,-1.57084426515748,-0.144963141214248,82.8655093012931,-0.144963141214248
0.53,0.0244956280244335,0.0244956280244335,-0.202758745253762,-0.172503628994395,0.0244944537159895,-0.0244968022765845,-0.202750475479273,0.172513348718424,-1.57084426515748,-0.144963141214248,82.8655093012931,-0.144963141214248
0.54,0.00489596772120691,0.0242620249503486,-0.0854509865740973,-0.171801751886525,0.00489480463383258,-0.0242622596271462,-0.085442750581239,0.171805848069493,-1.57084426515748,-0.144963141214248,82.8655093012931,-0.144963141214248
0.55,0.00495438379333793,-0.023890321295726,-0.0858016385279829,0.0602472903737873,0.00495552905052921,0.0238900837632284,-0.0858045265858427,-0.0602431771145041,-1.57084426515748,-0.144963141214248,82.8655093012931,-0.144963141214248
0.56,0.0050711873708617,-0.024065528702493,-0.0861522414851648,-0.0557772798034009,0.00507234102707497,0.0240652855704218,-0.08614956751471,0.0557814097366985,-1.57084426515748,-0.144963141214248,85.8715870716529,-0.144963141214248
0.57,0.0440953372992114,0.0440953372992114,-0.262114014245599,-0.289932149575446,0.0440932233902771,-0.0440974511068109,-0.262100115071913,0.289944714558949,-1.57084426515748,-0.144963141214248,85.9173649057966,-0.144963141214248
0.58,0.0535156547872244,0.0632279016402683,-0.31901543001248,-0.40525533311512,0.0535126236836595,-0.0632304670204789,-0.318996002368827,0.405270625726812,-1.57084426515748,-0.144963141214248,85.9173649057966,-0.144963141214248
0.59,0.0828275905102321,0.11208111016111,-0.436323409177315,-0.640112178089096,0.0828222174301639,-0.112085080651388,-0.436292722746285,0.640133093983365,-1.57084426515748,-0.144963141214248,82.8655093012931,-0.144963141214248
0.6,-0.0240071820067296,-0.0238904233197967,0.0301041247949526,0.0602477808441181,-0.0240060367113693,0.0238915741573408,0.0301012365803998,-0.0602492239173399,-1.57084426515748,-0.144963141214248,82.8655093012931,-0.144963141214248
0.61,-0.00475780184526364,-0.00475780184526364,-0.0274984478895686,-0.0557772798034009,-0.00475757375856684,0.00475802992102659,-0.0274957739865095,0.0557785979698753,-1.57084426515748,-0.144963141214248,82.8655093012931,-0.144963141214248
0.62,0.0439786357457572,0.0438035222011335,-0.261413322796644,-0.288529327253323,0.0439765358260949,-0.0438056304145869,-0.261399490872768,0.288541858648438,-1.57084426515748,-0.144963141214248,82.8655093012931,-0.144963141214248
0.63,0.00547978564165143,0.0250210543585227,-0.0882547078056862,-0.175310058391167,0.0054785861669793,-0.0250213170217233,-0.0882463036271371,0.175314288975909,-1.57084426515748,-0.144963141214248,82.8655093012931,-0.144963141214248
0.64,0.0246708517550509,0.0246708517550509,-0.203810627620364,-0.173205604196326,0.0246696690464668,-0.0246720344069393,-0.203802324193124,0.173215374345067,-1.57084426515748,-0.144963141214248,82.8655093012931,-0.144963141214248
0.65,0.0149585763352687,-0.00446597450429572,-0.145507045008306,-0.0564786664409535,0.0149587904095856,0.00446525740950829,-0.145504337346323,0.0564856417455365,-1.57084426515748,-0.144963141214248,82.8655093012931,-0.144963141214248
0.66,-0.00446598674718354,-0.00446598674718354,-0.0288998062891401,-0.056478617393923,-0.00446577264996003,0.00446620083414383,-0.0288970987634952,0.0564800027384186,-1.57084426515748,-0.144963141214248,85.9173649057966,-0.144963141214248
0.67,0.0246125009783492,0.0247875533084542,-0.203460343141922,-0.173906892739499,0.0246113126753508,-0.0247887331629678,-0.20345200609646,0.17391664609537,-1.57084426515748,-0.144963141214248,85.9173649057966,-0.144963141214248
0.68,0.00495454295096252,0.0246708517550509,-0.0858022754854628,-0.173205604196326,0.00495336026503329,-0.0246710892393794,-0.0857939721938199,0.173209717217897,-1.57084426515748,-0.144963141214248,85.9173649057966,-0.144963141214248
0.69,-0.00446602347592661,-0.00446602347592661,-0.0288995858034956,-0.0564784702525127,-0.00446580937694234,0.00446623756464757,-0.0288968782849046,0.0564798555864388,-1.57084426515748,-0.144963141214248,85.9173649057966,-0.144963141214248
0.7,-0.130784219972713,-0.0823394179172319,0.612791454818675,0.294404269169141,-0.130780272605567,0.0823456874039753,0.612777340855955,-0.294433645049796,-1.57084426515748,-0.144963141214248,85.9173649057966,-0.144963141214248
0.71,-0.0239489822257284,0.0244958483965005,0.0297544772739971,-0.172504511841288,-0.0239501564890717,-0.0244947002933607,0.0297627468236408,0.172503085262153,-1.57084426515748,-0.144963141214248,85.871587071375,-0.144963141214248
0.72,-0.0627398841238836,-0.0433152761507874,0.204315651084434,0.0602489579735129,-0.06273780758838,0.0433182837483288,0.204312762613275,-0.0602587524620438,-1.57084426515748,-0.144963141214248,82.8655093012931,-0.144963141214248
0.73,0.0533994919211084,0.063228452570469,-0.318317359888493,-0.405258275938275,0.0533964607912663,-0.0632310123820213,-0.318297932104568,0.405273535085625,-1.57084426515748,-0.144963141214248,82.8655093012931,-0.144963141214248
0.74,0.0145502841368413,-0.0047576957401806,-0.143406146583139,-0.0557772798034009,0.0145505121962658,0.00475699821791741,-0.143403472546897,0.0557841543951594,-1.57084426515748,-0.144963141214248,82.8655093012931,-0.144963141214248
0.75,0.0247874880130503,0.0247874880130503,-0.262464543707726,-0.173906500363242,0.024786299712981,-0.0247886762561559,-0.262456206613275,0.173919082283873,-1.57084426515748,-0.144963141214248,87.7210115679125,-0.144963141214248
0.76,0.0437456080876252,0.0439205502317366,-0.260364159748113,-0.289232234349483,0.0437435025580986,-0.0439226472740911,-0.260350294129227,0.289244715448632,-1.57084426515748,-0.144963141214248,85.9173649057966,-0.144963141214248
0.77,-0.034186194246196,-0.00475767124557165,0.0908591106900566,-0.0550764817836271,-0.0341859661319454,0.0047593100702794,0.0908617508620082,0.0550721260833511,-1.57084426515748,-0.144963141214248,85.9173649057966,-0.144963141214248
0.78,-0.0045827454385607,-0.00475766308364643,-0.0281988943283325,-0.0550765308306575,-0.00458251735871706,0.00475788276749205,-0.0281962540172269,0.0550778825761925,-1.57084426515748,-0.144963141214248,85.9173649057966,-0.144963141214248
0.79,-0.062856744865743,-0.0436069851525349,0.205016832632669,0.0609503446638151,-0.0628546543460532,0.0436099983518537,0.205013910537375,-0.0609601727650354,-1.57084426515748,-0.144963141214248,85.9173649057966,-0.144963141214248
0.8,-0.0437235887540002,-0.0630316665917913,0.148112868903805,0.177678067225092,-0.0437205670688737,0.0630337625566156,0.14810435113801,-0.177685167309342,-1.57084426515748,-0.144963141214248,85.9173649057966,-0.144963141214248
0.81,0.00518787667698709,-0.0240657327595141,-0.0868527369206389,-0.0557772798034009,0.00518903034284843,0.0240654840335485,-0.0868500629493792,0.0557814433173027,-1.57084426515748,-0.144963141214248,82.8655093012931,-0.144963141214248
0.82,0.0240879561766028,0.0243794039658269,-0.201011291807211,-0.172505051411705,0.0240867874402183,-0.0243805586749905,-0.201003021966541,0.172514687365675,-1.57084426515748,-0.144963141214248,82.8655093012931,-0.144963141214248
0.83,-0.0239491781296001,0.0244959953244043,0.0297553592942044,-0.172505100458735,-0.0239503523999868,-0.024494847211873,0.0297636288720644,0.172503673837317,-1.57084426515748,-0.144963141214248,82.8655093012931,-0.144963141214248
0.84,0.0144339662292672,-0.00464105132025594,-0.143057503653398,-0.172505149505779,0.0144341886970829,0.00464035937421681,-0.143049233874618,0.172512007250041,-1.57084426515748,-0.144963141214248,85.9173649057966,-0.144963141214248
0.85,0.0247874063849627,0.0247874063849627,-0.204160471101945,-0.173906009839843,0.0247862180888065,-0.0247885946241552,-0.204152134098004,0.173915796758703,-1.57084426515748,-0.144963141214248,85.9448316070366,-0.144963141214248
