t,iq,id,vq,vd,ia,ib,va,vb,theta_e,omega,omega_obs,r
0,0,0,0,0,0,0,0,0,0,-0.144963141214248,0,0
0.01,0.111785882868864,-0.0240650803068278,-0.610517142009726,0.0609465220080615,0.0765535656378923,-0.0849397626972802,-0.356980084858849,0.499009897944691,-2.62011914539939,-0.144963141214248,362.720668234303,-0.144963141214248
0.02,-0.0143530701896968,0.0244950052880666,-0.0282007529262393,-0.172501134209668,-0.0283893797074591,0.000242956289235747,0.135524892238727,0.110385358417274,-2.62011914539939,-0.144963141214248,362.720668234303,-0.144963141214248
0.03,0.0149588285094543,-0.024065097811451,-0.145508558830539,0.0609466271976782,0.0283183764753925,-0.000982362890126973,-0.12533227375185,0.0958073755819692,-2.62011914539939,-0.144963141214248,362.720668234303,-0.144963141214248
0.04,0.0149002173966153,-0.0241823200371289,-0.145156711533001,0.061651044589528,0.0283908206211671,-0.000873146781039884,-0.125767788602959,0.0951513822914637,-2.62011914539939,-0.144963141214248,362.720668234303,-0.144963141214248
0.05,0.0635189797466835,-0.024065115316074,-0.320063075524997,-0.0557772798034009,0.0525090358202714,-0.0430881853929936,-0.11107838637383,0.305308154718103,-2.62011914539939,-0.144963141214248,362.720668234303,-0.144963141214248
0.06,-0.0435477948008853,0.0632260073294487,0.147057563444978,-0.405245214552485,-0.0765160879265415,0.0062631240815809,0.424640436073964,0.0743647156585445,-2.62011914539939,-0.144963141214248,362.720668234303,-0.144963141214248
0.07,0.0343828925052706,-0.0240651328206971,-0.26211280149187,0.0609468375769104,0.0379946662421829,-0.0178246809747584,-0.183419831736982,0.196913186562301,-2.62011914539939,-0.144963141214248,362.720668234303,-0.144963141214248
0.08,0.0150173958607355,-0.0241823200371289,-0.145860143423871,0.061651044589528,0.0284491940499421,-0.000974750596256711,-0.126118209063648,0.0957613182928798,-2.62011914539939,-0.144963141214248,362.720668234303,-0.144963141214248
0.09,-0.00487539074387303,-0.00475822103206449,-0.0850960367455868,-0.055073177980401,0.00169707068323375,0.00659773092748805,0.00536188593727536,0.101220751735318,-2.62011914539939,-0.144963141214248,362.720668234303,-0.144963141214248
0.1,-0.0630305355518771,0.0244951103158052,0.26401404746015,-0.172501554968134,-0.0526385559517621,0.0424504566365677,0.281094495971835,-0.142989818018817,-2.62011914539939,-0.144963141214248,362.720668234303,-0.144963141214248
0.11,0.0341486055955228,-0.0241823200371289,-0.202404079083671,0.061651044589528,0.0379795656691531,-0.017563156267573,-0.154286041998476,0.14478977786133,-2.62011914539939,-0.144963141214248,362.720668234303,-0.144963141214248
0.12,0.0150173608514891,-0.0241823200371289,-0.0872060171731474,0.061651044589528,0.0284491766097942,-0.000974720240226478,-0.0968991670940718,0.0449031418350476,-2.62011914539939,-0.144963141214248,362.720668234303,-0.144963141214248
0.13,-0.227608621025842,0.131210752077343,1.07813749606162,-0.755419986054593,-0.227156148840277,0.131992537175559,1.19209733681904,-0.558519252393038,-2.62011914539939,-0.144963141214248,362.720668234303,-0.144963141214248
0.14,0.015310158222494,-0.0241823200371289,-0.0889637037060275,0.061651044589528,0.0285950360611037,-0.00122860076514129,-0.0977747732936092,0.0464272073622477,-2.62011914539939,-0.144963141214248,362.720668234303,-0.144963141214248
0.15,-0.0244165544330072,-0.00446537552334727,0.0905135489739142,-0.0564810660575508,-0.00829144518042492,0.0233957185349055,0.0940640252107992,-0.050346524527446,-2.62011914539939,-0.144963141214248,362.720668234303,-0.144963141214248
0.16,-0.0239481031458735,-0.00475815976588367,0.0884044354702322,-0.0550735461440581,-0.00780421312503141,0.0231353838555179,0.0917929118104975,-0.0492189093442996,-2.62011914539939,-0.144963141214248,362.720668234303,-0.144963141214248
0.17,0.0440364709319476,-0.00475815101357228,-0.319712541748487,-0.0550735987388653,0.0260628616251019,-0.0358130984015488,-0.111513917107224,0.304653667170987,-2.62011914539939,-0.144963141214248,362.720668234303,-0.144963141214248
0.18,1.01203183119158,-0.00475814226126035,1.6706545144866,-0.172501975726601,0.508277812569078,-0.875148405993379,0.9818245360967,-1.3626679781673,-2.62011914539939,-0.144963141214248,401.875975640072,247.970897504955
0.19,1.01197325071183,-0.00464105132025594,1.9056217896998,-0.290633928589255,0.508147102289586,-0.875155941503183,1.20130601511318,-1.50755641482459,-2.62011914539939,-0.144963141214248,320.910246452599,247.970897504955
0.2,1.07890423825686,-0.02353841613703,1.67768289628025,-0.294151544989808,0.557874973711881,-0.923776989358813,1.09080643133268,-1.30816144311566,-2.62011914539939,-0.144963141214248,404.717253207822,247.970897504955
0.21,1.17508881534297,-0.0238896583269547,0.975241059436301,-0.528304460116309,0.606094679856503,-1.00700232311984,0.943909907813093,-0.582438677048066,-2.62011914539939,53.872881058075,342.132850326302,247.970897504955
0.22,0.82586286914678,-0.0633233854367506,2.08404344794628,0.179079368982457,0.447968488193417,0.696694741880709,1.40062737481477,1.55356025639254,-0.647957919101009,53.8728810585053,268.801337933442,247.970897504955
0.23,0.708849351204445,-0.0242993672165758,2.3172537984688,-0.172502238700641,-0.155127160339014,0.692093509632363,-0.598573748357353,2.24524645788658,0.186230950966381,80.7292103781401,265.944801087663,247.970897504955
0.24,0.600962721262055,-0.0240067623964265,1.90878423838076,-0.173908917097201,-0.579490937393985,0.16100549824678,-1.87046335378067,0.418411785565736,1.25986618953962,129.864085610653,367.757755909541,247.970897504955
0.25,0.522973204035273,0.00530512755041505,2.20099993196146,-0.173908864502394,-0.380726478700031,-0.358575605603505,-1.46635213109276,-1.6505927484654,2.33638540000626,140.850765786868,383.89749427388,247.970897504955
0.26,0.582065093875935,-0.0537867754187163,2.02222823907645,0.0630574600120494,0.189328602798281,-0.553034782704664,0.414873071678579,-1.98021807601522,-2.90389891162253,140.850765786868,268.874582468104,247.970897504955
0.27,0.337331151224994,0.0147832052264145,2.1423460158741,-0.172502449079873,0.336952040002426,0.0217754789097631,2.11113656299342,0.403120278654545,-1.46246521502733,187.849342096228,174.877429849291,247.970897504955
0.28,0.347218789001319,0.111904540473635,2.5525722379486,-0.756831713552735,0.18392663407133,0.315046832857194,-0.190438628195401,2.65558889918529,-0.216650718327254,171.979692952807,90.8781561908744,247.970897504955
0.29,0.200717762205259,-0.0244163093682828,2.55186993568582,-0.0543711799497359,-0.19972001342089,0.0315545950221876,-2.4689777671061,0.647414225517214,1.29304720659121,205.855290162801,67.8198611711923,247.970897504955
0.3,0.357106391768396,0.112021631414644,2.49321609840972,-0.640106912439937,-0.283169976630335,-0.244721444262282,-0.767626375266099,-2.45695199804933,2.58745969773782,176.862661920014,129.745063242063,247.970897504955
0.31,0.161108801290289,-0.0340114429760416,1.96743760278929,-0.0543713903289648,0.163222713911612,-0.0217064453523476,1.8727830375733,-0.605351685496398,-1.9110609068799,244.919041900452,200.848721043672,247.970897504955
0.32,0.2887119162501,0.0343830019091651,2.66952908974967,-0.0564801719458117,0.197419645659778,0.213453144536823,1.52241547451064,2.19358763075772,-0.627862157504057,179.914517524518,250.676367498392,247.970897504955
0.33,0.210371384393495,-0.0338944745673989,2.3186588233211,0.0609482050419244,-0.199338694160335,0.075293026159718,-1.98081641065438,1.20675588664192,1.04990383155853,213.790114734576,271.775371220086,247.970897504955
0.34,0.464524824240687,-0.0337775280395346,2.84549094309343,-0.0571828537089936,-0.263320560762697,-0.38416990514084,-1.73002963443822,-2.25988629137632,2.46812769052526,148.785590358578,248.044142039433,247.970897504955
0.35,0.29854096917053,-0.0533188098848679,2.9620968145208,-0.290633928589255,0.300280295509368,-0.0424423124914834,2.90501051844052,-0.647610613556776,-1.88794311090298,184.797486491724,223.861238229374,247.970897504955
0.36,0.288770312931313,-0.0243577201362281,2.84478908742776,-0.407359571218988,0.0775190171326754,0.27923537409051,0.606702753812043,2.80903516188899,-0.354943306711656,192.732311063556,223.861238229374,247.970897504955
0.37,0.133024764551003,-0.091933674987194,3.36951585036647,0.175566223140516,-0.125818303870775,-0.101573337995668,-3.37324084639337,-0.0755430791143364,1.64524460388885,208.907145767305,239.703420672363,247.970897504955
0.38,0.288185689695873,-0.0434897569644468,2.37836539155485,-0.0571824329505626,0.161208287280506,-0.24280493985584,1.05697120816951,-2.1313619194038,-2.70525767734675,218.978269262167,257.709368738952,247.970897504955
0.39,0.151689098414716,-0.0242992271795942,2.78788999439748,-0.289931404610481,0.0907214322488478,0.123974419740979,1.77756951485913,2.16717268810873,-0.790576465325591,226.913093833879,268.723515615582,247.970897504955
0.4,0.151572200024562,-0.00469950051533288,2.61157734457299,-0.17250313281236,-0.141693562595937,0.0540291721595901,-2.47661528602494,0.846445676074115,1.17551001166818,237.899774010075,276.990992448176,247.970897504955
0.41,0.132147829697843,-0.0141779064030066,2.61087564652985,-0.174610441774645,0.00571200803256979,-0.132783413452352,0.00756295307400631,-2.61669701145551,3.07770423900883,242.782742977299,271.807415703906,247.970897504955
0.42,0.102660605294241,0.0245539708695209,2.43631724181319,-0.407359886787838,0.10457035038382,0.014392330785746,2.12219395782165,1.26407143212135,-1.19925675895835,247.97089750499,271.729593385998,247.970897504955
0.43,-0.0527929903131241,-0.00475792345347457,2.96034367277064,-0.172503290596788,0.0372256479685305,-0.0377357760634888,-2.37119716809261,1.78067853252896,0.868474386989044,255.905722076705,271.775371220086,247.970897504955
0.44,0.0925978387404713,-0.0911159682848379,2.20310455322328,0.406913407721001,0.0628040963331439,-0.113719500964729,-0.98533789742758,-2.01205303650506,2.86884638090217,257.736835439367,268.723515615582,247.970897504955
0.45,-0.111358474177177,-0.121129108535612,2.90133948561096,0.527853300111621,-0.126013344752295,0.105799847117282,2.94513358848589,-0.150293257254608,-1.44181720349644,263.840546648375,265.976845571528,247.970897504955
0.46,0.034558331989771,0.0051880059763219,2.20064921429199,-0.0564794356185174,-0.0103977594934448,0.0333628582924494,-1.01026788715972,1.95586443476678,0.451126837400225,263.840546648375,263.872591132219,247.970897504955
0.47,0.0342662304275269,-0.072918654705334,2.02573956649746,0.413233914548002,0.0416093657089805,-0.0689925027596797,-1.46867319473811,-1.45512271182321,2.55279067391919,268.723515615582,263.840546648375,247.970897504955
0.48,0.0342662435559956,0.00495434048068879,1.96778692812649,-0.0550752291779053,0.0297630479384715,-0.0176884684031618,1.8391185362618,-0.702041084946409,-1.96343260924034,263.840546648375,255.859944242571,247.970897504955
0.49,0.0342662566844627,-0.0142948660593424,2.08439337750313,0.0609490465588396,-0.0120632968654988,0.0351140486351955,0.194770615932934,2.07616833268029,-0.0643064371048024,263.840546648375,252.853866472162,247.970897504955
0.5,-0.0336025217944512,-0.130724811043618,2.37520861728464,0.643879048503001,0.0704772429337606,-0.115113265620397,-2.45959001783044,-0.0813212697464747,1.8685683422899,263.840546648375,252.853866472162,247.970897504955
0.51,0.0148418163392521,0.0246708517550509,2.31830776413618,-0.0557772798034009,-0.0157342687880089,-0.0241114749502073,1.06073503386832,-2.06215983428073,-2.69056169291697,257.736835439367,247.970897504955,247.970897504955
0.52,0.0151922008026528,-0.00464105132025594,2.25825160786106,0.061651044589528,0.00748241502734219,0.014012700951065,1.64281304651294,1.55069870378257,-0.786940819905476,257.736835439367,247.970897504955,247.970897504955
0.53,0.0150170020067189,-0.0240655354270253,2.31795723035966,0.178377581330997,-0.0254056525152,-0.0126179699213512,-1.88022903743159,1.36729040444859,1.01885511288201,255.905722076665,242.782742977299,247.970897504955
0.54,0.073524023547229,0.00524635889597191,2.1423460158741,0.0609493095328758,-0.0317384489016338,-0.0665280180191564,-0.839227626263757,-1.97206953766338,2.76769260077644,252.853866472162,237.927240710553,247.970897504955
0.55,0.0542162890424236,-0.0238904022720466,2.25860240433681,0.177676004052132,0.0534501284830125,0.0255585814043208,2.2630227400911,-0.107618126366002,-1.53981088675533,252.853866472162,242.736965143226,247.970897504955
0.56,0.0543914090683831,-0.0147035815629954,2.25860248314807,0.0630543043302386,-0.0194946577971403,0.052863777850209,-0.138577995623222,2.25522884898767,0.089280406478068,247.970897504955,239.730887372794,247.970897504955
0.57,0.0832946579056646,-0.0532607239096155,2.31795733543968,0.177676214431361,-0.0623557483316116,-0.0767233041324648,-2.25649592209752,-0.559214806358477,1.89022881203592,247.970897504955,242.782742977299,247.970897504955
0.58,0.10336126044347,0.00518795346272797,2.25720103106633,-0.0557772798034009,0.0475934359578925,-0.0918984759140017,1.18539063974979,-1.92169628994354,-2.61358418781246,244.919041900452,237.899774010092,247.970897504955
0.59,0.102544096380573,0.00472102069943149,2.26105535267142,-0.0543743356315597,0.0819343910427412,0.0618412103973381,1.70543580417025,1.48553579360231,-0.878246142817368,242.782742977299,244.919041900452,247.970897504955
0.6,0.12231883366717,-0.0145284090231654,2.26000419793405,0.061651044589528,-0.110476764047096,0.0544780354282672,-1.8613224470018,1.2833154617107,0.994448733724295,242.782742977311,244.919041900452,247.970897504955
0.61,0.0835864443860706,0.141043104615062,2.49251789432421,-0.755437657886824,-0.161825855367656,-0.0263105222123694,-0.206905779380268,-2.59625143369031,2.76778464243387,242.782742977299,244.919041900452,247.970897504955
0.62,0.190421518328905,0.034383133193561,1.96813575433396,-0.173205604196326,0.182950787935935,-0.0630203434179175,1.97152918640434,-0.12896199427956,-1.72389419907725,242.782742977299,242.814787461135,247.970897504955
0.63,0.0836447491682835,-0.0144700342224614,2.43386424094105,-0.0550760180967092,-0.0341989677028388,0.0776933495344644,-0.639924800097551,2.34887734062915,0.24335813889603,244.919041900452,244.964819734476,247.970897504955
0.64,0.00559633637909263,-0.121188533610116,2.84374129529759,0.645286620994746,0.0387993590154526,-0.114946028202057,-2.88392177714928,-0.431572196856744,1.94247779218492,244.919041900423,247.970897504955,247.970897504955
0.65,0.161051354232942,-0.00446603194588067,2.08544319245238,-0.0571795928375553,0.0956278067568293,-0.129664207538105,1.23774382616154,-1.67938471934874,-2.53386077329927,244.919041900452,247.970897504955,247.970897504955
0.66,0.0928319506028893,0.0255458829845918,2.37801225701167,-0.178113331652216,0.0767005990906004,0.0582012138133108,1.30362979324308,1.99680144620815,-0.653142932396189,244.919041900452,244.919041900452,247.970897504955
0.67,0.0836446441405468,-0.0238906648413938,2.31690710016702,0.0602489419346025,-0.0866644801586527,0.00751386976151566,-2.1430389880944,0.882650747077198,1.20609852206912,244.919041900452,250.717567549009,247.970897504955
0.68,0.132147829697843,-0.0437235887540002,2.20099993196146,0.179079368982457,0.0310372646458182,-0.135688943214561,-0.3863154824409,-2.17421950798808,3.04693164529712,244.919041900518,250.717567549009,247.970897504955
0.69,0.0932402591246071,0.0146669282492727,2.31725742378183,-0.17180371192063,0.0943565853153016,0.00238736539503408,2.24828838238157,0.586854183890508,-1.38947618168896,247.970897504955,250.717567549009,247.970897504955
0.7,0.0539827548303577,0.00518790094885962,2.43596568349193,-0.0564781733464419,-0.0155633639049886,0.0519503016284852,-0.971399780107469,2.23461429835711,0.386881761402995,247.970897504955,248.012097555558,247.970897504955
0.71,0.0638117027233165,-0.130959535565643,2.37661161931294,0.645288461813065,0.0527360588226118,-0.135798532613117,-2.08820241726279,-1.30540823214049,2.39461708780401,250.717567549009,250.717567549009,247.970897504955
0.72,0.13173966558927,0.0343248677967516,2.08614234226801,-0.173205604196326,0.0844178001484678,-0.106804358791814,1.76887040669026,-1.11941392606305,-2.21785108714332,247.970897504955,244.919041900452,247.970897504955
0.73,0.0153083508720977,0.180068124974634,2.66813121044178,-0.990999460395183,0.173373269380353,-0.0509959282950254,0.04341120300156,2.84589521136865,-0.370881853499478,247.970897504955,244.964819734459,247.970897504955
0.74,0.0643946936554103,-0.0332533495228916,2.37346185923011,0.0581476287705324,-0.0656571376388084,-0.0306855357219701,-2.36931670503184,0.151791617715791,1.53131237384123,250.717567549009,244.919041900452,247.970897504955
0.75,0.0831780658458638,0.0148419213667149,2.20204979944822,-0.055076649234409,0.00427935954748506,-0.0843834127632792,0.549774039079927,-2.13302725310639,-2.91434563959413,247.970897504955,247.970897504955,247.970897504955
0.76,0.12179427880196,-0.0049908012427241,2.08684146581325,0.0630522005378973,0.105420884887467,0.0611979695372105,1.8755612013212,0.917143970993022,-1.08578473718257,247.970897504955,247.970897504955,247.970897504955
0.77,-0.023308010873294,0.00501300848300168,2.84164426617736,-0.0550767544240234,0.0182505372437208,-0.0153398668584769,-1.78573635494589,2.21113573871012,0.659984695511565,247.970897504955,244.919041900452,247.970897504955
0.78,0.0834112237085312,-0.0437818716554335,2.43491584227558,0.296507693375386,-0.0213991243879585,-0.0917407325108981,-1.81618315068992,-1.64869971017933,2.42907134776049,244.919041900452,244.919041900452,247.970897504955
0.79,-0.0145865212545244,-0.0442480954814986,2.78788894358231,0.0651531455383429,-0.00242744904968347,0.046527067897727,2.6724660166943,-0.796551996881627,-1.83710543615048,250.717567549009,244.919041900452,247.970897504955
0.8,0.0931235664132221,-0.0433156697101468,2.31830776413618,0.17697826619759,-0.023737779297017,0.0999237894497723,0.638810078719774,2.23557461948521,-0.202138817202019,244.919041900452,244.919041900452,247.970897504955
0.81,0.0435711529692938,-0.00545682814178297,2.49741769625588,-0.0515753898025097,-0.0429941998371804,-0.00892866870273197,-2.48526583483884,-0.251413803495586,1.65096652685252,247.970897504955,247.970897504955,247.970897504955
0.82,0.0928904960736686,0.00524611383180072,2.31900730800814,-0.173205604196326,0.0260139947768331,-0.0893277003336555,0.936220738630673,-2.12868170576957,-2.80179403438223,247.970897504955,242.782742977299,247.970897504955
0.83,0.121736324112204,0.0140263020867929,2.14584347252971,-0.0515760209401964,0.105546538045033,0.0622607265078875,1.68018234644168,1.33577377472391,-0.92313179046786,244.919041900452,250.717567549009,247.970897504955
0.84,0.102835926622536,-0.0142951723896955,2.31830776413618,0.0609508873738142,-0.0884160158858484,0.0544259854558472,-1.74932263210844,1.52254268535202,0.880884670300485,244.919041900528,247.970897504955,247.970897504955
0.85,0.102894178890878,-0.0436070842173155,2.31830776413618,0.17837926436155,-0.00623631704050136,-0.111579111814597,-1.18242825059033,-2.00205731271963,2.68490113106386,244.919041900452,250.717567549009,247.970897504955
0.86,0.0350822129275397,0.0150749610731753,2.60808067603003,-0.0571773838555995,0.031355397809915,-0.0217911712267368,2.56675770268641,-0.465949526886569,-1.77229276993983,247.970897504955,250.717567549009,247.970897504955
0.87,0.0835276319697884,-0.0145864162267844,2.31690920180068,-0.0543772809408166,-0.0323701026762657,0.0783696707505489,-0.556016248103203,2.24986023341816,0.218813697259436,250.717567549009,250.676367498439,247.970897504955
0.88,0.0831781796259141,-0.0242987983168795,2.31900699276309,0.0623509914260129,-0.068999107122955,-0.0524229375537101,-2.18811115402917,-0.770617061989314,1.93629566094955,247.970897504941,250.717567549009,247.970897504955
0.89,0.04450329429052,0.00512958303817967,2.55187466435652,-0.173205604196326,0.0218034499054695,-0.0391339417523189,1.62976097591409,-1.97127969737865,-2.51852049726885,247.970897504955,250.717567549009,247.970897504955
