t,iq,id,vq,vd,ia,ib,va,vb,theta_e,omega,omega_obs,r
0,0,0,0,0,0,0,0,0,0,-0.144963141214248,0,0
0.01,-0.0433132497018223,0.0146071180736311,0.204655385980838,-0.171796559046703,0.0342453881459383,-0.0302763750948399,-0.250921998982442,0.0918478913089923,0.52156938491557,-0.144963141214248,-0.144963141214248,-0.144963141214248
0.02,-0.0630303955137748,-0.0142358392108691,0.264365080369619,-0.0564817497934166,0.0190613387280056,-0.0617426533488547,-0.180689486830578,0.201073103938503,0.52156938491557,-0.144963141214248,-0.144963141214248,-0.144963141214248
0.03,-0.00505132911014051,-0.0142358523401696,0.0325642732168196,-0.0564816971952706,-0.00982624779727162,-0.0114725878448012,-0.0651966668527232,9.29488727472796e-05,0.52156938491557,-0.144963141214248,-0.144963141214248,-0.144963141214248
0.04,-0.0431961281263355,0.0147243971873937,0.204304037812946,-0.172501239402602,0.0342887188054597,-0.0301163928835947,-0.251357927624054,0.0911921580106974,0.52156938491557,-0.144963141214248,-0.144963141214248,-0.144963141214248
0.05,-0.0434305769541315,0.0146072055967466,0.205359605977676,-0.171796979805169,0.0343039213342263,-0.0303780587103517,-0.251273235400972,0.0924582673891947,0.52156938491557,-0.144963141214248,-0.144963141214248,-0.144963141214248
0.06,0.0149002173966153,-0.0144116856786916,-0.086502795445643,-0.0557772798034009,-0.0199193898535446,0.00573855996137574,-0.00526175893728616,-0.102791791768913,0.52156938491557,-0.144963141214248,-0.144963141214248,-0.144963141214248
0.07,-0.0241823200371289,0.0149002173966153,0.0894589528164431,-0.173205604196326,0.0249676940142129,-0.0135430918352185,-0.194748055179551,-0.00873387473069411,0.52156938491557,-0.144963141214248,-0.144963141214248,-0.144963141214248
0.08,-0.00446528362490373,-0.0145288641422597,0.0297498888977475,-0.0550731253889096,-0.0103722924191718,-0.0111104545850412,-0.0625731381531925,-0.00164542128111914,0.52156938491557,-0.144963141214248,-0.144963141214248,-0.144963141214248
0.09,-0.0232449623515203,0.0143729536984604,0.0848869870844737,-0.170389196930947,0.0240435057167007,-0.0129930714456846,-0.190028179252907,-0.011294693306046,0.52156938491557,-0.144963141214248,-0.144963141214248,-0.144963141214248
0.1,0.00495384159809585,0.0149002173966153,-0.0271455525457389,-0.173205604196326,0.0104508500775079,0.0117190766574366,-0.136650855285759,-0.109834448592863,0.52156938491557,-0.144963141214248,-0.144963141214248,-0.144963141214248
0.11,0.0636948130851989,-0.0142359573679083,-0.320766822660905,-0.0564812764368046,-0.0440785176474698,0.0481328991246219,0.110847901760324,-0.306258439529814,0.52156938491557,-0.144963141214248,-0.144963141214248,-0.144963141214248
0.12,0.0436849749274742,-0.0142359704972089,-0.259651656810964,-0.0564812238386583,-0.0341087978986395,0.0307835962213842,0.0803978374322348,-0.253269222897713,0.52156938491557,-0.144963141214248,1.95929129791895,-0.144963141214248
0.13,0.0148416500458878,-0.0145288203801465,-0.0861512108556349,-0.0550733883662882,-0.0199917694449471,0.00562941845870793,-0.00482663211379088,-0.102136246555639,0.52156938491557,-0.144963141214248,-0.144963141214248,-0.144963141214248
0.14,0.063402011336364,-0.0530842822846016,-0.319360668172142,0.176967852425503,-0.0776156178545659,0.0285231823649061,0.312556636634095,-0.188725213110051,0.52156938491557,-0.144963141214248,-0.144963141214248,-0.144963141214248
0.15,-0.0437235887540002,0.0149002173966153,0.206766784991167,-0.173205604196326,0.0347039644207128,-0.0304861205383897,-0.253195681656707,0.0929765104259854,0.52156938491557,-0.144963141214248,-0.144963141214248,-0.144963141214248
0.16,-0.0239481031469776,0.0147245547290018,0.0884044354752034,-0.172501870540301,0.024698691183747,-0.0134275392427484,-0.193612486868323,-0.009297552379827,0.52156938491557,-0.144963141214248,-0.144963141214248,-0.144963141214248
0.17,-0.0436650389078957,0.014724567858302,0.206415305482841,-0.172501923138446,0.0345224975797082,-0.0305228714622466,-0.252410441551815,0.0930223673083759,0.52156938491557,-0.144963141214248,-0.144963141214248,-0.144963141214248
0.18,-0.0440748615786895,0.0149002173966153,0.208172597962789,-0.173205604196326,0.0348789831084543,-0.0307906875364484,-0.25389611597502,0.094195404136245,0.52156938491557,-0.144963141214248,-0.144963141214248,-0.144963141214248
0.19,-0.0725086219801735,0.0147245941135708,0.321614628370158,-0.172502028321388,0.0488935895081127,-0.0555313500491864,-0.309807612464565,0.192904541718628,0.52156938491557,-0.144963141214248,-0.144963141214248,-0.144963141214248
0.2,-0.0047581247560855,-0.0142360755249472,0.0311564374278124,-0.0564808030801939,-0.00997252787472986,-0.0112184796355928,-0.0644944494508774,-0.00112725321248136,0.52156938491557,-0.144963141214248,-0.144963141214248,-0.144963141214248
0.21,0.0247879164402214,-0.0338358897103941,-0.145859460399543,0.0609475738976128,-0.0416873806731364,0.00463362995440531,0.125517113411085,-0.096099132113665,0.52156938491557,-0.144963141214248,-0.144963141214248,-0.144963141214248
0.22,-0.159917697664374,0.0729972718518024,0.729733155520287,-0.522676904999708,0.142969059991047,-0.102284503270812,-0.81676422149852,0.372287297346533,0.52156938491557,-0.144963141214248,-0.144963141214248,-0.144963141214248
0.23,-0.0334262420880385,-0.0145287328581418,0.145653615679849,-0.0550739143076952,0.00405737186028324,-0.0362206498033758,-0.120321865121517,0.0988471576296662,0.52156938491557,-0.144963141214248,-0.144963141214248,-0.144963141214248
0.24,0.0535146011240261,-0.0339529543955646,-0.260356770005439,0.061651044589528,-0.0561017057799584,0.0294824397604724,0.183174357041943,-0.195022188247686,0.52156938491557,-0.144963141214248,-0.144963141214248,-0.144963141214248
0.25,0.747054131061709,-0.014236141164805,1.14874213590484,0.060947784276845,-0.384556626571506,0.640631519214886,-0.519506903630456,1.02637015949011,0.52156938491557,-0.144963141214248,-0.144963141214248,173.81080631551
0.26,0.72792248371628,-0.0142361542940852,1.49855791123128,0.0609478368749098,-0.37502445790191,0.624043641393887,-0.693799583354298,1.32967386613072,0.52156938491557,-0.144963141214248,-0.144963141214248,173.81080631551
0.27,0.718502903374191,0.0149002173966153,1.73106616964766,-0.290633928589255,-0.34506888174821,0.630393452920197,-1.114479700831,1.35609481990806,0.52156938491557,-0.144963141214248,-0.144963141214248,173.81080631551
0.28,0.738570678716213,0.0146077088532719,1.61130005626953,-0.407359150463855,-0.355321095702959,0.647647243154573,-1.1560124964227,1.19409566489263,0.52156938491557,-0.144963141214248,-0.144963141214248,173.81080631551
0.29,0.765191656329304,-0.0338359597288868,1.32259584773066,-0.409468352849079,-0.410587287445589,0.646592006194657,-1.01399684710719,0.942727162266998,0.52156938491557,69.7425302019255,-0.144963141214248,173.81080631551
0.3,0.444983608038522,0.0144907666982304,1.73071518926899,-0.0536682877972526,-0.238006393111907,-0.376262342761462,-0.830847802994,-1.51919296988287,2.61013262570426,69.7425302019255,-0.144963141214248,173.81080631551
0.31,0.464349397884657,-0.0436651001735214,1.79042251934992,0.178376424245219,0.0376442386462797,-0.464876236847776,-0.201562342954708,-1.78796072899391,3.12863395540908,69.7425302019255,-0.144963141214248,173.81080631551
0.32,0.464407882088702,0.0246708517550509,1.8487253499836,-0.291336820728348,0.214710910593274,-0.412531885730838,1.19024497062269,-1.44429203165132,-2.60862927866171,69.7425302019255,27.9000639361088,173.81080631551
0.33,0.278941264389243,-0.0143532058499755,1.78936934178525,-0.0557772798034009,0.276369906082234,0.0404217578704632,1.77627475545844,0.223163033193925,-1.47697711615826,111.85813754408,93.7331671080156,173.81080631551
0.34,0.32744356596198,0.0537488530212003,1.6151628369202,-0.40735946602603,0.234223176220262,0.235048360581996,0.608388925242263,1.55066296788557,-0.620943693026626,111.85813754408,150.844066963256,173.81080631551
0.35,0.219849654620341,0.0438612940167864,2.02644221027574,-0.406656784266166,-0.0222350761301665,0.223076859263788,-0.980563140427053,1.81943224644743,0.296266750899273,119.79296211579,187.849342096228,173.81080631551
0.36,0.190771635848458,-0.0142947522798475,1.6731146871752,-0.0564799615632587,-0.190691929160673,0.0153213948457664,-1.66178296001833,0.202435511440783,1.41583077589572,142.98706471002,192.732311063434,173.81080631551
0.37,0.22962032398583,0.0631103036237728,1.55721067142665,-0.404549107107267,-0.195072741638698,-0.136583414367939,-0.681745423294783,-1.4573222818179,2.44985742176834,137.798910182363,176.908439754328,173.81080631551
0.38,0.307785416359023,-0.043372841068004,1.4982057224166,0.176971639251702,0.113764740199519,-0.289258793734855,0.176316320450551,-1.49828298492777,-2.90687492517758,127.7277866875,145.779512588359,173.81080631551
0.39,0.160933650632058,0.00483731518201649,1.38195051611284,-0.171800556238779,0.15958147717469,-0.0213726850600319,1.39229316898549,0.0286773726974749,-1.67388489923784,161.908569457944,127.686586636668,173.81080631551
0.4,0.142210710030276,0.0252553437030433,1.78936989347896,-0.176015489718842,0.103934085378795,0.100296681547036,0.908015049505251,1.55188103222569,-0.627447970059002,142.98706471002,127.7277866875,173.81080631551
0.41,0.180942556670553,-0.00464105132025594,1.79112421739965,-0.0557772798034009,-0.0788174399894599,0.16294035511604,-0.789164017334853,1.60886830438096,0.424894965389244,142.98706471002,132.870163380955,173.81080631551
0.42,0.141392500068896,-0.0145870070078197,1.44060395934262,0.0623534107872109,-0.138600204093835,-0.0315373314395201,-1.43760515703955,-0.111888909029098,1.69172564024535,163.739682820647,145.692534703316,173.81080631551
0.43,0.229737301148982,0.0347336664465331,1.73247019622401,-0.174610231395403,-0.144847072519457,-0.181672729672288,-0.71412810752752,-1.58806887752125,2.61855443723024,137.798910182363,150.889844797588,173.81080631551
0.44,0.141041988703641,0.00512958303817967,1.56001609750412,-0.173205604196326,0.0897214412136498,-0.108945941577322,1.16444564903816,-1.0524812284469,-2.41630823812066,158.856713853441,163.739682820647,173.81080631551
0.45,0.0148417900817686,-0.0142364037341515,1.20388335847631,0.178377160565938,0.00298449707039776,0.0203481375400757,1.060077360015,0.597820661244987,-0.910215278074362,187.849342096228,172.020893003798,173.81080631551
0.46,0.259049230480668,0.0536906401382581,1.96708570295427,-0.524086265738201,0.126186666043495,0.232521211857993,0.0660806349875445,2.03463164390564,-0.292845869364423,124.981116643447,163.785460655058,173.81080631551
0.47,0.257880867993804,0.00477907166626049,1.85433680642294,-0.289229722148636,-0.202596744548792,0.159624373769986,-1.65232846198269,0.889960379764697,0.922011950312358,140.850765786651,158.856713853441,173.81080631551
0.48,0.181293072417786,-0.0227803795838667,1.9649816071042,-0.0627977860249813,-0.120785074571176,-0.137102478320054,-1.43104982135318,-1.34803289536735,2.29438372422101,145.733734754073,155.804858248936,173.81080631551
0.49,0.151689098414716,0.0245540321346042,1.96638426761201,-0.289931930551971,0.0414949808947373,-0.147954890532493,1.08977616180182,-1.66226217229236,-2.70768144097052,148.785590358578,163.71221612005,173.81080631551
0.5,0.190362797811882,0.0340326480769103,1.61656444662452,-0.289230037710818,0.193380475764722,0.000455542428215112,1.53908771567817,0.572838221711158,-1.39153177868736,153.973744886234,176.862661920014,173.81080631551
0.51,0.151630697357352,0.0246124506976877,1.84942702175465,-0.408062252982184,0.0570366121058775,0.142634028162661,0.00440443911799476,1.8939048846289,-0.219488669400701,153.973744886251,184.797486491724,173.81080631551
0.52,0.180475431361654,-0.0144700823596214,1.61656413135948,-0.0557772798034009,-0.177741738700335,0.0344766432886278,-1.57226999719483,0.379944406013925,1.29919865726623,161.908569457944,187.803564261983,173.81080631551
0.53,0.112606560980971,-0.0336026005619611,1.90773035152465,0.059545681615364,-0.0327421711627442,-0.112859747332862,-1.08331121142268,-1.57143806799165,2.56923544981222,161.908569457944,184.797486491724,173.81080631551
0.54,0.0450879394095294,0.0145498898215724,2.0798365172013,-0.171802134076347,0.0213852988578207,-0.0422763594314716,1.58547168036038,-1.35702448847928,-2.36112926524151,163.739682820647,182.993839829534,173.81080631551
0.55,0.0735824070999694,-0.0823974413185597,1.84907643543729,0.176974321596922,0.0259237762572857,0.107385598638892,1.71330914206965,0.717617835825397,-1.07872821021738,166.791538425151,182.966373129021,173.81080631551
0.56,0.0542162715355859,0.0145499423387731,1.90632853167028,-0.171100714605225,-0.0126205890468827,0.0546975836156562,-1.04646274539404,1.60258530122454,0.488955958079543,171.979692952807,187.803564262094,173.81080631551
0.57,0.112664935781949,0.0246708517550509,1.67276425847707,-0.173205604196326,-0.115075097914215,0.00773049294057824,-1.62872918163402,-0.418785981925284,1.71929211625442,171.979692952807,182.966373129021,173.81080631551
0.58,0.112314708858222,0.00518795346272962,1.5572084647048,-0.0564788044841486,-0.0129513629475952,-0.11168603710777,-0.0514665616761637,-1.55738217882878,3.07230446183064,171.979692952807,179.914517524518,173.81080631551
0.59,0.0828860955688487,0.00507121699006312,1.49925519583708,-0.173205604196326,0.0793475299411351,-0.0244906425528054,1.49777870739636,-0.185540473319368,-1.80906341159368,176.862661920014,182.966373129021,173.81080631551
0.6,0.0249626601134667,-0.0242406817088121,1.73036720373494,-0.0550758603189426,-0.0113767612994701,0.0328833445984936,0.683454077340408,1.5906270883894,-0.43764273478507,179.914517524518,187.849342096228,173.81080631551
0.61,0.0344414861134865,-0.0143533283823376,1.61411044747139,0.061651044589528,-0.0364322615284808,0.00805756298623092,-1.28522298789819,0.978445327707852,0.958276362838045,182.966373129021,187.849342096228,173.81080631551
0.62,0.0637533891887934,0.0148418644766881,1.55545655765608,-0.0557772798034009,-0.0581444682469906,-0.0300665326646893,-1.14749764541326,-1.05157280369388,2.27675774707354,179.914517524518,176.908439754328,173.81080631551
0.63,0.0250792915595073,-0.00469939986374972,1.49540158355155,0.0623523062929021,0.0150541079860597,-0.0206016760713841,0.588549644588227,-1.37612609234896,-2.69577738677387,182.966373129021,171.979692952807,173.81080631551
0.64,0.0537493781621162,-0.00469939548731632,1.32259216985194,-0.0550760706981715,0.0516900239936604,0.0154667834501943,1.28415944910372,0.321275474623927,-1.36726346201236,182.966373129021,174.726362996861,173.81080631551
0.65,0.0149002173966153,0.00501290345471738,1.61446077108784,-0.0550761232830459,0.00576763161276529,0.0146246403406082,0.0274811040023682,1.61516616781687,-0.051113799728936,182.966373129021,176.862661920014,173.81080631551
0.66,-0.0236573012993895,-0.0242406554524333,1.90492881342289,0.061651044589528,0.0107625697423356,-0.0321161077043132,-1.68858910474754,0.883867337803376,1.12092930955785,179.914517524518,169.875438513596,173.81080631551
0.67,0.0442704515107931,-0.0532025679180808,1.49680277292249,0.412533915120021,0.0174685826270452,-0.0669718950833078,-1.20704105559235,-0.976552437028957,2.51996248321493,179.914517524518,166.791538425151,173.81080631551
0.68,-0.081872899588741,0.111964967694158,2.07914028344564,-0.405258258078182,-0.136481264375898,0.0247424766783406,1.27273073397938,-1.69328528392923,-2.68954923470063,176.862661920014,161.908569457944,173.81080631551
0.69,0.0540410771174727,-0.00446608445891094,1.43814890937263,0.0602491523071165,0.0520228611525625,0.0152972495538239,1.420641682772,0.231688271291742,-1.36726346200635,176.862661920014,163.739682820647,173.81080631551
0.7,0.0540410727410394,-0.0334280931994301,1.55580685500048,0.059548363960345,-0.0213975241151356,0.059833276023416,0.38334008470734,1.50901668551856,-0.210514607918533,174.726362996861,163.739682820647,173.81080631551
0.71,0.170297350583633,-0.0243572606398703,0.973818485943159,0.0623518855344312,-0.154059630817875,0.0765512502441564,-0.766578054925027,0.60379490466688,0.967572570122632,174.726362996861,158.902491687505,173.81080631551
0.72,0.11243163350753,0.092015727423453,1.26393741311111,-0.403156734554874,-0.145269143589515,-0.00215458283845188,-0.706206292495095,-1.12309652716019,2.27149603241273,171.979692952882,158.902491687477,173.81080631551
0.73,0.0841692296430316,0.014317169571704,1.49295283845584,0.0637532518754193,-0.0022689236533012,-0.0853480670472496,0.148040765082542,-1.486962200882,-2.99968359513481,169.843394029655,158.856713853441,173.81080631551
0.74,0.0937648971367931,-0.0139452824302296,1.43534918393158,0.0595489950980709,0.0947774336434383,0.00188809668605766,1.4160719356456,-0.241895919161883,-1.69852138252603,169.843394029655,155.804858248936,173.81080631551
0.75,0.0832363618760402,0.0158912499002292,1.61481072691511,-0.0606816937631209,0.0573100921973053,0.0624209667827007,0.798063038897291,1.40513036322758,-0.554090770088054,166.791538425151,158.856713853441,173.81080631551
0.76,0.112956310900117,-0.00475763462663786,1.61271112331195,-0.0550767018358713,-0.0662637709977067,0.0916017243973496,-0.935348994520648,1.31491173421961,0.58415771111116,163.739682820647,158.856713853441,173.81080631551
0.77,0.0541576166639628,-0.0633231447487398,1.96533455774273,0.29720821875812,-0.0356725598112994,-0.0753016373002597,-1.97454206329539,-0.228158474382118,1.83592423490964,163.739682820647,158.856713853441,173.81080631551
0.78,0.132147829697843,0.053691340323183,1.61411089407017,-0.289232983020075,-0.085792827324205,-0.113953497968553,-0.134489559544453,-1.63429564497867,2.88217708077517,161.908569457944,150.921889281731,173.81080631551
0.79,0.0828867082306537,0.0147836603466122,1.79182192233226,-0.172505184009881,0.0591429166584017,-0.059923938653053,1.56263554801354,-0.893618477844538,-2.18625011853432,163.739682820647,155.804858248936,173.81080631551
0.8,0.122202372893703,0.00553750207815687,1.55685632842097,0.0595499418246261,0.0929585797336151,0.079515950123395,1.17677107201101,1.02105713209095,-0.817897496931211,161.908569458069,166.745760590995,173.81080631551
0.81,0.112781370300708,0.0437459622859576,1.84837683902113,-0.40526099296816,0.0178909357817504,0.119638042110706,-0.801564400720243,1.7141259938958,0.22157494692979,158.856713853441,163.739682820647,173.81080631551
0.82,0.191296024419768,-0.013887297107382,1.43570084733782,-0.0578780670194844,-0.191281928417679,0.0140801221788355,-1.42885478352151,0.151528219471305,1.42485085820792,161.908569457944,163.739682820647,173.81080631551
0.83,0.161226688691636,-0.0337199103140494,1.61551000807956,0.0609508347823115,-0.0570780454729453,-0.154509463215189,-0.909829592417622,-1.33633742117291,2.5815536914673,158.856713853441,161.908569457944,173.81080631551
0.84,0.161051936265541,0.014841960752671,1.4996009746558,-0.173205604196326,0.0953207073451509,-0.130659759394711,1.12122721187527,-1.01076842247077,-2.41942231413841,161.908569457944,163.739682820647,173.81080631551
0.85,0.151397837071607,0.0534584844127624,1.55720562750605,-0.288533614716463,0.159698026138668,0.0166028634001396,1.28318432458791,0.928212800110897,-1.12777107266994,161.908569457944,169.843394029655,173.81080631551
0.86,0.102253447700653,-0.0331374839049282,1.85187377027173,-0.0592775399339971,-0.0468264606058926,0.0967529999190944,-0.312287640226208,1.82631506524011,0.137356831551121,161.908569457944,174.726362996861,173.81080631551
0.87,0.0931235357798551,-0.024124076521374,1.90773035152465,0.061651044589528,-0.0957613431732834,-0.00915036271410704,-1.87418852886934,0.361459961381479,1.4125786373916,163.739682820647,174.685162946291,173.81080631551
0.88,0.141801985777637,-0.0243570374550935,1.7321182175727,0.0623509914193577,-0.0485179269637699,-0.135451390569489,-0.906009801918678,-1.47758837455005,2.62752849872543,161.908569457944,169.875438513412,173.81080631551
