t,iq,id,vq,vd,ia,ib,va,vb,theta_e,omega,omega_obs,r,omega_ekf
0,0,0,0,0,0,0,0,0,0,-0.144963141214248,0,0,0
0.01,0.00507095923210015,0.0147829697844562,-0.144804788036904,-0.173205604196326,0.00507025055490807,-0.0147832128609522,-0.144796484677465,0.173212545701736,-1.57084426515748,-0.144963141214248,-0.144963141214248,-0.144963141214248,7.40222830960457e-10
0.02,-0.00487554655381585,-0.0047582989370359,-0.0854470249157413,-0.172501034223055,-0.004875318443154,0.00475853265728681,-0.0854387554004374,0.172505130215304,-1.57084426515748,-0.144963141214248,-0.144963141214248,-0.144963141214248,-2.16162720392268
0.03,-0.034070202008079,0.0339138718571714,0.0901627998107716,-0.288520218746338,-0.034071827744416,-0.0339122385485063,0.0901766308940245,0.288515896157828,-1.57084426515748,-0.144963141214248,-0.144963141214248,-0.144963141214248,-1.60111932967949
0.04,-0.169452111722337,-0.111238672200782,0.728317407056032,0.409708598234346,-0.16944677892783,0.111246795329733,0.728297765459835,-0.409743512107495,-1.57084426515748,-0.144963141214248,-0.144963141214248,-0.144963141214248,3.53962759321432
0.05,0.0342069908877465,0.0147829697837453,-0.261408773213031,-0.172501034246551,0.0342062821770759,-0.0147846095938905,-0.261400503495539,0.172513565556888,-1.57084426515748,-0.144963141214248,-0.144963141214248,-0.144963141214248,-2.06987267507413
0.06,-0.0144116856786916,-0.0239478248198134,-0.027848879358281,-0.0564818497278641,-0.014410537642623,0.0239485156649095,-0.0278461716788907,0.0564831846926397,-1.57084426515748,-0.144963141214248,-0.144963141214248,-0.144963141214248,1.67655885945249
0.07,-0.0437235887540002,-0.0241823200371289,0.148112868903805,0.061651044589528,-0.0437224294429343,0.0241844160465928,0.148109913283489,-0.0616581448070984,-1.57084426515748,-0.144963141214248,-0.144963141214248,-0.144963141214248,9.93747762177394
0.08,0.0534551405897978,0.014782969787602,-0.377308911475862,-0.172501034269726,0.0534544318570101,-0.0147855323225263,-0.377300641625194,0.172519121642913,-1.57084426515748,-0.144963141214248,-0.144963141214248,-0.144963141214248,14.7488650429368
0.09,-0.0152910427805475,0.0142553555219209,-0.0236257973539028,-0.170387324380139,-0.015291726141379,-0.0142546224779881,-0.023617629237423,0.170388456766396,-1.57084426515748,-0.144963141214248,-0.144963141214248,-0.144963141214248,15.3715527879739
0.1,-0.0137082000224785,-0.0234202105762315,-0.0313681142355059,-0.0593001294470816,-0.0137070772801812,0.0234208676979834,-0.031365271448357,0.0593016331149764,-1.57084426515748,-0.144963141214248,-0.144963141214248,-0.144963141214248,22.9548840564721
0.11,0.0348518527622637,0.0154278316593288,-0.264576084716317,-0.176023884021059,0.0348511131372297,-0.0154295023823553,-0.264567646115536,0.176036567163076,-1.57084426515748,-0.144963141214248,-0.144963141214248,-0.144963141214248,19.9527033705372
0.12,0.101135836281536,0.101663450525295,-0.605589953012174,-0.63728234232107,0.101130962585976,-0.101668298694867,-0.605559402044342,0.637311372579539,-1.57084426515748,-0.144963141214248,-0.144963141214248,-0.144963141214248,21.837582264398
0.13,0.00489508780959596,0.0144898507465938,-0.143749017523005,-0.171796464279687,0.00489439318425267,-0.0144900853924385,-0.143740781716639,0.171803355174806,-1.57084426515748,-0.144963141214248,-0.144963141214248,-0.144963141214248,40.4854502306766
0.14,0.00559857347849929,0.0151347126167751,-0.0889662598746404,-0.174614744062344,0.00559784793872553,-0.0151349809858299,-0.0889578890275041,0.174619008758526,-1.57084426515748,-0.144963141214248,-0.144963141214248,-0.144963141214248,7.00430740333618
0.15,0.00518820684550323,0.0147829697819682,-0.145508635036567,-0.172501034235872,0.00518749816817655,-0.0147832184791227,-0.145500365452249,0.172508009483363,-1.57084426515748,-0.144963141214248,-0.144963141214248,-0.144963141214248,12.0765151453878
0.16,-0.00464105132025594,-0.00464105132025594,-0.086502795445643,-0.0557772798034009,-0.00464082883052229,0.00464127379932405,-0.0865001214747854,0.0557814265416814,-1.57084426515748,-0.144963141214248,-0.144963141214248,-0.144963141214248,-3.2669873590836
0.17,0.0637533891887934,0.0344414861134865,-0.438426291969812,-0.290633928589255,0.0637517380470893,-0.0344445423069975,-0.438412358951398,0.290654945693847,-1.57084426515748,-0.144963141214248,-0.144963141214248,-0.144963141214248,6.30226018661859
0.18,0.0924204304047529,0.0828842912678981,-0.552566812716627,-0.523376867563273,0.092416456961352,-0.0828887216567617,-0.552541722251668,0.5234033561101,-1.57084426515748,-0.144963141214248,-0.144963141214248,-0.144963141214248,-5.39343389347204
0.19,0.0347346051518819,0.0151347126273316,-0.263872237730524,-0.174614744125781,0.0347338795786291,-0.0151363777300365,-0.263863866682411,0.174627393528145,-1.57084426515748,-0.144963141214248,-0.144963141214248,-0.144963141214248,26.3536192893697
0.2,0.0427465253325944,0.0335621290298899,-0.31407998993394,-0.286406508952754,0.0427449163699668,-0.0335641781897553,-0.314066259713981,0.286421565104093,-1.57084426515748,-0.144963141214248,-0.144963141214248,-0.144963141214248,14.4984938374247
0.21,-0.0338357067798511,-0.00475829893596938,0.030453113222315,-0.172501034229464,-0.0338354786359128,0.00475992095888117,0.030461382604445,0.17249957415887,-1.57084426515748,-0.144963141214248,-0.144963141214248,-0.144963141214248,39.0643604626947
0.22,0.0537482596073548,0.0150174650081168,-0.378716605400079,-0.173910174137878,0.0537475396329133,-0.0150200415944174,-0.378708267995935,0.173928328991987,-1.57084426515748,-0.144963141214248,-0.144963141214248,-0.144963141214248,44.8525146674467
0.23,-0.00452380370418671,-0.00464105132025594,-0.0872066424613109,-0.0557772798034009,-0.00452358121458779,0.00464126817866532,-0.0872039684896446,0.0557814602829548,-1.57084426515748,-0.144963141214248,-0.144963141214248,-0.144963141214248,50.815938172038
0.24,-0.00440655609654247,-0.0045238037083992,-0.087558565931213,-0.0564818497470874,-0.00440633922773679,0.00452401494628498,-0.0875558581832129,0.0564860470964666,-1.57084426515748,-0.144963141214248,-0.144963141214248,-0.144963141214248,44.4766719534121
0.25,0.0340311194560008,0.0147829697801908,-0.260704926163224,-0.173205604196326,0.0340304107455324,-0.0147846011593475,-0.26069662267061,0.173218101764578,-1.57084426515748,-0.144963141214248,-0.144963141214248,-0.144963141214248,50.7003783739304
0.26,-0.0337184591712461,-0.00452380370809672,0.0301011897368852,-0.056481849748905,-0.0337182422687598,0.00452542011061959,0.0301038973496893,0.0564804066822577,-1.57084426515748,-0.144963141214248,-0.144963141214248,-0.144963141214248,49.3027982063214
0.27,0.0341483670715358,0.0146657221630547,-0.261056849667853,-0.172501034223053,0.0341476639815915,-0.0146673591630049,-0.261048579950765,0.172513548662751,-1.57084426515748,-0.144963141214248,-0.144963141214248,-0.144963141214248,51.988642647393
0.28,0.0148415935903578,-0.00452380370774092,-0.203458704123198,-0.0564818497510431,0.0148418104370465,0.00452309222084829,-0.203455996242023,0.0564916031632685,-1.57084426515748,-0.144963141214248,-0.144963141214248,-0.144963141214248,51.0606706594236
0.29,-0.0346564400453765,-0.00528591316591686,0.0926262641771256,-0.0529590001141004,-0.0346561866075329,0.00528757453283125,0.0926288028384426,0.0529545597018129,-1.57084426515748,-0.144963141214248,-0.144963141214248,-0.144963141214248,53.0860033937491
0.3,-0.0533769754995661,-0.00464105132025594,0.205711014496475,-0.0557772798034009,-0.0533767529538327,0.00464361011972733,0.205713688131567,0.0557674182901136,-1.57084426515748,-0.144963141214248,-0.144963141214248,-0.144963141214248,52.4427142720377
0.31,-0.0144116856786916,0.0149002173966153,-0.027848879358281,-0.173205604196326,-0.0144123999541558,-0.014899526506881,-0.027840576133229,0.173206939026981,-1.57084426515748,-0.144963141214248,-0.144963141214248,-0.144963141214248,56.5613107923608
0.32,0.034324238500261,0.0150174650098408,-0.262112620208427,-0.173910174148238,0.0343235185481385,-0.0150191104403751,-0.262104282938266,0.173922739198228,-1.57084426515748,-0.144963141214248,-0.144963141214248,-0.144963141214248,48.0553760373849
0.33,-0.00423068468870839,-0.00440655610222877,-0.0303123437648742,-0.0571864196566035,-0.00423047344076306,0.00440675890926195,-0.0303096023067247,0.0571878727150194,-1.57084426515748,-0.144963141214248,-0.144963141214248,-0.144963141214248,51.3747837771709
0.34,0.0342656146931145,0.0149002173966153,-0.261760696706993,-0.173205604196326,0.034264900361718,-0.014901860016955,-0.261752393213166,0.17321815237649,-1.57084426515748,-0.144963141214248,-0.144963141214248,-0.144963141214248,46.8513365475216
0.35,-0.0825130071643192,-0.0534942231124358,0.322314999727267,0.061651044589528,-0.0825104426440454,0.0534981785894224,0.322312043906785,-0.0616664957720056,-1.57084426515748,-0.144963141214248,-0.144963141214248,-0.144963141214248,45.10484726508
0.36,-0.0533769754984997,-0.0532011040775956,0.205711014486874,0.0609464746333463,-0.0533744250633511,0.0532036628212694,0.205708092576305,-0.0609563360125124,-1.57084426515748,-0.144963141214248,-0.144963141214248,-0.144963141214248,45.7783186217535
0.37,0.0344414861134865,0.0149002173966153,-0.203810627620364,-0.173205604196326,0.0344407717818879,-0.0149018684479429,-0.203802324193124,0.173215374345067,-1.57084426515748,-0.144963141214248,-0.144963141214248,-0.144963141214248,54.6554095988436
0.38,-0.0537287183410195,-0.0536114707267276,0.207822555498665,0.0623556145478477,-0.0537261482331615,0.0536140463319058,0.207819566033809,-0.0623655771492132,-1.57084426515748,-0.144963141214248,-0.144963141214248,-0.144963141214248,53.1863823886049
0.39,0.0537482596101979,0.0150174650066952,-0.378716605412879,-0.173910174129335,0.0537475396357566,-0.0150200415929959,-0.378708268008736,0.173928328983445,-1.57084426515748,-0.144963141214248,-0.144963141214248,-0.144963141214248,48.5886794764136
0.4,-0.0338357067809169,-0.0533183516904643,0.030453113225514,0.0609464746290701,-0.0338331507475635,0.0533199736575785,0.0304501915163242,-0.0609479344314231,-1.57084426515748,-0.144963141214248,-0.144963141214248,-0.144963141214248,58.2101877712532
0.41,-0.0442512030009608,-0.0245926866736539,0.0922743407438409,0.0630601844598223,-0.0442500240169841,0.0245948079756093,0.0922713176358276,-0.0630646078681655,-1.57084426515748,-0.144963141214248,-0.144963141214248,-0.144963141214248,46.3059258637181
0.42,-0.0827475023802414,-0.0536114707274382,0.323370770156624,0.0623556145521174,-0.0827449322390396,0.0536154374456068,0.323367780558999,-0.062371116345691,-1.57084426515748,-0.144963141214248,-0.144963141214248,-0.144963141214248,64.0168883788518
0.43,0.121908204896245,0.12184958109085,-0.67093041536732,-0.757528946411852,0.121902363486771,-0.121855425030566,-0.670894099899105,0.757561108846926,-1.57084426515748,-0.144963141214248,-0.144963141214248,-0.144963141214248,52.7830569740291
0.44,0.0146070983582199,-0.00493417035865138,-0.202051010091865,-0.171796464266871,0.0146073348774833,0.00493347011260467,-0.202042774218508,0.171806150064048,-1.57084426515748,-0.144963141214248,-0.144963141214248,-0.144963141214248,59.4371609129581
0.45,-0.0143530618731184,-0.0240650724259827,0.0301011897429663,-0.0557772798034009,-0.014351908216459,0.0240657604606149,0.0301038635798409,0.0557758367375628,-1.57084426515748,-0.144963141214248,-0.144963141214248,-0.144963141214248,60.9659046795078
0.46,0.0342069908820586,0.0147829697809013,-0.261408773187423,-0.173205604196326,0.0342062821713881,-0.0147846095910462,-0.261400469694,0.173218135505852,-1.57084426515748,-0.144963141214248,-0.144963141214248,-0.144963141214248,59.2665201834702
0.47,-0.0726251251890499,-0.0726251251890499,0.263309160113774,0.177670229099347,-0.0726216435760178,0.0726286066351832,0.26330064259136,-0.177682851505181,-1.57084426515748,-0.144963141214248,-0.144963141214248,-0.144963141214248,49.2016516155725
0.48,-0.0433718459057941,-0.0240650724210602,0.146001327856811,-0.056481849772398,-0.0433706922157911,0.0240671515686826,0.146004035336442,0.056474850642908,-1.57084426515748,-0.144963141214248,-0.144963141214248,-0.144963141214248,51.5993812557558
0.49,-0.00458242751432757,-0.0045238037083992,-0.086854718940833,-0.0564818497470874,-0.00458221064531981,0.00452402337727277,-0.0868520111936416,0.0564860133551944,-1.57084426515748,-0.144963141214248,-0.144963141214248,-0.144963141214248,53.2734210554599
0.5,-0.00493417036131717,-0.00464105132025594,-0.0847431779011414,-0.0564818497745361,-0.00493394787124672,0.00464128785097091,-0.084740470156375,0.0564859121588232,-1.57084426515748,-0.144963141214248,-0.144963141214248,-0.144963141214248,54.5829045082269
0.51,0.0147829697844561,0.0342069908891681,-0.203106780628168,-0.289929358643751,0.0147813299403383,-0.0342076995212281,-0.203092881656076,0.289939094917099,-1.57084426515748,-0.144963141214248,-0.144963141214248,-0.144963141214248,49.8295422299354
0.52,-0.00481692274542639,-0.00464105132025594,-0.0271450323383444,-0.0557772798034009,-0.00481670025549066,0.00464128223031219,-0.0271423584356915,0.0557785810277124,-1.57084426515748,-0.144963141214248,-0.144963141214248,-0.144963141214248,52.7872038316223
0.53,0.0339138718571689,0.0144898507528127,-0.259649155730398,-0.171796464301042,0.0339131771984815,-0.0144914765116483,-0.259640919790857,0.171808911259007,-1.57084426515748,-0.144963141214248,-0.144963141214248,-0.144963141214248,46.314388865167
0.54,0.120559857410709,0.121087471648073,-0.722545861809006,-0.754006096859982,0.120554052537063,-0.121093250951094,-0.722509715161122,0.75404073365909,-1.57084426515748,-0.144963141214248,-0.144963141214248,-0.144963141214248,52.531149895757
0.55,0.0342069908877449,0.0144898507515674,-0.261408773213024,-0.171796464296765,0.0342062962287207,-0.0144914905620494,-0.261400537271461,0.171808995607912,-1.57084426515748,-0.144963141214248,-0.144963141214248,-0.144963141214248,70.1886715901523
0.56,-0.0530838564821297,-0.0532011040907886,0.204303320592027,0.0609464746650582,-0.0530813060473173,0.0532036487828167,0.204300398683074,-0.060956268561684,-1.57084426515748,-0.144963141214248,-0.144963141214248,-0.144963141214248,68.5408091011568
0.57,0.00436747355220662,0.0143726031370955,-0.0829835604526252,-0.171091894340571,0.00436678454812801,-0.0143728124901114,-0.0829753584920105,0.171095872239987,-1.57084426515748,-0.144963141214248,-0.144963141214248,-0.144963141214248,67.3544713940463
0.58,-0.0431373507089377,-0.0239478248191039,0.144945557523929,0.0602419047363384,-0.0431362026398621,0.0239498927255453,0.144942669459109,-0.0602488531198067,-1.57084426515748,-0.144963141214248,-0.144963141214248,-0.144963141214248,67.9719138935717
0.59,-0.00452380370667569,-0.00464105132025594,-0.0872066424463694,-0.0557772798034009,-0.00452358121707676,0.00464126817866544,-0.087203968474703,0.0557814602829541,-1.57084426515748,-0.144963141214248,-0.144963141214248,-0.144963141214248,69.7369449599782
0.6,-0.00452380371088764,-0.00440655610151934,-0.0872066424210847,-0.0571864196608666,-0.00452359246260553,0.00440677296019848,-0.087203900897561,0.0571906001387995,-1.57084426515748,-0.144963141214248,-0.144963141214248,-0.144963141214248,65.699775746365
0.61,-0.00464105132025594,-0.00464105132025594,-0.086502795445643,-0.173205604196326,-0.00464082883052229,0.00464127379932405,-0.0864944921531951,0.173209750799676,-1.57084426515748,-0.144963141214248,-0.144963141214248,-0.144963141214248,65.5258886738494
0.62,0.00477784020900736,0.0144898507625809,-0.143397094089057,-0.171796464334584,0.00477714558379803,-0.0144900797877677,-0.143388858283093,0.17180333835907,-1.57084426515748,-0.144963141214248,-0.144963141214248,-0.144963141214248,61.1195787976637
0.63,-0.121067930321442,-0.0723906299507018,0.495813283397984,0.176261089149178,-0.121064459894065,0.0723964336658607,0.495804833160276,-0.176284857423591,-1.57084426515748,-0.144963141214248,-0.144963141214248,-0.144963141214248,62.8994249993575
0.64,0.0143139793462158,0.033913871868127,-0.200643316211653,-0.288520218790228,0.0143123535542828,-0.0339145580178901,-0.200629484794249,0.288529836970744,-1.57084426515748,-0.144963141214248,-0.144963141214248,-0.144963141214248,56.6573985834555
0.65,-0.131307555135978,-0.0921663938949114,0.5569306639975,0.294393983494012,-0.131303136679093,0.092172688458194,0.556916550592045,-0.294420681499835,-1.57084426515748,-0.144963141214248,-0.144963141214248,-0.144963141214248,54.8151277794252
0.66,0.00483646401209041,0.0146657221757439,-0.143749017569303,-0.172501034261179,0.00483576095582615,-0.0146659540110577,-0.143740747987005,0.172507925155491,-1.57084426515748,-0.144963141214248,-0.144963141214248,-0.144963141214248,35.9294619115459
0.67,-0.0534355993049341,-0.00475829893525941,0.206062937981897,-0.0557772798034009,-0.0534353711384747,0.00476086054492531,0.206065611616584,0.055767401419478,-1.57084426515748,-0.144963141214248,-0.144963141214248,-0.144963141214248,37.431843104635
0.68,-0.033835706784773,-0.00475829893104745,0.0304531132370884,-0.172501034259041,-0.033835478640835,0.00475992095395948,0.0304613826192197,0.172499574188446,-1.57084426515748,-0.144963141214248,-0.144963141214248,-0.144963141214248,35.6083385566495
0.69,0.0151933364350134,-0.00440655608953743,-0.205218321643175,-0.0571864197328689,0.0151935476606391,0.0044058277408035,-0.205215579984048,0.0571962574974673,-1.57084426515748,-0.144963141214248,-0.144963141214248,-0.144963141214248,36.3997095981375
0.7,0.00477784020473775,0.014782969785468,-0.143397094067698,-0.173205604196326,0.00477713152788243,-0.0147831988103177,-0.143388790709876,0.173212478219192,-1.57084426515748,-0.144963141214248,-0.144963141214248,-0.144963141214248,44.3330168696497
0.71,-0.0140013190236964,-0.0239478248057032,-0.0299604203988674,0.0602419046558098,-0.0140001709881001,0.0239484959784938,-0.0299633082627086,-0.0602404683330936,-1.57084426515748,-0.144963141214248,-0.144963141214248,-0.144963141214248,39.0865741777185
0.72,-0.0431373506964955,-0.0239478248141271,0.0866435648634666,-0.0564818497449493,-0.0431362026274202,0.0239498927205678,0.0866462724113009,0.0564776961294227,-1.57084426515748,-0.144963141214248,-0.144963141214248,-0.144963141214248,42.3689639271015
0.73,-0.0823957595315022,-0.0533183516883328,0.263661083539364,0.0609464746205308,-0.0823932034423513,0.053322301544862,0.263658161562208,-0.0609591140311178,-1.57084426515748,-0.144963141214248,-0.144963141214248,-0.144963141214248,34.1555422845363
0.74,0.00512958303817967,0.0149002173966153,-0.145156711533001,-0.173205604196326,0.00512886874026169,-0.0149004632833058,-0.145148408173158,0.173212562572372,-1.57084426515748,-0.144963141214248,-0.144963141214248,-0.144963141214248,41.6299846703697
0.75,0.101546202841866,0.10189794569114,-0.608405340580589,-0.638691481941226,0.10154131790452,-0.101902813532744,-0.608374722057676,0.638720647163146,-1.57084426515748,-0.144963141214248,-0.144963141214248,-0.144963141214248,36.5514884117682
0.76,-0.0532597278881173,-0.00475829893241517,0.147057098415511,-0.172501034250822,-0.0532594997218602,0.00476085211109333,0.147065367663659,0.172493984376109,-1.57084426515748,-0.144963141214248,-0.144963141214248,-0.144963141214248,40.7786690368302
0.77,0.0635775177636229,0.0343242384967062,-0.437370521439907,-0.289929358615982,0.0635758722427797,-0.0343272862593638,-0.437356622198637,0.289950325109473,-1.57084426515748,-0.144963141214248,-0.144963141214248,-0.144963141214248,39.3300415297593
0.78,0.043743130021862,0.0339138718571689,-0.319006918812092,-0.288520218746328,0.0437415041961142,-0.0339159687922272,-0.318993087258686,0.288535511084141,-1.57084426515748,-0.144963141214248,-0.144963141214248,-0.144963141214248,29.886084894365
0.79,0.0536310120054485,0.0147829697883122,-0.378012758459832,-0.172501034273995,0.0536303032724587,-0.0147855407542242,-0.378004488608355,0.172519155388453,-1.57084426515748,-0.144963141214248,-0.144963141214248,-0.144963141214248,47.0221294394253
