t,iq,id,vq,vd,ia,ib,va,vb,theta_e,omega,omega_obs,r
0,0,0,0,0,0,0,0,0,0,-0.144963141214248,0,0
0.01,0.0144898767746828,-0.0142944455009966,-0.0847432895393933,0.0609465193195609,-0.0196132894136795,0.00544119283812865,0.0950655883810489,-0.0431095957402994,0.52156938491557,-0.144963141214248,-0.144963141214248,-0.144963141214248
0.02,-0.0238306242689067,-0.0435477408698891,0.087699570798105,0.178374893318555,-0.025884154657897,-0.0423593546405382,0.110962304086478,0.164912656750164,0.52156938491557,-0.144963141214248,-0.144963141214248,-0.144963141214248
0.03,-0.0530253284412966,0.00512958303817967,0.204655675234686,-0.0557772798034009,0.0308669625032252,-0.0434192204476019,-0.1503289827066,0.149653758076538,0.52156938491557,-0.144963141214248,-0.144963141214248,-0.144963141214248
0.04,0.0348517400574274,-0.0148219396226324,-0.205569761858711,0.0630597974897346,-0.0302157716755265,0.0228328890256994,0.15709864043221,-0.14681785390219,0.52156938491557,-0.144963141214248,-0.144963141214248,-0.144963141214248
0.05,-0.0243581307735294,0.00512958303817967,0.0901625569566177,-0.0557772798034009,0.0165837758619715,-0.0185636616831334,-0.0932837634125107,0.0503838377143001,0.52156938491557,-0.144963141214248,-0.144963141214248,-0.144963141214248
0.06,0.00630157206463935,-0.044250983815907,-0.0338290933308605,0.181192200696376,-0.041507002963609,-0.0165839706988545,0.173955637513474,0.0609463479304925,0.52156938491557,-0.144963141214248,-0.144963141214248,-0.144963141214248
0.07,0.0057155362766391,0.00483660641894995,-0.0310146519925869,-0.0543688245395828,0.00134580589703411,0.00736538682411953,-0.0316870682932637,-0.0539796945435528,0.52156938491557,-0.144963141214248,-0.144963141214248,-0.144963141214248
0.08,0.00542253902001934,0.00512958303817967,-0.0296075180449573,-0.0557772798034009,0.00174581123450902,0.00725732007718242,-0.0336093454554347,-0.0534614063143366,0.52156938491557,-0.144963141214248,-0.144963141214248,-0.144963141214248
0.09,0.0923036603703146,-0.0629719221271077,-0.493211475509008,0.295099436539167,-0.100588580477966,0.048655587259519,0.501600927694866,-0.280602470329747,0.52156938491557,-0.144963141214248,-0.144963141214248,-0.144963141214248
0.1,-0.0338357885130132,-0.0144116856786916,0.14740951254112,0.061651044589528,0.00436290926141751,-0.0365174244871595,-0.0199917140585932,0.158526802325633,0.52156938491557,-0.144963141214248,-0.144963141214248,-0.144963141214248
0.11,-0.0238894259681363,0.00512958303817967,0.0880523392014042,-0.0557772798034009,0.0163502476918075,-0.0181572766583866,-0.0922323654209556,0.048554198067328,0.52156938491557,-0.144963141214248,-0.144963141214248,-0.144963141214248
0.12,-0.0338358050229235,-0.0144116856786916,0.147409611651461,0.061651044589528,0.00436291748733949,-0.0365174388018843,-0.0199917634394747,0.158526888258095,0.52156938491557,-0.144963141214248,-0.144963141214248,-0.144963141214248
0.13,-0.0241237494782855,0.00501244192049273,0.0891073489678528,-0.0550733498095609,0.0163654315441162,-0.0184188086822204,-0.0921476807596376,0.0498196590709417,0.52156938491557,-0.144963141214248,-0.144963141214248,-0.144963141214248
0.14,-0.0527914259376948,0.00471961801958076,0.203250994289367,-0.0543695190311663,0.030394967197553,-0.0434206795875599,-0.148408529882713,0.149137250669806,0.52156938491557,-0.144963141214248,-0.144963141214248,-0.144963141214248
0.15,-0.150263569836774,0.00483677151942415,0.730081823973663,-0.0543696182433007,0.079061207808234,-0.127874392271187,-0.410897581722654,0.605919716149844,0.52156938491557,-0.144963141214248,-0.144963141214248,-0.144963141214248
0.16,-0.179751213480536,0.13138657340628,0.84809303728698,-0.75612453911705,0.203476701660829,-0.0903889501012093,-1.07814406605742,0.358596557951701,0.52156938491557,-0.144963141214248,-0.144963141214248,-0.144963141214248
0.17,-0.140902945899191,0.0731141452056557,0.614883664440702,-0.405951058278447,0.133596455839137,-0.085739753786942,-0.658335661027053,0.330866045301555,0.52156938491557,-0.144963141214248,-0.144963141214248,-0.144963141214248
0.18,0.0147245676330727,-0.0144116856786916,-0.0857998355276109,0.061651044589528,-0.0198318738575534,0.00558626488634626,0.0962028538079433,-0.0436746378891976,0.52156938491557,-0.144963141214248,-0.144963141214248,-0.144963141214248
0.19,0.0246708517550509,-0.0434308597854811,-0.145156711533001,0.177672104274212,-0.0499482608799075,-0.000248481585871797,0.226371614932824,-0.0373328205873433,0.52156938491557,-0.144963141214248,-0.144963141214248,-0.144963141214248
0.2,-0.101586353243666,0.0436852454758811,0.437868145302087,-0.287819597597022,0.0884913153719914,-0.0663134597300547,-0.467714686333765,0.236244800194436,0.52156938491557,-0.144963141214248,-0.144963141214248,-0.144963141214248
0.21,-0.053142997879939,0.00512958303817967,0.205361162486091,-0.0557772798034009,0.0309255902970395,-0.043521244359421,-0.150680485710194,0.15026544255432,0.52156938491557,-0.144963141214248,-0.144963141214248,-0.144963141214248
0.22,0.0144904835177141,-0.0142946188561484,-0.0847458912022317,0.0609475610536109,-0.0196137420237766,0.00544163253485894,0.0950677878606955,-0.0431113324465613,0.52156938491557,-0.144963141214248,-0.144963141214248,-0.144963141214248
0.23,0.0240855589184855,-0.0434309423357175,-0.141994506900554,0.177672501126068,-0.0496567152921922,-0.000755994030677856,0.224796417541304,-0.0345908702827771,0.52156938491557,-0.144963141214248,-0.144963141214248,-0.144963141214248
0.24,-0.0531430721753604,0.00512958303817967,0.263664044615083,-0.0557772798034009,0.0309256273140993,-0.0435213087763981,-0.179729399274136,0.200816275240852,0.52156938491557,-0.144963141214248,-0.144963141214248,-0.144963141214248
0.25,-0.0533186600263292,0.00512958303817967,0.206064171960954,-0.0557772798034009,0.0310131124626789,-0.0436735501708539,-0.151030754182767,0.150874978704903,0.52156938491557,-0.144963141214248,-0.144963141214248,-0.144963141214248
0.26,-0.0824550247803968,0.0731144052386588,0.38097212456565,-0.405952397652216,0.104475503294617,-0.0350630371798433,-0.541792393372694,0.128055110554544,0.52156938491557,-0.144963141214248,-0.144963141214248,-0.144963141214248
0.27,-0.0240067817158871,0.00512958303817967,0.0887564388965669,-0.0557772798034009,0.0164087191918116,-0.0182590285881836,-0.0925831770864909,0.0491646794806835,0.52156938491557,-0.144963141214248,-0.144963141214248,-0.144963141214248
0.28,-0.0531431712356425,0.00512958303817967,0.205361856265056,-0.0557772798034009,0.0309256766700397,-0.0435213946654581,-0.150680831379644,0.150266044087265,0.52156938491557,-0.144963141214248,-0.144963141214248,-0.144963141214248
0.29,-0.053143196000508,0.00512958303817967,0.205361955375396,-0.0557772798034009,0.0309256890089226,-0.0435214161375454,-0.150680880760525,0.150266130019727,0.52156938491557,-0.144963141214248,-0.144963141214248,-0.144963141214248
0.3,-0.023889818081241,0.00483708108229173,0.0880542223109993,-0.0543711064352646,0.0160968326558201,-0.0183033532392832,-0.0910140974763983,0.0492564446783,0.52156938491557,-0.144963141214248,-0.144963141214248,-0.144963141214248
0.31,0.0144907435507173,-0.0142946931512921,-0.0847470062017722,0.0609480075115338,-0.0196139359997381,0.0054418209765144,0.0950687304958282,-0.0431120767500334,0.52156938491557,-0.144963141214248,-0.144963141214248,-0.144963141214248
0.32,-0.0239483514922382,0.00501259876573433,0.088405553602866,-0.0550742923314706,0.0162781769849478,-0.0182666537611229,-0.0917988344095599,0.0492107059966396,0.52156938491557,-0.144963141214248,-0.144963141214248,-0.144963141214248
0.33,0.0151926574396534,-0.0144116856786916,-0.0882583369095532,0.061651044589528,-0.0200650956098064,0.00599211668355893,0.0974277811448606,-0.0458062527850653,0.52156938491557,-0.144963141214248,-0.144963141214248,-0.144963141214248
0.34,0.0343245183512254,-0.0144116856786916,-0.203108460589963,0.061651044589528,-0.0295973820705002,0.0225801731330352,0.154650875334595,-0.14538571050983,0.52156938491557,-0.144963141214248,-0.144963141214248,-0.144963141214248
0.35,-0.0150549629688804,-0.0142947261713845,0.0343156241052656,0.0609482059374484,-0.00489306844843326,-0.020175455074624,0.0357469628645561,0.0601198844866451,0.52156938491557,-0.144963141214248,-0.144963141214248,-0.144963141214248
0.36,-0.0246501250465299,0.00512958303817967,0.0915651565766136,-0.0557772798034009,0.0167292595171155,-0.0188168319056142,-0.0939825967057934,0.0515999453255798,0.52156938491557,-0.144963141214248,-0.144963141214248,-0.144963141214248
0.37,-0.0729185488321869,0.00512958303817967,0.323372598802652,-0.0557772798034009,0.0407785898283529,-0.0606674047372109,-0.209478676947669,0.252585879460634,0.52156938491557,-0.144963141214248,-0.144963141214248,-0.144963141214248
0.38,0.0149002173966153,-0.0144116856786916,-0.086502795445643,0.061651044589528,-0.0199193898535446,0.00573855996137574,0.0965530975892481,-0.0442841310721103,0.52156938491557,-0.144963141214248,-0.144963141214248,-0.144963141214248
0.39,0.0246123885114449,0.00501265655096772,-0.144805751906547,-0.0550746395772524,-0.00791674728578438,0.0238373972226267,0.0243964076596973,-0.152992604406509,0.52156938491557,-0.144963141214248,-0.144963141214248,-0.144963141214248
0.4,-0.0340698726278208,-0.0142947674464353,0.148463803752673,0.0609484539694534,0.0045809122614477,-0.0366621308720117,-0.0211261786466695,0.159090853419572,0.52156938491557,-0.144963141214248,-0.144963141214248,-0.144963141214248
0.41,-0.0243576850030821,0.00512958303817967,0.090160772959015,-0.0557772798034009,0.0165835537606496,-0.0185632751830758,-0.0932828745509267,0.0503822909200245,0.52156938491557,-0.144963141214248,-0.144963141214248,-0.144963141214248
0.42,-0.0146454891228334,-0.0142947839566206,0.0318576926076981,0.0609485531832466,-0.00509713540049225,-0.0198204543520712,0.036971907336858,0.0579889367146217,0.52156938491557,-0.144963141214248,-0.144963141214248,-0.144963141214248
0.43,-0.0247667873727132,0.00512958303817967,0.0926166974540579,-0.0557772798034009,0.01678738552574,-0.0189179826123437,-0.0945065179759332,0.0525116715562167,0.52156938491557,-0.144963141214248,-0.144963141214248,-0.144963141214248
0.44,-0.102055181874207,0.00512958303817967,0.49828218673943,-0.0557772798034009,0.0552956686394716,-0.0859299819576194,-0.29662588675865,0.404239193879985,0.52156938491557,-0.144963141214248,-0.144963141214248,-0.144963141214248
0.45,0.0339155398060549,-0.0142948087214845,-0.20135495089951,0.0609487020014485,-0.02929227519984,0.0222838060110198,0.153168246158581,-0.144215286624233,0.52156938491557,-0.144963141214248,-0.144963141214248,-0.144963141214248
0.46,-0.0238901482814966,0.00483741128254732,0.0880558080862825,-0.0543726938393698,0.0160972834715533,-0.0183034750160965,-0.0910162639155836,0.0492570286956784,0.52156938491557,-0.144963141214248,-0.144963141214248,-0.144963141214248
0.47,-0.07274334071175,0.00512958303817967,0.322671571549368,-0.0557772798034009,0.0406912938772709,-0.0605154925836756,-0.209129396100085,0.251978061972109,0.52156938491557,-0.144963141214248,-0.144963141214248,-0.144963141214248
0.48,-0.0240070417490275,0.00512958303817967,0.0887574795633536,-0.0557772798034009,0.0164088487511051,-0.0182592540468795,-0.0925836955898381,0.0491655817786608,0.52156938491557,-0.144963141214248,-0.144963141214248,-0.144963141214248
0.49,0.0537490669561306,-0.0435483228483298,-0.261412408160837,0.061651044589528,-0.064538078476314,0.0249049201593201,0.183700319745864,-0.195937466975296,0.52156938491557,-0.144963141214248,-0.144963141214248,-0.144963141214248
0.5,0.00512958303817967,0.00512958303817967,-0.027848879358281,-0.0557772798034009,0.00189177405287659,0.00700331601629001,-0.0344855721758641,-0.051936599190573,0.52156938491557,-0.144963141214248,-0.144963141214248,-0.144963141214248
0.51,0.0147249762562237,-0.0144116856786916,-0.0858014708597113,0.061651044589528,-0.0198320774505519,0.00558661917827463,0.0962036685982092,-0.0436760557847866,0.52156938491557,-0.144963141214248,-0.144963141214248,-0.144963141214248
0.52,-0.0145285048506652,-0.0144116856786916,0.0315063117598492,0.061651044589528,-0.00525678008809342,-0.0197772697914204,0.0377560668114907,0.0580342864056674,0.52156938491557,-0.144963141214248,-0.144963141214248,-0.144963141214248
0.53,0.00518798849668945,0.00501277212116013,-0.0281994920960832,-0.0550753340671671,0.00176139449082835,0.00699575574388799,-0.033702268522347,-0.0518908553941321,0.52156938491557,-0.144963141214248,-0.144963141214248,-0.144963141214248
0.54,-0.0244159253612566,0.00501278037611587,0.0905107166970896,-0.055075383673241,0.0165112991388717,-0.0186719677348778,-0.0928486601945343,0.0510354193071383,0.52156938491557,-0.144963141214248,-0.144963141214248,-0.144963141214248
0.55,0.0340327056886025,-0.0144116856786916,-0.201707248524561,0.061651044589528,-0.0294519889011772,0.0223271603737101,0.15395273337855,-0.144170805961548,0.52156938491557,-0.144963141214248,-0.144963141214248,-0.144963141214248
0.56,-0.0152291887418488,-0.014294899526812,0.0346609591755381,0.0609492476731548,-0.00480641224939354,-0.0203266018681279,0.0355758058370619,0.060419822260046,0.52156938491557,-0.144963141214248,-0.144963141214248,-0.144963141214248
0.57,0.0533404763972674,-0.0434316440116864,-0.259660434694593,0.177675874361838,-0.0642333366946406,0.0246087907244185,0.283425386830068,-0.13661005737593,0.52156938491557,-0.144963141214248,-0.144963141214248,-0.144963141214248
0.58,-0.0729187221873377,0.00512958303817967,0.323373639467781,-0.0557772798034009,0.0407786762010777,-0.0606675550427688,-0.20947919545019,0.252586781757174,0.52156938491557,-0.144963141214248,-0.144963141214248,-0.144963141214248
0.59,-0.014294924291678,-0.0145868277592119,0.0304545726576146,0.0623526926876863,-0.00552501450303002,-0.0196620095443733,0.0388884426302605,0.0574719784847878,0.52156938491557,-0.144963141214248,-0.144963141214248,-0.144963141214248
0.6,-0.0240071903390398,0.00512958303817967,0.0887580742286737,-0.0557772798034009,0.0164089227848109,-0.0182593828801134,-0.09258399187676,0.0491660973762781,0.52156938491557,-0.144963141214248,-0.144963141214248,-0.144963141214248
0.61,-0.0533191057971918,0.00512958303817967,0.264369457532103,-0.0557772798034009,0.0310133345642077,-0.0436739366712715,-0.180080865241257,0.201427895267874,0.52156938491557,-0.144963141214248,-0.144963141214248,-0.144963141214248
0.62,-0.0241823200371289,0.00512958303817967,0.0894589528164431,-0.0557772798034009,0.0164961796626273,-0.0184112270384684,-0.09293319865302,0.0497737859661066,0.52156938491557,-0.144963141214248,-0.144963141214248,-0.144963141214248
0.63,0.0243206666542874,0.00501285467125851,-0.143404886731448,-0.0550758301311572,-0.00777122758162667,0.0235845619068638,0.0236974062829338,-0.151778593808735,0.52156938491557,-0.144963141214248,-0.144963141214248,-0.144963141214248
0.64,0.00512958303817967,0.00512958303817967,-0.027848879358281,-0.0557772798034009,0.00189177405287659,0.00700331601629001,-0.0344855721758641,-0.051936599190573,0.52156938491557,-0.144963141214248,-0.144963141214248,-0.144963141214248
0.65,0.0538076870452548,-0.0437235887540002,-0.261763912899098,0.179079368982457,-0.0647192476911035,0.0248684212805438,0.285690310509098,-0.137734574354505,0.52156938491557,-0.144963141214248,-0.144963141214248,-0.144963141214248
0.66,0.00512958303817967,0.00512958303817967,-0.027848879358281,-0.0557772798034009,0.00189177405287659,0.00700331601629001,-0.0344855721758641,-0.051936599190573,0.52156938491557,-0.144963141214248,-0.144963141214248,-0.144963141214248
0.67,-0.0246491014244375,0.00512958303817967,0.0919108137604935,-0.0557772798034009,0.0167287495061418,-0.0188159443860399,-0.0941548174484158,0.0518996433478928,0.52156938491557,-0.144963141214248,-0.144963141214248,-0.144963141214248
0.68,-0.0539026279339915,0.00565467495160841,0.208868231420577,-0.0585820863644213,0.0317593442979821,-0.0439182501559534,-0.154859727638334,0.151908734756594,0.52156938491557,-0.144963141214248,-0.144963141214248,-0.144963141214248
0.69,0.0926569163348896,-0.0628564815416608,-0.494978910293285,0.294404237272842,-0.100664495837535,0.0490193910025696,0.501878772595341,-0.282481281109962,0.52156938491557,-0.144963141214248,-0.144963141214248,-0.144963141214248
0.7,-0.0337196132321902,-0.0142950150970044,0.147062294357092,0.0609499421630695,0.00440618378355578,-0.0363585659455596,-0.0204265982275138,0.157876432554404,0.52156938491557,-0.144963141214248,-0.144963141214248,-0.144963141214248
0.71,0.0143752369263261,-0.0142950233519606,-0.0840516282797631,0.0609499917691465,-0.0195566721063019,0.00534150778785375,0.0947239848067274,-0.0425081688087524,0.52156938491557,-0.144963141214248,-0.144963141214248,-0.144963141214248
0.72,0.00512958303817967,0.00512958303817967,-0.027848879358281,-0.0557772798034009,0.00189177405287659,0.00700331601629001,-0.0344855721758641,-0.051936599190573,0.52156938491557,-0.144963141214248,-0.144963141214248,-0.144963141214248
0.73,-0.0533192543872041,0.00512958303817967,0.206066550625539,-0.0557772798034009,0.0310134085979135,-0.0436740655045054,-0.151031939332101,0.150877041098237,0.52156938491557,-0.144963141214248,-0.144963141214248,-0.144963141214248
0.74,-0.0144116856786916,-0.0144116856786916,0.0308050367290811,0.061651044589528,-0.00531498424379477,-0.0196759830933811,0.0381054711120922,0.0574262540845692,0.52156938491557,-0.144963141214248,-0.144963141214248,-0.144963141214248
0.75,0.0335084516603912,-0.0142950563720546,-0.198909680844854,0.0609501901950711,-0.0290896617271883,0.0219307216013233,0.151951201538481,-0.142094402316308,0.52156938491557,-0.144963141214248,-0.144963141214248,-0.144963141214248
0.76,0.00419661462471701,0.00512958303817967,-0.0232983223181566,-0.0557772798034009,0.00235661760453162,0.00619439665504082,-0.0367528483944548,-0.047991091881742,0.52156938491557,-0.144963141214248,-0.144963141214248,-0.144963141214248
0.77,-0.0227246600780195,0.00448821265617154,0.0824585913832723,-0.052974259074085,0.0152138203298011,-0.0174669373240155,-0.0870150019276907,0.0451007855462155,0.52156938491557,-0.144963141214248,-0.144963141214248,-0.144963141214248
0.78,-0.0530278049453437,0.00483807168374714,0.204666825226737,-0.0543758686508908,0.030615444886657,-0.0435666107165862,-0.149119460930571,0.150361666696357,0.52156938491557,-0.144963141214248,-0.144963141214248,-0.144963141214248
0.79,-0.0522699621037354,0.00408021645929367,0.200817320224923,-0.0508726880236748,0.029580766640058,-0.0432871268354353,-0.144164086079984,0.148769428222993,0.52156938491557,-0.144963141214248,-0.144963141214248,-0.144963141214248
0.8,0.179601945110957,-0.082281480045593,-0.901008689645188,0.411133592318438,-0.160826332559062,0.114725722493844,0.805388469116797,-0.576365251695922,0.52156938491557,-0.144963141214248,-0.144963141214248,-0.144963141214248
0.81,0.0538078851654057,0.00483813359659285,-0.320068702913594,-0.0543761662905921,-0.0226144724776186,0.0490640568770153,0.112325280707053,-0.304604289791418,0.52156938491557,-0.144963141214248,-0.144963141214248,-0.144963141214248
0.82,-0.0243571773196499,0.00536272608154096,0.0901587411822752,-0.0571782941040817,0.0167854447632041,-0.0184466734699764,-0.0944965953141936,0.049682485870283,0.52156938491557,-0.144963141214248,-0.144963141214248,-0.144963141214248
0.83,0.0630540095884439,-0.0142951224119667,-0.317969635147124,0.0609505870452615,-0.043810541132843,0.047547819462097,0.211272152000402,-0.245323746763081,0.52156938491557,-0.144963141214248,-0.144963141214248,-0.144963141214248
0.84,0.0253701818240066,-0.0438401437654928,-0.148655157802126,0.179079368982457,-0.0506515610123073,0.000153942127900424,0.229334838358208,-0.0396649499122901,0.52156938491557,-0.144963141214248,-0.144963141214248,-0.144963141214248
0.85,0.054041028208627,-0.0435487686191924,-0.262814363557056,0.061651044589528,-0.0646839321796912,0.0251578396502299,0.184398832060146,-0.197153016019878,0.52156938491557,-0.144963141214248,-0.144963141214248,-0.144963141214248
