t,iq,id,vq,vd,ia,ib,va,vb,theta_e,omega,omega_obs,r
0,0,0,0,0,0,0,0,0,0,-0.144963141214248,0,0
0.01,-0.0146461649503591,-0.0242995596729627,0.0318607353935752,0.0623555666033168,0.0145727107579218,-0.0243436819158269,-0.0316722692804589,0.0624515052249839,1.5677762099521,-0.144963141214248,-18.1509112077874,-0.144963141214248
0.02,-0.0435477425961688,-0.0241823200371289,0.147057250055801,0.061651044589528,0.0434745106735193,-0.0243137288234109,-0.146870386318853,0.0620948928294835,1.5677762099521,-0.144963141214248,-18.1509112077874,-0.144963141214248
0.03,0.0341484313214173,0.0146657735629599,-0.260705311855171,-0.171796773124542,-0.0341039833033914,0.0147688387747841,0.260185277356405,-0.17258334894328,1.5677762099521,-0.144963141214248,-18.1509112077874,-0.144963141214248
0.04,0.00530540261750196,-0.0239478939313659,-0.0872064349756721,0.0602423200490407,-0.005377703749815,-0.0239317618043673,0.087387975835266,0.0599786720882693,1.5677762099521,-0.144963141214248,-18.1509112077874,-0.144963141214248
0.05,-0.0433133740616242,-0.0240651158393072,0.146353902972851,0.0609467355315323,0.0432404971776578,-0.0241958173408222,-0.146169169535968,0.0613884627963818,1.5677762099521,-0.144963141214248,-18.1509112077874,-0.144963141214248
0.06,0.0443293158146306,0.0343242907707781,-0.262816310314932,-0.289929672743828,-0.044225450437509,0.0344580137429541,0.261939491571388,-0.290722085263952,1.5677762099521,-0.144963141214248,-18.1509112077874,-0.144963141214248
0.07,0.0632260500341227,0.0147830309177996,-0.376958455867483,-0.172501401616227,-0.0631811152758061,0.0149739132673894,0.37643576313337,-0.173639071765998,1.5677762099521,-0.144963141214248,-18.1509112077874,-0.144963141214248
0.08,-0.0434892335065952,-0.0240651424134265,0.147057728635145,0.0609468952219977,0.0434163557403563,-0.0241963750300845,-0.146872991506147,0.0613907481186246,1.5677762099521,-0.144963141214248,-18.1509112077874,-0.144963141214248
0.09,-0.0240651512773195,-0.00464105132025594,0.0887555791813434,-0.0557772798034009,0.0240510250310552,-0.00471370961272301,-0.0889236280532385,-0.055508973616271,1.5677762099521,-0.144963141214248,-18.1509112077874,-0.144963141214248
0.1,0.0729968039758551,0.0340900063992373,-0.435613010059999,-0.288521799919392,-0.0728935154243383,0.034310309472099,0.434739655202535,-0.289836084290138,1.5677762099521,-0.144963141214248,-18.1509112077874,-0.144963141214248
0.11,-0.0433721356315898,-0.023948017955522,0.146706334370886,0.0602430653409176,0.0432996121283918,-0.024078897457605,-0.146523724489686,0.0606858601972728,1.5677762099521,-0.144963141214248,-18.1509112077874,-0.144963141214248
0.12,0.0446221181220243,0.0346171993921017,-0.264574186034159,-0.291337865001311,-0.0445173667926475,0.0347518053242894,0.263693106375047,-0.292135580081301,1.5677762099521,-0.144963141214248,-18.1509112077874,-0.144963141214248
0.13,-0.0437235887540002,-0.0241823200371289,0.148112868903805,0.061651044589528,0.0436503560293955,-0.0243142598985466,-0.147926000352656,0.0620980809168995,1.5677762099521,-0.144963141214248,-18.1509112077874,-0.144963141214248
0.14,-0.00393830451982934,-0.00423111568667376,-0.0313644180591447,-0.0578887696058859,0.00392550811467345,-0.00424299051219277,0.0311894444378458,-0.057983229664539,1.5677762099521,-0.144963141214248,-18.1509112077874,-0.144963141214248
0.15,-0.00464105132025594,-0.00464105132025594,-0.027848879358281,-0.0557772798034009,0.00462701365855917,-0.00465504665046503,0.0276802987059917,-0.0558611321701058,1.5677762099521,-0.144963141214248,-18.1509112077874,91.7158905543538
0.16,-0.00464105132025594,-0.00464105132025594,-0.027848879358281,-0.0557772798034009,0.00462701365855917,-0.00465504665046503,0.0276802987059917,-0.0558611321701058,1.5677762099521,-0.144963141214248,-18.1509112077874,91.7158905543538
0.17,-0.00464105132025594,-0.00464105132025594,-0.027848879358281,-0.0557772798034009,0.00462701365855917,-0.00465504665046503,0.0276802987059917,-0.0558611321701058,1.5677762099521,-0.144963141214248,-18.1509112077874,91.7158905543538
0.18,-0.00464105132025594,-0.00464105132025594,-0.027848879358281,-0.0557772798034009,0.00462701365855917,-0.00465504665046503,0.0276802987059917,-0.0558611321701058,1.5677762099521,-0.144963141214248,-18.1509112077874,91.7158905543538
0.19,-0.00464105132025594,-0.00464105132025594,-0.027848879358281,-0.0557772798034009,0.00462701365855917,-0.00465504665046503,0.0276802987059917,-0.0558611321701058,1.5677762099521,-0.144963141214248,-18.1509112077874,91.7158905543538
0.2,-0.00464105132025594,-0.00464105132025594,-0.027848879358281,-0.0557772798034009,0.00462701365855917,-0.00465504665046503,0.0276802987059917,-0.0558611321701058,1.5677762099521,-0.144963141214248,-18.1509112077874,91.7158905543538
0.21,-0.00464105132025594,-0.00464105132025594,-0.027848879358281,-0.0557772798034009,0.00462701365855917,-0.00465504665046503,0.0276802987059917,-0.0558611321701058,1.5677762099521,-0.144963141214248,-18.1509112077874,91.7158905543538
0.22,-0.00464105132025594,-0.00464105132025594,-0.027848879358281,-0.0557772798034009,0.00462701365855917,-0.00465504665046503,0.0276802987059917,-0.0558611321701058,1.5677762099521,-0.144963141214248,-18.1509112077874,91.7158905543538
0.23,-0.00464105132025594,-0.00464105132025594,-0.027848879358281,-0.0557772798034009,0.00462701365855917,-0.00465504665046503,0.0276802987059917,-0.0558611321701058,1.5677762099521,-0.144963141214248,-18.1509112077874,91.7158905543538
0.24,-0.00464105132025594,-0.00464105132025594,-0.027848879358281,-0.0557772798034009,0.00462701365855917,-0.00465504665046503,0.0276802987059917,-0.0558611321701058,1.5677762099521,-0.144963141214248,-18.1509112077874,91.7158905543538
0.25,-0.00464105132025594,-0.00464105132025594,-0.027848879358281,-0.0557772798034009,0.00462701365855917,-0.00465504665046503,0.0276802987059917,-0.0558611321701058,1.5677762099521,-0.144963141214248,-18.1509112077874,91.7158905543538
0.26,-0.00464105132025594,-0.00464105132025594,-0.027848879358281,-0.0557772798034009,0.00462701365855917,-0.00465504665046503,0.0276802987059917,-0.0558611321701058,1.5677762099521,-0.144963141214248,-18.1509112077874,91.7158905543538
0.27,-0.00464105132025594,-0.00464105132025594,-0.027848879358281,-0.0557772798034009,0.00462701365855917,-0.00465504665046503,0.0276802987059917,-0.0558611321701058,1.5677762099521,-0.144963141214248,-18.1509112077874,91.7158905543538
0.28,-0.00464105132025594,-0.00464105132025594,-0.027848879358281,-0.0557772798034009,0.00462701365855917,-0.00465504665046503,0.0276802987059917,-0.0558611321701058,1.5677762099521,-0.144963141214248,-18.1509112077874,91.7158905543538
0.29,-0.00464105132025594,-0.00464105132025594,-0.027848879358281,-0.0557772798034009,0.00462701365855917,-0.00465504665046503,0.0276802987059917,-0.0558611321701058,1.5677762099521,-0.144963141214248,-18.1509112077874,91.7158905543538
0.3,-0.00464105132025594,-0.00464105132025594,-0.027848879358281,-0.0557772798034009,0.00462701365855917,-0.00465504665046503,0.0276802987059917,-0.0558611321701058,1.5677762099521,-0.144963141214248,-18.1509112077874,91.7158905543538
0.31,-0.00464105132025594,-0.00464105132025594,-0.027848879358281,-0.0557772798034009,0.00462701365855917,-0.00465504665046503,0.0276802987059917,-0.0558611321701058,1.5677762099521,-0.144963141214248,-18.1509112077874,91.7158905543538
0.32,-0.00464105132025594,-0.00464105132025594,-0.027848879358281,-0.0557772798034009,0.00462701365855917,-0.00465504665046503,0.0276802987059917,-0.0558611321701058,1.5677762099521,-0.144963141214248,-18.1509112077874,91.7158905543538
0.33,-0.00464105132025594,-0.00464105132025594,-0.027848879358281,-0.0557772798034009,0.00462701365855917,-0.00465504665046503,0.0276802987059917,-0.0558611321701058,1.5677762099521,-0.144963141214248,-18.1509112077874,91.7158905543538
0.34,-0.00464105132025594,-0.00464105132025594,-0.027848879358281,-0.0557772798034009,0.00462701365855917,-0.00465504665046503,0.0276802987059917,-0.0558611321701058,1.5677762099521,-0.144963141214248,-18.1509112077874,91.7158905543538
0.35,-0.00464105132025594,-0.00464105132025594,-0.027848879358281,-0.0557772798034009,0.00462701365855917,-0.00465504665046503,0.0276802987059917,-0.0558611321701058,1.5677762099521,-0.144963141214248,-18.1509112077874,91.7158905543538
0.36,-0.00464105132025594,-0.00464105132025594,-0.027848879358281,-0.0557772798034009,0.00462701365855917,-0.00465504665046503,0.0276802987059917,-0.0558611321701058,1.5677762099521,-0.144963141214248,-18.1509112077874,91.7158905543538
0.37,-0.00464105132025594,-0.00464105132025594,-0.027848879358281,-0.0557772798034009,0.00462701365855917,-0.00465504665046503,0.0276802987059917,-0.0558611321701058,1.5677762099521,-0.144963141214248,-18.1509112077874,91.7158905543538
0.38,-0.00464105132025594,-0.00464105132025594,-0.027848879358281,-0.0557772798034009,0.00462701365855917,-0.00465504665046503,0.0276802987059917,-0.0558611321701058,1.5677762099521,-0.144963141214248,-18.1509112077874,91.7158905543538
0.39,-0.00464105132025594,-0.00464105132025594,-0.027848879358281,-0.0557772798034009,0.00462701365855917,-0.00465504665046503,0.0276802987059917,-0.0558611321701058,1.5677762099521,-0.144963141214248,-18.1509112077874,91.7158905543538
0.4,-0.00464105132025594,-0.00464105132025594,-0.027848879358281,-0.0557772798034009,0.00462701365855917,-0.00465504665046503,0.0276802987059917,-0.0558611321701058,1.5677762099521,-0.144963141214248,-18.1509112077874,91.7158905543538
0.41,-0.00464105132025594,-0.00464105132025594,-0.027848879358281,-0.0557772798034009,0.00462701365855917,-0.00465504665046503,0.0276802987059917,-0.0558611321701058,1.5677762099521,-0.144963141214248,-18.1509112077874,91.7158905543538
0.42,-0.00464105132025594,-0.00464105132025594,-0.027848879358281,-0.0557772798034009,0.00462701365855917,-0.00465504665046503,0.0276802987059917,-0.0558611321701058,1.5677762099521,-0.144963141214248,-18.1509112077874,91.7158905543538
0.43,-0.00464105132025594,-0.00464105132025594,-0.027848879358281,-0.0557772798034009,0.00462701365855917,-0.00465504665046503,0.0276802987059917,-0.0558611321701058,1.5677762099521,-0.144963141214248,-18.1509112077874,91.7158905543538
0.44,-0.00464105132025594,-0.00464105132025594,-0.027848879358281,-0.0557772798034009,0.00462701365855917,-0.00465504665046503,0.0276802987059917,-0.0558611321701058,1.5677762099521,-0.144963141214248,-18.1509112077874,91.7158905543538
0.45,-0.00464105132025594,-0.00464105132025594,-0.027848879358281,-0.0557772798034009,0.00462701365855917,-0.00465504665046503,0.0276802987059917,-0.0558611321701058,1.5677762099521,-0.144963141214248,-18.1509112077874,91.7158905543538
0.46,-0.00464105132025594,-0.00464105132025594,-0.027848879358281,-0.0557772798034009,0.00462701365855917,-0.00465504665046503,0.0276802987059917,-0.0558611321701058,1.5677762099521,-0.144963141214248,-18.1509112077874,91.7158905543538
0.47,-0.00464105132025594,-0.00464105132025594,-0.027848879358281,-0.0557772798034009,0.00462701365855917,-0.00465504665046503,0.0276802987059917,-0.0558611321701058,1.5677762099521,-0.144963141214248,-18.1509112077874,91.7158905543538
0.48,-0.00464105132025594,-0.00464105132025594,-0.027848879358281,-0.0557772798034009,0.00462701365855917,-0.00465504665046503,0.0276802987059917,-0.0558611321701058,1.5677762099521,-0.144963141214248,-18.1509112077874,91.7158905543538
0.49,-0.00464105132025594,-0.00464105132025594,-0.027848879358281,-0.0557772798034009,0.00462701365855917,-0.00465504665046503,0.0276802987059917,-0.0558611321701058,1.5677762099521,-0.144963141214248,-18.1509112077874,91.7158905543538
0.5,-0.00464105132025594,-0.00464105132025594,-0.027848879358281,-0.0557772798034009,0.00462701365855917,-0.00465504665046503,0.0276802987059917,-0.0558611321701058,1.5677762099521,-0.144963141214248,-18.1509112077874,91.7158905543538
0.51,-0.00464105132025594,-0.00464105132025594,-0.027848879358281,-0.0557772798034009,0.00462701365855917,-0.00465504665046503,0.0276802987059917,-0.0558611321701058,1.5677762099521,-0.144963141214248,-18.1509112077874,91.7158905543538
0.52,-0.00464105132025594,-0.00464105132025594,-0.027848879358281,-0.0557772798034009,0.00462701365855917,-0.00465504665046503,0.0276802987059917,-0.0558611321701058,1.5677762099521,-0.144963141214248,-18.1509112077874,91.7158905543538
0.53,-0.00464105132025594,-0.00464105132025594,-0.027848879358281,-0.0557772798034009,0.00462701365855917,-0.00465504665046503,0.0276802987059917,-0.0558611321701058,1.5677762099521,-0.144963141214248,-18.1509112077874,91.7158905543538
0.54,-0.00464105132025594,-0.00464105132025594,-0.027848879358281,-0.0557772798034009,0.00462701365855917,-0.00465504665046503,0.0276802987059917,-0.0558611321701058,1.5677762099521,-0.144963141214248,-18.1509112077874,91.7158905543538
0.55,-0.00464105132025594,-0.00464105132025594,-0.027848879358281,-0.0557772798034009,0.00462701365855917,-0.00465504665046503,0.0276802987059917,-0.0558611321701058,1.5677762099521,-0.144963141214248,-18.1509112077874,91.7158905543538
0.56,-0.00464105132025594,-0.00464105132025594,-0.027848879358281,-0.0557772798034009,0.00462701365855917,-0.00465504665046503,0.0276802987059917,-0.0558611321701058,1.5677762099521,-0.144963141214248,-18.1509112077874,91.7158905543538
0.57,-0.00464105132025594,-0.00464105132025594,-0.027848879358281,-0.0557772798034009,0.00462701365855917,-0.00465504665046503,0.0276802987059917,-0.0558611321701058,1.5677762099521,-0.144963141214248,-18.1509112077874,91.7158905543538
0.58,-0.00464105132025594,-0.00464105132025594,-0.027848879358281,-0.0557772798034009,0.00462701365855917,-0.00465504665046503,0.0276802987059917,-0.0558611321701058,1.5677762099521,-0.144963141214248,-18.1509112077874,91.7158905543538
0.59,-0.00464105132025594,-0.00464105132025594,-0.027848879358281,-0.0557772798034009,0.00462701365855917,-0.00465504665046503,0.0276802987059917,-0.0558611321701058,1.5677762099521,-0.144963141214248,-18.1509112077874,91.7158905543538
0.6,-0.00464105132025594,-0.00464105132025594,-0.027848879358281,-0.0557772798034009,0.00462701365855917,-0.00465504665046503,0.0276802987059917,-0.0558611321701058,1.5677762099521,-0.144963141214248,-18.1509112077874,91.7158905543538
0.61,-0.00464105132025594,-0.00464105132025594,-0.027848879358281,-0.0557772798034009,0.00462701365855917,-0.00465504665046503,0.0276802987059917,-0.0558611321701058,1.5677762099521,-0.144963141214248,-18.1509112077874,91.7158905543538
0.62,-0.00464105132025594,-0.00464105132025594,-0.027848879358281,-0.0557772798034009,0.00462701365855917,-0.00465504665046503,0.0276802987059917,-0.0558611321701058,1.5677762099521,-0.144963141214248,-18.1509112077874,91.7158905543538
0.63,-0.00464105132025594,-0.00464105132025594,-0.027848879358281,-0.0557772798034009,0.00462701365855917,-0.00465504665046503,0.0276802987059917,-0.0558611321701058,1.5677762099521,-0.144963141214248,-18.1509112077874,91.7158905543538
0.64,-0.00464105132025594,-0.00464105132025594,-0.027848879358281,-0.0557772798034009,0.00462701365855917,-0.00465504665046503,0.0276802987059917,-0.0558611321701058,1.5677762099521,-0.144963141214248,-18.1509112077874,91.7158905543538
0.65,-0.00464105132025594,-0.00464105132025594,-0.027848879358281,-0.0557772798034009,0.00462701365855917,-0.00465504665046503,0.0276802987059917,-0.0558611321701058,1.5677762099521,-0.144963141214248,-18.1509112077874,91.7158905543538
0.66,-0.00464105132025594,-0.00464105132025594,-0.027848879358281,-0.0557772798034009,0.00462701365855917,-0.00465504665046503,0.0276802987059917,-0.0558611321701058,1.5677762099521,-0.144963141214248,-18.1509112077874,91.7158905543538
0.67,-0.0818728867053959,-0.0923434506755916,1.02407002013913,0.412534000961507,0.0815936257333043,-0.092590294846941,-1.02281945082668,0.415624925994204,1.5677762099521,-0.144963141214248,-18.1509112077874,91.7158905543538
0.68,0.161867994053969,0.0150168634768489,0.146362279036516,-0.173906559387481,-0.161821903233617,0.0155056545036967,-0.146886828874764,-0.173463735765924,1.5677762099521,-0.144963141214248,-20.2872101309404,91.7158905543538
0.69,0.19972580969288,0.0340915744646237,0.0346560417766601,-0.288531222812733,-0.199621938451738,0.0346946133531421,-0.0355272804070753,-0.288425241815472,1.5677762099521,-0.144963141214248,-26.0857357794976,91.7158905543538
0.7,0.190246808222932,0.0147835890353874,0.0922594711295507,-0.172504755483066,-0.190201292494595,0.0153580883304543,-0.0927800341011801,-0.172225334807515,1.5677762099521,-0.144963141214248,-36.1568592743606,91.7158905543538
0.71,0.132089519949203,-0.0240657005398492,0.383078571436886,0.0609502491419284,-0.132161598665467,-0.0236666656095172,-0.382892747793959,0.0621069114622544,1.5677762099521,-0.144963141214248,-51.9991758785246,91.7158905543538
0.72,0.0837611004745448,-0.0239490987526889,0.615244127973822,0.0602495601188232,-0.0838330474444672,-0.0236960216058843,-0.615059361687907,0.062107391676389,1.5677762099521,-0.144963141214248,-70.0132818458013,91.7158905543538
0.73,0.131972927017182,-0.0240657182500216,0.384128473356571,0.0609503555667414,-0.13204500631866,-0.0236670354433513,-0.383942644604099,0.0621101887082328,1.5677762099521,-0.144963141214248,-86.1737452130573,91.7158905543538
0.74,0.122377195339407,-0.00464105132025594,0.500036365427974,-0.0557772798034009,-0.122390653728115,-0.00427143728754261,-0.500202538633524,-0.0542668594748513,1.5677762099521,-0.144963141214248,-94.1421157599352,91.7158905543538
0.75,0.121910859067001,-0.00493251149050997,0.502135956477039,-0.0550766972585089,-0.121925199824889,-0.00456430451646783,-0.502300004269373,-0.0535599391243499,1.5677762099521,-0.144963141214248,-86.2072911882251,91.7158905543538
0.76,0.122377195339407,-0.00464105132025594,0.500036365427974,-0.0557772798034009,-0.122390653728115,-0.00427143728754261,-0.500202538633524,-0.0542668594748513,1.5677762099521,-0.144963141214248,-70.0707671908736,91.7158905543538
0.77,0.123426292481747,-0.0526782586683935,0.494788185567712,0.0581486642529486,-0.123584823844443,-0.0523052571684899,-0.494610313568418,0.0596427149243067,1.5677762099521,-0.144963141214248,-52.0544376823457,91.7158905543538
0.78,0.0837608878464761,-0.0239492050667232,0.673899001378928,-0.0564777026050693,-0.0838328351384486,-0.0236961285615944,-0.674066497030821,-0.0544421944052639,1.5677762099521,-0.144963141214248,-34.0496013867451,91.7158905543538
0.79,0.132322652643057,0.0149002173966153,0.440682798394549,-0.173205604196326,-0.132277048849951,0.0152997787078584,-0.441203889006166,-0.17187390276508,1.5677762099521,-0.144963141214248,-18.1509112077874,91.7158905543538
0.8,0.1226685447549,-0.00464105132025594,0.498637169957832,-0.0557772798034009,-0.122682001814894,-0.00427055737960337,-0.498803349544482,-0.0542710852022332,1.5677762099521,-0.144963141214248,-2.28126206436718,91.7158905543538
0.81,0.112956153714384,-0.0240657891259915,0.556941420071775,-0.0557772798034009,-0.11302831995685,-0.0237245391090369,-0.557107333759011,-0.0540949998221397,1.5677762099521,-0.144963141214248,-0.144963141214248,91.7158905543538
0.82,0.19129598510057,0.015308044592702,0.262622735400687,-0.175306233893209,-0.191248880672755,0.0158857101279058,-0.263150982201502,-0.174512284259718,1.5677762099521,-0.144963141214248,-0.144963141214248,91.7158905543538
0.83,0.161517989369217,0.015016730588747,0.323724898061495,-0.173905760829958,-0.161471900546416,0.0155044645627643,-0.324248636617022,-0.172927282193338,1.5677762099521,-0.144963141214248,-0.144963141214248,91.7158905543538
0.84,0.161168471930609,-0.0241823200371289,0.325823079792908,0.061651044589528,-0.161240770234848,-0.0236954628758032,-0.325635400785562,0.0626347857020524,1.5677762099521,-0.144963141214248,-0.144963141214248,91.7158905543538
0.85,0.103418403988155,-0.0532029844296262,0.672851120409452,0.0609509944338037,-0.103578611328516,-0.0528904066058544,-0.672663972993634,0.0629828023760804,1.5677762099521,-0.144963141214248,-0.144963141214248,91.7158905543538
