t,iq,id,vq,vd,ia,ib,va,vb,theta_e,omega,omega_obs,r,omega_ekf
0,0,0,0,0,0,0,0,0,0,-0.144963141214248,0,0,0
0.01,0.0828256674925738,0.0537482596238123,-0.494968667240625,-0.406653113197978,0.0828230907938464,-0.0537522300889313,-0.494949172387506,0.406676840718145,-1.57084426515748,-0.144963141214248,-0.144963141214248,-0.144963141214248,3.68938724232117e-10
0.02,-0.0530838564848081,-0.00464105132025594,0.204303320608105,-0.173205604196326,-0.0530836339394116,0.00464359606808173,0.204311623566405,0.173195810030649,-1.57084426515748,-0.144963141214248,-0.144963141214248,-0.144963141214248,-1.11688590839159
0.03,0.0342069909062302,0.0147829697929872,-0.261408773296251,-0.173205604196326,0.0342062821955592,-0.0147846096031332,-0.261400469802829,0.173218135505858,-1.57084426515748,-0.144963141214248,-0.144963141214248,-0.144963141214248,-3.86922445451199
0.04,-0.0334839639979004,-0.00440655612142384,0.0869954886115016,-0.173910174065253,-0.0334837527163408,0.00440816128276679,0.0870038254805183,0.173906003444149,-1.57084426515748,-0.144963141214248,-0.144963141214248,-0.144963141214248,-9.43707533364202
0.05,0.0925963018481655,0.0830015388957054,-0.55362258331518,-0.524081437582358,0.0925923227839033,-0.0830059777154233,-0.553597459073075,0.52410797674029,-1.57084426515748,-0.144963141214248,-0.144963141214248,-0.144963141214248,-13.6617182605397
0.06,-0.00481692271991312,-0.00464105132025594,-0.0854470250688964,-0.173205604196326,-0.00481670022997739,0.00464128223031097,-0.0854387217776617,0.173209700187773,-1.57084426515748,-0.144963141214248,-0.144963141214248,-0.144963141214248,-4.28279800429862
0.07,-0.00464105132025594,-0.00464105132025594,-0.086502795445643,-0.173205604196326,-0.00464082883052229,0.00464127379932405,-0.0864944921531951,0.173209750799676,-1.57084426515748,-0.144963141214248,-0.144963141214248,-0.144963141214248,-3.46068248923701
0.08,-0.0532011041121183,-0.00464105132025594,0.205007167691254,-0.173205604196326,-0.0532008815665871,0.004643601688741,0.205015470648744,0.173195776289372,-1.57084426515748,-0.144963141214248,-0.144963141214248,-0.144963141214248,0.368855343043316
0.09,-0.091990522522706,-0.02394782482774,0.379561221990021,-0.057186419604694,-0.0919893743974956,0.0239522346752442,0.379563962977205,0.0571682239955087,-1.57084426515748,-0.144963141214248,-0.144963141214248,-0.144963141214248,0.525849548470803
0.1,-0.0340702019960471,-0.00464105132025594,0.0315088836511807,-0.173205604196326,-0.0340699794724981,0.00464268458461915,0.031517186808028,0.173204093513017,-1.57084426515748,-0.144963141214248,-0.144963141214248,-0.144963141214248,-0.0436957290653048
0.11,0.0432155158289973,0.0337966242857116,-0.316191531148458,-0.287815648978123,0.0432138956245122,-0.0337986959279441,-0.316177733374207,0.287830806351671,-1.57084426515748,-0.144963141214248,-0.144963141214248,-0.144963141214248,-0.572021353252001
0.12,-0.00481692272151259,-0.00464105132025594,-0.0854470250592947,-0.173205604196326,-0.00481670023157686,0.00464128223031105,-0.0854387217680599,0.173209700187773,-1.57084426515748,-0.144963141214248,-0.144963141214248,-0.144963141214248,-1.01179994355881
0.13,-0.0526148660718944,-0.00411343709593113,0.202191779805424,-0.175319313911085,-0.0526146688199988,0.00411595936173071,0.202200184093932,0.175309620966787,-1.57084426515748,-0.144963141214248,-0.144963141214248,-0.144963141214248,1.94978105116827
0.14,0.0342069909110994,0.0147829697954217,-0.261408773318173,-0.173205604196326,0.0342062822004282,-0.014784609605568,-0.261400469824751,0.173218135505859,-1.57084426515748,-0.144963141214248,-0.144963141214248,-0.144963141214248,-2.84726102251305
0.15,0.0147829697908545,0.034206990901965,-0.144452864579216,-0.289224788775146,0.0147813299467361,-0.0342076995340253,-0.144438999450446,0.28923171327661,-1.57084426515748,-0.144963141214248,-0.144963141214248,-0.144963141214248,-4.82993731677925
0.16,-0.131424802776823,-0.0924595129446294,0.557634511122585,0.295803123493642,-0.131420370268156,0.0924658131282351,0.557620330164456,-0.295829855239125,-1.57084426515748,-0.144963141214248,-0.144963141214248,-0.144963141214248,1.83409128234901
0.17,0.0147829697904987,0.0342069909012534,-0.203106780664442,-0.289929358680063,0.0147813299463803,-0.0342076995333137,-0.203092881692349,0.289939094953412,-1.57084426515748,-0.144963141214248,-0.144963141214248,-0.144963141214248,-10.5354840859277
0.18,0.00512958303817967,0.0149002173966153,-0.145156711533001,-0.173205604196326,0.00512886874026169,-0.0149004632833058,-0.145148408173158,0.173212562572372,-1.57084426515748,-0.144963141214248,-0.144963141214248,-0.144963141214248,-0.0762692714892474
0.19,-0.00440655610731228,-0.00452380371378411,-0.087558565882724,-0.173205604196326,-0.00440633923850635,0.0045240149516704,-0.087550262589063,0.173209801411582,-1.57084426515748,-0.144963141214248,-0.144963141214248,-0.144963141214248,4.49040747335031
0.2,-0.00469967512138588,-0.00475829892251583,-0.0861508719792583,-0.17250103431031,-0.00469944701092681,0.00475852421177825,-0.0861426024631415,0.172505164043835,-1.57084426515748,-0.144963141214248,-0.144963141214248,-0.144963141214248,10.3947708258273
0.21,0.0825325484612885,0.0535137644030494,-0.493209049776147,-0.405948543241797,0.0825299830042148,-0.0535177208167914,-0.49318958870098,0.405972186409594,-1.57084426515748,-0.144963141214248,-0.144963141214248,-0.144963141214248,5.04543618995971
0.22,-0.0436649649526926,-0.0240650724345138,0.147760945436354,-0.0564818496915523,-0.0436638112623521,0.0240671656337833,0.147763652913959,0.0564747662088768,-1.57084426515748,-0.144963141214248,-0.144963141214248,-0.144963141214248,9.0155045080997
0.23,-0.0729182442221241,-0.024065072429946,0.265068777597364,-0.0564818497190011,-0.0729170904981706,0.0240685679835234,0.265071484940179,0.0564691426909356,-1.57084426515748,-0.144963141214248,-0.144963141214248,-0.144963141214248,7.79355047249977
0.24,0.0631671511739414,0.0342069909075457,-0.435258980753156,-0.406653113201611,0.0631655112742272,-0.0342100189980356,-0.435239485968645,0.406673978337178,-1.57084426515748,-0.144963141214248,-0.144963141214248,-0.144963141214248,10.5265889716386
0.25,-0.0437822125577692,-0.0240650724295908,0.0901627997808983,-0.0564818497211359,-0.0437810588672943,0.0240671712495185,0.0901655073246877,0.05647752739925,-1.57084426515748,-0.144963141214248,-0.144963141214248,-0.144963141214248,12.1614005901755
0.26,0.0925963018510087,0.0827670436909366,-0.553622583327981,-0.523376867698797,0.0925923340280626,-0.0827714825109241,-0.553597492861802,0.523403406857539,-1.57084426515748,-0.144963141214248,-0.144963141214248,-0.144963141214248,12.3030193097647
0.27,0.0146070983768804,-0.00464105132025594,-0.202051010203886,-0.173205604196326,0.0146073208444971,0.00464035107454515,-0.202042706778668,0.173215289991889,-1.57084426515748,-0.144963141214248,-0.144963141214248,-0.144963141214248,16.3674163447346
0.28,-0.072683749018421,-0.072507877612978,0.26366108372606,0.176965659299731,-0.0726802730259783,0.0725113618695764,0.263652599979165,-0.176978298577015,-1.57084426515748,-0.144963141214248,-0.144963141214248,-0.144963141214248,13.0781508517739
0.29,0.0342069909146552,0.0147829697971996,-0.203106780704668,-0.173205604196326,0.034206282203984,-0.0147846096073461,-0.203098477278238,0.173215340603798,-1.57084426515748,-0.144963141214248,1.95929129704216,-0.144963141214248,16.1838842622997
0.3,-0.130779940950045,-0.092049146328253,0.554115276385084,0.293689413789891,-0.130775528114423,0.0920554155987101,0.554101196758781,-0.293715976831452,-1.57084426515748,-0.144963141214248,-0.144963141214248,-0.144963141214248,15.5252043495099
0.31,0.00512958303817967,0.0149002173966153,-0.086502795445643,-0.173205604196326,0.00512886874026169,-0.0149004632833058,-0.0864944921531951,0.173209750799676,-1.57084426515748,-0.144963141214248,-0.144963141214248,-0.144963141214248,14.9503178537836
0.32,-0.0339529543955646,-0.00464105132025594,0.0894589528164431,-0.0564818497019126,-0.0339527318721503,0.00464267896396117,0.0894616603610403,0.0564775611212976,-1.57084426515748,-0.144963141214248,-0.144963141214248,-0.144963141214248,15.0023519374848
0.33,-0.0344805685961372,-0.00505141792070131,0.0336204244089488,-0.171091894576723,-0.0344803263998137,0.00505307085689585,0.0336286262355918,0.171090282672036,-1.57084426515748,-0.144963141214248,-0.144963141214248,-0.144963141214248,15.1660012194099
0.34,-0.0337184591861746,-0.00452380371556094,0.0301011897816936,-0.173205604196326,-0.0337182422836879,0.00452542011808452,0.0301094929401584,0.173204160995556,-1.57084426515748,-0.144963141214248,-0.144963141214248,-0.144963141214248,14.1468945350115
0.35,0.034500109913728,0.0147829697961322,-0.262816467168777,-0.173205604196326,0.03449940120272,-0.0147846236579236,-0.262808163673737,0.173218202988397,-1.57084426515748,-0.144963141214248,1.95929129715885,-0.144963141214248,13.8765913058764
0.36,-0.091462908298206,-0.0235374582093555,0.377097757657115,-0.0585955594145265,-0.0914617798459056,0.0235418427643693,0.377100566198985,0.0585774818981684,-1.57084426515748,-0.144963141214248,-0.144963141214248,-0.144963141214248,21.1726507524358
0.37,-0.0337770829943079,-0.00464105132025594,0.0301011898048489,-0.173205604196326,-0.0337768604710957,0.00464267053297417,0.0301094929633137,0.173204160995555,-1.57084426515748,-0.144963141214248,-0.144963141214248,-0.144963141214248,12.76717312166
0.38,0.0630499035563603,0.0339138718891617,-0.434907057211548,-0.288520218874496,0.0630482777084266,-0.0339168943593296,-0.434893225524961,0.288541067275165,-1.57084426515748,-0.144963141214248,-0.144963141214248,-0.144963141214248,21.9449142416098
0.39,-0.151024695295002,-0.111883534060662,0.61664035067633,0.412526878009093,-0.151019331608047,0.111890773808703,0.616620574104737,-0.412556438263785,-1.57084426515748,-0.144963141214248,-0.144963141214248,-0.144963141214248,16.3819221592628
0.4,0.00477784022089572,0.0144898507764507,-0.14339709414853,-0.171796464382211,0.00477714559568573,-0.014490079801638,-0.143388858342563,0.1718033384067,-1.57084426515748,-0.144963141214248,-0.144963141214248,-0.144963141214248,22.710626655298
0.41,0.0434500110618513,0.0339138719065144,-0.317599225152567,-0.288520218944014,0.0434483852364379,-0.0339159547899296,-0.317585393600769,0.288535443799298,-1.57084426515748,-0.144963141214248,-0.144963141214248,-0.144963141214248,21.6790812560923
0.42,-0.00458242751719792,-0.00452380371413991,-0.086854718923602,-0.173205604196326,-0.00458221064818989,0.00452402338301361,-0.0868464156307498,0.173209767670312,-1.57084426515748,-0.144963141214248,-0.144963141214248,-0.144963141214248,24.8101263821562
0.43,-0.0340702019974686,-0.00464105132025594,0.0901627997470765,-0.173205604196326,-0.0340699794739196,0.00464268458461922,0.090171102836528,0.173201281740321,-1.57084426515748,-0.144963141214248,-0.144963141214248,-0.144963141214248,25.4091364420839
0.44,-0.00452380371378411,-0.00464105132025594,-0.087206642403697,-0.173205604196326,-0.00452358122418519,0.00464126817866578,-0.0871983391104404,0.173209784540947,-1.57084426515748,-0.144963141214248,-0.144963141214248,-0.144963141214248,26.2047003512911
0.45,0.0346173575168763,0.0150174649988752,-0.263520314106879,-0.173910174082343,0.0346166375644176,-0.0150191244810552,-0.263511976835104,0.173922806614874,-1.57084426515748,-0.144963141214248,-0.144963141214248,-0.144963141214248,25.3947836344863
0.46,-0.00458242751684212,-0.00452380371342831,-0.0868547189257379,-0.173910174109792,-0.00458221064783413,0.004524023382302,-0.0868463818569577,0.173914337582968,-1.57084426515748,-0.144963141214248,-0.144963141214248,-0.144963141214248,26.9594517805673
0.47,0.015369207807078,-0.00411343710848538,-0.14762017580517,-0.0585955593560197,0.0153694049808576,0.00411270032910265,-0.147617366660379,0.0586026359582007,-1.57084426515748,-0.144963141214248,-0.144963141214248,-0.144963141214248,26.1121962108143
0.48,-0.0917560272959018,-0.0238305772155819,0.378505451479334,-0.0571864196345948,-0.0917548847916194,0.0238349758219036,0.378508192467733,0.0571682746373189,-1.57084426515748,-0.144963141214248,-0.144963141214248,-0.144963141214248,27.2876994903948
0.49,-0.0437235887540002,0.0146657221906745,0.0894589528164431,-0.289224788808682,-0.0437242917544675,-0.0146636261365726,0.0894728176764398,0.289220499960636,-1.57084426515748,-0.144963141214248,-0.144963141214248,-0.144963141214248,25.6014012135231
0.5,0.0427465253776952,-0.00528591316171577,-0.314079990150536,-0.169682754607651,0.0427467787265993,0.00528386395721004,-0.314071855476233,0.169697810893121,-1.57084426515748,-0.144963141214248,-0.144963141214248,-0.144963141214248,26.7828500941286
0.51,-0.00469967512189238,-0.00475829892352883,-0.0861508719762178,-0.172501034304222,-0.00469944701143326,0.00475852421279127,-0.0861426024601012,0.172505164037747,-1.57084426515748,-0.144963141214248,-0.144963141214248,-0.144963141214248,24.2965490224116
0.52,-0.00493417033999083,-0.00493417033999083,-0.0850951015124608,-0.17179646435658,-0.00493393379827453,0.00493440687036797,-0.085086865773487,0.171800543479007,-1.57084426515748,-0.144963141214248,-0.144963141214248,-0.144963141214248,19.9854449603965
0.53,0.0148415935948009,-0.00452380371662726,-0.20345870414987,-0.173205604196326,0.0148418104414901,0.00452309222973441,-0.203450400723035,0.173215357474432,-1.57084426515748,-0.144963141214248,1.95929129750856,-0.144963141214248,22.8833227360833
0.54,0.00507095923847131,0.0147829697971986,-0.144804788075151,-0.173205604196326,0.00507025056127862,-0.0147832128736948,-0.144796484715711,0.173212545701737,-1.57084426515748,-0.144963141214248,-0.144963141214248,-0.144963141214248,17.6930193195403
0.55,-0.0142944380747071,-0.02394782482916,-0.0285527263014032,-0.0571864195961612,-0.0142932900387728,0.023948510053598,-0.0285499848452784,0.0571877883013972,-1.57084426515748,-0.144963141214248,-0.144963141214248,-0.144963141214248,21.5288042993575
0.56,0.00483646403874834,0.0146657221970702,-0.143749017697326,-0.289224788847116,0.00483576098248306,-0.0146659540323853,-0.143735152569362,0.289231679607313,-1.57084426515748,-0.144963141214248,-0.144963141214248,-0.144963141214248,18.2519078174193
0.57,-0.0725665014119459,-0.0239478248284484,0.204655244155393,-0.0571864196004374,-0.0725653533090545,0.0239513035201861,0.204657985343552,0.0571766086974324,-1.57084426515748,-0.144963141214248,-0.144963141214248,-0.144963141214248,19.7106726346805
0.58,-0.0532597279121835,-0.0533183517122466,0.147057098523865,0.0609464747163334,-0.0532571718565099,0.0533209048351283,0.147054176680688,-0.0609535243228102,-1.57084426515748,-0.144963141214248,-0.144963141214248,-0.144963141214248,20.8560975673915
0.59,-0.111883534053662,-0.0533183517053949,0.43997475544585,0.0609464746888846,-0.111880977930627,0.0533237151575504,0.439971833266099,-0.0609675662882009,-1.57084426515748,-0.144963141214248,-0.144963141214248,-0.144963141214248,22.5072725210091
0.6,0.00501233543769771,0.0146657221956514,-0.0861508719845948,-0.172501034320993,0.00501163238123042,-0.0146659624619533,-0.0861426024684775,0.172505164054519,-1.57084426515748,-0.144963141214248,-0.144963141214248,-0.144963141214248,27.3273620637904
0.61,-0.0432545983338013,-0.0239478248270295,0.0873474119678924,-0.0564818497061823,-0.0432534502645907,0.02394989835413,0.087350119514916,0.0564776623493781,-1.57084426515748,-0.144963141214248,-0.144963141214248,-0.144963141214248,23.016497744941
0.62,-0.0331908449901191,-0.00411343711648601,0.0855877947331659,-0.0585955593132839,-0.0331906477605415,0.0041150282265205,0.0855906036099889,0.0585914563072199,-1.57084426515748,-0.144963141214248,-0.144963141214248,-0.144963141214248,29.1279112620837
0.63,-0.0726251252103877,-0.0240650724317234,0.263309160223567,-0.0557772798034009,-0.0726239714867709,0.0240685539336553,0.263311833792476,0.0557646571293207,-1.57084426515748,-0.144963141214248,-0.144963141214248,-0.144963141214248,27.9945863737387
0.64,0.00507095923758289,0.0147829697954217,-0.0861508719824589,-0.173205604196326,0.00507025056039029,-0.0147832128719179,-0.0861425686904154,0.173209733929042,-1.57084426515748,-0.144963141214248,-0.144963141214248,-0.144963141214248,29.3111606149104
0.65,-0.0828647499906233,-0.0921663939260137,0.324074617165888,0.294393983654213,-0.0828603315893997,0.0921703662205395,0.324060504027986,-0.294409518922437,-1.57084426515748,-0.144963141214248,-0.144963141214248,-0.144963141214248,28.7611116529662
0.66,-0.00458242751948126,-0.00452380371870658,-0.086854718909895,-0.0564818496851478,-0.00458221065047301,0.00452402338758039,-0.0868520111627065,0.0564860132932534,-1.57084426515748,-0.144963141214248,-0.144963141214248,-0.144963141214248,27.548592217172
0.67,-0.0435477173448245,-0.0241823200371289,0.0887551058605185,-0.0557772798034009,-0.0435465580339607,0.0241844076156054,0.0887577796299972,0.055773024964866,-1.57084426515748,-0.144963141214248,-0.144963141214248,-0.144963141214248,26.9882436730514
0.68,0.0342656147106288,0.0149002173966153,-0.203106780689724,-0.173205604196326,0.0342649003792322,-0.0149018600169558,-0.203098477263293,0.173215340603798,-1.57084426515748,-0.144963141214248,-0.144963141214248,-0.144963141214248,26.5985052379927
0.69,0.121439214487624,0.121615085897333,-0.668818874570893,-0.756824376604298,0.121433384320004,-0.121620907354686,-0.668782592881027,0.756856437816374,-1.57084426515748,-0.144963141214248,-0.144963141214248,-0.144963141214248,28.6154807148916
0.7,0.0343242385112255,0.0147829697943543,-0.262112620241338,-0.173205604196326,0.0343235298004197,-0.0147846152251586,-0.262104316747106,0.173218169247128,-1.57084426515748,-0.144963141214248,-0.144963141214248,-0.144963141214248,32.1836415393592
0.71,0.0150174650034418,0.03432423850666,-0.204162551100455,-0.289929358675796,0.0150158195383958,-0.0343249583799021,-0.204148652127149,0.289939145561052,-1.57084426515748,-0.144963141214248,-0.144963141214248,-0.144963141214248,32.8587106627526
0.72,0.0437431300614637,0.0342069909082573,-0.319006918990391,-0.289929358701107,0.0437414901840685,-0.0342090878429807,-0.318993019885123,0.289944651037309,-1.57084426515748,-0.144963141214248,-0.144963141214248,-0.144963141214248,33.7799297803915
0.73,-0.0142944380715092,0.0149002173966153,-0.0285527263206002,-0.173205604196326,-0.0142951523471081,-0.0148995321275393,-0.0285444230947395,0.173206972768252,-1.57084426515748,-0.144963141214248,-0.144963141214248,-0.144963141214248,36.8078834608918
0.74,-0.120774811393266,-0.0723906300129698,0.494405589931697,0.176261089421312,-0.120771340966223,0.0723964196764872,0.494397139695593,-0.176284790213205,-1.57084426515748,-0.144963141214248,-0.144963141214248,-0.144963141214248,36.680842294513
0.75,-0.208476025360719,-0.140609199085589,0.90392723187718,0.527841492572565,-0.208469284546405,0.140619192923313,0.903901926981681,-0.527884824757427,-1.57084426515748,-0.144963141214248,-0.144963141214248,-0.144963141214248,31.9078316668546
0.76,-0.0144116856786916,-0.0241823200371289,-0.027848879358281,-0.0557772798034009,-0.0144105264013063,0.0241830108819557,-0.0278462054548192,0.0557786147689861,-1.57084426515748,-0.144963141214248,-0.144963141214248,-0.144963141214248,36.7288347708922
0.77,-0.0337184591797766,-0.0533183517005949,0.0297492662791945,0.0609464746696548,-0.0337159031465574,0.0533199680470511,0.0297463445708114,-0.0609479007307376,-1.57084426515748,-0.144963141214248,-0.144963141214248,-0.144963141214248,31.0876049856687
0.78,0.0344414861134865,0.0151347126038726,-0.262112620237232,-0.17461474398481,0.0344407605405716,-0.0151363636549308,-0.262104249191147,0.174627309033992,-1.57084426515748,-0.144963141214248,-0.144963141214248,-0.144963141214248,36.4588546764473
0.79,-0.082219888190659,-0.0529666089150605,0.262605313415719,0.0595373349827337,-0.0822173489636827,0.0529705503410098,0.262602458991624,-0.059549923783049,-1.57084426515748,-0.144963141214248,-0.144963141214248,-0.144963141214248,30.2364618904891
