t,iq,id,vq,vd,ia,ib,va,vb,theta_e,omega,omega_obs,r,omega_ekf
0,0,0,0,0,0,0,0,0,0,-0.144963141214248,0,0,0
0.01,0.0442121204719221,-0.00464105132025594,-0.321118459795088,-0.0557772798034009,0.0260488273936163,-0.036023735861215,-0.111604134846324,0.306223263728672,-2.62011914539939,-0.144963141214248,-0.144963141214248,-0.144963141214248,2.47255809270102e-10
0.02,0.0440362490467522,-0.00464105132025594,-0.320414612775153,-0.0557772798034009,0.0259612155769928,-0.0358712401964267,-0.111253507585631,0.305612967774622,-2.62011914539939,-0.144963141214248,-0.144963141214248,-0.144963141214248,-0.516078760927964
0.03,0.141625345024994,-0.0534942231124358,-0.847244087095521,0.179079368982457,0.116935942570337,-0.0961527721651257,-0.577338933363933,0.645423674446231,-2.62011914539939,-0.144963141214248,-0.144963141214248,-0.144963141214248,-1.06787827620061
0.04,0.0343242385051841,-0.0240650724288265,-0.262112620223204,0.0609464746672004,0.0379653948981127,-0.0177738529924096,-0.183419426762527,0.196913210173262,-2.62011914539939,-0.144963141214248,-0.144963141214248,-0.144963141214248,-3.04856787198762
0.05,-0.0434304697218251,0.0146657221708753,0.146353251412648,-0.171796464296775,-0.0343516941160379,0.0303521040194883,0.221869415219301,-0.041319026297485,-2.62011914539939,-0.144963141214248,-0.144963141214248,-0.144963141214248,-11.6903290951628
0.06,0.0338552480701976,-0.0240650724284712,-0.25964915582302,0.0609464746650647,0.0377317634028161,-0.0173671979143467,-0.182192231432731,0.194777174482197,-2.62011914539939,-0.144963141214248,-0.144963141214248,-0.144963141214248,-11.0968594922519
0.07,-0.00487554654670702,-0.0045238037070304,-0.0850951014484489,-0.0564818497553128,0.00149373306910034,0.0064810890772404,0.00658379155188803,0.101921682340436,-2.62011914539939,-0.144963141214248,-0.144963141214248,-0.144963141214248,-15.9144358787702
0.08,0.0340311194819399,-0.023830577210089,-0.260353002787793,0.0595373348097289,0.0376160476728598,-0.0176365093154292,-0.181321013111379,0.196089445154832,-2.62011914539939,-0.144963141214248,-0.144963141214248,-0.144963141214248,-11.2082857969806
0.09,-0.0237719533895962,0.0147829697830345,-0.0296084968601052,-0.172501034242279,-0.0246603040918701,0.0132480702617302,0.1348235261819,0.111605943788176,-2.62011914539939,-0.144963141214248,-0.144963141214248,-0.144963141214248,-11.6246026701992
0.1,0.03408974328538,-0.0239478248183912,-0.261056849756836,0.0602419047320557,0.0377469153784431,-0.0176289333258743,-0.182282563119371,0.196348753684207,-2.62011914539939,-0.144963141214248,-0.144963141214248,-0.144963141214248,-11.0367147752098
0.11,0.0146657221687426,-0.00452380370631962,-0.202754857116068,-0.0564818497595841,0.0112283789874221,-0.0104628730288997,-0.0520293966161409,0.203942818760999,-2.62011914539939,-0.144963141214248,-0.144963141214248,-0.144963141214248,-10.1862447971038
0.12,0.00466059259928326,0.0149002173966153,-0.14269324711148,-0.173205604196326,-0.0105980580496312,-0.0114638024851939,0.0791003378985549,0.210011144086609,-2.62011914539939,-0.144963141214248,-0.144963141214248,-0.144963141214248,-11.4945878834116
0.13,0.0148415935894694,-0.0047582989345478,-0.203458704117864,-0.0550727098450811,0.0115193183502603,-0.0104985529369935,-0.053601869473668,0.203851139903433,-2.62011914539939,-0.144963141214248,-0.144963141214248,-0.144963141214248,-15.6631541778069
0.14,-0.00411343707489638,-0.00475829893033585,-0.0889662598746404,-0.0550727098703918,0.00207671180006749,0.00593709031252076,0.00343349612924381,0.104576335147493,-2.62011914539939,-0.144963141214248,-0.144963141214248,-0.144963141214248,-13.4269545173068
0.15,-0.00458242751293238,-0.00452380370560883,-0.0868547189492084,-0.0564818497638554,0.00163975275816763,0.00622692964230699,0.00570722343201092,0.103447422187263,-2.62011914539939,-0.144963141214248,-0.144963141214248,-0.144963141214248,-15.7853077036498
0.16,0.0915996971336607,-0.0527907374498248,-0.54869565432607,0.175556519306737,0.0914052664017822,-0.0531266764393738,-0.425559928773031,0.388311420859732,-2.62011914539939,-0.144963141214248,-0.144963141214248,-0.144963141214248,-13.4853346455588
0.17,-0.0341874496255704,0.0343242384984836,0.0322127307476146,-0.289929358626662,-0.0467928324777498,0.0125445561544017,0.267440751669479,0.116499516575607,-2.62011914539939,-0.144963141214248,-0.144963141214248,-0.144963141214248,-13.6989446341493
0.18,-0.0337770829793789,-0.00464105132025594,0.0301011897451022,-0.0557772798034009,-0.0128021444728219,0.0315996169098629,0.0633588615605658,0.00168559428290943,-2.62011914539939,-0.144963141214248,-0.144963141214248,-0.144963141214248,-13.0361228196724
0.19,0.0633430225350398,-0.0532011040740403,-0.435962827429914,0.177670229053002,0.0776847915729364,-0.0284212796481943,-0.371233899542781,0.289509393669172,-2.62011914539939,-0.144963141214248,-0.144963141214248,-0.144963141214248,-15.7737302840433
0.2,-0.0245340628705676,0.0150174650077615,0.0325646541943679,-0.173910174135743,-0.0252432828286334,0.0137920690336849,0.1670174452819,0.0583984446901698,-2.62011914539939,-0.144963141214248,-0.144963141214248,-0.144963141214248,-5.91781436026959
0.21,0.0439190014326386,-0.00464105132025594,-0.319710765768023,-0.0557772798034009,0.0259028077005721,-0.0357695764222131,-0.110902880331317,0.305002671831675,-2.62011914539939,-0.144963141214248,-0.144963141214248,-0.144963141214248,-11.5415160601379
0.22,0.0536310119958533,-0.0240650724256275,-0.378012758411831,0.0609464746479763,0.0475832250631525,-0.0345144875543507,-0.24115604680115,0.297408606777577,-2.62011914539939,-0.144963141214248,-0.144963141214248,-0.144963141214248,-11.0546572626388
0.23,-0.0236547057648174,0.014489850740373,-0.0303123439131189,-0.171091894289325,-0.0243477367682055,0.0132924261729959,0.133251053265518,0.111514264955865,-2.62011914539939,-0.144963141214248,-0.144963141214248,-0.144963141214248,-13.9829966744026
0.24,0.0439190014422803,-0.00464105132025594,-0.319710765814328,-0.0557772798034009,0.0259028077053752,-0.0357695764305733,-0.110902880354384,0.305002671871825,-2.62011914539939,-0.144963141214248,-0.144963141214248,-0.144963141214248,-15.282187582639
0.25,0.00530545446281641,-0.0241823200371289,-0.145860558550802,0.061651044589528,0.0236111094777018,0.00744633860814344,-0.126118415862589,0.0957616782436633,-2.62011914539939,-0.144963141214248,-0.144963141214248,-0.144963141214248,-14.8824117851395
0.26,0.0149002173966153,-0.00464105132025594,-0.203458704124266,-0.0557772798034009,0.0114468585141469,-0.0106077927006871,-0.0529909466729957,0.20420212730746,-2.62011914539939,-0.144963141214248,-0.144963141214248,-0.144963141214248,-17.515354735858
0.27,0.0540413786387479,-0.0243581914622994,-0.380124299392418,0.0623556145628013,0.048041812064123,-0.0347242910667164,-0.243429774149916,0.29853751977499,-2.62011914539939,-0.144963141214248,-0.144963141214248,-0.144963141214248,-18.7087814108548
0.28,-0.0627958670208113,0.0342069908884565,0.204303320511006,-0.28922478869397,-0.060942690330324,0.0374089245480353,0.352558190834133,-0.0330688258433466,-2.62011914539939,-0.144963141214248,-0.144963141214248,-0.144963141214248,-23.1353492897993
0.29,-0.0049927941451619,-0.00464105132025594,-0.0264411854201998,-0.0557772798034009,0.00153698897392371,0.00664116071385487,0.0351918059990809,0.0507127007683017,-2.62011914539939,-0.144963141214248,-0.144963141214248,-0.144963141214248,-14.4612634498317
0.3,-0.0822198881233939,0.034206990887747,0.321259229180043,-0.289224788689707,-0.0706189283728472,0.054251222881042,0.410820751752113,-0.13447966632837,-2.62011914539939,-0.144963141214248,-0.144963141214248,-0.144963141214248,-19.282258537609
0.31,0.0146657221792997,-0.00452380371159816,-0.202754857163599,-0.0564818497278641,0.0112283789972582,-0.0104628730354241,-0.052029396667323,0.203942818786411,-2.62011914539939,-0.144963141214248,-0.144963141214248,-0.144963141214248,-7.39759316268145
0.32,0.00495371161834136,-0.0239478248106779,-0.144452864534404,0.060241904685704,0.0232325583004893,0.00763451418067814,-0.124195315756286,0.0952430611464838,-2.62011914539939,-0.144963141214248,-0.144963141214248,-0.144963141214248,-8.29301691771996
0.33,-0.0625027480122831,-0.00493417034278991,0.144593634037243,-0.0543681399501982,-0.0268579145597398,0.056653260908445,0.119172381613183,-0.0982911852934055,-2.62011914539939,-0.144963141214248,-0.144963141214248,-0.144963141214248,-9.27480005479157
0.34,0.0431568919496901,-0.00440655609309326,-0.31583960728959,-0.057186419711501,0.025319828960712,-0.0352255776497575,-0.10775258486255,0.302348018990867,-2.62011914539939,-0.144963141214248,-0.144963141214248,-0.144963141214248,-12.8331116447191
0.35,0.05451036907252,-0.024358191451183,-0.382587763784243,0.0623556145182674,0.0482754435488677,-0.0351309461494409,-0.244656969435081,0.300673555482055,-2.62011914539939,-0.144963141214248,-0.144963141214248,-0.144963141214248,-12.18921876351
0.36,-0.0431959744912879,0.0144898507478391,0.0866435648049938,-0.171091894327781,-0.0340823826991075,0.0302363882846187,0.191513614244987,0.0101034244495703,-2.62011914539939,-0.144963141214248,-0.144963141214248,-0.144963141214248,-16.466483317505
0.37,-0.0239478248176807,0.0147829697868912,-0.0289046498246474,-0.172501034265455,-0.0247479159132896,0.0134005659271245,0.135174153470421,0.110995647832211,-2.62011914539939,-0.144963141214248,-0.144963141214248,-0.144963141214248,-13.9070298536109
0.38,0.0345587337277784,0.0146657221680316,-0.263168390712724,-0.171796464279687,0.00449927775202036,-0.0372712487487011,0.0178627951491158,0.313771489397598,-2.62011914539939,-0.144963141214248,-0.144963141214248,-0.144963141214248,-18.0749885034832
0.39,0.121497838263808,-0.0530838564771561,-0.727472790528337,0.17696565918343,0.106553434084159,-0.0789049187702423,-0.515841095144202,0.54262461246219,-2.62011914539939,-0.144963141214248,-0.144963141214248,-0.144963141214248,-19.2319726815176
0.4,-0.0337770829735931,-0.00464105132025594,0.0301011897219469,-0.0557772798034009,-0.0128021444699396,0.0315996169048461,0.0633588615490308,0.00168559430298707,-2.62011914539939,-0.144963141214248,-0.144963141214248,-0.144963141214248,-21.3840264567571
0.41,0.0342069908926151,-0.0240650724266932,-0.261408773234951,0.0609464746543808,0.0379069870206117,-0.017672189220598,-0.183068799506501,0.196302914253069,-2.62011914539939,-0.144963141214248,-0.144963141214248,-0.144963141214248,-19.0463692698216
0.42,0.053748259600353,-0.0240650724221266,-0.378716605368554,0.0609464746269386,0.0476416329317485,-0.0346161513219722,-0.241506674012113,0.298018902687297,-2.62011914539939,-0.144963141214248,-0.144963141214248,-0.144963141214248,-22.651299370847
0.43,-0.043664964948605,0.0147829697858249,0.0891070293244537,-0.172501034259047,-0.0345701736430968,0.0304970236898233,0.193962655252754,0.00866936345825874,-2.62011914539939,-0.144963141214248,-0.144963141214248,-0.144963141214248,-19.2322951308904
0.44,0.053455140561246,-0.0240650724217708,-0.377308911342552,0.0609464746248005,0.0474956132384836,-0.0343619918833005,-0.24080541949578,0.296798310792286,-2.62011914539939,-0.144963141214248,-0.144963141214248,-0.144963141214248,-22.1059940979679
0.45,-0.00475829893140217,-0.00452380370910972,-0.0861508719525856,-0.0564818497428177,0.00155214094791745,0.00637942530302972,0.00605785066284938,0.102837126242946,-2.62011914539939,-0.144963141214248,-0.144963141214248,-0.144963141214248,-22.7050692560554
0.46,0.00512958303817967,-0.0241823200371289,-0.145156711533001,0.061651044589528,0.0235234976613439,0.00759883427246944,-0.125767788602959,0.0951513822914637,-2.62011914539939,-0.144963141214248,-0.144963141214248,-0.144963141214248,-23.1523919760789
0.47,0.0149002173966153,-0.00464105132025594,-0.203810627620364,-0.0557772798034009,0.0114468585141469,-0.0106077927006871,-0.0531662602964331,0.204507275272459,-2.62011914539939,-0.144963141214248,-0.144963141214248,-0.144963141214248,-24.4960170156685
0.48,-0.0240650724210602,-0.0240650724210602,-0.0282008028661133,0.0609464746205308,0.00887827288335943,0.0328547057796954,-0.0668943048692339,-0.00590847078577689,-2.62011914539939,-0.144963141214248,-0.144963141214248,-0.144963141214248,-26.5620866295879
0.49,0.0345001099194149,0.0147829697847586,-0.262816467202916,-0.17250103425264,0.00436841003667943,-0.0372788247381839,0.0186490315959324,0.313817328826477,-2.62011914539939,-0.144963141214248,-0.144963141214248,-0.144963141214248,-24.1531122406568
0.5,-0.092752631970815,0.0637533891887934,0.38343238027105,-0.408062252982184,-0.101485173234832,0.048665233833481,0.544835136457061,-0.129189266702134,-2.62011914539939,-0.144963141214248,-0.144963141214248,-0.144963141214248,-29.6624999843312
0.51,-0.0628544908283141,-0.00475829893241517,0.146353251423316,-0.0550727098578966,-0.0271856338278552,0.0568706403990198,0.120659872443302,-0.0994659376632737,-2.62011914539939,-0.144963141214248,-0.144963141214248,-0.144963141214248,-28.5525771092862
0.52,0.00518820684656982,0.014782969779835,-0.14550863504297,-0.172501034223053,-0.0102335588372945,-0.0118628815773378,0.0770869061128071,0.21210134036834,-2.62011914539939,-0.144963141214248,-0.144963141214248,-0.144963141214248,-34.7622582562937
0.53,-0.033542587751762,-0.00475829893277097,0.0290454192432517,-0.0550727098557586,-0.0125836649474569,0.0314546972375893,0.0622219978888976,0.00225005079650412,-2.62011914539939,-0.144963141214248,-0.144963141214248,-0.144963141214248,-36.7062586005642
0.54,-0.00452380371195287,0.0342069908968804,-0.08720664241469,-0.289224788744592,-0.0319139762076598,-0.013117970455084,0.207340072635741,0.219695405470854,-2.62011914539939,-0.144963141214248,-0.144963141214248,-0.144963141214248,-36.5011698071561
0.55,-0.0339529543955646,-0.00464105132025594,0.0308050367290811,-0.0557772798034009,-0.0128897562849697,0.0317521125668611,0.0637094888033471,0.00107529836003619,-2.62011914539939,-0.144963141214248,-0.144963141214248,-0.144963141214248,-36.5301129182296
0.56,0.015134712613933,-0.00475829892891482,-0.204866398077138,-0.0550727098789311,0.0116653380310376,-0.0107527123659514,-0.0543031239255537,0.205071731758512,-2.62011914539939,-0.144963141214248,-0.144963141214248,-0.144963141214248,-35.798213233544
0.57,-0.033659835362498,-0.00464105132025594,0.029397342731874,-0.0557772798034009,-0.0127437365950226,0.0314979531332498,0.0630082343032136,0.00229589023114443,-2.62011914539939,-0.144963141214248,-0.144963141214248,-0.144963141214248,-33.0621552266382
0.58,-0.0436063411449877,0.0149002173966153,0.0887551058431373,-0.173205604196326,-0.034642633477932,0.0303877839309336,0.194398264422297,0.00932549879843558,-2.62011914539939,-0.144963141214248,-0.144963141214248,-0.144963141214248,-34.5169883439104
0.59,0.0151933364305659,-0.00493417035420658,-0.205218321621816,-0.0543681398953137,0.0118470376389123,-0.0107159324446773,-0.0550893603989881,0.205025892354556,-2.62011914539939,-0.144963141214248,-0.144963141214248,-0.144963141214248,-32.80461443205
0.6,-0.00464105132025594,-0.00464105132025594,-0.086502795445643,-0.0557772798034009,0.00171221259450057,0.00633616940633159,0.00527161425345611,0.102791286816249,-2.62011914539939,-0.144963141214248,-0.144963141214248,-0.144963141214248,-33.5329339471698
0.61,0.0342069908856144,-0.0240650724231929,-0.261408773203432,0.0609464746333463,0.0379069870140891,-0.0176721892162715,-0.183068799472561,0.196302914236218,-2.62011914539939,-0.144963141214248,-0.144963141214248,-0.144963141214248,-32.3937134932904
0.62,0.0346173575280727,-0.0243581914517151,-0.263520314174092,0.062355614520399,0.0383655740077757,-0.0178819927323187,-0.1853425267923,0.197431827238858,-2.62011914539939,-0.144963141214248,-0.144963141214248,-0.144963141214248,-32.045285753858
0.63,-0.0434890935254165,0.0147829697823234,0.0884031823089458,-0.172501034238006,-0.0344825618244243,0.0303445280284973,0.193612027976022,0.00927965939798867,-2.62011914539939,-0.144963141214248,-0.144963141214248,-0.144963141214248,-32.1485731068674
0.64,-0.0237133295968093,0.0146657221764555,0.0283415723000837,-0.171796464330308,-0.0245294363930879,0.013255646259664,0.163080913478689,0.0610072580582999,-2.62011914539939,-0.144963141214248,-0.144963141214248,-0.144963141214248,-30.8992676390023
0.65,-0.00464105132025594,-0.00464105132025594,-0.086502795445643,-0.0557772798034009,0.00171221259450057,0.00633616940633159,0.00527161425345611,0.102791286816249,-2.62011914539939,-0.144963141214248,-0.144963141214248,-0.144963141214248,-27.5777183107949
0.66,0.0537482596094863,-0.0240650724266932,-0.378716605409675,0.0609464746543808,0.047641632940258,-0.0346161513276167,-0.241506674056392,0.298018902709282,-2.62011914539939,-0.144963141214248,-0.144963141214248,-0.144963141214248,-29.9247560498736
0.67,0.122377195339407,-0.0534942231124358,-0.673393879823891,0.179079368982457,0.10734731633975,-0.079462969490173,-0.490734003286629,0.494680579563931,-2.62011914539939,-0.144963141214248,-0.144963141214248,-0.144963141214248,-29.3782591553223
0.68,-0.0242409438425247,-0.0240650724263374,0.0308050367290811,0.0609464746522427,0.00879066107315763,0.0330072014438997,-0.0375000539925024,-0.0570716130048547,-2.62011914539939,-0.144963141214248,-0.144963141214248,-0.144963141214248,-33.3489845546667
0.69,0.0145484745505375,-0.00452380370489668,-0.202051010091849,-0.0564818497681349,0.0111699711077294,-0.0103612092518473,-0.0516787693458995,0.203332522807493,-2.62011914539939,-0.144963141214248,-0.144963141214248,-0.144963141214248,-29.0389394024694
0.7,-0.160267715388344,0.082884291266649,0.67247887875945,-0.523376867556839,-0.151706513793851,0.0976764045565253,0.788813756571954,-0.322372525681112,-2.62011914539939,-0.144963141214248,-0.144963141214248,-0.144963141214248,-33.8814388380816
0.71,-0.0238305771899903,0.0146657221651895,-0.0292565733853386,-0.171796464262608,-0.0245878442493123,0.0133573100213394,0.134387916972336,0.11094980843256,-2.62011914539939,-0.144963141214248,-0.144963141214248,-0.144963141214248,-23.8937229565899
0.72,-0.0430201030849945,0.0147829697851144,0.0862916413693445,-0.172501034254778,-0.0342489303291481,0.0299378729441542,0.192560146268365,0.0111105471642674,-2.62011914539939,-0.144963141214248,-0.144963141214248,-0.144963141214248,-29.6287751617713
0.73,-0.0718630156686201,0.0144898507403749,0.259789924953208,-0.171091894289335,-0.0483631082416534,0.0550931806730452,0.277767916976711,-0.140029374408105,-2.62011914539939,-0.144963141214248,-0.144963141214248,-0.144963141214248,-21.8736306374116
0.74,-0.0628544908293728,0.0340897432779163,0.146353251427855,-0.288520218758195,-0.0608702304981688,0.0375181643110874,0.323078958027735,0.016827885057098,-2.62011914539939,-0.144963141214248,-0.144963141214248,-0.144963141214248,-24.6731928235524
0.75,0.014841593588403,-0.00475829893668044,-0.203458704111463,-0.0550727098322656,0.0115193183515783,-0.0104985529350065,-0.0536018694815914,0.203851139891499,-2.62011914539939,-0.144963141214248,-0.144963141214248,-0.144963141214248,-21.8040111332921
0.76,0.0340897432770089,-0.0239478248128105,-0.261056849723334,0.0602419046985196,0.037746915369434,-0.0176289333213959,-0.182282563073603,0.196348753671865,-2.62011914539939,-0.144963141214248,-0.144963141214248,-0.144963141214248,-23.1041445270504
0.77,0.0338552480295851,-0.0238305771867881,-0.260001079137948,0.0595373346697079,0.03752843582249,-0.0174840136386768,-0.18114569928994,0.195784297126273,-2.62011914539939,-0.144963141214248,-0.144963141214248,-0.144963141214248,-23.435178652096
0.78,-0.00434793228896839,-0.00464105132025594,-0.0879104894343065,-0.0557772798034009,0.00185823228356152,0.00608200997426287,0.00457035975757875,0.104011878679949,-2.62011914539939,-0.144963141214248,-0.144963141214248,-0.144963141214248,-25.1598232241558
0.79,0.0150174650049184,-0.00475829892855902,-0.204162551104887,-0.0550727098810692,0.0116069301568484,-0.0106510485963363,-0.0539524966867608,0.204461435846873,-2.62011914539939,-0.144963141214248,-0.144963141214248,-0.144963141214248,-28.2262996338481
