,Unnamed: 0,t,iq,id,vq,vd,ia,ib,va,vb,theta_e,omega,omega_obs,r,omega_ekf,omega_meta
0,140,0.0,0.0050709592320317,0.0536310119934701,-0.0861508719491349,-0.405948543143207,0.0489579810792255,-0.022474789512315,-0.394503645501927,0.128775254235349,-0.524637440120955,-0.144963141214248,163.739682820647,-0.144963141214248,41.1760992371269,33.977917
1,141,0.01,-0.0143530618725436,0.0153105840396509,0.030453113232573,-0.292747638428231,0.0060619585105008,-0.0200917154013599,-0.238120780481913,0.172994409775423,-0.524637440120955,-0.144963141214248,161.908569457944,-0.144963141214248,25.841355912823,28.004984
2,142,0.02,-0.0142944380663913,-0.0339529543955646,0.0301011897360388,-0.0557772798034009,-0.0365465454813546,0.0046350927930803,-0.0331978852103238,0.0539915454803254,-0.524637440120955,-0.144963141214248,158.856713853441,-0.144963141214248,36.6957311405581,32.772682
3,143,0.03,0.004895087813605,0.0536310119934958,-0.0854470249561958,-0.405948543143362,0.048869887219421,-0.0226270072106426,-0.394151089078225,0.129384437752506,-0.524637440120955,-0.144963141214248,161.862791623877,-0.144963141214248,28.1187360519419,55.98787
4,144,0.04,-0.0046996751264017,-0.053083856469415,-0.0274969558617855,0.060241904696928,-0.0482984389803057,0.0225220682004309,0.0383665018459194,-0.0539738936828334,-0.524637440120955,-0.144963141214248,163.739682820647,-0.144963141214248,33.4217693460152,64.63278
5,145,0.05,-0.0339529543955646,-0.0923422653215865,0.148112868903805,0.295098553482735,-0.0969297572177977,0.0168676982012474,0.329599075378282,-0.0196221230324267,-0.524637440120955,-0.144963141214248,163.739682820647,-0.144963141214248,31.2806260597622,59.639038
6,146,0.06,0.0050123354258794,0.0149002173966153,-0.0854470249560795,-0.173205604196326,0.0154068966700449,-0.0031253031671312,-0.192710771018213,0.0128036765198519,-0.524637440120955,-0.144963141214248,158.902491687509,-0.144963141214248,23.6508318714074,88.22859
7,147,0.07,-0.0045824275141036,0.0345587337257911,-0.0282008028548151,-0.291338498535633,0.0276154432639827,-0.0212765601539792,-0.266280863998282,0.121523279576306,-0.524637440120955,-0.144963141214248,158.856713853441,-0.144963141214248,24.6843454631002,73.23941
8,148,0.08,0.005012335425888,0.0534551405750453,-0.0854470249561567,-0.405243973196984,0.0487763987609694,-0.0224374348852621,-0.393541279840872,0.129031519201876,-0.524637440120955,-0.144963141214248,158.856713853441,-0.144963141214248,24.2912705811542,75.78153
9,149,0.09,0.024553604142755,-0.0539045897554714,-0.144452864539985,0.0637647544285043,-0.0343558428858844,0.048252050036296,-0.0171675777375142,-0.156964480873098,-0.524637440120955,-0.144963141214248,163.712216120205,-0.144963141214248,25.1638089648477,78.83537
10,150,0.1,0.0050123354258967,0.0146070983659079,-0.0854470249562349,-0.17179646430383,0.0151532005061989,-0.0029784800674069,-0.191491152543851,0.0120978394185198,-0.524637440120955,-0.144963141214248,163.739682820647,-0.144963141214248,17.3204887208366,77.26703
11,151,0.1100000000000001,0.786663084100749,-0.0536114707247231,1.32224696114048,0.0623556145358019,0.347637912581889,0.707715253061481,0.716281631771897,1.11317827543281,-0.524637440120955,-0.144963141214248,127.851386839483,201.887877876946,-0.698330746888912,68.79155
12,152,0.1200000000000001,0.816209482400636,-0.0348323114877519,1.67276276367871,-0.0515498601256009,0.378691148601762,0.723881359792454,0.793268904170012,1.47360683267482,-0.524637440120955,-0.144963141214248,119.79296211579,201.887877876946,3.3470516964337,65.460915
13,153,0.1300000000000001,0.83551625589292,-0.0530838564693998,1.79077444284643,-0.0578909896423791,0.372565082298911,0.749733665464339,0.846892581440195,1.5789228693433,-0.524637440120955,-0.144963141214248,169.724371661075,201.887877876946,-13.6088503201606,58.753174
14,154,0.1400000000000001,0.845404137863651,0.0537482596057573,1.7900705958534,-0.877070980607544,0.469981710063866,0.704779556977269,0.137535151764609,1.98864032071964,-0.524637440120955,-0.144963141214248,234.774673871079,201.887877876946,16.3500745358892,40.521397
15,155,0.1500000000000001,0.874716040938958,-0.0341874496201737,1.43849902282576,-0.641509761875283,0.408555170868825,0.774196103286372,0.165312773040277,1.5663607184559,-0.524637440120955,-0.144963141199814,201.045565730103,201.887877876946,-20.9633692230302,29.168455
16,156,0.1600000000000001,0.650108698307246,0.0050123354258708,1.55545493150393,-0.173205604196326,-0.646651517713878,0.0671435608193538,-1.56488927983189,-0.0237016272046403,1.47504424136932,64.8595612347199,176.981684288589,201.887877876946,1.93275473137916,47.88583
17,157,0.1700000000000001,0.522973204035273,-0.004582427514108,1.90737842802814,-0.0557772798034009,-0.365745960262665,-0.373834005050881,-1.30625943516751,-1.39100318500182,2.35836801555193,87.7484782684987,116.8189288292,201.887877876946,-22.9340004152533,63.83921
18,158,0.1800000000000001,0.367287916167952,0.0531620215442562,2.25613461308361,-0.403834833304075,0.0242258618349677,-0.370323806304728,0.863299778349999,-2.12319086698405,-2.93252386668591,111.85813754408,67.9388835396645,201.887877876946,-43.4256814675573,80.69713
19,159,0.1900000000000001,0.386067075404885,-0.0045824275141122,2.08263632929728,-0.1739101741426,0.312525016671626,-0.22670884258891,1.77494362766494,-1.10326513014361,-2.2102423102359,127.7277866875,67.8656390051556,201.887877876946,-25.5792999800033,96.511635
20,160,0.2000000000000001,0.346750042746555,0.0144312269474487,2.02539010719587,-0.288520218750355,0.318565630444872,0.137694558916494,1.69874434756211,1.14005115875579,-1.1212207748082,137.798910182363,98.6619139102058,201.887877876946,-12.3927635697205,98.88645
21,161,0.2100000000000002,0.298307237597398,-0.0046410513202559,2.08404402328324,-0.0564818497497269,-0.0014421411664692,0.298339852499132,-0.0341321333001479,2.08452984814565,-0.0107228529428774,137.79891018236,142.955020226171,201.887877876946,-4.96085401445737,85.142365
22,162,0.2200000000000002,0.219966291311465,-0.0241236962309788,2.02539010719589,-0.173205604196326,-0.212341087857808,0.0622766765372656,-1.93637662331311,0.618587779008398,1.17627702546875,163.739682820647,171.947648468959,201.887877876946,-26.2752018770578,86.36504
23,163,0.2299999999999999,0.171230367131587,-0.0242995676494335,1.84872451194075,0.179783938928834,-0.0827732611333377,-0.151851555333884,-1.24830674318124,-1.3754398789753,2.50155415198725,176.862661920014,189.985641019381,201.887877876946,-40.1530751431244,111.15474
24,164,0.24,0.240211045702094,0.0827084198442064,2.31584429966071,-0.288520218750355,-0.0012653048672997,-0.25404808244506,1.01629329823474,-2.1008395152562,-2.81497133149343,140.850765786868,187.881386580075,201.887877876946,-6.83712091870495,143.7587
25,165,0.25,0.151513226996272,-0.024123696230981,1.8497802824303,0.0609464746432025,0.145706804991768,0.0480389181160387,1.83572708498548,0.235600584655647,-1.41021623487947,179.914517524518,182.966373129021,201.887877876946,1.46972864116985,170.62929
26,166,0.26,0.220083538923765,-0.0144116856786916,2.02539010719589,-0.173205604196326,0.0451987548478064,0.215873882972252,0.376868247514279,1.99754238795264,-0.27178367036913,161.908569457944,174.726362996861,201.887877876946,9.99901314451926,166.43204
27,167,0.27,0.239273064803736,-0.004699675126406,1.9646246501294,-0.173205604196326,-0.201325303319796,0.129390141548955,-1.72803498905382,0.950602584588784,0.979936832600155,192.732311063434,163.739682820647,201.887877876946,-14.1824567662632,167.71417
28,168,0.28,0.151982217445434,0.0144898507536097,1.9066745810352,-0.0536635699645791,-0.106828915836251,-0.109069395046201,-1.15712970519144,-1.51635701009712,2.46162341348915,179.914517524518,166.791538425151,201.887877876946,-37.9182779402614,172.98245
29,169,0.29,0.229619678057617,0.0149002173966153,1.90913804551063,-0.0564818497497008,0.0966341154120449,-0.208827825656165,0.961892246118867,-1.65007926567898,-2.64339034413223,163.739682820647,166.791538425151,201.887877876946,-31.0848402280425,175.2932
30,170,0.3,0.327501893060411,0.0149588412027632,2.26000577154533,-0.29133849853558,0.32374167393946,0.0516970544920958,2.15412589696917,0.74313244321179,-1.36680325372336,137.798910182363,182.966373129021,201.887877876946,-20.121884049561,191.25021
31,171,0.31,0.191006131073059,0.0438603776350215,2.55186765799606,-0.640805191928983,0.0090845976112847,0.195766557205326,-1.08573797369714,2.39662948542354,0.179343167030722,158.856713853441,195.784166667938,201.887877876946,-28.2893984606265,161.16943
32,172,0.32,0.259166076357507,-0.0141771904540824,2.1423460158741,-0.173910174142704,-0.257950610140673,-0.0288015727308614,-2.12909316960046,-0.294709137222796,1.62734250176465,163.739682820647,205.823245678953,201.887877876946,-64.263520641411,170.81613
33,173,0.33,0.190478516817729,-0.004289308483381,2.26070961853831,-0.175319314035226,-0.0309861157912594,-0.187990223587606,-0.24549287845608,-2.25416904597964,2.95571836404052,174.726362996861,200.972321195594,201.887877876946,-32.1005219888449,186.00728
34,174,0.3400000000000001,0.171757981386918,-0.0041134370649244,2.08122863531117,-0.0585955595887026,0.171510972861151,0.0100851734153461,2.0779311550804,0.130951085482094,-1.5360064983004,179.914517524518,216.796192504946,201.887877876946,21.6370257753867,208.67857
35,175,0.3500000000000001,0.132206453503993,0.0144898507535645,2.2593019245523,-0.405948543143129,0.0410381853922722,0.126508377045449,0.0613619715862648,2.29466209155265,-0.204516559991054,182.966373129021,216.841970339015,201.887877876946,31.3797312537238,190.43716
36,176,0.3600000000000001,0.161225237548577,-0.0048755465448305,2.08474787027618,-0.171796464303778,-0.160713614835324,0.0137288813553354,-2.09065974383333,0.0694949155197185,1.45534732695072,187.849342096228,210.738259130007,201.887877876946,4.45750689351507,176.6368
37,177,0.3700000000000001,0.132206453503988,0.014665722172032,2.08334017629024,-0.172501034250026,-0.0419793682960669,-0.126219500840372,-0.266831446196165,-2.07337017348162,2.93098983908511,189.985641019382,203.751035723495,201.887877876946,20.1502245112872,182.82893
38,178,0.3800000000000001,0.122377195339407,-0.0142944380663956,1.90773035152465,-0.173205604196326,0.122715803334679,0.011015466885147,1.91168119383664,0.122107692569641,-1.59755168572044,197.920465591091,216.796192504946,201.887877876946,38.2403901302003,213.8036
39,179,0.3900000000000001,0.063577517770343,-0.0044651799018056,2.2017037789545,-0.291338498535607,0.0048576037664954,0.063548739429209,0.0329741710020772,2.22065088544738,-0.146407594401052,200.972321195594,218.978269262167,201.887877876946,12.2269728507319,205.18753
40,180,0.4000000000000001,0.0935929065194707,-0.0042893084833422,1.90491496355237,-0.057186419696156,-0.0934540507821898,-0.0066611343198847,-1.90285241455845,-0.105470343568714,1.5961557206019,205.855290162801,218.978269262167,201.887877876946,-26.2454848640715,187.0856
41,181,0.4100000000000001,0.0640465082195653,0.0048364640074076,1.90561881054537,-0.0543681399105948,-0.0061555654377806,-0.0639332121307463,0.0150779056376055,-1.90633459877936,3.12097915767863,208.907145767305,210.784036964075,201.887877876946,-7.75589523540412,182.59402
42,182,0.4200000000000001,0.0930066684579523,0.0835291531302564,1.55615877849699,-0.52689971726776,0.0935770864924279,-0.0828896174674123,1.55251024671371,0.537555010951445,-1.56394114094545,208.907145767305,216.841970339015,201.887877876946,-17.5520974808962,211.91798
43,183,0.4300000000000001,0.0056571972935306,-0.0343046972324652,2.0222227957272,-0.0536635699643463,-0.0347664057348115,-0.0003364011169765,-0.401192641595526,1.98275295451291,0.173115014963787,213.790114734511,216.841970339015,201.887877876946,-19.1485553125455,200.74765
44,184,0.4400000000000001,0.0538655072180704,0.0244363565304763,1.73212052675905,-0.054368139910853,-0.0552778629904082,0.0210472385732239,-1.72541021018318,-0.161731321805822,1.63288034141036,213.790114734511,210.738259130007,201.887877876946,-53.5353651683589,181.478
45,185,0.4500000000000002,0.0341483670827574,-0.0238892010063998,1.79147828983941,0.177670229089857,0.0285426577314797,-0.030366454991759,0.0812701188626777,-1.79843163368832,-2.9975819773187,213.790114734511,205.855290162801,201.887877876946,-38.3185089883929,176.56177
46,186,0.4600000000000002,0.0634602701580534,0.0342069908888945,1.43990671681179,-0.289929358642929,0.063999878321376,-0.0331864383303647,1.43507956918731,0.312948903535332,-1.55478299615737,213.790114734511,208.907145767305,201.887877876946,-55.7027293303766,203.75557
47,187,0.4700000000000002,0.044153496665772,-0.0045824275141058,1.67346661067173,-0.0557772798034009,-0.0054241365738146,0.0440580146189656,-0.087700456571164,1.67209755453819,0.0190833033774488,213.790114734511,210.738259130007,201.887877876946,-64.0782150001846,194.61342
48,188,0.48,0.0733481521287721,-0.0143530618725393,1.67381853416827,0.061651044589528,-0.0743514180042817,-0.0076045017308839,-1.66122222696097,0.214032822891778,1.47947758114108,210.738259130007,203.718991239648,201.887877876946,-66.5833407457979,174.25038
49,189,0.49,0.0150174650089069,0.0050709592320338,1.78971867235693,0.062355614535828,-0.0065060838947104,-0.0144537107754958,-0.23595207099249,-1.77519231888873,3.04427777754398,210.738259130007,195.738388833871,201.887877876946,-68.056502301267,169.3949
50,190,0.5,0.0348518527565221,0.0055399496812152,1.67135506969266,-0.0578909896423772,0.0327998995194666,-0.0130195727481969,1.64363468929577,-0.308616499579571,-1.79102324697207,208.907145767305,197.888421107242,201.887877876946,-71.8644793144824,199.78094
51,191,0.51,-0.0044651799018056,0.0635188939641929,2.02398241320981,-0.289929358642903,0.0597109187842068,-0.0221177281820654,0.289937416812531,2.02398125888501,-0.284562120299572,208.907145767305,200.972321195594,201.887877876946,-74.357355905008,193.32521
52,192,0.52,0.0440948728596219,-0.0242409438432791,1.90808227502117,0.0623556145358795,-0.0503165000352923,-0.0004806195144428,-1.65125915672596,0.958128064635818,1.07770041171976,205.855290162801,195.784166667938,201.887877876946,-44.7531288290233,168.16866
53,193,0.53,0.0928894208456692,0.0438603776350602,1.61516461808081,-0.0536635699645791,-0.081078568008463,-0.063074900245906,-0.681449079235226,-1.46535445358825,2.67308911852036,205.855290162801,192.732311063434,201.887877876946,-50.223510020613,162.74597
54,194,0.54,0.0054813258750546,0.0440948728596305,1.96462465012953,-0.172501034250026,-0.0264088648648506,-0.0357347814097915,1.54273203055449,-1.22861080274233,-2.33090892146382,203.718991239648,187.849342096228,201.887877876946,-43.7478326901226,192.797
55,195,0.55,0.0442121204719221,-0.0241823200371289,1.90773035152465,0.061651044589528,0.0161869481918377,0.0477229390045987,1.44629111935293,1.24558337477191,-0.827515849996711,200.972321195594,195.784166667938,201.887877876946,-41.8608875032213,207.85846
56,196,0.56,0.0636947653826433,0.0149588412027654,2.02503818369937,-0.173205604196326,-0.0145501178680021,0.0637893732318069,-1.04539194124118,1.74296744546577,0.454931225854546,197.920465591091,190.026841070042,201.887877876946,-45.6321044827671,176.71696
57,197,0.5700000000000001,0.131854710667081,0.0047778402012659,1.73282437375217,-0.0536635699642681,-0.123028147100502,-0.0476714537549015,-1.57084619611509,-0.733486412390609,1.97668660772589,197.920465591091,187.849342096228,201.887877876946,-51.8120904263534,168.28287
58,198,0.5800000000000001,0.161576980385443,-0.0242409438432748,1.43814709932926,0.179783938928757,0.0647434355361009,-0.150010104672563,0.193861098596734,-1.43631724157888,-2.88306681677708,195.784166667939,184.797486491724,201.887877876946,-61.9186461613386,175.8283
59,199,0.5900000000000001,0.112430689562528,-0.0143530618725436,1.67417045766473,0.0609464746432025,0.110837270411101,0.0237016840844508,1.67340521222825,0.0792224070328695,-1.48710169832656,195.784166667938,189.985641019381,201.887877876946,-58.9314508182791,199.73401
60,200,0.6000000000000001,0.0444466156965226,0.0150760888150656,2.14129024538453,-0.173910174142678,0.0198448905783614,0.0425319928849681,0.0612308441266553,2.14746814816351,-0.109544911108342,195.784166667938,195.738388833869,201.887877876946,-68.0279497276538,187.42944
61,201,0.6099999999999999,0.102953174234827,0.0147243459781778,2.02433433670638,-0.0550727098571009,-0.0964488153427716,0.0389074346171496,-1.97881278966183,0.430421251345998,1.3294190010457,192.732311063434,192.691111012774,201.887877876946,-77.1420115484842,171.18375
62,202,0.6200000000000001,0.141742592637843,-0.0914042844232618,1.85013220592677,0.52572778259084,0.0077794226032369,-0.168479038347761,-1.38439001958361,-1.33523149845734,2.61498015293027,189.985641019381,182.993839829463,201.887877876946,-65.2355254632013,181.09549
63,203,0.6299999999999999,0.121908204890206,0.0048364640074288,1.85118797641642,-0.17109189435727,0.0936812568724661,-0.0781589656689657,1.57164729553206,-0.993022728234469,-2.2264569819964,192.732311063434,187.849342096228,201.887877876946,-62.3468987750351,202.89275
64,204,0.6400000000000001,0.161283861354701,0.151454603190115,1.73247245025561,-0.758938086268262,0.22119238839807,0.0049907991058637,0.703974073814341,1.75552508187165,-0.794258131570244,189.985641019381,200.972321195594,201.887877876946,-58.6146300828857,198.2981
65,205,0.6499999999999999,0.102718679010236,0.0342069908888861,2.14304986286714,-0.289929358642903,-0.0360195209944823,0.10209720540058,-1.54393468275677,1.51426135231627,0.660628987099631,189.985641019381,200.972321195594,201.887877876946,-56.1728635612722,171.21393
66,206,0.6600000000000001,0.0835877769364366,-0.0532011040816638,2.19959223797527,0.177670229089651,-0.0453393619422167,-0.0881000351155218,-1.98888222165572,-0.956096350818064,2.09950085759738,192.732311063434,192.778088897504,201.887877876946,-57.7464323293587,174.86942
67,207,0.6699999999999999,0.083705024548685,0.0149588412027611,2.0229266427204,-0.0564818497497002,0.021833304978701,-0.0821803191678666,0.906453588183008,-1.80935466220676,-2.70507359403663,192.732311063434,192.691111012771,201.887877876946,-72.0228912173498,188.39264
68,208,0.6800000000000002,0.11213757053184,0.0144312269474834,1.90984189250346,-0.171091894357583,0.109624931910149,0.0276671165770519,1.71427933428452,0.859077909575786,-1.1955904329868,192.732311063434,203.677791188986,201.887877876946,-34.6586221684198,210.93623
69,209,0.69,0.131854710667135,-0.0240064486187045,1.90913804551053,-0.0564818497496487,-0.0582088879725848,0.120721579104117,-0.562186462118583,1.82536151432462,0.269191163720457,192.732311063434,200.972321195594,201.887877876946,-66.4078494736821,190.20898
70,210,0.7000000000000002,0.141390849800968,0.0242018613058843,1.85189182340925,-0.170387324411126,-0.143429959547672,-0.0022246802606704,-1.78893098782567,-0.508193945976433,1.7558326537661,195.784166667938,203.718991239648,201.887877876946,-51.3166203471798,181.08371
71,211,0.71,0.133144434402322,-0.121947287427631,1.90209957558072,0.648792666554169,0.138396179122848,-0.115952916856231,-0.393043309603099,-1.97089616072869,-3.00971613565063,195.784166667936,195.816211151787,201.887877876946,-66.9615499817265,181.57709
72,212,0.7200000000000002,0.200073279757693,0.0828256674564637,1.44061056380488,-0.523376867536055,0.198852762666582,-0.0857145684377902,1.44803934873374,0.502458144064584,-1.58527946489887,195.784166667938,203.718991239648,201.887877876946,-54.4522859133989,197.45056
73,213,0.73,0.131620215442492,0.0340897432765858,1.85118797641641,-0.406653113089481,0.0471029949073645,0.127543324327651,-0.219169641953073,1.88261210727548,-0.100340745492187,200.972321195594,208.934612467746,201.887877876946,-58.2412567309382,184.88185
74,214,0.7400000000000002,0.0350277241750305,-0.0336012115586382,2.37379436875462,0.177670229089651,-0.0384925549070236,-0.0295686674677799,-2.34012253241053,0.436225800177387,1.46120731239304,197.920465591091,205.901067996868,201.887877876946,-57.7579003123341,177.32594
