,Unnamed: 0,t,iq,id,vq,vd,ia,ib,va,vb,theta_e,omega,omega_obs,r,omega_ekf,omega_meta
0,194,0.0,0.37588607438963,-0.102054275866221,2.02503818369937,0.412526877838869,0.0557829429344326,-0.385478507079446,-0.65472517927273,-1.96017678029463,3.02019354422103,189.98564101828,192.778088896524,232.711619482436,-83.7897006213936,220.79344
1,195,0.01,0.131678839253262,-0.0246513104817095,3.02426629814284,0.0637647544077589,0.133592591375554,-0.010001167187701,2.90640453667078,-0.83848986589392,-1.83058581883071,176.862661920014,176.908439753749,232.711619482436,-87.9329032299431,237.11043
2,196,0.02,0.210430152181042,-0.0627958670080198,2.37660975671677,0.0588327647220916,0.0209662328048263,0.218596859406075,0.948443789130073,2.17995174460051,-0.385623858717121,192.732311063434,176.83061743689,232.711619482436,-89.1533420778565,237.29541
3,197,0.03,0.0841740149919216,-0.0432545983079964,2.08545171725734,0.411822307943666,-0.0902247844921982,-0.0285606956845027,-1.98714515246109,0.754957363949811,1.40268415937138,179.914517524518,189.985641019381,232.711619482436,-100.882251227669,262.0821
4,198,0.04,0.190654388232389,0.180063020561473,2.26035769506449,-0.873548130739913,-0.249606513788028,-0.0804262109052471,-0.322472453435008,-2.40173161763175,2.6393405113148,203.718991239648,195.73838883496,232.711619482436,-78.5564197334701,266.99442
5,199,0.05,0.152568455503641,0.0246708517550509,2.49004643045598,-0.290633928589255,0.113555288711469,-0.104837879350649,2.23625734191786,-1.1331162371938,-2.15598375390721,200.972321197726,213.744336900888,232.711619482436,-76.8109471000038,269.79123
6,200,0.06,0.288536603241027,-0.0145875571033283,2.72853325323881,-0.172501034225191,0.153919822998255,0.244488969731353,1.42726056919881,2.3318613999226,-0.612383818948945,166.791538425151,226.913093833879,232.711619482436,-90.0530994521058,271.87845
7,201,0.0699999999999998,0.26905395832816,0.01472434597829,2.78577947535371,-0.407357683036333,-0.204336357835078,0.175651620326243,-2.45687911282439,1.37486457231176,0.915415631652058,184.797486491724,223.907016062941,232.711619482436,-78.4927242720021,250.6909
8,202,0.08,0.259224700165898,-0.004699675128646,2.49426951239826,-0.172501034223053,-0.108511909601375,-0.235466977721033,-0.929493738794973,-2.32102959843868,2.69163551229245,189.985641019381,226.867316001011,232.711619482436,-86.3617629451912,261.13678
9,203,0.0899999999999998,0.210664647402887,-0.0335425877517468,2.49250989491237,-0.174614744091663,0.212684805591864,-0.0164277913554327,2.46466589644444,-0.410509322663901,-1.80578059245121,200.972321195594,231.796062801084,232.711619482436,-98.2651193596518,274.89145
10,204,0.1,0.122787561999383,-0.0535528469210038,2.84408146785622,-0.0550727098279894,-0.0354575844908662,0.129179922964716,0.351896746031413,2.82276479347881,-0.143385559961826,205.855290162912,242.782742977299,232.711619482436,-86.6981805520072,265.94998
11,205,0.1099999999999998,0.12261169056514,-0.034070202008431,2.66917549016569,-0.0550727098536465,-0.119609148385256,-0.0434517773018639,-2.65691956514113,-0.261360335632922,1.6482206174692,213.790114734511,242.736965143841,232.711619482436,-95.1508167452861,254.01266
12,206,0.1200000000000001,0.248926451564436,-0.0823957595574366,1.79288598374906,0.411822307994902,0.150703864452135,-0.214573494916546,0.122904375381413,-1.83546513957585,-2.84895004284166,218.978269262167,242.782742977299,232.711619482436,-103.23455744846,229.76988
13,207,0.1299999999999999,0.10254280758948,0.0046605925852905,2.43667136680877,-0.288520218733578,0.0914906028784622,0.0465426481467776,1.97703810008334,1.45324864261511,-1.05478203930011,223.861238229024,247.970897504955,232.711619482436,-82.2341052416793,263.363
14,208,0.1400000000000001,0.0446224871034735,0.005012335429165,2.66847164322705,-0.289929358662647,-0.0251437036988331,0.037203279775571,-1.95226624265646,1.84213367091139,0.706189606975251,226.913093833879,244.919041900452,232.711619482436,-61.1152435646429,253.10446
15,209,0.1499999999999999,0.12220132391904,-0.0919318986714988,2.02574203070009,0.411117737952189,0.019842525443425,-0.151627542830911,-1.35530178199985,-1.56070677871017,2.62674614468363,234.847918405589,239.776665206141,232.711619482436,-46.5005594253611,236.65437
16,210,0.1600000000000001,0.0442707442766074,-0.0142358142646358,2.20064800847373,-0.0564818497321468,0.0464263335036419,0.002674465178421,2.14444371764079,-0.497396218742658,-1.82437300689862,237.899774010092,239.703420673207,232.711619482436,-70.5667287601401,260.14005
17,211,0.1699999999999999,-0.004523803706322,0.0441534966649552,2.43526367280948,-0.290633928589255,0.0436314059650256,-0.0081422651167024,-0.0892271760753967,2.45092140787956,-0.0823926224961204,239.730887372794,244.964819733742,232.711619482436,-68.4025127549867,255.05177
18,212,0.1800000000000001,-0.0042893084910771,-0.0727423728049913,2.43385597886693,0.412526877906543,0.0171293184740654,-0.0708268128412257,-2.46843315355659,-0.0259059314493782,1.74919031433275,239.730887372794,239.730887372794,232.711619482436,-80.139734261672,258.09317
19,213,0.1899999999999999,0.0830601626770852,-0.0046410513202559,1.90878612203213,-0.0557772798034009,0.0278311235408147,-0.0783961640882832,0.590759647550245,-1.81592362268654,-2.85628269477957,239.730887372794,234.847918405589,232.711619482436,-103.805892303392,238.65938
20,214,0.2000000000000001,-0.0045824275152149,-0.151435061916956,2.14199409238423,0.767630130813142,-0.0964600821794861,0.116829059594141,2.16285036232178,0.706734051638744,-0.910859569559953,244.91904189979,242.782742977299,232.711619482436,-65.2602409444481,274.8494
21,215,0.2099999999999999,0.0637533891887934,-0.0143530618713688,2.08369209978673,-0.0557772798034009,-0.051061868180412,0.0407822343192146,-1.34630303755287,1.59133654603036,0.675417013240517,239.730887372794,237.899774010092,232.711619482436,-21.4017987994091,254.0118
22,216,0.2200000000000002,0.0541000024407956,-0.062678619418682,2.0833401762958,0.41041316809251,0.006434157141168,-0.0825470848559102,-1.75805739741447,-1.19078942139583,2.36065371674064,239.730887372794,229.964949438382,232.711619482436,-51.6816205085135,237.6906
23,217,0.2299999999999999,0.0345001099209872,0.0146657221666127,2.02503818369937,-0.055072709840818,0.0216899839491609,-0.0305758988014026,1.75330316275783,-1.01476138489453,-2.12264933406806,239.730887372794,229.964949438382,232.711619482436,1.08751807606841,250.657
24,218,0.2400000000000002,0.092772173237116,-0.0045824275148591,1.85083605289728,-0.0564818497406991,0.0375817085533825,0.0849428628624855,0.780982956514323,1.67894309483337,-0.465899523197913,237.899774010092,234.893696239378,232.711619482436,0.781644189054924,252.76456
25,219,0.25,0.0442707442796007,-0.0145289332940487,2.20064800845576,0.062355614554249,-0.0464277198841609,-0.003931351941839,-2.12699291851758,0.568014968431999,1.33816295843727,237.899774010092,234.847918405589,232.711619482436,-0.208676102197212,243.40611
26,220,0.2600000000000002,0.102718679011386,-0.0531424802789874,1.96673619110508,0.295098553496513,0.039566104645372,-0.108672782200688,-0.544259230938243,-1.91282939417418,3.01332110054041,234.847918405589,229.919171604648,232.711619482436,9.26394108522572,221.95895
27,221,0.27,0.083353281713521,0.053748259598932,1.96603234410525,-0.289929358622396,0.0828766815029693,-0.0544802775817374,1.96850953783415,0.272603027340412,-1.57960356270962,234.847918405589,231.796062801084,232.711619482436,3.58156962197626,251.92479
28,222,0.2800000000000002,0.112489313369466,-0.0826888785762374,1.90808227501878,0.179079368982457,-0.108754900703607,0.0875423773693535,-0.315880031489517,1.89025585420128,0.259158623238838,237.899774010092,234.847918405589,232.711619482436,-7.83417760429782,240.10976
29,223,0.29,0.0535723881741173,-0.0346564400919767,2.26141346558798,0.182602218827443,-0.0416277193655726,-0.0483549645325918,-2.22115244097784,-0.462402710417618,1.85661826732556,234.847918405589,226.958871666857,232.711619482436,2.87377542941536,234.3257
30,224,0.3000000000000002,0.093475658905614,-0.0144703094846221,2.02292664272815,0.061651044589528,0.0486802947606339,-0.0811006631689115,0.706415406326908,-1.8965785844152,-2.75457666475083,231.796062801084,223.861238229374,232.711619482436,44.3168433400661,223.93556
31,225,0.31,0.10295317423896,0.0052468306546041,1.96603234410311,-0.173910174167461,0.0909810341549209,0.048469957106407,1.59638142656772,1.16064390217161,-1.03037566011228,231.796062801084,231.768596101331,232.711619482436,83.7135117801159,245.20113
32,226,0.3199999999999998,0.141449473607413,-0.0434890935295664,1.91019381599855,0.0609464746436773,-0.126080072058381,0.0774794828944477,-1.21592187561542,1.47447918935821,0.721483862126669,231.796062801084,234.847918405589,232.711619482436,72.5546656043926,227.92265
33,227,0.33,0.112430689555801,-0.0047582989370362,2.08439594680667,0.0623556145628013,-0.0695899495521333,-0.0884338186674004,-1.404439928998,-1.5414743499545,2.43258427106071,231.796062801084,229.964949438382,232.711619482436,57.7170402062716,212.21701
34,228,0.3399999999999998,0.0832946579056646,0.0342656146947075,2.08369209978673,-0.172501034248658,0.0497956548988143,-0.0750501508274703,1.82258818807082,-1.02454949623491,-2.16551006531063,231.796062801084,229.964949438382,232.711619482436,66.9339128619341,231.98232
35,229,0.3500000000000001,0.0638706368059295,-0.0231270914829041,2.25895000102675,0.0560144847862363,0.0053311226586967,0.0677192715381043,0.984414309288544,2.03394227973966,-0.425968784645037,231.796062801084,234.847918405589,232.711619482436,78.8495374542195,241.48483
36,230,0.3599999999999999,0.15110286035034,-0.0145289332915667,1.96919965559799,-0.0550727098535944,-0.146922017205417,0.0381717849849388,-1.86866690300448,0.623589843241124,1.22074848571641,229.964949438382,229.964949438382,232.711619482436,78.7539071136711,226.9559
37,231,0.3700000000000001,0.122435819143736,-0.0438994601669885,1.96568042064083,0.414640587692781,0.0309863554301731,-0.126323149855859,-0.615940884362346,-1.91218282599333,3.03786554216159,231.796062801084,229.964949438382,232.711619482436,88.7702718651277,205.44153
38,232,0.3799999999999999,-0.0237719533908509,-0.0240650724239067,2.66811971966462,0.0609464746376355,-0.0219521044619608,0.0257359396268297,2.65655516575991,-0.255522919731886,-1.64384863873528,229.964949438382,229.919171604959,232.711619482436,76.2004273268004,253.6873
39,233,0.3900000000000001,0.0832946579056646,-0.0338357067865499,2.20099993196146,-0.0557772798034009,-0.0333687953214147,0.0834828041465104,-0.0434526293923026,2.20127773677823,-0.0055992007498169,229.964949438382,231.796062801084,232.711619482436,75.028967752541,239.63437
40,234,0.3999999999999999,0.122846185793719,-0.0231857153217152,2.02292664269723,0.0567190549113144,-0.117047832880183,-0.0439154594317021,-2.00266973881473,-0.291141151608752,1.74319226635875,229.964949438382,229.964949438382,232.711619482436,77.9042279928886,225.72945
41,235,0.4100000000000001,0.103070421841277,0.0243777327316247,2.02398241323619,-0.054368139945909,-0.0039130847448035,-0.105841737889423,0.446096910405976,-1.97495778442396,-2.94629943455879,229.964949438382,223.861238229374,232.711619482436,81.4840668820956,212.17056
42,236,0.4199999999999999,0.0348518527622551,-0.033542587746796,2.37520206271641,0.176261089157782,0.0174188958995994,0.0451258118968771,2.22730675478701,0.843657175850205,-1.13464351628997,229.964949438382,229.964949438382,232.711619482436,58.9183132962584,252.87643
43,237,0.4300000000000001,0.073524023547229,-0.0142944380689653,2.31830776413618,-0.0557772798034009,-0.0464011516118171,0.0587966506476188,-1.11206311495242,2.03493921839417,0.476085466501884,229.964949438382,229.992416138756,232.711619482436,15.1082722888892,234.83049
44,238,0.4399999999999999,0.0833532817128094,-0.0145289332929812,2.25965384804882,0.179783938940763,-0.0561544951620842,-0.0632892735621001,-1.87966134806392,-1.26697710882929,2.24328526484276,226.913093833879,226.958871667135,232.711619482436,-15.8507761032192,221.80003
45,239,0.4500000000000002,0.112665184786012,-0.0046410513202559,2.14164216889437,-0.0557772798034009,0.0751043570737358,-0.0841089696094559,1.40258271642259,-1.61941471159227,-2.45386123381048,226.913093833879,223.861238229374,232.711619482436,21.3654470567056,227.41911
46,240,0.4599999999999999,0.0443293680865676,-0.0246513104957109,2.43491174930378,0.180488508903346,0.0128491819195155,0.0490681007183847,1.81422037453071,1.63400604692315,-0.763623600350577,226.913093833879,234.847918405589,232.711619482436,21.9584003782037,258.98004
47,241,0.4700000000000002,0.0828256674639131,-0.0146461808995673,2.37942514466006,-0.0543681399330804,-0.0761706068869023,0.0356740865652726,-1.97743764103894,1.32452266476744,0.957770133753584,226.913093834323,231.796062801084,232.711619482436,14.3029772891296,244.68936
48,242,0.48,0.0835291531356672,-0.0239478248071264,2.31725199362229,0.0609464746269451,-0.0213140429434874,-0.084239713377704,-1.21817473351223,-1.97216165497364,2.61456596552773,226.913093833879,223.861238229374,232.711619482436,19.4706211773297,221.70294
49,243,0.4900000000000002,0.0437431300287474,-0.0250030533126847,2.37942514466753,0.0651738942760195,0.0489453707903533,0.0119567879409016,2.2689854927064,-0.719455689712095,-1.85046681655509,229.964949438382,229.964949438382,232.711619482436,20.4364703338357,249.61354
50,244,0.5,0.0835291531363788,-0.0340115782032431,2.37555398620075,-0.0557772798034009,-0.011376676576029,0.0894677489693374,0.557272194554563,2.30993842936839,-0.260201761915656,226.913093833879,234.847918405589,232.711619482436,7.10648259650626,248.77269
51,245,0.5100000000000002,0.0348518527525097,-0.0728009966070081,2.49215797143986,0.295803123435949,-0.0352587924742613,-0.0726047815265165,-2.49046324720459,0.309747730853455,1.56519904359835,231.796062801084,234.847918405589,232.711619482436,-4.97294997659285,244.28947
52,246,0.52,0.121732333452986,0.0054227020774618,2.02820549526025,-0.057186419737119,0.0169010186389297,-0.120675276153388,0.426644755722503,-1.9836486760565,-2.95792736585972,229.964949438382,226.913093833879,232.711619482436,42.7480378329129,225.25497
53,247,0.5300000000000002,0.0247880993665562,-0.0430787268907211,2.49356566540999,0.05883276482323,0.0145779580736814,0.0475153629801309,2.44410966584529,0.497653456985809,-1.34633932548186,229.964949438382,234.847918405589,232.711619482436,36.0579577415249,266.52188
54,248,0.54,0.190713012040424,-0.111942157838946,1.7321205267704,0.530659772192242,-0.192473058600925,0.108888114025248,-0.409276417631845,1.76474761001479,0.525174349842132,231.796062801084,239.730887372794,232.711619482436,29.5052557826254,252.0287
55,249,0.5500000000000003,0.0639878844125155,-0.0336598353659119,2.37590590973793,0.177670229095032,-0.0354390702154305,-0.0630198871049094,-2.0913045714973,-1.14146431896437,2.14506147742251,229.964949438382,231.796062801084,232.711619482436,34.5199569184749,243.82726
56,250,0.56,0.0628154082573974,0.0051295830381796,2.26422885366452,-0.173205604196326,0.0376332735150587,-0.0505551665137192,1.62541739303053,-1.58579657633816,-2.420204668152,231.796062801084,231.796062801084,232.711619482436,6.88419026401748,247.74532
57,251,0.5699999999999998,0.044329368084139,-0.0144703094848,2.37660975672727,-0.0557772798034009,0.0148970667738588,0.0441877826198619,1.37589323836364,1.93863427116584,-0.640686628237006,231.796062801084,237.899774010092,232.711619482436,-14.5456200138038,262.95245
58,252,0.5800000000000001,0.219380053223083,0.0148415935882251,1.55932609010016,-0.172501034223053,-0.191698386600525,0.107701482010029,-1.48206428025309,0.514528843965983,1.126467149277,231.796062801084,237.899774010092,232.711619482436,-28.3192800845191,248.29686
59,253,0.5899999999999999,0.0638706368013127,-0.0725078775729699,2.2002960849671,0.411117737977637,0.0523958444769355,-0.0811882136587004,-0.994233214259809,-2.00544782322153,2.86605445069441,234.847918405589,231.796062801084,232.711619482436,-23.8681952470686,227.659
60,254,0.6000000000000001,0.199604289269805,0.0536310119789495,1.44342595198026,-0.289224788638432,0.192278163658887,-0.0758107216741557,1.46684244667967,0.124509814199004,-1.68387141885318,234.847918405589,234.847918405589,232.711619482436,-48.9195940627001,239.24716
61,255,0.6099999999999999,0.0636947653823558,-0.0141771904529412,2.2013518554597,0.060241904689915,-0.0180872171745694,0.0626966381964159,-0.0759444915698186,2.2008660824359,0.0618519929749991,234.847918405589,234.847918405589,232.711619482436,-37.0926754558974,234.87187
62,256,0.6200000000000001,0.0541586262433461,-0.0338357067869057,2.25895000107764,0.178374799057987,-0.0471591713008494,-0.04305838376615,-2.25402958261848,-0.232429165528768,1.75235041118194,234.847918405589,231.796062801084,232.711619482436,-38.9466495761411,236.16902
63,257,0.6299999999999999,-0.0138254476125801,0.11202032291486,2.43280020831659,-0.288520218733578,-0.111545390089279,-0.017243018803805,0.940939252046785,-2.26194475930801,-2.86542549934801,234.847918405589,229.964949438382,232.711619482436,-56.0902657239131,228.52281
64,258,0.6400000000000001,0.0441534966674148,0.063518893970764,2.31830776413618,-0.406653113128968,0.0685719663948837,-0.0358059573809654,1.86549390661413,1.43521779812581,-1.08866870900209,231.796062801306,231.796062801084,232.711619482436,-67.7139597830668,258.0368
65,259,0.6499999999999999,0.102718679008958,-0.004816922740623,2.14304986287481,-0.171796464288265,-0.0556632325450554,0.0864634853835393,-1.22301097196588,1.76816879917071,0.525128328994421,231.796062801084,231.796062801084,232.711619482436,-63.5003262485104,237.1842
66,260,0.6600000000000001,0.0736998949612847,-0.0534355993077506,2.14129024541091,0.296507693375386,-0.0172957079226549,-0.0893750316259361,-1.76600115896771,-1.24670791841852,2.32310072104324,234.847918405589,226.913093833879,232.711619482436,-73.8696952619162,222.32042
67,261,0.6699999999999999,0.0832946579056646,-0.004523803706322,2.02503818369937,-0.0564818497595694,0.0617801554930292,-0.0560506665692046,1.46393923805781,-1.40030416412558,-2.3618655984431,231.796062801084,223.861238229374,232.711619482436,-111.066366062084,224.27385
68,262,0.6800000000000002,0.054100002440084,-0.0340115782004277,2.25895000107123,0.062355614520412,0.0029250324240773,0.0638360548672848,1.33978980188144,1.81980950013358,-0.607030062576875,231.796062801084,231.796062801084,232.711619482436,-86.2748390408569,245.1344
69,263,0.69,-0.0040548132488075,-0.0048169227416904,2.72571786522528,-0.0550727098450942,0.0010622354017681,-0.0062061188462154,-2.37935864068592,1.33087315066883,1.04060762433272,231.796062800884,226.913093833879,232.711619482436,-60.2289437411911,232.6225
70,264,0.7000000000000002,0.0833532817107056,-0.0141771904585274,2.20064800847159,0.177670229116413,-0.0235201530020691,-0.0812130820988889,-1.1178957186828,-1.9038717209032,2.69122132486902,229.964949438382,221.756983788995,232.711619482436,-49.3224830193819,214.81607
71,265,0.71,0.161283861351183,-0.0045238037056104,1.73247245026969,0.0609464746290832,0.16009282077623,-0.020080773596262,1.70300355489563,-0.323966287946795,-1.72361807406235,231.796062801084,226.913093833879,232.711619482436,-50.3962581942474,233.02417
72,266,0.7200000000000002,0.0639878844096691,-0.0049341703463506,2.31725199366339,-0.0543681399330804,0.0083916786505039,0.063626842744699,0.425531174614987,2.27849422123636,-0.208090844217399,229.964949438382,229.964949438382,232.711619482436,-44.9684451283085,236.89879
73,267,0.73,0.11243068955847,-0.0338357067805633,2.20135185546608,0.061651044589528,-0.114360378385741,-0.0265935868848744,-2.19293352330641,0.20197377359917,1.50695201555749,229.964949438382,226.913093833879,232.711619482436,-48.2253107200901,227.67154
74,268,0.7400000000000002,0.0832360341002678,0.0247880993658446,2.25965384804882,-0.173910174133624,-0.0168070639504819,-0.0852068650067372,0.38678188585833,-2.2330875563759,-3.04690096804057,229.964949438382,221.756983788917,232.711619482436,-60.5072470500822,214.35228
