t,iq,id,vq,vd,ia,ib,va,vb,theta_e,omega,omega_obs,r
0,0,0,0,0,0,0,0,0,0,-0.144963141214248,0,0
0.01,-0.033777082977326,0.0342069908891684,0.14740902191161,-0.289224788698249,0.0126874271341113,-0.0463685103584904,-0.176488608526655,0.272455811460885,-0.524637440120955,-0.144963141214248,116.741106511286,-0.144963141214248
0.02,0.00489508780461976,0.0150174650133952,-0.085095101405774,-0.290633928589255,0.0154496458950988,-0.00328551088257886,-0.29416936566517,0.0719280267672821,-0.524637440120955,-0.144963141214248,116.741106511286,-0.144963141214248
0.03,-0.00469967512651318,-0.00452380370774146,-0.0274969558611167,-0.0564818497510399,-0.00626944116167511,-0.00180162532210109,-0.0626585618034799,0.00449294621008642,-0.524637440120955,-0.144963141214248,111.898812310286,-0.144963141214248
0.04,-0.00458242751610474,0.0818290628018847,-0.0282008028428025,-0.518444878151833,0.068528178003577,-0.0449542320642363,-0.462842708361442,0.235280692534456,-0.524637440120955,-0.144963141214248,111.85813754408,-0.144963141214248
0.05,0.00489508781243965,-0.0335425877505195,-0.0267931088635868,-0.0571864197029519,-0.0265793519216104,0.0210381826477475,-0.0629158146194669,0.00545504828457535,-0.524637440120955,-0.144963141214248,111.85813754408,-0.144963141214248
0.06,0.0340311194831843,0.0150174650052731,-0.201699086706834,-0.173910174120789,0.0300438620123299,0.021931887831362,-0.251551149615374,-0.0874602159171689,-0.524637440120955,-0.144963141214248,111.85813754408,-0.144963141214248
0.07,-0.00469967512686871,0.0345587337267121,-0.0271450323596839,-0.291338498541167,0.0275567140246546,-0.0213780386203996,-0.265752029364452,0.122437054859651,-0.524637440120955,-0.144963141214248,114.909993148584,-0.144963141214248
0.08,-0.00464105132025594,-0.00493417034278924,0.0308050367290811,-0.171796464343127,-0.00659525116419743,-0.00154533375361526,-0.133260583231845,0.112714650358273,-0.524637440120955,-0.144963141214248,116.741106511286,-0.144963141214248
0.09,-0.0143530618719012,-0.0726251251817742,0.0891070293160783,0.177670229074363,-0.0700468906535444,0.0239552145166223,0.198408222274321,-0.011872249442152,-0.524637440120955,-0.144963141214248,116.741106511286,-0.144963141214248
0.1,0.0244363565363132,-0.00481692273430922,-0.0854470249824755,-0.0557772798034009,0.00807107879443081,0.0235625964717858,-0.0910758981455976,-0.0460160819452873,-0.524637440120955,-0.144963141214248,114.909993148584,-0.144963141214248
0.11,-0.0338357067816282,-0.0536114707263721,0.147409021900941,0.0623556145457112,-0.0633493081892723,-0.00243104890892205,0.127806200898187,0.0963494546696431,-0.524637440120955,-0.144963141214248,108.833341720848,-0.144963141214248
0.12,-0.0143530618738295,0.0522826644893583,0.0891070293276543,-0.399607413811732,0.0380615013480696,-0.0386110024007624,-0.301228812974204,0.277285683155572,-0.524637440120955,-0.144963141214248,108.806281939576,-0.144963141214248
0.13,-0.0435477173325624,0.0146070983608856,0.206062937986169,-0.172501034238006,-0.0091704930189733,-0.0450074778807956,-0.0460838428818251,0.264754264649159,-0.524637440120955,-0.144963141214248,108.806281939576,-0.144963141214248
0.14,0.0243191089248112,-0.00493417034545571,-0.0850951014862159,-0.171796464330308,0.00791087109037998,0.0235198472462343,-0.191314874368099,0.0124024311674291,-0.524637440120955,-0.144963141214248,114.909993148584,-0.144963141214248
0.15,-0.00458242751293238,-0.00452380370560883,-0.0282008028618464,-0.173910174156781,-0.00621071191929547,-0.00170014685650418,-0.164645991128148,0.0627035211349767,-0.524637440120955,-0.144963141214248,116.741106511286,-0.144963141214248
0.16,-0.00469967512547352,0.0345587337239217,0.0311569602200042,-0.291338498524399,0.0275567140229384,-0.0213780386177944,-0.236548605576584,0.172897756180859,-0.524637440120955,-0.144963141214248,116.759656927148,-0.144963141214248
0.17,0.00501233542317676,-0.0344805686630777,-0.0857989484363762,0.063764754477306,-0.0273324504192078,0.0216094950381815,0.0122121243037476,-0.106199187785636,-0.524637440120955,-0.144963141214248,116.741106511286,-0.144963141214248
0.18,-0.00458242751486073,-0.00452380370946552,-0.0282008028502704,-0.0564818497406796,-0.00621071192359936,-0.00170014685624136,-0.0630111182164528,0.00388376269109368,-0.524637440120955,-0.144963141214248,114.919081150569,-0.144963141214248
0.19,0.00507095923050059,-0.0332494687034155,-0.0861508719399433,-0.0585955596623109,-0.0262375618839208,0.0210435772378232,-0.0938676915645232,-0.0452135911922453,-0.524637440120955,-0.144963141214248,111.85813754408,-0.144963141214248
0.2,-0.00446517990353661,-0.140609199060333,-0.0285527263443957,0.527841492464156,-0.123934655047165,0.0665664027141284,0.442547731074922,-0.289107947087111,-0.524637440120955,-0.144963141214248,111.85813754408,-0.144963141214248
0.21,-0.0048169227438261,-0.0532011040731522,-0.0271450323447489,0.0609464746226656,-0.0484586466809102,0.0224793189660423,0.0391525892876077,-0.0540222204468179,-0.524637440120955,-0.144963141214248,111.85813754408,-0.144963141214248
0.22,-0.00469967512600668,0.0340311194732313,-0.0274969558641573,-0.2885202187646,0.0271000609316995,-0.0211137570410746,-0.26348907063879,0.120720788896008,-0.524637440120955,-0.144963141214248,114.909993148584,-0.144963141214248
0.23,-0.00464105132025594,0.0342069908813481,-0.027848879358281,-0.289224788651254,0.0272816432408371,-0.0211511116633043,-0.264275158035175,0.120769115660247,-0.524637440120955,-0.144963141214248,116.741106511286,-0.144963141214248
0.24,-0.00464105132025594,-0.00464105132025594,-0.027848879358281,-0.0557772798034009,-0.0063415550074175,-0.00169215684923025,-0.0622250307773217,0.00383543589964971,-0.524637440120955,-0.144963141214248,116.741106511286,279.710195791796
0.25,-0.00464105132025594,-0.00464105132025594,-0.027848879358281,-0.0557772798034009,-0.0063415550074175,-0.00169215684923025,-0.0622250307773217,0.00383543589964971,-0.524637440120955,-0.144963141214248,116.741106511286,279.710195791796
0.26,-0.00464105132025594,-0.00464105132025594,-0.027848879358281,-0.0557772798034009,-0.0063415550074175,-0.00169215684923025,-0.0622250307773217,0.00383543589964971,-0.524637440120955,-0.144963141214248,116.741106511286,279.710195791796
0.27,-0.00464105132025594,-0.00464105132025594,-0.027848879358281,-0.0557772798034009,-0.0063415550074175,-0.00169215684923025,-0.0622250307773217,0.00383543589964971,-0.524637440120955,-0.144963141214248,116.741106511286,279.710195791796
0.28,-0.00464105132025594,-0.00464105132025594,-0.027848879358281,-0.0557772798034009,-0.0063415550074175,-0.00169215684923025,-0.0622250307773217,0.00383543589964971,-0.524637440120955,-0.144963141214248,116.741106511286,279.710195791796
0.29,-0.00464105132025594,-0.00464105132025594,-0.027848879358281,-0.0557772798034009,-0.0063415550074175,-0.00169215684923025,-0.0622250307773217,0.00383543589964971,-0.524637440120955,-0.144963141214248,116.741106511286,279.710195791796
0.3,-0.00464105132025594,-0.00464105132025594,-0.027848879358281,-0.0557772798034009,-0.0063415550074175,-0.00169215684923025,-0.0622250307773217,0.00383543589964971,-0.524637440120955,-0.144963141214248,116.741106511286,279.710195791796
0.31,-0.00464105132025594,-0.00464105132025594,-0.027848879358281,-0.0557772798034009,-0.0063415550074175,-0.00169215684923025,-0.0622250307773217,0.00383543589964971,-0.524637440120955,-0.144963141214248,116.741106511286,279.710195791796
0.32,-0.00464105132025594,-0.00464105132025594,-0.027848879358281,-0.0557772798034009,-0.0063415550074175,-0.00169215684923025,-0.0622250307773217,0.00383543589964971,-0.524637440120955,-0.144963141214248,116.741106511286,279.710195791796
0.33,-0.00464105132025594,-0.00464105132025594,-0.027848879358281,-0.0557772798034009,-0.0063415550074175,-0.00169215684923025,-0.0622250307773217,0.00383543589964971,-0.524637440120955,-0.144963141214248,116.741106511286,279.710195791796
0.34,-0.00464105132025594,-0.00464105132025594,-0.027848879358281,-0.0557772798034009,-0.0063415550074175,-0.00169215684923025,-0.0622250307773217,0.00383543589964971,-0.524637440120955,-0.144963141214248,116.741106511286,279.710195791796
0.35,-0.00464105132025594,-0.00464105132025594,-0.027848879358281,-0.0557772798034009,-0.0063415550074175,-0.00169215684923025,-0.0622250307773217,0.00383543589964971,-0.524637440120955,-0.144963141214248,116.741106511286,279.710195791796
0.36,-0.00464105132025594,-0.00464105132025594,-0.027848879358281,-0.0557772798034009,-0.0063415550074175,-0.00169215684923025,-0.0622250307773217,0.00383543589964971,-0.524637440120955,-0.144963141214248,116.741106511286,279.710195791796
0.37,-0.00464105132025594,-0.00464105132025594,-0.027848879358281,-0.0557772798034009,-0.0063415550074175,-0.00169215684923025,-0.0622250307773217,0.00383543589964971,-0.524637440120955,-0.144963141214248,116.741106511286,279.710195791796
0.38,-0.00464105132025594,-0.00464105132025594,-0.027848879358281,-0.0557772798034009,-0.0063415550074175,-0.00169215684923025,-0.0622250307773217,0.00383543589964971,-0.524637440120955,-0.144963141214248,116.741106511286,279.710195791796
0.39,-0.00464105132025594,-0.00464105132025594,-0.027848879358281,-0.0557772798034009,-0.0063415550074175,-0.00169215684923025,-0.0622250307773217,0.00383543589964971,-0.524637440120955,-0.144963141214248,116.741106511286,279.710195791796
0.4,-0.00464105132025594,-0.00464105132025594,-0.027848879358281,-0.0557772798034009,-0.0063415550074175,-0.00169215684923025,-0.0622250307773217,0.00383543589964971,-0.524637440120955,-0.144963141214248,116.741106511286,279.710195791796
0.41,-0.00464105132025594,-0.00464105132025594,-0.027848879358281,-0.0557772798034009,-0.0063415550074175,-0.00169215684923025,-0.0622250307773217,0.00383543589964971,-0.524637440120955,-0.144963141214248,116.741106511286,279.710195791796
0.42,-0.00464105132025594,-0.00464105132025594,-0.027848879358281,-0.0557772798034009,-0.0063415550074175,-0.00169215684923025,-0.0622250307773217,0.00383543589964971,-0.524637440120955,-0.144963141214248,116.741106511286,279.710195791796
0.43,-0.00464105132025594,-0.00464105132025594,-0.027848879358281,-0.0557772798034009,-0.0063415550074175,-0.00169215684923025,-0.0622250307773217,0.00383543589964971,-0.524637440120955,-0.144963141214248,116.741106511286,279.710195791796
0.44,-0.00464105132025594,-0.00464105132025594,-0.027848879358281,-0.0557772798034009,-0.0063415550074175,-0.00169215684923025,-0.0622250307773217,0.00383543589964971,-0.524637440120955,-0.144963141214248,116.741106511286,279.710195791796
0.45,-0.00464105132025594,-0.00464105132025594,-0.027848879358281,-0.0557772798034009,-0.0063415550074175,-0.00169215684923025,-0.0622250307773217,0.00383543589964971,-0.524637440120955,-0.144963141214248,116.741106511286,279.710195791796
0.46,-0.00464105132025594,-0.00464105132025594,-0.027848879358281,-0.0557772798034009,-0.0063415550074175,-0.00169215684923025,-0.0622250307773217,0.00383543589964971,-0.524637440120955,-0.144963141214248,116.741106511286,279.710195791796
0.47,-0.00464105132025594,-0.00464105132025594,-0.027848879358281,-0.0557772798034009,-0.0063415550074175,-0.00169215684923025,-0.0622250307773217,0.00383543589964971,-0.524637440120955,-0.144963141214248,116.741106511286,279.710195791796
0.48,-0.00464105132025594,-0.00464105132025594,-0.027848879358281,-0.0557772798034009,-0.0063415550074175,-0.00169215684923025,-0.0622250307773217,0.00383543589964971,-0.524637440120955,-0.144963141214248,116.741106511286,279.710195791796
0.49,-0.00464105132025594,-0.00464105132025594,-0.027848879358281,-0.0557772798034009,-0.0063415550074175,-0.00169215684923025,-0.0622250307773217,0.00383543589964971,-0.524637440120955,-0.144963141214248,116.741106511286,279.710195791796
0.5,-0.00464105132025594,-0.00464105132025594,-0.027848879358281,-0.0557772798034009,-0.0063415550074175,-0.00169215684923025,-0.0622250307773217,0.00383543589964971,-0.524637440120955,-0.144963141214248,116.741106511286,279.710195791796
0.51,-0.00464105132025594,-0.00464105132025594,-0.027848879358281,-0.0557772798034009,-0.0063415550074175,-0.00169215684923025,-0.0622250307773217,0.00383543589964971,-0.524637440120955,-0.144963141214248,116.741106511286,279.710195791796
0.52,-0.00464105132025594,-0.00464105132025594,-0.027848879358281,-0.0557772798034009,-0.0063415550074175,-0.00169215684923025,-0.0622250307773217,0.00383543589964971,-0.524637440120955,-0.144963141214248,116.741106511286,279.710195791796
0.53,-0.00464105132025594,-0.00464105132025594,-0.027848879358281,-0.0557772798034009,-0.0063415550074175,-0.00169215684923025,-0.0622250307773217,0.00383543589964971,-0.524637440120955,-0.144963141214248,116.741106511286,279.710195791796
0.54,-0.00464105132025594,-0.00464105132025594,-0.027848879358281,-0.0557772798034009,-0.0063415550074175,-0.00169215684923025,-0.0622250307773217,0.00383543589964971,-0.524637440120955,-0.144963141214248,116.741106511286,279.710195791796
0.55,-0.00464105132025594,-0.00464105132025594,-0.027848879358281,-0.0557772798034009,-0.0063415550074175,-0.00169215684923025,-0.0622250307773217,0.00383543589964971,-0.524637440120955,-0.144963141214248,116.741106511286,279.710195791796
0.56,-0.00464105132025594,-0.00464105132025594,-0.027848879358281,-0.0557772798034009,-0.0063415550074175,-0.00169215684923025,-0.0622250307773217,0.00383543589964971,-0.524637440120955,-0.144963141214248,116.741106511286,279.710195791796
0.57,-0.00464105132025594,-0.00464105132025594,-0.027848879358281,-0.0557772798034009,-0.0063415550074175,-0.00169215684923025,-0.0622250307773217,0.00383543589964971,-0.524637440120955,-0.144963141214248,116.741106511286,279.710195791796
0.58,-0.00464105132025594,-0.00464105132025594,-0.027848879358281,-0.0557772798034009,-0.0063415550074175,-0.00169215684923025,-0.0622250307773217,0.00383543589964971,-0.524637440120955,-0.144963141214248,116.741106511286,279.710195791796
0.59,-0.00464105132025594,-0.00464105132025594,-0.027848879358281,-0.0557772798034009,-0.0063415550074175,-0.00169215684923025,-0.0622250307773217,0.00383543589964971,-0.524637440120955,-0.144963141214248,116.741106511286,279.710195791796
0.6,-0.00464105132025594,-0.00464105132025594,-0.027848879358281,-0.0557772798034009,-0.0063415550074175,-0.00169215684923025,-0.0622250307773217,0.00383543589964971,-0.524637440120955,-0.144963141214248,116.741106511286,279.710195791796
0.61,-0.00464105132025594,-0.00464105132025594,-0.027848879358281,-0.0557772798034009,-0.0063415550074175,-0.00169215684923025,-0.0622250307773217,0.00383543589964971,-0.524637440120955,-0.144963141214248,116.741106511286,279.710195791796
0.62,-0.00464105132025594,-0.00464105132025594,-0.027848879358281,-0.0557772798034009,-0.0063415550074175,-0.00169215684923025,-0.0622250307773217,0.00383543589964971,-0.524637440120955,-0.144963141214248,116.741106511286,279.710195791796
0.63,-0.00464105132025594,-0.00464105132025594,-0.027848879358281,-0.0557772798034009,-0.0063415550074175,-0.00169215684923025,-0.0622250307773217,0.00383543589964971,-0.524637440120955,-0.144963141214248,116.741106511286,279.710195791796
0.64,-0.00464105132025594,-0.00464105132025594,-0.027848879358281,-0.0557772798034009,-0.0063415550074175,-0.00169215684923025,-0.0622250307773217,0.00383543589964971,-0.524637440120955,-0.144963141214248,116.741106511286,279.710195791796
0.65,-0.00464105132025594,-0.00464105132025594,-0.027848879358281,-0.0557772798034009,-0.0063415550074175,-0.00169215684923025,-0.0622250307773217,0.00383543589964971,-0.524637440120955,-0.144963141214248,116.741106511286,279.710195791796
0.66,-0.00464105132025594,-0.00464105132025594,-0.027848879358281,-0.0557772798034009,-0.0063415550074175,-0.00169215684923025,-0.0622250307773217,0.00383543589964971,-0.524637440120955,-0.144963141214248,116.741106511286,279.710195791796
0.67,-0.00464105132025594,-0.00464105132025594,-0.027848879358281,-0.0557772798034009,-0.0063415550074175,-0.00169215684923025,-0.0622250307773217,0.00383543589964971,-0.524637440120955,-0.144963141214248,116.741106511286,279.710195791796
0.68,-0.00464105132025594,-0.00464105132025594,-0.027848879358281,-0.0557772798034009,-0.0063415550074175,-0.00169215684923025,-0.0622250307773217,0.00383543589964971,-0.524637440120955,-0.144963141214248,116.741106511286,279.710195791796
0.69,-0.00464105132025594,-0.00464105132025594,-0.027848879358281,-0.0557772798034009,-0.0063415550074175,-0.00169215684923025,-0.0622250307773217,0.00383543589964971,-0.524637440120955,-0.144963141214248,116.741106511286,279.710195791796
0.7,-0.00464105132025594,-0.00464105132025594,-0.027848879358281,-0.0557772798034009,-0.0063415550074175,-0.00169215684923025,-0.0622250307773217,0.00383543589964971,-0.524637440120955,-0.144963141214248,116.741106511286,279.710195791796
0.71,-0.00464105132025594,-0.00464105132025594,-0.027848879358281,-0.0557772798034009,-0.0063415550074175,-0.00169215684923025,-0.0622250307773217,0.00383543589964971,-0.524637440120955,-0.144963141214248,116.741106511286,279.710195791796
0.72,-0.00464105132025594,-0.00464105132025594,-0.027848879358281,-0.0557772798034009,-0.0063415550074175,-0.00169215684923025,-0.0622250307773217,0.00383543589964971,-0.524637440120955,-0.144963141214248,116.741106511286,279.710195791796
0.73,-0.00464105132025594,-0.00464105132025594,-0.027848879358281,-0.0557772798034009,-0.0063415550074175,-0.00169215684923025,-0.0622250307773217,0.00383543589964971,-0.524637440120955,-0.144963141214248,116.741106511286,279.710195791796
0.74,-0.00464105132025594,-0.00464105132025594,-0.027848879358281,-0.0557772798034009,-0.0063415550074175,-0.00169215684923025,-0.0622250307773217,0.00383543589964971,-0.524637440120955,-0.144963141214248,116.741106511286,279.710195791796
0.75,-0.00464105132025594,-0.00464105132025594,-0.027848879358281,-0.0557772798034009,-0.0063415550074175,-0.00169215684923025,-0.0622250307773217,0.00383543589964971,-0.524637440120955,-0.144963141214248,116.741106511286,279.710195791796
0.76,1.06065121277963,0.0342069908891681,1.78936674886163,-0.289929358643751,0.56088572870771,0.900865313311942,0.645356959769824,1.69393234499252,-0.524637440120955,-0.144963141214248,78.1034279178911,279.710195791796
0.77,1.15788856590842,-0.00452380370347565,1.73317629730244,-0.1739101741696,0.576070125203449,1.00442501298479,0.717626459677507,1.58718527292229,-0.524637440120955,-0.144963141214248,22.8110682815788,279.710195791796
0.78,1.15806443733359,-0.00464105132025594,1.90773035152465,-0.173205604196326,0.57605674059722,1.00463595993108,0.805670262036055,1.7379098665708,-0.524637440120955,-0.144963141214248,-0.144963141214248,279.710195791796
0.79,1.17760570605047,0.0151347126132214,1.96638426761201,-0.292043068433918,0.602960981763178,1.01164337239943,0.732195472708059,1.84820075518818,-0.524637440120955,-0.144963141214248,-0.144963141214248,279.710195791796
0.8,1.18731771660247,-0.00505141796530382,1.96673619111024,-0.289224788689694,0.590354511319179,1.0301603894281,0.734810987834456,1.84709367276627,-0.524637440120955,-0.144963141214248,-0.144963141214248,279.710195791796
0.81,1.1584748039639,0.0828842912753586,2.14058639844614,-0.758938086312027,0.652015967480299,0.961149756963058,0.415352932974793,2.23284103534865,-0.524637440120955,-0.144963141214248,-0.144963141214248,279.710195791796
0.82,1.22651750164926,-0.0335425877492714,1.84837258843868,-0.410175962837939,0.585330386731093,1.07835922837155,0.57083883012043,1.80523366249588,-0.524637440120955,-0.144963141214248,-0.144963141214248,279.710195791796
0.83,1.00103080194453,0.052986150153733,2.0882671051133,-1.10629107000028,-0.883419280860834,0.473751593932051,-2.3605042349304,-0.112956587839265,1.13143739864226,38.9187885964366,-0.144963141214248,279.710195791796
0.84,1.10874227508709,-0.0145289332922718,1.91019381602719,0.0623556145435715,-1.08762065702479,0.215874567471212,-1.85566991129677,0.457403342534212,1.36175630291749,38.9187885964366,-15.0715889032629,279.710195791796
