,Unnamed: 0.1,Unnamed: 0,t,iq,id,vq,vd,ia,ib,va,vb,theta_e,omega,omega_obs,r,omega_ekf,omega_meta
0,0,30,0.0,0.0050807298660654,0.0147536578802727,-0.027848879358281,-0.172618462570491,-0.0153145941698602,0.0029912275460996,0.163357707522197,-0.0623454336323392,2.61705109019401,-0.144963141214248,412.771100148168,-0.144963141214248,12.7593811510246,112.240685
1,1,31,0.01,-0.0338063948789551,-0.0532988104236232,0.0888724136506353,0.0610639029626241,0.0630637706812909,0.0025683369605091,-0.0973628320232391,-0.0463420445549495,2.61705109019401,-0.144963141214248,414.90739907132,-0.144963141214248,11.7035958936742,80.79592
2,2,32,0.02,0.00498302352132,0.140599428404543,-0.0859162562788339,-0.871316992646927,-0.124191924121464,0.0661014052354923,0.797199839359213,-0.36200458684097,2.61705109019401,-0.144963141214248,412.771100148168,-0.144963141214248,9.72838193678789,61.656235
3,3,33,0.03,-0.0240357605200025,0.0146559515347378,0.030218497561204,-0.172618462567351,-0.0006480123896509,0.0281441784230123,0.13427662122364,-0.112605862221891,2.61705109019401,-0.144963141214248,414.90739907132,-0.144963141214248,8.54604835968816,53.01785
4,4,34,0.04,0.0148025110538969,-0.053298810426999,-0.144570172377326,0.061063902972767,0.038719640413964,-0.0395052777821804,0.0195490098584135,0.155715032032983,2.61705109019401,-0.144963141214248,412.771100148168,-0.144963141214248,4.29843410859076,52.21244
5,5,35,0.0499999999999999,0.0150467769109598,0.0337575417132123,-0.145743250689745,-0.287698220500105,-0.0367546330785695,0.0038825333465646,0.322008826806662,-0.0179353466411381,2.61705109019401,-0.144963141214248,414.90739907132,-0.144963141214248,4.17324407298108,32.391697
6,6,36,0.06,-0.0043967854625731,0.121253572394066,0.0293386888345694,-0.755062951590934,-0.102749487505561,0.064531413730613,0.638854182613969,-0.403542008822355,2.61705109019401,-0.144963141214248,412.771100148168,-0.144963141214248,30.230307077934,43.615105
7,7,37,0.07,-0.0240357605222524,0.0149002173966153,0.0885791440781342,-0.173792745816288,-0.0008594375907537,0.0282665107393372,0.106065065869034,-0.163708231516247,2.61705109019401,-0.144963141214248,414.875354587544,-0.144963141214248,28.7329204304916,39.05207
8,8,38,0.08,-0.0046410513202559,-0.0144116856786916,-0.027848879358281,-0.172618462575296,0.0147984007280177,-0.0032005276676912,0.163357707526356,-0.0623454336347452,2.61705109019401,-0.144963141214248,412.803144631925,-0.144963141214248,15.2595514315276,45.839287
9,9,39,0.09,-0.0046410513202559,-0.0144116856786916,-0.027848879358281,-0.173205604196326,0.0147984007280177,-0.0032005276676912,0.16386591008487,-0.0626394837030434,2.61705109019401,-0.144963141214248,414.875354587582,-0.144963141214248,20.3859226431648,58.97697
10,10,40,0.1,-0.0241823200371289,0.0537873421427883,0.0894589528164431,-0.407475111359015,-0.0344449299959593,0.0478686700748721,0.307889061961927,-0.281501680528307,2.61705109019401,-0.144963141214248,412.803144631886,-0.144963141214248,16.0903426383488,56.144035
11,11,41,0.1099999999999999,0.0149002173966153,-0.0534942231124358,-0.145156711533001,0.179079368982457,0.038839847647496,-0.039687713710779,-0.0823059562170655,0.215326776944774,2.61705109019401,-0.144963141214248,412.771100148168,-0.144963141214248,24.6906963358904,62.088333
12,12,42,0.12,-0.0045921981481862,-0.014509392022831,-0.0281421489403839,-0.0551901381781005,0.0148585043456579,-0.0032917456333171,0.0618640698322114,-0.0032815793295068,2.61705109019401,-0.144963141214248,414.90739907132,-0.144963141214248,6.40564379881151,58.316067
13,13,43,0.13,-0.0239380541763356,0.053347663592295,0.0879926049032585,-0.404539403223968,-0.0341866969465476,0.0474370467081454,0.306082420015135,-0.27876222741997,2.61705109019401,-0.144963141214248,412.771100148168,-0.144963141214248,22.2691832934957,61.584377
14,14,44,0.14,0.0050807298659376,-0.0336109821898701,-0.0859162562793679,0.059889619707413,0.0265475953682533,-0.0212305704092445,-0.0088094196555082,0.104358822181422,2.61705109019401,-0.144963141214248,414.90739907132,-0.144963141214248,16.6197779297427,62.38226
15,15,45,0.15,-0.0339041012232335,0.0343437797688245,0.147819599320134,-0.290046786960814,-0.0127466580450309,0.0465457409141571,0.177020589621893,-0.273205935915335,2.61705109019401,-0.144963141214248,412.771100148168,-0.144963141214248,21.5010269363756,61.143265
16,16,46,0.16,0.0148025110517753,0.0344414861134865,-0.144276902780385,-0.290633928589255,-0.0372242913205463,0.0044364890202179,0.323815468715642,-0.0206747997231785,2.61705109019401,-0.144963141214248,414.90739907132,-0.144963141214248,33.3473362571532,62.934235
17,17,47,0.1699999999999999,-0.004787610834467,-0.0139720071360584,-0.026969070623967,-0.0581258462725829,0.0144912347587413,-0.0028534743873779,0.0638175859252994,-0.0057671918549224,2.61705109019401,-0.144963141214248,414.90739907132,-0.144963141214248,29.6393864217132,58.007317
18,18,48,0.18,0.0149490705681074,-0.05359192945542,-0.145449981111637,0.179666510600815,0.0388999512644255,-0.0397789316753264,-0.0826672846009395,0.215874667558645,2.61705109019401,-0.144963141214248,414.90739907132,-0.144963141214248,34.5921893960793,61.143227
19,19,49,0.19,-0.0238403478360617,0.101810010019334,0.0876993353414271,-0.637634627193194,-0.07618238949951,0.0716232075184171,0.507985710272748,-0.395246264212356,2.61705109019401,-0.144963141214248,414.90739907132,-0.144963141214248,24.5797164251741,60.49242
20,20,50,0.2,-0.0045921981485859,-0.0147048047087115,-0.0281421489379843,-0.0546029965624086,0.0150276445045071,-0.0033896114826594,0.0613558672771164,-0.0029875292659593,2.61705109019401,-0.144963141214248,417.959254675824,-0.144963141214248,38.2504303854972,57.909004
21,21,51,0.21,0.0050807298664207,0.0147536578813385,-0.0862095258654057,-0.172618462574761,-0.0153145941709606,0.0029912275463259,0.192585667998568,-0.011831164488648,2.61705109019401,-0.144963141214248,414.90739907132,-0.144963141214248,59.2195497696407,60.668736
22,22,52,0.22,0.0051295830381796,0.0149002173966153,-0.086502795445643,-0.173205604196326,-0.0154659157532641,0.0030223418941138,0.193240744730674,-0.0118713740089159,2.61705109019401,-0.144963141214248,417.959254675824,-0.144963141214248,51.8206500763829,59.239788
23,23,53,0.23,0.0051295830381796,-0.0339529543955646,-0.086502795445643,0.061651044589528,0.0268191241877576,-0.0214441206892356,-0.010040278998353,0.10574865349746,2.61705109019401,-0.144963141214248,414.875354587612,-0.144963141214248,60.1094561626619,57.72613
24,24,54,0.24,-0.0047387576643075,-0.0149490705709753,-0.0272623401946025,-0.0534287133043116,0.0153124690949939,-0.0033850886771085,0.059898839625484,-0.0031609507685367,2.61705109019401,-0.144963141214248,417.959254675824,-0.144963141214248,53.3157746425051,58.820656
25,25,55,0.25,0.0146559515360416,-0.0530545445634031,-0.143690363621136,0.176730802479091,0.0385816145992385,-0.0392560903449738,-0.081007516837347,0.212881373911211,2.61705109019401,-0.144963141214248,412.771100148168,-0.144963141214248,52.0729066263904,62.30384
26,26,56,0.26,-0.0045921981480522,-0.0145093920230989,-0.0281421489411881,-0.0557772798034009,0.0148585043458227,-0.0032917456335673,0.062372272394824,-0.0035756293992472,2.61705109019401,-0.144963141214248,417.959254675824,-0.144963141214248,49.8594087371397,59.85178
27,27,57,0.2699999999999999,-0.0240846136925548,0.014753657879754,0.0305117671456733,-0.172618462568413,-0.0007081160078083,0.028235396389495,0.134129747049311,-0.112859702774384,2.61705109019401,-0.144963141214248,414.87535458745,-0.144963141214248,48.5669880791477,60.911327
28,28,58,0.2799999999999999,0.0051295830381796,0.0146559515347405,-0.086502795445643,-0.172618462567357,-0.0152544905510369,0.0029000095797377,0.192732542165289,-0.0115773239366423,2.61705109019401,-0.144963141214248,420.705924719878,-0.144963141214248,50.8459728593308,62.725246
29,29,59,0.29,0.005080729866821,0.0147536578825393,-0.027848879358281,-0.172618462579572,-0.0153145941722005,0.0029912275465808,0.163357707530057,-0.0623454336368868,2.61705109019401,-0.144963141214248,414.90739907132,-0.144963141214248,43.6215282103572,60.352497
30,30,60,0.3,-0.0046410513202559,-0.0144116856786916,0.0305117671507127,-0.0557772798034009,0.0147984007280177,-0.0032005276676912,0.0329974377467465,-0.0543437390973033,2.61705109019401,-0.144963141214248,420.705924719878,-0.144963141214248,48.4638379161261,59.393272
31,31,61,0.31,0.0051295830381796,0.141039106968622,-0.086502795445643,-0.873078417602755,-0.124645888884962,0.0661947482866247,0.799018195464453,-0.362379055990229,2.61705109019401,-0.144963141214248,414.90739907132,-0.144963141214248,45.8126939982353,64.21983
32,32,62,0.32,0.0050807298665541,-0.0338552480523135,-0.0862095258662067,-0.0557772798034009,0.026759020570664,-0.021352902724439,0.0914533586934342,0.0466847991966667,2.61705109019401,-0.144963141214248,420.705924719878,-0.144963141214248,56.0048599824819,55.761673
33,33,63,0.33,-0.0239869073502711,-0.0727423727990202,0.0882858744965619,0.294746268512294,0.0749754576011635,-0.0156686081755292,-0.299333702297272,0.071197563908829,2.61705109019401,-0.144963141214248,414.90739907132,-0.144963141214248,45.4911044401851,56.459606
34,34,64,0.34,-0.0046410513202559,-0.0144116856786916,-0.027848879358281,-0.0557772798034009,0.0147984007280177,-0.0032005276676912,0.0622253982203578,-0.0038294699498561,2.61705109019401,-0.144963141214248,420.705924719878,-0.144963141214248,65.2390558886284,61.96104
35,35,65,0.35,-0.0239380541776671,0.0535430762833264,0.0879926049112519,-0.406300828112678,-0.0343558371089882,0.0475349125615658,0.307607027708848,-0.279644377644613,2.61705109019401,-0.144963141214248,414.90739907132,-0.144963141214248,54.6416525099479,60.852283
36,36,66,0.36,0.0050807298661983,0.0536407826264885,-0.0862095258640708,-0.40630082810947,-0.048973485962669,0.0224665317621508,0.394850286602036,-0.128863091855034,2.61705109019401,-0.144963141214248,420.705924719878,-0.144963141214248,58.4318794921474,63.8305
37,37,67,0.37,-0.0047876108364667,-0.0141674198183402,-0.0269690706119624,-0.0569515630540145,0.014660374915277,-0.0029513402335329,0.0628011808225934,-0.0051790917404823,2.61705109019401,-0.144963141214248,414.90739907132,-0.144963141214248,51.132134849204,60.421528
38,38,68,0.38,-0.0338063948790869,0.0341972202526904,0.0888724136511628,-0.289459645336503,-0.0126687358500004,0.0463877714456589,0.20603409588016,-0.221889935601781,2.61705109019401,-0.144963141214248,420.705924719878,-0.144963141214248,55.1987266573968,58.328957
39,39,69,0.3899999999999999,0.0049830235214518,0.0149002173966153,-0.0272623401919993,-0.173205604196326,-0.0153925163648373,0.0031491970151065,0.163572161735703,-0.0631471648046656,2.61705109019401,-0.144963141214248,414.90739907132,-0.144963141214248,40.2478073025022,61.03605
40,40,70,0.3999999999999999,0.0051295830381796,-0.0339529543955646,-0.0862095258619682,0.061651044589528,0.0268191241877576,-0.0214441206892356,-0.0101871531732036,0.105494812946187,2.61705109019401,-0.144963141214248,420.705924719878,-0.144963141214248,47.3148704070084,60.25847
41,41,71,0.41,-0.0046410513202559,-0.0144116856786916,-0.027848879358281,-0.0557772798034009,0.0147984007280177,-0.0032005276676912,0.0622253982203578,-0.0038294699498561,2.61705109019401,-0.144963141214248,414.90739907132,-0.144963141214248,45.9529191756323,58.615356
42,42,72,0.42,-0.0045921981488528,-0.0145093920214978,0.0305117671509797,-0.172618462579037,0.0148585043448378,-0.0032917456320725,0.134129747055849,-0.112859702784297,2.61705109019401,-0.144963141214248,420.705924719878,-0.144963141214248,47.124845754035,56.270958
43,43,73,0.43,0.0441144141289379,-0.10156574416074,-0.26217127412909,0.292984843665237,0.0658173823284728,-0.0890491667804481,-0.122294457625093,0.373654869137548,2.61705109019401,-0.144963141214248,414.90739907132,-0.144963141214248,45.190308390664,61.892384
44,44,74,0.44,0.0050807298665986,0.0149979237397774,-0.027848879358281,-0.173792745815753,-0.015526019370303,0.0031135598588273,0.164374112641996,-0.0629335337705385,2.61705109019401,-0.144963141214248,420.705924719878,-0.144963141214248,39.4386875696536,59.76025
45,45,75,0.45,-0.0045921981485859,-0.0145093920220315,-0.0281421489379843,-0.0551901381829047,0.0148585043451661,-0.0032917456325708,0.0618640698351679,-0.0032815793339898,2.61705109019401,-0.144963141214248,414.953176905273,-0.144963141214248,36.0237655438897,60.176888
46,46,76,0.46,0.024621998583292,-0.033610982193252,-0.203517358040126,0.0598896197248324,0.0167610103375992,-0.0381445863877645,0.0500871237970553,0.206148882131717,2.61705109019401,-0.144963141214248,417.959254675824,-0.144963141214248,36.4784789593501,60.706512
47,47,77,0.47,-0.0240846136934332,-0.0727423727982197,0.0891656832356719,0.177317944114554,0.0750243905254258,-0.0155840380956117,-0.198133812947178,0.0116260285097234,2.61705109019401,-0.144963141214248,414.90739907132,-0.144963141214248,25.5002768842015,59.582962
48,48,78,0.48,0.0148513642246784,-0.0529568382211305,-0.0862095258643378,0.0593024780947149,0.0383991786694232,-0.039376297581499,-0.008154342928707,0.104318612669691,2.61705109019401,-0.144963141214248,417.913476841954,-0.144963141214248,32.1995825103776,64.52106
49,49,79,0.49,-0.0047387576643075,-0.0142651261626142,-0.0272623401946025,-0.0563644214281732,0.0147204785329887,-0.0030425581993037,0.0624398524342478,-0.0046312011193971,2.61705109019401,-0.144963141214248,417.959254675824,-0.144963141214248,20.7281917534917,61.04704
50,50,80,0.5,0.0148025110523858,-0.0532988104239768,-0.144570172368255,0.177905085730774,0.0387196404121049,-0.039505277779359,-0.0815832994401069,0.214230995703066,2.61705109019401,-0.144963141214248,417.913476841668,-0.144963141214248,26.8080271799477,64.10927
51,51,81,0.51,-0.0046410513202559,-0.0144116856786916,-0.027848879358281,-0.0557772798034009,0.0147984007280177,-0.0032005276676912,0.0622253982203578,-0.0038294699498561,2.61705109019401,-0.144963141214248,417.959254675824,-0.144963141214248,5.17890423371838,62.65413
52,52,82,0.52,0.0051295830381796,-0.0728400791401587,-0.086502795445643,0.178492227354544,0.0604780159790962,-0.0409194249045895,-0.111172588298397,0.164264617178905,2.61705109019401,-0.144963141214248,417.913476841724,-0.144963141214248,16.8251854134032,62.087402
53,53,83,0.53,-0.0046410513202559,-0.0144116856786916,0.0308050367290811,-0.0557772798034009,0.0147984007280177,-0.0032005276676912,0.0328505635745534,-0.0545975796439836,2.61705109019401,-0.144963141214248,417.959254675824,-0.144963141214248,18.4832716870554,61.8235
54,54,84,0.54,-0.0046410513202559,-0.0141674198218982,0.0308050367290811,-0.0569515630369098,0.0145869755301888,-0.00307819535586,0.0338669686841792,-0.0551856797762968,2.61705109019401,-0.144963141214248,414.90739907132,-0.144963141214248,13.5553295057493,61.14073
55,55,85,0.55,-0.0335621290239836,-0.0148513642217201,0.146059981855227,-0.0540158549499303,0.0296631119355265,0.0216120178180831,-0.0263955941789181,-0.1534747650054,2.61705109019401,-0.144963141214248,417.959254675824,-0.144963141214248,12.4890019620274,59.66071
56,56,86,0.56,0.0149002173966153,-0.0532988104262895,-0.145156711533001,0.177905085744672,0.0386707074886169,-0.0395898478609576,-0.0812895511037384,0.214738676810319,2.61705109019401,-0.144963141214248,414.90739907132,-0.144963141214248,13.0200934859645,62.88655
57,57,87,0.5700000000000001,0.0149490705682408,0.0343437797702355,-0.145449981112438,-0.290046786969293,-0.0372131206292482,0.0042607009744526,0.323894762856131,-0.0193653874526132,2.61705109019401,-0.144963141214248,417.959254675824,-0.144963141214248,41.3769750293172,63.120796
58,58,88,0.5800000000000001,-0.0240846136937,-0.0338552480521356,0.0305117671491108,-0.0557772798034009,0.0413654987329312,0.0038912661207194,0.0329974377475488,-0.0543437390959167,2.61705109019401,-0.144963141214248,414.90739907132,-0.144963141214248,24.9588823426844,57.577007
59,59,89,0.5900000000000001,-0.0047876108356662,-0.0141674198196745,0.0313915758900896,-0.0569515630476003,0.0146603749160309,-0.0029513402348941,0.0335732203469067,-0.0556933608787088,2.61705109019401,-0.144963141214248,417.959254675824,-0.144963141214248,27.290387930995,58.852695
60,60,90,0.6000000000000001,0.0148025110528306,-0.0530545445654045,-0.144276902789887,0.176730802489782,0.0385082152125134,-0.0393829454670218,-0.080713768496197,0.213389055020324,2.61705109019401,-0.144963141214248,414.90739907132,-0.144963141214248,15.3302345058314,60.50661
61,61,91,0.6100000000000001,-0.0045433449762933,-0.0146070983666168,-0.0284354185214254,-0.0546029965549253,0.0149186079630805,-0.0033829635986129,0.0615027414453728,-0.0027336887111405,2.61705109019401,-0.144963141214248,417.959254675824,-0.144963141214248,15.7360758209235,59.233383
62,62,92,0.6200000000000001,0.0148025110524748,-0.0532988104241547,-0.144570172368789,0.177905085731843,0.0387196404122144,-0.0395052777795251,-0.0815832994407647,0.214230995704063,2.61705109019401,-0.144963141214248,414.90739907132,-0.144963141214248,17.1497250060352,61.780514
63,63,93,0.6300000000000001,0.0051784362103388,0.0145582451915008,-0.0867960650282831,-0.171444179317198,-0.0151943869342203,0.0028087916144849,0.191863011215584,-0.0107353832456127,2.61705109019401,-0.144963141214248,418.000454726552,-0.144963141214248,26.1058998309626,60.28488
64,64,94,0.6399999999999999,0.0051295830381796,0.0149002173966153,-0.027848879358281,-0.173205604196326,-0.0154659157532641,0.0030223418941138,0.16386591008487,-0.0626394837030434,2.61705109019401,-0.144963141214248,414.90739907132,-0.144963141214248,17.9374013341739,59.38966
65,65,95,0.6499999999999999,-0.0240846136924658,0.0147536578796206,0.0891656832327683,-0.172618462567879,-0.0007081160077374,0.0282353963893512,0.104754912403178,-0.163627812468013,2.61705109019401,-0.144963141214248,418.000454726506,-0.144963141214248,19.5978023579352,58.59129
66,66,96,0.6599999999999999,0.0148025110517764,0.0341972202513894,-0.144570172364597,-0.290046786959752,-0.0370128661181272,0.0043141567057296,0.323454140324915,-0.0201269090988989,2.61705109019401,-0.144963141214248,412.803144632013,-0.144963141214248,10.7957109969761,63.23792
67,67,97,0.6699999999999999,-0.0240846136943227,0.10337331150797,0.0891656832383417,-0.645267468237194,-0.0774131784575146,0.0726175595158198,0.51385797264448,-0.400338117823301,2.61705109019401,-0.144963141214248,418.000454726457,-0.144963141214248,12.4943202912887,58.567448
68,68,98,0.6799999999999999,-0.0046410513202559,-0.0144116856786916,-0.027848879358281,-0.0557772798034009,0.0147984007280177,-0.0032005276676912,0.0622253982203578,-0.0038294699498561,2.61705109019401,-0.144963141214248,414.90739907132,-0.144963141214248,23.2257349078854,57.617462
69,69,99,0.69,0.0051295830381796,0.0149002173966153,-0.086502795445643,-0.173205604196326,-0.0154659157532641,0.0030223418941138,0.193240744730674,-0.0118713740089159,2.61705109019401,-0.144963141214248,420.705924719878,-0.144963141214248,11.3660474795609,58.47208
70,70,100,0.7,0.0148025110532753,-0.0144116856786916,-0.144570172373595,-0.173205604196326,0.0050607486197226,-0.0200299735644288,0.222321831030753,0.038389054589537,2.61705109019401,-0.144963141214248,414.90739907132,-0.144963141214248,2.47745272358399,57.88006
71,71,101,0.71,-0.004543344976738,-0.0146070983657273,0.0299252279883692,-0.0551901381818357,0.0149186079625333,-0.0033829635977825,0.0327829835349639,-0.0535420079305239,2.61705109019401,-0.144963141214248,420.705924719878,-0.144963141214248,0.449043383234214,55.724533
72,72,102,0.72,-0.0046410513202559,-0.0144116856786916,0.0308050367290811,-0.0563644214260351,0.0147984007280177,-0.0032005276676912,0.0333587661344555,-0.0548916297130848,2.61705109019401,-0.144963141214248,414.90739907132,-0.144963141214248,-2.50483985545615,58.702713
73,73,103,0.73,0.0148513642246784,0.0732309045156079,-0.144570172370391,-0.523729152503999,-0.0708230794961048,0.0238205752700594,0.525718758940209,-0.137158836463892,2.61705109019401,-0.144963141214248,420.705924719878,-0.144963141214248,-3.22100540349426,62.40394
