,Unnamed: 0.1,Unnamed: 0,t,iq,id,vq,vd,ia,ib,va,vb,theta_e,omega,omega_obs,r,omega_ekf,omega_meta
0,0,30,0.0,4.58770247902243,-0.0529611562268217,9.76648236794377,-1.81953184094425,2.28695222083656,-3.97739468241563,6.35790802807067,-7.63360199841208,-2.63131141258831,569.94166378012,663.938816398841,1933.81593343293,6.17501950249283,846.52625
1,1,31,0.01,4.58726641215228,-0.043384456263033,10.0037157773313,-2.40609056578758,-3.46629789462835,-3.00494163883439,-6.0616468302922,-8.31384621394977,2.27556427365715,626.696412087628,705.573451298804,1933.81593343293,8.97521881777694,977.5887
2,2,32,0.02,4.60685619402635,-0.0634101605719047,10.3550572899492,-2.16832290243887,-4.60720741798803,-0.0280115786558064,-10.3714119015117,-2.08869597034902,1.56311276626091,676.756609937757,752.698984801232,1933.81593343293,63.9052111849656,1141.4601
3,3,33,0.03,4.60690468090238,0.0731850748689385,10.7069804712574,-2.87289316433615,-3.6004089981375,2.87506205850142,-10.2285741864285,4.27425035044811,0.912832329225514,718.872217279912,797.043667475597,1933.81593343293,120.053483942943,1179.7611
4,4,34,0.04,4.743064308967,-0.034001362508065,10.4749798723705,-2.63803683109001,-3.38882692974919,3.31868455443654,-9.29047560876786,5.51103480406752,0.788686543578134,775.941917084135,843.96411628254,1933.81593343293,134.483487182024,1078.5964
5,5,35,0.0499999999999999,4.62673642454877,-0.0338561644250742,11.3507203225407,-2.63861878153877,-3.90185690298037,2.48663404842375,-10.9615603104968,3.95542115003811,0.996087075313289,833.927173569709,890.913862902189,1933.81593343293,77.5261682518736,1022.0389
6,6,36,0.06,4.56811259213475,-0.130691660908998,12.0545673944197,-2.05729208825517,-4.52651549774427,0.628800773959613,-12.2288258748616,-0.0293858013028918,1.40416296219144,880.922698024819,938.813346987521,1933.81593343293,101.291614998816,1028.0496
7,7,37,0.07,4.57720603807061,0.121990245529081,12.3513213906348,-3.57688305364347,-3.80402886508934,-2.54854098034961,-8.00517769895647,-10.0631189241867,2.18771971708847,940.726250081783,982.779599566772,1933.81593343293,73.9224126500342,1022.9074
8,8,38,0.08,4.58726696355032,-0.0722618022447393,12.7017926072624,-2.64326854727024,1.70190249565787,-4.26048915715289,6.99528966721911,-10.9264965346899,-2.77730175178892,977.974758102295,1034.58301734285,1933.81593343293,91.3623689840297,1020.5477
9,9,39,0.09,4.55834187901274,-0.0827094412442263,13.2273557487726,-2.63803840889593,4.26888819648101,1.60059835798288,11.5863979184898,6.90489464262947,-1.23021650387158,1037.79112795057,1076.82069890582,1933.81593343293,129.006952770312,1183.725
10,10,40,0.1,4.62625299985762,0.0148035587164519,13.2883308223281,-3.2269228843654,-1.74657073170963,4.28391487347468,-8.04033304110261,11.0610041105422,0.390330255415763,1079.89361231396,1123.72649880406,1933.81593343293,182.179682225819,1248.9543
11,11,41,0.1099999999999999,4.58746046471888,0.0247674841807036,13.7566915396874,-3.22750341477863,-2.2204785089668,-4.01433458182648,-3.76086352076892,-13.6205449960221,2.64174279862482,1118.97536999807,1173.82087743995,1933.81593343293,207.400735594401,1206.3553
12,12,42,0.12,4.56782261608538,0.0247674579261919,14.2265025667102,-3.57862701159123,3.94354901340424,2.30521974177553,10.4202050195604,10.3256609434471,-1.03638904840609,1178.77892205443,1217.81642783347,1933.81593343293,258.713219576355,1280.932
13,13,43,0.13,4.60714665581528,0.160252483926351,14.4010144781326,-4.63083895040787,-4.58042392697831,-0.520766565707735,-13.5608696323383,-6.70348433269796,1.7187736151239,1228.82416581709,1257.78108734624,1933.81593343293,221.844362370536,1399.9232
14,14,44,0.14,4.56816065890751,-0.141574762818206,14.9869740195397,-3.22344096431192,4.03860077466533,2.13958851229155,12.0341646587336,9.49625414988715,-1.11458763946732,1283.77068967359,1309.66751559114,1933.81593343293,175.196215783477,1312.9791
15,15,45,0.15,4.53899350754852,-0.151007511899346,15.4559157749173,-3.10949377106977,-3.15569239970227,-3.26601757629671,-8.94017320327013,-12.9856685253086,2.34011615535541,1317.95940726624,1359.63493703432,1933.81593343293,203.428991129368,1350.3385
16,16,46,0.16,4.56777457556713,-0.0243753223255531,15.6928488926811,-4.1640289357147,0.239769546305601,4.56154242490414,-3.24971826310664,15.9073559888632,-0.0578512489445602,1377.75777116962,1398.77681627374,1933.81593343293,250.96692470783,1278.4082
17,17,47,0.1699999999999999,4.71375530731727,-0.160006452247077,15.3435311616554,-2.87811525543359,4.32145094036031,-1.88948483245603,15.0836505942708,-4.02380176974527,-2.0169149473344,1411.9583909976,1453.63208965319,1933.81593343293,350.422352336702,1050.1913
18,18,48,0.18,4.61614563552256,-0.0431931213093316,16.2230493052194,-3.81522241143889,-2.59998235440224,-3.81454557331269,-6.12972076526865,-15.4974118532147,2.53396815526183,1462.00393994511,1497.54951254261,1933.81593343293,714.742179367526,1316.1064
19,19,49,0.19,4.60685730993192,-0.121840452435589,16.6310209521991,-3.81290423445968,-4.24455747537268,1.79491259067978,-16.7185158902826,3.40885949255958,1.14428641413684,1524.85324389831,1542.74627330485,1933.81593343293,760.854733587761,1297.6128
20,20,50,0.2,4.58746070102725,-0.0249052909167447,17.0985159443859,-4.7482761103401,-0.382074587425771,4.57158998233968,-6.06539011803799,16.6768227260606,0.0779531467136225,1568.80393201193,1584.98883783813,1933.81593343293,722.561130696807,1354.4453
21,21,51,0.21,4.12775906317474,-0.0336638448339092,17.1571700181346,-4.04949852981153,2.27294884648031,3.44575560354388,6.20174216186848,16.5016761431021,-0.591275598830334,1602.98654589747,1633.81852751019,1933.81593343293,735.67241815431,1269.027
22,22,52,0.22,3.12311806657167,-0.345216271674576,16.1040022994024,-1.82183376613279,2.06538679478254,2.36795652829885,10.6216633472606,12.2408429476095,-0.827344038814216,1646.96042811176,1673.74900623971,1933.81593343293,749.350285355084,1413.9575
23,23,53,0.23,2.82821684988449,0.131907036335683,16.0467933339074,-3.81232607080794,2.61238998964976,1.09161740467213,12.8696719621866,10.3152775026659,-1.12838161586104,1683.86895942405,1707.92978900948,1933.81593343293,743.936350368265,1386.2043
24,24,54,0.24,2.19418498919438,-0.102202958282414,16.3360156657888,-2.40434376766196,1.89874619954825,1.10438040601448,13.3771491031693,9.67978091991588,-1.09053408655393,1715.00063325962,1730.78940823029,1933.81593343293,722.89986077924,1496.9161
25,25,55,0.25,1.90019945685341,-0.208957989404801,16.044190957007,-1.46896652685875,1.27617542499908,1.42330520331744,10.9723246552322,11.7975428705353,-0.840475315368198,1741.85116405382,1751.84232893133,1933.81593343293,626.66211177498,1651.055
26,26,56,0.26,1.48237202332466,-0.111107524252371,16.0410132165354,-1.58755038970588,0.612608875845663,1.35443053078268,6.29099603217427,14.841084535036,-0.499577565084146,1748.88935344642,1764.71383512977,1933.81593343293,647.589172746397,1683.1147
27,27,57,0.2699999999999999,1.39154943259773,0.0724656880499446,16.1014004742633,-2.51656861918919,0.216324669887388,1.37654085900337,-0.833924139265241,16.2755271920034,-0.103847532749459,1782.73626321584,1782.71978319596,1933.81593343293,708.238152806545,1745.6898
28,28,58,0.2799999999999999,1.24590396050498,0.0836313090965399,15.7506319608835,-2.17237714801847,-0.444616496947583,1.16687062063678,-8.55499407561654,13.402003805648,0.431074028713411,1782.74908100998,1793.7357611862,1933.81593343293,765.994909403152,1763.9249
29,29,59,0.29,0.972133905123241,0.0629841107885921,16.0421696183116,-1.6963067329527,-0.841445067854998,0.490898691671194,-15.1084244738154,5.65368663032861,1.10737157349261,1801.96753130798,1803.72875717709,1933.81593343293,664.587871051319,1399.8442
30,30,60,0.3,0.699036889578144,-0.208478503210204,15.1089011538602,-0.413261465580993,-0.558937862806384,-0.46872627920065,-13.7047266784245,-6.37417804785303,1.97879742990328,1809.92341368095,1809.91059589007,1933.81593343293,569.286981601088,1541.7743
31,31,61,0.31,0.756891784891706,0.0041685101281409,15.8040929448883,-1.10685687415076,-0.380200651332968,-0.65448454163504,-6.90305223786862,-14.2598161191433,2.62083093409843,1827.90036912176,1819.98171938493,1933.81593343293,601.472273697925,1603.8612
32,32,62,0.32,0.533560527128367,-0.0141714831096743,15.8089968553575,-1.23121527312396,0.215044578951198,-0.488511510720812,7.1225882541399,-14.1671807069531,-2.75346909755881,1814.8036359785,1824.83050756968,1933.81593343293,515.827234590349,1569.0583
33,33,63,0.33,0.610620748941904,0.121848894087378,15.8089967765535,-1.46376273866697,0.514625007536826,-0.350522401062201,15.126340427821,-4.8229457490062,-1.97177771906681,1822.72564275896,1832.79951292385,1933.81593343293,517.965932622027,1617.5538
34,34,64,0.34,0.348446184843628,-0.131515255202042,15.6304408478058,-0.642918901768038,0.263547773215205,0.263160744253859,13.9835486877102,7.01315848312615,-1.14703539109083,1827.92661507768,1835.80253883918,1933.81593343293,435.594948705403,1658.8998
35,35,65,0.35,0.444328117847629,-0.199477724904784,15.3412060638268,-0.410369858525398,-0.0919509016461401,0.478292662215999,3.12859048043486,15.0244110872711,-0.232043151362912,1837.98553115263,1835.80253883853,1933.81593343293,457.347927027814,1752.2898
36,36,66,0.36,0.765271554982266,0.0438762044695491,14.5237957521326,-1.3469121045628,-0.353654036902485,0.680069479072693,-8.58490866096626,11.7921227329921,0.536811483386357,1837.97759633064,1835.80253883923,1933.81593343293,392.022807563245,1744.3296
37,37,67,0.37,0.220995061512355,-0.121600814382983,15.4567849677052,-0.761500397746866,-0.216946536065015,-0.128684792267172,-15.4240694830663,-1.26101743651246,1.60314475031814,1837.9986541312,1840.73433749556,1933.81593343293,445.897968232147,1711.7882
38,38,68,0.38,0.268600978495145,-0.228358444901883,15.2236088947435,0.0576160484278871,0.0508920283954845,-0.348861099081495,-8.13201857220605,-12.8698042460034,2.58185436116457,1848.97434762772,1840.73433749556,1933.81593343293,904.630794516291,1672.9283
39,39,69,0.3899999999999999,0.453571842629494,0.150826023360378,15.5148632048987,-1.81374452449832,0.0255247243482397,-0.477309537088844,7.36282709319253,-13.7764083368132,-2.76714035078718,1848.96122464943,1843.78619310006,1933.81593343293,747.173994728924,1696.8179
40,40,70,0.3999999999999999,0.463774172042163,-0.0048807287546286,15.6313079127526,-0.87719943812392,0.454394124425095,-0.0929316084791428,15.4653004802201,-2.43551780408859,-1.78305550730349,1843.77520642316,1850.85429067942,1933.81593343293,748.785924168675,1690.3129
41,41,71,0.41,0.239960264157963,0.151449486616625,15.3987064152956,-1.3474888481256,0.280636201780959,0.0419666250865573,10.7834464213466,11.0748891072659,-0.859349990799251,1843.79138125417,1850.80546099042,1933.81593343293,770.541815291831,1731.819
42,42,72,0.42,0.113229381001688,-0.267202538956588,14.4685840883033,0.291325521363172,-0.289618106939997,0.0184239431003481,-4.51318842474508,13.749760955102,0.337289717424893,1838.01666007058,1848.97434762772,1933.81593343293,723.481675720139,1756.057
43,43,73,0.43,0.2880948106275,0.06327442818215,15.98121992204,-1.11090528213879,-0.238899816695725,0.173000435707607,-15.096548905668,5.35982386662725,1.16024030094364,1853.84419361711,1850.90312036961,1933.81593343293,538.660190466973,1840.8982
44,44,74,0.44,0.228513450026748,0.0724227151588216,15.9240041786019,-1.34173403515431,-0.231323219166419,-0.0628730052453985,-12.6599806416173,-9.75187415090548,2.14309792238244,1864.82507527271,1850.80546099042,1933.81593343293,795.976515670345,1827.2853
45,45,75,0.45,0.161794821696227,-0.0623074605477975,15.2256177025115,-0.412664841200356,0.1066429593508,-0.136700633460613,4.82014202594167,-14.4483894446386,-2.84668888641727,1845.93347870211,1850.7761631767,1933.81593343293,716.678808537577,1802.6971
46,46,76,0.46,0.27837234804209,0.0740025907362127,15.6321721403826,-1.11550802812682,0.233042980263065,-0.169288265807902,14.9849976956082,-4.58900948462589,-1.93920724669392,1850.80057802317,1858.74028556213,1933.81593343293,755.539387868723,1786.4955
47,47,77,0.47,0.0937351024848986,-0.0437235887540002,15.2805360104814,-0.760347226160967,0.0538962361511663,0.0882792012884184,12.3086220995154,9.08684382408267,-0.984575731988743,1853.86525141843,1856.90917219943,1933.81593343293,605.105635353012,1793.0177
48,48,78,0.48,0.181335814709635,-0.0724615263099722,15.2816846099161,-0.762646626818155,-0.0948403415935466,0.170700498235937,-2.69158954708827,15.0621001226373,0.126968397044752,1850.81156469937,1853.77918909287,1933.81593343293,729.58081067349,1838.7836
49,49,79,0.49,0.336135717907763,0.179805568172791,15.3964087434956,-1.69517628214888,-0.196438534267758,0.32669429969628,-14.0885600696579,6.43704124485684,1.03256011558197,1864.82507526928,1853.85731659492,1933.81593343293,718.532961197734,1853.2076
50,50,80,0.5,0.0936389426759893,-0.0921465227372614,15.0479293902319,-0.291782997731616,-0.0176309850190329,-0.130185950107162,-11.7199938269774,-9.44283119338583,2.22961707928963,1853.86830327083,1853.80848690619,1933.81593343293,723.398143669317,1736.9199
51,51,81,0.51,0.0942600691074861,-0.0430067226479686,15.104861471181,-0.880647434560509,0.0636453570702337,-0.0817545554967416,4.35096694131508,-14.4914273500973,-2.9081481685544,1850.8194995238,1848.97434762772,1933.81593343293,770.755317956815,1710.069
52,52,82,0.52,0.336041146670031,0.140580681554837,15.3380430609551,-1.57545486853389,0.26285287344843,-0.252180386235004,14.876047650313,-4.05472924966843,-1.93925633584785,1866.96228975355,1858.74028556213,1933.81593343293,878.35399492406,1692.6903
53,53,83,0.53,0.21012184528843,0.111985618331049,15.2811099555541,-1.46262092747211,0.237190866020908,0.020795712458439,12.0081700833879,9.56323338100891,-0.993681719766646,1858.73845444911,1856.93847001302,1933.81593343293,720.846181776552,1715.0521
54,54,84,0.54,0.287570697369835,-0.111545009012747,15.5766727154036,-0.176075121388002,-0.165026105436399,0.260586990361993,-3.18357608375735,15.2488877840353,0.194514700525072,1853.85243362803,1856.9384700126,1933.81593343293,763.948101722009,1805.9182
55,55,85,0.55,0.200494531646624,0.102740449501996,15.5140059914104,-0.761494717497921,-0.14588819218243,0.171669136905309,-14.6236443772545,5.23576940228322,1.17793684349146,1858.73540259417,1861.74331147737,1933.81593343293,812.976906831113,1818.3485
56,56,86,0.56,0.0554622432538098,-0.198717426364563,14.5827062198436,0.0559151656033384,0.103682740618775,-0.178366379302492,-10.2132698316492,-10.409013716291,2.36952039675922,1843.81732201342,1858.74028556213,1933.81593343293,716.513504910589,1689.407
57,57,87,0.5700000000000001,0.161650581996188,-0.218115925727306,14.3466568750722,0.172771637566087,0.264146408907105,-0.0627067968968799,5.49028741765641,-13.2556839733499,-2.73687705502636,1858.75340853827,1861.74331147743,1933.81593343293,646.52650070692,1631.7635
58,58,88,0.5800000000000001,0.326081842470675,0.111080187411027,15.393549579013,-1.45631808793599,0.272554770220173,-0.210670532478008,15.035926269275,-3.60598838596388,-1.90050066039346,1877.93981436816,1864.79516708263,1933.81593343293,697.954112498288,1649.4792
59,59,89,0.5900000000000001,0.113226479589442,-0.0620250202539296,15.4596476000433,-0.414366512874273,0.0268445535610608,0.126280278594189,9.77020329764951,11.988141267399,-0.71061067420089,1848.98716541813,1858.83794494043,1933.81593343293,681.316271760791,1704.9321
60,60,90,0.6000000000000001,0.190628617089808,-0.0236102450025273,15.3998481581968,-0.763784966755685,-0.0894077720424695,0.170008716309058,-6.1528881749854,14.1379156128859,0.36092601429486,1856.91100331274,1864.84399677114,1933.81593343293,1017.14967118233,1760.5012
61,61,91,0.6100000000000001,0.491993208385158,0.102216349380464,14.2296304194573,-1.46205317780589,-0.468968274908788,0.180483396208255,-14.2786776890536,0.859851627433207,1.40826188396736,1864.83606194864,1858.71098774867,1933.81593343293,1050.98272434143,1665.9495
62,62,92,0.6200000000000001,0.0744769567591555,-0.169693608880544,15.1068636587473,-0.295215057970615,0.0969233603582269,-0.157951258937298,-8.3725421051829,-12.5779577130539,2.53475357732114,1853.87318624337,1858.71098774827,1933.81593343293,1024.78206306917,1668.3469
63,63,93,0.6300000000000001,0.268031673582464,-0.072797324162602,15.162943491286,-0.64349138517085,0.211329837547099,-0.18022244091946,9.08636668431356,-12.1559399867273,-2.54211691083336,1869.71597906124,1861.74331147757,1933.81593343293,1007.44133209519,1641.0371
64,64,94,0.6399999999999999,0.200589890612979,0.0915414392693583,15.746052379521,-1.45747693929013,0.190784234294188,-0.110532869610867,15.8131887403192,-0.073935311073865,-1.66777026521975,1864.83606194706,1856.90917219943,1933.81593343293,972.595324388014,1718.4159
65,65,95,0.6499999999999999,0.0939222232030697,-0.120936518133741,15.0490654586592,-0.412067427650053,-0.074637627788151,0.133702094029515,5.49943298476463,14.0142929750316,-0.401326164979184,1853.87532253762,1864.84399677114,1933.81593343293,986.010411083769,1746.1675
66,66,96,0.6599999999999999,0.0151857822794,0.0047964240082641,15.980384539203,-0.758631196041493,-0.0052197867938644,0.0150455140334583,-10.1503445984093,12.3660307231524,0.639873593645572,1871.85624539417,1856.98729970287,1933.81593343293,923.956693664198,1848.171
67,67,97,0.6699999999999999,0.229378363083446,0.111179130384707,15.5128681890553,-1.57548326967186,-0.240174633728607,0.0853895649202541,-15.2470151022402,-3.26492839983964,1.68053337518904,1869.71597906164,1858.78911525108,1933.81593343293,989.256019591744,1807.5845
68,68,98,0.6799999999999999,0.142489278767722,0.0832470900130445,15.4001299292299,-1.3474888481256,-0.126351487916013,-0.106153540029502,-3.91484698257247,-14.9550560392139,2.79828724732036,1853.86830327402,1866.94611491157,1933.81593343293,739.105032857596,1788.7148
69,69,99,0.69,0.336855603615778,-0.0043557227547259,15.9818154613521,-0.996918484977371,0.273499231953163,-0.196694789277946,13.4455937255482,-8.69645222340131,-2.20720800488703,1861.77932337738,1864.79516708224,1933.81593343293,610.944584004869,1794.6852
70,70,100,0.7,0.181523959460352,0.101885093949209,15.2247378701452,-1.22548949247674,0.204387215466914,-0.0394637350092987,14.0620528863611,5.96264507848557,-1.25007295727002,1853.86830327382,1866.89728522207,1933.81593343293,477.827820262888,1794.9623
71,71,101,0.71,0.200114513649195,-0.441895643622902,13.5901310831241,1.46050895683625,-0.457692926132863,0.16073196257711,0.267289073250291,13.6657713218397,0.0875009349012851,1861.81319896288,1864.84399677114,1933.81593343293,370.154884968872,1743.567
72,72,102,0.72,0.171277882510721,0.0924951077144911,16.3895428510661,-1.34520459465754,-0.089514601687417,0.172854256740222,-14.3042700639078,8.11261660669407,0.972990755696625,1866.96717271696,1864.95630505695,1933.81593343293,293.329591249442,1811.8488
73,73,103,0.73,0.286815400771812,0.354449805321548,15.1635153872683,-2.50978307563052,-0.425038748840919,0.165044844197341,-11.9111998693287,-9.71362587603361,2.09089189449635,1879.78008328363,1869.72696573834,1933.81593343293,375.622584089577,1741.0496
74,74,104,0.74,0.152021522256129,-0.0819988111443105,15.1663661979416,-0.529485811794225,0.12448904432651,-0.119736486088507,5.13366232702818,-14.2809148862042,-2.83139769941394,1858.75127224063,1866.94611491167,1933.81593343293,450.907300398658,1721.4637
75,75,105,0.75,0.258738792420988,0.0539352788374112,15.5151538815292,-1.11320278934405,0.241268562437416,-0.107908562153905,15.3953107889254,-2.22342666398741,-1.78585357326403,1864.83789305953,1871.91209435159,1933.81593343293,181.912756547914,1725.8284
76,76,106,0.76,0.181048464351271,-0.0433913487252636,15.5151539603598,-0.527201873918238,0.0804737672377066,0.167884866425542,9.37328844574621,12.3749508258568,-0.682212755341133,1864.84399677114,1866.98029569429,1933.81593343293,-854.223997934625,1809.0919
