timestamp,iq,id,vq,vd,omega,r
0.0,0.0,0.0,0.0,0.0,0.0,917.7366914411706
0.01,0.0,0.0,-94.75743852736669,0.0,42.29888255495376,917.7366914411706
0.02,-23.084378296155833,-0.7089935806141581,-89.09280583425861,0.07160835164202997,90.20130699333868,917.7366914411706
0.03,-23.065655953062542,-1.3489853076601364,-85.13020568756642,0.13695650965428793,147.03185419637424,917.7366914411706
0.04,-23.477674520963106,-0.6950273754106471,-80.17442748404001,0.07225574380474965,219.2792730837615,917.7366914411706
0.05,-25.18892291716155,0.1695519481704757,-73.47301519912035,-0.014371740501533106,302.9781241799061,917.7366914411706
0.06,-26.353415391146775,-4.07536603666213,-65.59619439071075,0.4141954240183896,384.70993994910015,917.7366914411706
0.07,-23.226691584109147,-13.100836201089766,-58.26651724958805,1.329843276662243,463.60048051081543,917.7366914411706
0.08,-20.92692029618515,-9.157132088665048,-51.06160725884965,0.9446299975084361,539.6643063124809,917.7366914411706
0.09,-23.53684690311651,-10.36638714653764,-43.56965291912013,1.0759218904422332,566.8208029606483,917.7366914411706
0.1,-16.899902920965904,-15.77444687141524,-41.872575353644834,1.6325023098014082,629.0246188831964,917.7366914411706
0.11,-18.36080489706301,-15.594007852209518,-35.797257230312866,1.6300524157330458,698.2106824716074,917.7366914411706
0.12,-16.52148017954557,-12.011429986231526,-29.286323280081657,1.2838060591214782,718.5924345587134,917.7366914411706
0.13,-12.828804788570833,-18.80052909605467,-27.824448080321023,1.9815164991998473,761.2645918801067,917.7366914411706
0.14,-11.244667290914478,-14.800642664684776,-23.881549440539775,1.5963284987275426,810.0271376153722,917.7366914411706
0.15,-12.82390547103098,-8.948742158963135,-18.962884922228426,1.0200871903143414,814.687114688242,917.7366914411706
0.16,-4.556675975592528,-15.705563207672583,-19.442727660653418,1.7114748583929589,845.6833947347931,917.7366914411706
0.17,-6.486678550073313,-8.239195950232325,-16.236260336350245,0.9730773285991654,844.4538423462005,917.7366914411706
0.18,-3.153873865460988,-17.014392446447,-16.78322130092483,1.86761137066708,859.3447351748824,917.7366914411706
0.19,-3.098841294345509,-8.893462862068318,-15.375510365191449,1.06441187509128,867.7463260018,917.7366914411706
0.2,-4.481006197363588,-16.732495628251105,-14.463218224804042,1.8650476473378097,867.4896268809133,917.7366914411706
0.21,-0.8591307520336402,-9.85013101529434,-14.921038447767842,1.1866613170574276,883.1086943772574,917.7366914411706
0.22,-4.521966316073577,-3.172366141677602,-13.043513732223667,0.5220571958374314,874.7259905661577,917.7366914411706
0.23,1.137515011181609,-12.146077210199326,-14.512448834502553,1.431574379899803,887.3713321709837,917.7366914411706
0.24,-2.5609732501498854,-4.347702210763222,-12.926426264776048,0.656084582166956,877.6647384798629,917.7366914411706
0.25,0.40940122908812615,-14.255745506843713,-14.255170574184742,1.661144657281849,886.3052592618515,917.7366914411706
0.26,-1.257315647939239,-5.998021902994054,-13.275178736790487,0.8413703187998769,881.9744076555861,917.7366914411706
0.27,-1.2862999270240651,-16.10787311703595,-13.7604039538175,1.8684633133211026,884.1155695124702,917.7366914411706
0.28,-0.32656973541842405,-7.706048564851442,-13.696116034982703,1.0359869066675031,890.9944154505391,917.7366914411706
0.29,-3.7879664307611325,-13.238516145271293,-12.705600165277996,1.6024721808547595,884.158683089106,917.7366914411706
0.3,0.8381494643452356,-9.349350311063827,-13.906762404337382,1.2229049477450766,895.6111872136947,917.7366914411706
0.31,-3.366127601174944,-2.6016341410410586,-12.380393686292742,0.5507349648838409,885.5563917861494,917.7366914411706
0.32,1.6972144351396277,-11.990023093098175,-13.94664534770726,1.501563883182651,895.7648881311635,917.7366914411706
0.33,-1.981695810990645,-4.022205899731009,-12.598445208251906,0.7088043697456652,885.4483060614156,917.7366914411706
0.34,0.6799266314924677,-14.145962171345648,-13.949795023112241,1.7353259590784749,892.8393057643411,917.7366914411706
0.35000000000000003,-0.9797651360725568,-5.767484145068178,-13.089197406204075,0.903245640595796,887.8638578679306,917.7366914411706
0.36,-1.0828623715030936,-15.990590801666169,-13.625781627280181,1.9415468970572611,889.7134282770398,917.7366914411706
0.37,-0.20711582008146867,-7.500277778302355,-13.576773003294065,1.1000158724991822,895.4220399950725,917.7366914411706
0.38,-3.548494299458775,-13.80660242197683,-12.711092269673095,1.7444549392886064,889.0891498377881,917.7366914411706
0.39,0.8181478591714388,-9.110088071778366,-13.831069939066072,1.2839135923405385,900.1279736112672,917.7366914411706
0.4,-3.49162998400699,-2.3595312277745957,-12.330874750848588,0.6112174391679359,890.2046686059653,917.7366914411706
0.41000000000000003,1.8369070300870103,-11.672147571229644,-13.905985966881076,1.5541512210846706,900.3996682976443,917.7366914411706
0.42,-2.137407393158427,-3.708116316611899,-12.52480223373713,0.7614562119395079,889.7233085319118,917.7366914411706
0.43,0.938111003014491,-13.769147415775404,-13.949500562931682,1.7813284692716338,897.6923691674733,917.7366914411706
0.44,-1.1261206698528277,-5.3748820216437965,-12.985640784166968,0.9472768118801167,891.0015961464283,917.7366914411706
0.45,-0.6487425103651461,-15.707948328339235,-13.749100463602915,1.996291390878,894.3213536036033,917.7366914411706
0.46,-0.3729927751218347,-7.093091840472015,-13.48829715946641,1.1418988339317497,897.0895985928332,917.7366914411706
0.47000000000000003,-2.9162529407750095,-15.426944263499315,-12.995430045105815,1.9907110204979792,893.0292441351168,917.7366914411706
0.48,0.48942135001178233,-8.630363426073455,-13.787786657261293,1.3196833001814665,903.730988523126,917.7366914411706
0.49,-3.9555527864388806,-1.954875957250348,-12.303711261908635,0.6540894292564062,893.669591954265,917.7366914411706
0.5,1.995280622570272,-11.00700949464193,-13.951553248834422,1.5703097924902063,904.2897343225925,917.7366914411706
0.51,-2.5921141111260426,-3.237290158699885,-12.46220050499599,0.7965751490547017,893.6343939022078,917.7366914411706
0.52,1.3025986868114945,-13.07384175597601,-13.963167742773882,1.7933041505382903,902.6067061226713,917.7366914411706
0.53,-1.4598016560870075,-4.72867224397972,-12.823914868807615,0.9635158715826411,893.746758032877,917.7366914411706
0.54,0.005109294246643747,-15.068820552164315,-13.9009531140779,2.0125995229532645,899.233929911067,917.7366914411706
0.55,-0.6684721659199742,-6.416950233756028,-13.32326406601711,1.153829441346192,897.5387950510241,917.7366914411706
0.56,-1.927282656746267,-16.232266128049226,-13.405721010196679,2.1515932969035614,896.9089982713984,917.7366914411706
0.5700000000000001,0.06460462558784874,-7.971614176961914,-13.709336445786235,1.3334997159717918,905.4438958133957,917.7366914411706
0.58,-4.197627211199938,-9.719214107219589,-12.458264995952943,1.517978923104779,896.9193424027176,917.7366914411706
0.59,1.3257093184601803,-9.67245692529328,-13.905752100699214,1.5229756618374415,907.7828952209499,917.7366914411706
0.6,-3.220811775588342,-2.568578120318217,-12.392021982256447,0.8151563594602533,897.8596163166123,917.7366914411706
0.61,1.7113298486593451,-12.059672296917148,-13.919706850478521,1.7763254494170635,907.6723858357992,917.7366914411706
0.62,-1.9818335951717139,-3.843452608277318,-12.597740724450798,0.9585469331613579,897.2583792134612,917.7366914411706
0.63,0.7849551934189325,-14.012166441029235,-13.957638850018405,1.989430482877579,904.8776286737241,917.7366914411706
0.64,-1.0769233713879705,-5.430460511060637,-13.041856013302274,1.1366903503917798,898.4547364870393,917.7366914411706
0.65,-0.7531602855485549,-15.788694921400442,-13.755604777329793,2.188302486347161,901.701074319171,917.7366914411706
0.66,-0.37683409967565296,-7.039252961522929,-13.504813751851104,1.3203975433209323,904.1315212525828,917.7366914411706
0.67,-2.8933039036923462,-15.478745024901826,-13.041383006122771,2.179825494683724,900.558500756472,917.7366914411706
0.68,0.45028553877522715,-8.472592509138364,-13.771225282736122,1.487682835616516,910.8452235117747,917.7366914411706
0.6900000000000001,-4.155305203747124,-1.7277679157362344,-12.305272684403212,0.8149281441920393,900.616844593027,917.7366914411706
0.7000000000000001,2.041482070540373,-10.685891686394518,-13.987503620926757,1.721426412944262,911.2732570600158,917.7366914411706
0.71,-2.877507984072442,-2.938496159797382,-12.454091691686905,0.949625356444346,900.9561397706805,917.7366914411706
0.72,1.4705931458817108,-12.647906835613522,-13.959417559878249,1.9332143308615737,910.3330810461728,917.7366914411706
0.73,-1.7213436452405402,-4.245415102383015,-12.728755598507405,1.0972105726409058,900.4182487718533,917.7366914411706
0.74,0.4027792609740452,-14.541902229500216,-13.970926005048655,2.141401187582126,907.2349047026943,917.7366914411706
0.75,-0.923652898600587,-5.8255685438604585,-13.186742284766462,1.2755933875620107,902.612285743294,917.7366914411706
0.76,-1.2375772040418287,-16.070119255373346,-13.652050307438707,2.3161185779686733,904.5719541989174,917.7366914411706
0.77,-0.2343758096549673,-7.334408152573018,-13.589883863509074,1.4498818758412133,908.7551158772164,917.7366914411706
0.78,-3.372826449111934,-14.667101949579093,-12.88387718826382,2.1978183574914,903.8291832474351,917.7366914411706
0.79,0.6309320961435827,-8.736829235812335,-13.811935618480593,1.6135279153505362,914.2201038151399,917.7366914411706
0.8,-3.9414179843175248,-1.864089665922574,-12.335724239974246,0.9281180480274827,904.6251470756482,917.7366914411706
0.81,1.9826496885311111,-10.97186800778298,-13.923271118003033,1.8498677502213063,914.9066410743842,917.7366914411706
0.8200000000000001,-2.6919304255788736,-2.9895877135440094,-12.448341816206852,1.0546293085109533,904.4762504653138,917.7366914411706
0.8300000000000001,1.39562038386258,-12.824016339263874,-13.935342571959989,2.050896187422204,913.5395612858806,917.7366914411706
0.84,-1.6342645886905394,-4.312630031839118,-12.749127389417303,1.2040701867115673,903.8831910386582,917.7366914411706
0.85,0.29736016794306774,-14.65676898216392,-13.942629076481325,2.2531408507262114,910.4140116559771,917.7366914411706
0.86,-0.8858846118136627,-5.852791320901398,-13.198204200461282,1.3785958759208605,905.9288598346569,917.7366914411706
0.87,-1.3216334966303516,-16.096775976134115,-13.634180163965794,2.4190911174202663,907.7638517857647,917.7366914411706
0.88,-0.23103878783765364,-7.321958209790589,-13.590029977082578,1.5489312989957043,912.0461125730708,917.7366914411706
0.89,-3.4283561228625765,-14.485500342404872,-12.86487789872044,2.2797710125995376,907.2074057380548,917.7366914411706
0.9,0.643157155573284,-8.674578562343012,-13.78762080804973,1.7073534131556942,917.374095175656,917.7366914411706
0.91,-4.004486807801957,-1.7573109692071096,-12.323083869471748,1.017383964811311,907.8965233207479,917.7366914411706
0.92,1.9963924927600685,-10.844078099212126,-13.903313413667425,1.9369047559110248,918.0742500806513,917.7366914411706
0.93,-2.7893647157766406,-2.8391592593735466,-12.424375780401288,1.1392520311865404,907.7626711938992,917.7366914411706
0.9400000000000001,1.457530087401232,-12.638114418058326,-13.912202797981175,2.1317856614730766,916.9035756362199,917.7366914411706
0.9500000000000001,-1.7401633334473372,-4.097126979424179,-12.697974929814691,1.281784044589086,906.9730686772884,917.7366914411706
0.96,0.4411816514755422,-14.421131604924627,-13.940913932437606,2.3286056387440555,913.9285297718516,917.7366914411706
0.97,-0.9924914807422645,-5.5838186608193325,-13.125358266390737,1.4504581629943454,908.3478409750497,917.7366914411706
0.98,-1.063632716438967,-15.931873073974693,-13.70518600127088,2.501195477383856,911.1431470794604,917.7366914411706
0.99,-0.3592534402430343,-7.034420182416916,-13.522872641020161,1.6184846084104951,913.6836438436718,917.7366914411706
1.0,-3.0531200666431797,-15.292230042578963,-13.020978761172861,2.459557824469279,910.2988076032619,917.7366914411706
1.01,0.4308049735799182,-8.334387300246634,-13.736269568945724,1.7721079375362927,920.0230716929668,917.7366914411706
1.02,-4.339019831221374,-1.7863753681268335,-12.300771523182274,1.1190931196924394,910.0518097047902,917.7366914411706
1.03,2.0106617977607923,-10.352880804935849,-13.96310772031328,1.9860965441782765,920.4537047108405,917.7366914411706
1.04,-3.167883694813402,-2.5586719954877193,-12.419714636302203,1.2092343352289514,910.7303077246378,917.7366914411706
1.05,1.5948826454066438,-12.161506298375107,-13.897477891583094,2.1816792718160656,920.2236778074316,917.7366914411706
1.06,-2.0335620094545726,-3.6577115222713585,-12.601312007478604,1.334957505727962,909.9212925600528,917.7366914411706
1.07,0.7651168373813978,-13.879444739490491,-13.940545451194543,2.3710102721893653,917.7279994417727,917.7366914411706
1.08,-1.2297710035880878,-5.0577124284767345,-12.979703611877422,1.4938947535164666,910.2548244812997,917.7366914411706
1.09,-0.5485212965461761,-15.498112090746337,-13.822625684241872,2.5534328318341735,914.7463120552534,917.7366914411706
1.1,-0.5999237104852507,-6.503776446391584,-13.39126893949388,1.6605030438450896,913.9945116684866,917.7366914411706
1.11,-2.317959671566175,-16.065657766949464,-13.316612189751629,2.632756833667827,913.1483445099043,917.7366914411706
1.12,0.07289516142218555,-7.805191833232502,-13.665519110640044,1.8145154321293633,920.5922159233501,917.7366914411706
1.1300000000000001,-4.247712894007958,-10.47211011622281,-12.502503933588274,2.091679370544617,913.2357695675354,917.7366914411706
1.1400000000000001,1.1667614341350427,-9.243428053870906,-13.805807093959395,1.9780545923632973,923.2966521570452,917.7366914411706
1.1500000000000001,-3.6176670058019464,-1.9711242674987393,-12.332631655478426,1.2527953379935792,914.1269450008105,917.7366914411706
1.16,1.8460287726608442,-11.329505860702325,-13.821970222151204,2.1999630031746404,923.7780374908596,917.7366914411706
1.17,-2.4960140931416883,-2.978952813945535,-12.434652112907262,1.3678866513129069,913.3176460406721,917.7366914411706
1.18,1.2366423015948333,-12.987397326848091,-13.880155876167715,2.3817184999300105,921.9766837949184,917.7366914411706
1.19,-1.6050945037297164,-4.253139043343426,-12.744767922981438,1.5125458106228873,912.4030324422024,917.7366914411706
1.2,0.16741555850105203,-14.66365570601322,-13.905429355649806,2.56826113259588,918.8933471491584,917.7366914411706
1.21,-0.9501481706292481,-5.684949388035668,-13.163072422897516,1.6760754501861603,914.0237394542556,917.7366914411706
1.22,-1.3299047816205274,-15.984415409673876,-13.634983199966138,2.7220064677596554,916.4301164022129,917.7366914411706
1.23,-0.3471497306702316,-7.036756876223817,-13.514120663734708,1.834277371290873,919.1338036758137,917.7366914411706
1.24,-3.221736667742685,-15.084903714515537,-12.972211904267573,2.6541769588345607,915.7267918085072,917.7366914411706
1.25,0.41502218298030646,-8.269308229811971,-13.699554835499617,1.980886718594016,925.1028637458589,917.7366914411706
1.26,-4.4185903826296435,-2.031977418308711,-12.287333110395913,1.3591856148619987,915.5667583809602,917.7366914411706
1.27,1.9384553669739821,-10.180138914623903,-13.901297655957816,2.184181903408142,925.6715200856113,917.7366914411706
1.28,-3.3012509253344806,-2.319890445781575,-12.376145638266575,1.4004769469696905,916.3181159683969,917.7366914411706
1.29,1.6204717676278007,-11.896174396277182,-13.827237595689006,2.3700015164155284,925.707656775756,917.7366914411706
1.3,-2.2036027989212146,-3.321158068309788,-12.516232250078584,1.5158210416870987,915.2814996067314,917.7366914411706
1.31,0.8974427830143883,-13.507952763675302,-13.892846370415054,2.5480084639873253,923.4363045756934,917.7366914411706
1.32,-1.4199613629619376,-4.631551299947306,-12.859038883245622,1.6649998689144732,914.8787304698634,917.7366914411706
1.33,-0.271715099760544,-15.096872414083158,-13.85274875099591,2.7266288527421416,920.4505528886735,917.7366914411706
1.34,-0.8142504980438336,-6.022565599740727,-13.258320843355593,1.8252207369076392,917.2843217888379,917.7366914411706
1.35,-1.837741299642813,-16.099311470229075,-13.491748658301312,2.848994635426703,918.420277685088,917.7366914411706
1.36,-0.21423378259671422,-7.303176906832161,-13.56014401433201,1.9766843559938438,922.9703747966522,917.7366914411706
1.37,-3.736193643610555,-13.822667528957304,-12.764501851618773,2.6424560857353154,918.2097172161159,917.7366914411706
1.3800000000000001,0.6319712507152899,-8.523268575919744,-13.698081212051743,2.1210394590074793,927.6772906591426,917.7366914411706
1.3900000000000001,-4.182355005971951,-1.4139835933988065,-12.276296888347954,1.4115249443487845,918.7083948179111,917.7366914411706
1.4000000000000001,1.9408365913052292,-10.497752658195608,-13.807012325083747,2.3303996034866605,928.4325202898804,917.7366914411706
1.41,-3.0910444828316264,-2.3555928116349825,-12.33815252572819,1.5185392116422327,918.7620409476131,917.7366914411706
1.42,1.5296435754995423,-12.083748633350051,-13.788310948669539,2.50343854244709,927.8796592694326,917.7366914411706
1.43,-2.091479681779446,-3.4050660416633134,-12.522730513014086,1.6389753493200794,917.5904794052952,917.7366914411706
1.44,0.746228274391715,-13.66606047909759,-13.856850195761638,2.6787408535426045,925.453796050371,917.7366914411706
1.45,-1.3645307466602874,-4.704750061525631,-12.870891513711737,1.7873145618469344,917.3992816921422,917.7366914411706
1.46,-0.44095625123243265,-15.18353353987019,-13.789135430382398,2.8503764432212604,922.6183768508598,917.7366914411706
1.47,-0.7792043363814187,-6.050650559921957,-13.248273526144843,1.943138795786359,919.9966781035105,917.7366914411706
1.48,-1.9994559067504118,-16.0173631311181,-13.404694710267847,2.9558274160370916,920.8152894040296,917.7366914411706
1.49,-0.18096460954965088,-7.283562164337466,-13.521958206960381,2.0897308815233657,925.5798867464092,917.7366914411706
1.5,-3.8504293854222897,-13.355872027286985,-12.687388587011982,2.7103177398456046,920.6940193601197,917.7366914411706
1.51,0.674307976589743,-8.486778065326305,-13.646701114761374,2.231895121714863,929.9116443561729,917.7366914411706
1.52,-4.192656239066588,-1.3193994243068796,-12.242400317923414,1.5164766570372272,921.2509655503262,917.7366914411706
1.53,1.9258905557853074,-10.424309440536327,-13.73926885346304,2.437391968100709,930.7257320526054,917.7366914411706
1.54,-3.1257379642466923,-2.22049885694239,-12.291039327022464,1.619231408598257,921.3035243229193,917.7366914411706
1.55,1.5384155648818743,-11.956301056405646,-13.718181176492687,2.6047679296009885,930.2597316852808,917.7366914411706
1.56,-2.145725758803298,-3.230657190013091,-12.460002601352963,1.7354342001517458,919.9524883011468,917.7366914411706
1.57,0.7947371479430521,-13.490680700788271,-13.803887515282247,2.774927231930052,927.8672863818052,917.7366914411706
1.58,-1.436953494308221,-4.4995387474781,-12.798198423005578,1.880312575346513,919.3071808281526,917.7366914411706
1.59,-0.33926640452984097,-14.995435403149061,-13.782603804407074,2.9448976763167583,924.9230964371543,917.7366914411706
1.6,-0.8761667979156655,-5.834904338075509,-13.179789817444668,2.0346794741474787,921.3894522315669,917.7366914411706
1.61,-1.8308691846550174,-15.958415111609973,-13.452734051541263,3.0629889666125347,922.9677224876104,917.7366914411706
1.62,-0.30506524225775355,-7.058959937090133,-13.462483375494216,2.1801024090976413,926.3756031904936,917.7366914411706
1.6300000000000001,-3.607686285917504,-14.328073060839426,-12.79971516014114,2.9213417945334097,922.569022409257,917.7366914411706
1.6400000000000001,0.4510661567001333,-8.215948539907549,-13.602399533309114,2.3183452909801296,931.4767348087242,917.7366914411706
1.6500000000000001,-4.447241733453104,-1.093499542044417,-12.22413348972715,1.6071938907358607,922.6090695812413,917.7366914411706
1.6600000000000001,1.9119235151681666,-10.084717188406092,-13.764388172135208,2.5164003725604345,932.1472784038702,917.7366914411706
