timestamp,iq,id,iq_ref,id_ref,vq,vd,omega,omega_ref,r
0.0,0.0,0.0,0.0,0.0,0.0,0.0,0.0,402.7181944662813,0.0
0.001,0.0,0.0,10.0,0.0,0.0,1.0999999999999999,8.564308862257368,402.7181944662813,0.0
0.002,0.3941477192147864,-0.20877611115784458,10.0,0.0,0.13296537222736285,1.9466437508863734,19.116847507455997,402.7181944662813,0.0
0.003,0.8436229499390799,-0.44791316688153066,10.0,0.0,0.36151589733865397,2.6764188657193215,30.54908898545726,402.7181944662813,0.0
0.004,1.2565073256213584,-0.6656266920497974,10.0,0.0,0.6617459986333829,3.315148992562296,42.49548743854426,402.7181944662813,0.0
0.005,1.606113238419626,-0.8465694374849226,10.0,0.0,1.0135526692291177,3.88570131019946,54.77274197947859,402.7181944662813,0.0
0.006,1.8926939496934558,-0.990736493160446,10.0,0.0,1.4012828531989518,4.40635124402034,67.2003888657827,402.7181944662813,0.0
0.007,2.1253502863429476,-1.104462218357382,10.0,0.0,1.8133731713687984,4.890982812937413,79.70127103480587,402.7181944662813,0.0
0.008,2.315728466223218,-1.1938305979031083,10.0,0.0,2.2414108791114282,5.349745220359425,92.21524285205696,402.7181944662813,0.0
0.009000000000000001,2.4741468889076423,-1.264571940967144,10.0,0.0,2.6794089207635827,5.789912913117018,104.68330856928138,402.7181944662813,0.0
0.01,2.608949236157755,-1.3212303744805751,10.0,0.0,3.1231489417821168,6.216619566793398,117.0516979590914,402.7181944662813,0.0
0.011,2.726579696214654,-1.36707776356487,10.0,0.0,3.569662254530576,6.633438230070236,129.27280087570546,402.7181944662813,0.0
0.012,2.8319258388487043,-1.4042637180369368,10.0,0.0,4.0168380834329565,7.042814587205058,141.2942102997194,402.7181944662813,0.0
0.013000000000000001,2.928605121698496,-1.4341949606426685,10.0,0.0,4.46315454230049,7.446389631829499,153.0608026764501,402.7181944662813,0.0
0.014,3.0193687212091582,-1.4576329596331885,10.0,0.0,4.907475727206615,7.8452216147605744,164.51532102082714,402.7181944662813,0.0
0.015,3.1063737966400797,-1.474865390392308,10.0,0.0,5.348909179308833,8.239939595586861,175.59848489379348,402.7181944662813,0.0
0.016,3.191381776154252,-1.4858551528792034,10.0,0.0,5.786707633849423,8.630848296548493,186.24984840546108,402.7181944662813,0.0
0.017,3.275900049043078,-1.49035835658027,10.0,0.0,6.22020256781437,9.017999042645389,196.40927455534302,402.7181944662813,0.0
0.018000000000000002,3.3612751809078114,-1.4880220308217915,10.0,0.0,6.648761055122064,9.40123812575286,206.01874933217377,402.7181944662813,0.0
0.019,3.448747468963903,-1.4784668452807113,10.0,0.0,7.071759894857804,9.78024094891283,215.02425276296447,402.7181944662813,0.0
0.02,3.5394759330416212,-1.4613569668964124,10.0,0.0,7.488572598169103,10.154537965562385,223.3774254212032,402.7181944662813,0.0
0.021,3.634541851031804,-1.4364569180249678,10.0,0.0,7.898565826222215,10.523536584539976,231.03685516364112,402.7181944662813,0.0
0.022,3.7349382720723243,-1.4036736559105765,10.0,0.0,8.301102435023905,10.886541717290562,237.96927569530808,402.7181944662813,0.0
0.023,3.8415543606881606,-1.3630780807210305,10.0,0.0,8.695548215570776,11.242776192108924,244.14925354489228,402.7181944662813,0.0
0.024,3.9551471877100166,-1.3149260194600092,10.0,0.0,9.081282094557983,11.591402747413886,249.5598072885239,402.7181944662813,0.0
0.025,4.076330728724719,-1.2596376661749824,10.0,0.0,9.457705042928222,11.931545773845675,254.1932728976037,402.7181944662813,0.0
0.026000000000000002,4.2055614416411755,-1.1977752960243728,10.0,0.0,9.824248021920894,12.262313249460647,258.05218770799405,402.7181944662813,0.0
0.027,4.343129902848424,-1.1300106432832895,10.0,0.0,10.180377962475792,12.58281805180976,261.1502514356939,402.7181944662813,0.0
0.028,4.489158073818698,-1.0570877665628837,10.0,0.0,10.525601519298272,12.892197953784788,263.5129927384184,402.7181944662813,0.0
0.029,4.643601474256362,-0.9797865437506637,10.0,0.0,10.859466804893867,13.189633728906122,265.17782957190695,402.7181944662813,0.0
0.03,4.806256274594245,-0.8988893059609668,10.0,0.0,11.18156345551329,13.474364861042094,266.2009615589925,402.7181944662813,0.0
0.031,4.976777961900621,-0.815140261772552,10.0,0.0,11.491520131801542,13.745701707426086,279.38029931592064,402.7181944662813,0.0
0.032,5.099342991439622,-0.8180235026614544,10.0,0.0,11.798769472039032,14.00912360042428,293.15155424460227,402.7181944662813,0.0
0.033,5.184006959275187,-0.8781964891184866,10.0,0.0,12.108226263653979,14.268840851979885,306.48395088386746,402.7181944662813,0.0
0.034,5.24875218669732,-0.9624023488014055,10.0,0.0,12.421370015963536,14.527256722203335,320.6181579917582,402.7181944662813,0.0
0.035,5.298172103432424,-1.0599146201915923,10.0,0.0,12.738925271320582,14.786356642068766,335.5894534073472,402.7181944662813,0.0
0.036000000000000004,5.3323207518575835,-1.1683164713776675,10.0,0.0,13.061584074045026,15.048039943323936,351.22643786530205,402.7181944662813,0.0
0.037,5.351274722205247,-1.2853918247997829,10.0,0.0,13.389939596987121,15.314077344472047,367.44957560065194,402.7181944662813,0.0
0.038,5.355021894354817,-1.4089264560826744,10.0,0.0,13.724481363656706,15.586123908566574,384.1115263566393,402.7181944662813,0.0
0.039,5.34364048286855,-1.5363848989043365,10.0,0.0,14.06555869246634,15.86570941990359,400.9580990356623,402.7181944662813,0.0
0.04,5.3178303141330385,-1.6641941228764245,5.339509075030532,0.0,14.413271269737429,15.641515415687277,413.00902424214576,402.7181944662813,0.0
0.041,5.095298916119468,-1.6998908755162736,-0.7888618259698337,0.0,14.706441739410442,14.871216531853493,416.80473783719566,402.7181944662813,0.0
0.042,4.604103339319448,-1.588110118002099,-2.8275840572039286,0.0,14.880612422879814,14.09609504641251,415.6432217422836,402.7181944662813,0.0
0.043000000000000003,4.0249933178253245,-1.402394922284771,-2.376076282507908,0.0,14.940543025504388,13.544746001987818,412.48479985184275,402.7181944662813,0.0
0.044,3.517295724920354,-1.2200749615398037,-0.8945313911431123,0.0,14.921147619699259,13.263035417575828,408.76317729811115,402.7181944662813,0.0
0.045,3.1597177469637043,-1.0832050358335241,0.9058300574043932,0.0,14.862288203813208,13.22503726309728,405.4922070902802,402.7181944662813,0.0
0.046,2.97053438941619,-1.0015278538734986,2.513575035079875,0.0,14.797899123309358,13.36103570508747,402.52617418825287,402.7181944662813,0.0
0.047,2.9272138875498985,-0.9631013974334811,3.998511688873828,0.0,14.750138656666124,13.627134398598656,399.81536067238613,402.7181944662813,0.0
0.048,3.0014132672167664,-0.9515525953235412,5.382946784746146,0.0,14.73287800237063,13.990690533320397,397.16435737134407,402.7181944662813,0.0
0.049,3.1646112749254516,-0.9571437581174127,6.763986806216551,0.0,14.754429542905283,14.437025253492141,395.4671685522467,402.7181944662813,0.0
0.05,3.4019740215651924,-0.9668065460540113,7.685091474905594,0.0,14.819466396448735,14.90391484698799,393.7164237438181,402.7181944662813,0.0
0.051000000000000004,3.6807237797297963,-0.97124771744817,8.650481586344515,0.0,14.925080424961418,15.39931218612828,391.67745858576336,402.7181944662813,0.0
0.052000000000000005,3.9934101728063394,-0.9650588597306472,9.780371524177063,0.0,15.068947598473995,15.938757180596223,389.6759886674877,402.7181944662813,0.0
0.053,4.34306558479438,-0.9502911961657384,10.0,0.0,15.250809999667142,16.416169394542912,386.94255738817486,402.7181944662813,0.0
0.054,4.6934169495287215,-0.9123960637032327,10.0,0.0,15.458206594200416,16.82678824645512,383.1150937314935,402.7181944662813,0.0
0.055,5.0295385273700814,-0.847294755397359,10.0,0.0,15.679143221882564,17.183615012714228,378.2491648875752,402.7181944662813,0.0
0.056,5.351515462343021,-0.7584261926381135,10.0,0.0,15.904544334601946,17.49479651804703,372.58438836720416,402.7181944662813,0.0
0.057,5.662929882247012,-0.6517622915248136,10.0,0.0,16.127679143087807,17.766364167278788,376.6520437222448,402.7181944662813,0.0
0.058,5.957999255926822,-0.5488932922277898,10.0,0.0,16.345408284736717,18.003745045530206,394.47544675586914,402.7181944662813,0.0
0.059000000000000004,6.1005539176864305,-0.662395577950147,9.094291703993871,0.0,16.5786165414683,18.126802518503943,409.7851415828392,402.7181944662813,0.0
0.06,6.151328492530889,-0.8052552820362131,1.3687748193432778,0.0,16.815389264416346,17.415965638886668,419.9903810665735,402.7181944662813,0.0
0.061,5.840776565438391,-0.8381224515319537,-3.9065667885268027,0.0,16.95958781871153,16.331525769235338,424.497104321352,402.7181944662813,0.0
0.062,5.247844574582992,-0.7638392706432047,-6.377717514466777,0.0,16.972422709019348,15.212993577927133,425.37904719754573,402.7181944662813,0.0
0.063,4.537847870256298,-0.6427357824404755,-7.0452974798762735,0.0,16.859542339272142,14.231046123412273,423.95100920041546,402.7181944662813,0.0
0.064,3.8466686924573867,-0.5255848036096252,-6.543606628652477,0.0,16.64807968825881,13.466796913177498,421.1351948648466,402.7181944662813,0.0
0.065,3.2599100590611365,-0.4438986521506546,-5.3198694648537,0.0,16.373524414451154,12.945052196266095,417.81948153898145,402.7181944662813,0.0
0.066,2.8191671328986985,-0.4105312194091403,-3.813025672648128,0.0,16.071396640246142,12.644156004713595,414.5444548651372,402.7181944662813,0.0
0.067,2.52903658818108,-0.4237263074955051,-2.293774939714561,0.0,15.771177158323304,12.522692728253801,411.49063071646407,402.7181944662813,0.0
0.068,2.371854516293511,-0.47273565652022886,-0.8545872278798239,0.0,15.494092374458624,12.54086069468064,408.73860339450226,402.7181944662813,0.0
0.069,2.3225991440386418,-0.5437930342302947,0.4612223438188696,0.0,15.253859083680958,12.663696832075996,406.2490489614079,402.7181944662813,0.0
0.07,2.356799574630585,-0.6226896292647406,1.6706910154147954,0.0,15.05790078739728,12.865854883724955,403.80874841280695,402.7181944662813,0.0
0.07100000000000001,2.4526218221694505,-0.7015337608350393,2.8799357502500045,0.0,14.909638014429252,13.138925091773205,401.4916736791312,402.7181944662813,0.0
0.07200000000000001,2.5995583744543618,-0.7732136058280937,4.050738324959367,0.0,14.810604881196387,13.471353039313552,399.00796796086496,402.7181944662813,0.0
0.073,2.7908092835588505,-0.8314280524508246,5.329693449146664,0.0,14.760404646719412,13.870043682211444,396.4183111281352,402.7181944662813,0.0
0.074,3.0239373436449406,-0.8805395082071357,6.687520698893004,0.0,14.75991361564689,14.336685106083648,394.71460783902666,402.7181944662813,0.0
0.075,3.303320339872295,-0.9170458674117237,7.619408209719824,0.0,14.809660415023789,14.817141789170726,393.0026983291692,402.7181944662813,0.0
0.076,3.607686451398198,-0.9389835054998981,8.572517926019662,0.0,14.904526279369353,15.319364235265914,390.98703195277693,402.7181944662813,0.0
0.077,3.935347342979947,-0.9441957148889342,9.69766273935085,0.0,15.040481768541794,15.862086818530841,389.0020443350442,402.7181944662813,0.0
0.078,4.293360558589582,-0.9369846496457301,10.0,0.0,15.216268627852834,16.350033498123377,386.3686307363701,402.7181944662813,0.0
0.079,4.65131074313514,-0.9056649892675572,10.0,0.0,15.41989841720286,16.76794643493735,382.6615522742162,402.7181944662813,0.0
0.08,4.992952287101936,-0.8457921628960503,10.0,0.0,15.638683707002201,17.130429989014036,377.901555196628,402.7181944662813,0.0
0.081,5.3186238698370065,-0.7608940535697812,10.0,0.0,15.8630987594671,17.4461362580018,372.3255501482813,402.7181944662813,0.0
0.082,5.63235669816318,-0.6570862105419701,10.0,0.0,16.086073051944492,17.72145951004876,372.9796113191585,402.7181944662813,0.0
0.083,5.934706490186544,-0.5463446198163173,10.0,0.0,16.303138743829294,17.961426717299442,392.927615645141,402.7181944662813,0.0
0.084,6.08617623822796,-0.6501725558983027,9.503448963055337,0.0,16.53502307612696,18.1308449845853,408.52799069330047,402.7181944662813,0.0
0.085,6.155723470844007,-0.8006261659186373,1.6451634767054006,0.0,16.776172419664857,17.440928467135944,418.68764419016856,402.7181944662813,0.0
0.08600000000000001,5.8618416410383265,-0.8380644339108378,-3.594357768967516,0.0,16.92682885048297,16.37937652722958,423.4958223570506,402.7181944662813,0.0
0.08700000000000001,5.2841334794804435,-0.7685932617215163,-6.20622313131623,0.0,16.94824823260789,15.264744526467343,424.64092082953476,402.7181944662813,0.0
0.088,4.581001033567923,-0.6498236609214375,-6.997999631190847,0.0,16.84369253207798,14.274308390065901,423.37843413086,402.7181944662813,0.0
0.089,3.8884468652475324,-0.5321052344902681,-6.573358678499252,0.0,16.63878745706149,13.49623820110255,420.6560652454307,402.7181944662813,0.0
0.09,3.294994108936354,-0.44801086859982897,-5.391552943576087,0.0,16.368492674666673,12.95959100635954,417.38503625745176,402.7181944662813,0.0
0.091,2.845166617611242,-0.41159734382483815,-3.9027068674983303,0.0,16.068398106970694,12.645080560353325,414.1281702166488,402.7181944662813,0.0
0.092,2.545702032946754,-0.42199531660780554,-2.3883736046005315,0.0,15.768369863697567,12.512142729735954,411.1017749564095,402.7181944662813,0.0
0.093,2.3800878689716845,-0.4689652885477792,-0.9590117793821502,0.0,15.490113378875577,12.519805238188667,408.3325153994817,402.7181944662813,0.0
0.094,2.3233185348896863,-0.5386398822628091,0.36947478974974945,0.0,15.24764329897032,12.635304236775502,405.8371652970564,402.7181944662813,0.0
0.095,2.351539969007549,-0.617285595756943,1.5859601326546375,0.0,15.048924409461474,12.831862798447563,403.41556342984995,402.7181944662813,0.0
0.096,2.442937604728799,-0.696245000960589,2.7897873766221752,0.0,14.89763234250818,13.099378232820754,401.15503158724437,402.7181944662813,0.0
0.097,2.585708919496819,-0.7687968153803554,3.9356849267153384,0.0,14.795412131221672,13.4242325068646,398.67571626653455,402.7181944662813,0.0
0.098,2.7721836221153198,-0.8277121016689002,5.215767369067715,0.0,14.741654531815737,13.81664492139288,396.1880497302275,402.7181944662813,0.0
0.099,3.0007247755846387,-0.8775880410284242,6.5249020845817896,0.0,14.737411134269886,14.272369548955329,394.31730295181325,402.7181944662813,0.0
0.1,3.273918042502448,-0.9140055441646239,7.544284388933585,0.0,14.782671705186258,14.75337223250424,392.6588140418797,402.7181944662813,0.0
0.101,3.5754602998661413,-0.9374583963175255,8.474122648144384,0.0,14.873722126071335,15.252451374618737,390.67984232828286,402.7181944662813,0.0
0.10200000000000001,3.900135357702375,-0.9442033207050171,9.583992026322779,0.0,15.006082832240457,15.790816059829458,388.7079727460885,402.7181944662813,0.0
0.10300000000000001,4.254533426274869,-0.9381759776961753,10.0,0.0,15.178313479338883,16.287505493494113,386.1935461683635,402.7181944662813,0.0
0.10400000000000001,4.613229494833856,-0.909790998030469,10.0,0.0,15.379927930760793,16.711676381909612,382.6304238074271,402.7181944662813,0.0
0.105,4.956237485276011,-0.8529473105174796,10.0,0.0,15.597829070052299,17.079447708362714,377.99671071001444,402.7181944662813,0.0
0.106,5.283009945407162,-0.7706325695109879,10.0,0.0,15.822231043424374,17.39971712538964,372.5202174904471,402.7181944662813,0.0
0.107,5.597414499388309,-0.6687424087743703,10.0,0.0,16.045834990890967,17.67908302171447,368.8853412471576,402.7181944662813,0.0
0.108,5.903316244811904,-0.5539803387224786,10.0,0.0,16.263410207145046,17.922367576696693,390.10309442162287,402.7181944662813,0.0
0.109,6.072310116823401,-0.6337354367465928,10.0,0.0,16.493477038755113,18.147550889339072,407.2393605245844,402.7181944662813,0.0
0.11,6.165426471125682,-0.7911032101944393,2.0788742841743506,0.0,16.73956842256743,17.493345864884258,417.32049501858063,402.7181944662813,0.0
0.111,5.895154643812416,-0.8365613175830742,-3.107715968346751,0.0,16.899056879631306,16.46851787518458,422.5427321649606,402.7181944662813,0.0
0.112,5.3409521429822,-0.7750802762864386,-5.917079918523542,0.0,16.93289619640231,15.363216954985212,424.1217345423356,402.7181944662813,0.0
0.113,4.649686663655905,-0.6609644902411902,-6.92061650797158,0.0,16.84088356342427,14.360031850862955,423.1315264720498,402.7181944662813,0.0
0.114,3.95560559411401,-0.5431033004978592,-6.629645792886365,0.0,16.645930110320492,13.559442401265327,420.54858830480873,402.7181944662813,0.0
0.115,3.351555614381131,-0.4555118051060525,-5.516480647651097,0.0,16.381956604971663,12.998459697217301,417.3286643539481,402.7181944662813,0.0
0.116,2.8870529318034155,-0.41428337277191796,-4.0526233710974555,0.0,16.084622967150075,12.662125357293963,414.0758593757782,402.7181944662813,0.0
0.117,2.572600372489952,-0.4201284927667843,-2.5397975311074577,0.0,15.78444450664109,12.511408111912868,411.03895533388504,402.7181944662813,0.0
0.11800000000000001,2.3937639327976252,-0.46368193047728223,-1.1045531188369262,0.0,15.5039445945931,12.505020854741858,408.25630598774575,402.7181944662813,0.0
0.11900000000000001,2.326128518781477,-0.5313739136482437,0.23139043901807632,0.0,15.25786653180451,12.609475210469355,405.73690552389047,402.7181944662813,0.0
0.12,2.3456067970737426,-0.6095165587017058,1.4609035603696237,0.0,15.0547604819917,12.797944367363051,403.34796642315007,402.7181944662813,0.0
0.121,2.4306208125003184,-0.688562835582291,2.6490753911711367,0.0,14.89872561685587,13.056503014846749,401.09307410061587,402.7181944662813,0.0
0.122,2.5673205556487813,-0.7618193514974425,3.792772756094893,0.0,14.791417856963854,13.373340471310028,398.60920165346084,402.7181944662813,0.0
0.123,2.7480958100042234,-0.8218914092615288,5.075798907800609,0.0,14.732399979902269,13.758941028628549,396.2300724007658,402.7181944662813,0.0
0.124,2.971660434325826,-0.8728724523263014,6.330244754803297,0.0,14.722851140438166,14.202454168030478,394.1600076648455,402.7181944662813,0.0
0.125,3.2378964421607836,-0.909787998712936,7.450858990777782,0.0,14.762159398532559,14.684333902414345,392.56059927101217,402.7181944662813,0.0
0.126,3.5364502874862387,-0.935341352045743,8.352139139647152,0.0,14.848166517658647,15.179712600277695,390.613382979537,402.7181944662813,0.0
0.127,3.857820845312427,-0.9440588794135809,9.446795400252181,0.0,14.975814189135587,15.713188304537557,388.64590680628015,402.7181944662813,0.0
0.128,4.208209062322372,-0.939541630887503,10.0,0.0,15.143460591279268,16.2206581505925,386.2619175427528,402.7181944662813,0.0
0.129,4.568123761880133,-0.9147411175272065,10.0,0.0,15.34240645382971,16.652526871477583,382.8571691115713,402.7181944662813,0.0
0.13,4.913079510640071,-0.8615276127191223,10.0,0.0,15.559039121818332,17.026757321161192,378.3632089932771,402.7181944662813,0.0
0.131,5.241457391257415,-0.7822586294441862,10.0,0.0,15.783244114864285,17.352555983294994,372.9944212447603,402.7181944662813,0.0
0.132,5.556922900615713,-0.682597074467371,10.0,0.0,16.00743839360433,17.63677785129677,366.9871953175236,402.7181944662813,0.0
0.133,5.863578441526417,-0.5690933196547531,10.0,0.0,16.22614663379092,17.884419505965777,386.52110375280006,402.7181944662813,0.0
0.134,6.055623321919545,-0.616819411281917,10.0,0.0,16.454133123052873,18.111109437752408,405.1830810530864,402.7181944662813,0.0
0.135,6.155062682232973,-0.7688796063106469,2.9787402239213785,0.0,16.69823931710418,17.556572569087372,415.6498538553445,402.7181944662813,0.0
0.136,5.9252017851300005,-0.8288859373530666,-2.383962771098278,0.0,16.86756129934822,16.588494367287055,421.5276104137202,402.7181944662813,0.0
0.137,5.408942755240445,-0.781917187119379,-5.510935209760528,0.0,16.917376637351705,15.498306129905345,423.689817706158,402.7181944662813,0.0
0.138,4.7374231747351985,-0.676104904782872,-6.801755088378201,0.0,16.842021954261995,14.480102351357521,423.00075789563675,402.7181944662813,0.0
0.139,4.043512163029919,-0.5595144555167894,-6.660050817411126,0.0,16.660615535030566,13.654294166430585,420.6765749731243,402.7181944662813,0.0
0.14,3.428199741618196,-0.468070737284473,-5.677543161223317,0.0,16.405876034716687,13.06033021378243,417.54161558152185,402.7181944662813,0.0
0.14100000000000001,2.94491413570912,-0.42053444100243065,-4.258297676574512,0.0,16.112899533760682,12.693588925553072,414.27837890392533,402.7181944662813,0.0
0.14200000000000002,2.6101951012862923,-0.41985707954633644,-2.74228118215269,0.0,15.812947407279994,12.518779713318374,411.20567002781024,402.7181944662813,0.0
