timestamp,iq,id,iq_ref,id_ref,vq,vd,omega,omega_ref,r
0.0,0.0,0.0,0.0,0.0,0.0,0.0,0.0,304.050748928798,0.0
0.001,0.0,0.0,10.0,0.0,0.0,1.0999999999999999,16.019159884947964,304.050748928798,0.0
0.002,0.40839122796663696,-0.25002181916448335,10.0,0.0,0.1375024001080932,1.9450769649236694,30.868573912606312,304.050748928798,0.0
0.003,0.8630711084887338,-0.5030593345331617,10.0,0.0,0.3710961651966539,2.673465598788018,43.995794538763654,304.050748928798,0.0
0.004,1.2633444424204743,-0.7314525898758376,10.0,0.0,0.6767623000968005,3.312891477847517,58.729757455568155,304.050748928798,0.0
0.005,1.592325512939566,-0.9211424679584556,10.0,0.0,1.034386363448544,3.886756198073298,73.82535666342237,304.050748928798,0.0
0.006,1.8575222159243387,-1.0722881418072356,10.0,0.0,1.428363617830231,4.41311502598854,88.84115438880775,304.050748928798,0.0
0.007,2.070060835974425,-1.1939871957879518,10.0,0.0,1.8474544687646637,4.905508415374765,104.04795178485305,304.050748928798,0.0
0.008,2.2428813165706356,-1.2921298552718388,10.0,0.0,2.2834542755476965,5.373686684250731,119.14609456895275,304.050748928798,0.0
0.009000000000000001,2.386126558860302,-1.3725927458305327,10.0,0.0,2.7305414199066402,5.8246183350715,134.16767009090253,304.050748928798,0.0
0.01,2.507648687454155,-1.439763246124972,10.0,0.0,3.184597141038567,6.263230553523659,149.0571119712669,304.050748928798,0.0
0.011,2.613736040319792,-1.4960519178632274,10.0,0.0,3.6426285607907825,6.692932734714513,163.6770547471906,304.050748928798,0.0
0.012,2.709023077152582,-1.54309028397055,10.0,0.0,4.102438390241283,7.116047139238553,177.94029521061245,304.050748928798,0.0
0.013000000000000001,2.797072281171107,-1.5817274722172046,10.0,0.0,4.562358384245198,7.53409854418153,191.75020973304314,304.050748928798,0.0
0.014,2.880763401493897,-1.612163835253141,10.0,0.0,5.021053147394506,7.948011276835279,204.99434881008497,304.050748928798,0.0
0.015,2.9625015746709455,-1.6342037282474375,10.0,0.0,5.477389732093267,8.358247924692336,217.55883998798518,304.050748928798,0.0
0.016,3.044392565452659,-1.6474057240424498,10.0,0.0,5.930348143715371,8.764903938979348,229.32961422417927,304.050748928798,0.0
0.017,3.128353400059721,-1.6512107512429381,10.0,0.0,6.378962848638068,9.167773411100908,240.19494312480128,304.050748928798,0.0
0.018000000000000002,3.216163046804543,-1.6450658748031237,10.0,0.0,6.822289043600264,9.566397953706717,250.0501764043618,304.050748928798,0.0
0.019,3.309476016782013,-1.628525776608791,10.0,0.0,7.259387111289843,9.960106331318096,258.8016340399937,304.050748928798,0.0
0.02,3.4098113167646895,-1.6013270921211786,10.0,0.0,7.689319755659913,10.34804992463898,266.3699006433547,304.050748928798,0.0
0.021,3.518527931958091,-1.5634311886170111,10.0,0.0,8.111156932384478,10.729236948393329,272.69391599439035,304.050748928798,0.0
0.022,3.6367983265438433,-1.5150300808465702,10.0,0.0,8.523983930992316,11.1025664101922,277.7382155379138,304.050748928798,0.0
0.023,3.7655883705057187,-1.4565151144007147,10.0,0.0,8.92690854068792,11.46686142478202,281.5067454062291,304.050748928798,0.0
0.024,3.9056453650716634,-1.3884186065253445,10.0,0.0,9.31906472467111,11.820901029919787,284.0674247531889,304.050748928798,0.0
0.025,4.057486686259167,-1.3113527488595738,10.0,0.0,9.699612971505276,12.163450317557123,285.5988587223392,304.050748928798,0.0
0.026000000000000002,4.2213796155688454,-1.225972378300344,10.0,0.0,10.067740140234902,12.493289692101957,286.5863382441141,304.050748928798,0.0
0.027,4.397311153686031,-1.1329747420259946,10.0,0.0,10.422662593261464,12.809244306165475,287.75287800785094,304.050748928798,0.0
0.028,4.584725281624374,-1.0335320825384622,10.0,0.0,10.763679546210838,13.11023946543326,306.2529931045858,304.050748928798,0.0
0.029,4.707085383795455,-1.0526250482781883,2.717975004199115,0.0,11.103788972618293,12.60262858457166,317.2540393039463,304.050748928798,0.0
0.03,4.480401194516089,-0.9839645555125522,-2.9145809992326046,0.0,11.35138278443723,11.659187685859932,326.38592708717306,304.050748928798,0.0
0.031,3.96460130889621,-0.8146718456887594,-7.703876672429742,0.0,11.461937532050138,10.418824439709294,325.32578206900433,304.050748928798,0.0
0.032,3.247286779204822,-0.5654007249584532,-7.386554494747443,0.0,11.411673584104598,9.470097988621887,318.91476861071374,304.050748928798,0.0
0.033,2.5945086464493805,-0.35739144294531133,-4.329687962421302,0.0,11.251175076030723,9.008932333933904,313.00924006549235,304.050748928798,0.0
0.034,2.1714718923002447,-0.2757503951284046,-1.4665086011775523,0.0,11.05370943085571,8.902220719949732,311.72089886794856,304.050748928798,0.0
0.035,1.9783866389828386,-0.3150739590959122,-0.8990395017971644,0.0,10.87046119131438,8.83723252048931,313.2964231321152,304.050748928798,0.0
0.036000000000000004,1.8885160539805224,-0.3980357433660715,-1.7792583759136527,0.0,10.707771516411185,8.665874461691262,313.9009155066591,304.050748928798,0.0
0.037,1.7944991929439373,-0.46400700089775815,-2.180006228964211,0.0,10.550642223604285,8.4695463150523,312.89502219512354,304.050748928798,0.0
0.038,1.6868252595374265,-0.5117302191438812,-1.7655023058596946,0.0,10.394182886845936,8.337644927932898,312.04481747790607,304.050748928798,0.0
0.039,1.5975908786775461,-0.5592866099316154,-1.4203406327420351,0.0,10.244933315855668,8.245849533222014,311.37845687937204,304.050748928798,0.0
0.04,1.530533605322073,-0.6057041760952568,-1.160437412980762,0.0,10.106059530863465,8.179930414586263,310.4659787381678,304.050748928798,0.0
0.041,1.4814975444537903,-0.6474517919251455,-0.7683506404723368,0.0,9.978609274586558,8.151969736055138,309.4957652937802,304.050748928798,0.0
0.042,1.4526254870982713,-0.6875219045733684,-0.33769408192836803,0.0,9.865098212317235,8.160197019164611,308.8378110930493,304.050748928798,0.0
0.043000000000000003,1.444968831366012,-0.7249467356512989,-0.05658760320543221,0.0,9.76747701487788,8.18341912636728,307.22465771622154,304.050748928798,0.0
0.044,1.4528891448530006,-0.7517063021086002,0.7182499973342162,0.0,9.684509451902255,8.27603017333699,305.62277529684405,304.050748928798,0.0
0.045,1.488487231246688,-0.7877659910311158,1.5034709433425002,0.0,9.622798720038064,8.425872700999243,308.1217384126921,304.050748928798,0.0
0.046,1.555649787907413,-0.8296703190026482,0.21327949057954543,0.0,9.586492193314163,8.397754733076102,305.78866775871876,304.050748928798,0.0
0.047,1.5795332890879452,-0.8078334975386986,1.362435629266999,0.0,9.548183428829585,8.506171439492881,300.01289108783254,304.050748928798,0.0
0.048,1.6284552878735425,-0.8071848524176273,4.290702543119762,0.0,9.524694228686464,8.905390813101846,303.7077793228591,304.050748928798,0.0
0.049,1.7925829718844781,-0.8741895435420651,2.446688121665874,0.0,9.550852888393456,9.0126502485838,306.7391818980863,304.050748928798,0.0
0.05,1.904253897091541,-0.8687948911381986,0.9041025043593809,0.0,9.583858167002273,8.949912807866413,299.5611674633981,304.050748928798,0.0
0.051000000000000004,1.9347026025853962,-0.7981638335416763,4.538005536357499,0.0,9.59957370386689,9.30967218042225,293.6343063288332,304.050748928798,0.0
0.052000000000000005,2.082210355716887,-0.8148775501667351,7.60560052963959,0.0,9.65223844370535,9.920202222560492,299.3598723277528,304.050748928798,0.0
0.053,2.3695769345716657,-0.9018434028363482,4.789726296190246,0.0,9.770088820401192,10.104388372713796,302.3380668805766,304.050748928798,0.0
0.054,2.558679512531222,-0.8957713503765592,3.3177558402605487,0.0,9.893035190145513,10.130255319916571,301.2376136401719,304.050748928798,0.0
0.055,2.653484200150641,-0.8217482721080112,3.896113813349162,0.0,9.998191799550732,10.235631801114014,297.29012423702807,304.050748928798,0.0
0.056,2.7482062494376747,-0.742649082922171,5.937464761838778,0.0,10.09540971610742,10.55027994118982,293.4281443599933,304.050748928798,0.0
0.057,2.9279182293798915,-0.704276855795601,7.9746807460441955,0.0,10.210940701923954,11.028044210390643,288.9598695980995,304.050748928798,0.0
0.058,3.2002430609338473,-0.7164927380087772,10.0,0.0,10.364422485393632,11.643839497674607,288.1921984757535,304.050748928798,0.0
0.059000000000000004,3.56378968597804,-0.761181961954905,10.0,0.0,10.568929275056679,12.155883361598264,288.8605926405862,304.050748928798,0.0
0.06,3.924239818625818,-0.7827879774950491,10.0,0.0,10.806119541615745,12.601159469755045,297.3195201025025,304.050748928798,0.0
0.061,4.254647460951731,-0.7835327551708675,6.518712239232045,0.0,11.063984257723519,12.609945000738207,312.1254829551948,304.050748928798,0.0
0.062,4.319405316970681,-0.832240571817471,-0.9650165273780678,0.0,11.302291467373202,11.85142187577558,321.4561957771153,304.050748928798,0.0
0.063,3.9936327308137693,-0.746709912497445,-5.804427406821484,0.0,11.431020192869983,10.771566438238946,322.99319591872853,304.050748928798,0.0
0.064,3.411424738089325,-0.5612567585641457,-6.762351947527414,0.0,11.419345961723963,9.816376979660566,319.18794950618036,304.050748928798,0.0
0.065,2.8045018030644755,-0.37334989881121244,-5.011100747027151,0.0,11.294504984801211,9.21869536421299,313.554913710461,304.050748928798,0.0
0.066,2.3439751520659566,-0.26766379963664233,-2.289624496984098,0.0,11.112633541714311,8.994736390377225,310.40804678246644,304.050748928798,0.0
0.067,2.090934023156465,-0.27428230614470955,-0.7797640115235067,0.0,10.928338242260153,8.937085318186638,311.07448434896384,304.050748928798,0.0
0.068,1.981174336349471,-0.3521682506211709,-1.183220148973862,0.0,10.76520863435968,8.81683419755522,312.5467871348289,304.050748928798,0.0
0.069,1.8992688380420306,-0.43277533454899886,-2.004331923966698,0.0,10.614454794973415,8.613919502267942,312.465590560228,304.050748928798,0.0
0.07,1.793511516281094,-0.4883702702957848,-2.0478820529805577,0.0,10.463794242089913,8.430455746539794,311.48991034687856,304.050748928798,0.0
0.07100000000000001,1.684439714912893,-0.5327610103851916,-1.634433560486639,0.0,10.314180400974312,8.307127471493473,310.79396352494877,304.050748928798,0.0
0.07200000000000001,1.5968034270610354,-0.5779664249769442,-1.3538922954832495,0.0,10.171723804669845,8.216444967715683,310.0839711511297,304.050748928798,0.0
0.073,1.5300032265740469,-0.6206199426615571,-1.059228330797021,0.0,10.038684450417428,8.156664337325722,309.1519385208657,304.050748928798,0.0
0.074,1.4822374011047172,-0.6604641386156899,-0.6442239115857176,0.0,9.91692729492937,8.136847919812658,308.3788335505702,304.050748928798,0.0
0.075,1.4561838874372646,-0.6994082393744051,-0.3009522726556937,0.0,9.809249622362723,8.142835492841005,307.65946356319995,304.050748928798,0.0
0.076,1.4488333604637516,-0.7326597836017009,0.022645574685422165,0.0,9.716206703212993,8.17016761095849,305.72506909710876,304.050748928798,0.0
0.077,1.4576213306482493,-0.7576494679208842,0.9730996060479105,0.0,9.637617637622826,8.28573600833569,304.89042745622606,304.050748928798,0.0
0.078,1.5009402291279872,-0.7977340857032318,1.3820236412149765,0.0,9.582603729442257,8.412688563839973,307.5910632304171,304.050748928798,0.0
0.079,1.5651320240615667,-0.8291517229843182,-0.0036973888967284374,0.0,9.548841561553273,8.358298010853922,303.0716852268598,304.050748928798,0.0
0.08,1.576181758088501,-0.8002842174339471,2.2657822499012927,0.0,9.509526953171227,8.568896714152844,299.56685205713217,304.050748928798,0.0
0.081,1.6552330312298666,-0.8237941638301229,4.063037803481774,0.0,9.49807844511636,8.920922258084266,304.3238137957486,304.050748928798,0.0
0.082,1.8174444571137374,-0.87891700416114,1.6818262855040482,0.0,9.528805755232579,8.93964183018789,304.81569817621124,304.050748928798,0.0
0.083,1.897896900317768,-0.8454398386666244,1.4282346027985975,0.0,9.554098574939827,8.948251551681349,296.41339274076324,304.050748928798,0.0
0.084,1.9390828348211224,-0.7889661006702683,5.705760882402945,0.0,9.571845745301044,9.42786746221639,294.90435066437345,304.050748928798,0.0
0.085,2.1341768815057143,-0.8372551798620919,6.551745903242085,0.0,9.641656325770704,9.890531102440036,299.45179255388405,304.050748928798,0.0
0.08600000000000001,2.388172544425605,-0.8946208993006346,4.324014522235927,0.0,9.756579550562089,10.034410552114876,300.81050449311965,304.050748928798,0.0
0.08700000000000001,2.549197141801092,-0.8715615507150903,3.6770609969749084,0.0,9.871288212303021,10.111334056250614,299.9164364723964,304.050748928798,0.0
0.088,2.6530943598999617,-0.8047224943570083,4.165438131900544,0.0,9.9750966555699,10.242408648224178,295.7554871267935,304.050748928798,0.0
0.089,2.7617419238309457,-0.7341310786771584,6.328865422722032,0.0,10.074535048546243,10.592937596116766,290.0598153006803,304.050748928798,0.0
0.09,2.958999618993923,-0.7083204894216268,9.316610672059808,0.0,10.196949246352904,11.204763322208052,287.7638552864943,304.050748928798,0.0
0.091,3.2882911626068263,-0.7496953830124948,10.0,0.0,10.373113941175577,11.778693776205127,288.1572651329386,304.050748928798,0.0
0.092,3.656220696149941,-0.7909984121245663,10.0,0.0,10.593184796182111,12.268834427751747,289.2189262297823,304.050748928798,0.0
0.093,4.008546393468308,-0.8031605665418551,10.0,0.0,10.841187437537434,12.696891568274772,300.8280615337409,304.050748928798,0.0
0.094,4.312272536307736,-0.8218842233753763,4.407082727584176,0.0,11.10913350951704,12.461835740176125,311.9081217067543,304.050748928798,0.0
0.095,4.275202134095755,-0.8223621243515502,-1.2115210867020907,0.0,11.326644724027867,11.72207786090969,321.6111067707055,304.050748928798,0.0
0.096,3.9203668643544844,-0.7246106338351506,-6.23861719709676,0.0,11.4376715861944,10.619913532669848,322.534633357117,304.050748928798,0.0
0.097,3.3211529968098903,-0.5324736722048985,-6.885219334585713,0.0,11.40722177844613,9.680578222183302,317.9993520805796,304.050748928798,0.0
0.098,2.7171226038589897,-0.3469533557747734,-4.757064727834843,0.0,11.267397555233023,9.133145694637218,312.40480406698964,304.050748928798,0.0
0.099,2.2794063266337976,-0.2539491666550795,-2.0433312724217663,0.0,11.078437243947755,8.945811618117624,309.77198577231144,304.050748928798,0.0
0.1,2.050446541867914,-0.273040700514028,-0.7841344935177994,0.0,10.892669666754733,8.890497642798763,310.65253812724313,304.050748928798,0.0
0.101,1.9514364641613127,-0.35497191665000105,-1.2904285629680983,0.0,10.728768968185495,8.76245550256398,311.92860596431217,304.050748928798,0.0
0.10200000000000001,1.8709846819659508,-0.4343967102084966,-2.0072410518577577,0.0,10.576371540579778,8.56490066867682,311.69862442427956,304.050748928798,0.0
0.10300000000000001,1.768105424667862,-0.48993310240263627,-1.968729036796268,0.0,10.424773127551688,8.3937782224443,310.7787770694958,304.050748928798,0.0
0.10400000000000001,1.6651240438242696,-0.535931128234942,-1.5760856408113615,0.0,10.275726730122766,8.277712992259758,310.1179983079433,304.050748928798,0.0
0.105,1.5828203112892574,-0.5818907328892113,-1.3063687538265756,0.0,10.13457402567193,8.192115665729673,309.3841935471798,304.050748928798,0.0
0.106,1.5199930357422757,-0.6247094778488786,-0.9928008196286342,0.0,10.003227324912187,8.138846068284256,308.4722997395687,304.050748928798,0.0
0.107,1.4761686848482565,-0.6648021627676173,-0.5810694239308016,0.0,9.883670342375344,8.124115940535061,307.7462889834326,304.050748928798,0.0
0.108,1.453413573487485,-0.7037773631196127,-0.2550194464090807,0.0,9.778482390506797,8.132716129618258,307.03676428308444,304.050748928798,0.0
0.109,1.4483778571044443,-0.7361141560536278,0.06988275022212509,0.0,9.687840547952645,8.162742624149022,304.983175695737,304.050748928798,0.0
0.11,1.4590539997786467,-0.7601333125302648,1.0873527762264663,0.0,9.611584278390078,8.28815023300747,304.3135241413076,304.050748928798,0.0
0.111,1.5062725311504188,-0.8016647700936393,1.4195508013160596,0.0,9.559822665436814,8.414671259499467,307.3458325032574,304.050748928798,0.0
0.112,1.5721957288070267,-0.8315229663815623,-0.12955421540342837,0.0,9.528758403444114,8.342861123528397,302.13409580892824,304.050748928798,0.0
0.113,1.577513823881093,-0.7973679449883185,2.4954806629598427,0.0,9.489563919737444,8.579444703260734,298.2708258114353,304.050748928798,0.0
0.114,1.6634417139560544,-0.8253972400271994,4.48491489287993,0.0,9.481372015042878,8.971639006199247,304.4740467318267,304.050748928798,0.0
0.115,1.842785501258434,-0.8900384367837728,1.3790714546539413,0.0,9.520048969804456,8.943389030167875,304.2385469956558,304.050748928798,0.0
0.116,1.9128599845895506,-0.8466758602901443,1.4949433420708318,0.0,9.54661693610488,8.959721333920522,295.90839927904767,304.050748928798,0.0
0.117,1.9524828299100576,-0.7884305637457303,5.74144069687239,0.0,9.566187979295572,9.43937542593,294.38253991556803,304.050748928798,0.0
0.11800000000000001,2.14732216594183,-0.835232688061498,6.601052468744509,0.0,9.637498014008322,9.904077435905227,298.8099828371254,304.050748928798,0.0
0.11900000000000001,2.4021023465685096,-0.8922072944064201,4.4397386688825495,0.0,9.753946431702106,10.057022186142058,300.1958365595688,304.050748928798,0.0
0.12,2.5668514030037337,-0.8707552100095229,3.785360931353134,0.0,9.871115007303084,10.140374295593354,299.321593626271,304.050748928798,0.0
0.121,2.6742716370152984,-0.8059378884687988,4.269773951027307,0.0,9.977986551763582,10.276768526022156,295.9080970451256,304.050748928798,0.0
0.122,2.7862971079135885,-0.7364728576678168,6.057948760436736,0.0,10.080817384648212,10.590816987233723,292.7987322831004,304.050748928798,0.0
0.123,2.973357982133841,-0.6995824745896111,7.725151307906324,0.0,10.201406688534938,11.02979777628491,286.93956758697146,304.050748928798,0.0
0.124,3.2347662128416914,-0.7029615228177319,10.0,0.0,10.354575740073992,11.643616450839607,286.4323215590052,304.050748928798,0.0
0.125,3.5941367082304243,-0.7446419233998753,10.0,0.0,10.558360807496364,12.151705003986114,287.64087739194224,304.050748928798,0.0
0.126,3.9524640894632093,-0.7650496650356446,10.0,0.0,10.794404271065261,12.59354090157849,297.8686354801295,304.050748928798,0.0
0.127,4.259218149449955,-0.8036624041441973,5.70663254142919,0.0,11.055070301922086,12.512367462539512,310.8676274575642,304.050748928798,0.0
0.128,4.283760700235293,-0.8410800669660614,-0.8610322325758144,0.0,11.285282201308654,11.786236379948758,321.2099205467218,304.050748928798,0.0
0.129,3.956827169862968,-0.7553819363086673,-6.203770493333842,0.0,11.410058831496958,10.66992314846121,322.78373713737415,304.050748928798,0.0
0.13,3.3595063166542714,-0.5633617366822277,-7.178008670745789,0.0,11.390461234865342,9.686416044782746,318.4214287804903,304.050748928798,0.0
0.131,2.7367641189356284,-0.3672155175695173,-5.140561290820797,0.0,11.254816805422902,9.095689918591797,312.2814881455095,304.050748928798,0.0
0.132,2.274039915985117,-0.2605138957350708,-2.152898365497511,0.0,11.06388849009496,8.903412650409384,309.33874692422734,304.050748928798,0.0
0.133,2.0334052991240807,-0.27353969498376507,-0.7344077348107161,0.0,10.875325133617263,8.85927018345994,310.259442830617,304.050748928798,0.0
0.134,1.9344714538877998,-0.35545537966459007,-1.2568426270237327,0.0,10.710084333414798,8.737509259914752,311.6219674356346,304.050748928798,0.0
0.135,1.8567746324493721,-0.435650270204778,-2.013817114600897,0.0,10.557193801990673,8.54091481589834,311.3609435135792,304.050748928798,0.0
0.136,1.7555593128403801,-0.491011624421803,-1.9564070994210017,0.0,10.405220679365787,8.372932326629325,310.39923365148593,304.050748928798,0.0
0.137,1.6545484356722127,-0.5370960667467541,-1.5390370156012594,0.0,10.256162295190068,8.261986426385501,309.76087606034616,304.050748928798,0.0
0.138,1.5749654419264396,-0.5837626447605162,-1.2769594913468583,0.0,10.115587638565799,8.179628125118631,309.0624420919272,304.050748928798,0.0
0.139,1.5146007880474954,-0.6266421993934368,-0.9778594387686736,0.0,9.985084702706754,8.1275727008463,308.0929774595796,304.050748928798,0.0
0.14,1.472174078653062,-0.6664108992032793,-0.5335494079026708,0.0,9.866372279439135,8.11761891977938,307.41606422803005,304.050748928798,0.0
