timestamp,iq,id,iq_ref,id_ref,vq,vd,omega,omega_ref,r
0.0,0.0,0.0,0.0,0.0,0.0,0.0,0.0,272.8200408502804,0.0
0.001,0.0,0.0,10.0,0.0,0.0,1.0999999999999999,14.290815608416708,272.8200408502804,0.0
0.002,0.7150868851144138,-0.38371724802875756,10.0,0.0,0.15220889728316328,1.911340442637415,26.667295847779112,272.8200408502804,0.0
0.003,1.2835642521690567,-0.683010235478264,10.0,0.0,0.3994160052409098,2.601386089214536,39.861367940512594,272.8200408502804,0.0
0.004,1.7184018052175019,-0.9055056188604403,10.0,0.0,0.7123885293581382,3.205000524764939,53.38874321763922,272.8200408502804,0.0
0.005,2.055063220422237,-1.0696598695262245,10.0,0.0,1.0702572583580987,3.7468663890299876,67.10310371142589,272.8200408502804,0.0
0.006,2.3204665201118244,-1.1933568766355496,10.0,0.0,1.4584908291599354,4.2445047909547196,80.9091812381067,272.8200408502804,0.0
0.007,2.5349993490040914,-1.2878179910329397,10.0,0.0,1.8668186355866823,4.71025813158591,94.7276149748781,272.8200408502804,0.0
0.008,2.7129594473459475,-1.3611514178772106,10.0,0.0,2.2880110612427687,5.1528386362679734,108.4934409867673,272.8200408502804,0.0
0.009000000000000001,2.8645058429063193,-1.4189034071590054,10.0,0.0,2.7169616793540077,5.578389830519219,122.14661044199573,272.8200408502804,0.0
0.01,2.996909384686738,-1.4647863485778174,10.0,0.0,3.1500419587424977,5.991232041516219,135.6279656062936,272.8200408502804,0.0
0.011,3.1154523649256447,-1.5011860978400566,10.0,0.0,3.584643574296499,6.394382366943893,148.87608379005675,272.8200408502804,0.0
0.012,3.2240605703602268,-1.5295342296580812,10.0,0.0,4.018854357845226,6.789916348588784,161.81969289558384,272.8200408502804,0.0
0.013000000000000001,3.3260227558716773,-1.5501177563372066,10.0,0.0,4.451178167820093,7.179188252072146,174.394279102459,272.8200408502804,0.0
0.014,3.4235827673189387,-1.5634944479885706,10.0,0.0,4.880462387960669,7.563053366800574,186.52732315942197,272.8200408502804,0.0
0.015,3.51865999431453,-1.5698019383041504,10.0,0.0,5.305764754578231,7.941977497215174,198.1387505713452,272.8200408502804,0.0
0.016,3.6131046989081184,-1.568691100905226,10.0,0.0,5.726244030558458,8.316101306014732,209.1458559121031,272.8200408502804,0.0
0.017,3.708597181827803,-1.5597478084543805,10.0,0.0,6.1411151060250155,8.685300935457123,219.47094742224246,272.8200408502804,0.0
0.018000000000000002,3.806739137494095,-1.5425098931035515,10.0,0.0,6.549612299125073,9.049227019207843,229.03963787950013,272.8200408502804,0.0
0.019,3.909010445638491,-1.5166342912358743,10.0,0.0,6.950978444238261,9.407341789554277,237.78697543594967,272.8200408502804,0.0
0.02,4.016789591276259,-1.4819065522348769,10.0,0.0,7.344458156603341,9.758948704438666,245.6634110967274,272.8200408502804,0.0
0.021,4.131339772421032,-1.438262100668772,10.0,0.0,7.729296976938088,10.103220170601583,252.62902983882537,272.8200408502804,0.0
0.022,4.2537241877151795,-1.3858925320812103,10.0,0.0,8.104754853826682,10.439231588310776,258.6592948007055,272.8200408502804,0.0
0.023,4.384799125459443,-1.325204990523666,10.0,0.0,8.470116150911883,10.765993252938978,263.7496249026728,272.8200408502804,0.0
0.024,4.525199594659802,-1.2567813513188846,7.896113731221941,0.0,8.824697759854432,10.851054089012697,265.2930986307479,272.8200408502804,0.0
0.025,4.527541298716926,-1.1065415806513794,7.199646289379702,0.0,9.136485153128723,10.908640863704157,265.52092275490565,272.8200408502804,0.0
0.026000000000000002,4.518157262861134,-0.9475814504929791,7.158725408254583,0.0,9.406869267933978,10.995166738733264,265.142819494671,272.8200408502804,0.0
0.027,4.549416678715212,-0.8081504073311241,7.424549251927996,0.0,9.645119745315402,11.126195893252806,264.4859670130175,272.8200408502804,0.0
0.028,4.6349012442749284,-0.6947058023499646,7.836316231127382,0.0,9.861563494294327,11.301492601280708,263.7241409078535,272.8200408502804,0.0
0.029,4.772755029956397,-0.6049640764142288,8.308188283133655,0.0,10.06515539537503,11.514383198563042,268.3879652711365,272.8200408502804,0.0
0.03,4.939643462884537,-0.5603282823163043,6.0205968572835795,0.0,10.26566464598448,11.45301095909636,276.1303532240662,272.8200408502804,0.0
0.031,4.855615876624,-0.5613844043893934,2.116299757080884,0.0,10.440548278955342,11.022142020691444,281.61780806573506,272.8200408502804,0.0
0.032,4.501528904536754,-0.4542534947076957,-0.7154053359080947,0.0,10.543061693502905,10.417513041264328,282.6406815688486,272.8200408502804,0.0
0.033,4.011398798569555,-0.30503165019231293,-1.3250484946505492,0.0,10.559517774853122,9.895228046638426,282.6850549768876,272.8200408502804,0.0
0.034,3.5786478139667786,-0.20114819377284143,-1.4458853399361251,0.0,10.512164786844743,9.46232284546278,282.4601316993304,272.8200408502804,0.0
0.035,3.2288478774681924,-0.14553525145351842,-1.4298246096480272,0.0,10.421177988428704,9.105098397557219,282.06190431899233,272.8200408502804,0.0
0.036000000000000004,2.950656567651449,-0.12682877950677796,-1.323129554166104,0.0,10.302065842572766,8.813176608115597,281.5566784149721,272.8200408502804,0.0
0.037,2.7311290477948935,-0.1352400692297011,-1.1578829778029105,0.0,10.166785038947248,8.577012069963729,281.0729130448481,272.8200408502804,0.0
0.038,2.5590260674900627,-0.16238280792619308,-0.9985290146865924,0.0,10.024317450228478,8.383548428078628,280.5527714067044,272.8200408502804,0.0
0.039,2.4217822862187264,-0.20034589738543263,-0.8157855011789619,0.0,9.880654768646632,8.227068424501633,280.0218020728245,272.8200408502804,0.0
0.04,2.3125399689267234,-0.2444736457130703,-0.6223184464644769,0.0,9.740184776286714,8.101968311097078,279.4702949987426,272.8200408502804,0.0
0.041,2.225725923666391,-0.29126044799713546,-0.41306745090812846,0.0,9.605957042590306,8.004871270566758,278.8949504998295,272.8200408502804,0.0
0.042,2.1580186325359056,-0.33819243024092904,-0.1861442979470853,0.0,9.480137028234484,7.933509859161728,278.31692049603754,272.8200408502804,0.0
0.043000000000000003,2.107401282984541,-0.3835476905876656,0.047901907491333606,0.0,9.364282632989442,7.885069274069581,277.716672745726,272.8200408502804,0.0
0.044,2.0716907750918923,-0.4260601387783136,0.29905946369265424,0.0,9.25939243545719,7.858596159462582,277.11085635122976,272.8200408502804,0.0
0.045,2.050085123016921,-0.4653058293753325,0.559059505931276,0.0,9.166235847701234,7.852389282296614,276.44612891787364,272.8200408502804,0.0
0.046,2.0418155852372855,-0.5003397850971232,0.8551623419334033,0.0,9.085235509227699,7.868152338244502,275.80417374450576,272.8200408502804,0.0
0.047,2.048863716853881,-0.5306134251542605,1.146298599675088,0.0,9.01689127104538,7.902445024886198,275.10414441099846,272.8200408502804,0.0
0.048,2.068850528408645,-0.5562943741887679,1.4734722308215584,0.0,8.961332893338684,7.957423687939322,274.39283900789087,272.8200408502804,0.0
0.049,2.1036343487633533,-0.5777467722795921,1.8133969507992478,0.0,8.918931174007612,8.031842277679077,273.7021737837843,272.8200408502804,0.0
0.05,2.1515873898369735,-0.5971430636312371,2.1499082335174924,0.0,8.8901305536514,8.123268834096432,272.9909187181074,272.8200408502804,0.0
0.051000000000000004,2.213293701321813,-0.6106070973414065,2.5038269876776624,0.0,8.874639731767147,8.231930459114267,272.0452421730752,272.8200408502804,0.0
0.052000000000000005,2.2877253687158645,-0.6209867323923866,2.984413246965814,0.0,8.872571274091607,8.369931720123489,271.66604057526496,272.8200408502804,0.0
0.053,2.3800048600491186,-0.6376313370229065,3.1855540486211016,0.0,8.886236898443386,8.501839207480717,271.57048897474925,272.8200408502804,0.0
0.054,2.4755133707828323,-0.6369410670021239,3.2458253676342657,0.0,8.91148433334713,8.616957804344924,270.2969523528746,272.8200408502804,0.0
0.055,2.5654504426751927,-0.6167692337950548,3.9078245635456508,0.0,8.94350688549434,8.78636849057238,268.8603649512726,272.8200408502804,0.0
0.056,2.6849435618434967,-0.6201278388028124,4.665715023336742,0.0,8.989839415932503,9.00654344962013,268.75428661193996,272.8200408502804,0.0
0.057,2.8476591738536747,-0.6274209306918819,4.759411735386452,0.0,9.054324843289345,9.195358113405042,267.9572916448992,272.8200408502804,0.0
0.058,2.9958964293869443,-0.6180535861881199,5.206536710960638,0.0,9.13013985547469,9.405307691751252,267.15010760103183,272.8200408502804,0.0
0.059000000000000004,3.1589739788342297,-0.6074420439080913,5.666828065386813,0.0,9.218294728070353,9.631548454828641,266.34302988637614,272.8200408502804,0.0
0.06,3.336598867112401,-0.5977611387997948,6.1351370323537004,0.0,9.31929940557508,9.872983739463828,265.79704764755934,272.8200408502804,0.0
0.061,3.5303545736609294,-0.5854007792524192,6.478358083789314,0.0,9.433084313293715,10.113910310536664,265.05673291279805,272.8200408502804,0.0
0.062,3.7294969423408277,-0.5669700084081698,6.92614853054478,0.0,9.557679606150389,10.36797935041352,264.36054021729973,272.8200408502804,0.0
0.063,3.9423028417741417,-0.5471830208463024,7.35883988462375,0.0,9.693230012785714,10.630801934818624,263.6544030326376,272.8200408502804,0.0
0.064,4.167235380443589,-0.5254524397927975,7.803564855131233,0.0,9.83931514315775,10.90287561440248,262.96080329912667,272.8200408502804,0.0
0.065,4.404867207618361,-0.502014824368462,8.248957097398247,0.0,9.995638296564826,11.183006160406919,262.27615482446856,272.8200408502804,0.0
0.066,4.65489672338626,-0.4766302126829197,8.696720194985417,0.0,10.161784258100466,11.470429057000814,271.01137635141356,272.8200408502804,0.0
0.067,4.869316060017171,-0.5262240396477702,4.347196076501587,0.0,10.34576708022493,11.241713144208072,278.9152747899904,272.8200408502804,0.0
0.068,4.683943956720612,-0.492796429857646,0.3342945178160637,0.0,10.484307053511108,10.678878299365413,281.0314134082749,272.8200408502804,0.0
0.069,4.235087072832187,-0.3576754426739729,-0.8058885169061214,0.0,10.5381805124921,10.148410354297818,281.74932436614307,272.8200408502804,0.0
0.07,3.7940191687614266,-0.24288897772378576,-1.2541368309988403,0.0,10.52234452979555,9.682499966040996,281.80238908615974,272.8200408502804,0.0
0.07100000000000001,3.414003421252716,-0.1685722262950501,-1.3704926733659657,0.0,10.454474128535308,9.290671412006006,281.56008678404527,272.8200408502804,0.0
0.07200000000000001,3.103782340407458,-0.1330551052238026,-1.336741981646381,0.0,10.351044196194046,8.9664389691792,281.14173740795104,272.8200408502804,0.0
0.073,2.8555362231751857,-0.12827572457182834,-1.2107842591759734,0.0,10.225363452143222,8.702009482042595,280.7104606621999,272.8200408502804,0.0
0.074,2.6594652255356626,-0.1460249984052835,-1.0740500844196088,0.0,10.087808047712025,8.484321399781088,280.22714275512374,272.8200408502804,0.0
0.075,2.5027386419401574,-0.17791017331289405,-0.9064621499299497,0.0,9.945569251999297,8.306993130568022,279.72603212267325,272.8200408502804,0.0
0.076,2.3776263347940754,-0.2185934980786186,-0.7249667464286329,0.0,9.803977822911685,8.163657511695353,279.2083687006428,272.8200408502804,0.0
0.077,2.277731459050866,-0.2637224516135581,-0.5300183139170231,0.0,9.666769326486762,8.049862998602748,278.6594460750167,272.8200408502804,0.0
0.078,2.198424392403518,-0.31055876533964066,-0.3139510533513552,0.0,9.536602933369585,7.963269830087794,278.10586491028613,272.8200408502804,0.0
0.079,2.1375075519463387,-0.35680350136688366,-0.09001871158611863,0.0,9.415412420538367,7.900699005884949,277.5339152787071,272.8200408502804,0.0
0.08,2.092412467684198,-0.40085164989653077,0.14881735991911516,0.0,9.304466725547975,7.860650148131455,276.94315614422555,272.8200408502804,0.0
0.081,2.0618737658086914,-0.4418992526544159,0.40296577422045,0.0,9.204685469099344,7.8419878778760514,276.3389737431976,272.8200408502804,0.0
0.082,2.045187159715936,-0.4794184440816469,0.669867645805263,0.0,9.11673274629945,7.843561570384091,275.6851552631221,272.8200408502804,0.0
0.083,2.0419209006587806,-0.5127684464671355,0.9681257417145819,0.0,9.041025973378483,7.866514415630873,275.0584605441311,272.8200408502804,0.0
0.084,2.0537924290115606,-0.5411587610468374,1.2590889042715845,0.0,8.977974596854201,7.907286135273676,274.33998539339734,272.8200408502804,0.0
0.085,2.078386268983947,-0.5646215344197906,1.603127034207291,0.0,8.927602531871859,7.970023500853694,273.68731309953273,272.8200408502804,0.0
0.08600000000000001,2.1178594908354786,-0.5859094584164429,1.9207904586470739,0.0,8.89064845385165,8.048856402762553,272.9716546929086,272.8200408502804,0.0
0.08700000000000001,2.1695687103038273,-0.6024050016393642,2.2771035235328565,0.0,8.866874704338908,8.146835127648544,272.22702483449893,272.8200408502804,0.0
0.088,2.2360112989404057,-0.6144259928363172,2.6553486128955046,0.0,8.856433555865472,8.26389084172035,271.08453530654265,272.8200408502804,0.0
0.089,2.314964467458979,-0.6270059138774928,3.2439484323110253,0.0,8.860005675049122,8.421139976129036,271.3687097659107,272.8200408502804,0.0
0.09,2.4214818532290376,-0.644978526378094,3.1163745134706993,0.0,8.880796683919929,8.532174898999111,270.86454956810724,272.8200408502804,0.0
0.091,2.507562492706378,-0.6301812799700316,3.38800952519416,0.0,8.908804660960769,8.656937324462428,268.6974139546885,272.8200408502804,0.0
0.092,2.6019766567233944,-0.6119454611758819,4.512803600859447,0.0,8.94463011524058,8.88351055164235,268.6719693342739,272.8200408502804,0.0
0.093,2.7581570838304192,-0.6341229775298554,4.5670066262268065,0.0,9.002152231797282,9.069487688224415,268.3096539833092,272.8200408502804,0.0
0.094,2.90252808329486,-0.6282854261201563,4.793268170378871,0.0,9.071655944537916,9.252647056736981,267.4131543883185,272.8200408502804,0.0
0.095,3.045437928440485,-0.612882582611388,5.295586832493841,0.0,9.150889285583876,9.463156924092104,266.54300986321147,272.8200408502804,0.0
0.096,3.2093162152139487,-0.6001577692381175,5.793429404918049,0.0,9.242004578224774,9.693681122068195,265.75299064219735,272.8200408502804,0.0
0.097,3.391197124838225,-0.5902860799130949,6.25910951750594,0.0,9.346102123707178,9.938142698980261,265.2176486899892,272.8200408502804,0.0
0.098,3.5892198333855543,-0.577071890436198,6.602804415212938,0.0,9.462881228383337,10.18175382152729,264.4552058310794,272.8200408502804,0.0
0.099,3.792184528153319,-0.5581955647293269,7.06767419485983,0.0,9.590399280913596,10.440034579732336,263.7746361206609,272.8200408502804,0.0
0.1,4.009846599845831,-0.5385443401118948,7.498413097365287,0.0,9.729020732560485,10.706058467910538,263.0783893846273,272.8200408502804,0.0
0.101,4.239139606208814,-0.516686201997075,7.943952980038604,0.0,9.87817454491405,10.980998500521615,262.3973209828864,272.8200408502804,0.0
0.10200000000000001,4.480921593120445,-0.492984540051133,8.388714379582995,0.0,10.037518377860458,11.26352517773344,262.3219652731634,272.8200408502804,0.0
0.10300000000000001,4.735165346226182,-0.4666198443487011,8.531372990215665,0.0,10.206517395325605,11.51942941072036,273.95122720805995,272.8200408502804,0.0
0.10400000000000001,4.894908440416025,-0.5591794871248412,2.7054301591896026,0.0,10.394652142005326,11.109333521806082,280.24874935675206,272.8200408502804,0.0
0.105,4.581604084317835,-0.4713042278258255,-0.517618000221169,0.0,10.512371950174995,10.498845737338979,281.46413085951224,272.8200408502804,0.0
0.106,4.089809917430905,-0.3185546535356083,-1.2117496516935775,0.0,10.54134729850205,9.968019026864283,281.65834494451843,272.8200408502804,0.0
0.107,3.6488245632630263,-0.20813077336812058,-1.3972397351390553,0.0,10.503723309873411,9.523300376895072,281.49921605095267,272.8200408502804,0.0
0.108,3.2884121944529863,-0.14589510507469616,-1.4044670403628956,0.0,10.419648170400116,9.155586597347181,281.1496321000449,272.8200408502804,0.0
0.109,3.000881335490443,-0.12216796876573821,-1.3129709774066693,0.0,10.305221538608304,8.854397792581949,280.6833168983406,272.8200408502804,0.0
0.11,2.7735583162430566,-0.12703428317827814,-1.1584461370351047,0.0,10.172891255467624,8.610098200452956,280.2350654917036,272.8200408502804,0.0
0.111,2.5950132599482316,-0.15187287320804366,-1.008470680130844,0.0,10.032047623187259,8.409314317078508,279.74863338354004,272.8200408502804,0.0
0.112,2.4523096577180215,-0.1884823452593411,-0.8345405513816555,0.0,9.888988621822833,8.246068964089208,279.2507062121712,272.8200408502804,0.0
0.113,2.3382600054463447,-0.23197471682440285,-0.6498836193161561,0.0,9.748329051447557,8.114533633229694,278.73755878763893,272.8200408502804,0.0
0.114,2.2470749417653404,-0.27855435672554907,-0.4524850864235952,0.0,9.613270741697338,8.010843008198322,278.1868256330681,272.8200408502804,0.0
0.115,2.174892641146813,-0.32569261115120296,-0.23078635696606176,0.0,9.486068612006811,7.933456692037696,277.64198414839217,272.8200408502804,0.0
0.116,2.1201922591396367,-0.3716396658697346,-0.0065850476092084165,0.0,9.36843085714406,7.878829170273363,277.07175063258984,272.8200408502804,0.0
0.117,2.0803086665760886,-0.4148573929891263,0.2360146124688618,0.0,9.261388605027095,7.846184766076124,276.48435612090816,272.8200408502804,0.0
0.11800000000000001,2.0545418913878275,-0.4548094186622552,0.4930687156034246,0.0,9.165748683254956,7.834386041176011,275.87498792191815,272.8200408502804,0.0
0.11900000000000001,2.042279462085324,-0.4910664681508918,0.767203344382053,0.0,9.082081636357033,7.842878664194387,275.2384942205768,272.8200408502804,0.0
0.12,2.043818819022461,-0.5226954528209435,1.0612656613497644,0.0,9.010747174269566,7.871468875243687,274.59473013636585,272.8200408502804,0.0
0.121,2.0594238581511832,-0.5496627034578832,1.3654008105943811,0.0,8.952055287219135,7.918879701491754,273.84108007287665,272.8200408502804,0.0
0.122,2.08905232268018,-0.5710601117299022,1.7320154501130207,0.0,8.906057713902108,7.9898634345576705,273.23993114682514,272.8200408502804,0.0
0.123,2.1336664038123834,-0.5928887647835442,2.028391010173327,0.0,8.873945448976555,8.07347293791749,272.5482857372835,272.8200408502804,0.0
0.124,2.189420031034578,-0.6071638393492171,2.376931266074121,0.0,8.854757332551225,8.17519917881414,271.71299387289883,272.8200408502804,0.0
0.125,2.258704907189594,-0.6174233702750367,2.8056476680402658,0.0,8.84864644951428,8.301443585531024,270.811594916576,272.8200408502804,0.0
0.126,2.341947027031307,-0.6337361391883284,3.2764316055387352,0.0,8.857462904723919,8.453487747956661,271.1175848265559,272.8200408502804,0.0
0.127,2.448095606315114,-0.6437646416081487,3.140461210786016,0.0,8.881542138232208,8.56070063434011,270.21253713208347,272.8200408502804,0.0
0.128,2.5327453134742566,-0.6240277649060066,3.619060095204207,0.0,8.911663395566576,8.705355754674907,267.8577079440793,272.8200408502804,0.0
0.129,2.635658316176459,-0.6186914394962952,4.846098018268291,0.0,8.95284841217294,8.958271738176874,268.76806878286624,272.8200408502804,0.0
0.13,2.814445012437785,-0.6413822509579885,4.431437319548975,0.0,9.01775587798375,9.113494162337792,267.9193331605253,272.8200408502804,0.0
0.131,2.9415768863018363,-0.6227682309669514,4.904812207616996,0.0,9.08942038931594,9.303706296175944,266.9439015713173,272.8200408502804,0.0
0.132,3.0881528155998064,-0.606573834383752,5.451289395010613,0.0,9.171344419474483,9.522590376011982,266.0728834966818,272.8200408502804,0.0
0.133,3.2591171140977835,-0.5951914362328736,5.954270005864356,0.0,9.265874334770011,9.760301232658444,265.3823802088148,272.8200408502804,0.0
0.134,3.44805536236886,-0.5856637437836185,6.373898256212506,0.0,9.373788122012723,10.005749732274738,264.7909312142081,272.8200408502804,0.0
0.135,3.64858301365482,-0.5714346483893986,6.749913849876583,0.0,9.493985456923923,10.254441534294493,264.0694527126453,272.8200408502804,0.0
0.136,3.856419269537408,-0.5526253459844639,7.1981589820343554,0.0,9.625105506235379,10.514973986569883,263.38997192918987,272.8200408502804,0.0
0.137,4.077429719475054,-0.5323174262141583,7.632200062972963,0.0,9.767121017692542,10.783594479196234,262.70534474036066,272.8200408502804,0.0
0.138,4.310251684429179,-0.5098755655268259,8.075660618486765,0.0,9.919531501788718,11.060594412357217,262.03189296506787,272.8200408502804,0.0
