timestamp,iq,id,iq_ref,id_ref,vq,vd,omega,omega_ref,r
0.0,0.0,0.0,0.0,0.0,0.0,0.0,0.0,62.26685193584874,0.0
0.001,0.0,0.0,10.0,0.0,0.0,1.0999999999999999,8.686071280182727,62.26685193584874,0.0
0.002,0.35344716138530347,-0.18114764374005307,10.0,0.0,0.12992624081140586,1.951120812247616,16.973182172699254,62.26685193584874,0.0
0.003,0.7211301272125068,-0.39165796939508857,10.0,0.0,0.35331659815108596,2.6932115127244716,24.79504054799627,62.26685193584874,0.0
0.004,1.0482333327650628,-0.5737953308145046,10.0,0.0,0.6465069963040693,3.351127655935102,33.22785346540729,62.26685193584874,0.0
0.005,1.3208446859342675,-0.7237568486617155,10.0,0.0,0.990844362311816,3.9458550078468795,41.84803131659113,62.26685193584874,0.0
0.006,1.5436373738766642,-0.8460535254153703,10.0,0.0,1.3721737461743964,4.493762279026283,50.58737682239266,62.26685193584874,0.0
0.007,1.7266393619452518,-0.9454534396768064,7.051468396244657,0.0,1.7798719425698797,4.682770993252794,56.79649463129643,62.26685193584874,0.0
0.008,1.775305801945934,-0.974133665493938,4.0016130648382955,0.0,2.167862016445737,4.58412659675967,60.49928368094775,62.26685193584874,0.0
0.009000000000000001,1.6902591746951976,-0.9253926042816631,2.167894222561648,0.0,2.5015403242931735,4.372776921364661,62.71041326630872,62.26685193584874,0.0
0.01,1.5317895867010667,-0.8333090397167503,1.0578938165765626,0.0,2.771074052326348,4.128748376465153,64.08712741522989,62.26685193584874,0.0
0.011,1.348273867406241,-0.7262099353531438,0.3513339873221675,0.0,2.978391487231907,3.8880565149432686,64.48651069803269,62.26685193584874,0.0
0.012,1.167360159277944,-0.6220852527594248,0.12944575829892724,0.0,3.130525268453048,3.692888826865282,64.57686901552847,62.26685193584874,0.0
0.013000000000000001,1.0135380261093831,-0.5298492113267763,0.06116642875423772,0.0,3.2388241850126223,3.5422707393247825,65.03642270589836,62.26685193584874,0.0
0.014,0.8896222843726297,-0.4576756981738794,-0.19630612413120208,0.0,3.314214675129698,3.401997674931696,64.36184341660753,62.26685193584874,0.0
0.015,0.7861469291716291,-0.3976970905945668,0.12003360570662647,0.0,3.362162898093561,3.3308061934553836,64.60819966007307,62.26685193584874,0.0
0.016,0.7190708705469827,-0.353217905388365,-0.026557993268387703,0.0,3.393904226316517,3.2585838221341614,64.46072901070285,62.26685193584874,0.0
0.017,0.6635226405546473,-0.32336707518908264,0.02523856066818131,0.0,3.412410385115197,3.2093609024030387,63.86551173809067,62.26685193584874,0.0
0.018000000000000002,0.6256248942583916,-0.297856166863517,0.3068605989518529,0.0,3.421635944447077,3.2009846189894007,64.33973634594165,62.26685193584874,0.0
0.019,0.6076590247539017,-0.2836520720374569,0.049019450925434915,0.0,3.427793978156795,3.164787041367103,63.717172751936616,62.26685193584874,0.0
0.02,0.5864793071662843,-0.27306364168508235,0.345798039767071,0.0,3.4286937643428095,3.1701991913704424,63.660901000979194,62.26685193584874,0.0
0.021,0.5823583745660821,-0.26446154290979107,0.35999342459447714,0.0,3.4292044403487996,3.1739953168447945,64.00197798905751,62.26685193584874,0.0
0.022,0.5798900833429353,-0.2632869530612616,0.1721036700232328,0.0,3.4300004774060406,3.1568833732297437,63.17796582575291,62.26685193584874,0.0
0.023,0.5738030980312038,-0.2572796590490368,0.5749986127764883,0.0,3.428356659953192,3.1884044544025514,63.85348933190317,62.26685193584874,0.0
0.024,0.5830999930087515,-0.25643412009135014,0.22137048574081586,0.0,3.429996396017686,3.172597474010691,63.31555324581244,62.26685193584874,0.0
0.025,0.5785718961921601,-0.25574429173825725,0.4798515156865446,0.0,3.4298240347072815,3.1910954194284513,63.25394963759183,62.26685193584874,0.0
0.026000000000000002,0.5853246296619042,-0.25250366581367456,0.5007823427794178,0.0,3.4311691335015206,3.206655833204318,63.69397258112752,62.26685193584874,0.0
0.027,0.5906597076620064,-0.2549060502530803,0.26649966455878604,0.0,3.4342324323415014,3.194294981361508,62.83190275361811,62.26685193584874,0.0
0.028,0.5886768855869364,-0.25072999979855126,0.6918840701357967,0.0,3.4352699267188127,3.232883117190914,63.64126946149931,62.26685193584874,0.0
0.029,0.6015393495931401,-0.25114087290196263,0.27345654093868943,0.0,3.4401494417872516,3.216000617346226,62.9969954961448,62.26685193584874,0.0
0.03,0.5977559467458061,-0.2500152568670464,0.5882920880129862,0.0,3.4427248288695056,3.2406553034162635,63.14714140523484,62.26685193584874,0.0
0.031,0.6066625638792383,-0.24690351969987906,0.5044162387741038,0.0,3.4471771109224973,3.2497097987873502,63.32916994447439,62.26685193584874,0.0
0.032,0.6099909049798459,-0.24849121827352227,0.4027787890680742,0.0,3.452295378522071,3.247685660501621,62.63625646686193,62.26685193584874,0.0
0.033,0.6115171008855802,-0.24359244034350774,0.7455414825641709,0.0,3.456144662975077,3.2849614354474292,63.612832873143915,62.26685193584874,0.0
0.034,0.6240357673187165,-0.24466012109370922,0.24379347005022645,0.0,3.463503029139185,3.2589128616838736,62.54637161948896,62.26685193584874,0.0
0.035,0.6177300047138066,-0.24075229560623335,0.7742289000413027,0.0,3.467080163699402,3.3003891798881138,63.193296452024256,62.26685193584874,0.0
0.036000000000000004,0.6311724691500764,-0.2391077806166619,0.44150203861189863,0.0,3.4743053982300434,3.294629541956768,62.815670355678826,62.26685193584874,0.0
0.037,0.631060293799013,-0.23865534049350923,0.6248269025863131,0.0,3.4801988222508355,3.3138081588560806,62.840965661758865,62.26685193584874,0.0
0.038,0.6393509994042461,-0.23438185796810904,0.6064381122871921,0.0,3.4869552068829166,3.3268891415248065,63.085735294323364,62.26685193584874,0.0
0.039,0.6438757989080547,-0.23550256635838973,0.47586446242019687,0.0,3.494510064066847,3.3247436299181246,62.34016775106613,62.26685193584874,0.0
0.04,0.6459439430126495,-0.22971054888908155,0.8479150758966382,0.0,3.50044655536619,3.3656172113151133,63.39444467920665,62.26685193584874,0.0
0.041,0.6595477575839144,-0.23111450880741805,0.30950068439280043,0.0,3.510089111441008,3.3385752563403606,62.12089283265177,62.26685193584874,0.0
0.042,0.6540052523879841,-0.22565875723895515,0.9477361987022105,0.0,3.515449044139154,3.3915375166769,63.14335257555053,62.26685193584874,0.0
0.043000000000000003,0.6710613271079775,-0.22564067761883475,0.4277413208558122,0.0,3.5256217783586115,3.3742261592722453,62.31158846866316,62.26685193584874,0.0
0.044,0.6689264952043584,-0.22272083497561523,0.8431760089713529,0.0,3.532725101521104,3.4109663677577733,62.910850809655884,62.26685193584874,0.0
0.045,0.6821081316579567,-0.2204034181121115,0.5371048497369197,0.0,3.542566395787346,3.4054493849851215,62.34293020004504,62.26685193584874,0.0
0.046,0.682576409100624,-0.2184355398587324,0.820304371900379,0.0,3.5506785699104633,3.435761194792528,62.77147559774221,62.26685193584874,0.0
0.047,0.6945753753696235,-0.21533773726936037,0.6009854364328588,0.0,3.560689628099712,3.435580759393279,62.32117193411834,62.26685193584874,0.0
0.048,0.696457049762985,-0.21382275510145515,0.825594068262098,0.0,3.5695458669175357,3.4632326176881945,62.66722362071446,62.26685193584874,0.0
0.049,0.7081415157678884,-0.21031786904794078,0.648564508115381,0.0,3.5799112800388597,3.466019101584359,62.274507077496004,62.26685193584874,0.0
0.05,0.7109429094517652,-0.2090322670007702,0.844846228308136,0.0,3.589412432873014,3.4927334545805344,62.58921308186991,62.26685193584874,0.0
0.051000000000000004,0.7226954688765916,-0.2053400546102365,0.6842696146609729,0.0,3.600241618380885,3.496835475257502,62.199784792213855,62.26685193584874,0.0
0.052000000000000005,0.72604022532384,-0.20404421652873972,0.879654430925348,0.0,3.6102924673406065,3.524457910728162,62.54762559585708,62.26685193584874,0.0
0.053,0.7382759035979969,-0.20047752847938885,0.7029262925036532,0.0,3.6217210976468075,3.527616767113013,62.080895620249926,62.26685193584874,0.0
0.054,0.7416623636637808,-0.19876484224532517,0.9381508434632171,0.0,3.6321700219556194,3.5589944290552737,62.56036809187711,62.26685193584874,0.0
0.055,0.7549985661053001,-0.19587674964256835,0.695479446089342,0.0,3.6444112567038136,3.5578000003455585,61.905617346676024,62.26685193584874,0.0
0.056,0.757732395791485,-0.19304494683468737,1.0264671645816115,0.0,3.6550263077233778,3.596617141748458,62.626296134909424,62.26685193584874,0.0
0.057,0.7728622780511539,-0.1916491593513318,0.6625333284743047,0.0,3.668336349186185,3.5876345262045946,61.68196175087167,62.26685193584874,0.0
0.058,0.7743702559344252,-0.18689924807347683,1.1405494223429515,0.0,3.6789085925825957,3.6370877063034595,62.675533591745385,62.26685193584874,0.0
0.059000000000000004,0.7918021095322332,-0.18781088144053612,0.6396766853471286,0.0,3.693516708432405,3.620874206606927,61.432075045430686,62.26685193584874,0.0
0.06,0.7926920202886112,-0.18102886266330798,1.2697537274086586,0.0,3.7042875243284152,3.6821364988145318,62.671989462578864,62.26685193584874,0.0
0.061,0.8128642507084145,-0.18456256780931307,0.6457451435672684,0.0,3.720564015609419,3.6611978825091924,61.42016709145478,62.26685193584874,0.0
0.062,0.8140992113102322,-0.1760982408640791,1.2801231775732504,0.0,3.7321525831163527,3.7200683231795595,62.605612515471535,62.26685193584874,0.0
0.063,0.8327191529070028,-0.18006434833248292,0.6840128597686448,0.0,3.7489902530306045,3.700258817265387,61.47973786453009,62.26685193584874,0.0
0.064,0.8347189157564133,-0.1703355799232636,1.2548213259525554,0.0,3.7610533797623176,3.752830288894869,62.45898022612795,62.26685193584874,0.0
0.065,0.8508737016360148,-0.17411813568532908,0.7632788622508322,0.0,3.777680709801725,3.7398161415472817,61.59626478337198,62.26685193584874,0.0
0.066,0.8550222474353375,-0.16428213201925934,1.201342455153585,0.0,3.7902241061415474,3.782573769615586,62.2587232658766,62.26685193584874,0.0
0.067,0.8683166261159645,-0.16737429118155778,0.8701945006009972,0.0,3.806227423198729,3.7800821673843528,61.729160800378345,62.26685193584874,0.0
0.068,0.8754416802023397,-0.15838188134783093,1.140352644704827,0.0,3.8193611616537377,3.8118181203162145,61.96336547871382,62.26685193584874,0.0
0.069,0.8863212092165587,-0.16000700799047846,1.0262851701084397,0.0,3.834623809585459,3.825319350503047,61.931857699180675,62.26685193584874,0.0
0.07,0.8979464722321889,-0.1531443310428618,1.0453890022416918,0.0,3.848939170012029,3.8410688351034152,61.517825411188184,62.26685193584874,0.0
0.07100000000000001,0.9055443763791575,-0.1524483688181993,1.2598954114845429,0.0,3.863390013780741,3.8793600571557754,62.19951953486981,62.26685193584874,0.0
0.07200000000000001,0.9230135789745407,-0.15080113385110533,0.9197216736535205,0.0,3.8800506591536834,3.8738574328819046,61.14177150265403,62.26685193584874,0.0
0.073,0.928316537818872,-0.1439009766688662,1.4598464940933562,0.0,3.893752432621569,3.932977969752485,62.10313484122119,62.26685193584874,0.0
0.074,0.9486774248311072,-0.1488541713647265,0.9808019957560514,0.0,3.9126099354180925,3.9272738192783923,61.61301092064559,62.26685193584874,0.0
0.075,0.9573356077469329,-0.139698984344997,1.232402366195882,0.0,3.927954670368425,3.955743528612498,61.55315224811919,62.26685193584874,0.0
0.076,0.9678736993086102,-0.1405950621552179,1.2694686993363788,0.0,3.9448020231864565,3.9833894252066555,62.025569555614474,62.26685193584874,0.0
0.077,0.9835750048030265,-0.1365509099844051,1.0356728693910795,0.0,3.9622754128652087,3.982245500109044,61.17040453230663,62.26685193584874,0.0
0.078,0.9894587020720252,-0.13010358961656032,1.4742198550804244,0.0,3.97721830734757,4.033051239569705,61.814166629106865,62.26685193584874,0.0
0.079,1.0079189390728116,-0.13322770173122056,1.1568656597477243,0.0,3.9961556118640518,4.039004474091647,61.646757813851416,62.26685193584874,0.0
0.08,1.0196529850124927,-0.12584867299139602,1.246771008595422,0.0,4.012951575098551,4.058213103256261,61.18497767268188,62.26685193584874,0.0
0.081,1.0292752787024861,-0.12448057591474404,1.4884798218118576,0.0,4.029912104535031,4.101928269946691,61.945585451560554,62.26685193584874,0.0
0.082,1.048921711550847,-0.12437311624538988,1.1113885972154036,0.0,4.049549958104043,4.097005965397533,61.26153064769846,62.26685193584874,0.0
0.083,1.0571903971289802,-0.11484998272554053,1.4634692120279547,0.0,4.065685325770747,4.136326365450425,61.22531547970258,62.26685193584874,0.0
0.084,1.0713883205593266,-0.11778368687461355,1.4919921605873547,0.0,4.084557135467667,4.17146589573655,62.40485736026322,62.26685193584874,0.0
0.085,1.088537054732533,-0.11993692182596111,0.9008411660628891,0.0,4.105263236026664,4.13792243355572,62.10851492033087,62.26685193584874,0.0
0.08600000000000001,1.0811121338374976,-0.11594773163733157,1.0505957561842443,0.0,4.120084037041417,4.1331766711476545,62.55208332476838,62.26685193584874,0.0
0.08700000000000001,1.0722321248733553,-0.1199242279676851,0.8259592400762911,0.0,4.1334254882121115,4.105082554185884,63.3225525008346,62.26685193584874,0.0
0.088,1.0601815478635226,-0.11514161940954482,0.4301676463933253,0.0,4.142057530664862,4.041078047274755,62.56227505936783,62.26685193584874,0.0
0.089,1.0329117989443468,-0.10752402591731308,0.807352135891519,0.0,4.142635808982661,4.032664571692658,63.31283050986173,62.26685193584874,0.0
0.09,1.0184268725936811,-0.11047387781573847,0.42161462490443635,0.0,4.142715571554218,3.9802679448063687,63.25367582251674,62.26685193584874,0.0
0.091,0.9987429676989354,-0.10264615673446276,0.4413237297102528,0.0,4.136657147342067,3.9411647137792922,62.90180922492464,62.26685193584874,0.0
0.092,0.9775669271911382,-0.1022453852563025,0.6109074556155436,0.0,4.127328434796639,3.925955607642141,63.8162131436804,62.26685193584874,0.0
0.093,0.9668210402363779,-0.10397319226600715,0.13821188415934726,0.0,4.117605749377886,3.858612477904874,62.8242639807104,62.26685193584874,0.0
0.094,0.9429733264785711,-0.09809845539063661,0.6286123451957316,0.0,4.101457520400894,3.8582181886718323,63.341779577389936,62.26685193584874,0.0
0.095,0.9344863633199199,-0.10551319214503235,0.35910527044055096,0.0,4.087759053810036,3.822393811440836,63.21412627998519,62.26685193584874,0.0
0.096,0.9237499953098871,-0.10445783700550171,0.41345917570156077,0.0,4.071657759722271,3.798552156449634,63.020694160773246,62.26685193584874,0.0
0.097,0.9123331950316929,-0.10968708848150505,0.5026368130582864,0.0,4.055368200757917,3.785899022955905,63.35902053329395,62.26685193584874,0.0
0.098,0.9079858874981145,-0.11242487916873045,0.32255194082348215,0.0,4.039691148801462,3.752545170421631,62.9779502353846,62.26685193584874,0.0
0.099,0.895549212574761,-0.11748069459121296,0.5059761067828003,0.0,4.022775178576825,3.744261066089245,63.58558721691479,62.26685193584874,0.0
0.1,0.8921407732141206,-0.12100640242554539,0.1889702632070439,0.0,4.007059664648965,3.698659452295145,62.83514632804744,62.26685193584874,0.0
0.101,0.8763762257782493,-0.12354440531581784,0.5585077637187296,0.0,3.9885994639740656,3.7015656478040495,63.81975594526556,62.26685193584874,0.0
0.10200000000000001,0.8743176250342507,-0.1302186188488899,0.05067391501550178,0.0,3.972984686377285,3.6428469059395847,62.67500166257176,62.26685193584874,0.0
0.10300000000000001,0.8564142264830188,-0.12853640406324507,0.6189695590951734,0.0,3.952807726591982,3.657978207670878,63.560959313584036,62.26685193584874,0.0
0.10400000000000001,0.8561555947957465,-0.1385549080330215,0.16304965981168218,0.0,3.937280450542872,3.6135939533886203,62.8666728596465,62.26685193584874,0.0
0.105,0.8445924297394337,-0.13822758134166163,0.5041946775424728,0.0,3.9187312856946983,3.615449909712219,63.326518961850816,62.26685193584874,0.0
0.106,0.8414791007568244,-0.1471360434450964,0.2636749561802937,0.0,3.903205837061996,3.5856235689290186,62.95492199915916,62.26685193584874,0.0
0.107,0.8337030438242126,-0.14829617810207973,0.4425927368930167,0.0,3.886288829405476,3.5801377034256507,63.26002837185505,62.26685193584874,0.0
0.108,0.8291252513529783,-0.15641586736446228,0.2801077861850092,0.0,3.8713965004365627,3.554271997924468,63.02181879782554,62.26685193584874,0.0
0.109,0.8219554615325001,-0.15764964073727838,0.3916629045799971,0.0,3.8554613519928083,3.5441424415625815,63.22632274591885,62.26685193584874,0.0
0.11,0.8158960219385365,-0.16471334934234805,0.27981622243264026,0.0,3.8408714329700726,3.520608480229481,63.04224144114946,62.26685193584874,0.0
0.111,0.8086775145851691,-0.16602381377807224,0.3641029797643295,0.0,3.825460623718177,3.509092374668306,63.233270400735954,62.26685193584874,0.0
0.112,0.8021047636794327,-0.17249475896166389,0.25892431532220905,0.0,3.811137984161193,3.4854250956022077,63.027203805853105,62.26685193584874,0.0
0.113,0.7944405686437851,-0.17358070000983877,0.35435409406358964,0.0,3.7959356247167597,3.475018676737857,63.262514131932,62.26685193584874,0.0
0.114,0.788038246250814,-0.17986352396333893,0.2267423090633094,0.0,3.781893110554738,3.449768683190923,62.982139057483145,62.26685193584874,0.0
0.115,0.7797436956336632,-0.180572374873832,0.35977697507139295,0.0,3.766744993814844,3.442397746037329,63.322312878904,62.26685193584874,0.0
0.116,0.7741193210275636,-0.18690882491175442,0.17913545493041294,0.0,3.7530645160286475,3.413583912750018,62.910049745784015,62.26685193584874,0.0
0.117,0.7646753801821369,-0.1871543238696191,0.378835043391053,0.0,3.7378343430773255,3.411039374691833,63.407513988319046,62.26685193584874,0.0
0.11800000000000001,0.7605112903316386,-0.19334879458772658,0.11869630159883438,0.0,3.724551670404729,3.376977626137683,62.842516825510316,62.26685193584874,0.0
0.11900000000000001,0.7492288757102699,-0.193482082349264,0.39543823410658374,0.0,3.7091438070905682,3.3792362098753115,63.40517397582895,62.26685193584874,0.0
0.12,0.7466948793079332,-0.19893819866226797,0.10272643854746388,0.0,3.696101428398398,3.3449283475292217,62.79992800077627,62.26685193584874,0.0
0.121,0.7350007223056869,-0.20009975468359537,0.4000186654245297,0.0,3.681005711340053,3.3496373137668165,63.338164467234876,62.26685193584874,0.0
0.122,0.7339743339155127,-0.2044300647134289,0.12018730688136514,0.0,3.6683551811543715,3.3186074011191957,62.85508415750644,62.26685193584874,0.0
0.123,0.7227511465662069,-0.20739075427307824,0.3558451395290061,0.0,3.654149085473758,3.319360388618964,63.098222756525224,62.26685193584874,0.0
0.124,0.7212711774682492,-0.20996338708147083,0.22596213181284885,0.0,3.6416922808245102,3.30202432335272,63.07725314727246,62.26685193584874,0.0
0.125,0.7136440833841928,-0.21546362186097254,0.22834292432499492,0.0,3.6293268496112234,3.2875610820599426,62.945954640898826,62.26685193584874,0.0
0.126,0.7079680968654725,-0.2165241393484079,0.2872011504613101,0.0,3.6168132919658085,3.2803063063012035,63.19579327788062,62.26685193584874,0.0
0.127,0.7027446304578959,-0.22176919421861788,0.15299241855009527,0.0,3.6053919633699136,3.257691931021849,62.82410182703055,62.26685193584874,0.0
0.128,0.6947741898099765,-0.22175431489816644,0.3332656450633096,0.0,3.5927972428317183,3.2581935164535984,63.267661239758326,62.26685193584874,0.0
0.129,0.6919097415260004,-0.22650418023114727,0.10147784566032758,0.0,3.582034786870351,3.2303214659936543,62.766803926571136,62.26685193584874,0.0
0.13,0.6818065898378792,-0.22730367273876195,0.3469069823466986,0.0,3.569601816981633,3.23455816021595,63.19124527084751,62.26685193584874,0.0
0.131,0.6806926950268415,-0.23035889059962636,0.12544237685852377,0.0,3.559163892543636,3.210333986968916,62.898264870712374,62.26685193584874,0.0
0.132,0.6710238314294785,-0.233313322696832,0.26561844757745523,0.0,3.5476417785768195,3.2061748884843486,62.90497196762097,62.26685193584874,0.0
0.133,0.6678203771353034,-0.23439087390199292,0.2558836988054335,0.0,3.5369449524698235,3.19906259671583,63.14912525765025,62.26685193584874,0.0
0.134,0.6630906982272778,-0.23909338801183166,0.1249843205727813,0.0,3.5271130808367053,3.1777784975325334,62.77234705195326,62.26685193584874,0.0
0.135,0.6550876429563008,-0.23901718703840824,0.30831847226022935,0.0,3.5160805792003966,3.1799484108629286,63.023913239929584,62.26685193584874,0.0
