timestamp,iq,id,iq_ref,id_ref,vq,vd,omega,omega_ref,r
0.0,0.0,0.0,0.0,0.0,0.0,0.0,0.0,443.9764569750695,0.0
0.001,0.0,0.0,10.0,0.0,0.0,1.0999999999999999,3.090424852539214,443.9764569750695,0.0
0.002,0.5933002589259969,-0.34630757966105036,10.0,0.0,0.14809383376271554,1.9247369715181397,7.312370892226279,443.9764569750695,0.0
0.003,1.2402386471801679,-0.7206219384292037,10.0,0.0,0.4015634849688597,2.6165794091420382,12.096817013247625,443.9764569750695,0.0
0.004,1.8046815718846172,-1.0453824603520425,10.0,0.0,0.7308509286406102,3.2089652302892135,17.1410677549008,443.9764569750695,0.0
0.005,2.2571122033020297,-1.3041288699905595,10.0,0.0,1.1116627099009118,3.730918273479976,22.292152471036164,443.9764569750695,0.0
0.006,2.6083302666234256,-1.5036249062920455,10.0,0.0,1.5259457172510378,4.204647509826514,27.52996653661932,443.9764569750695,0.0
0.007,2.8801452064171453,-1.6573140034285407,10.0,0.0,1.9610841878228038,4.646044660529314,32.77795104731419,443.9764569750695,0.0
0.008,3.094342957585809,-1.777603519547185,10.0,0.0,2.4085434822093603,5.065972339988395,38.06924490952996,443.9764569750695,0.0
0.009000000000000001,3.268342243042282,-1.874796333143534,10.0,0.0,2.8627379294375803,5.471655237051697,43.337431222636596,443.9764569750695,0.0
0.01,3.4151635100413835,-1.9561220039954421,10.0,0.0,3.3200551173070556,5.867778942616157,48.61643841862193,443.9764569750695,0.0
0.011,3.5437486787346786,-2.0268336403494582,10.0,0.0,3.778217980236452,6.257345840524847,53.84795575311523,443.9764569750695,0.0
0.012,3.6602902669780457,-2.090124506829783,10.0,0.0,4.235776125613072,6.642238611915769,59.03125864145862,443.9764569750695,0.0
0.013000000000000001,3.7687858239590546,-2.148163030067316,10.0,0.0,4.691819062482447,7.023628825319783,64.16248147371431,443.9764569750695,0.0
0.014,3.871862169995542,-2.2022181763754753,10.0,0.0,5.145762407866813,7.402230868576131,69.27431196354698,443.9764569750695,0.0
0.015,3.9711717060408174,-2.253091719960558,10.0,0.0,5.597227161369649,7.778473756540663,74.32649388458911,443.9764569750695,0.0
0.016,4.067928233543024,-2.3009649738355904,10.0,0.0,6.045927050809061,8.152588708394235,79.30118618619964,443.9764569750695,0.0
0.017,4.162950830460998,-2.3458351603814473,10.0,0.0,6.49162543447118,8.52467723362044,84.09250906841666,443.9764569750695,0.0
0.018000000000000002,4.256844893907716,-2.387541273032856,10.0,0.0,6.934101802815906,8.894748623680274,88.88759047352185,443.9764569750695,0.0
0.019,4.350064976871557,-2.4258618586965053,10.0,0.0,7.373135876628632,9.262745243077044,93.62325597726633,443.9764569750695,0.0
0.02,4.443081242261903,-2.4603766807757688,10.0,0.0,7.808479629571842,9.62854601955211,98.26804506068953,443.9764569750695,0.0
0.021,4.536298355367213,-2.4906857839739454,10.0,0.0,8.239857937999247,9.991977373886309,102.80029827388671,443.9764569750695,0.0
0.022,4.6301230818205426,-2.51634861409079,10.0,0.0,8.6669613712982,10.352814874851015,107.21564116238815,443.9764569750695,0.0
0.023,4.724939250167472,-2.536958833144088,10.0,0.0,9.089448707158423,10.710787437795519,111.38269111666739,443.9764569750695,0.0
0.024,4.821374993338367,-2.5517201176082303,10.0,0.0,9.506902204827597,11.06555170796626,115.52550719771939,443.9764569750695,0.0
0.025,4.919570888868621,-2.5606661765812024,10.0,0.0,9.918923233389313,11.416747709810231,119.5712924847217,443.9764569750695,0.0
0.026000000000000002,5.020032826149329,-2.5632655288262196,10.0,0.0,10.325058227436475,11.7639573601804,123.52269073352963,443.9764569750695,0.0
0.027,5.123044978145559,-2.5593897226184716,10.0,0.0,10.72484835491064,12.106732827571488,127.34661388279191,443.9764569750695,0.0
0.028,5.22912727859317,-2.5485539681204816,10.0,0.0,11.117783841443792,12.44457082944161,131.02901060447704,443.9764569750695,0.0
0.029,5.338730062743122,-2.5304180534969944,10.0,0.0,11.503322986447039,12.776923096526014,134.69525357337108,443.9764569750695,0.0
0.03,5.451544654295795,-2.505923864208733,10.0,0.0,11.881030441982924,13.103280474173012,138.14742715672517,443.9764569750695,0.0
0.031,5.568631976375053,-2.473781815934612,10.0,0.0,12.250312206312655,13.423021400095708,141.23662390719886,443.9764569750695,0.0
0.032,5.691165209663491,-2.4325059939520597,10.0,0.0,12.61042096686634,13.735408627418172,144.26814681881197,443.9764569750695,0.0
0.033,5.818318963064866,-2.3838631223384867,10.0,0.0,12.960819616439231,14.039806427522485,147.63192285502035,443.9764569750695,0.0
0.034,5.9469632845112645,-2.3334970246801716,10.0,0.0,13.301564339038995,14.33592497474857,150.45335314923403,443.9764569750695,0.0
0.035,6.0797511424360735,-2.277531979335965,10.0,0.0,13.632193950090109,14.623185918354757,152.82255311153165,443.9764569750695,0.0
0.036000000000000004,6.218410777196148,-2.213478942653697,10.0,0.0,13.952000510815122,14.900859047461076,154.95677546059642,443.9764569750695,0.0
0.037,6.3616478369454175,-2.1437522919615826,10.0,0.0,14.26056432716895,15.168376039504444,156.92395292239567,443.9764569750695,0.0
0.038,6.5110236256206395,-2.0660851911216875,10.0,0.0,14.557177346506272,15.42499874782208,159.091138102542,443.9764569750695,0.0
0.039,6.6642478746301235,-1.9844321152413862,10.0,0.0,14.841586167403186,15.670259577737388,160.1645297623269,443.9764569750695,0.0
0.04,6.813151519946806,-1.9125498456438885,10.0,0.0,15.114989670305022,15.904588048256123,159.84229511258823,443.9764569750695,0.0
0.041,6.971057890353103,-1.828745327883626,10.0,0.0,15.37598599571089,16.12694335772164,156.98216895995932,443.9764569750695,0.0
0.042,7.143518828909274,-1.7232930194210527,10.0,0.0,15.62235651076945,16.33577112924408,160.1282981715808,443.9764569750695,0.0
0.043000000000000003,7.324785845191935,-1.6052672485851764,10.0,0.0,15.853044439767064,16.530138412714592,162.09274040071637,443.9764569750695,0.0
0.044,7.4838245755493045,-1.5264504562032508,10.0,0.0,16.072610714758326,16.712456170561335,158.13624805682005,443.9764569750695,0.0
0.045,7.653045595161208,-1.4334365458959057,10.0,0.0,16.279008775825144,16.88147485526879,158.83886824739648,443.9764569750695,0.0
0.046,7.850829160434009,-1.2937325503561947,10.0,0.0,16.46723159884973,17.0341674956283,160.91585115269433,443.9764569750695,0.0
0.047,8.011488477711824,-1.2172525141221775,10.0,0.0,16.644885639577463,17.17471846500648,155.69101661587865,443.9764569750695,0.0
0.048,8.19556904827339,-1.1026278092196509,10.0,0.0,16.80698545599331,17.300337471930625,163.20196690253044,443.9764569750695,0.0
0.049,8.316262484617884,-1.0946422538775833,10.0,0.0,16.96570502742138,17.41816908751166,164.09079161059324,443.9764569750695,0.0
0.05,8.362553510200929,-1.2030462447182866,10.0,0.0,17.132340097810633,17.5362044202267,167.1436675903666,443.9764569750695,0.0
0.051000000000000004,8.420044499989231,-1.280021793718348,10.0,0.0,17.30149846491408,17.65323862808829,174.27344930293813,443.9764569750695,0.0
0.052000000000000005,8.43503947476728,-1.41802183969144,10.0,0.0,17.479854665660373,17.774410714546367,175.89154126080726,443.9764569750695,0.0
0.053,8.436327013895761,-1.5702606878779486,10.0,0.0,17.667858727818633,17.901309532876905,177.71595190273322,443.9764569750695,0.0
0.054,8.456519470444977,-1.680159686713996,10.0,0.0,17.860318766984225,18.032110580761092,185.1418031808694,443.9764569750695,0.0
0.055,8.459159273619171,-1.8118791677548431,10.0,0.0,18.0600030599478,18.16898907398974,191.36579851735024,443.9764569750695,0.0
0.056,8.44123437276295,-1.9728394153724214,10.0,0.0,18.269795205365416,18.31414628431781,194.57781983485782,443.9764569750695,0.0
0.057,8.413970484544437,-2.1440966560196797,10.0,0.0,18.49035255126909,18.468586766850315,195.8135230054306,443.9764569750695,0.0
0.058,8.392361779711266,-2.2984833112776624,10.0,0.0,18.71956817050756,18.631743254369397,200.59849607176128,443.9764569750695,0.0
0.059000000000000004,8.378473658826309,-2.4311285351066245,10.0,0.0,18.955224984642694,18.802817261309432,207.29591204567015,443.9764569750695,0.0
0.06,8.348451076477916,-2.584037011569459,10.0,0.0,19.19991699823094,18.98351315181845,213.56974585737805,443.9764569750695,0.0
0.061,8.307457846541803,-2.7483653054902195,10.0,0.0,19.454756427077918,19.17481768410488,219.3388415729125,443.9764569750695,0.0
0.062,8.260181560255063,-2.9150641877828662,10.0,0.0,19.719935960381825,19.377266165239543,224.77860796103377,443.9764569750695,0.0
0.063,8.207219614103005,-3.08214423998294,10.0,0.0,19.995554205387897,19.59134080280499,229.93757236229374,443.9764569750695,0.0
0.064,8.149091245526199,-3.247956394808655,10.0,0.0,20.281586626158727,19.817434302196425,234.91206581326273,443.9764569750695,0.0
0.065,8.086297666569028,-3.411078407713173,10.0,0.0,20.577910454662856,20.055847703725327,239.9520553187635,443.9764569750695,0.0
0.066,8.019289995170391,-3.570420369108759,10.0,0.0,20.88433963609393,20.306795056016025,245.40848746483388,443.9764569750695,0.0
0.067,7.949700568286699,-3.7230950303909363,10.0,0.0,21.200421427738057,20.570275351463984,251.06081705962092,443.9764569750695,0.0
0.068,7.881400007153554,-3.862555698010677,10.0,0.0,21.525056996587917,20.845832963987363,256.11769068801874,443.9764569750695,0.0
0.069,7.819253055035919,-3.9809415383482394,10.0,0.0,21.85641260556606,21.132451531265,260.19002745550756,443.9764569750695,0.0
0.07,7.763556570214758,-4.0790012508944375,10.0,0.0,22.192897220350858,21.429048946521846,264.294707954523,443.9764569750695,0.0
0.07100000000000001,7.717305094271934,-4.153596046395909,10.0,0.0,22.53261794556257,21.73416577923699,268.30916068610287,443.9764569750695,0.0
0.07200000000000001,7.684417365973681,-4.200532947638632,10.0,0.0,22.873295392706297,22.045898136555156,271.7985848534158,443.9764569750695,0.0
0.073,7.668604934765983,-4.216611366996856,10.0,0.0,23.21237758798445,22.361935493005745,274.69029739871013,443.9764569750695,0.0
0.074,7.673665438951084,-4.199089563784661,10.0,0.0,23.547067116832928,22.67956255356666,276.8989639232536,443.9764569750695,0.0
0.075,7.70314827060911,-4.146100949978092,10.0,0.0,23.874396869366038,22.99570335451579,278.367157035571,443.9764569750695,0.0
0.076,7.760172322154557,-4.056769596756236,10.0,0.0,24.191311164024427,23.30698523326991,279.08879773289516,443.9764569750695,0.0
0.077,7.847285293689827,-3.9311957606915757,10.0,0.0,24.494742408657487,23.60981816726103,279.3017501551275,443.9764569750695,0.0
0.078,7.966627415138283,-3.769901966304988,10.0,0.0,24.781627243204476,23.900454428672354,279.3488419573448,443.9764569750695,0.0
0.079,8.117669861609945,-3.577284361116635,10.0,0.0,25.049312221811036,24.175294299499857,279.4381398290085,443.9764569750695,0.0
0.08,8.298653020380899,-3.3591058154683493,10.0,0.0,25.295639225670264,24.431020958105176,279.264468494125,443.9764569750695,0.0
0.081,8.50759792902356,-3.1205902824322456,10.0,0.0,25.518851271826627,24.6646335428729,279.330348382884,443.9764569750695,0.0
0.082,8.743707612358833,-2.8639321537867852,10.0,0.0,25.717256133023476,24.87332345769904,279.43360878552846,443.9764569750695,0.0
0.083,8.982911824259773,-2.628578950844801,10.0,0.0,25.893367228546094,25.057033500686494,275.9631343465098,443.9764569750695,0.0
0.084,9.234247695285985,-2.3998973100359655,10.0,0.0,26.047436770355645,25.214728745233593,267.4918927212749,443.9764569750695,0.0
0.085,9.51828472308957,-2.141795958996382,10.0,0.0,26.175764550232678,25.343330705158806,260.4797945612235,443.9764569750695,0.0
0.08600000000000001,9.8398447482788,-1.8418601620656658,10.0,0.0,26.273707823962553,25.439374014586424,260.4717487780824,443.9764569750695,0.0
0.08700000000000001,10.16575073512047,-1.5505262241417306,10.0,0.0,26.342413726059878,25.502973262143573,256.78941368230755,443.9764569750695,0.0
0.088,10.453550570693624,-1.337002664638113,10.0,0.0,26.390034710537027,25.5386842531101,246.40831971044923,443.9764569750695,0.0
0.089,10.782187347709291,-1.0679532573442123,10.0,0.0,26.40900449645581,25.542314196311715,246.08215867114814,443.9764569750695,0.0
0.09,11.113241249725453,-0.7995750520710377,10.0,0.0,26.399609189595775,25.514348562333414,247.86520661242017,443.9764569750695,0.0
0.091,11.227406868555192,-0.8941709626423663,10.0,0.0,26.40144618223949,25.478992282015835,253.63785764644598,443.9764569750695,0.0
0.092,11.263280871950311,-1.0832487294189703,10.0,0.0,26.419416442826794,25.44455084480922,262.8165951226584,443.9764569750695,0.0
0.093,11.207421478859956,-1.3857048496008937,10.0,0.0,26.46352492918693,25.421853850655875,264.6329114380317,443.9764569750695,0.0
0.094,11.121345831036724,-1.699995820604161,10.0,0.0,26.53250031310427,25.414747131883548,268.995827244331,443.9764569750695,0.0
0.095,11.02915071472145,-1.986274005366456,10.0,0.0,26.622215177366478,25.42452932969662,276.63461552841164,443.9764569750695,0.0
0.096,10.91525331953645,-2.2747711911335236,10.0,0.0,26.73280868357051,25.453911556461822,286.9089474877551,443.9764569750695,0.0
0.097,10.76836626329413,-2.590273106621034,10.0,0.0,26.867101300676623,25.5064335134057,294.0728030306214,443.9764569750695,0.0
0.098,10.594054293232343,-2.926755681660813,10.0,0.0,27.02707491586601,25.58483798251018,299.67897406902284,443.9764569750695,0.0
0.099,10.413997283807834,-3.2469848489598383,10.0,0.0,27.210751999099404,25.689462517559225,305.40726757392815,443.9764569750695,0.0
0.1,10.2288795889593,-3.5491017358959636,10.0,0.0,27.41655439340434,25.820554683765803,311.51870798124776,443.9764569750695,0.0
0.101,10.037716347372669,-3.8349860206209305,10.0,0.0,27.643311867349826,25.978294652408252,317.9094148025766,443.9764569750695,0.0
0.10200000000000001,9.84411843088793,-4.0990372324833295,10.0,0.0,27.88935438122263,26.16232050997846,324.39332526580347,443.9764569750695,0.0
0.10300000000000001,9.650956642603397,-4.337535018864057,10.0,0.0,28.15278947384842,26.371859850725386,331.01159819752473,443.9764569750695,0.0
0.10400000000000001,9.464598680084702,-4.541716507229424,10.0,0.0,28.43090997714271,26.6053565246544,337.22149453903285,443.9764569750695,0.0
0.105,9.291358860056501,-4.70421381419643,10.0,0.0,28.720400986383197,26.860508382097876,341.41694685369936,443.9764569750695,0.0
0.106,9.129465891770423,-4.833628943852119,10.0,0.0,29.019068771636434,27.13516998303222,345.4081084132808,443.9764569750695,0.0
0.107,9.002954161762322,-4.895968545122152,10.0,0.0,29.320899143300927,27.424529563016495,348.29497013314347,443.9764569750695,0.0
0.108,8.913604261021302,-4.896304317974961,10.0,0.0,29.620895974798508,27.723699593950215,349.93586768477365,443.9764569750695,0.0
0.109,8.869576266956441,-4.831079251946865,10.0,0.0,29.91363201124808,28.026901885280047,350.2151394410529,443.9764569750695,0.0
0.11,8.877659874434134,-4.699669294927499,10.0,0.0,30.193611828573836,28.327728074358653,349.07932056767567,443.9764569750695,0.0
0.111,8.942951418444373,-4.504136058011636,10.0,0.0,30.45548172658433,28.619368392495645,346.5851164670308,443.9764569750695,0.0
0.112,9.068546854756162,-4.248823104094116,10.0,0.0,30.694199574045694,28.894869086065775,342.97949722015613,443.9764569750695,0.0
0.113,9.255119004839928,-3.94019376024729,10.0,0.0,30.90519960783395,29.14742451287893,339.23217574082247,443.9764569750695,0.0
0.114,9.50063540363989,-3.5866467787084835,10.0,0.0,31.084551306393923,29.370683318022454,336.03250431743834,443.9764569750695,0.0
0.115,9.798111965975124,-3.2018463566353974,10.0,0.0,31.229501138999566,29.559284154638725,335.2546358407953,443.9764569750695,0.0
0.116,10.130409992381436,-2.813361462246021,10.0,0.0,31.339930737844195,29.7099418735726,331.1801893883206,443.9764569750695,0.0
0.117,10.464243754350024,-2.4737425504996153,10.0,0.0,31.420909917349537,29.82317804694509,319.68581865226224,443.9764569750695,0.0
0.11800000000000001,10.838002175331987,-2.116842601931516,10.0,0.0,31.46925199101656,29.89541343224251,308.42764536137804,443.9764569750695,0.0
0.11900000000000001,11.266990283929967,-1.7074587013726452,10.0,0.0,31.47852016627084,29.921808378640947,303.30614651374333,443.9764569750695,0.0
0.12,11.71027309433424,-1.3022495342462248,10.0,0.0,31.44902184926121,29.902019419866463,298.46398753717807,443.9764569750695,0.0
0.121,12.109686060369246,-0.992413021496068,10.0,0.0,31.390464543343835,29.841756927108648,285.2294491715172,443.9764569750695,0.0
0.122,12.544770472750475,-0.6398739894456744,10.0,0.0,31.29605579034438,29.737799797333302,296.4815013139124,443.9764569750695,0.0
0.123,12.701938088559462,-0.7440623852251935,10.0,0.0,31.21567831352358,29.621859911620383,304.50189672057945,443.9764569750695,0.0
0.124,12.657054877121352,-1.1276934092663176,10.0,0.0,31.17290212450031,29.515985096212948,307.25365505788983,443.9764569750695,0.0
0.125,12.570328963180774,-1.5154645178460582,10.0,0.0,31.162634584541976,29.425511161863014,314.52751385781824,443.9764569750695,0.0
0.126,12.433069256223135,-1.919940915374743,10.0,0.0,31.18496109778684,29.357289175578174,323.2954710125684,443.9764569750695,0.0
0.127,12.243101822399035,-2.35231461497468,10.0,0.0,31.241749104059448,29.317645859897375,332.6466545628403,443.9764569750695,0.0
0.128,12.018577186845969,-2.788670103246078,10.0,0.0,31.332569344850562,29.31044371198451,340.3796333965142,443.9764569750695,0.0
0.129,11.770760675809148,-3.2139432426965984,10.0,0.0,31.456003837228124,29.338058372800575,348.25720413446936,443.9764569750695,0.0
0.13,11.506094273387982,-3.6200035149698864,10.0,0.0,31.610270245005083,29.40189015592874,356.5491653829292,443.9764569750695,0.0
0.131,11.226396371973827,-4.006253553471809,10.0,0.0,31.793920091829648,29.502885506653136,365.00706311101806,443.9764569750695,0.0
0.132,10.93872905880681,-4.363041502710479,10.0,0.0,32.004688663075434,29.64099273242178,373.1110612022155,443.9764569750695,0.0
0.133,10.652060986399785,-4.678026052208111,10.0,0.0,32.23927152072585,29.815022907571226,380.5928574608536,443.9764569750695,0.0
0.134,10.375326418507063,-4.94055972177601,10.0,0.0,32.49352796828368,30.022682472714912,386.76538421405326,443.9764569750695,0.0
0.135,10.123522759188129,-5.132041432707854,10.0,0.0,32.7615623791069,30.259932782946162,392.2745873311699,443.9764569750695,0.0
0.136,9.900412513567506,-5.256420969291766,10.0,0.0,33.038285311785835,30.522285593661692,396.9341743102195,443.9764569750695,0.0
0.137,9.724970666991343,-5.2949638944305395,10.0,0.0,33.31656715866786,30.803142917240727,399.5565344459581,443.9764569750695,0.0
0.138,9.611578079373775,-5.238867094864493,10.0,0.0,33.588550476015946,31.094461459322243,399.99325379306043,443.9764569750695,0.0
0.139,9.568827963827566,-5.090853772810593,10.0,0.0,33.846746818407084,31.387415065764305,398.66935885932116,443.9764569750695,0.0
0.14,9.602924831533663,-4.857972187318848,10.0,0.0,34.08428204601978,31.67271478919817,395.60444316472257,443.9764569750695,0.0
0.14100000000000001,9.716131371020944,-4.5520914373758465,10.0,0.0,34.295275656575775,31.941126312383364,390.6652757224353,443.9764569750695,0.0
0.14200000000000002,9.90668798652105,-4.188415268335191,10.0,0.0,34.47506548729964,32.183966881995495,383.61853573481665,443.9764569750695,0.0
0.14300000000000002,10.17099312095786,-3.7807916022693613,10.0,0.0,34.619958550335504,32.393334379085765,373.78614413409144,443.9764569750695,0.0
0.14400000000000002,10.504733114784267,-3.3390962753298274,10.0,0.0,34.72678880747412,32.562186084794035,361.8254796721157,443.9764569750695,0.0
0.145,10.915669593174187,-2.848162330962185,10.0,0.0,34.790235428858665,32.68297003296074,352.3448324944286,443.9764569750695,0.0
0.146,11.385171998502486,-2.330554689413956,10.0,0.0,34.807388281794786,32.75048434864699,347.6229329319694,443.9764569750695,0.0
0.147,11.882460130649312,-1.8271537239679843,10.0,0.0,34.77937925122234,32.76295584757538,341.1390312179997,443.9764569750695,0.0
0.148,12.345864238754457,-1.4305066022470374,10.0,0.0,34.716821099865136,32.725377722983566,324.96656947164377,443.9764569750695,0.0
0.149,12.858798722528014,-0.9935738977427278,10.0,0.0,34.61266482490621,32.633512843581194,316.91399830938656,443.9764569750695,0.0
0.15,13.387737397934243,-0.55224620323186,10.0,0.0,34.465560970151785,32.48736491516621,323.80040598533805,443.9764569750695,0.0
