timestamp,iq,id,iq_ref,id_ref,vq,vd,omega,omega_ref,r
0.0,0.0,0.0,0.0,0.0,0.0,0.0,0.0,438.6015024428477,0.0
0.001,0.0,0.0,10.0,0.0,0.0,1.0999999999999999,5.479349179565469,438.6015024428477,0.0
0.002,0.5664740236039851,-0.3328438672237694,10.0,0.0,0.1466128253946146,1.9276878574035619,10.673007335790762,438.6015024428477,0.0
0.003,0.983739513800664,-0.5709936142658834,10.0,0.0,0.3842011874925188,2.6470337479206334,16.010117447368362,438.6015024428477,0.0
0.004,1.3081074429065755,-0.7569921465875411,10.0,0.0,0.688043643517301,3.2866960682961057,21.56205635133618,438.6015024428477,0.0
0.005,1.5658650078770513,-0.9043057637179288,10.0,0.0,1.0398125985382785,3.8676667493808146,27.210859079582107,438.6015024428477,0.0
0.006,1.7742833480337574,-1.0238809929311226,10.0,0.0,1.4261818652077758,4.405368816091619,32.96147181241873,438.6015024428477,0.0
0.007,1.9468560587956873,-1.1220962235419962,10.0,0.0,1.8372923349564685,4.911038788016047,38.7540587155041,438.6015024428477,0.0
0.008,2.092644793786376,-1.2049895835514544,10.0,0.0,2.2659948722176657,5.3929417759815435,44.560849770604875,438.6015024428477,0.0
0.009000000000000001,2.2181422123900956,-1.2771872064558163,10.0,0.0,2.7071302594686797,5.857177890180108,50.4074396942203,438.6015024428477,0.0
0.01,2.3289379679846856,-1.3406039137968007,10.0,0.0,3.156829580992912,6.3081713727545505,56.26575227713581,438.6015024428477,0.0
0.011,2.428995955476129,-1.3968422543767702,10.0,0.0,3.6122103690125535,6.749137018155861,62.08520370120091,438.6015024428477,0.0
0.012,2.520599975343502,-1.4481192102486764,10.0,0.0,4.071227724510471,7.1824683155085065,67.89009899817493,438.6015024428477,0.0
0.013000000000000001,2.6053110366725467,-1.4962291282114313,10.0,0.0,4.532455795611045,7.609966042128156,73.68001965177119,438.6015024428477,0.0
0.014,2.68544014595132,-1.54047386220645,10.0,0.0,4.9946966538233495,8.032869711788523,79.41887598571236,438.6015024428477,0.0
0.015,2.761394722289208,-1.5825430780924097,10.0,0.0,5.45718895958797,8.452153387999708,85.13605216942905,438.6015024428477,0.0
0.016,2.83533002698611,-1.6205113969767304,10.0,0.0,5.919116225315658,8.868384589412951,90.74795649735964,438.6015024428477,0.0
0.017,2.907329665673366,-1.655535281640777,10.0,0.0,6.379946828736106,9.282004790049013,96.27476150029067,438.6015024428477,0.0
0.018000000000000002,2.977729830642905,-1.6880208082403068,10.0,0.0,6.839279560957421,9.693322009203738,101.71855979422494,438.6015024428477,0.0
0.019,3.0470840695471155,-1.7177760210275717,10.0,0.0,7.296758960012682,10.102515815035348,107.06178309636047,438.6015024428477,0.0
0.02,3.1158848856486046,-1.7445634993928507,10.0,0.0,7.752058870237889,10.50966363280721,112.28622262647056,438.6015024428477,0.0
0.021,3.1845832449109728,-1.7681232318981375,10.0,0.0,8.204867267009686,10.914757848466557,117.3741444617867,438.6015024428477,0.0
0.022,3.2536169143142653,-1.7881635992045695,10.0,0.0,8.654873088748896,11.317716762195412,122.307392286867,438.6015024428477,0.0
0.023,3.3234237846032757,-1.804367630848758,10.0,0.0,9.101756259494863,11.718391947687541,127.06726815053504,438.6015024428477,0.0
0.024,3.3944480777217163,-1.8164033920639993,10.0,0.0,9.545180525132684,12.116573328164913,131.63501911630303,438.6015024428477,0.0
0.025,3.4671439005625726,-1.823932404674331,10.0,0.0,9.984788336029444,12.511992699577027,135.9927231533054,438.6015024428477,0.0
0.026000000000000002,3.541976613532333,-1.8266163838487801,10.0,0.0,10.420197250560825,12.904326274739338,140.12438596349813,438.6015024428477,0.0
0.027,3.61942018177314,-1.8241261196838114,10.0,0.0,10.85099786230541,13.293196918461764,144.01572540037466,438.6015024428477,0.0
0.028,3.699944632512391,-1.8161628991724208,10.0,0.0,11.276754425633172,13.6781773050875,147.66275634410343,438.6015024428477,0.0
0.029,3.784037085343424,-1.8024205073156088,10.0,0.0,11.697001340391594,14.058790384079416,151.0686323086029,438.6015024428477,0.0
0.03,3.8721647457514727,-1.782640487698885,10.0,0.0,12.1112464933341,14.4345137285314,154.25218455898553,438.6015024428477,0.0
0.031,3.964767084857666,-1.7566166612280085,10.0,0.0,12.518974644711921,14.80478427313484,157.25884599153045,438.6015024428477,0.0
0.032,4.062223620193856,-1.7242375912159165,10.0,0.0,12.919655575975685,15.1690063829198,160.1781524926249,438.6015024428477,0.0
0.033,4.164757885367405,-1.6856337792304474,10.0,0.0,13.312767996473287,15.52657017103691,163.14906665284246,438.6015024428477,0.0
0.034,4.272126821090505,-1.6416823444922164,10.0,0.0,13.697876934031484,15.876903582114268,166.10784013929108,438.6015024428477,0.0
0.035,4.383825503216741,-1.5936609397919765,10.0,0.0,14.074665478771959,16.21950138016305,169.16247874024336,438.6015024428477,0.0
0.036000000000000004,4.498955517576593,-1.5434661536869394,10.0,0.0,14.442993736418714,16.553970938122685,172.08596908293316,438.6015024428477,0.0
0.037,4.616363655810812,-1.4933926760733005,10.0,0.0,14.802929989420303,16.88006277098886,174.49143080275218,438.6015024428477,0.0
0.038,4.736981437064809,-1.4422530021786353,10.0,0.0,15.154357171056073,17.197445171312985,176.60363640179096,438.6015024428477,0.0
0.039,4.863677621833395,-1.385530820302826,10.0,0.0,15.496651831293288,17.505501647256267,178.41382292149424,438.6015024428477,0.0
0.04,4.991004126279281,-1.3325033733130534,10.0,0.0,15.830256875750994,17.804242987987582,179.31188257564403,438.6015024428477,0.0
0.041,5.122965352896857,-1.2767338078719297,10.0,0.0,16.154771172107438,18.093228229208062,174.70635618478283,438.6015024428477,0.0
0.042,5.267251563123813,-1.2052018611257738,10.0,0.0,16.46842174446261,18.371214505083348,180.1799229507138,438.6015024428477,0.0
0.043000000000000003,5.416101797258983,-1.1308398374803361,10.0,0.0,16.771041384036266,18.637836546954023,177.65514077409307,438.6015024428477,0.0
0.044,5.550098623320492,-1.0866628930211624,10.0,0.0,17.06594542018557,18.894807200069582,180.13996984893149,438.6015024428477,0.0
0.045,5.72050976977082,-0.9851759103443483,10.0,0.0,17.346334319381633,19.138165933639602,181.73273482760996,438.6015024428477,0.0
0.046,5.795447328577886,-1.047186145040571,10.0,0.0,17.630856197658453,19.378688663767942,190.30875733259197,438.6015024428477,0.0
0.047,5.861278074318422,-1.1098449649444215,10.0,0.0,17.917250528962885,19.61711930226775,194.13226035214677,438.6015024428477,0.0
0.048,5.886516007677218,-1.2341365730827314,10.0,0.0,18.211893979683023,19.85822844483594,199.57408323850586,438.6015024428477,0.0
0.049,5.943067978764464,-1.295897836627931,10.0,0.0,18.506734822496558,20.09872268073333,208.23065425006914,438.6015024428477,0.0
0.05,5.958510721546041,-1.4217807928336934,10.0,0.0,18.809370517165664,20.34351839532724,212.0781326472554,438.6015024428477,0.0
0.051000000000000004,5.969087157420001,-1.5490361965609574,10.0,0.0,19.118961478675196,20.593089127410348,216.69120100652808,438.6015024428477,0.0
0.052000000000000005,5.99908218017463,-1.6328175679748513,10.0,0.0,19.430493814060334,20.845468194291815,225.6838990093922,438.6015024428477,0.0
0.053,6.007908131980685,-1.7445970648473166,10.0,0.0,19.747568753536935,21.10309168355254,233.36850397695986,438.6015024428477,0.0
0.054,6.004681664684371,-1.8680920520799171,10.0,0.0,20.07116520161882,21.36710348875551,240.34711073859495,438.6015024428477,0.0
0.055,5.9930008594076,-1.995641382152769,10.0,0.0,20.401598661848492,21.638326382153846,246.78323664800917,438.6015024428477,0.0
0.056,5.972881385298976,-2.1260955899381,10.0,0.0,20.739185534950686,21.917566666334498,253.2747978612866,438.6015024428477,0.0
0.057,5.9427604130835885,-2.2612922680299263,10.0,0.0,21.084504841672985,22.20575372160991,260.2976791645648,438.6015024428477,0.0
0.058,5.902598827135136,-2.400420901095484,10.0,0.0,21.43806310610687,22.503770566762192,268.73991489485076,438.6015024428477,0.0
0.059000000000000004,5.8555538345959,-2.537064602179163,10.0,0.0,21.799706749401157,22.81211488716246,277.54579582675524,438.6015024428477,0.0
0.06,5.8068209485125575,-2.6614025859067993,10.0,0.0,22.16833120160525,23.130679307395912,285.99513370339275,438.6015024428477,0.0
0.061,5.758839834065588,-2.7691513521435596,10.0,0.0,22.542558635061035,23.45904032455475,293.38742318834466,438.6015024428477,0.0
0.062,5.7059201817132905,-2.8712211630293347,10.0,0.0,22.922349618422196,23.79732933395757,300.8862899076621,438.6015024428477,0.0
0.063,5.649528146606298,-2.966535399336387,10.0,0.0,23.307454272272444,24.145442468094476,308.7694010891908,438.6015024428477,0.0
0.064,5.60535443274197,-3.029632905302207,10.0,0.0,23.694847357444523,24.50154994237672,315.4524105703354,438.6015024428477,0.0
0.065,5.574324387904047,-3.0620126141716786,10.0,0.0,24.08204267444361,24.863757545541475,319.9901429932741,438.6015024428477,0.0
0.066,5.563115054294214,-3.0565473558974396,10.0,0.0,24.465814244560388,25.229386646338362,319.78720995324915,438.6015024428477,0.0
0.067,5.544145041399131,-3.0655542145039623,10.0,0.0,24.84881697477465,25.5988046021496,325.70119944532684,438.6015024428477,0.0
0.068,5.545192187828431,-3.0471749896703253,10.0,0.0,25.22834944423085,25.969276149164983,330.46297133260595,438.6015024428477,0.0
0.069,5.585979246228768,-2.9727000166731563,10.0,0.0,25.598967366661597,26.33617768346468,332.9033264502069,438.6015024428477,0.0
0.07,5.658882362492421,-2.8608242944591185,10.0,0.0,25.95765207056568,26.69583938437249,332.6824175909146,438.6015024428477,0.0
0.07100000000000001,5.764614953334144,-2.7159970025056634,10.0,0.0,26.30162222927739,27.044501831749983,328.4068648964379,438.6015024428477,0.0
0.07200000000000001,5.900890055051877,-2.546298785899958,10.0,0.0,26.62884308594859,27.378762114980354,324.36112562533776,438.6015024428477,0.0
0.073,6.0462690167054465,-2.39033509051305,10.0,0.0,26.941308860949203,27.6976895207901,321.500632991768,438.6015024428477,0.0
0.074,6.221655290670348,-2.2155753544257304,10.0,0.0,27.23675686501499,27.998132062999318,319.0438888073679,438.6015024428477,0.0
0.075,6.428353686443651,-2.0197305319321757,10.0,0.0,27.5129089897817,28.277092190598786,317.9630422949743,438.6015024428477,0.0
0.076,6.654136873040613,-1.8225185913158306,10.0,0.0,27.76960704958883,28.533002351347047,316.52204469365984,438.6015024428477,0.0
0.077,6.880773976390034,-1.653127679458819,10.0,0.0,28.00956543859197,28.766319052498723,307.6767339033928,438.6015024428477,0.0
0.078,7.12147680033877,-1.4880790182757686,10.0,0.0,28.232398215198383,28.97608898283469,299.95960677183007,438.6015024428477,0.0
0.079,7.41988681260554,-1.2506741353190054,10.0,0.0,28.429460656664343,29.156747124687833,299.9120058623379,438.6015024428477,0.0
0.08,7.684383913017951,-1.0902276361951124,10.0,0.0,28.609607602094965,29.312935115579574,288.3158969119717,438.6015024428477,0.0
0.081,7.986926357665055,-0.8840179120554624,10.0,0.0,28.766280047407577,29.440884304018137,299.76119953490104,438.6015024428477,0.0
0.082,8.095478801646943,-1.0069618090464274,10.0,0.0,28.935666092943187,29.562790473752557,303.26160574544775,438.6015024428477,0.0
0.083,8.116822996391443,-1.2112858689014552,10.0,0.0,29.12155035851281,29.68818229408504,318.50020603396337,438.6015024428477,0.0
0.084,8.083551361330262,-1.469227491681965,10.0,0.0,29.32771571746604,29.823496680745393,324.3891204202934,438.6015024428477,0.0
0.085,8.017763466459822,-1.7477746044554685,10.0,0.0,29.554856745367264,29.972800116720187,331.99954130429876,438.6015024428477,0.0
0.08600000000000001,7.955233030570101,-1.9831608602053907,10.0,0.0,29.797321031080585,30.13610778088678,343.3714688238622,438.6015024428477,0.0
0.08700000000000001,7.86957772193383,-2.220394125467186,10.0,0.0,30.05561145126054,30.316127886799134,355.40919590747677,438.6015024428477,0.0
0.088,7.7557866892040055,-2.4685503518455745,10.0,0.0,30.330999692262736,30.515635484652172,366.804685784514,438.6015024428477,0.0
0.089,7.620011700859233,-2.715769458429432,10.0,0.0,30.62351240841047,30.736528485210762,377.1123632258931,438.6015024428477,0.0
0.09,7.465372014387203,-2.95576511069602,10.0,0.0,30.932790483682773,30.980236072956735,387.0492206884043,438.6015024428477,0.0
0.091,7.294117488115364,-3.185309164889714,10.0,0.0,31.258361399641075,31.247792310480524,398.47109122194325,438.6015024428477,0.0
0.092,7.119795854531931,-3.3830324799265084,10.0,0.0,31.597584971868034,31.53861285027921,409.8288916377362,438.6015024428477,0.0
0.093,6.953817069172272,-3.534082694970697,10.0,0.0,31.946606531356665,31.850788143374466,417.3039316718976,438.6015024428477,0.0
0.094,6.820780405377227,-3.604345352230251,10.0,0.0,32.29816185435406,32.17962230827292,419.5074930038477,438.6015024428477,0.0
0.095,6.696252405078025,-3.648994287287245,10.0,0.0,32.651653817825235,32.52309630237622,424.9203039176826,438.6015024428477,0.0
0.096,6.592424085513997,-3.6624289796029483,10.0,0.0,33.005175311163796,32.87774792856537,431.7333704568012,438.6015024428477,0.0
0.097,6.5642211190124105,-3.566279260196777,10.0,0.0,33.34809900172956,33.23435058458897,431.72417032923744,438.6015024428477,0.0
0.098,6.612589123885678,-3.374924706933574,10.0,0.0,33.67230308517623,33.58398283386573,425.20531386048935,438.6015024428477,0.0
0.099,6.706217916627425,-3.157054330645391,10.0,0.0,33.97699778934684,33.921256779406626,418.19263348764895,438.6015024428477,0.0
0.1,6.8484523541741495,-2.9191583705952895,10.0,0.0,34.08673122889146,34.049787286950725,410.78729046371103,438.6015024428477,0.0
0.101,7.006548904872654,-2.644051505056904,10.0,0.0,34.1214034981471,34.14161597794987,404.60582680953075,438.6015024428477,0.0
0.10200000000000001,7.22091936141339,-2.363771858637797,10.0,0.0,34.174027815738874,34.27501447644281,399.92252023231583,438.6015024428477,0.0
0.10300000000000001,7.485172510228091,-2.110805957600171,10.0,0.0,34.25896779098975,34.43574690199817,388.7338015870347,438.6015024428477,0.0
0.10400000000000001,7.784984605565772,-1.8829038106431657,10.0,0.0,34.38453480037136,34.612718850312035,373.20319528980764,438.6015024428477,0.0
0.105,8.153557356441848,-1.6014780519385288,10.0,0.0,34.551461872991325,34.796215801568444,364.95913679829647,438.6015024428477,0.0
0.106,8.576178068054059,-1.2702305791638042,10.0,0.0,34.75884442363432,34.97849238511045,358.2003971941908,438.6015024428477,0.0
0.107,8.954404430909282,-1.0413129859650692,10.0,0.0,35.01045195652718,35.156671717986946,356.8912919752161,438.6015024428477,0.0
0.108,9.30845745909885,-0.8689110174095629,10.0,0.0,35.3063972834326,35.329595855713436,371.7466602893899,438.6015024428477,0.0
0.109,9.303911140339165,-1.199987301250856,10.0,0.0,35.48581176950635,35.42687921463164,379.80328549885087,438.6015024428477,0.0
0.11,9.265946213431445,-1.5175876199117582,10.0,0.0,35.634853279196655,35.50655749804505,397.4085567873267,438.6015024428477,0.0
0.111,9.173877287403178,-1.8656166028596668,10.0,0.0,35.812065651196946,35.602920036680175,412.8383391901272,438.6015024428477,0.0
0.112,9.005748002689199,-2.2763623801971784,10.0,0.0,36.02289478553836,35.724941090710075,425.8213819024932,438.6015024428477,0.0
0.113,8.816438187536319,-2.6525783563143626,10.0,0.0,36.26211941144813,35.8749857395908,440.5102972947181,438.6015024428477,0.0
0.114,8.601650701373288,-2.999431640949377,6.865843720071904,0.0,36.526817741203686,35.71092472070874,452.65252736459286,438.6015024428477,0.0
0.115,8.193372980946927,-3.2095184695625303,0.6542184359170742,0.0,36.768281154396576,34.980565092617965,458.83228794447825,438.6015024428477,0.0
0.116,7.472484673465178,-3.21664765083544,-2.63796970904193,0.0,36.911245605114985,34.122578262170336,461.20474787486836,438.6015024428477,0.0
0.117,6.692840435139313,-3.14581410126016,-4.05023212855719,0.0,36.946251945450776,33.32081155828326,461.9383508377273,438.6015024428477,0.0
0.11800000000000001,5.993057888840538,-3.0270085780756015,-4.6504020939354485,0.0,36.88522070930976,32.62000572453163,460.3828900362478,438.6015024428477,0.0
0.11900000000000001,5.421301092633492,-2.856371118840586,-4.090485569129693,0.0,36.74262994812364,32.10666529004323,456.17639733491177,438.6015024428477,0.0
0.12,5.022726807698271,-2.672252101804544,-2.1629881673823323,0.0,36.5444175023257,31.874950975210048,450.33171471816115,438.6015024428477,0.0
0.121,4.846744669002122,-2.505750821937576,0.642051018239842,0.0,36.32638091900922,31.951238476088555,443.56868989671676,438.6015024428477,0.0
0.122,4.901855255762447,-2.369135681525721,3.9738915544233464,0.0,36.12441409146561,32.32872364974095,436.02983372028245,438.6015024428477,0.0
0.123,5.169882235498358,-2.273608864736152,7.769036329866152,0.0,35.82476706475499,32.82571056248151,427.91205655313854,438.6015024428477,0.0
0.124,5.594239053742712,-2.2098507587251524,10.0,0.0,35.38997948322252,33.20508132125688,420.47982289678373,438.6015024428477,0.0
0.125,6.060466836920082,-2.138178614656125,10.0,0.0,35.08503798839933,33.55084575839862,413.7272018534549,438.6015024428477,0.0
0.126,6.5106289057672715,-2.0364369615885276,10.0,0.0,34.89020971788019,33.87806751385876,404.9442429717526,438.6015024428477,0.0
0.127,6.952905509667048,-1.9167706433401648,10.0,0.0,34.79600872632049,34.185179405209084,391.45973090360377,438.6015024428477,0.0
0.128,7.402595811941795,-1.7587263520615886,10.0,0.0,34.79138000394611,34.471202019127844,376.5597662533655,438.6015024428477,0.0
0.129,7.88034778928348,-1.5307301464730418,10.0,0.0,34.86430222827367,34.735049633131084,368.2588870037831,438.6015024428477,0.0
0.13,8.378227803923608,-1.247114360760532,10.0,0.0,35.00442467670867,34.975970786986444,361.026784132495,438.6015024428477,0.0
0.131,8.81334575771279,-1.0501881703860998,10.0,0.0,35.207954005311535,35.196387342554054,360.725397002995,438.6015024428477,0.0
0.132,9.228645240118873,-0.8689164340246882,10.0,0.0,35.46813031257685,35.3983023538022,370.86407559396497,438.6015024428477,0.0
0.133,9.26154918921708,-1.2099173951168711,10.0,0.0,35.81051975688381,35.61156807008667,384.5492752720672,438.6015024428477,0.0
0.134,9.265022338782929,-1.4787070187582962,10.0,0.0,36.06855021610632,35.769871855859535,403.7074936403998,438.6015024428477,0.0
0.135,9.164291565655924,-1.8593112566792769,10.0,0.0,36.22841954812877,35.88431784304988,414.72854475760477,438.6015024428477,0.0
0.136,9.019705287837533,-2.268524336017497,10.0,0.0,36.42495394201602,36.018203347552216,428.5226749625107,438.6015024428477,0.0
0.137,8.841984399927304,-2.6518352315775426,10.0,0.0,36.653295514682995,36.17645717588496,443.9063088851911,438.6015024428477,0.0
0.138,8.631619200897585,-3.008642215869091,4.535649426205627,0.0,36.91004397223302,35.76200417854791,455.95558804964764,438.6015024428477,0.0
0.139,8.094957626879062,-3.154079764731723,-1.662531012090648,0.0,37.1121023448263,34.84444410537668,461.2929320503324,438.6015024428477,0.0
0.14,7.283222169304889,-3.111418074893492,-4.558117308507878,0.0,37.19605171147229,33.86623747315193,462.2459993186125,438.6015024428477,0.0
0.14100000000000001,6.45508768977465,-3.015589523633037,-5.271095911405581,0.0,37.16367095449096,33.02775209563227,462.14527867820397,438.6015024428477,0.0
0.14200000000000002,5.756464291280772,-2.895940349177677,-5.456173353554867,0.0,37.0384766117783,32.32521567659801,460.05271740147026,438.6015024428477,0.0
0.14300000000000002,5.205107930073533,-2.736837689411352,-4.624404864774241,0.0,36.839243260603745,31.82742173913115,455.4398724133142,438.6015024428477,0.0
0.14400000000000002,4.838012775298618,-2.5631943898606613,-2.4863660704008854,0.0,36.59264411444705,31.62121734619994,449.30869904775153,438.6015024428477,0.0
0.145,4.692937992817826,-2.4149941563100863,0.47214864633142106,0.0,36.33551885091784,31.727316983368148,442.4839584557345,438.6015024428477,0.0
0.146,4.779854601142146,-2.2939486211714177,3.8456943822110565,0.0,36.10288307092862,32.12758743950556,434.89675344999824,438.6015024428477,0.0
0.147,5.07252918702555,-2.2117102316217117,7.676344375007691,0.0,35.84926823080973,32.72824469714523,426.8414657668062,438.6015024428477,0.0
0.148,5.535046898598508,-2.1684030315005014,10.0,0.0,35.4018371749103,33.123880427764234,418.8941640998995,438.6015024428477,0.0
