timestamp,iq,id,iq_ref,id_ref,vq,vd,omega,omega_ref,r
0.0,0.0,0.0,0.0,0.0,0.0,0.0,0.0,430.8280665270158,0.0
0.001,0.0,0.0,10.0,0.0,0.0,1.0999999999999999,8.036667075296524,430.8280665270158,0.0
0.002,0.5203812357263506,-0.30631217151026113,10.0,0.0,0.14369433886612873,1.932758064070101,18.312724494395898,430.8280665270158,0.0
0.003,1.2652691797885836,-0.7349924487534875,10.0,0.0,0.40038675903430687,2.6198758941302227,29.040227922324956,430.8280665270158,0.0
0.004,2.074932738660519,-1.1981808281778055,10.0,0.0,0.7467856391559222,3.1823370711658603,39.860442777714056,430.8280665270158,0.0
0.005,2.8470969189987985,-1.6398107544555314,10.0,0.0,1.1587381570652464,3.646350594261603,50.7953838911914,430.8280665270158,0.0
0.006,3.525404863240007,-2.028126838502407,10.0,0.0,1.6141952454755915,4.038265784775555,61.73813245254355,430.8280665270158,0.0
0.007,4.086744034310079,-2.34976851438382,10.0,0.0,2.094795567602784,4.381570935703849,72.7166874416439,430.8280665270158,0.0
0.008,4.530324005266142,-2.6036901798900893,10.0,0.0,2.5863813390569623,4.695425198657569,83.51330575893039,430.8280665270158,0.0
0.009000000000000001,4.868476344057912,-2.7965800659503866,10.0,0.0,3.0788726304726644,4.9942916549037975,94.06858427006442,430.8280665270158,0.0
0.01,5.120096434319848,-2.938674299898953,10.0,0.0,3.5657029052451588,5.28822390812608,104.47260011525108,430.8280665270158,0.0
0.011,5.306112733866937,-3.040733717240432,10.0,0.0,4.043048971430708,5.5835003714558225,114.54096343907496,430.8280665270158,0.0
0.012,5.446049510678174,-3.113090992871692,10.0,0.0,4.509126783476702,5.8834509126173815,124.30221354380735,430.8280665270158,0.0
0.013000000000000001,5.556787768294564,-3.164070007166879,10.0,0.0,4.963475987250408,6.189232340297693,133.75493221819923,430.8280665270158,0.0
0.014,5.65186135099975,-3.1997324642842573,10.0,0.0,5.406381493554738,6.500519834065939,142.86479976638108,430.8280665270158,0.0
0.015,5.741418891555417,-3.2239945685896427,10.0,0.0,5.838437405507876,6.816068535453719,151.4020625745256,430.8280665270158,0.0
0.016,5.83226179022285,-3.239496728268905,10.0,0.0,6.260305212926142,7.134170814450176,159.75081724783107,430.8280665270158,0.0
0.017,5.929856843715922,-3.245573289909698,10.0,0.0,6.672309867685923,7.45282261939125,167.66777759365138,430.8280665270158,0.0
0.018000000000000002,6.0371308120497105,-3.241684304023225,10.0,0.0,7.0744906833999135,7.769985523332408,175.0642718513047,430.8280665270158,0.0
0.019,6.155761371946545,-3.2266138829951236,10.0,0.0,7.466550851482395,8.083673596545538,181.90211414073548,430.8280665270158,0.0
0.02,6.28672282075096,-3.1986679828271294,10.0,0.0,7.847850465269743,8.391979425476084,188.15707937588988,430.8280665270158,0.0
0.021,6.430593840453568,-3.156006093506597,10.0,0.0,8.21743735174783,8.69306843521306,193.80419420277124,430.8280665270158,0.0
0.022,6.5877360565604715,-3.0969314422391414,10.0,0.0,8.574102857805595,8.98516029904942,198.80781117493794,430.8280665270158,0.0
0.023,6.758392368382159,-3.020087431928876,10.0,0.0,8.916448905019761,9.266508754968608,202.94333664267484,430.8280665270158,0.0
0.024,6.942607084798438,-2.9247720069596133,10.0,0.0,9.242978936460913,9.535399914329716,207.01002082405867,430.8280665270158,0.0
0.025,7.140615398375594,-2.81029404078582,10.0,0.0,9.55210565866464,9.790116193569506,210.67185243159946,430.8280665270158,0.0
0.026000000000000002,7.351847293486315,-2.677579787225458,10.0,0.0,9.842337548342066,10.029018091779278,214.02801216856346,430.8280665270158,0.0
0.027,7.575596944354981,-2.5279719645978274,10.0,0.0,10.112306720919294,10.250552846491372,216.7102355087466,430.8280665270158,0.0
0.028,7.811491638188334,-2.362325341342046,10.0,0.0,10.36070740137815,10.453220123176997,219.4007847278267,430.8280665270158,0.0
0.029,8.05730221467646,-2.1844003922835484,10.0,0.0,10.586619463295804,10.635780523764586,221.42386991112292,430.8280665270158,0.0
0.03,8.312257758472583,-1.995434607842483,10.0,0.0,10.789189372282522,10.797089086432488,223.70199511844166,430.8280665270158,0.0
0.031,8.577015671441586,-1.793904628463805,10.0,0.0,10.967354506750112,10.93594996874364,223.50035719827991,430.8280665270158,0.0
0.032,8.837574090956561,-1.6022251553706974,10.0,0.0,11.122519773755602,11.05272742925348,218.3331849730184,430.8280665270158,0.0
0.033,9.10632743922831,-1.3993954210851784,10.0,0.0,11.253451784071054,11.146386386298147,213.9097392921261,430.8280665270158,0.0
0.034,9.387819936405442,-1.1755044363155385,10.0,0.0,11.358056778077621,11.215496007463122,228.86614740382288,430.8280665270158,0.0
0.035,9.574179840003291,-1.108650400905646,10.0,0.0,11.453997200752635,11.270470501488264,231.04666748270088,430.8280665270158,0.0
0.036000000000000004,9.676919838592866,-1.1716598818292425,10.0,0.0,11.553440613818358,11.320103787569517,233.6821379319353,430.8280665270158,0.0
0.037,9.746461958602692,-1.2747657879185574,10.0,0.0,11.65861456904622,11.368095853134031,240.99730600886448,430.8280665270158,0.0
0.038,9.782432499849364,-1.413644795354668,10.0,0.0,11.772315967064829,11.418544769327847,250.55373960007378,430.8280665270158,0.0
0.039,9.78248139180026,-1.5908505389387386,10.0,0.0,11.897795958620845,11.475673261002013,259.8025671424635,430.8280665270158,0.0
0.04,9.752307461130018,-1.7974218124833765,10.0,0.0,12.037391582842748,11.542956523957598,268.2200483678624,430.8280665270158,0.0
0.041,9.696716106464457,-2.0267739841921335,10.0,0.0,12.192918997090532,11.623284332746323,275.97897227058223,430.8280665270158,0.0
0.042,9.62059506306516,-2.272420031466877,10.0,0.0,12.365653994275547,11.718949503308217,283.4530612088826,430.8280665270158,0.0
0.043000000000000003,9.528262606069129,-2.52866351851654,10.0,0.0,12.556412331900965,11.831717016368,289.73170872460673,430.8280665270158,0.0
0.044,9.42019396914082,-2.79617799114146,10.0,0.0,12.766235744188066,11.963247837376498,298.31584750284935,430.8280665270158,0.0
0.045,9.29585008295015,-3.0772142661489585,10.0,0.0,12.99646874287188,12.115205058624547,307.8621170635572,430.8280665270158,0.0
0.046,9.161478178281891,-3.361511453935096,10.0,0.0,13.247336491718512,12.28852732826777,318.3551181629608,430.8280665270158,0.0
0.047,9.020741705612926,-3.6425622417924406,10.0,0.0,13.51852230743126,12.48374143877824,329.43358931538705,430.8280665270158,0.0
0.048,8.87792970882699,-3.912471420590008,10.0,0.0,13.808990454412934,12.700854674728703,340.4829717265515,430.8280665270158,0.0
0.049,8.738095034488712,-4.162152065824855,10.0,0.0,14.116888889479343,12.939257095991634,350.9336247583224,430.8280665270158,0.0
0.05,8.607500737453053,-4.381000064414557,10.0,0.0,14.439414196557927,13.197576144565456,360.2191217134858,430.8280665270158,0.0
0.051000000000000004,8.49207947744341,-4.560108359775728,10.0,0.0,14.773032310289862,13.47370621462046,367.3999728037742,430.8280665270158,0.0
0.052000000000000005,8.397715337734663,-4.692357884868644,10.0,0.0,15.113657984460714,13.764810931811024,373.699155072077,430.8280665270158,0.0
0.053,8.336045630321747,-4.762870447930745,10.0,0.0,15.455765449619442,14.066707771117946,378.52228437989385,430.8280665270158,0.0
0.054,8.316523762628249,-4.762322313641266,10.0,0.0,15.793086431790522,14.374156381382207,381.5784254592044,430.8280665270158,0.0
0.055,8.347733232532452,-4.684821300229996,10.0,0.0,16.118900546638574,14.680963968470753,382.2476289454342,430.8280665270158,0.0
0.056,8.439175941650413,-4.524405261572733,10.0,0.0,16.425943254592497,14.979925605031312,380.6537117451313,430.8280665270158,0.0
0.057,8.593723530418256,-4.286567865542743,10.0,0.0,16.707619902230356,15.263609541057926,377.30959501345995,430.8280665270158,0.0
0.058,8.815064083644646,-3.975253783175731,10.0,0.0,16.957631103607014,15.524290763278444,371.17710694151793,430.8280665270158,0.0
0.059000000000000004,9.100403547380617,-3.6033373511269016,10.0,0.0,17.170911640366356,15.75473104793588,365.17753570119265,430.8280665270158,0.0
0.06,9.451400418509259,-3.1740604957693304,10.0,0.0,17.342406862146667,15.947699096616716,360.4122923999905,430.8280665270158,0.0
0.061,9.858902789482785,-2.704341847629522,10.0,0.0,17.46867308387523,16.097204570511693,355.58378340144577,430.8280665270158,0.0
0.062,10.310771030675301,-2.212819641560139,10.0,0.0,17.54789297463419,16.198755636368585,353.75383742491863,430.8280665270158,0.0
0.063,10.793095723351668,-1.7178598366466309,10.0,0.0,17.579815626423162,16.24953655093322,343.32293213373964,430.8280665270158,0.0
0.064,11.283277686763471,-1.249581426623256,10.0,0.0,17.567063077436256,16.249334870171747,326.7645348209194,430.8280665270158,0.0
0.065,11.799008454121806,-0.769792575787095,10.0,0.0,17.507471625780152,16.196049537812435,340.9467980435601,430.8280665270158,0.0
0.066,12.085735644112884,-0.6818039426886753,10.0,0.0,17.44362992492126,16.115750910298008,351.0070344957485,430.8280665270158,0.0
0.067,12.21772201255429,-0.8284713776146329,10.0,0.0,17.395155835569664,16.025446746820492,366.09913113598816,430.8280665270158,0.0
0.068,12.23548486248264,-1.1211778156805972,10.0,0.0,17.373229772643462,15.938691540947865,376.5505423979021,430.8280665270158,0.0
0.069,12.161198263705476,-1.507350185592187,10.0,0.0,17.38437269173224,15.866768403734643,387.54407499624114,430.8280665270158,0.0
0.07,12.009596135742779,-1.9537334348705278,10.0,0.0,17.432449438912318,15.819085240239756,399.16215230879544,430.8280665270158,0.0
0.07100000000000001,11.791191145564474,-2.440336110243033,10.0,0.0,17.520012656823084,15.803486595452341,410.7372890584008,430.8280665270158,0.0
0.07200000000000001,11.51795815344113,-2.949084084293084,10.0,0.0,17.648355938855822,15.826075716166535,422.2251621461197,430.8280665270158,0.0
0.073,11.202666758780286,-3.4629573042105655,10.0,0.0,17.817562379207125,15.891189976504045,433.5261881529458,430.8280665270158,0.0
0.074,10.86016299227511,-3.9625424426630453,5.243857257917724,0.0,18.026175234587647,15.478060253582845,439.23595064022027,430.8280665270158,0.0
0.075,10.263666702806454,-4.286733440155052,2.304897173148442,0.0,18.20327899047759,14.913570160764518,439.5619361387015,430.8280665270158,0.0
0.076,9.428209460163139,-4.40228167630222,2.054565727790955,0.0,18.315691757497973,14.511027928471462,437.54979721459836,430.8280665270158,0.0
0.077,8.526621594064444,-4.368839311615201,2.993417882966714,0.0,18.371774882109975,14.356578340477082,435.0745055828959,430.8280665270158,0.0
0.078,7.728135230506197,-4.252009074149875,4.188599308259151,0.0,18.39428783298702,14.424081080304177,431.61569977653875,430.8280665270158,0.0
0.079,7.140823619366657,-4.093150150476088,5.9101258789424875,0.0,18.404993583529603,14.72112036334827,425.5020276354841,430.8280665270158,0.0
0.08,6.832817576440707,-3.9424097718109934,9.020222338385114,0.0,18.42933983490592,15.342429186584528,424.60916577251817,430.8280665270158,0.0
0.081,6.898441575617429,-3.8504174902158916,9.52884227741307,0.0,18.50477059627942,15.918590280994742,422.84761009946874,430.8280665270158,0.0
0.082,7.231952452518422,-3.7472597908092116,10.0,0.0,18.61984696683781,16.45538953572823,418.84252456118435,430.8280665270158,0.0
0.083,7.75544531397528,-3.6006612450382653,10.0,0.0,18.762001362772963,16.891055818827088,412.28882505357836,430.8280665270158,0.0
0.084,8.388084716450948,-3.377320207765464,10.0,0.0,18.910405418782197,17.233015507551826,404.92130667898743,430.8280665270158,0.0
0.085,9.080837824929961,-3.0616482691865157,10.0,0.0,19.04567453519202,17.48574318509708,395.32259263575105,430.8280665270158,0.0
0.08600000000000001,9.798461932994954,-2.6609176312648595,10.0,0.0,19.1517658569298,17.65471388572643,389.86996958786807,430.8280665270158,0.0
0.08700000000000001,10.52006865260221,-2.1898495779134235,10.0,0.0,19.21633493706729,17.74519615039047,386.3394203597692,430.8280665270158,0.0
0.088,11.227267643020227,-1.6769154048692956,10.0,0.0,19.2317832571561,17.76251127485195,373.86738766223937,430.8280665270158,0.0
0.089,11.897542573469615,-1.1669963152302874,10.0,0.0,19.196456499552323,17.71298146643091,358.09473952140496,430.8280665270158,0.0
0.09,12.55631760795984,-0.6289534645321657,10.0,0.0,19.10562391418642,17.599109458602168,382.64966552891497,430.8280665270158,0.0
0.091,12.837565185420075,-0.6549044031226972,10.0,0.0,19.020722418326166,17.46319190984398,396.19960064732913,430.8280665270158,0.0
0.092,12.939265442145677,-0.9069186183762907,10.0,0.0,18.958181371468108,17.324001413910374,406.2260620920122,430.8280665270158,0.0
0.093,12.912924249017019,-1.286793337566571,10.0,0.0,18.927241456660898,17.19639039669573,418.0844969921229,430.8280665270158,0.0
0.094,12.775060768503758,-1.7587818829322477,10.0,0.0,18.93475442441126,17.093348060647003,430.99712856647534,430.8280665270158,0.0
0.095,12.54021846738421,-2.297796557146254,7.0818482964258385,0.0,18.985783590491607,16.70481858590305,441.196242413999,430.8280665270158,0.0
0.096,12.075600312294972,-2.794338920442838,1.8786096137941675,0.0,19.04208640571,15.865829811236395,445.6762491948023,430.8280665270158,0.0
0.097,11.221881415588378,-3.118576142584277,-0.5098756032853515,0.0,19.039560732742476,14.994932105592657,445.571280053439,430.8280665270158,0.0
0.098,10.086870718377154,-3.2758930422945047,-0.6048231678679281,0.0,18.964260343254043,14.340626211009415,442.4623397200597,430.8280665270158,0.0
0.099,8.876482489067524,-3.3310775306619806,0.833304266891302,0.0,18.835556527979456,14.025156958656948,439.0423345482885,430.8280665270158,0.0
0.1,7.797648532653597,-3.360345631985555,2.4611641725641498,0.0,18.690843815259,13.99961541820112,436.134680470483,430.8280665270158,0.0
0.101,6.970627859508203,-3.404341560874535,3.8619250720322507,0.0,18.56259509092955,14.180145794885446,433.8174854761792,430.8280665270158,0.0
0.10200000000000001,6.437228485830799,-3.468387573428191,4.990628379692518,0.0,18.471829378793498,14.490351740689407,432.2055830267922,430.8280665270158,0.0
0.10300000000000001,6.186904420554678,-3.53805119222118,5.782804439388228,0.0,18.42818337039314,14.85851450763289,428.93202400908467,430.8280665270158,0.0
0.10400000000000001,6.178428222035275,-3.584043272257924,7.4385443734213155,0.0,18.43008073214327,15.358135170373043,427.2079363082472,430.8280665270158,0.0
0.105,6.417233467496429,-3.608012188407447,8.336789526027731,0.0,18.483927083968485,15.863879731474643,424.6316177189064,430.8280665270158,0.0
0.106,6.8496414411499185,-3.5803447883962667,9.686913308779232,0.0,18.579680153558623,16.418788811577944,420.4682780690586,430.8280665270158,0.0
0.107,7.45705589510905,-3.5012713469658525,10.0,0.0,18.71292741964283,16.886229078637722,414.15085460976474,430.8280665270158,0.0
0.108,8.165972044498098,-3.3398590401226396,10.0,0.0,18.862629366486157,17.245212546794523,405.25299604884617,430.8280665270158,0.0
0.109,8.917988569459522,-3.0781339724910075,10.0,0.0,19.006083831089775,17.507635206568125,396.4969148335068,430.8280665270158,0.0
0.11,9.682962902351761,-2.7122002021769607,10.0,0.0,19.12379965115216,17.68153403545619,389.8004824670202,430.8280665270158,0.0
0.111,10.437642247832912,-2.2629002309555926,10.0,0.0,19.201370112965908,17.77444957878768,384.04889649182996,430.8280665270158,0.0
0.112,11.172924266205182,-1.7495512863290967,10.0,0.0,19.228499698734733,17.792496385401265,378.0893754741409,430.8280665270158,0.0
0.113,11.852158456820403,-1.246873693923325,10.0,0.0,19.20455996086966,17.744088529146424,357.44250016991896,430.8280665270158,0.0
0.114,12.50971826290591,-0.7180222445610731,10.0,0.0,19.125026527659827,17.632588247967302,372.73232445605504,430.8280665270158,0.0
0.115,12.839722182668833,-0.6683281482456032,10.0,0.0,19.042118573551974,17.494559818472034,391.95078750909204,430.8280665270158,0.0
0.116,12.971119901530008,-0.8687511917620521,10.0,0.0,18.976242047655354,17.35088972663842,406.22930730073796,430.8280665270158,0.0
0.117,12.949088464950023,-1.238041246634026,10.0,0.0,18.94120384076578,17.21873642661091,417.7120169061194,430.8280665270158,0.0
0.11800000000000001,12.814941427084939,-1.702827244783605,10.0,0.0,18.943887683810146,17.110830495696554,429.99944499630226,430.8280665270158,0.0
0.11900000000000001,12.585129406434355,-2.2345046061893443,7.66686236831513,0.0,18.989349199231775,16.78127625458565,440.5295578945789,430.8280665270158,0.0
0.12,12.154954920937735,-2.743382508525503,2.304791005501185,0.0,19.047968934643077,15.967748188733431,445.67991885596496,430.8280665270158,0.0
0.121,11.338182243884194,-3.086762500540881,-0.41890799848134197,0.0,19.05205691002635,15.080991975818549,445.9630469358152,430.8280665270158,0.0
0.122,10.220399002992837,-3.2581219419278646,-0.7118218424944649,0.0,18.98247620521223,14.393125078659388,442.89132320650054,430.8280665270158,0.0
0.123,9.003936510670105,-3.319760169104522,0.7034074553680227,0.0,18.85613349173916,14.048324203686311,439.47034957813776,430.8280665270158,0.0
0.124,7.904522210555222,-3.351352282334407,2.327471439038196,0.0,18.71080371229962,13.998634838177745,436.5621011063983,430.8280665270158,0.0
0.125,7.049527348628623,-3.395768145318334,3.724255329114099,0.0,18.579607798049103,14.159842311158506,434.19826212112724,430.8280665270158,0.0
0.126,6.485180527463456,-3.4605419794739984,4.872472865808514,0.0,18.484333185649003,14.45767373726067,432.47859293770335,430.8280665270158,0.0
0.127,6.205596518718377,-3.532207042458617,5.715802193413583,0.0,18.43560459568588,14.822589382932524,429.56122568693513,430.8280665270158,0.0
0.128,6.173438498690108,-3.5829291169469597,7.187154227198501,0.0,18.433103206850124,15.300297577596831,427.39812777356,430.8280665270158,0.0
0.129,6.382242638811778,-3.6106329814483695,8.303002571420613,0.0,18.481162980714643,15.814724575824052,425.181075114933,430.8280665270158,0.0
0.13,6.796430852093269,-3.590301386955634,9.467998814854962,0.0,18.573345962976216,16.356033292890807,421.21362245096105,430.8280665270158,0.0
0.131,7.382460491436319,-3.5158329331386637,10.0,0.0,18.702453304743372,16.838978226213733,415.1570271834167,430.8280665270158,0.0
0.132,8.08112853952373,-3.3640996862891503,10.0,0.0,18.850998433050826,17.21022619963345,407.59161563277104,430.8280665270158,0.0
0.133,8.831568945979994,-3.109308471137156,10.0,0.0,18.995304144671287,17.483642124312627,399.17876644224145,430.8280665270158,0.0
0.134,9.595372612909326,-2.754835621578555,10.0,0.0,19.116076776297685,17.667633028388266,391.1010130784549,430.8280665270158,0.0
0.135,10.350860151392173,-2.3156766109800175,10.0,0.0,19.198408472498762,17.76983651265516,385.3616869177709,430.8280665270158,0.0
0.136,11.086990678703472,-1.81212254138673,10.0,0.0,19.231727989957147,17.79663333549606,379.0247573394341,430.8280665270158,0.0
0.137,11.773659379339835,-1.3070984694062049,10.0,0.0,19.213878130731846,17.75591017600183,359.38128998468596,430.8280665270158,0.0
0.138,12.435577965291234,-0.7787488003898201,10.0,0.0,19.14067271860766,17.651529989086193,373.6874628002239,430.8280665270158,0.0
0.139,12.803556190339009,-0.6777792481846201,10.0,0.0,19.05852667495193,17.516408860753955,386.39036813241785,430.8280665270158,0.0
0.14,12.95855549798967,-0.8501947552593805,10.0,0.0,18.991058524128825,17.373215099298278,402.7227612019523,430.8280665270158,0.0
0.14100000000000001,12.957825113813943,-1.1949565834191513,10.0,0.0,18.952217458269278,17.239224234241703,415.65172842438125,430.8280665270158,0.0
0.14200000000000002,12.837016152708463,-1.6480448195943613,10.0,0.0,18.950253500187703,17.128030030984664,428.53321352467276,430.8280665270158,0.0
0.14300000000000002,12.617489095299796,-2.172921760179673,8.458566388690901,0.0,18.990572098691224,16.881141041705074,439.9468854704116,430.8280665270158,0.0
0.14400000000000002,12.236499739849252,-2.7004452090821496,2.6605422263875296,0.0,19.05494874838985,16.080318047988996,445.7509136861659,430.8280665270158,0.0
0.145,11.460379212524037,-3.0637918117742045,-0.3907003530811366,0.0,19.067498325554098,15.169921940947123,446.5053351012631,430.8280665270158,0.0
0.146,10.358208586996273,-3.247493653938471,-0.9246837463721942,0.0,19.004327070908893,14.43707221839334,443.3225886559737,430.8280665270158,0.0
