timestamp,iq,id,iq_ref,id_ref,vq,vd,omega,omega_ref,r
0.0,0.0,0.0,0.0,0.0,0.0,0.0,0.0,492.2683379030782,0.0
0.001,0.0,0.0,10.0,0.0,0.0,1.0999999999999999,5.007483478097563,492.2683379030782,0.0
0.002,0.553748426219678,-0.3049938474462091,10.0,0.0,0.1435493232190829,1.9290876731158355,10.353017429512246,492.2683379030782,0.0
0.003,1.1980617363376243,-0.6624264461489763,10.0,0.0,0.3919201288106834,2.624284531391218,15.948277116449658,492.2683379030782,0.0
0.004,1.7895110761760433,-0.9892570418106423,10.0,0.0,0.7173505792064178,3.2161824901171765,21.70591544832511,492.2683379030782,0.0
0.005,2.2811439422381157,-1.258547979259469,10.0,0.0,1.0957814775979287,3.7332685761416675,27.563953633035016,492.2683379030782,0.0
0.006,2.6713001876879514,-1.4689198155468683,10.0,0.0,1.5085258873698635,4.198488285064,33.475105844968255,492.2683379030782,0.0
0.007,2.9755397500615617,-1.6299710797144817,10.0,0.0,1.9421297477524015,4.628895674664694,39.39057078359069,492.2683379030782,0.0
0.008,3.2137103430946503,-1.7535461287455867,10.0,0.0,2.3873967038085007,5.036466341733668,45.28707330728151,492.2683379030782,0.0
0.009000000000000001,3.404407563571395,-1.8497255119175837,10.0,0.0,2.838238012624496,5.429211649379245,51.15750719166595,492.2683379030782,0.0
0.01,3.5622718200619525,-1.9269046367906388,10.0,0.0,3.2907976312277647,5.81230846113267,56.99140071889943,492.2683379030782,0.0
0.011,3.698119202709466,-1.9912119511061186,10.0,0.0,3.742712982472022,6.188986984044756,62.77878611006559,492.2683379030782,0.0
0.012,3.8195343721843793,-2.0468180976123795,10.0,0.0,4.192578253855597,6.561191994974297,68.5094806414279,492.2683379030782,0.0
0.013000000000000001,3.9316390049840684,-2.096374875664243,10.0,0.0,4.63957268331441,6.9300456740360215,74.1970353909908,492.2683379030782,0.0
0.014,4.037394937486733,-2.142125740214073,10.0,0.0,5.083290065053477,7.29620132189016,79.80606418157969,492.2683379030782,0.0
0.015,4.139430982132094,-2.184100718112347,10.0,0.0,5.523411012327361,7.659946737546829,85.34592948621332,492.2683379030782,0.0
0.016,4.238968442020339,-2.222914278302251,10.0,0.0,5.959744148281433,8.021400946223967,90.80385016599554,492.2683379030782,0.0
0.017,4.336765732312654,-2.2588441511156847,10.0,0.0,6.39215354191539,8.380580720295523,96.15499563486284,492.2683379030782,0.0
0.018000000000000002,4.433554551796745,-2.2915443585312842,10.0,0.0,6.820477697680686,8.737414659082997,101.35417033093502,492.2683379030782,0.0
0.019,4.5302040117586095,-2.3200609454453454,10.0,0.0,7.244462654234595,9.091734067167282,106.55795960396443,492.2683379030782,0.0
0.02,4.626177597906888,-2.3456165488717877,10.0,0.0,7.664007006449305,9.44342943022184,111.59103686311146,492.2683379030782,0.0
0.021,4.722567567251206,-2.3666278603597326,10.0,0.0,8.078822147977412,9.792266531426026,116.48822177514278,492.2683379030782,0.0
0.022,4.81969621956315,-2.3827766970795157,10.0,0.0,8.488605744397422,10.137981184601731,121.23615808669155,492.2683379030782,0.0
0.023,4.9179968099831655,-2.3935874374459014,10.0,0.0,8.893010139566107,10.48026095367878,125.82647910517464,492.2683379030782,0.0
0.024,5.017933886713291,-2.3985740270864766,10.0,0.0,9.291642489582427,10.818743112828882,130.26126535650383,492.2683379030782,0.0
0.025,5.120036422355876,-2.397191676082152,10.0,0.0,9.684057896005244,11.153008382912224,134.64353421766359,492.2683379030782,0.0
0.026000000000000002,5.225348763615614,-2.388086013507047,10.0,0.0,10.069670489420897,11.482525334447368,138.7541857146736,492.2683379030782,0.0
0.027,5.332653130682595,-2.373690546767044,10.0,0.0,10.448181073932847,11.806901493205793,142.49907678627213,492.2683379030782,0.0
0.028,5.443044122357256,-2.3526938608558092,10.0,0.0,10.81911253508661,12.12562112912602,146.02970147160755,492.2683379030782,0.0
0.029,5.557464967452619,-2.324031332796921,10.0,0.0,11.181879902489653,12.438079564525864,149.32648091397323,492.2683379030782,0.0
0.03,5.676049390997707,-2.287985318007853,10.0,0.0,11.535937940346168,12.743668814987021,152.38827930001088,492.2683379030782,0.0
0.031,5.799203679839947,-2.2444135455578076,10.0,0.0,11.880716664641533,13.041743816650518,155.22137835709648,492.2683379030782,0.0
0.032,5.927192418866938,-2.1933976063929057,10.0,0.0,12.215648981090073,13.331641972172655,157.85470205511882,492.2683379030782,0.0
0.033,6.0602618461391735,-2.1350275657622775,10.0,0.0,12.540167336368256,13.612685794177757,160.45020898551041,492.2683379030782,0.0
0.034,6.198810119805881,-2.0691015082678352,10.0,0.0,12.853670072401044,13.884167453679552,162.93318554467047,492.2683379030782,0.0
0.035,6.344846795024159,-1.9926591433164422,10.0,0.0,13.155221301211025,14.145172669297105,163.64886068079028,492.2683379030782,0.0
0.036000000000000004,6.486070191890238,-1.9263378786480292,10.0,0.0,13.446187013237754,14.396158279330818,164.6494833733313,492.2683379030782,0.0
0.037,6.643217537128215,-1.8365927606510064,10.0,0.0,13.723945964732192,14.635267925556303,167.14903387788186,492.2683379030782,0.0
0.038,6.800270994195492,-1.7494010736154975,10.0,0.0,13.989146351305799,14.862538095483677,165.94460841169695,492.2683379030782,0.0
0.039,6.964210301882863,-1.653658109895606,10.0,0.0,14.240893907075943,15.077138497800725,168.82447784360608,492.2683379030782,0.0
0.04,7.1265593949985675,-1.5633447899362438,10.0,0.0,14.479949711942453,15.279234608297234,166.63664379127002,492.2683379030782,0.0
0.041,7.302615617981596,-1.4530505067743151,10.0,0.0,14.704080309423745,15.467283994633766,168.26662652937537,492.2683379030782,0.0
0.042,7.466041052916728,-1.366153960453612,10.0,0.0,14.9161471085269,15.642725266471736,167.13988423426977,492.2683379030782,0.0
0.043000000000000003,7.656035973284988,-1.2373312548147877,10.0,0.0,15.111249822746476,15.802563904145073,166.21074911206728,492.2683379030782,0.0
0.044,7.819475259563489,-1.154437220983319,10.0,0.0,15.29499601264635,15.949850577186078,167.24218206706922,492.2683379030782,0.0
0.045,8.00665920462215,-1.0335850209620587,10.0,0.0,15.462631449196316,16.08182736081931,164.22891483858615,492.2683379030782,0.0
0.046,8.183866927272364,-0.9299529598275673,10.0,0.0,15.616510015730029,16.19974899970327,170.5858687890508,492.2683379030782,0.0
0.047,8.275665845769597,-0.9688802971948132,10.0,0.0,15.772111217220504,16.312940527544015,174.76807274355184,492.2683379030782,0.0
0.048,8.341128791834894,-1.0423322973449123,10.0,0.0,15.931161897988845,16.42409008786752,177.52665150537428,492.2683379030782,0.0
0.049,8.376094471088345,-1.155915756086833,10.0,0.0,16.097182127172818,16.536838164978278,182.8545547082649,492.2683379030782,0.0
0.05,8.406165445070286,-1.2658929505415437,10.0,0.0,16.268836797952066,16.651955306950885,187.02265710188738,492.2683379030782,0.0
0.051000000000000004,8.418983425215885,-1.3943608183662608,10.0,0.0,16.44786940936682,16.77161693372795,191.32321004215356,492.2683379030782,0.0
0.052000000000000005,8.427582749120077,-1.5201407625439538,10.0,0.0,16.633516037499106,16.896397913140795,196.33251149698327,492.2683379030782,0.0
0.053,8.419159716904876,-1.6667183761626063,10.0,0.0,16.82794183881572,17.028277984208287,200.66456194285752,492.2683379030782,0.0
0.054,8.414939531201439,-1.7975965877038647,10.0,0.0,17.02904389424078,17.16679261840593,206.58063827689733,492.2683379030782,0.0
0.055,8.392521318116513,-1.9523310384586798,10.0,0.0,17.239599215010703,17.313989796308604,210.5244495209748,492.2683379030782,0.0
0.056,8.371872641253864,-2.0960478770307898,10.0,0.0,17.4580802292293,17.469569960822056,217.5286702688621,492.2683379030782,0.0
0.057,8.340791432676504,-2.249664944987684,10.0,0.0,17.685731867566915,17.634652656480906,223.65191426397257,492.2683379030782,0.0
0.058,8.299902856261395,-2.412032785935956,10.0,0.0,17.923450903461386,17.810179177727512,226.8439715243475,492.2683379030782,0.0
0.059000000000000004,8.258157271778558,-2.56654187949434,10.0,0.0,18.170323009773014,17.996108078967875,233.98893657086867,492.2683379030782,0.0
0.06,8.21195827863878,-2.7186682663557846,10.0,0.0,18.426289607196694,18.192795734115908,240.22929691353787,492.2683379030782,0.0
0.061,8.157017564781919,-2.875426002452301,10.0,0.0,18.692050397494807,18.40099277208436,246.01192041081893,492.2683379030782,0.0
0.062,8.09952996803837,-3.0255455482966096,10.0,0.0,18.967000385241867,18.620720413789005,251.92999799907548,492.2683379030782,0.0
0.063,8.03715386990081,-3.1727125005544083,10.0,0.0,19.2511153076746,18.852256784925586,257.4491859725883,492.2683379030782,0.0
0.064,7.974227430791123,-3.3092639054880637,10.0,0.0,19.543521359997843,19.095349158512473,262.96295916405404,492.2683379030782,0.0
0.065,7.911647943381438,-3.433850297415729,10.0,0.0,19.843335033510158,19.349627379196967,268.37175351121385,492.2683379030782,0.0
0.066,7.853805080258219,-3.5396014300492005,10.0,0.0,20.148981922410083,19.614196065233692,273.5194876385779,492.2683379030782,0.0
0.067,7.803505588318717,-3.6229582635517583,10.0,0.0,20.458632731382647,19.88782708703885,278.3592914813944,492.2683379030782,0.0
0.068,7.762214475305733,-3.6834388577504713,10.0,0.0,20.770500858665297,20.16909911507279,282.71617064670016,492.2683379030782,0.0
0.069,7.734944760533577,-3.7152084299075145,10.0,0.0,21.082199223018375,20.456017510526408,286.7142781221679,492.2683379030782,0.0
0.07,7.72403030885427,-3.7176144036455088,10.0,0.0,21.391366551871105,20.746341795406966,289.95904609129246,492.2683379030782,0.0
0.07100000000000001,7.7318644435518005,-3.6905904057308176,10.0,0.0,21.695652876818627,21.037579485351227,291.99046036772467,492.2683379030782,0.0
0.07200000000000001,7.763675534394357,-3.6297229973966925,10.0,0.0,21.99220916332821,21.3267011601501,293.3257291193464,492.2683379030782,0.0
0.073,7.8230347597949885,-3.5334773513915043,10.0,0.0,22.2780436416895,21.610354892234405,294.3249560564176,492.2683379030782,0.0
0.074,7.909945340832682,-3.406269331864308,10.0,0.0,22.550629619735147,21.885260127286273,294.7349189643382,492.2683379030782,0.0
0.075,8.027303354974318,-3.2475200409717644,10.0,0.0,22.80725718167851,22.14789316089231,293.6051001524565,492.2683379030782,0.0
0.076,8.171180770082442,-3.0672289696331267,10.0,0.0,23.04624076584982,22.3952727118116,289.3377396244047,492.2683379030782,0.0
0.077,8.353240986449952,-2.8490445145639445,10.0,0.0,23.263866567351698,22.623224816406754,290.9698327364598,492.2683379030782,0.0
0.078,8.553276074203062,-2.627385246580322,10.0,0.0,23.4603243242354,22.82996103320341,284.81264733602455,492.2683379030782,0.0
0.079,8.77033436822172,-2.405340903423152,10.0,0.0,23.635601642042936,23.013793342544247,282.36068981202584,492.2683379030782,0.0
0.08,9.038702403150628,-2.1264406201193253,10.0,0.0,23.783275871271965,23.169420251829766,279.2030475300622,492.2683379030782,0.0
0.081,9.295673400904905,-1.8899426804788995,10.0,0.0,23.908519597979236,23.298668763705955,273.11395691630014,492.2683379030782,0.0
0.082,9.59463259769874,-1.6085702876363515,10.0,0.0,24.005577819387113,23.39720099539547,269.98009506334466,492.2683379030782,0.0
0.083,9.87528789567224,-1.376498462419728,10.0,0.0,24.080069264977755,23.467703335247673,264.05452222144413,492.2683379030782,0.0
0.084,10.195896340723639,-1.0959439842774121,10.0,0.0,24.125621525651066,23.50614420969781,258.1122188154031,492.2683379030782,0.0
0.085,10.489572186949276,-0.8716813962876206,10.0,0.0,24.148599307804602,23.51619796413594,254.70465780260344,492.2683379030782,0.0
0.08600000000000001,10.80594201202852,-0.6192174722133471,10.0,0.0,24.144756281418328,23.49568019904917,256.89144343539925,492.2683379030782,0.0
0.08700000000000001,10.981069224560535,-0.6061907110429482,10.0,0.0,24.140337476674,23.460729612704718,263.28017816282767,492.2683379030782,0.0
0.088,11.032124384561724,-0.7722851741496137,10.0,0.0,24.1512661523231,23.424967409045458,268.1933170026946,492.2683379030782,0.0
0.089,11.00848922820512,-1.0267562853879324,10.0,0.0,24.18385661764652,23.396984712116275,273.2232111845589,492.2683379030782,0.0
0.09,10.9513328460934,-1.2978922306608458,10.0,0.0,24.237670009612295,23.381110181881077,281.765123530971,492.2683379030782,0.0
0.091,10.859669314445096,-1.5887682603365372,10.0,0.0,24.313799613169593,23.38171586852617,285.3813084094307,492.2683379030782,0.0
0.092,10.748038471494635,-1.877625435317721,10.0,0.0,24.411242353986832,23.40123670427056,295.6148392799916,492.2683379030782,0.0
0.093,10.615844422076513,-2.1687976261806243,10.0,0.0,24.530033273541893,23.44197476752871,300.01354770589074,492.2683379030782,0.0
0.094,10.459748735276886,-2.47134747367982,10.0,0.0,24.671387668783552,23.506366701470338,307.5423109827205,492.2683379030782,0.0
0.095,10.302292190172203,-2.747509242452891,10.0,0.0,24.83239811398525,23.594214144635487,316.62689363478165,492.2683379030782,0.0
0.096,10.122531864320418,-3.0348009037894386,10.0,0.0,25.014932724042573,23.70757695839694,322.0439171018612,492.2683379030782,0.0
0.097,9.936118585128423,-3.3074528429556973,10.0,0.0,25.21766895116525,23.846564809240583,328.9187609889502,492.2683379030782,0.0
0.098,9.755738378742253,-3.54362241528906,10.0,0.0,25.437282474225025,24.009905187622685,337.4853869784572,492.2683379030782,0.0
0.099,9.570267815323891,-3.763846180084893,10.0,0.0,25.67313160122124,24.19747084038471,343.56806853574847,492.2683379030782,0.0
0.1,9.386642618011688,-3.959443542364586,10.0,0.0,25.92346585299684,24.408208906640322,348.4659922791179,492.2683379030782,0.0
0.101,9.222252727029037,-4.104196096227019,10.0,0.0,26.18380729352252,24.639153227482897,352.90967854384326,492.2683379030782,0.0
0.10200000000000001,9.081935776850726,-4.19485672499048,10.0,0.0,26.44973416570523,24.886828225903564,357.78546219226183,492.2683379030782,0.0
0.10300000000000001,8.967996159163746,-4.234933934958294,10.0,0.0,26.717337737320584,25.147458600144223,360.88603898378483,492.2683379030782,0.0
0.10400000000000001,8.888819710723325,-4.21953063823557,10.0,0.0,26.982148854459282,25.416356307273936,362.88832034009084,492.2683379030782,0.0
0.105,8.849516881956182,-4.150142247085948,10.0,0.0,27.239889940537836,25.688376902084517,359.7317485978808,492.2683379030782,0.0
0.106,8.868818651903586,-4.00603205183719,10.0,0.0,27.483900739923737,25.956453323040016,358.3629386764588,492.2683379030782,0.0
0.107,8.954063002530827,-3.784516511578959,10.0,0.0,27.70739249399069,26.21293932096904,358.87878366014996,492.2683379030782,0.0
0.108,9.075077503413025,-3.5440098193407494,10.0,0.0,27.90994309170021,26.453666742921076,353.90919068673776,492.2683379030782,0.0
0.109,9.239889661567148,-3.280233532419499,10.0,0.0,28.089701047195042,26.67365729006074,345.9597840914062,492.2683379030782,0.0
0.11,9.489815744809958,-2.9297876597633685,10.0,0.0,28.23757097873138,26.863780830460744,345.0138257979664,492.2683379030782,0.0
0.111,9.773570542097897,-2.575038940293682,10.0,0.0,28.35414837073899,27.020965243105135,335.2843278075531,492.2683379030782,0.0
0.112,10.083077341851011,-2.230325633748367,10.0,0.0,28.440415488284994,27.142880753685887,329.64221070916716,492.2683379030782,0.0
0.113,10.44584978217389,-1.8478420291094375,10.0,0.0,28.49162138168964,27.224421524525184,321.075310821674,492.2683379030782,0.0
0.114,10.812997358884216,-1.4998124690859331,10.0,0.0,28.511402347281546,27.266170298586097,313.29730004807203,492.2683379030782,0.0
0.115,11.215976126574198,-1.129303894964571,10.0,0.0,28.49610444616725,27.265066103121335,305.2799474048339,492.2683379030782,0.0
0.116,11.607987319023444,-0.8038333753311901,10.0,0.0,28.450129244199445,27.223451093599085,297.18026835874144,492.2683379030782,0.0
0.117,12.020401959717544,-0.46452223255679836,10.0,0.0,28.370520540967338,27.13995456628042,303.0946998299399,492.2683379030782,0.0
0.11800000000000001,12.263229933056829,-0.41782634200079904,10.0,0.0,28.288779618793164,27.034259890710047,308.5309760944356,492.2683379030782,0.0
0.11900000000000001,12.314716965227023,-0.6489214802178065,10.0,0.0,28.230530745388798,26.927725296673948,314.87674205983205,492.2683379030782,0.0
0.12,12.265545044817854,-0.9908664335938968,10.0,0.0,28.202756293410474,26.83194305626774,321.4407312941647,492.2683379030782,0.0
0.121,12.158498866051966,-1.3668875018351798,10.0,0.0,28.20612393056213,26.754244955164474,329.55512540342977,492.2683379030782,0.0
0.122,12.00212108422486,-1.7638895003539963,10.0,0.0,28.241295003042936,26.700784522100022,337.2986298746294,492.2683379030782,0.0
0.123,11.815317496906417,-2.153754863770097,10.0,0.0,28.306518094959824,26.675171856376863,346.2076932689685,492.2683379030782,0.0
0.124,11.59144181940339,-2.5532722329310347,10.0,0.0,28.402705868086237,26.68140105506985,353.99420256346315,492.2683379030782,0.0
0.125,11.354468439147823,-2.925185885131636,10.0,0.0,28.526813111819774,26.72045442625926,363.59352552459677,492.2683379030782,0.0
0.126,11.090680282005458,-3.296874283141645,10.0,0.0,28.679581555557984,26.794660148186193,370.6919365200716,492.2683379030782,0.0
0.127,10.826082967038122,-3.626606743441468,10.0,0.0,28.85704741376794,26.90318996536923,378.6475508387188,492.2683379030782,0.0
0.128,10.553811995531273,-3.9295115547245545,10.0,0.0,29.057641872513358,27.045917220371045,384.75551470518445,492.2683379030782,0.0
0.129,10.29157804024067,-4.180153655841027,10.0,0.0,29.276991193894407,27.220554221114117,392.3911845502574,492.2683379030782,0.0
0.13,10.048728725657474,-4.369003691427056,10.0,0.0,29.51013636611494,27.423753538972225,398.21153613252324,492.2683379030782,0.0
0.131,9.830616602790299,-4.496545426014854,10.0,0.0,29.752428043348033,27.651511282636132,400.24227930458034,492.2683379030782,0.0
0.132,9.653917699796693,-4.547045157372348,10.0,0.0,29.997545880327657,27.89797817775759,400.6589114287724,492.2683379030782,0.0
0.133,9.540467296863303,-4.498154880104561,10.0,0.0,30.236915695308422,28.155022722357607,402.16018016116686,492.2683379030782,0.0
0.134,9.495843880879068,-4.35599032294123,10.0,0.0,30.462903784735833,28.414073865724617,401.80955026270374,492.2683379030782,0.0
0.135,9.505367333316485,-4.16202850030991,10.0,0.0,30.67228402463939,28.66832488976973,397.49166473954153,492.2683379030782,0.0
0.136,9.591960090351183,-3.8946519849861225,10.0,0.0,30.858679544497797,28.908658866651216,390.5631073825624,492.2683379030782,0.0
0.137,9.770929536945122,-3.5399891832827333,10.0,0.0,31.01412976702438,29.124778286275426,384.8288340989157,492.2683379030782,0.0
0.138,10.028707823495889,-3.1267179234623046,10.0,0.0,31.133733698697494,29.30826486913523,380.5933992590456,492.2683379030782,0.0
0.139,10.316784640553083,-2.738259066416105,10.0,0.0,31.22112813381242,29.456252519865572,367.00756916232694,492.2683379030782,0.0
0.14,10.686451167456509,-2.292721826314692,10.0,0.0,31.26945738264819,29.560398299245577,362.9787195712881,492.2683379030782,0.0
0.14100000000000001,11.099575733954342,-1.8435142357367713,10.0,0.0,31.278410821975832,29.617215388525423,350.2459687760811,492.2683379030782,0.0
0.14200000000000002,11.534017088079096,-1.418874990261707,10.0,0.0,31.249932385202207,29.625588809521297,338.9836479990231,492.2683379030782,0.0
0.14300000000000002,11.998656757535294,-0.994569461256841,10.0,0.0,31.18271191846975,29.583511094641292,330.3504911162241,492.2683379030782,0.0
0.14400000000000002,12.464938349401988,-0.6045363262064827,10.0,0.0,31.079345137357045,29.492274526165268,321.8790054003272,492.2683379030782,0.0
0.145,12.946874414624865,-0.21330311135472257,10.0,0.0,30.938056055224823,29.35147478516974,332.9381408994716,492.2683379030782,0.0
0.146,13.077508813398474,-0.39865690176659996,10.0,0.0,30.82111715630009,29.201075686847666,340.2871586637763,492.2683379030782,0.0
0.147,13.078946101162177,-0.7366355118449848,10.0,0.0,30.73615634664013,29.055170850799044,348.0575756271276,492.2683379030782,0.0
0.148,12.976342618120569,-1.1693825582550819,10.0,0.0,30.689323523345635,28.926661173401513,356.03909733449194,492.2683379030782,0.0
0.149,12.809286663846464,-1.628019698661224,10.0,0.0,30.680445629621413,28.823669301554023,365.03621050440074,492.2683379030782,0.0
0.15,12.58867950227917,-2.0974114450871353,10.0,0.0,30.709203058787644,28.75268505574851,374.39755406689653,492.2683379030782,0.0
