timestamp,iq,id,iq_ref,id_ref,vq,vd,omega,omega_ref,r
0.0,0.0,0.0,0.0,0.0,0.0,0.0,0.0,469.89681472956886,0.0
0.001,0.0,0.0,10.0,0.0,0.0,1.0999999999999999,10.558972245723599,469.89681472956886,0.0
0.002,0.3470791536290525,-0.1865871584855582,10.0,0.0,0.1305245874334113,1.9518212931008037,21.802036466739533,469.89681472956886,0.0
0.003,0.7400839296000086,-0.3853626974679728,10.0,0.0,0.35317828313677196,2.691753181814353,33.2221097807141,469.89681472956886,0.0
0.004,1.0986369499977156,-0.562254045721226,10.0,0.0,0.6450300910591851,3.3444464667428466,44.93635020488569,469.89681472956886,0.0
0.005,1.4028908547810133,-0.7072234282707145,10.0,0.0,0.9871437652801177,3.931173204648547,56.885174881396665,469.89681472956886,0.0
0.006,1.6547280252233372,-0.8215867078477465,10.0,0.0,1.364849012797506,4.468779086484948,68.97281760377088,469.89681472956886,0.0
0.007,1.8626557483273847,-0.9104324161978938,10.0,0.0,1.7671737188695413,4.970041227052425,81.12028201660746,469.89681472956886,0.0
0.008,2.036014027375391,-0.9792585469024735,10.0,0.0,2.186074585685123,5.444419490706116,93.26506640402839,469.89681472956886,0.0
0.009000000000000001,2.1829805165436005,-1.0327723196819536,10.0,0.0,2.6157214458832123,5.898817283657974,105.35422306595338,469.89681472956886,0.0
0.01,2.3101071307953345,-1.07462120095431,10.0,0.0,3.0519116385688436,6.338225720658447,117.33940623318202,469.89681472956886,0.0
0.011,2.422434157672501,-1.1074645846572067,10.0,0.0,3.491617939080552,6.766227626413467,129.17355965506488,469.89681472956886,0.0
0.012,2.5237782398095927,-1.1331432535043686,10.0,0.0,3.932650019852752,7.185375392877843,140.80870241547794,469.89681472956886,0.0
0.013000000000000001,2.6170331594112812,-1.1528557433718147,10.0,0.0,4.373405256391116,7.597466990438188,152.19460574162275,469.89681472956886,0.0
0.014,2.704428054124972,-1.1673121223114324,10.0,0.0,4.8126872058163634,8.003744062673846,163.3035956023948,469.89681472956886,0.0
0.015,2.78769709780976,-1.1769171230480975,10.0,0.0,5.249580653814288,8.405035976770275,174.06224116134268,469.89681472956886,0.0
0.016,2.8683380651847648,-1.181692893305353,10.0,0.0,5.683343233142995,8.801850228282449,184.40458002000096,469.89681472956886,0.0
0.017,2.947608572611464,-1.1815506101018023,10.0,0.0,6.113347570835086,9.19444596643309,194.27193846462634,469.89681472956886,0.0
0.018000000000000002,3.026636744056115,-1.176300416100243,10.0,0.0,6.539034950064895,9.582882170753233,203.60834425185985,469.89681472956886,0.0
0.019,3.106474612417142,-1.1656983637668834,10.0,0.0,6.9598834879870815,9.967051608759075,212.36133749947993,469.89681472956886,0.0
0.02,3.188120014087091,-1.1495012516339134,10.0,0.0,7.375388454106345,10.346706341256466,220.484150088863,469.89681472956886,0.0
0.021,3.2725234697211514,-1.1275108378747993,10.0,0.0,7.785051422471247,10.721478171012999,227.93784068820418,469.89681472956886,0.0
0.022,3.360583427996226,-1.0996084456008879,10.0,0.0,8.18837591796277,11.09089655377645,234.69307211176624,469.89681472956886,0.0
0.023,3.4531332770704712,-1.0657800862664426,10.0,0.0,8.584867706577437,11.454405663997292,240.73138010021066,469.89681472956886,0.0
0.024,3.550923789291324,-1.0261314156092691,10.0,0.0,8.97403815717378,11.81138158420397,246.04582373949165,469.89681472956886,0.0
0.025,3.6546043810663322,-0.9808921804715245,10.0,0.0,9.355409325572573,12.161149997476564,250.6409676161151,469.89681472956886,0.0
0.026000000000000002,3.7647060213194266,-0.9304106234139498,10.0,0.0,9.728519639533793,12.50300431175169,254.53221010350808,469.89681472956886,0.0
0.027,3.8816279082679954,-0.8751392166403138,10.0,0.0,10.092929314351878,12.836223834833616,257.7445207175156,469.89681472956886,0.0
0.028,4.005629233409431,-0.8156138585126946,10.0,0.0,10.448224898670045,13.160091446193082,260.31067260748966,469.89681472956886,0.0
0.029,4.136826575752606,-0.7524290969399856,10.0,0.0,10.794022615500618,13.473910160442088,262.26905544139987,469.89681472956886,0.0
0.03,4.275196839833479,-0.686211924725967,10.0,0.0,11.129970390745223,13.777018019323785,263.66114168422433,469.89681472956886,0.0
0.031,4.42058526547968,-0.6175961825568692,10.0,0.0,11.455748614437077,14.068800845661498,273.8701177232449,469.89681472956886,0.0
0.032,4.555057732187851,-0.5758661881494336,10.0,0.0,11.774223156430384,14.350645124653187,285.9173554339315,469.89681472956886,0.0
0.033,4.643821046391383,-0.6071544361242576,10.0,0.0,12.092893679344844,14.627733190049739,299.13915898986136,469.89681472956886,0.0
0.034,4.71489849191026,-0.6610703029320042,10.0,0.0,12.413023819376608,14.902048615333026,313.1121885335773,469.89681472956886,0.0
0.035,4.772575696461672,-0.7276302338934113,10.0,0.0,12.7353549216712,15.175311794045701,327.75557869061953,469.89681472956886,0.0
0.036000000000000004,4.818129658695112,-0.802550083676822,10.0,0.0,13.060354815774176,15.449047601316412,343.0212807623273,469.89681472956886,0.0
0.037,4.851623058104352,-0.8837805114350252,10.0,0.0,13.388414449749481,15.724681082957657,358.82858449151115,469.89681472956886,0.0
0.038,4.872748985279525,-0.9698542642810362,10.0,0.0,13.719887277026865,16.003568261837135,375.0417379637469,469.89681472956886,0.0
0.039,4.8812680290442785,-1.0590995790718365,10.0,0.0,14.05505778656298,16.286988170014034,391.45420585211644,469.89681472956886,0.0
0.04,4.877321515892478,-1.1492189393830414,10.0,0.0,14.394073912449501,16.57610244521119,407.7757061478126,469.89681472956886,0.0
0.041,4.861727849677178,-1.2370412838549305,10.0,0.0,14.736859117555884,16.871882743629463,423.6251294854821,469.89681472956886,0.0
0.042,4.8362811214566195,-1.318409662651749,10.0,0.0,15.083016130216386,17.17500673615865,438.53211199642675,469.89681472956886,0.0
0.043000000000000003,4.8040193321796965,-1.388239159699624,10.0,0.0,15.43173740175105,17.48572836023922,451.91316957806026,469.89681472956886,0.0
0.044,4.7694331214696275,-1.440729679010223,10.0,0.0,15.78173437069399,17.80373181435054,463.13323762972266,469.89681472956886,0.0
0.045,4.738324868030643,-1.4701102770063987,8.03414235100225,0.0,16.13123894874025,17.911766324326457,469.51463979007724,469.89681472956886,0.0
0.046,4.650266805286561,-1.4388669950372708,4.847263020219875,0.0,16.452865952982904,17.722424995580784,469.40058736985657,469.89681472956886,0.0
0.047,4.467703793859812,-1.3153634976483923,4.909251503927335,0.0,16.710123172033644,17.64206937727909,466.5026963891541,469.89681472956886,0.0
0.048,4.306423419197533,-1.164227130259537,6.3921381776827175,0.0,16.918229141910253,17.773887903087235,463.10665092391173,469.89681472956886,0.0
0.049,4.245778284621245,-1.02634326962413,8.158062548360473,0.0,17.105050506384018,18.09781614839601,459.34699572122037,469.89681472956886,0.0
0.05,4.306424035908492,-0.9163910907853359,10.0,0.0,17.29486665787536,18.585710097607482,454.95155650225894,469.89681472956886,0.0
0.051000000000000004,4.4870799493295985,-0.8308349868362236,10.0,0.0,17.506178939492703,19.006111199567098,449.5176751869017,469.89681472956886,0.0
0.052000000000000005,4.709642841317919,-0.7384844030944705,10.0,0.0,17.729097099972172,19.382928060507982,442.7338808711892,469.89681472956886,0.0
0.053,4.952546896844179,-0.6322690904791578,10.0,0.0,17.956644951947514,19.719861234214722,434.8675720050202,469.89681472956886,0.0
0.054,5.208105761712635,-0.5138044904462606,10.0,0.0,18.18316238321853,20.02017344116806,426.20839791145033,469.89681472956886,0.0
0.055,5.473817993690053,-0.38694250030783317,10.0,0.0,18.40428911914288,20.28643341368432,417.76477450846744,469.89681472956886,0.0
0.056,5.747419248344332,-0.25753468303673027,10.0,0.0,18.616962938727987,20.520741046849203,436.17964887847177,469.89681472956886,0.0
0.057,5.936701218948704,-0.2682042856119322,10.0,0.0,18.834267874127054,20.734800294436166,456.1042424960333,469.89681472956886,0.0
0.058,6.033663024956861,-0.3886251110374236,10.0,0.0,19.064387835515966,20.940411131849487,477.52934699698443,469.89681472956886,0.0
0.059000000000000004,6.075260690458355,-0.5540525901364131,1.6940778455499395,0.0,19.309049698953945,20.231215319525774,491.15737493905493,469.89681472956886,0.0
0.06,5.787037825902404,-0.6004685241566339,-5.332541727580173,0.0,19.461777272766994,18.959656835034593,495.86763333380964,469.89681472956886,0.0
0.061,5.185583486979991,-0.5254910287623791,-7.947379110999932,0.0,19.463364556916044,17.67643878856487,494.86225949190515,469.89681472956886,0.0
0.062,4.471561303321048,-0.4029649865269873,-7.694346637671051,0.0,19.32374321831128,16.64821111787065,491.3671912844541,469.89681472956886,0.0
0.063,3.814687089463905,-0.29608671043659895,-6.161516299494391,0.0,19.084729896549973,15.940041034539227,487.0808073626565,469.89681472956886,0.0
0.064,3.3018771234667645,-0.23216285189531982,-4.190164264926464,0.0,18.792838056953013,15.530147401906621,482.7117393183896,469.89681472956886,0.0
0.065,2.956117600766271,-0.21377520453528231,-2.133779488681223,0.0,18.4877626354283,15.371448201455975,478.52192046312615,469.89681472956886,0.0
0.066,2.766851159565832,-0.23171936273695604,-0.12512111838506268,0.0,18.19948256988678,15.415861665173082,474.3868338031309,469.89681472956886,0.0
0.067,2.711254912409258,-0.2729797157784206,1.897522020876936,0.0,17.948831054523666,15.633632860355407,470.5792577438,469.89681472956886,0.0
0.068,2.768006296992965,-0.3282141717494711,3.7944856204000885,0.0,17.7506849968415,15.986202734262342,466.92837148285355,469.89681472956886,0.0
0.069,2.915705754556496,-0.38716684505079124,5.649613183340459,0.0,17.613542981821677,16.45311598445242,463.50321331801587,469.89681472956886,0.0
0.07,3.139020468836538,-0.4436742601977486,7.42612827987483,0.0,17.542432782255993,17.013401469115713,460.1894081188782,469.89681472956886,0.0
0.07100000000000001,3.426766687608554,-0.4913584793301369,9.180104945550575,0.0,17.539142341066306,17.656300730692987,455.88649045203243,469.89681472956886,0.0
0.07200000000000001,3.7689231022581913,-0.5325235806499184,10.0,0.0,17.60452218910716,18.272469967902495,451.4953592555117,469.89681472956886,0.0
0.073,4.131921429129764,-0.5481810559929312,10.0,0.0,17.726291647339423,18.78885306384127,445.60609997072845,469.89681472956886,0.0
0.074,4.481166923341132,-0.5251591837521685,10.0,0.0,17.884833488642418,19.230987774914865,438.4770714241255,469.89681472956886,0.0
0.075,4.813177837109159,-0.4679669769764292,10.0,0.0,18.065673692899544,19.61173445343902,430.3829900851735,469.89681472956886,0.0
0.076,5.1319283190556195,-0.384971848127301,10.0,0.0,18.25794700247773,19.94074804066004,421.65534157993955,469.89681472956886,0.0
0.077,5.442533776524402,-0.28434669756944286,10.0,0.0,18.453655524547322,20.22510850461468,418.34392690972317,469.89681472956886,0.0
0.078,5.745506567585884,-0.17833967140044038,10.0,0.0,18.647574719432416,20.47038282193875,440.291773857445,469.89681472956886,0.0
0.079,5.909731492370703,-0.2650204501346374,10.0,0.0,18.85722438248386,20.695486613203194,461.7147083820743,469.89681472956886,0.0
0.08,5.99923816322165,-0.4183826492683935,9.297376739764955,0.0,19.084422492473966,20.833552948474733,482.0535754062255,469.89681472956886,0.0
0.081,6.0141816846427405,-0.5847863693246447,-0.9936243790771968,0.0,19.31947821220707,19.85479985010003,492.59446565280814,469.89681472956886,0.0
0.082,5.625371672356961,-0.5937689013499157,-6.491046011600913,0.0,19.43247709145161,18.538539801712563,495.2399506381759,469.89681472956886,0.0
0.083,4.972740803331509,-0.49760387750460955,-8.06721986337087,0.0,19.391882099989708,17.314702034188784,493.18768052091906,469.89681472956886,0.0
0.084,4.2629455323799625,-0.37408979724182245,-7.2739934626559455,0.0,19.22033793233117,16.38375635798195,489.37205427057705,469.89681472956886,0.0
0.085,3.6445186222640062,-0.2778915130637738,-5.560932732895025,0.0,18.963506943360844,15.770184256299743,485.00632619444104,469.89681472956886,0.0
0.08600000000000001,3.1818286820379633,-0.22709455468275064,-3.529163809475742,0.0,18.666376160539194,15.443361864490932,480.709079868411,469.89681472956886,0.0
0.08700000000000001,2.885642952835381,-0.22024151638917266,-1.4886632978491319,0.0,18.366030352190357,15.3515995314356,476.6188651330889,469.89681472956886,0.0
0.088,2.739440234648342,-0.24605484045792178,0.4892235657767139,0.0,18.089450887401362,15.44926184244204,472.5257616524911,469.89681472956886,0.0
0.089,2.719233292025476,-0.29140962019570055,2.5094858368463866,0.0,17.855026492722374,15.712710693556986,468.8444862298353,469.89681472956886,0.0
0.09,2.8052622092296833,-0.3485841182858952,4.360646833171623,0.0,17.676225069615324,16.10013205665893,465.2625985831546,469.89681472956886,0.0
0.091,2.976511982592722,-0.406749218030026,6.197932817976108,0.0,17.559872341120137,16.59654380360732,461.923040274197,469.89681472956886,0.0
0.092,3.219285434036545,-0.46129221387452723,7.947449717008643,0.0,17.510214138714744,17.1807605201317,458.46892641683735,469.89681472956886,0.0
0.093,3.5212924538558474,-0.5094939819625124,9.788785528815774,0.0,17.528700192733574,17.855848477405882,454.44139271457067,469.89681472956886,0.0
0.094,3.883090035513387,-0.5464446869016109,10.0,0.0,17.61642899694036,18.433318814282572,449.5780796110466,469.89681472956886,0.0
0.095,4.243371749985021,-0.5499302070873855,10.0,0.0,17.75314585458517,18.923689840405135,443.3019874269694,469.89681472956886,0.0
0.096,4.586058620641909,-0.5152146612070236,10.0,0.0,17.92137456382907,19.344602711052374,435.8797371930287,469.89681472956886,0.0
0.097,4.912115515793571,-0.44870738015618405,10.0,0.0,18.107903043756508,19.707807775799168,427.56927529507107,469.89681472956886,0.0
0.098,5.226583210637159,-0.3590953151443457,10.0,0.0,18.30290692782509,20.022014304582758,418.8823156634028,469.89681472956886,0.0
0.099,5.53425099082836,-0.25455407557145504,10.0,0.0,18.49922766066227,20.293601790022233,429.0255951694262,469.89681472956886,0.0
0.1,5.810201194619127,-0.18616006303445998,10.0,0.0,18.69659713977635,20.530384755586425,447.0273210839797,469.89681472956886,0.0
0.101,5.942625050829056,-0.30569364729900794,10.0,0.0,18.911740601929896,20.751419250360406,467.42095177849103,469.89681472956886,0.0
0.10200000000000001,6.014921428285261,-0.4694519300507811,6.1740665847813165,0.0,19.14429124260554,20.544383603240213,485.0624445877173,469.89681472956886,0.0
0.10300000000000001,5.907389148393786,-0.5897683168161918,-2.7983361184133146,0.0,19.344480474218283,19.445153136263006,493.20294744908375,469.89681472956886,0.0
0.10400000000000001,5.431987410687609,-0.5656561854504583,-7.101648876291677,0.0,19.410872237654143,18.143443131158886,494.32368644345723,469.89681472956886,0.0
0.105,4.75480590902029,-0.4591878609332003,-7.906287090617303,0.0,19.328983429852762,17.00280217471807,491.65156802388947,469.89681472956886,0.0
0.106,4.067944070162595,-0.3429348168944768,-6.787775413776625,0.0,19.129496255588357,16.167902086994598,487.6458563874115,469.89681472956886,0.0
0.107,3.4948489847404756,-0.26056409883417,-4.962410012116082,0.0,18.858569541431795,15.642320209039141,483.30559653894903,469.89681472956886,0.0
0.108,3.082316552014083,-0.22365071115602708,-2.926367905978636,0.0,18.55894054543135,15.387562441867779,479.08500513464844,469.89681472956886,0.0
0.109,2.831753082546461,-0.22736873180125006,-0.9079541078791356,0.0,18.264576788461568,15.353419305857246,475.08587393588834,469.89681472956886,0.0
0.11,2.7237473812114894,-0.259803972928047,1.039720899437718,0.0,17.999765789905215,15.496689213026816,471.0505649221263,469.89681472956886,0.0
0.111,2.734288737361238,-0.30838318277522603,3.045837904393174,0.0,17.780782242593368,15.798107543905912,467.3821591382551,469.89681472956886,0.0
0.112,2.845529659409199,-0.3661695552260451,4.905187352241915,0.0,17.619709591971727,16.219821868315933,463.90640378444834,469.89681472956886,0.0
0.113,3.038374812642582,-0.42390373556140803,6.702969138596488,0.0,17.522688534965642,16.74231943960811,460.55525354392097,469.89681472956886,0.0
0.114,3.2990051491586736,-0.476313305391724,8.471959870716653,0.0,17.49280705166737,17.352735425255702,456.5523506153807,469.89681472956886,0.0
0.115,3.6182598427287767,-0.5211379363944553,10.0,0.0,17.531361928975674,18.01700445798112,452.8715880142609,469.89681472956886,0.0
0.116,3.98403078826059,-0.5519365278727064,10.0,0.0,17.635427820578272,18.5663794167992,447.61848732236024,469.89681472956886,0.0
0.117,4.339670580951458,-0.5447159623659166,10.0,0.0,17.78292237078189,19.035760801155057,441.0216546915788,469.89681472956886,0.0
0.11800000000000001,4.676981961851222,-0.5004241435921442,10.0,0.0,17.95780570999068,19.43940564812362,433.35239466038615,469.89681472956886,0.0
0.11900000000000001,4.998864124728734,-0.42670262322755353,10.0,0.0,18.14789875092309,19.78814042020868,424.8643423253636,469.89681472956886,0.0
0.12,5.310646907905538,-0.3321828740506051,10.0,0.0,18.344196007764932,20.089933734657798,416.2789605167656,469.89681472956886,0.0
0.121,5.616514657330896,-0.2251139975342542,10.0,0.0,18.540210491442487,20.350649818741164,433.16193946343253,469.89681472956886,0.0
0.122,5.845349568502953,-0.22625332026689365,10.0,0.0,18.74389114942636,20.58278258004928,452.0128614558094,469.89681472956886,0.0
0.123,5.964477439958153,-0.3521803160118121,10.0,0.0,18.964257594047286,20.80125441427662,472.87545991915414,469.89681472956886,0.0
0.124,6.023768788093244,-0.5204753980757206,3.2619501913301905,0.0,19.20168776669843,20.273399461009337,487.867609533222,469.89681472956886,0.0
0.125,5.803734375767994,-0.5948514909786062,-4.413832563740262,0.0,19.369087846156408,19.069914114199968,493.7404034016909,469.89681472956886,0.0
0.126,5.251151055412364,-0.5392726013084521,-7.588665384695948,0.0,19.39254194419491,17.789627348378783,493.48452168251964,469.89681472956886,0.0
0.127,4.555144282752231,-0.42382112867108823,-7.69660159463982,0.0,19.273478082754032,16.73062492584835,490.3039017432013,469.89681472956886,0.0
0.128,3.8926730477249576,-0.3148283882323295,-6.310362495116985,0.0,19.049585678482302,15.985093790600228,486.1528394211272,469.89681472956886,0.0
0.129,3.3629497634630714,-0.24526858711372634,-4.397391580995521,0.0,18.76696775039428,15.539935786926405,481.84482268552927,469.89681472956886,0.0
0.13,2.997033548901246,-0.22090514179048526,-2.3628632927561446,0.0,18.466111433773307,15.350653744135466,477.69321089001346,469.89681472956886,0.0
0.131,2.7883564004305468,-0.23401828694812798,-0.36502135660268786,0.0,18.178098624955915,15.368926928242171,473.6165109494289,469.89681472956886,0.0
0.132,2.7154206463086212,-0.27202508932905767,1.6361316514909845,0.0,17.924764032241256,15.562656086053936,469.88636960805616,469.89681472956886,0.0
0.133,2.7566298304561454,-0.3250867441897094,3.5013067733924905,0.0,17.721592528590104,15.891574234343844,466.1570477178001,469.89681472956886,0.0
0.134,2.8898330224464415,-0.3823832393683224,5.403365388638215,0.0,17.577401988054095,16.343617854620202,462.7682032195089,469.89681472956886,0.0
0.135,3.101694744709227,-0.43914802967724365,7.169073752884403,0.0,17.498506025581516,16.88927263520094,459.4472499669893,469.89681472956886,0.0
0.136,3.378731095157426,-0.48849262392399684,8.934046026769991,0.0,17.486925394878334,17.52060682663463,455.3253928999987,469.89681472956886,0.0
0.137,3.712153551858812,-0.5307013815978991,10.0,0.0,17.543785763790485,18.153348643438402,451.25480274237765,469.89681472956886,0.0
0.138,4.075176770109173,-0.5518840492152743,10.0,0.0,17.660142283352982,18.681244446280193,445.6486559708046,469.89681472956886,0.0
0.139,4.425783904758526,-0.5346282647145351,10.0,0.0,17.815542768272145,19.133049768165122,438.76498494619085,469.89681472956886,0.0
0.14,4.758795516261476,-0.4822131469035853,10.0,0.0,17.99499063177369,19.52208940043465,430.8786332178509,469.89681472956886,0.0
0.14100000000000001,5.077797834087571,-0.40273879862107,10.0,0.0,18.187179645019068,19.858409716981527,422.24595976656843,469.89681472956886,0.0
0.14200000000000002,5.388022431652007,-0.3044571586607976,10.0,0.0,18.38376555168179,20.149382220644448,414.5030065043589,469.89681472956886,0.0
