timestamp,iq,id,iq_ref,id_ref,vq,vd,omega,omega_ref,r
0.0,0.0,0.0,0.0,0.0,0.0,0.0,0.0,328.30275680474654,0.0
0.001,0.0,0.0,10.0,0.0,0.0,1.0999999999999999,13.421300759808835,328.30275680474654,0.0
0.002,0.5430119869839447,-0.34956185616294705,10.0,0.0,0.14845180417792414,1.9302686814317658,28.638534300510717,328.30275680474654,0.0
0.003,1.2290696220828854,-0.7182845396078714,10.0,0.0,0.4021491726985446,2.6223194551471036,41.30562471591244,328.30275680474654,0.0
0.004,1.8765971173050173,-1.0600613870327675,10.0,0.0,0.7335901081209264,3.206167440219525,54.107509673641346,328.30275680474654,0.0
0.005,2.417856385410676,-1.3541799355742519,10.0,0.0,1.119207020373626,3.7117114757875402,67.79111496921855,328.30275680474654,0.0
0.006,2.8487946886220183,-1.5851443669608165,10.0,0.0,1.5392815469249648,4.163272178351834,81.53843097916051,328.30275680474654,0.0
0.007,3.1838224392459087,-1.7575327210744232,10.0,0.0,1.9791577657162303,4.579140593778318,95.05563333262384,328.30275680474654,0.0
0.008,3.4418427543773538,-1.8853468408727259,10.0,0.0,2.428968873807694,4.972377832383056,108.43594336294639,328.30275680474654,0.0
0.009000000000000001,3.6428391022299387,-1.9805990622592382,10.0,0.0,2.8823221981050193,5.351743062824004,121.67403256118085,328.30275680474654,0.0
0.01,3.8044008202085537,-2.0520268740955454,10.0,0.0,3.335181250104835,5.722745277151462,134.6846092383012,328.30275680474654,0.0
0.011,3.9399658451000836,-2.1062489681059544,10.0,0.0,3.7851047705601975,6.088636639687876,147.405235056644,328.30275680474654,0.0
0.012,4.059203149278453,-2.147832893662553,10.0,0.0,4.230657086094786,6.45117076480548,159.78740811855837,328.30275680474654,0.0
0.013000000000000001,4.16896051220517,-2.179360403479016,10.0,0.0,4.670959769411922,6.811125772084626,171.77090439540063,328.30275680474654,0.0
0.014,4.274041034425199,-2.201925568681701,10.0,0.0,5.105394578199389,7.168654263152634,183.28501248099863,328.30275680474654,0.0
0.015,4.377841341397855,-2.2156470800004886,10.0,0.0,5.53342246980795,7.523506157447797,194.25538332510138,328.30275680474654,0.0
0.016,4.482879359055777,-2.2200245047224936,10.0,0.0,5.954477063291405,7.875159472601657,204.60641835903763,328.30275680474654,0.0
0.017,4.591168133723591,-2.2142086795750116,10.0,0.0,6.367908013928455,8.222891530551593,214.26327259637978,328.30275680474654,0.0
0.018000000000000002,4.7044401799666735,-2.197227993191479,10.0,0.0,6.772959358046081,8.565816440430181,223.15533378940208,328.30275680474654,0.0
0.019,4.824261470215514,-2.1681680359220277,10.0,0.0,7.168771270304001,8.902906372267733,231.22000098753156,328.30275680474654,0.0
0.02,4.9520693055907214,-2.1263060066862787,10.0,0.0,7.554396760876643,9.233007853158535,238.40592313506968,328.30275680474654,0.0
0.021,5.089159165505613,-2.071206799887568,10.0,0.0,7.928827558025601,9.554859928780635,244.6755163986528,328.30275680474654,0.0
0.022,5.236641998421044,-2.0027839925374993,10.0,0.0,8.291024966281352,9.867117663533872,250.00664213769375,328.30275680474654,0.0
0.023,5.3953902313518185,-1.9213261616487673,10.0,0.0,8.639952273862594,10.168381888344129,254.39333130174415,328.30275680474654,0.0
0.024,5.565986499618087,-1.8274898586291355,10.0,0.0,8.974605858143466,10.457234314251503,257.8455665488798,328.30275680474654,0.0
0.025,5.748684721028522,-1.7222630009023567,10.0,0.0,9.294042735267237,10.732276014323743,260.38827258315496,328.30275680474654,0.0
0.026000000000000002,5.943389113299112,-1.606904935058255,10.0,0.0,9.59740297602027,10.992166731165476,262.0597533319584,328.30275680474654,0.0
0.027,6.149653138817694,-1.4828713611096802,10.0,0.0,9.883926151906275,11.235662401514002,262.9098469459727,328.30275680474654,0.0
0.028,6.36669732249081,-1.3517332571570035,10.0,0.0,10.152961721543218,11.46164860246741,262.9980476916535,328.30275680474654,0.0
0.029,6.593442628581626,-1.2150987328472702,10.0,0.0,10.403973937677272,11.669168198455925,262.39176235243696,328.30275680474654,0.0
0.03,6.828554696173281,-1.0745455331421208,10.0,0.0,10.636542385072293,11.857442182084812,275.89247657288803,328.30275680474654,0.0
0.031,6.98604160555056,-1.0701541981358451,10.0,0.0,10.86560387123707,12.035173172734734,288.1722134804759,328.30275680474654,0.0
0.032,7.092375775165797,-1.1402701164867994,10.0,0.0,11.097288972219024,12.207915323372232,300.5082087588671,328.30275680474654,0.0
0.033,7.161892273226032,-1.2554554141301915,10.0,0.0,11.335049001723796,12.379968295953708,313.4450727851379,328.30275680474654,0.0
0.034,7.202385017106089,-1.39939791687415,10.0,0.0,11.580920147861645,12.554832937381306,327.2166247660493,328.30275680474654,0.0
0.035,7.218298153351352,-1.5627172437381849,4.8831959871389685,0.0,11.83621634445607,12.172604270317036,336.90029531944595,328.30275680474654,0.0
0.036000000000000004,6.928835029405695,-1.5796896427439133,-0.04461467470635938,0.0,12.027993825306615,11.39523703194074,338.3132308327758,328.30275680474654,0.0
0.037,6.281874248970315,-1.4305325576155141,-0.8511871716515724,0.0,12.106279830880293,10.74361045205004,336.90373550299756,328.30275680474654,0.0
0.038,5.52688982877762,-1.2631798270629742,-0.23244929374497048,0.0,12.094657348398037,10.3176807006618,336.9456000283202,328.30275680474654,0.0
0.039,4.856386982385704,-1.1517175989142046,-0.3398099886420263,0.0,12.03101682123435,9.981390089847597,337.4609196053688,328.30275680474654,0.0
0.04,4.298402952953061,-1.0792161294209086,-0.689051405172556,0.0,11.933250746342829,9.689694753302732,336.73655043816944,328.30275680474654,0.0
0.041,3.834546606085623,-1.0305726628961838,-0.4112047579071003,0.0,11.811465978663191,9.496892246148798,335.5925783934677,328.30275680474654,0.0
0.042,3.4779783063488963,-1.0159955954514175,0.08788304855655849,0.0,11.681462394282443,9.397896654683006,334.74571277590076,328.30275680474654,0.0
0.043000000000000003,3.2318596541048734,-1.0324956229491278,0.4468862976284904,0.0,11.556520382892392,9.353807112008475,333.84392205410217,328.30275680474654,0.0
0.044,3.0756580450476783,-1.0644504056917814,0.8423700060342298,0.0,11.443013644200603,9.35626648837015,332.6651603787546,328.30275680474654,0.0
0.045,2.991253006672416,-1.1039197802416125,1.3881268079679354,0.0,11.345125600387217,9.410930202485833,331.6882810525843,328.30275680474654,0.0
0.046,2.9729640743391665,-1.1454999165973578,1.8427112285747178,0.0,11.266671853620377,9.496053191228931,330.4914001837619,328.30275680474654,0.0
0.047,3.006695983680547,-1.1797117674620639,2.419265229195738,0.0,11.20792328263608,9.619800202932389,328.986400223355,328.30275680474654,0.0
0.048,3.086729659358166,-1.2094795306176052,3.164928775213106,0.0,11.17035660535903,9.793088721191651,327.6170985652918,328.30275680474654,0.0
0.049,3.216566423298291,-1.238417825537064,3.85643618663925,0.0,11.15676098244519,10.000419192417347,326.8574183531412,328.30275680474654,0.0
0.05,3.3903261274021315,-1.2638372833795208,4.250729677230609,0.0,11.167764726358783,10.204299064267854,326.021116248673,328.30275680474654,0.0
0.051000000000000004,3.591907814474143,-1.2657579790781748,4.691697135025439,0.0,11.198013165014494,10.413018420239306,324.27307291153403,328.30275680474654,0.0
0.052000000000000005,3.8128043804566705,-1.2478526725913321,5.606015642527062,0.0,11.24411990473124,10.677773240339054,322.2196661613001,328.30275680474654,0.0
0.053,4.073149841330806,-1.2315860795444635,6.693549924078492,0.0,11.310481180315998,11.00471980325981,320.78695357099383,328.30275680474654,0.0
0.054,4.389382083451839,-1.2239041105396997,7.485064251569153,0.0,11.4022186339743,11.349616978630857,319.87142678209557,328.30275680474654,0.0
0.055,4.7495595569143445,-1.2116808147004052,8.027140946244792,0.0,11.518004316951604,11.684454275310378,318.5736377170609,328.30275680474654,0.0
0.056,5.131800034501458,-1.1849386705853997,8.773326669638996,0.0,11.65287575840487,12.035601395446326,316.9893481908865,328.30275680474654,0.0
0.057,5.538264534516769,-1.1492222061655994,9.678605518864774,0.0,11.805713378081379,12.416351073669087,315.40927292620205,328.30275680474654,0.0
0.058,5.9781110681548535,-1.110736758765408,10.0,0.0,11.977465969042688,12.756291676769804,313.43997601076376,328.30275680474654,0.0
0.059000000000000004,6.4216751984629985,-1.0529023740964982,10.0,0.0,12.16006043337836,13.031805944847711,310.73536884957656,328.30275680474654,0.0
0.06,6.842295513375138,-0.9650150934572496,10.0,0.0,12.342857621064628,13.256195639214141,307.29356670403706,328.30275680474654,0.0
0.061,7.234043832871705,-0.8496688466921911,10.0,0.0,12.518004845081151,13.437539970917053,322.8493989783769,328.30275680474654,0.0
0.062,7.490732653491229,-0.8897359289524999,7.254277574232577,0.0,12.69933262138259,13.29191683794373,334.30730323176243,328.30275680474654,0.0
0.063,7.491187836418386,-0.9404614490549208,1.4652799832696433,0.0,12.853144443145219,12.572173103233837,339.0805746043292,328.30275680474654,0.0
0.064,7.063885129587604,-0.8522687805949897,-1.0291338810095532,0.0,12.909392260528977,11.770297224590776,338.7308431367312,328.30275680474654,0.0
0.065,6.3798916482450645,-0.7012478282414821,-0.9585490105304189,0.0,12.86409733023577,11.157908445825267,337.09049048927,328.30275680474654,0.0
0.066,5.674957957612471,-0.591481539808744,-0.2262500236450462,0.0,12.751528932891272,10.752778862915743,336.8629415749508,328.30275680474654,0.0
0.067,5.080948161387697,-0.5626055648996164,-0.19807741418749547,0.0,12.607625722634586,10.4309731364126,337.6435470853118,328.30275680474654,0.0
0.068,4.5985270727157195,-0.5866524713732351,-0.6817880721736485,0.0,12.448866180214448,10.12059398485272,337.82004083145546,328.30275680474654,0.0
0.069,4.184877598778641,-0.6289863370562561,-0.8652077855125619,0.0,12.279360933040731,9.850714963565753,337.2129355431174,328.30275680474654,0.0
0.07,3.8290386047244893,-0.6831219724625324,-0.6507569287272394,0.0,12.105349889693548,9.651302905676474,336.48820950682375,328.30275680474654,0.0
0.07100000000000001,3.5399958011148795,-0.7521956202188522,-0.37024843760118875,0.0,11.93585548979129,9.511378693153931,335.8790176159885,328.30275680474654,0.0
0.07200000000000001,3.3170907643592984,-0.8299750388854354,-0.14141510029599136,0.0,11.777183108202763,9.41249317009275,335.1904403853711,328.30275680474654,0.0
0.073,3.1501593472819787,-0.9061537862408078,0.13399667920646152,0.0,11.632091280489394,9.351769329061993,334.1782363757902,328.30275680474654,0.0
0.074,3.0311989621144235,-0.9765115786305134,0.5813438882864741,0.0,11.502413821133597,9.340479092764411,333.1054881534788,328.30275680474654,0.0
0.075,2.961879754725887,-1.042380970933638,1.0696906859548605,0.0,11.391117139313076,9.373030318774802,331.960180327811,328.30275680474654,0.0
0.076,2.9401191235828605,-1.1030625177231266,1.60577036355813,0.0,11.30022152449946,9.446982527913617,331.08772129488796,328.30275680474654,0.0
0.077,2.966944988339959,-1.152271660672796,2.014150235118225,0.0,11.230616882337653,9.540842492318061,329.58664047393523,328.30275680474654,0.0
0.078,3.0282482533550246,-1.1884565928970077,2.7518518089026993,0.0,11.180846951947636,9.68894426996248,328.1463008783399,328.30275680474654,0.0
0.079,3.135187550483853,-1.2209828668228933,3.473586165964432,0.0,11.15408023317067,9.87812235030838,326.9913974319648,328.30275680474654,0.0
0.08,3.2871026176369655,-1.2505951688279238,4.064151482879801,0.0,11.151840084787283,10.08780952761652,326.42511866811344,328.30275680474654,0.0
0.081,3.4763172307880645,-1.2677443135653155,4.36606724617181,0.0,11.172382951874111,10.284314596373378,325.10992781815867,328.30275680474654,0.0
0.082,3.6840633332390427,-1.2574212675524339,5.055590961015076,0.0,11.209215012619154,10.515091970824978,323.14694109791435,328.30275680474654,0.0
0.083,3.919214269173718,-1.2387619378379384,6.088642478205556,0.0,11.263492308926384,10.809426101720137,321.28730922982254,328.30275680474654,0.0
0.084,4.203811650931218,-1.2262278133919307,7.088612888000702,0.0,11.340583128300493,11.150466576428087,320.157748237925,328.30275680474654,0.0
0.085,4.542073655374285,-1.2187612670068009,7.734843469617698,0.0,11.443372934350077,11.491834898811405,319.1311915866817,328.30275680474654,0.0
0.08600000000000001,4.9137617909818,-1.201256109639432,8.339837447419974,0.0,11.56816969018648,11.83192932643104,317.7175318210968,328.30275680474654,0.0
0.08700000000000001,5.306461602967423,-1.1704011834009922,9.152519580048919,0.0,11.711277222888649,12.194358983721164,316.1276418443575,328.30275680474654,0.0
0.088,5.726403505945262,-1.132916497411688,10.0,0.0,11.872502201853177,12.577685842213121,314.5202524497146,328.30275680474654,0.0
0.089,6.177356741456359,-1.0912451383766348,10.0,0.0,12.051728366136484,12.884922271676375,312.27272627883036,328.30275680474654,0.0
0.09,6.61319187942444,-1.0206880165853418,10.0,0.0,12.236410987131094,13.135925341800263,309.2432936466853,328.30275680474654,0.0
0.091,7.020882874109594,-0.9198084880379986,10.0,0.0,12.417334476116341,13.339808708975537,312.03344770848054,328.30275680474654,0.0
0.092,7.3930285148556525,-0.804476180993936,10.0,0.0,12.58887619443121,13.504536977796588,325.562204149047,328.30275680474654,0.0
0.093,7.5781853777652355,-0.9241410504419756,5.8326152280620445,0.0,12.774053026506422,13.194888468141256,337.15090116862996,328.30275680474654,0.0
0.094,7.456319468525085,-0.971355365853158,-0.05021472536828053,0.0,12.913744250409337,12.344541864146533,340.85285647047357,328.30275680474654,0.0
0.095,6.898404906481187,-0.8498594626502389,-2.0266933729473564,0.0,12.940594999016055,11.494766633974614,339.4062567547184,328.30275680474654,0.0
0.096,6.125715020628284,-0.673515076617837,-1.4144285145694973,0.0,12.86160022631337,10.899184664401282,337.1738524747824,328.30275680474654,0.0
0.097,5.388950984470464,-0.5596874344177281,-0.38693733130184604,0.0,12.72018913714193,10.535479941209518,336.8496621975378,328.30275680474654,0.0
0.098,4.806019071152093,-0.5408859641238828,-0.3103112466074527,0.0,12.555618799258136,10.24891340900693,337.5354551230706,328.30275680474654,0.0
0.099,4.352988547399757,-0.5773840032387503,-0.7455346925571122,0.0,12.383051640948041,9.96990969481439,337.5471233294971,328.30275680474654,0.0
0.1,3.974945363769278,-0.6306032008363331,-0.843812461017849,0.0,12.205329958394284,9.732145761100739,336.75874619471796,328.30275680474654,0.0
0.101,3.6565927775220572,-0.6948781448315114,-0.5341837875280007,0.0,12.028142102588035,9.566666336922456,336.01530212110447,328.30275680474654,0.0
0.10200000000000001,3.405993700339208,-0.7731673686256958,-0.2395872038848359,0.0,11.860094155121983,9.453707779674868,335.40785368753575,328.30275680474654,0.0
0.10300000000000001,3.2179761982089623,-0.8562392021926764,-0.006913955928367965,0.0,11.705910156132212,9.376064309306718,334.64862493648235,328.30275680474654,0.0
0.10400000000000001,3.080554048575592,-0.933801917933263,0.30924173828097334,0.0,11.567081390400398,9.336453441398227,333.56966817465496,328.30275680474654,0.0
0.105,2.9878144161973714,-1.0037549283997955,0.7960510054955816,0.0,11.445093618444826,9.346135384224198,332.43168713244455,328.30275680474654,0.0
0.106,2.9423830521309697,-1.0690391781986555,1.3237522233238082,0.0,11.342754555340614,9.39989945058449,331.4518805089314,328.30275680474654,0.0
0.107,2.944827864994326,-1.1266548705312953,1.7821642980385226,0.0,11.261710688841461,9.482478276983038,330.3678595561642,328.30275680474654,0.0
0.108,2.9887707959647605,-1.1697626427104018,2.3035237469079552,0.0,11.201194789648449,9.596650978442192,328.8200105841032,328.30275680474654,0.0
0.109,3.069413507555475,-1.202722770154741,3.0722756951448833,0.0,11.161342286817737,9.764272670688214,327.40623568732957,328.30275680474654,0.0
0.11,3.1966131535297926,-1.2332933308453446,3.7881283547058757,0.0,11.145270363896227,9.969017682554643,326.5619262883472,328.30275680474654,0.0
0.111,3.367321554225259,-1.260705049938817,4.2276913593610566,0.0,11.153989717946883,10.175368477241976,325.83168155616204,328.30275680474654,0.0
0.112,3.567768323546019,-1.2665089814064578,4.6175244779394795,0.0,11.182836531331715,10.38010008024439,324.17484368319595,328.30275680474654,0.0
0.113,3.785958706135503,-1.2498647431831444,5.487222545638032,0.0,11.227382918159062,10.637015186154466,322.132703869158,328.30275680474654,0.0
0.114,4.040527482737599,-1.2328407486145552,6.5699929820129,0.0,11.291459979874375,10.957280525880185,320.60924667868824,328.30275680474654,0.0
0.115,4.349762907775313,-1.2242777702919747,7.408656678508354,0.0,11.380384181720927,11.301882131067485,319.6949626792581,328.30275680474654,0.0
0.116,4.705524039046738,-1.212988221158279,7.951876619478316,0.0,11.493719903280073,11.636242182272971,318.4401795758341,328.30275680474654,0.0
0.117,5.084651579614184,-1.1876337576918128,8.67789394347942,0.0,11.62648196231388,11.984783088594542,316.8814234089227,328.30275680474654,0.0
0.11800000000000001,5.487500501676403,-1.1527792011982605,9.571485360893355,0.0,11.777241449496838,12.362258886841689,315.3088458378556,328.30275680474654,0.0
0.11900000000000001,5.922992166399246,-1.1147451988310713,10.0,0.0,11.946837373090753,12.711388156211111,313.42651498970946,328.30275680474654,0.0
0.12,6.367995620763115,-1.0605146206092884,10.0,0.0,12.128801607681503,12.993683481279128,310.82786928676984,328.30275680474654,0.0
0.121,6.791721315300312,-0.9764792373374522,10.0,0.0,12.31209736494229,13.223785905443961,307.4827855715727,328.30275680474654,0.0
0.122,7.186722016508881,-0.8643790908321107,10.0,0.0,12.488583126610619,13.409994842730821,322.40696670409966,328.30275680474654,0.0
0.123,7.469285798369714,-0.8700448634840883,7.331375103859629,0.0,12.667785442297562,13.274550714887779,332.77574998629746,328.30275680474654,0.0
0.124,7.4820752018853565,-0.9179055639692617,2.1022535309452213,0.0,12.820731132958361,12.623472910770442,337.6943539588417,328.30275680474654,0.0
0.125,7.096070485027573,-0.8490849641687697,-0.4509644268678539,0.0,12.885225601158442,11.866823109390138,338.16777621324434,328.30275680474654,0.0
0.126,6.456211835636035,-0.7182026867733851,-0.7863257481541499,0.0,12.853896797884998,11.247454573469009,337.0987784050332,328.30275680474654,0.0
0.127,5.769185320324735,-0.6127884135548167,-0.33978706005145476,0.0,12.753477274066695,10.808537209907122,336.83645745388606,328.30275680474654,0.0
0.128,5.164995121584595,-0.5746000832109588,-0.29396359096927016,0.0,12.616061392668392,10.463635481745916,337.37932738488456,328.30275680474654,0.0
0.129,4.663325740218838,-0.5883390101380961,-0.6561642622699031,0.0,12.459790091859226,10.148323759689944,337.5387820468172,328.30275680474654,0.0
0.13,4.235917844474109,-0.6258639377056017,-0.8282518456569163,0.0,12.291605101688532,9.875606627017346,337.06013147845664,328.30275680474654,0.0
0.131,3.8711839274416993,-0.6778390960638494,-0.67650030821375,0.0,12.118308915411381,9.667602905463676,336.365936438759,328.30275680474654,0.0
0.132,3.573094208452976,-0.7444178134802653,-0.41003458470504395,0.0,11.948345882938801,9.52000618156762,335.7301209978003,328.30275680474654,0.0
0.133,3.3414014465180664,-0.8206223905714221,-0.1664005061562559,0.0,11.78833619762974,9.41681322484214,335.0629756184903,328.30275680474654,0.0
0.134,3.1675990693233724,-0.8969323166975436,0.09956999536130651,0.0,11.641640231281997,9.351560343511817,334.0915231063967,328.30275680474654,0.0
0.135,3.0427892042903317,-0.9680124879128589,0.5274085883916073,0.0,11.510144293008416,9.334556755279594,333.03701894156006,328.30275680474654,0.0
0.136,2.9675495658794766,-1.0345122568858611,1.0073180494418006,0.0,11.396701762613848,9.361643848403322,331.90484162837265,328.30275680474654,0.0
0.137,2.9399179509270557,-1.095894788641861,1.5373858577992459,0.0,11.30339927537454,9.43047342474469,331.0150392351972,328.30275680474654,0.0
0.138,2.960677968445343,-1.1465480794088425,1.9551642300824605,0.0,11.231268031160113,9.521184819519036,329.5788452044301,328.30275680474654,0.0
0.139,3.0172759002451857,-1.1841698438586088,2.6605003614691887,0.0,11.17905291202636,9.663002968801415,328.14165310001533,328.30275680474654,0.0
