timestamp,iq,id,iq_ref,id_ref,vq,vd,omega,omega_ref,r
0.0,0.0,0.0,0.0,0.0,0.0,0.0,0.0,484.2796821546645,0.0
0.001,0.0,0.0,10.0,0.0,0.0,1.0999999999999999,4.468925070049862,484.2796821546645,0.0
0.002,0.4239331331914707,-0.22590158325795542,10.0,0.0,0.13484917415837505,1.9433673553489383,10.270236069711801,484.2796821546645,0.0
0.003,0.9254068125578231,-0.5163440002567574,10.0,0.0,0.370239816473095,2.664960119180435,14.644487759376858,484.2796821546645,0.0
0.004,1.4011394903251078,-0.7956475939112845,10.0,0.0,0.682069642071503,3.2906168130995184,18.898303553426885,484.2796821546645,0.0
0.005,1.8141523936237358,-1.0322156675738323,10.0,0.0,1.0485116066683133,3.844216727601357,23.81711931803162,484.2796821546645,0.0
0.006,2.154275511262077,-1.226443155238535,10.0,0.0,1.4526687091621182,4.34581743320546,28.882462039130335,484.2796821546645,0.0
0.007,2.4276637321763177,-1.3847911762475666,10.0,0.0,1.8820461794012995,4.811002305374353,33.758438544592344,484.2796821546645,0.0
0.008,2.647595935466787,-1.5128395755037916,10.0,0.0,2.327506233541546,5.251147777197463,38.582928122978586,484.2796821546645,0.0
0.009000000000000001,2.8272009584467352,-1.6169146679531772,10.0,0.0,2.7826026056269493,5.674267476757397,43.49478991595656,484.2796821546645,0.0
0.01,2.9770323495763082,-1.7037564668072613,10.0,0.0,3.2430131574092607,6.085899440775426,48.427383346641314,484.2796821546645,0.0
0.011,3.105458743119579,-1.778602145819086,10.0,0.0,3.7059104571179047,6.489780674191419,53.26783327614232,484.2796821546645,0.0
0.012,3.2189283605530754,-1.8449907738854956,10.0,0.0,4.169460442494469,6.888366120254424,58.181992826644326,484.2796821546645,0.0
0.013000000000000001,3.32270585508735,-1.904333159942705,10.0,0.0,4.632377750125308,7.283167192024352,63.03496413567041,484.2796821546645,0.0
0.014,3.418749787623441,-1.9604879859351092,10.0,0.0,5.094067041168647,7.675252829746742,67.67524578843314,484.2796821546645,0.0
0.015,3.5102538578681237,-2.012856042152601,10.0,0.0,5.553994904803893,8.065193824399673,72.3577893880382,484.2796821546645,0.0
0.016,3.5989217933496405,-2.0617117053653744,10.0,0.0,6.011774523932135,8.453295073750317,77.09468461024309,484.2796821546645,0.0
0.017,3.685153593691347,-2.108416457899266,10.0,0.0,6.467235272229216,8.839765341395944,81.7609969064944,484.2796821546645,0.0
0.018000000000000002,3.769812600006808,-2.152795519784199,10.0,0.0,6.920211621743158,9.224684484415436,86.40213158671747,484.2796821546645,0.0
0.019,3.8536311047131986,-2.194408717485182,10.0,0.0,7.3705159117359145,9.608035902629823,91.17552561527084,484.2796821546645,0.0
0.02,3.9372768520583525,-2.2326248063944556,10.0,0.0,7.817912552353843,9.98971976086115,95.73430408754822,484.2796821546645,0.0
0.021,4.0204997440480845,-2.268175853313553,10.0,0.0,8.262266369005122,10.36965683668571,100.24823996855646,484.2796821546645,0.0
0.022,4.102762451618093,-2.3022132984651327,10.0,0.0,8.70356712007121,10.74781891768014,104.53995558201518,484.2796821546645,0.0
0.023,4.1867503736028,-2.3304122467979216,10.0,0.0,9.141315513995222,11.12387882133912,108.87342663227699,484.2796821546645,0.0
0.024,4.269014407827905,-2.358714724221172,10.0,0.0,9.575726341925963,11.497898409479689,112.31736001050189,484.2796821546645,0.0
0.025,4.3552288097331315,-2.3778390371036053,10.0,0.0,10.00591869552052,11.869296177731952,116.79343790747423,484.2796821546645,0.0
0.026000000000000002,4.442398755877315,-2.392931564401496,10.0,0.0,10.43170052545479,12.237846854461635,120.56823928251562,484.2796821546645,0.0
0.027,4.527200627661598,-2.4098125568193978,10.0,0.0,10.853465223961592,12.60366414007695,122.92602618380607,484.2796821546645,0.0
0.028,4.621609031856021,-2.4088837114184996,10.0,0.0,11.269364198260968,12.965539261237868,128.48810743115953,484.2796821546645,0.0
0.029,4.713549162963052,-2.4103289200476357,10.0,0.0,11.680029048649716,13.3236474373328,132.16715978220802,484.2796821546645,0.0
0.03,4.803884994689255,-2.4132093036176823,10.0,0.0,12.085740621715491,13.677993740678303,131.4770421883585,484.2796821546645,0.0
0.031,4.896650261319419,-2.4113296107841866,10.0,0.0,12.486080097761857,14.02817574998378,135.70384215429223,484.2796821546645,0.0
0.032,5.015805921943059,-2.3653122974272986,10.0,0.0,12.876360719593208,14.371194035961043,141.0734837330953,484.2796821546645,0.0
0.033,5.107648534478089,-2.363706701005521,10.0,0.0,13.262198665366329,14.710027424751104,135.41085799785375,484.2796821546645,0.0
0.034,5.217117180093787,-2.3338805284558624,10.0,0.0,13.640071332424892,15.042438144347086,147.07064062672765,484.2796821546645,0.0
0.035,5.347083278750364,-2.270837896541982,10.0,0.0,14.00676137695217,15.366193474293265,144.36267443843855,484.2796821546645,0.0
0.036000000000000004,5.4426016056041,-2.2650548517672533,10.0,0.0,14.369152241415257,15.6850349207302,148.65765454120475,484.2796821546645,0.0
0.037,5.591678176749216,-2.1734078874336538,10.0,0.0,14.717164828446782,15.99278806941234,149.79621581719385,484.2796821546645,0.0
0.038,5.693327040233751,-2.160578117571038,10.0,0.0,15.060656666601812,16.294876552657556,151.2998333294464,484.2796821546645,0.0
0.039,5.851914240565035,-2.057147637511388,10.0,0.0,15.388759114157931,16.58467726799217,152.36889552850923,484.2796821546645,0.0
0.04,5.9625987276037655,-2.0339603043810612,10.0,0.0,15.711515086648157,16.867718734977984,154.97638375514003,484.2796821546645,0.0
0.041,6.13056932574634,-1.919967480915568,10.0,0.0,16.017992271338045,17.137361731588943,151.64717854583375,484.2796821546645,0.0
0.042,6.254483641803198,-1.8803742557797465,10.0,0.0,16.31757071068975,17.398737278222967,158.74302024044434,484.2796821546645,0.0
0.043000000000000003,6.41832511513075,-1.7786967299299343,10.0,0.0,16.602540265177566,17.64714969522329,151.5334835251083,484.2796821546645,0.0
0.044,6.573780109170237,-1.6929448104036924,10.0,0.0,16.87543817002724,17.883756191361293,157.3369967909671,484.2796821546645,0.0
0.045,6.716405022617002,-1.6318279711108876,10.0,0.0,17.138841600878813,18.109857637831727,158.9228139808515,484.2796821546645,0.0
0.046,6.898679394006462,-1.507716125405158,10.0,0.0,17.385473698657563,18.321065351021893,151.3421003822894,484.2796821546645,0.0
0.047,7.056392927220424,-1.4263120149063564,10.0,0.0,17.620850024279648,18.520289757731284,155.50872296859123,484.2796821546645,0.0
0.048,7.206415912575299,-1.3612412422299554,10.0,0.0,17.846267414121037,18.70820396327503,159.56420139843564,484.2796821546645,0.0
0.049,7.3870198836837355,-1.2471196678787888,10.0,0.0,18.056031820080804,18.88150228028017,155.87123179761466,484.2796821546645,0.0
0.05,7.569391845742064,-1.1306305688673195,10.0,0.0,18.250477031997356,19.04019233006545,155.192621644135,484.2796821546645,0.0
0.051000000000000004,7.6639255954283625,-1.1635706460099073,10.0,0.0,18.446135027176584,19.19388290321894,162.00707778894557,484.2796821546645,0.0
0.052000000000000005,7.71608118391787,-1.2636677150966351,10.0,0.0,18.64827755698135,19.34697844133802,171.00734744962148,484.2796821546645,0.0
0.053,7.7759630350457964,-1.3423245050032349,10.0,0.0,18.853166663816406,19.498913230886494,168.7349750063369,484.2796821546645,0.0
0.054,7.821949337498217,-1.4347532573225852,10.0,0.0,19.06214093377887,19.65168377740514,172.61709774626686,484.2796821546645,0.0
0.055,7.823110694816119,-1.596682981629867,10.0,0.0,19.28238281354756,19.810406809987732,183.25729143247935,484.2796821546645,0.0
0.056,7.855587742989734,-1.6962622252338915,10.0,0.0,19.505807228150996,19.971720865562997,178.84418608762425,484.2796821546645,0.0
0.057,7.86288731168722,-1.8309909021072062,10.0,0.0,19.736844968871647,20.13876777496609,191.29914739479423,484.2796821546645,0.0
0.058,7.852694940100192,-1.9897622450124008,10.0,0.0,19.977601187411388,20.313407924062506,189.80149731805153,484.2796821546645,0.0
0.059000000000000004,7.865480754623727,-2.1005103008400283,10.0,0.0,20.222340371718783,20.493151316789785,200.01728463256205,484.2796821546645,0.0
0.06,7.831731768128172,-2.286019937201694,10.0,0.0,20.479878556309664,20.683234535334822,199.3307798703679,484.2796821546645,0.0
0.061,7.834382383116208,-2.3998169497116595,10.0,0.0,20.741333819308448,20.87943419297081,211.93903108600875,484.2796821546645,0.0
0.062,7.790168731792125,-2.5881834275490303,10.0,0.0,21.015845864207964,21.087049418938598,207.31649767478208,484.2796821546645,0.0
0.063,7.767861044713634,-2.7297341204925702,10.0,0.0,21.29735513865971,21.30336603586495,223.16988866417736,484.2796821546645,0.0
0.064,7.735007097010275,-2.88004197649072,10.0,0.0,21.58746350458929,21.529592775920435,222.48533789896373,484.2796821546645,0.0
0.065,7.669382731961216,-3.079000698089911,10.0,0.0,21.891566088747396,21.769097819241694,227.22595234289997,484.2796821546645,0.0
0.066,7.6486054291445,-3.188178858925434,10.0,0.0,22.19922892929771,22.016691876305973,240.13069813855813,484.2796821546645,0.0
0.067,7.580972626710225,-3.3679425308994686,10.0,0.0,22.51956711380823,22.27752464695847,238.6500010037549,484.2796821546645,0.0
0.068,7.512754325252836,-3.538540192160095,10.0,0.0,22.850922862951876,22.551135644132742,244.10393933028027,484.2796821546645,0.0
0.069,7.4767257295027125,-3.640642983498747,10.0,0.0,23.186029467333213,22.83380207902188,253.8680356735978,484.2796821546645,0.0
0.07,7.412128847343786,-3.7801334598229013,10.0,0.0,23.53021497924761,23.128457901940227,258.4743687133304,484.2796821546645,0.0
0.07100000000000001,7.347364540114565,-3.9098092671208033,10.0,0.0,23.882316956301935,23.434544798731796,257.94832558319484,484.2796821546645,0.0
0.07200000000000001,7.2963773923566855,-4.005941148993758,10.0,0.0,24.239095174263028,23.75019414673072,265.0513222216391,484.2796821546645,0.0
0.073,7.274302845069004,-4.043148708442654,10.0,0.0,24.59489201794855,24.071874710449933,276.048682504705,484.2796821546645,0.0
0.074,7.230792694464493,-4.109935513701134,10.0,0.0,24.95425170662139,24.40153227325939,275.5586634172063,484.2796821546645,0.0
0.075,7.1899486469637015,-4.169834526718248,10.0,0.0,25.31656220608718,24.738217792374222,269.9587415101139,484.2796821546645,0.0
0.076,7.207276928564134,-4.131200749950413,10.0,0.0,25.67146150194325,25.075151258073106,280.39823222907063,484.2796821546645,0.0
0.077,7.246987418172239,-4.056053320396703,10.0,0.0,26.016684335300376,25.409686435746817,286.8989439444777,484.2796821546645,0.0
0.078,7.261499118033299,-4.029440180092887,10.0,0.0,26.35866243195126,25.744091196900225,277.01646874160986,484.2796821546645,0.0
0.079,7.3217843122769874,-3.9395170831382913,10.0,0.0,26.690257785790443,26.072767037235188,280.2612435812958,484.2796821546645,0.0
0.08,7.452030838527678,-3.7476275428381234,10.0,0.0,27.00135256981573,26.388010562975445,288.92828200253695,484.2796821546645,0.0
0.081,7.548470074845273,-3.6272488238284493,10.0,0.0,27.30153946432445,26.69353336381177,273.98713959028794,484.2796821546645,0.0
0.082,7.69259947555704,-3.45178283255292,10.0,0.0,27.584162477615717,26.98363273230022,281.66235671667437,484.2796821546645,0.0
0.083,7.8999277311862075,-3.195551080810418,10.0,0.0,27.84110229364778,27.251619651156854,276.61935213355093,484.2796821546645,0.0
0.084,8.06025876197447,-3.0390983556721824,10.0,0.0,28.084499337714522,27.50293872890062,272.173239969368,484.2796821546645,0.0
0.085,8.331402156991462,-2.729647641102509,10.0,0.0,28.296213533797687,27.72524314013269,271.8793242777225,484.2796821546645,0.0
0.08600000000000001,8.531921875107285,-2.5577405201019987,10.0,0.0,28.49317147523138,27.927142794807303,267.2529900488476,484.2796821546645,0.0
0.08700000000000001,8.84426601364544,-2.2302254243918704,10.0,0.0,28.65631599867106,28.096195620099785,258.32301679139175,484.2796821546645,0.0
0.088,9.079188387200846,-2.049096527721526,10.0,0.0,28.80340232461938,28.241939595501275,265.7670288838174,484.2796821546645,0.0
0.089,9.394259612288451,-1.7601505655700258,10.0,0.0,28.920381648643055,28.35550919493336,249.36550612647213,484.2796821546645,0.0
0.09,9.704135728517814,-1.494402836160346,10.0,0.0,29.01067720959402,28.438484106290254,245.24965126307183,484.2796821546645,0.0
0.091,9.97601597546888,-1.3074597338667466,10.0,0.0,29.082334441627385,28.495383016604244,250.65360825302454,484.2796821546645,0.0
0.092,10.289627955984049,-1.064793266504389,10.0,0.0,29.12769196110189,28.521979243703,252.24510236930698,484.2796821546645,0.0
0.093,10.500482579421796,-1.0002159911039326,10.0,0.0,29.16649651571838,28.530393711266328,250.1360333418398,484.2796821546645,0.0
0.094,10.555946806457246,-1.177276184536899,10.0,0.0,29.2223844556612,28.53785466879546,259.59878937839653,484.2796821546645,0.0
0.095,10.532676667051561,-1.462058483237871,10.0,0.0,29.302985148285426,28.553272682170935,271.5895792703967,484.2796821546645,0.0
0.096,10.526122120917922,-1.6842030997482205,10.0,0.0,29.398655657813897,28.57569726215193,266.1182980336308,484.2796821546645,0.0
0.097,10.443395929056244,-2.0010950587289464,10.0,0.0,29.5196382437104,28.614480770731106,285.7946427091507,484.2796821546645,0.0
0.098,10.350353410292845,-2.3034516154346454,10.0,0.0,29.66249122352299,28.670891602187393,279.8046967400457,484.2796821546645,0.0
0.099,10.243681561062536,-2.5958614790350723,10.0,0.0,29.825841507928953,28.746750126707006,299.9990014176179,484.2796821546645,0.0
0.1,10.10743404756549,-2.9083723296907125,10.0,0.0,30.01189471128238,28.84527833520761,294.7198868359627,484.2796821546645,0.0
0.101,9.95031133899791,-3.2273187521902647,10.0,0.0,30.221154413118924,28.96848006600098,310.837320595816,484.2796821546645,0.0
0.10200000000000001,9.813549024515645,-3.4796491153022453,10.0,0.0,30.446375193568482,29.113760221406036,317.8078959900558,484.2796821546645,0.0
0.10300000000000001,9.604118538923977,-3.829455833385178,10.0,0.0,30.69955734687158,29.2887041695858,316.0624669068491,484.2796821546645,0.0
0.10400000000000001,9.446389523630781,-4.060882492220393,10.0,0.0,30.966874544953395,29.486727825104232,333.07229884970604,484.2796821546645,0.0
0.105,9.27507360101152,-4.2851302843674475,10.0,0.0,31.249615379326706,29.70894829621419,339.30530789044116,484.2796821546645,0.0
0.106,9.066421230739984,-4.54847272070254,10.0,0.0,31.553029367449053,29.95845940515416,338.6738480105915,484.2796821546645,0.0
0.107,8.903279835318418,-4.711413745679547,10.0,0.0,31.86634315603729,30.22921983180602,344.7089890471716,484.2796821546645,0.0
0.108,8.768138059849427,-4.805641182205655,10.0,0.0,32.184137216199986,30.517469775998894,355.9221792115838,484.2796821546645,0.0
0.109,8.632664125510217,-4.8871013134180465,10.0,0.0,32.506995204833814,30.822224846811384,356.4225769811024,484.2796821546645,0.0
0.11,8.5102853373396,-4.943389859761225,10.0,0.0,32.83342004047112,31.140897136761367,347.4544443017567,484.2796821546645,0.0
0.111,8.467674690038642,-4.871154805576602,10.0,0.0,33.15056088011596,31.463808064601487,354.83813727322087,484.2796821546645,0.0
0.112,8.493100257472978,-4.697450024264652,10.0,0.0,33.44989355317786,31.78291906473129,363.33036063734596,484.2796821546645,0.0
0.113,8.501276769281137,-4.57555084736622,10.0,0.0,33.739532197300846,32.09940707152976,346.55067522467715,484.2796821546645,0.0
0.114,8.585288969801937,-4.366436737189448,10.0,0.0,34.010072217340905,32.404050565121466,347.93945797652106,484.2796821546645,0.0
0.115,8.784223750768396,-4.01019813758091,10.0,0.0,34.24692747988097,32.6842410074569,352.1877069830827,484.2796821546645,0.0
0.116,8.94372583607826,-3.7630410299062587,10.0,0.0,34.46449136455244,32.94454205023838,331.0394647704879,484.2796821546645,0.0
0.117,9.223485989061219,-3.375859415186055,10.0,0.0,34.64621055849243,33.171390781233825,342.29866519458,484.2796821546645,0.0
0.11800000000000001,9.513853428810664,-3.0217363826775068,10.0,0.0,34.71743599765572,33.29458810690061,318.2477001125085,484.2796821546645,0.0
0.11900000000000001,9.84073801323451,-2.646822719436177,10.0,0.0,34.78679257302283,33.41355076310692,327.0262835423742,484.2796821546645,0.0
0.12,10.178055155409904,-2.3071198445657948,10.0,0.0,34.87873883098749,33.537178509598526,309.57824351074515,484.2796821546645,0.0
0.121,10.597355405966306,-1.8848825184024491,10.0,0.0,34.99234846527623,33.65743975315985,300.4996525596768,484.2796821546645,0.0
0.122,10.965750416601308,-1.5874386889732506,10.0,0.0,35.04426576176574,33.71173381009392,306.1888696437079,484.2796821546645,0.0
0.123,11.401464292121654,-1.2123816470745163,10.0,0.0,35.02850016088702,33.700483437293734,294.13407308851737,484.2796821546645,0.0
0.124,11.855324975425667,-0.8251039852789779,10.0,0.0,34.97433611043762,33.64321400527746,294.3280185542678,484.2796821546645,0.0
0.125,11.973261628580932,-1.001387050346878,10.0,0.0,34.94312543560697,33.57782068640382,310.53072851984285,484.2796821546645,0.0
0.126,11.980897582396539,-1.3308224474742159,10.0,0.0,34.94297155940536,33.51618504354633,319.1140438614018,484.2796821546645,0.0
0.127,11.971406862498,-1.6347378860396322,10.0,0.0,34.966805850809074,33.46181791608141,318.0162086160077,484.2796821546645,0.0
0.128,11.839197095657221,-2.0877389563274398,10.0,0.0,35.02961096367193,33.429719097656864,338.85832632933233,484.2796821546645,0.0
0.129,11.707872542251787,-2.480376164346355,10.0,0.0,35.121585765585245,33.42023427556724,334.83697986487795,484.2796821546645,0.0
0.13,11.508127984239188,-2.9308913214343475,10.0,0.0,35.24904490029776,33.44155407172525,354.87169763685375,484.2796821546645,0.0
0.131,11.314615881481046,-3.3130850374757,10.0,0.0,35.40342625834849,33.492776687461976,357.69724320244165,484.2796821546645,0.0
0.132,11.037752955601764,-3.7850740479600997,10.0,0.0,35.59558859616068,33.582834978249245,363.15254771721993,484.2796821546645,0.0
0.133,10.81373713195636,-4.112254059614976,10.0,0.0,35.808810440447594,33.7049767850812,383.56641451937634,484.2796821546645,0.0
0.134,10.527944073420246,-4.493434468010846,10.0,0.0,36.051582325796,33.86542367386117,382.69146394730257,484.2796821546645,0.0
0.135,10.229283176369508,-4.852162109913526,10.0,0.0,36.32176994801289,34.06409783038821,386.3180426097109,484.2796821546645,0.0
0.136,9.990829467143547,-5.06473854242401,10.0,0.0,36.604602354817935,34.2931666325286,399.2991490595509,484.2796821546645,0.0
0.137,9.749374022324856,-5.245220558664766,10.0,0.0,36.89978565861789,34.55178735697322,405.94538056809085,484.2796821546645,0.0
0.138,9.513892536397591,-5.39321741359988,10.0,0.0,37.00448194569498,34.48027705117657,396.7531946513208,484.2796821546645,0.0
0.139,9.251788294025582,-5.389727445326679,10.0,0.0,36.90858323060476,34.222700780104596,388.3497398106059,484.2796821546645,0.0
0.14,9.00881886166065,-5.207375526052967,10.0,0.0,36.74688870170226,34.057103386772724,391.5805641410342,484.2796821546645,0.0
0.14100000000000001,8.826437874425972,-4.971965258771862,10.0,0.0,36.54737262721482,33.97239015831817,389.7088832891307,484.2796821546645,0.0
0.14200000000000002,8.68459065226433,-4.805354728842419,10.0,0.0,36.341165090767355,33.95438518065169,367.92063391195245,484.2796821546645,0.0
0.14300000000000002,8.703333762410361,-4.53617234716926,10.0,0.0,36.144160233571284,33.98858461256674,370.87366395274955,484.2796821546645,0.0
0.14400000000000002,8.853103628524567,-4.202827585044094,10.0,0.0,35.96994070983879,34.05968097034267,363.18943090659593,484.2796821546645,0.0
0.145,9.00342400754769,-4.000237032896717,10.0,0.0,35.83668523165944,34.15588915485296,345.44186666493624,484.2796821546645,0.0
0.146,9.335338259846944,-3.6132465888271357,10.0,0.0,35.741925647270534,34.264332778266656,351.0823318365977,484.2796821546645,0.0
0.147,9.631226823181933,-3.363678641106999,10.0,0.0,35.69623323542809,34.3788527863215,330.08519617536325,484.2796821546645,0.0
0.148,10.06665256285546,-2.9508581292934815,10.0,0.0,35.69225146421576,34.48952465939269,328.0191241124692,484.2796821546645,0.0
0.149,10.434540095751817,-2.6874506273196515,10.0,0.0,35.73658439868734,34.59538459783281,326.9772698253756,484.2796821546645,0.0
0.15,10.936157720664209,-2.2361362726307714,10.0,0.0,35.81741721289384,34.68780873069248,303.587574422049,484.2796821546645,0.0
0.151,11.391034122232876,-1.871462132261966,10.0,0.0,35.937148230742544,34.76797188540675,300.6856316693195,484.2796821546645,0.0
