timestamp,iq,id,iq_ref,id_ref,vq,vd,omega,omega_ref,r
0.0,0.0,0.0,0.0,0.0,0.0,0.0,0.0,293.2512110194556,0.0
0.001,0.0,0.0,10.0,0.0,0.0,1.0999999999999999,4.696689553648065,293.2512110194556,0.0
0.002,0.5153176163491358,-0.2957809440315982,10.0,0.0,0.14253590384347584,1.9333150622015944,8.772061872228111,293.2512110194556,0.0
0.003,0.900288019305215,-0.5148192489512655,10.0,0.0,0.3752861276236109,2.6603586404057005,13.130714935971932,293.2512110194556,0.0
0.004,1.202493293744226,-0.6863176156439768,10.0,0.0,0.6741401241331446,3.308580007008679,17.62514280557294,293.2512110194556,0.0
0.005,1.444335385977562,-0.8230805671096365,10.0,0.0,1.0212597986463188,3.8982840592010355,22.219382008565486,293.2512110194556,0.0
0.006,1.6414220925776892,-0.9342645718567009,10.0,0.0,1.4035005219349304,4.444468556821793,26.895671722737564,293.2512110194556,0.0
0.007,1.805357642915504,-1.0263323658714463,10.0,0.0,1.8111512399509084,4.958196633538179,31.576393483103374,293.2512110194556,0.0
0.008,1.9447415296788815,-1.1039551350973256,10.0,0.0,2.2370275205116266,5.447624102343929,36.34185525162121,293.2512110194556,0.0
0.009000000000000001,2.0653059769444115,-1.171614038304806,10.0,0.0,2.6759251715574126,5.918828201993602,41.092103679236516,293.2512110194556,0.0
0.01,2.172271567092195,-1.2308820726645993,10.0,0.0,3.12389636221109,6.376241086339285,45.80818155878458,293.2512110194556,0.0
0.011,2.268998746579575,-1.2837519689162755,10.0,0.0,3.578034730478054,6.823139467473637,50.637715736359894,293.2512110194556,0.0
0.012,2.3573787735769383,-1.3326886005622767,10.0,0.0,4.0363034305503005,7.26200731614641,55.38072447427107,293.2512110194556,0.0
0.013000000000000001,2.4399761780948093,-1.3774828067898341,10.0,0.0,4.4970700418511695,7.694613335732139,60.065752380606085,293.2512110194556,0.0
0.014,2.5178581886082014,-1.419390976359949,10.0,0.0,4.9591825505709615,8.122294367378085,64.76133001105644,293.2512110194556,0.0
0.015,2.592132231186637,-1.4587834201205931,10.0,0.0,5.421765998701341,8.546027222152928,69.43201791516374,293.2512110194556,0.0
0.016,2.6635885363496064,-1.4959747885226538,10.0,0.0,5.884161513582785,8.966527683121175,74.07377572653822,293.2512110194556,0.0
0.017,2.7328393338647223,-1.531149800942234,10.0,0.0,6.345864860755045,9.384314624805713,78.68265321498136,293.2512110194556,0.0
0.018000000000000002,2.8003647825320876,-1.564403169502619,10.0,0.0,6.8064826877959765,9.799757915660763,83.2475535467884,293.2512110194556,0.0
0.019,2.8666299733460288,-1.5956293820960328,10.0,0.0,7.2656854109179925,10.213104743631545,87.73165381248843,293.2512110194556,0.0
0.02,2.932217541533392,-1.6243643309789857,10.0,0.0,7.7231511267760755,10.624485180524974,92.17310751188134,293.2512110194556,0.0
0.021,2.997019862246444,-1.651203660890908,10.0,0.0,8.178673291539175,11.034001765718312,96.55797051009631,293.2512110194556,0.0
0.022,3.06147308970569,-1.6757484264935292,10.0,0.0,8.63202642926247,11.441677077055232,100.86465512152662,293.2512110194556,0.0
0.023,3.12584704255064,-1.6978342444735373,10.0,0.0,9.082995776668898,11.847483568492443,105.08094294501377,293.2512110194556,0.0
0.024,3.190435220905589,-1.7172341568564242,10.0,0.0,9.531361970660722,12.251345385435977,109.19729445600437,293.2512110194556,0.0
0.025,3.255519438804095,-1.7337320952598676,10.0,0.0,9.97689850104827,12.65314425789906,113.20271256190208,293.2512110194556,0.0
0.026000000000000002,3.321386080114319,-1.7471068767858062,10.0,0.0,10.41936751222719,13.052722407789448,117.08362543884279,293.2512110194556,0.0
0.027,3.388322305861763,-1.7571464682150442,10.0,0.0,10.858518044519208,13.449885325389573,120.8236236742369,293.2512110194556,0.0
0.028,3.456618774112565,-1.7636487509511332,10.0,0.0,11.294084670528722,13.844403755208772,124.40638533504496,293.2512110194556,0.0
0.029,3.526580247703611,-1.7664069759382612,10.0,0.0,11.725784858840424,14.236014207234497,127.817779827614,293.2512110194556,0.0
0.03,3.598499877963998,-1.7652535710236292,10.0,0.0,12.153321616733045,14.62442208829608,131.0455897972693,293.2512110194556,0.0
0.031,3.6726752883463156,-1.760032768067425,10.0,0.0,12.576382732666529,15.009302758201324,134.07648658312286,293.2512110194556,0.0
0.032,3.7494125659859936,-1.7505916351230963,10.0,0.0,12.994639487402875,15.390302126272847,136.89864559242784,293.2512110194556,0.0
0.033,3.829017388677566,-1.7367913340320653,10.0,0.0,13.407746881682169,15.767038075291174,139.51955465218427,293.2512110194556,0.0
0.034,3.911671652237257,-1.7187069068156173,10.0,0.0,13.815365847452467,16.13911524807095,141.9806051591262,293.2512110194556,0.0
0.035,3.9971338276307327,-1.6971199025786496,10.0,0.0,14.21723690772981,16.506172303492097,144.1388836988337,293.2512110194556,0.0
0.036000000000000004,4.087248750405654,-1.6693523456417725,10.0,0.0,14.61278800630085,16.867652739647554,146.0141761215498,293.2512110194556,0.0
0.037,4.180789301065735,-1.6377895412273533,10.0,0.0,15.00173780571411,17.223151930699714,147.59675143262643,293.2512110194556,0.0
0.038,4.277749398336623,-1.6028082579179996,10.0,0.0,15.383810231171378,17.572265977394775,149.25586002741304,293.2512110194556,0.0
0.039,4.380818507725008,-1.5602711523999324,10.0,0.0,15.758257549978527,17.914307860906057,150.67135556004496,293.2512110194556,0.0
0.04,4.488310062260084,-1.5132190195762638,10.0,0.0,16.12471396170067,18.24879690804194,152.03940494538,293.2512110194556,0.0
0.041,4.600419642558517,-1.4615979221891906,10.0,0.0,16.482765837579848,18.575225553348982,153.44502344363087,293.2512110194556,0.0
0.042,4.716918139113224,-1.40597363990204,10.0,0.0,16.83205293032409,18.89312278289519,155.05813230760552,293.2512110194556,0.0
0.043000000000000003,4.8369569978160465,-1.3479077970981075,10.0,0.0,17.172370036862972,19.20211970926945,156.8215092619852,293.2512110194556,0.0
0.044,4.958637707404308,-1.290698384804622,10.0,0.0,17.503842748461146,19.50206416419249,158.44070686425562,293.2512110194556,0.0
0.045,5.082134815075666,-1.2341794747137653,10.0,0.0,17.82651764840475,19.79279357003507,159.88744740872744,293.2512110194556,0.0
0.046,5.2086547311905615,-1.176379633858758,10.0,0.0,18.140205205545115,20.07403530559184,161.28293917235064,293.2512110194556,0.0
0.047,5.3348176488630354,-1.1230209985992332,10.0,0.0,18.445356729057107,20.345908901524133,161.5421195074995,293.2512110194556,0.0
0.048,5.4605893814613715,-1.074281899544391,10.0,0.0,18.742352745267702,20.608537028805316,158.28454807136447,293.2512110194556,0.0
0.049,5.594912788426079,-1.0148799315571306,10.0,0.0,19.029865147097304,20.861084087539293,160.86544926763767,293.2512110194556,0.0
0.05,5.7472286021782555,-0.9281456894954183,10.0,0.0,19.304934267670426,21.101716175139746,165.01285583570854,293.2512110194556,0.0
0.051000000000000004,5.817799806450642,-0.982050298440821,10.0,0.0,19.583356534350887,21.339552291705022,165.7459518783828,293.2512110194556,0.0
0.052000000000000005,5.874876102533343,-1.0473297876600172,10.0,0.0,19.864361883744497,21.575874342755455,173.08350246438576,293.2512110194556,0.0
0.053,5.921597034000365,-1.1230549238753227,10.0,0.0,20.148575873395277,21.812096184139648,178.74668060720043,293.2512110194556,0.0
0.054,5.951373784398018,-1.2222005094189616,10.0,0.0,20.43813941126705,22.05030900712143,183.4831686713022,293.2512110194556,0.0
0.055,5.97452524211595,-1.3272576624635084,10.0,0.0,20.733132708629288,22.29140800874722,186.04357297781863,293.2512110194556,0.0
0.056,5.994974914337538,-1.4310541825827463,10.0,0.0,21.033103622100544,22.535878490579453,189.50670687815096,293.2512110194556,0.0
0.057,6.0223904792933975,-1.5159547747765312,10.0,0.0,21.335825592348023,22.783087800152664,195.0916969698905,293.2512110194556,0.0
0.058,6.040002961673206,-1.6112655975390617,10.0,0.0,21.642631481110023,23.034185158381085,200.60497236460628,293.2512110194556,0.0
0.059000000000000004,6.046733016260632,-1.7187605187590744,10.0,0.0,21.954737849925227,23.290289188482035,206.1908205361062,293.2512110194556,0.0
0.06,6.044116415490871,-1.8350896859931223,10.0,0.0,22.27296524405256,23.55234857908497,211.9725203284134,293.2512110194556,0.0
0.061,6.033634315524122,-1.956828423138576,10.0,0.0,22.59780380724112,23.821151635028986,218.26141971340311,293.2512110194556,0.0
0.062,6.016530944648968,-2.080957089922547,10.0,0.0,22.929475585679995,24.09733479149405,225.17410083617517,293.2512110194556,0.0
0.063,5.994485105795678,-2.203674089995424,10.0,0.0,23.267856085261673,24.381320818721605,232.38370960023863,293.2512110194556,0.0
0.064,5.96908929451663,-2.3213810102923516,10.0,0.0,23.612517728839865,24.673319374036744,239.5410030045685,293.2512110194556,0.0
0.065,5.941158695403602,-2.4320020702032394,10.0,0.0,23.96290431097899,24.973402645967823,245.96265640055995,293.2512110194556,0.0
0.066,5.912482852409602,-2.531906987280986,10.0,0.0,24.318143892376757,25.281391285657925,250.20326355301557,293.2512110194556,0.0
0.067,5.875855594026646,-2.633842162399765,10.0,0.0,24.678872199696027,25.59784725951096,256.61173754426045,293.2512110194556,0.0
0.068,5.829368818265767,-2.741467100864183,10.0,0.0,25.04599266514858,25.923477739460505,262.8454566720844,293.2512110194556,0.0
0.069,5.785650788365645,-2.832606475549552,10.0,0.0,25.417913213881587,26.257601333491746,269.01869712492606,293.2512110194556,0.0
0.07,5.743319586564555,-2.9105575797756944,10.0,0.0,25.79371729486244,26.599723874892284,275.14376683673,293.2512110194556,0.0
0.07100000000000001,5.709255694984294,-2.9649163722861758,10.0,0.0,26.171353178019146,26.94853828630668,278.06027959343976,293.2512110194556,0.0
0.07200000000000001,5.663358243944035,-3.0329268384438524,10.0,0.0,26.553044477353858,27.30494292559392,284.5744485527406,293.2512110194556,0.0
0.073,5.654658794681818,-3.032446434788714,10.0,0.0,26.93147416162017,27.66437419579435,284.45798792286377,293.2512110194556,0.0
0.074,5.635113458793187,-3.0488664753476047,10.0,0.0,27.309815012977953,28.0277682998565,291.4617697853164,293.2512110194556,0.0
0.075,5.640610778406554,-3.0254822355866344,7.722007157828617,0.0,27.683924722826863,28.141277707493003,290.4358839459036,293.2512110194556,0.0
0.076,5.567884508484158,-2.8823079392631623,8.26310334827054,0.0,28.016459072256552,28.371202517608673,290.5168165088952,293.2512110194556,0.0
0.077,5.52699555345197,-2.8248863928108694,8.249981011880335,0.0,28.33384784060833,28.608304385102713,294.5762127431138,293.2512110194556,0.0
0.078,5.5504948462785295,-2.699361466939105,6.207032877534462,0.0,28.629974392492965,28.62584805950715,290.4741073698656,293.2512110194556,0.0
0.079,5.516287907609132,-2.47964152342392,8.285856600654466,0.0,28.87532871210161,28.924347868728155,286.8040709933287,293.2512110194556,0.0
0.08,5.600926772648557,-2.3884539387303176,10.0,0.0,29.11816414579037,29.37564832114371,288.0799787118502,293.2512110194556,0.0
0.081,5.790223654503521,-2.3239216739410997,9.595397729215808,0.0,29.375659408071918,29.724478319553207,288.4451620380198,293.2512110194556,0.0
0.082,5.978637028768757,-2.1854093061466373,9.460866555945344,0.0,29.627697106156763,30.034589935647382,287.03452252238094,293.2512110194556,0.0
0.083,6.170950700138612,-2.026717486873939,10.0,0.0,29.869471219600488,30.380273780411304,284.60624992289877,293.2512110194556,0.0
0.084,6.401503565279552,-1.87483042621515,10.0,0.0,30.106515647696494,30.686737639150856,280.82901692628184,293.2512110194556,0.0
0.085,6.631386206936485,-1.7211874403837055,10.0,0.0,30.33512016102199,30.9632779928952,277.4402198802038,293.2512110194556,0.0
0.08600000000000001,6.862317821191393,-1.5703291349893536,10.0,0.0,30.553460274654295,31.21192111144619,273.0460302990474,293.2512110194556,0.0
0.08700000000000001,7.093882672365186,-1.4261195222731018,10.0,0.0,30.76047621443363,31.43437111201875,266.3267847373911,293.2512110194556,0.0
0.088,7.334492028470883,-1.2761164188473244,10.0,0.0,30.953977315042614,31.631126325852094,260.039232392896,293.2512110194556,0.0
0.089,7.603011644814978,-1.088363781048272,10.0,0.0,31.1286510678504,31.800425064126205,259.92481964395824,293.2512110194556,0.0
0.09,7.865520880051365,-0.9189621808903993,10.0,0.0,31.28603066956544,31.944070484141122,256.9414489885915,293.2512110194556,0.0
0.091,8.0650866032335,-0.8655636210625991,10.0,0.0,31.437857027531,32.06976218512838,261.9987800798652,293.2512110194556,0.0
0.092,8.121781897630662,-1.0221022006876468,10.0,0.0,31.604823149155752,32.19382652666161,273.05088227675805,293.2512110194556,0.0
0.093,8.121707430216803,-1.2323672197316662,10.0,0.0,31.789062859069947,32.32275619056349,280.1888299288916,293.2512110194556,0.0
0.094,8.083491563258004,-1.479324789715819,10.0,0.0,31.992834246890716,32.46141985975792,286.1057790048701,293.2512110194556,0.0
0.095,8.039941923980235,-1.7074000029232828,10.0,0.0,32.21271356060184,32.611002602465945,293.37656485212807,293.2512110194556,0.0
0.096,7.98524964571136,-1.926170210527233,7.625985438182628,0.0,32.44734718791701,32.51205405469117,301.9617316132696,293.2512110194556,0.0
0.097,7.78813779505041,-2.085817057074212,3.2462968516737263,0.0,32.663996048767316,32.00957350631761,308.86634846717914,293.2512110194556,0.0
0.098,7.387282776787215,-2.128562602221753,-0.36216294975828234,0.0,32.81183751019601,31.267995140076348,312.4608175339812,293.2512110194556,0.0
0.099,6.864783592336281,-2.1089060675508406,-2.351493548304563,0.0,32.86814731459241,30.486083348883273,314.30997043886987,293.2512110194556,0.0
0.1,6.325417487322247,-2.0853059269474707,-3.486657594943047,0.0,32.838235509310216,29.737124257811406,315.434443704133,293.2512110194556,0.0
0.101,5.814653991857821,-2.070552912748158,-4.270726554421388,0.0,32.73503214529315,29.03596427369323,316.2533080313348,293.2512110194556,0.0
0.10200000000000001,5.343783151625551,-2.061038749068213,-4.910179688141092,0.0,32.57113409140318,28.37878895394168,316.48142151333366,293.2512110194556,0.0
0.10300000000000001,4.916331557257309,-2.0431082263691875,-5.256538534079289,0.0,32.35603109506696,27.781547386038476,316.27102110603266,293.2512110194556,0.0
0.10400000000000001,4.538096910184969,-2.021861899581889,-5.381536431294562,0.0,32.100556450854434,27.249564790291934,315.06028420968784,293.2512110194556,0.0
0.105,4.2166757633345195,-1.9890141175123357,-4.994258715024472,0.0,31.814030218728718,26.82065749714349,312.95212028964926,293.2512110194556,0.0
0.106,3.971285627961384,-1.9509387643865168,-4.137185847707119,0.0,31.509406069477585,26.52017225176208,310.369168748113,293.2512110194556,0.0
0.107,3.809072290910418,-1.9213503316652145,-3.0168896542255634,0.0,31.202321836545337,26.349324534325348,307.04119577930464,293.2512110194556,0.0
0.108,3.7306151267197247,-1.8967529413256508,-1.4908030174198768,0.0,30.90645142655251,26.328527888143363,304.32033640340046,293.2512110194556,0.0
0.109,3.736142180208451,-1.8930148719251605,-0.24106458330723424,0.0,30.637923179210112,26.40104167943895,300.9051112658791,293.2512110194556,0.0
0.11,3.8053296316969636,-1.880058713089589,1.3900089829892108,0.0,30.402111338953596,26.598816625693367,298.8996914450223,293.2512110194556,0.0
0.111,3.9304639870239675,-1.8993061976505163,2.3362340891619366,0.0,30.21190496223824,26.827934014741647,299.01340537542796,293.2512110194556,0.0
0.112,4.115199441824581,-1.8451433253004943,2.221755180399388,0.0,30.057480571295127,26.97399453971315,291.80138057764304,293.2512110194556,0.0
0.113,4.2537997401679055,-1.7802316990596068,5.842265883709973,0.0,29.926506021780483,27.47600886127523,289.39357560071255,293.2512110194556,0.0
0.114,4.544717299752438,-1.8234672721693486,7.084744726362651,0.0,29.864235388677976,27.984576932817447,290.5348563358254,293.2512110194556,0.0
0.115,4.866613712344239,-1.8225845801647078,6.54126790564253,0.0,29.858519174188356,28.331354465400207,288.30232894009157,293.2512110194556,0.0
0.116,5.141330121842504,-1.7241136392104155,7.707020424303083,0.0,29.877229357821044,28.74955032761671,283.04040072279076,293.2512110194556,0.0
0.117,5.4452241472914285,-1.647453163058792,10.0,0.0,29.92844016634498,29.337686671410488,278.26452586630796,293.2512110194556,0.0
0.11800000000000001,5.83032614456436,-1.6176994158717963,10.0,0.0,30.03083722096684,29.809878386474765,274.4523578369063,293.2512110194556,0.0
0.11900000000000001,6.169766350317513,-1.5524572940122146,10.0,0.0,30.16333464570026,30.211603232834687,271.3610333241702,293.2512110194556,0.0
0.12,6.486644450475499,-1.4547071184983893,10.0,0.0,30.312654714508394,30.554943148072116,268.981528611587,293.2512110194556,0.0
0.121,6.788238300725061,-1.3352881862229302,10.0,0.0,30.4692181871643,30.84887453614075,267.4072562033488,293.2512110194556,0.0
0.122,7.071733502694507,-1.2150392829819308,10.0,0.0,30.62748526132773,31.100900598953956,263.56628938732285,293.2512110194556,0.0
0.123,7.333831799143832,-1.11121218830535,10.0,0.0,30.784909742974122,31.317554902312455,255.38405908448516,293.2512110194556,0.0
0.124,7.610576752802922,-0.97075616119609,10.0,0.0,30.933845314756475,31.500465261561736,252.79417808139078,293.2512110194556,0.0
0.125,7.902052529615784,-0.796778032185748,10.0,0.0,31.068445331365467,31.650683256151495,259.6879050632075,293.2512110194556,0.0
0.126,7.99189814892699,-0.9480197481661516,10.0,0.0,31.222983515820495,31.79237119258708,262.93810410291553,293.2512110194556,0.0
0.127,8.021230189169565,-1.143944543368527,10.0,0.0,31.396275985786023,31.933016085591042,271.043191702637,293.2512110194556,0.0
0.128,8.03163513775412,-1.3340953881782616,10.0,0.0,31.585261043032453,32.07607451234929,281.1152992293607,293.2512110194556,0.0
0.129,8.006105781313005,-1.5540310387777234,10.0,0.0,31.7919448503479,32.22663788085071,289.57533576688223,293.2512110194556,0.0
0.13,7.955461077231767,-1.7878921281257512,8.150613045252616,0.0,32.01654197710425,32.18469635209586,296.6983276162115,293.2512110194556,0.0
0.131,7.795154476085297,-1.9658244361011676,4.55464595462043,0.0,32.23171918129327,31.80947345755535,302.8718818012422,293.2512110194556,0.0
0.132,7.461610802149758,-2.0488884651081265,1.3716621542872147,0.0,32.39521409572035,31.214208763878908,307.0060443397727,293.2512110194556,0.0
0.133,7.014173745831002,-2.0712543725981583,-0.8329674481812148,0.0,32.484462658870925,30.53002325220033,309.7165473012497,293.2512110194556,0.0
0.134,6.524222870457098,-2.0723184142260265,-2.3528722917376585,0.0,32.49626120004276,29.827458136966097,311.45137753561033,293.2512110194556,0.0
0.135,6.033346533392054,-2.0687878677002227,-3.402289074079521,0.0,32.43622437503984,29.14518947807383,312.63861616131993,293.2512110194556,0.0
0.136,5.56485206698227,-2.06565666311217,-4.189782438352962,0.0,32.313655239608586,28.495639528258266,313.3729882027955,293.2512110194556,0.0
0.137,5.129960116112007,-2.0566312230380928,-4.758186230924153,0.0,32.137426536376616,27.887291346272672,313.315534725667,293.2512110194556,0.0
0.138,4.736053399231512,-2.037069755869109,-4.930102729422022,0.0,31.915924378281446,27.347909154601545,312.9774305160697,293.2512110194556,0.0
0.139,4.394475671559427,-2.0168620839894738,-4.958312819589511,0.0,31.660606987593603,26.87256550422969,311.45453722622136,293.2512110194556,0.0
0.14,4.110545227548918,-1.9811167842054946,-4.378899436732992,0.0,31.379557064679926,26.51105862440655,308.91494533497394,293.2512110194556,0.0
0.14100000000000001,3.9056760917058844,-1.944959618278247,-3.265740834264463,0.0,31.086841610821136,26.29394705321997,306.06739375080303,293.2512110194556,0.0
0.14200000000000002,3.7888237671565497,-1.9241228745700312,-1.9701268694924865,0.0,30.799756075080943,26.2114661082084,303.8145808864193,293.2512110194556,0.0
0.14300000000000002,3.752432939391799,-1.916304206464472,-0.9493541359702666,0.0,30.53247931235908,26.210688032972318,300.8257788741495,293.2512110194556,0.0
0.14400000000000002,3.77453715069744,-1.8975646336218916,0.4693011916177161,0.0,30.289869252054164,26.326309076165845,297.52858140583146,293.2512110194556,0.0
0.145,3.8581906316256687,-1.8950414279734256,2.0751262219129663,0.0,30.08299214520619,26.55958036827707,299.55940632528257,293.2512110194556,0.0
