timestamp,iq,id,iq_ref,id_ref,vq,vd,omega,omega_ref,r
0.0,0.0,0.0,0.0,0.0,0.0,0.0,0.0,216.6249286020426,0.0
0.001,0.0,0.0,10.0,0.0,0.0,1.0999999999999999,15.99550648192576,216.6249286020426,0.0
0.002,0.5235240659373326,-0.28523250639827685,10.0,0.0,0.14137557570381043,1.9324123527468937,32.0023253411214,216.6249286020426,0.0
0.003,1.1336291333511914,-0.618254806324765,10.0,0.0,0.3856349570398602,2.6338447110333276,48.791617270651834,216.6249286020426,0.0
0.004,1.6949360121641923,-0.9230263110695732,10.0,0.0,0.7058062785936121,3.2339170656294307,66.09095199558408,216.6249286020426,0.0
0.005,2.1630837077512943,-1.1742769435575164,10.0,0.0,1.0785575579778253,3.7601161391948486,83.69732128856941,216.6249286020426,0.0
0.006,2.535612671250315,-1.3706958578538795,10.0,0.0,1.4857471910278794,4.234673724313124,101.39202608399593,216.6249286020426,0.0
0.007,2.826599082858677,-1.520257714506438,10.0,0.0,1.9141612343735732,4.674211298582648,119.09899781571042,216.6249286020426,0.0
0.008,3.0542438511857326,-1.6330805835600002,10.0,0.0,2.354602527841017,5.090505459359897,136.53940087674385,216.6249286020426,0.0
0.009000000000000001,3.2355356372705937,-1.718195990456461,10.0,0.0,2.800863574107515,5.4915486846201,153.96343468652697,216.6249286020426,0.0
0.01,3.3845319112831707,-1.7822986622005708,10.0,0.0,3.248802978096272,5.882537019700399,170.8672576644894,216.6249286020426,0.0
0.011,3.5117873680796206,-1.8303459464538332,10.0,0.0,3.695691449744599,6.26671232416406,187.2608069011853,216.6249286020426,0.0
0.012,3.6253016632451285,-1.8651357490589744,10.0,0.0,4.139655010118495,6.645944927445946,202.99669917163817,216.6249286020426,0.0
0.013000000000000001,3.7310102990284197,-1.8880400230355596,8.845946492649091,0.0,4.5793170468945625,6.894211933643925,216.03294510388068,216.6249286020426,0.0
0.014,3.774557508127268,-1.8670661363184133,2.333743361509456,0.0,4.997303410334167,6.4530835269048215,216.9506780338719,216.6249286020426,0.0
0.015,3.47746761374063,-1.6470503531276153,1.8716194021955541,0.0,5.305386299472085,6.145270353443976,218.2411323083885,216.6249286020426,0.0
0.016,3.110084691532371,-1.3831203090585285,1.2102302278737924,0.0,5.525047435334438,5.868356439159794,217.4407116513747,216.6249286020426,0.0
0.017,2.750368446419101,-1.1202160882743657,1.6022827258873722,0.0,5.668770902336567,5.726734654155353,216.13316007200544,216.6249286020426,0.0
0.018000000000000002,2.4801994722368903,-0.9058195468591698,2.260976200872374,0.0,5.763005266790212,5.708304576328697,213.82005986958885,216.6249286020426,0.0
0.019,2.3260682920369673,-0.7552731822095802,3.4455749894052077,0.0,5.831557052318522,5.839112614798999,214.2808170695229,216.6249286020426,0.0
0.02,2.3090631177689565,-0.6734205916030708,3.2386375047633793,0.0,5.89883614182081,5.929415174146654,214.92839576138903,216.6249286020426,0.0
0.021,2.339172560722922,-0.6191399095143832,2.9318134872368495,0.0,5.963265229183946,5.982252028960657,214.30315908135435,216.6249286020426,0.0
0.022,2.3778811636397568,-0.5687551488528546,3.2676495224610695,0.0,6.021535576440289,6.072301459188192,213.2686185407531,216.6249286020426,0.0
0.023,2.4433507451269576,-0.5281693408131801,3.8184828933745925,0.0,6.079023240716001,6.20959172363243,213.19514735455832,216.6249286020426,0.0
0.024,2.546082419782258,-0.5041778138253972,3.8895162989468255,0.0,6.142257955120305,6.330561280566412,212.65446987884985,216.6249286020426,0.0
0.025,2.6596171920430014,-0.4834330900735698,4.199559624032984,0.0,6.209224149434754,6.467690276749052,212.6489647436127,216.6249286020426,0.0
0.026000000000000002,2.788381783249116,-0.46555117946509883,4.242071830235855,0.0,6.281447061006608,6.586350144866264,211.94816246955298,216.6249286020426,0.0
0.027,2.9159112083608982,-0.4448611649666847,4.639240628590613,0.0,6.356216585744258,6.7308891722357,212.10192828897905,216.6249286020426,0.0
0.028,3.058406051378607,-0.4258615016117091,4.607587722008214,0.0,6.4360799979210235,6.846598603153513,211.24024826028105,216.6249286020426,0.0
0.029,3.1936583731004102,-0.4029022968676579,5.092274539774832,0.0,6.517192496083598,6.998902704258155,211.4099087232496,216.6249286020426,0.0
0.03,3.3489574546638265,-0.3798408659410468,5.0595945070784865,0.0,6.603116989185892,7.119915597539568,216.8201627650164,216.6249286020426,0.0
0.031,3.463114760674704,-0.4102272834535585,2.3525151445653525,0.0,6.696123442541742,6.928963408408027,219.61942775498196,216.6249286020426,0.0
0.032,3.39983190167007,-0.3995210377545748,0.9229376580531765,0.0,6.759252480446837,6.644327041184634,221.29955672975566,216.6249286020426,0.0
0.033,3.212239246485831,-0.3521651689521257,0.036126889389191064,0.0,6.782502894727805,6.331216168266391,221.7109788058733,216.6249286020426,0.0
0.034,2.9593902356923687,-0.28743472775280243,-0.22044465070793873,0.0,6.76547039044495,6.058324126979466,221.67982698018403,216.6249286020426,0.0
0.035,2.702967763523999,-0.23060270225292534,-0.25541772164471377,0.0,6.717247714068696,5.835414698821457,221.38698213287984,216.6249286020426,0.0
0.036000000000000004,2.4755716029599593,-0.1937101267144965,-0.1566158333009886,0.0,6.648066499460036,5.663641237209165,221.0748475057139,216.6249286020426,0.0
0.037,2.2911848988539463,-0.18049244508649198,-0.04504770875473607,0.0,6.567541040927319,5.531420050959907,220.82328677028917,216.6249286020426,0.0
0.038,2.148533831305112,-0.18829002534765726,0.03874907727516419,0.0,6.482835920267954,5.426318153089438,220.65203113361778,216.6249286020426,0.0
0.039,2.039278046353809,-0.2114662503482292,0.08410587029510719,0.0,6.3985625308349325,5.337998837981134,220.54010794269962,216.6249286020426,0.0
0.04,1.9533359095640552,-0.24390659052965669,0.10091567234761811,0.0,6.3172212240043315,5.259840702933292,220.45405428507138,216.6249286020426,0.0
0.041,1.8821082715318316,-0.28057606693293946,0.10565124433145057,0.0,6.239907473354554,5.188692684420519,220.37054865786268,216.6249286020426,0.0
0.042,1.8197688514279808,-0.3180379453085105,0.10994785737759694,0.0,6.166964407775757,5.123498424240383,220.2750517849691,216.6249286020426,0.0
0.043000000000000003,1.7630518805323263,-0.3542624153589351,0.1211950619951272,0.0,6.098406295658617,5.064338982495332,220.13131613064255,216.6249286020426,0.0
0.044,1.7105883248263671,-0.3882051345775135,0.15799901387240167,0.0,6.0341595049922265,5.013379457792097,219.90399276724042,216.6249286020426,0.0
0.045,1.6629898305751847,-0.41976380491293763,0.23887005392148386,0.0,5.974373467466862,4.974330180189744,219.78393946231438,216.6249286020426,0.0
0.046,1.6223070503535015,-0.44998914015379554,0.2673065977817888,0.0,5.919670306106937,4.939525656901103,219.62375523537142,216.6249286020426,0.0
0.047,1.5858534931244395,-0.47735617462907953,0.31741044491998016,0.0,5.869665128994014,4.911561391044914,219.42040502698805,216.6249286020426,0.0
0.048,1.5538736796040533,-0.5017398345170779,0.3911307848622103,0.0,5.824272575249691,4.892154476900264,219.16380691020197,216.6249286020426,0.0
0.049,1.527462993817181,-0.5235376176176211,0.49404106017365645,0.0,5.783632505007517,4.883317302981838,218.8235662962967,216.6249286020426,0.0
0.05,1.5081452326442426,-0.5435400194112435,0.6421749901837555,0.0,5.748155010764009,4.888426315850188,218.5938447422954,216.6249286020426,0.0
0.051000000000000004,1.498359735581136,-0.5627722616968547,0.7373466057818707,0.0,5.718651689865169,4.8993474434882565,218.6211494631631,216.6249286020426,0.0
0.052000000000000005,1.4952328351373774,-0.5797441545321665,0.7037320367368134,0.0,5.694865399609046,4.9018229115998775,218.49983789253156,216.6249286020426,0.0
0.053,1.4909145550158358,-0.5901262572966142,0.7456387291476976,0.0,5.674677597565434,4.907061827539303,218.05249903338185,216.6249286020426,0.0
0.054,1.4874775420395012,-0.5953280064888259,0.9550324544091597,0.0,5.657500838703626,4.932707203161262,217.67492596303077,216.6249286020426,0.0
0.055,1.4944757663576378,-0.6006961033709197,1.133319015974816,0.0,5.645144766455301,4.97078377504969,216.99995465210395,216.6249286020426,0.0
0.056,1.5127727891938727,-0.6058714760438757,1.467054410937613,0.0,5.638347568645859,5.03680242008589,216.83172190891045,216.6249286020426,0.0
0.057,1.5495449236536403,-0.6151544073455989,1.549102849465684,0.0,5.639801323837438,5.097365490563776,216.40580202659936,216.6249286020426,0.0
0.058,1.5920646506130667,-0.6216055736178253,1.7642540563756623,0.0,5.647782809534576,5.170554329266906,215.71098030495452,216.6249286020426,0.0
0.059000000000000004,1.6431869235074859,-0.6268359410530628,2.1208044001689643,0.0,5.6627958592874705,5.269093205668812,216.01125920394097,216.6249286020426,0.0
0.06,1.711282975739476,-0.632926609751764,1.9768016446567565,0.0,5.686779161587766,5.3328943498449615,216.43492624590152,216.6249286020426,0.0
0.061,1.7693347398212893,-0.6298106554428277,1.766868147237889,0.0,5.714340586414679,5.365356319145896,216.05493279094918,216.6249286020426,0.0
0.062,1.8088770990579208,-0.612415706033251,1.9625648328249938,0.0,5.74050978079703,5.417185062512987,215.25392195163568,216.6249286020426,0.0
0.063,1.8519953812203485,-0.5902107581082745,2.3767803189858157,0.0,5.7669763353002015,5.505707000157922,214.55877976787863,216.6249286020426,0.0
0.064,1.9150770333531733,-0.5750214591234166,2.7450128992059764,0.0,5.798199654708469,5.617879029538303,214.0976207508921,216.6249286020426,0.0
0.065,2.000003751064509,-0.5665903660683673,3.000865486210745,0.0,5.836742317867738,5.737706524262877,213.87271702283394,216.6249286020426,0.0
0.066,2.0989345091751432,-0.5614441287547859,3.1408394660319146,0.0,5.882931689009594,5.852211031526147,213.57534749641377,216.6249286020426,0.0
0.067,2.202611863818253,-0.553724850816158,3.3200200402982873,0.0,5.935154915563481,5.9677789471187275,213.6238128936496,216.6249286020426,0.0
0.068,2.309956370286138,-0.5426946477980928,3.325798498764295,0.0,5.992576481468634,6.065085096330999,213.16543650651198,216.6249286020426,0.0
0.069,2.410867947385001,-0.5248671529545583,3.589581613288418,0.0,6.05213578330189,6.1773343168093575,212.45409636776137,216.6249286020426,0.0
0.07,2.518174076495367,-0.5052693135410884,3.9869600050065372,0.0,6.114986589612609,6.314593778935806,212.71018118705533,216.6249286020426,0.0
0.07100000000000001,2.641754870530931,-0.4898904922829198,3.89806506950943,0.0,6.183782569560638,6.418139322606009,212.00624450269956,216.6249286020426,0.0
0.07200000000000001,2.7574397492897162,-0.4680728962719991,4.296220252680744,0.0,6.253807358532266,6.5514064006847,211.80178466145082,216.6249286020426,0.0
0.073,2.887058896071457,-0.44712297590646566,4.4466816127110285,0.0,6.3280700611345,6.6778171902659,211.17436034881302,216.6249286020426,0.0
0.074,3.0195502115801585,-0.4271357708951018,4.8148994515622245,0.0,6.405558479087039,6.824734666584391,211.09010422477917,216.6249286020426,0.0
0.075,3.1671519995313258,-0.4078925380579785,4.9123757573517866,0.0,6.488072919314201,6.956838168795087,210.49528458921907,216.6249286020426,0.0
0.076,3.314415222504098,-0.3873597512631319,5.271082015260072,0.0,6.573480091520652,7.107742753471949,217.00305052370592,216.6249286020426,0.0
0.077,3.452295006248677,-0.40365793076402945,2.013417828800011,0.0,6.667435132587195,6.876473329829906,218.01205965739942,216.6249286020426,0.0
0.078,3.3758510399092305,-0.3850378439250016,1.4950419513996942,0.0,6.726656535835574,6.663069282144072,219.7526388319706,216.6249286020426,0.0
0.079,3.218487092336849,-0.34960478078803753,0.5934752618148309,0.0,6.754903957913859,6.399484797040896,221.0430962662937,216.6249286020426,0.0
0.08,3.0039307687111343,-0.3000858143516421,-0.09593513198923809,0.0,6.748875433597363,6.120291582356371,221.3192559018073,216.6249286020426,0.0
0.081,2.7602343516874766,-0.24757145353185628,-0.2809582227436893,0.0,6.710249050218252,5.879617443300047,221.06535093329268,216.6249286020426,0.0
0.082,2.5282439843114273,-0.20695336236058998,-0.19840996179887416,0.0,6.647475044850777,5.693160595664044,220.73977838545477,216.6249286020426,0.0
0.083,2.3331379922712356,-0.18753962424954917,-0.07677218571404176,0.0,6.57060342497595,5.550768460465443,220.466803404687,216.6249286020426,0.0
0.084,2.17970014965031,-0.18951342609162347,0.021296556643399356,0.0,6.487591009152482,5.439426663465586,220.27663262009793,216.6249286020426,0.0
0.085,2.0620017264990835,-0.20838648599843185,0.0798649087573815,0.0,6.403801953782702,5.347792084012757,220.15661044642962,216.6249286020426,0.0
0.08600000000000001,1.9704535917183272,-0.2382092769436609,0.10455917714766283,0.0,6.322320122409527,5.267966053564397,220.07280396174602,216.6249286020426,0.0
0.08700000000000001,1.8959263124347812,-0.27361013751489494,0.11198366589243158,0.0,6.244599737882217,5.195826713474956,219.99803176958847,216.6249286020426,0.0
0.088,1.8317701308771897,-0.3106933624019171,0.11563873029574934,0.0,6.1711626039305525,5.129768988317147,219.9144408479349,216.6249286020426,0.0
0.089,1.7740060838833505,-0.34704236894963353,0.12453906866360254,0.0,6.102090969329652,5.06962829221013,219.81047568913368,216.6249286020426,0.0
0.09,1.7207644186582436,-0.38138350404963284,0.14466617719330666,0.0,6.037326463373663,5.015998423513137,219.5668042162049,216.6249286020426,0.0
0.091,1.6716957423572647,-0.41304108182087484,0.23708315751607434,0.0,5.97681434334741,4.976084825581307,219.4525768745842,216.6249286020426,0.0
0.092,1.6301057245524713,-0.4437013835294348,0.2659203456010104,0.0,5.921418132940829,4.940443511521669,219.31419527939798,216.6249286020426,0.0
0.093,1.5929706292263317,-0.4717093303618888,0.3082184764205653,0.0,5.870771683303424,4.910860090644465,219.12749999706745,216.6249286020426,0.0
0.094,1.5599922065927074,-0.49664852345710037,0.37654040363558305,0.0,5.824694768314192,4.889519073113134,218.8940871963546,216.6249286020426,0.0
0.095,1.532260376054627,-0.5188918390344939,0.47055521804888367,0.0,5.783288815853309,4.878083593282182,218.57121460193235,216.6249286020426,0.0
0.096,1.5111553226404686,-0.5391114979164895,0.6125286552611111,0.0,5.746881639976666,4.880372233707623,218.28167523148963,216.6249286020426,0.0
0.097,1.4992340820121184,-0.5584816292730538,0.7407308741880032,0.0,5.716272563590632,4.892574088147666,218.3061944499508,216.6249286020426,0.0
0.098,1.4957338697494813,-0.5766579803420939,0.7116586064783386,0.0,5.691750277591234,4.896280688810379,218.305134350106,216.6249286020426,0.0
0.099,1.4918481405342248,-0.588474676057989,0.6953865989201078,0.0,5.6711689532761085,4.8960576307436225,217.79644687703066,216.6249286020426,0.0
0.1,1.485861047436475,-0.5936178262165877,0.9380151527078904,0.0,5.653071035146105,4.921270329992868,217.53483239084437,216.6249286020426,0.0
0.101,1.4913634943423757,-0.5995372412147753,1.0597233579130172,0.0,5.63990388290224,4.9524484444482475,216.84698838061445,216.6249286020426,0.0
0.10200000000000001,1.5055364041026644,-0.6039758757066703,1.4014247652422602,0.0,5.6316003129724255,5.014058109383296,216.6113249183759,216.6249286020426,0.0
0.10300000000000001,1.5384239035352474,-0.6123595236207536,1.5193925331981943,0.0,5.631165881454729,5.0747599953937375,216.27262272193767,216.6249286020426,0.0
0.10400000000000001,1.579061871410271,-0.6195732674591337,1.6922666902183678,0.0,5.637554757032926,5.143043427772097,215.840716689546,216.6249286020426,0.0
0.105,1.627316465611248,-0.6241892088884547,1.9160618255391595,0.0,5.650568704409982,5.223124502102169,215.60845255414966,216.6249286020426,0.0
0.106,1.6848190596413999,-0.6273489020967078,2.0423586537162635,0.0,5.6705907713209545,5.302310824081906,215.7671445832024,216.6249286020426,0.0
0.107,1.7460878822324837,-0.6269905561757497,1.9715904793783,0.0,5.696458248755414,5.360368708551103,214.7115209930646,216.6249286020426,0.0
0.108,1.7995514231445753,-0.6172480549774227,2.518536350536979,0.0,5.724476675220743,5.470810978613241,215.4893909534167,216.6249286020426,0.0
0.109,1.8753175822134605,-0.6138825325895848,2.140956746847192,0.0,5.760464703595073,5.518208007109776,215.32497419255284,216.6249286020426,0.0
0.11,1.9313279114474862,-0.5968783344991694,2.2361646713740115,0.0,5.795756825415556,5.573309328703886,214.552168486095,216.6249286020426,0.0
0.111,1.9846304925761968,-0.5727962463212972,2.6432951257624024,0.0,5.830550879494739,5.6649588204262695,213.49104516027145,216.6249286020426,0.0
0.112,2.056400658116986,-0.5527738700058755,3.2051956230918934,0.0,5.869068836825327,5.801298826148497,213.3434912584964,216.6249286020426,0.0
0.113,2.158095034823603,-0.545870309385376,3.311786947414875,0.0,5.916809831089976,5.923493987951471,213.03209901071165,216.6249286020426,0.0
0.114,2.268037905946662,-0.5382589755827998,3.503411367220568,0.0,5.9712280309963806,6.047179733879538,213.23727562843263,216.6249286020426,0.0
0.115,2.3833507618117924,-0.5283643711300668,3.4346995880961777,0.0,6.0315606923531755,6.142879199869765,212.73071945016756,216.6249286020426,0.0
0.116,2.488289488373659,-0.5097861823228846,3.7269197687474636,0.0,6.093485379449049,6.25748319169638,211.96016561239537,216.6249286020426,0.0
0.117,2.5997667629765866,-0.48962738767587155,4.158844317530027,0.0,6.1586463114949,6.400195638668787,212.25178226441903,216.6249286020426,0.0
0.11800000000000001,2.7291453404974413,-0.47450962265636154,4.056767454894432,0.0,6.230101028827731,6.506488362989536,211.4878009880429,216.6249286020426,0.0
0.11900000000000001,2.8499981448425467,-0.4527782613552256,4.4901293692225,0.0,6.3028002747664225,6.645987843111179,211.51479523741372,216.6249286020426,0.0
0.12,2.986400318878238,-0.43229896601822615,4.5277335781833745,0.0,6.38014413524935,6.764814432556468,210.72385056479206,216.6249286020426,0.0
0.121,3.119193593308966,-0.4106585737134696,4.982216694866711,0.0,6.459460618428361,6.9158666114040575,210.9231131244909,216.6249286020426,0.0
0.122,3.2719502229612187,-0.3883167952138664,4.9396035697928085,0.0,6.543709479462322,7.035037649242385,213.3495909548442,216.6249286020426,0.0
0.123,3.4020409934759934,-0.3880422032225235,3.7591180310881467,0.0,6.631643770842668,7.0085067729334,218.1433703778151,216.6249286020426,0.0
0.124,3.4275156334909287,-0.401744266315488,1.3470439018449647,0.0,6.709641518314218,6.738397811867145,219.7894622775301,216.6249286020426,0.0
0.125,3.2846240821461183,-0.3700946605106299,0.4923526152325879,0.0,6.749210117662526,6.449177038467826,220.53429387860933,216.6249286020426,0.0
0.126,3.06250664610534,-0.3139011131370707,0.0808431619273069,0.0,6.750034985583026,6.1791200777968465,221.05290209074133,216.6249286020426,0.0
0.127,2.8184969610975203,-0.2587834424354529,-0.2227406790256774,0.0,6.71827066234094,5.931492063003695,220.95288941371743,216.6249286020426,0.0
0.128,2.581602339225779,-0.21433092849148638,-0.21601394863047685,0.0,6.6605813701169225,5.732844507674461,220.64700259087329,216.6249286020426,0.0
0.129,2.377215009458643,-0.1897198455496727,-0.10329127709671182,0.0,6.586533557598226,5.580738665276182,220.35956593458474,216.6249286020426,0.0
0.13,2.2141619506294616,-0.18681031071593457,0.0030806777221408232,0.0,6.50460600408928,5.462904277354136,220.15139958452053,216.6249286020426,0.0
0.131,2.0886608971985097,-0.2020589747418267,0.07189914292946331,0.0,6.420794215530206,5.367341469787128,220.0201223886612,216.6249286020426,0.0
0.132,1.9916779140742442,-0.22970532500613555,0.10358580299294018,0.0,6.338695936959153,5.285164229685183,219.93384939415165,216.6249286020426,0.0
0.133,1.9137443959167872,-0.2641325211281576,0.11363309232662777,0.0,6.260100290305795,5.211386078128477,219.8623251428492,216.6249286020426,0.0
0.134,1.8475382092262012,-0.30106003367148587,0.11702125256979357,0.0,6.185704147580643,5.143901747149904,219.78567159000727,216.6249286020426,0.0
0.135,1.7884644342036338,-0.3377348149917712,0.1237405991111058,0.0,6.115664136849949,5.082267534899364,219.69315718719722,216.6249286020426,0.0
0.136,1.7341980363026226,-0.37264121133890976,0.13931551466458636,0.0,6.049937661752254,5.0268173560651634,219.47827420874455,216.6249286020426,0.0
0.137,1.684021568042377,-0.4049502583378434,0.21822354782389852,0.0,5.988443747487318,4.98384042962622,219.34233445332848,216.6249286020426,0.0
