timestamp,iq,id,iq_ref,id_ref,vq,vd,omega,omega_ref,r
0.0,0.0,0.0,0.0,0.0,0.0,0.0,0.0,498.8647358954872,0.0
0.001,0.0,0.0,10.0,0.0,0.0,1.0999999999999999,9.632058429917102,498.8647358954872,0.0
0.002,0.879613076859295,-0.5129161345570077,10.0,0.0,0.16642077480127077,1.8932425615454775,20.172413390728902,498.8647358954872,0.0
0.003,1.5009457481663415,-0.8675810302626462,10.0,0.0,0.42940770545901247,2.564252481341352,31.09677279928891,498.8647358954872,0.0
0.004,1.9604227512994181,-1.1275476236768134,10.0,0.0,0.7582466113490693,3.1501309585918444,42.35645691098859,498.8647358954872,0.0
0.005,2.30814287543263,-1.3231803738286019,10.0,0.0,1.1317094109577248,3.6766510350829735,53.756205018731954,498.8647358954872,0.0
0.006,2.5778542823448656,-1.4741376389389822,10.0,0.0,1.5351269099152522,4.161674330366838,65.34589170943661,498.8647358954872,0.0
0.007,2.7930318463631445,-1.5935125970211614,10.0,0.0,1.9583266612433485,4.617564628045183,76.89567049989276,498.8647358954872,0.0
0.008,2.969841635050077,-1.6904029168275836,10.0,0.0,2.3942596528043545,5.052888569973122,88.49282768047196,498.8647358954872,0.0
0.009000000000000001,3.1193809809571795,-1.7711981772078498,10.0,0.0,2.838050314845819,5.473592186701456,99.98365182519838,498.8647358954872,0.0
0.01,3.249611938619428,-1.8398018118255104,10.0,0.0,3.28627071956011,5.8837744960773275,111.36603424190812,498.8647358954872,0.0
0.011,3.3662288696272324,-1.8986074993187314,10.0,0.0,3.7364699040186373,6.286235062152806,122.62704679427046,498.8647358954872,0.0
0.012,3.4733896516559963,-1.9489515015852983,10.0,0.0,4.186845010013251,6.682847973353501,133.71760337108117,498.8647358954872,0.0
0.013000000000000001,3.57419336175295,-1.9914839853199635,10.0,0.0,4.636019029716617,7.074820303743212,144.57394533519684,498.8647358954872,0.0
0.014,3.6710490936191036,-2.0263681940640548,10.0,0.0,5.082884818613122,7.46286670965998,155.1316563361292,498.8647358954872,0.0
0.015,3.765964888392452,-2.0533674534202637,10.0,0.0,5.526489745653397,7.847322873768315,165.33184798095385,498.8647358954872,0.0
0.016,3.86073398310468,-2.071933604794481,10.0,0.0,5.965952080458079,8.228218471699234,175.22921327518225,498.8647358954872,0.0
0.017,3.956907434371459,-2.0815324204632555,10.0,0.0,6.400427949785207,8.605339354625304,184.6639788866175,498.8647358954872,0.0
0.018000000000000002,4.056033092405799,-2.0814257503627283,10.0,0.0,6.8290605986044834,8.97825364832037,193.58996256920148,498.8647358954872,0.0
0.019,4.159658553553679,-2.07079295115648,10.0,0.0,7.25095287069966,9.346332233381936,202.0019739402941,498.8647358954872,0.0
0.02,4.269176298120842,-2.0490503408794605,10.0,0.0,7.665178414953065,9.708781489855951,209.8881971299613,498.8647358954872,0.0
0.021,4.385788459798178,-2.01593142604097,10.0,0.0,8.070800675899065,10.064676214769072,217.26667851897915,498.8647358954872,0.0
0.022,4.510399068291417,-1.9716524162143627,10.0,0.0,8.466910681309235,10.413002647967994,224.19544431643442,498.8647358954872,0.0
0.023,4.643400818666777,-1.9172281874370893,10.0,0.0,8.852698454431048,10.752723351931692,230.63592344034723,498.8647358954872,0.0
0.024,4.784645522546279,-1.854481611463099,10.0,0.0,9.22752163956768,11.0828438628882,236.2736500135446,498.8647358954872,0.0
0.025,4.935173112129627,-1.7831383450404457,10.0,0.0,9.590654263739552,11.402289053447353,241.16048038020267,498.8647358954872,0.0
0.026000000000000002,5.095622119109856,-1.7033686463084385,10.0,0.0,9.941356910353857,11.709958872495783,245.365510204949,498.8647358954872,0.0
0.027,5.265911198956277,-1.6162816979082573,10.0,0.0,10.278974406874871,12.0048046655875,248.86725922075425,498.8647358954872,0.0
0.028,5.445149871466666,-1.524045773371184,10.0,0.0,10.603039650837882,12.285914265844468,250.2372617636664,498.8647358954872,0.0
0.029,5.63162517043579,-1.4299426126285135,10.0,0.0,10.913380341993967,12.552599534310543,251.57972516939253,498.8647358954872,0.0
0.03,5.835215819187731,-1.3173883859295419,10.0,0.0,11.207915557551589,12.80312012667259,252.1102491945685,498.8647358954872,0.0
0.031,6.035735333314483,-1.2199491247846517,10.0,0.0,11.488456534330703,13.038020941287769,252.28451437918451,498.8647358954872,0.0
0.032,6.2624457128646585,-1.0874115493878653,10.0,0.0,11.750828754211227,13.254552825510093,258.13099505399805,498.8647358954872,0.0
0.033,6.361549812840539,-1.171048193534955,10.0,0.0,12.019142347136079,13.467034396096397,272.5525246027047,498.8647358954872,0.0
0.034,6.431195815889245,-1.2722176077326588,10.0,0.0,12.292165006947357,13.678429149580952,284.2520407007563,498.8647358954872,0.0
0.035,6.461398066655089,-1.4212654739439419,10.0,0.0,12.574408447267226,13.89336090614443,291.88858676380073,498.8647358954872,0.0
0.036000000000000004,6.493153589317153,-1.5490834278621786,10.0,0.0,12.862490215480346,14.11183274609837,308.5077369811954,498.8647358954872,0.0
0.037,6.495233956774974,-1.709985436326562,10.0,0.0,13.16003203225945,14.337354293684491,321.80050277490625,498.8647358954872,0.0
0.038,6.48268958942918,-1.8763949843033862,10.0,0.0,13.467067852312056,14.571478552272525,334.9229733076542,498.8647358954872,0.0
0.039,6.457226072814731,-2.043027533621733,10.0,0.0,13.783478001163463,14.815569510161152,348.7576905396966,498.8647358954872,0.0
0.04,6.411585288980754,-2.220520879089015,10.0,0.0,14.110514173426802,15.071658238201644,362.76104979073966,498.8647358954872,0.0
0.041,6.347767137194362,-2.403110200440925,10.0,0.0,14.4487654931619,15.341405299522588,377.34443724498016,498.8647358954872,0.0
0.042,6.26804658177279,-2.584617700852302,10.0,0.0,14.798306318887313,15.626133866263455,392.3846280055134,498.8647358954872,0.0
0.043000000000000003,6.176767111576426,-2.7562480273524885,10.0,0.0,15.158430179625174,15.926587195070162,407.5794293777697,498.8647358954872,0.0
0.044,6.080509858241134,-2.9071811515906507,10.0,0.0,15.527473327571116,16.2426830802349,420.9510468758384,498.8647358954872,0.0
0.045,5.988995470444334,-3.023873537821429,10.0,0.0,15.902548580481946,16.573177701802056,432.6337857665346,498.8647358954872,0.0
0.046,5.908643765599936,-3.102257996838724,10.0,0.0,16.280621136888005,16.916053930158498,442.93285509299886,498.8647358954872,0.0
0.047,5.853290660047004,-3.129223030571743,10.0,0.0,16.657356369609552,17.267735115882274,450.8160827770228,498.8647358954872,0.0
0.048,5.835149253590445,-3.0978966650634967,10.0,0.0,17.027870647088097,17.62336372996053,455.84690159542237,498.8647358954872,0.0
0.049,5.866009901677918,-3.0047351188809306,10.0,0.0,17.386961851801605,17.97690482502462,457.8878984204874,498.8647358954872,0.0
0.05,5.955385638073961,-2.8505098716362482,10.0,0.0,17.729464883815076,18.32147820653096,457.18922626153494,498.8647358954872,0.0
0.051000000000000004,6.109128072581998,-2.6402968449106243,10.0,0.0,18.05059377031047,18.64982664265609,454.7027618616339,498.8647358954872,0.0
0.052000000000000005,6.327478323651056,-2.3845723195942665,10.0,0.0,18.346417044251304,18.954972020545735,451.8471774547687,498.8647358954872,0.0
0.053,6.601649099237425,-2.1034927792778495,10.0,0.0,18.614811024405363,19.231209905236682,448.22783271270606,498.8647358954872,0.0
0.054,6.912806753189815,-1.8285415858693885,10.0,0.0,18.856555559141363,19.475177765295047,438.9202390726488,498.8647358954872,0.0
0.055,7.249223569479963,-1.5751671658077713,10.0,0.0,19.07340075213689,19.685029019568773,422.9254719913051,498.8647358954872,0.0
0.056,7.6568352512955835,-1.2587984251932682,10.0,0.0,19.257279733993258,19.854106550877873,419.42574918675047,498.8647358954872,0.0
0.057,8.065616398205814,-0.9838080738501152,10.0,0.0,19.41259331955329,19.98377441789973,409.1637667593696,498.8647358954872,0.0
0.058,8.465022170292562,-0.7591668261796263,10.0,0.0,19.543381699529196,20.076160033314963,425.8037595163092,498.8647358954872,0.0
0.059000000000000004,8.50401371114765,-1.0780747668413249,10.0,0.0,19.70765608899853,20.17209091341307,442.41158108079503,498.8647358954872,0.0
0.06,8.468721631394127,-1.3963445938093293,10.0,0.0,19.89691672909059,20.27912818862974,466.61098121755566,498.8647358954872,0.0
0.061,8.346071720626695,-1.7796115535934793,10.0,0.0,20.116931700001693,20.407526369720824,483.21549959187973,498.8647358954872,0.0
0.062,8.17966234655772,-2.1583715525502045,10.0,0.0,20.365615922218197,20.562164761833834,502.49473852885654,498.8647358954872,0.0
0.063,7.97908247802646,-2.5136782594308937,4.018323113980934,0.0,20.640191699191654,20.088622971292832,520.6504338838397,498.8647358954872,0.0
0.064,7.21781861141775,-2.5813394772241187,-5.277381543394167,0.0,20.843845386302117,18.80891542069386,525.4512336062512,498.8647358954872,0.0
0.065,5.805362357595739,-2.2423500020260043,-7.9436463817075635,0.0,20.86119749519191,17.624969457479445,522.4737737448448,498.8647358954872,0.0
0.066,4.531779705398552,-1.8811689803229048,-6.691006829497954,0.0,20.722079779235923,16.85157582980511,516.5010792103382,498.8647358954872,0.0
0.067,3.6960252316462956,-1.6540139398324887,-3.881022995393127,0.0,20.498159227871184,16.51737878512282,511.2336164560526,498.8647358954872,0.0
0.068,3.3128118704023666,-1.5710693117763073,-1.3709804238559862,0.0,20.25635866849342,16.47601015929963,506.17511992709785,498.8647358954872,0.0
0.069,3.24633934843435,-1.5510390379439147,1.0851640003052667,0.0,20.03322741863011,16.663153644867393,501.12931778395375,498.8647358954872,0.0
0.07,3.424074288636987,-1.5592625535055762,3.5854192529926516,0.0,19.85222853176001,17.039520721804077,495.5484120222608,498.8647358954872,0.0
0.07100000000000001,3.7991222409704726,-1.585445595197011,6.409035372571403,0.0,19.72976414070103,17.606268497632218,490.3721619212143,498.8647358954872,0.0
0.07200000000000001,4.364388614988235,-1.6324076723288972,9.082086162837378,0.0,19.68112496439836,18.311465660886498,484.79010563357184,498.8647358954872,0.0
0.073,5.071542081844527,-1.6856064253651488,10.0,0.0,19.71325166411405,18.943384986756293,474.0561131923265,498.8647358954872,0.0
0.074,5.754373752055613,-1.6580748811357262,10.0,0.0,19.80179716904955,19.438105962584395,462.41895874599834,498.8647358954872,0.0
0.075,6.391876863494706,-1.4879066076739127,10.0,0.0,19.912517026435804,19.82891236576705,456.597611437379,498.8647358954872,0.0
0.076,6.977921483421222,-1.2745764572801819,10.0,0.0,20.029480904593015,20.133620237292533,444.4217121068229,498.8647358954872,0.0
0.077,7.500721853307803,-1.0922054979443039,10.0,0.0,20.14729167806404,20.367906114992937,428.9932816200495,498.8647358954872,0.0
0.078,8.058971594776228,-0.8066612414043406,10.0,0.0,20.247163803331965,20.534365014407737,427.0533037356011,498.8647358954872,0.0
0.079,8.500390613025974,-0.6879953404314127,10.0,0.0,20.343496799472955,20.651191641815068,442.6296892718757,498.8647358954872,0.0
0.08,8.61612867508979,-0.9893128107496323,10.0,0.0,20.47621073948531,20.757651909451234,462.47977530032415,498.8647358954872,0.0
0.081,8.553058769903089,-1.4269296949755206,10.0,0.0,20.651423994821716,20.874832614516208,479.32696762259985,498.8647358954872,0.0
0.082,8.454183176080758,-1.8097050069110174,10.0,0.0,20.85856311060162,21.008062190876903,500.492419651494,498.8647358954872,0.0
0.083,8.295737099518135,-2.1874533266238947,4.871878547544266,0.0,21.09603583448866,20.601029673893052,522.2698726772318,498.8647358954872,0.0
0.084,7.6138482822973765,-2.363196200108445,-6.2508993331420655,0.0,21.284612267174793,19.159646637774017,526.4601079886122,498.8647358954872,0.0
0.085,6.081996392301032,-2.0431935763001077,-8.621970709763533,0.0,21.27323503562664,17.893354295641387,525.0096612596881,498.8647358954872,0.0
0.08600000000000001,4.738000494718083,-1.7267313176608015,-8.158196598943475,0.0,21.104755470807802,16.959800360357786,520.2663663659637,498.8647358954872,0.0
0.08700000000000001,3.7649790029419994,-1.510946770646126,-6.000565456786041,0.0,20.839196791357267,16.429047951769316,514.3464255851329,498.8647358954872,0.0
0.088,3.211875253386887,-1.4182845771761445,-3.1954119632671203,0.0,20.53908374318139,16.26291668649345,509.0934405226819,498.8647358954872,0.0
0.089,3.028954381763142,-1.421896317322949,-0.6712064783135441,0.0,20.25369278664636,16.34758856972035,504.1611009272049,498.8647358954872,0.0
0.09,3.1083407570861668,-1.460120033596722,1.7419996691077513,0.0,20.00947660547617,16.624903080336093,498.98001332290954,498.8647358954872,0.0
0.091,3.388433331321833,-1.5065566681803344,4.33139069698122,0.0,19.82213928612603,17.080749153952414,493.9503344797162,498.8647358954872,0.0
0.092,3.8477923514408743,-1.5618183094915126,6.895374132735592,0.0,19.704734720270935,17.680692589455607,488.43419240711575,498.8647358954872,0.0
0.093,4.453958440636665,-1.6174355725497809,9.757750603919543,0.0,19.66463023707496,18.4360381226853,482.43881701628516,498.8647358954872,0.0
0.094,5.208297614347304,-1.6891262343163527,10.0,0.0,19.71140055568529,19.032946674913237,470.1546817453366,498.8647358954872,0.0
0.095,5.88043475700211,-1.6278171403832513,10.0,0.0,19.805723790707084,19.506027215863686,460.7252998298504,498.8647358954872,0.0
0.096,6.511818220587338,-1.4389681148633415,10.0,0.0,19.91776245445388,19.87850121665344,455.5160803701486,498.8647358954872,0.0
0.097,7.081456315183788,-1.2360008794342505,10.0,0.0,20.03540674626297,20.16858532796914,439.38407876783316,498.8647358954872,0.0
0.098,7.606413125754745,-1.040494315422162,10.0,0.0,20.150818970335678,20.389376589117337,427.85108906005297,498.8647358954872,0.0
0.099,8.164512437962388,-0.7482950645950042,10.0,0.0,20.24658224616508,20.543488590320855,428.08230118216983,498.8647358954872,0.0
0.1,8.544749912137965,-0.7232732720236092,10.0,0.0,20.348349989857297,20.655520589949724,444.56483813228283,498.8647358954872,0.0
0.101,8.605697978618629,-1.074527623743906,10.0,0.0,20.49003235575814,20.763624251413816,468.1048025504266,498.8647358954872,0.0
0.10200000000000001,8.535956445646203,-1.4991954106524328,10.0,0.0,20.671557764258033,20.88336683261335,483.968310172675,498.8647358954872,0.0
0.10300000000000001,8.413857181799457,-1.9006020111283628,10.0,0.0,20.886812938211165,21.022021200236342,504.87936552410696,498.8647358954872,0.0
0.10400000000000001,8.24254509585948,-2.2811321872801833,2.394805254018359,0.0,21.132252284903217,20.349387563249298,522.6550070106,498.8647358954872,0.0
0.105,7.341468139842522,-2.330062690017339,-6.730918200379291,0.0,21.28746138676693,18.9381889364087,526.7537690044568,498.8647358954872,0.0
0.106,5.837353290426736,-2.0014653802742073,-9.05918952839738,0.0,21.249394706661093,17.67522033477609,524.3154856763665,498.8647358954872,0.0
0.107,4.513698666761383,-1.6757909740801211,-8.094555362161032,0.0,21.056299622818663,16.79469525697136,518.874538656563,498.8647358954872,0.0
0.108,3.601432985094421,-1.4716979994895092,-5.57417987987004,0.0,20.775268056436975,16.337620818699225,512.7949355412494,498.8647358954872,0.0
0.109,3.1254117142154096,-1.3996044025433494,-2.6736803186708613,0.0,20.470742836948077,16.235241547505158,507.60042254462144,498.8647358954872,0.0
0.11,3.008867969143084,-1.418313873619375,-0.1637806868482219,0.0,20.18921119007648,16.367791244619266,502.66224754417823,498.8647358954872,0.0
0.111,3.1383480870269986,-1.463945159716684,2.2673316968864725,0.0,19.953920024363402,16.685847922809444,497.48483630350387,498.8647358954872,0.0
0.112,3.459790664256525,-1.5150741449129492,4.869836313143485,0.0,19.77913151855126,17.17647031824381,492.8169599914621,498.8647358954872,0.0
0.113,3.9540439920732595,-1.5728576550608722,7.264252228204613,0.0,19.67672899912808,17.786758887760133,486.8809414893563,498.8647358954872,0.0
0.114,4.573907794120458,-1.623257104442095,10.0,0.0,19.650561692929305,18.539523959182365,479.35844469416975,498.8647358954872,0.0
0.115,5.331310612948497,-1.6858368939818356,10.0,0.0,19.708667406848203,19.10992264307393,466.9947828988296,498.8647358954872,0.0
0.116,5.9996117601356955,-1.5894328946150689,10.0,0.0,19.80677217993861,19.563152931965917,459.6209130785348,498.8647358954872,0.0
0.117,6.6196768944133915,-1.3948211469893055,10.0,0.0,19.919946252364014,19.91934651597907,453.52804452750354,498.8647358954872,0.0
0.11800000000000001,7.1707883191041235,-1.2086240811559428,10.0,0.0,20.03888671618278,20.196816543460237,435.3259828896481,498.8647358954872,0.0
0.11900000000000001,7.708661433131345,-0.9833120730611442,10.0,0.0,20.15075778613569,20.404778686279084,427.1540268399229,498.8647358954872,0.0
0.12,8.250852202225829,-0.7113962979161964,10.0,0.0,20.244580348190198,20.548869468351217,428.47681404465743,498.8647358954872,0.0
0.121,8.56900958303748,-0.7760507903392795,10.0,0.0,20.353260884164456,20.658358024223258,453.3599334382324,498.8647358954872,0.0
0.122,8.592711598985947,-1.1538191135267881,10.0,0.0,20.502930192754896,20.7683401301593,467.135544051766,498.8647358954872,0.0
0.123,8.510158440927523,-1.5784634953266972,10.0,0.0,20.691563979846006,20.891608823906683,486.86015795393416,498.8647358954872,0.0
0.124,8.391622892540795,-1.953530664493238,10.0,0.0,20.910672202393062,21.033627405730414,511.0331929173409,498.8647358954872,0.0
0.125,8.21153908713311,-2.3298608305751634,-0.8986393113211308,0.0,21.15971710744513,20.003128490492113,523.6387084919878,498.8647358954872,0.0
0.126,7.007090653313886,-2.2404026891138966,-7.449136824609595,0.0,21.267203933246602,18.619704113600378,525.2884510194217,498.8647358954872,0.0
0.127,5.529651216729525,-1.9109636552812974,-8.538245239565883,0.0,21.19025592647179,17.481547760151734,522.7621059093591,498.8647358954872,0.0
0.128,4.327849554251362,-1.6354639736206205,-7.5140463846733,0.0,20.98017651038524,16.690488988064992,517.364693709281,498.8647358954872,0.0
0.129,3.507856300912282,-1.4629663806416586,-5.000339862772206,0.0,20.695779420287586,16.30197512168096,511.52992462334544,498.8647358954872,0.0
0.13,3.1003090025933453,-1.4091885166336786,-2.2096072070829926,0.0,20.396780063450212,16.242346730114072,506.4497445875571,498.8647358954872,0.0
0.131,3.027522108609909,-1.4323303596698964,0.25463272389046576,0.0,20.12480118451395,16.405871393225315,501.61208862309934,498.8647358954872,0.0
0.132,3.189419484082776,-1.4757783579609927,2.6459871788432343,0.0,19.900920521164096,16.74571571262502,496.1393795254367,498.8647358954872,0.0
0.133,3.533554236933841,-1.5242393117262094,5.409595291375054,0.0,19.738308581020462,17.273035032519854,491.35611061952625,498.8647358954872,0.0
0.134,4.0616091587809455,-1.586710217745623,7.876315997089893,0.0,19.65107695700516,17.920419729039487,485.7393231862436,498.8647358954872,0.0
0.135,4.715800414580263,-1.641723277797517,10.0,0.0,19.64273369258886,18.63660033784913,477.79282357131586,498.8647358954872,0.0
0.136,5.449395210685323,-1.6790240757571218,10.0,0.0,19.7103957726702,19.184938204293523,465.1474642580294,498.8647358954872,0.0
0.137,6.105684014773917,-1.5647102164726716,10.0,0.0,19.813177898886956,19.620352671612913,457.9661404209928,498.8647358954872,0.0
0.138,6.717266130950591,-1.3611870323854007,10.0,0.0,19.927978847557206,19.96179276008349,450.94564535314703,498.8647358954872,0.0
0.139,7.258798878453288,-1.1771581338369308,10.0,0.0,20.047235763208054,20.227116153510508,432.69641498215316,498.8647358954872,0.0
0.14,7.801233672449085,-0.9357603441885454,10.0,0.0,20.156385858760665,20.423580399295396,426.0730266955989,498.8647358954872,0.0
0.14100000000000001,8.333181023304927,-0.674998701434053,10.0,0.0,20.247997566530003,20.558223369402867,432.368106045468,498.8647358954872,0.0
0.14200000000000002,8.57310937005472,-0.8511867299725813,10.0,0.0,20.365900700099935,20.667490568642616,452.1781870112548,498.8647358954872,0.0
0.14300000000000002,8.58949624971448,-1.2111174527732942,10.0,0.0,20.52077073945954,20.778218088020303,473.01695395025337,498.8647358954872,0.0
0.14400000000000002,8.489149533234537,-1.6463564416457086,10.0,0.0,20.715503508368908,20.904561867005572,490.5690666301891,498.8647358954872,0.0
0.145,8.350742517764386,-2.038705088166783,9.347501596385182,0.0,20.942203339514457,20.98019102512253,511.4205185360519,498.8647358954872,0.0
0.146,8.099717019402746,-2.3935243361684613,-1.2037821829518371,0.0,21.188902734172135,19.943039753516516,525.5059318314961,498.8647358954872,0.0
