timestamp,iq,id,iq_ref,id_ref,vq,vd,omega,omega_ref,r
0.0,0.0,0.0,0.0,0.0,0.0,0.0,0.0,159.6549757655184,0.0
0.001,0.0,0.0,10.0,0.0,0.0,1.0999999999999999,16.52391223203843,159.6549757655184,0.0
0.002,0.628801168244286,-0.34446401874123084,10.0,0.0,0.14789104206153533,1.9208318714931283,36.584855594411806,159.6549757655184,0.0
0.003,1.2858845815705935,-0.714896274455817,10.0,0.0,0.40037907500742226,2.608378496259647,57.14636890226372,159.6549757655184,0.0
0.004,1.8431494813769933,-1.0312720718508641,10.0,0.0,0.7274699822916814,3.1976909569986605,78.01385931662874,159.6549757655184,0.0
0.005,2.2803891191310224,-1.2797038444466358,10.0,0.0,1.1049467819330008,3.7182575512373197,99.29374949778607,159.6549757655184,0.0
0.006,2.614127503064645,-1.4687221408388824,10.0,0.0,1.5150402559112432,4.192176340161088,120.92362404035958,159.6549757655184,0.0
0.007,2.8689395189747864,-1.611691181596042,10.0,0.0,1.9453526729034032,4.6350206596795225,142.49996841608953,159.6549757655184,0.0
0.008,3.066705226299795,-1.721421641408083,9.936378813430721,0.0,2.387558940319944,5.050407350776059,163.82833270304954,159.6549757655184,0.0
0.009000000000000001,3.22150921443467,-1.803894321317498,-0.7695368994245957,0.0,2.8350579402963993,4.276410701334619,166.13069750224307,159.6549757655184,0.0
0.01,2.6889390992543367,-1.503940239413733,-1.9854765163886055,0.0,3.126587699522557,3.658000168648668,160.06870309046155,159.6549757655184,0.0
0.011,2.0405274795674826,-1.1224463905719961,1.0413834162527191,0.0,3.2881586470039497,3.5416972309278614,159.81921287075278,159.6549757655184,0.0
0.012,1.676574819811683,-0.8864224659309652,1.164486155054763,0.0,3.3997945127430285,3.4700050600453562,162.87977214259448,159.6549757655184,0.0
0.013000000000000001,1.4586928648774338,-0.7398881041950689,-0.39804144463684654,0.0,3.479339034275409,3.2638641179161225,161.068529339799,159.6549757655184,0.0
0.014,1.229919435142977,-0.598461847012371,0.4934444210180857,0.0,3.5162234647688906,3.2229667010934557,156.88909592015423,159.6549757655184,0.0
0.015,1.1108073637001386,-0.5085926011865722,2.6108199292941108,0.0,3.536858356061746,3.424658509817585,162.07136590677703,159.6549757655184,0.0
0.016,1.1772236366672293,-0.5139225696194475,-0.004478965429875359,0.0,3.5770839280836038,3.29089108255538,160.85378609046478,159.6549757655184,0.0
0.017,1.1118046088704157,-0.464225995702197,0.592322839476787,0.0,3.5943902773618284,3.2741843984958736,156.5261305277586,159.6549757655184,0.0
0.018000000000000002,1.0782590136252526,-0.4199779803561677,2.787439073207477,0.0,3.6039250073573887,3.49940961063045,162.1291621390028,159.6549757655184,0.0
0.019,1.1968683849402728,-0.451195782842746,-0.038818596149469586,0.0,3.638905223993836,3.3568437817874495,158.86915404057115,159.6549757655184,0.0
0.02,1.150677786708932,-0.40937098843529485,1.5990436703158304,0.0,3.6512179306726518,3.4467270430157453,157.8651635790066,159.6549757655184,0.0
0.021,1.1927093182897561,-0.3937245548887646,2.1189370229632187,0.0,3.6699848330603713,3.564577520459447,162.1111578978761,159.6549757655184,0.0
0.022,1.2728223660305589,-0.4115266489212036,-0.028621957795104125,0.0,3.7007747876327244,3.422697099051981,154.9686591359191,159.6549757655184,0.0
0.023,1.2211834289049868,-0.3569621529729906,3.5894905894793894,0.0,3.708117589112468,3.724033098811499,161.9751619927467,159.6549757655184,0.0
0.024,1.3828401903950347,-0.4026835603730463,0.06303729879330144,0.0,3.750434710193675,3.5535801581596598,155.472138025123,159.6549757655184,0.0
0.025,1.3398898518578042,-0.3546693514195465,3.356377660009108,0.0,3.7657360480426925,3.8082773011757216,161.5084276046379,159.6549757655184,0.0
0.026000000000000002,1.4790252139174183,-0.3850172052347335,0.3196983518604699,0.0,3.808795372417621,3.6563323429546415,154.5373410823621,159.6549757655184,0.0
0.027,1.4406839294006777,-0.3340116116173949,3.8564179598299244,0.0,3.8264401746968897,3.9489026578687256,162.41325713680087,159.6549757655184,0.0
0.028,1.6024497374198066,-0.3766012840454248,-0.10912288110228063,0.0,3.8767724481428956,3.72422608120982,152.84656383155573,159.6549757655184,0.0
0.029,1.533941971295455,-0.3021666393567686,4.742307890859915,0.0,3.8909901289383786,4.10951669524044,163.04628798275039,159.6549757655184,0.0
0.03,1.7367988030162314,-0.3689389864698044,-0.39146730690973386,0.0,3.950404407686694,3.8214711073227328,152.37410485129212,159.6549757655184,0.0
0.031,1.650532711090054,-0.2769344571158262,5.017432967961663,0.0,3.9642844780683415,4.226006126714265,161.86916775925758,159.6549757655184,0.0
0.032,1.8567287832532235,-0.34798672791235075,0.24775959404154047,0.0,4.025965838432135,3.9891783484676733,153.90058884959984,159.6549757655184,0.0
0.033,1.805489819949786,-0.2660621821056258,4.289592918029594,0.0,4.048074062188184,4.282198130145013,158.67775013929486,159.6549757655184,0.0
0.034,1.9585291298997007,-0.3111090416832455,1.9107845294443218,0.0,4.103047841747967,4.228692786318442,157.7396602539555,159.6549757655184,0.0
0.035,1.996806302804615,-0.2723839526712678,2.3989826272296337,0.0,4.1424634805820215,4.2608451335526984,154.99307287111276,159.6549757655184,0.0
0.036000000000000004,2.0331217650421385,-0.2512765676495293,3.818895347595057,0.0,4.1792182287938235,4.441420299092201,163.30604708832993,159.6549757655184,0.0
0.037,2.1364681894510853,-0.31329385361860085,-0.37410247424164567,0.0,4.237387994045212,4.121179583230634,160.88939066518546,159.6549757655184,0.0
0.038,1.9787241174279993,-0.24088544346099405,0.8218815883339206,0.0,4.249131613208278,4.030653452748671,160.53176058019017,159.6549757655184,0.0
0.039,1.8544604481980902,-0.21492926946706603,0.9919287826848495,0.0,4.248517162369084,3.9691912108791154,164.00640050603167,159.6549757655184,0.0
0.04,1.7725093286604758,-0.20176733744495567,-0.7889054276410337,0.0,4.2406296816443625,3.7239934994900787,159.3934244327817,159.6549757655184,0.0
0.041,1.5952711308286536,-0.15254838658531777,1.5201981223113172,0.0,4.203728712578869,3.7930132343316147,164.68164137608267,159.6549757655184,0.0
0.042,1.5745107777574465,-0.18251186205507242,-1.1741770054448089,0.0,4.181207985714348,3.5324798560892656,158.97629166308494,159.6549757655184,0.0
0.043000000000000003,1.4184893490936314,-0.14131510967130234,1.6852846920783908,0.0,4.130054716195133,3.6541870346121184,164.42716378532577,159.6549757655184,0.0
0.044,1.4394899009557254,-0.1921120941320965,-1.087873249240102,0.0,4.102187127294649,3.4210959028190326,159.2102956848255,159.6549757655184,0.0
0.045,1.314472989229936,-0.16909534862177966,1.5250076018169663,0.0,4.0507573722541625,3.5376374641531254,164.05389583971794,159.6549757655184,0.0
0.046,1.3455111340462198,-0.2205616787937833,-0.9407816763712504,0.0,4.022016212625156,3.335351899691436,159.7410232683105,159.6549757655184,0.0
0.047,1.2398131697986141,-0.2083811231033681,1.2147941343045483,0.0,3.9740660880852174,3.4241291651846364,163.18871210129552,159.6549757655184,0.0
0.048,1.2617947578108264,-0.2508248593480211,-0.5443876455457342,0.0,3.944579319092407,3.2806929834604133,160.67301244331088,159.6549757655184,0.0
0.049,1.185204241603925,-0.2528314047748341,0.7032818166686614,0.0,3.9034938914609607,3.3121319743142994,161.72851980932793,159.6549757655184,0.0
0.05,1.1821299430683525,-0.28095857009316205,0.15479269322203937,0.0,3.872734828408793,3.263080292795223,162.08458180346616,159.6549757655184,0.0
0.051000000000000004,1.1516516674477828,-0.30192026498245195,-0.04753436422655333,0.0,3.842171018294574,3.202408655370867,161.1365938187958,159.6549757655184,0.0
0.052000000000000005,1.1071966153124324,-0.3093915355724772,0.4116434475758539,0.0,3.80920864826535,3.2018659035289563,161.59943029443255,159.6549757655184,0.0
0.053,1.0915312005092328,-0.3313857098462859,0.16078066446833805,0.0,3.7818328865190773,3.167173150715463,161.74469843341382,159.6549757655184,0.0
0.054,1.0650781719411004,-0.34707181363769585,0.06724936829875094,0.0,3.7552309553403997,3.128185461255575,161.54511040361575,159.6549757655184,0.0
0.055,1.0323898527268354,-0.3566604409916151,0.14814203681680982,0.0,3.728288336304618,3.1036010389503788,161.5413147894989,159.6549757655184,0.0
0.056,1.0052331615845937,-0.36818761142335704,0.13117645363543162,0.0,3.7027536394158482,3.078766008970495,161.4296132863914,159.6549757655184,0.0
0.057,0.9799949520179205,-0.37851933728865017,0.16928082998045024,0.0,3.6783101273588295,3.0607267856703997,161.40428778341655,159.6549757655184,0.0
0.058,0.959042088139693,-0.3894225219682006,0.16445046128889462,0.0,3.655603077233602,3.04318718210603,161.37871779563727,159.6549757655184,0.0
0.059000000000000004,0.9396439962652644,-0.39928658713503024,0.15999803487734487,0.0,3.6343887870860168,3.026613632134624,161.3609852754134,159.6549757655184,0.0
0.06,0.9211966675912764,-0.4075848060221512,0.15180419989032434,0.0,3.6144527343819646,3.0105544357965384,161.50573926164452,159.6549757655184,0.0
0.061,0.9037040493650461,-0.4133527960921942,0.06091957181350882,0.0,3.5954558640333407,2.9859318978014207,161.42254011931516,159.6549757655184,0.0
0.062,0.8810968029594287,-0.4153541756978786,0.08484349944022274,0.0,3.576058898775994,2.967724275813016,160.9711248094809,159.6549757655184,0.0
0.063,0.8606684914376004,-0.41699169540683956,0.2973896639177279,0.0,3.556940981217468,2.9745596001173196,160.68133689483278,159.6549757655184,0.0
0.064,0.855813132670497,-0.42487241749094,0.432020009948642,0.0,3.541268892077389,2.991813283003129,160.39185708548905,159.6549757655184,0.0
0.065,0.8619957089655133,-0.4369729067127257,0.5693911014208013,0.0,3.530141626733454,3.0188102683078557,160.28408727132344,159.6549757655184,0.0
0.066,0.8780155156232736,-0.44985497616242714,0.6169848934455545,0.0,3.524122809201634,3.0441560817863134,161.52887992444562,159.6549757655184,0.0
0.067,0.8954487588068758,-0.4608475814513663,-0.024150474704805358,0.0,3.522320820658128,2.9936071450633372,161.7785838860864,159.6549757655184,0.0
0.068,0.8663431549417553,-0.4515170507726711,-0.17023853673088063,0.0,3.5145078528691287,2.941650518873943,159.1755023995187,159.6549757655184,0.0
0.069,0.8243471064264055,-0.4289408784327872,1.1360969402129677,0.0,3.499890445589489,3.0435945509067093,159.08140872856248,159.6549757655184,0.0
0.07,0.8689960399211681,-0.4461372579111965,1.1888794460606404,0.0,3.499046545707115,3.1212938167124635,161.72990905706968,159.6549757655184,0.0
0.07100000000000001,0.92645860230777,-0.47214281423951104,-0.15612005110847083,0.0,3.5087456097948855,3.0367866036747477,161.02191886871606,159.6549757655184,0.0
0.07200000000000001,0.8919997788532434,-0.4529962999567799,0.18420561203636243,0.0,3.5066578740357217,3.0169509324710666,158.09010441937536,159.6549757655184,0.0
0.073,0.8677643228151344,-0.43061396559790194,1.6657615501681389,0.0,3.5005247530954566,3.160779263304531,159.5079691601659,159.6549757655184,0.0
0.074,0.9430572221178422,-0.4548267448549833,0.9582992458263893,0.0,3.5122750063944332,3.1884504626180346,162.1554707880491,159.6549757655184,0.0
0.075,0.9814922676537988,-0.4643229137883264,-0.3904565183405042,0.0,3.526419805084959,3.0697661302992154,158.58566321886468,159.6549757655184,0.0
0.076,0.92219201094592,-0.42447404004383144,1.4051403917182357,0.0,3.5228033528733236,3.182275307522688,157.09325488646462,159.6549757655184,0.0
0.077,0.9695760662607433,-0.42683437177694605,2.1769617667088035,0.0,3.5314575888332853,3.3443110552993147,161.9646082792022,159.6549757655184,0.0
0.078,1.077282174017541,-0.4656449742016346,-0.2818112547968217,0.0,3.5596955389242986,3.201451574478652,158.97462022276375,159.6549757655184,0.0
0.079,1.0270780884856507,-0.42789001277073563,1.2199863288499493,0.0,3.566282594142499,3.2720868116514326,156.29276769375113,159.6549757655184,0.0
0.08,1.0543707048755728,-0.4128971158871122,2.59453467407393,0.0,3.5780027985132676,3.4689953441087154,162.08569844082396,159.6549757655184,0.0
0.081,1.1752084274073227,-0.45342492755025643,-0.3262379262155408,0.0,3.6128498239444693,3.299335350958671,157.41662144113465,159.6549757655184,0.0
0.082,1.1157104078281044,-0.40499667123809946,2.0306841168729513,0.0,3.621513761206578,3.4463483697884136,158.52671243818367,159.6549757655184,0.0
0.083,1.1856548265496665,-0.40480742630724587,1.486921251621792,0.0,3.644476072246177,3.487854478597715,161.1408768417131,159.6549757655184,0.0
0.084,1.2308102085648327,-0.40640272486873613,0.1649800390951306,0.0,3.6694701383538186,3.383262655070173,154.05435902976006,159.6549757655184,0.0
0.085,1.1895735117842574,-0.3559328766323483,3.764245112429229,0.0,3.675937979206326,3.705755581164181,161.71682526584092,159.6549757655184,0.0
0.08600000000000001,1.3659600064852369,-0.4115292608299399,-0.08760650061442643,0.0,3.7206286293270807,3.517134789180983,155.02363082479195,159.6549757655184,0.0
0.08700000000000001,1.3171087749639847,-0.36160818937127814,3.305304169317325,0.0,3.735940853535012,3.7707213316454564,160.86508050462922,159.6549757655184,0.0
0.088,1.453108453360398,-0.39054776464675295,0.3724782820075826,0.0,3.7787630735634856,3.6284920110420695,154.4245259007851,159.6549757655184,0.0
0.089,1.418028523073692,-0.343021213547903,3.6450600825769683,0.0,3.797562823155146,3.8992988905530996,161.59734872496367,159.6549757655184,0.0
0.09,1.5684348362812244,-0.37928702982676304,0.039224940893239246,0.0,3.8460277910404077,3.698641879725595,152.90509974070775,159.6549757655184,0.0
0.091,1.5083642863377902,-0.3115138037967015,4.452848193269301,0.0,3.8617628480282953,4.052565799573421,162.3217037864616,159.6549757655184,0.0
0.092,1.6964181425831941,-0.36989289681423115,-0.28212110981705196,0.0,3.918416223794406,3.7864013475855667,152.0158945237015,159.6549757655184,0.0
0.093,1.6162828544748975,-0.283449291598265,4.94717433398117,0.0,3.9326952292811885,4.185786290476143,161.79312762247653,159.6549757655184,0.0
0.094,1.821876845406701,-0.35379015793025603,0.037176266024068205,0.0,3.99408675985703,3.9308512058294953,152.91574082996004,159.6549757655184,0.0
0.095,1.7587512843253301,-0.26790964158843894,4.543262011637896,0.0,4.013695363449702,4.261317947030457,159.21173054941715,159.6549757655184,0.0
0.096,1.9294073015781448,-0.32183484039866367,1.399699604070353,0.0,4.071180357835746,4.1504427346733985,156.06594300612227,159.6549757655184,0.0
0.097,1.9399851716293324,-0.26961785673886224,3.008483703311758,0.0,4.105546211356798,4.265348412449777,154.86083853436278,159.6549757655184,0.0
0.098,2.013663419458431,-0.269404369264637,3.658977311503056,0.0,4.148464733517819,4.419667735148565,162.07030576374117,159.6549757655184,0.0
0.099,2.12919452680234,-0.3052158016116614,0.03009039683163306,0.0,4.20646472816553,4.1451928417682655,159.28592128625095,159.6549757655184,0.0
0.1,1.9993025086488414,-0.24203994290782427,1.425973180369418,0.0,4.223909775229546,4.109244845596964,160.13698680685374,159.6549757655184,0.0
0.101,1.9162246454388079,-0.2336186524105424,0.9956203096546707,0.0,4.235720934602369,4.02517815490676,163.45255967160483,159.6549757655184,0.0
0.10200000000000001,1.8344769308287356,-0.2163595568010739,-0.7001419617817386,0.0,4.236130021356821,3.7766303980470104,158.94153084255836,159.6549757655184,0.0
0.10300000000000001,1.652996013750203,-0.1632830049288449,1.562506901971095,0.0,4.205977594000002,3.837972747008395,164.30772119820833,159.6549757655184,0.0
0.10400000000000001,1.6240375540941443,-0.18884684017467418,-1.1671157301807853,0.0,4.188317431670768,3.568651261555104,158.64721586838056,159.6549757655184,0.0
0.105,1.4593457513839299,-0.1413971858705072,1.6732145337044786,0.0,4.1400160367032095,3.6820549774646794,164.0244307374991,159.6549757655184,0.0
0.106,1.4708161101442727,-0.18837710814453978,-1.0590874505746015,0.0,4.113527440816551,3.4474230038862514,158.84626545805355,159.6549757655184,0.0
0.107,1.3418557026757891,-0.16224917297902994,1.5380822922228226,0.0,4.062880635069769,3.5609174080366435,163.853236208681,159.6549757655184,0.0
0.108,1.3690368170824019,-0.21283310457072363,-1.0073856875225335,0.0,4.034473462139446,3.347744989337943,159.13939849498468,159.6549757655184,0.0
0.109,1.2560991860979442,-0.19673072299655284,1.3546889420309716,0.0,3.985312663343209,3.4510269348167766,163.231710634967,159.6549757655184,0.0
0.11,1.2841269455501234,-0.24294974388712187,-0.7272344766546701,0.0,3.9566412550881838,3.282219853667562,159.94930549988598,159.6549757655184,0.0
0.111,1.1951161429056993,-0.23911778874135012,0.9110247935421576,0.0,3.9130725742687993,3.338525559601684,161.85073129510195,159.6549757655184,0.0
0.112,1.2030349869679335,-0.2726593242467588,-0.06164565936166344,0.0,3.883219220581818,3.2597063034657734,161.3106967523854,159.6549757655184,0.0
0.113,1.1588208872419288,-0.28815270796641684,0.19181440212793666,0.0,3.849838133504052,3.228333688278136,160.85548860544057,159.6549757655184,0.0
0.114,1.127681821799014,-0.30226190387556456,0.4074133472011354,0.0,3.818054971328108,3.2209246654461,161.54251589230472,159.6549757655184,0.0
0.115,1.1120690889416511,-0.32650373225593493,0.04502430250119682,0.0,3.791234732249304,3.17046545427183,161.22452301139236,159.6549757655184,0.0
0.116,1.0773714893720014,-0.33703200244667714,0.18832527049863557,0.0,3.762966287398132,3.145417745857911,161.35411678014773,159.6549757655184,0.0
0.117,1.0494221057770736,-0.35096534110280286,0.10653697597465706,0.0,3.7364473007409504,3.112345697922401,161.21801036635966,159.6549757655184,0.0
0.11800000000000001,1.0195124091114807,-0.36129571735640725,0.1589598368602797,0.0,3.7102700159572715,3.089523926554649,161.22196050448434,159.6549757655184,0.0
0.11900000000000001,0.9942925017486471,-0.3729455121923199,0.14131492040828064,0.0,3.685606456184601,3.0663765272699828,161.13600728292184,159.6549757655184,0.0
0.12,0.9705333013510745,-0.3832516932049862,0.16948121601549893,0.0,3.662111694423764,3.0487135665879346,161.11404759620552,159.6549757655184,0.0
0.121,0.950178165118972,-0.3935621080588957,0.165870341066785,0.0,3.64023119659461,3.031790039579133,161.10173284297966,159.6549757655184,0.0
0.122,0.9311810140265766,-0.4028103803538552,0.15756014690510534,0.0,3.6197606016513983,3.0153789381378404,161.1199373920453,159.6549757655184,0.0
0.123,0.9130251421153427,-0.4100487848353855,0.13380825610701463,0.0,3.6003996978283963,2.9978394556994936,161.25550513938978,159.6549757655184,0.0
0.124,0.8946106121783137,-0.4146621844184803,0.05001908869606009,0.0,3.5816560260531842,2.97298258118942,160.9936245274955,159.6549757655184,0.0
0.125,0.8714381471342975,-0.41596374238107753,0.16757290702342387,0.0,3.5623980713845413,2.9648706644984237,160.5291227322704,159.6549757655184,0.0
0.126,0.856876968402846,-0.41966197536018657,0.391082334968463,0.0,3.54464851056174,2.980424647910363,160.30469430245242,159.6549757655184,0.0
0.127,0.858520160721213,-0.43113364931184844,0.496799364508111,0.0,3.531454205967303,3.0017156929264024,160.05499089498468,159.6549757655184,0.0
0.128,0.8700742747197823,-0.4428734988428387,0.6176509169473153,0.0,3.522885103042806,3.030540182837651,160.73961468321355,159.6549757655184,0.0
0.129,0.8883805219524302,-0.4555198023837461,0.264492633655933,0.0,3.5193290542960747,3.0136712407232773,162.25319164644313,159.6549757655184,0.0
0.13,0.8799859132015537,-0.4563190902392372,-0.5182780067681052,0.0,3.5144031748412727,2.9166668697668596,159.27408333860524,159.6549757655184,0.0
0.131,0.817682185802341,-0.42619521801979987,0.9750850714199717,0.0,3.4969478274136168,3.0077374568919364,158.4078859711995,159.6549757655184,0.0
0.132,0.8490306106121017,-0.4382433356748996,1.4206546530660267,0.0,3.4919716051054905,3.1179631097578606,161.22974723538925,159.6549757655184,0.0
0.133,0.9216061702579339,-0.47226419998530716,-0.006023693727556512,0.0,3.5021373842123618,3.04760843382968,161.59057522095657,159.6549757655184,0.0
0.134,0.9002796954201506,-0.4610685419165189,-0.20579368106559415,0.0,3.502679386785058,2.98066955609437,158.11886020037585,159.6549757655184,0.0
0.135,0.8525435967294237,-0.428376074736944,1.54542498487619,0.0,3.4929890865178885,3.1201482256244417,158.67127296084672,159.6549757655184,0.0
