timestamp,iq,id,iq_ref,id_ref,vq,vd,omega,omega_ref,r
0.0,0.0,0.0,0.0,0.0,0.0,0.0,0.0,384.5991913541252,0.0
0.001,0.0,0.0,10.0,0.0,0.0,1.0999999999999999,5.559337968159735,384.5991913541252,0.0
0.002,0.3394638865596344,-0.18373365590174312,10.0,0.0,0.13021070214919167,1.9526589724784393,10.480328955571125,384.5991913541252,0.0
0.003,0.6950070447666696,-0.3755582862069375,10.0,0.0,0.35192960410586216,2.6973580093867775,15.71473878627841,384.5991913541252,0.0
0.004,1.0068190983791419,-0.5420652959640554,10.0,0.0,0.6423440443279306,3.359015138484647,21.112624766636642,384.5991913541252,0.0
0.005,1.2663475148558148,-0.6780654268486856,10.0,0.0,0.9831776977373169,3.958117993418627,26.635418896529412,384.5991913541252,0.0
0.006,1.4799735719867342,-0.7873758017367892,10.0,0.0,1.3605024112280082,4.5104903460805135,32.23025978242342,384.5991913541252,0.0
0.007,1.6570052119755234,-0.8755827612181971,10.0,0.0,1.763941550429892,5.028020714997822,37.873094054457425,384.5991913541252,0.0
0.008,1.8060206979245157,-0.9476692648197539,10.0,0.0,2.1858372584046757,5.519520573889088,43.542761220631085,384.5991913541252,0.0
0.009000000000000001,1.9339154653178565,-1.0076413235544883,10.0,0.0,2.6205694428959134,5.9914817481349285,49.22325554720349,384.5991913541252,0.0
0.01,2.0459638286558532,-1.0585401543278736,10.0,0.0,3.064023677160336,6.44867365111206,54.90209707349261,384.5991913541252,0.0
0.011,2.146113714517163,-1.1026071443090082,10.0,0.0,3.513190058886221,6.894595783406559,60.570823357550125,384.5991913541252,0.0
0.012,2.237407622002448,-1.141267178045111,10.0,0.0,3.9658439494801265,7.331801509679427,66.21835154606934,384.5991913541252,0.0
0.013000000000000001,2.321998866892677,-1.175695279955909,10.0,0.0,4.4203535145147566,7.762159954521327,71.83300116196759,384.5991913541252,0.0
0.014,2.401374102784658,-1.206900254299427,10.0,0.0,4.875536233688791,8.187048147883282,77.40777485688105,384.5991913541252,0.0
0.015,2.4767497136352437,-1.2353975648251985,10.0,0.0,5.330512154696017,8.6074682289918,82.93289683226365,384.5991913541252,0.0
0.016,2.5490455244042423,-1.2615136270681637,10.0,0.0,5.7846202854548405,9.024145111014107,88.39901976458192,384.5991913541252,0.0
0.017,2.6189719824572624,-1.2854306764653676,10.0,0.0,6.237355006151279,9.437596165631929,93.79655835279387,384.5991913541252,0.0
0.018000000000000002,2.6870940666224374,-1.3072201948398738,10.0,0.0,6.6883190367670755,9.848181422179966,99.11541985683303,384.5991913541252,0.0
0.019,2.753877020863469,-1.3268699957654173,10.0,0.0,7.137188772894161,10.256139652009917,104.34487759523265,384.5991913541252,0.0
0.02,2.819719827009504,-1.3443048858057085,10.0,0.0,7.58368869828671,10.66161415333593,109.47351646609263,384.5991913541252,0.0
0.021,2.8849793475804204,-1.359403138220684,10.0,0.0,8.02757254013785,11.06467107786726,114.49002432356345,384.5991913541252,0.0
0.022,2.949992005516783,-1.3720023952828617,10.0,0.0,8.4686086260097,11.465311896963279,119.38171792369825,384.5991913541252,0.0
0.023,3.0150767822878395,-1.3819260015571686,10.0,0.0,8.906570789323517,11.863483043871422,124.1355485578334,384.5991913541252,0.0
0.024,3.08054733883438,-1.3889858833507938,10.0,0.0,9.341231201931322,12.259082378967731,128.73854296018598,384.5991913541252,0.0
0.025,3.1467185827550797,-1.3929881980111047,10.0,0.0,9.772355162582679,12.651963690549378,133.17763384305727,384.5991913541252,0.0
0.026000000000000002,3.213906768150814,-1.3937447858270384,10.0,0.0,10.199698059840209,13.041940279083663,137.4399747289217,384.5991913541252,0.0
0.027,3.2824295411958215,-1.3910807071324154,10.0,0.0,10.623003711690851,13.428787875309286,141.5131596270236,384.5991913541252,0.0
0.028,3.3526041520771592,-1.3848414211565883,10.0,0.0,11.042003877308595,13.812247297630918,145.3854677418808,384.5991913541252,0.0
0.029,3.4247444521288153,-1.3748991089783515,10.0,0.0,11.456418707116878,14.192027107385282,149.0461068246568,384.5991913541252,0.0
0.03,3.499156985131172,-1.3611580389458915,10.0,0.0,11.865957940337985,14.567806443515304,152.48546095678486,384.5991913541252,0.0
0.031,3.576136528430231,-1.3435587482447526,10.0,0.0,12.270322672573183,14.939238144921557,155.69534374977744,384.5991913541252,0.0
0.032,3.655961391346633,-1.3220808784243112,10.0,0.0,12.669207528952246,15.305952209922893,158.6762220656688,384.5991913541252,0.0
0.033,3.7389055338333876,-1.296716620992199,10.0,0.0,13.062300016574206,15.66755774701762,161.4261519426523,384.5991913541252,0.0
0.034,3.8252021400805756,-1.2675230861586597,10.0,0.0,13.44928616288608,16.023648793902748,163.93383841165337,384.5991913541252,0.0
0.035,3.915027698242029,-1.2346418545871742,10.0,0.0,13.829857799130746,16.373811505395256,166.1996676828907,384.5991913541252,0.0
0.036000000000000004,4.008545199602745,-1.198219843971851,10.0,0.0,14.203710934048232,16.71762643979493,168.22494712325081,384.5991913541252,0.0
0.037,4.105882079060626,-1.158436072793458,10.0,0.0,14.57054825419046,17.054673312519622,170.0127227858085,384.5991913541252,0.0
0.038,4.207126474128633,-1.1155005631300614,10.0,0.0,14.93008146123975,17.384535715323157,171.56770685173257,384.5991913541252,0.0
0.039,4.312326429600981,-1.0696489536312939,10.0,0.0,15.28203326591623,17.706805647399996,172.8962002423045,384.5991913541252,0.0
0.04,4.421490141875095,-1.021136242181776,10.0,0.0,15.62613900116829,18.02108775794137,174.00596654717947,384.5991913541252,0.0
0.041,4.534587071460081,-0.9702301923357,10.0,0.0,15.962147835580708,18.327003205822205,174.90598812711573,384.5991913541252,0.0
0.042,4.651550003044514,-0.9172043955539282,10.0,0.0,16.289823554192438,18.624193039177765,175.6061351943972,384.5991913541252,0.0
0.043000000000000003,4.772278633202582,-0.8623300196918944,10.0,0.0,16.60894476090153,18.912320941057384,176.1186701457761,384.5991913541252,0.0
0.044,4.896643244784695,-0.805868535785903,10.0,0.0,16.919304617656653,19.191075352447516,176.45361529836995,384.5991913541252,0.0
0.045,5.024501842026838,-0.7480424942956523,10.0,0.0,17.220707680150397,19.46016950879332,178.47107291097015,384.5991913541252,0.0
0.046,5.152565526776199,-0.6943820865103136,10.0,0.0,17.51355546758787,19.719686136403915,183.73200207836982,384.5991913541252,0.0
0.047,5.229758295516319,-0.7269405738582173,10.0,0.0,17.807188176728776,19.97532531228328,189.09393898006115,384.5991913541252,0.0
0.048,5.288983266967418,-0.7851252744549773,10.0,0.0,18.103096264735687,20.229021022316577,194.67326550823293,384.5991913541252,0.0
0.049,5.338309966757555,-0.8544485723873505,10.0,0.0,18.401826830711833,20.482104282884826,200.49338248870805,384.5991913541252,0.0
0.05,5.38043360339748,-0.9299427339186814,10.0,0.0,18.703603790936313,20.735611940961377,206.58510545425455,384.5991913541252,0.0
0.051000000000000004,5.416188229312992,-1.0099438438053174,10.0,0.0,19.008599001418222,20.990434756768426,212.94688569892645,384.5991913541252,0.0
0.052000000000000005,5.445805265946014,-1.0937668390657604,10.0,0.0,19.31699749081242,21.24737448427247,219.56165735727177,384.5991913541252,0.0
0.053,5.469261924519479,-1.181034795196894,10.0,0.0,19.629011349239427,21.50717602588878,226.40367653739972,384.5991913541252,0.0
0.054,5.486418362811269,-1.271432577894069,10.0,0.0,19.94487505252074,21.7705461575598,233.4481031925819,384.5991913541252,0.0
0.055,5.497105760563198,-1.3645714197531098,10.0,0.0,20.264830693418542,22.03816159702205,240.6684840816302,384.5991913541252,0.0
0.056,5.501198944734522,-1.459891732216989,10.0,0.0,20.58910616012523,22.310667680346533,248.09100771229168,384.5991913541252,0.0
0.057,5.498973467220558,-1.5560606828764791,10.0,0.0,20.917830069941605,22.588636436377488,255.623435956684,384.5991913541252,0.0
0.058,5.490566673299454,-1.6519790246526598,10.0,0.0,21.251067792468216,22.87258320034317,263.13499471589273,384.5991913541252,0.0
0.059000000000000004,5.475831348728139,-1.747143487227899,10.0,0.0,21.588885326604252,23.16299587792857,270.5829718393734,384.5991913541252,0.0
0.06,5.455404416905003,-1.8398216617542298,10.0,0.0,21.931205329657374,23.46024865042387,277.9016087425335,384.5991913541252,0.0
0.061,5.430272117403488,-1.9278728484246495,10.0,0.0,22.27777745844319,23.764568429601887,285.0089834721711,384.5991913541252,0.0
0.062,5.40148712593264,-2.0093745691304443,10.0,0.0,22.628209029679166,24.07602846980746,291.8831465061661,384.5991913541252,0.0
0.063,5.371788328419067,-2.0798879754315633,10.0,0.0,22.98168490529816,24.394364680927858,298.2272041762642,384.5991913541252,0.0
0.064,5.340352996843537,-2.141753134416077,10.0,0.0,23.33774684789258,24.719375756996286,304.10319472118357,384.5991913541252,0.0
0.065,5.312280126443314,-2.1877486577978233,10.0,0.0,23.695144559816548,25.05026558214558,309.3576171138329,384.5991913541252,0.0
0.066,5.289090306259828,-2.217357706644458,10.0,0.0,24.05268852320236,25.386076347488533,313.9040536368343,384.5991913541252,0.0
0.067,5.2739106111836005,-2.2281252129944353,10.0,0.0,24.408947501993925,25.72549830089232,317.7435262436124,384.5991913541252,0.0
0.068,5.26953823936135,-2.218767656673114,10.0,0.0,24.76238577198786,26.066933120784565,320.57362643385704,384.5991913541252,0.0
0.069,5.281057584239508,-2.1846391038354143,10.0,0.0,25.11096313172269,26.408257434032162,322.4571447750045,384.5991913541252,0.0
0.07,5.306206366780235,-2.1337029227303512,10.0,0.0,25.45355349241563,26.74765587929779,323.33832908569394,384.5991913541252,0.0
0.07100000000000001,5.353737485511104,-2.0558226284940915,10.0,0.0,25.787767191010886,27.08239658087115,323.38773400571256,384.5991913541252,0.0
0.07200000000000001,5.416489176748215,-1.9667069946907205,10.0,0.0,26.11300967312796,27.41065720729793,322.3840366367995,384.5991913541252,0.0
0.073,5.505656098571926,-1.8518370927321506,10.0,0.0,26.42680943679857,27.729435174805502,320.76564235481334,384.5991913541252,0.0
0.074,5.610076182464188,-1.7321539843234564,10.0,0.0,26.72909057794752,28.03712078191947,318.1854908899144,384.5991913541252,0.0
0.075,5.740523245354859,-1.5926549504227259,10.0,0.0,27.01776410304798,28.330960966357893,315.16417927297204,384.5991913541252,0.0
0.076,5.88644262469763,-1.4515418705064917,10.0,0.0,27.292826845630476,28.609537823763702,311.4230520423085,384.5991913541252,0.0
0.077,6.052945115108756,-1.301373729187429,10.0,0.0,27.553133634949344,28.870907189535398,307.3852257765511,384.5991913541252,0.0
0.078,6.2342829315963595,-1.151080977084128,10.0,0.0,27.79851616059533,29.113888162752275,302.88060727072934,384.5991913541252,0.0
0.079,6.430404804767343,-0.999982380121812,10.0,0.0,28.028540612853583,29.33734926332814,298.1711287162064,384.5991913541252,0.0
0.08,6.638099662342643,-0.8518491079477212,10.0,0.0,28.24312505597407,29.540581483470678,293.089038090777,384.5991913541252,0.0
0.081,6.856482960907139,-0.7062749227867744,10.0,0.0,28.442042449150797,29.72300371164465,287.49025266448405,384.5991913541252,0.0
0.082,7.0837753598674595,-0.5639324161448845,10.0,0.0,28.625108391948245,29.88425712541892,294.8183418545798,384.5991913541252,0.0
0.083,7.246633840569524,-0.5419616349036702,10.0,0.0,28.80499972097326,30.032050283207873,304.1279499677437,384.5991913541252,0.0
0.084,7.301090524053847,-0.6811126398408502,10.0,0.0,28.997207551230172,30.178691607744184,313.0914817710412,384.5991913541252,0.0
0.085,7.319776999065459,-0.8560487229613203,10.0,0.0,29.20271019000892,30.328378637436117,322.60763579110653,384.5991913541252,0.0
0.08600000000000001,7.314808847741522,-1.0431468999766675,10.0,0.0,29.421462706519463,30.4843805894325,332.38913530520017,384.5991913541252,0.0
0.08700000000000001,7.289917798296197,-1.2345430961529251,10.0,0.0,29.653122766387817,30.649345931806028,342.09240491655123,384.5991913541252,0.0
0.088,7.2459732960202405,-1.4278200273619173,10.0,0.0,29.897459854977924,30.82556573068494,351.9612079226946,384.5991913541252,0.0
0.089,7.183590861570424,-1.621055023437096,10.0,0.0,30.15430829485308,31.015019881301686,361.96158356776465,384.5991913541252,0.0
0.09,7.104005731717055,-1.8111885758147899,10.0,0.0,30.42339964660319,31.219344000783654,371.8183487265842,384.5991913541252,0.0
0.091,7.0093760876446,-1.9937169290751238,10.0,0.0,30.70419105846136,31.439758253041877,381.3410738137038,384.5991913541252,0.0
0.092,6.900310733710428,-2.167556950558437,8.913797661961654,0.0,30.996241873190094,31.557778856567904,390.2491096104562,384.5991913541252,0.0
0.093,6.749812337545397,-2.2983334903322126,4.403280581022165,0.0,31.283536685958822,31.22337179573006,395.39001195197386,384.5991913541252,0.0
0.094,6.443791097207123,-2.3255953173099866,1.7249212042848345,0.0,31.51035234693672,30.733777914096713,397.678850403553,384.5991913541252,0.0
0.095,6.054203026919129,-2.271948576906655,0.4497053880009947,0.0,31.659353293939347,30.242129316028947,397.94908163840824,384.5991913541252,0.0
0.096,5.663938211343052,-2.163372960639523,0.18109086773053562,0.0,31.732882436049593,29.836783482411793,396.33369309199503,384.5991913541252,0.0
0.097,5.328150157191415,-2.028788564763305,0.8714401235584441,0.0,31.744805553203378,29.59098374751207,393.5395111395938,384.5991913541252,0.0
0.098,5.086683138887567,-1.8929450937826693,2.1791279019043737,0.0,31.717359447302705,29.531101952349385,389.9565138892448,384.5991913541252,0.0
0.099,4.960064149018103,-1.7670929095914087,3.91705330172769,0.0,31.674184466924604,29.664072061012604,385.91707444299317,384.5991913541252,0.0
0.1,4.955298803137008,-1.6549199260733718,5.923594193964814,0.0,31.637543489105564,29.982025903067765,381.55558634533224,384.5991913541252,0.0
0.101,5.068025750297752,-1.5586540572349377,8.134774292883206,0.0,31.626894477536897,30.475237047447667,376.9606081029142,384.5991913541252,0.0
0.10200000000000001,5.284375418292249,-1.4886012045022488,10.0,0.0,31.659888326450876,31.078454009018586,371.94725844871357,384.5991913541252,0.0
0.10300000000000001,5.5847189841767255,-1.4264056604970898,10.0,0.0,31.7437635053173,31.575122106685296,367.1251273842975,384.5991913541252,0.0
0.10400000000000001,5.892913764583529,-1.3389735367808537,10.0,0.0,31.85992239789503,31.999612922286083,362.2232161385166,384.5991913541252,0.0
0.105,6.203430725790467,-1.2139195180221067,10.0,0.0,31.994032861948757,32.36219562765585,356.3991638107892,384.5991913541252,0.0
0.106,6.510777466330564,-1.0656924005742625,10.0,0.0,32.135936107402415,32.67122813704669,350.11314197114814,384.5991913541252,0.0
0.107,6.814761865251344,-0.9062636925197856,10.0,0.0,32.27849739253827,32.93318290356791,342.71588019768734,384.5991913541252,0.0
0.108,7.116132605419242,-0.7446536267195354,10.0,0.0,32.41681520565518,33.15308738452134,334.9912090747051,384.5991913541252,0.0
0.109,7.418600135323739,-0.581614923199711,10.0,0.0,32.54697352882657,33.334575477803305,327.0125509047426,384.5991913541252,0.0
0.11,7.72263000557004,-0.42006416217099174,10.0,0.0,32.666124632331055,33.48051198364617,336.8115195415198,384.5991913541252,0.0
0.111,7.89421106470423,-0.4754986193204136,10.0,0.0,32.79566757396611,33.60793633145289,347.3813196034677,384.5991913541252,0.0
0.112,7.953952815928213,-0.6715365267281301,10.0,0.0,32.94600848146168,33.73071675659916,358.4456384999657,384.5991913541252,0.0
0.113,7.964277848128656,-0.9035277271764648,10.0,0.0,33.11715199369755,33.85571489395054,369.8520818576213,384.5991913541252,0.0
0.114,7.938958561380167,-1.1471007023965725,10.0,0.0,33.30815408371471,33.988215940654705,381.4388565686312,384.5991913541252,0.0
0.115,7.883037499601446,-1.393634027177506,8.935240817282413,0.0,33.51798900537427,34.01534170551942,392.39708957183564,384.5991913541252,0.0
0.116,7.762762166190056,-1.6211635809328377,3.378145333503088,0.0,33.73211592901961,33.472776550732526,400.10131481189666,384.5991913541252,0.0
0.117,7.426488250155993,-1.7495524632770736,-0.6289885211051365,0.0,33.88242112634205,32.65645421204938,405.52304591922314,384.5991913541252,0.0
0.11800000000000001,6.932952299238119,-1.793464109648068,-3.549092620419356,0.0,33.93960996234131,31.706580730028943,408.47537855340295,384.5991913541252,0.0
0.11900000000000001,6.35607976400257,-1.7755421785243648,-5.264020809502039,0.0,33.893682037651274,30.75649303937124,409.2451451723013,384.5991913541252,0.0
0.12,5.769975574727775,-1.7191739072744125,-5.89536365713298,0.0,33.751316845838204,29.903225629429606,408.1680743451581,384.5991913541252,0.0
0.121,5.233927841253666,-1.6433064472214332,-5.592517073471714,0.0,33.530079694318964,29.213779202769288,405.5988816144949,384.5991913541252,0.0
0.122,4.789744492594878,-1.5625598124817817,-4.517917610743817,0.0,33.253898160064765,28.729830869704244,402.053810370159,384.5991913541252,0.0
0.123,4.464652087159847,-1.4850954692179683,-2.919928178736191,0.0,32.94922633451787,28.463010390525127,397.837741609874,384.5991913541252,0.0
0.124,4.26797546902389,-1.4171499945775023,-0.9442793011511803,0.0,32.64164028482994,28.412129762864094,393.18520201661966,384.5991913541252,0.0
0.125,4.199730192433448,-1.360911569080267,1.296130388851049,0.0,32.35421800528641,28.56780738436837,388.39632331794866,384.5991913541252,0.0
0.126,4.251059670989743,-1.321426442326503,3.6525984185483136,0.0,32.10732473615972,28.909653706727436,383.56746658016505,384.5991913541252,0.0
0.127,4.412381506560845,-1.293933621211831,6.0773440351797205,0.0,31.916676067126524,29.418551300343154,378.8694679557348,384.5991913541252,0.0
0.128,4.673527731603952,-1.2726781813352805,8.483640581378737,0.0,31.793918854182948,30.070826565210524,373.9986641591172,384.5991913541252,0.0
0.129,5.013977822055095,-1.2664992079221802,10.0,0.0,31.7481977563438,30.753497105183957,368.6959491204471,384.5991913541252,0.0
0.13,5.400165376445411,-1.2482352144282487,10.0,0.0,31.77336857273569,31.30908875711149,363.56143523192196,384.5991913541252,0.0
0.131,5.771065619264088,-1.1928349000361733,10.0,0.0,31.845670078032974,31.774701174319333,358.60534838436956,384.5991913541252,0.0
0.132,6.125881533422022,-1.0948861424155227,10.0,0.0,31.947082314326945,32.1656617522069,352.8057438521316,384.5991913541252,0.0
0.133,6.466172102559016,-0.966977362202404,10.0,0.0,32.06435890653305,32.493783692471624,346.4947635338745,384.5991913541252,0.0
0.134,6.793569687914638,-0.8245324299858132,10.0,0.0,32.18833017880332,32.76821026923276,339.0452479946637,384.5991913541252,0.0
0.135,7.112514083032864,-0.6752398718164612,10.0,0.0,32.31234924944623,32.99578140793534,331.2875882281284,384.5991913541252,0.0
0.136,7.427354433362308,-0.5221522998643922,10.0,0.0,32.43137681956206,33.18155434524691,326.28325089638616,384.5991913541252,0.0
0.137,7.737814916751031,-0.3720539894877244,10.0,0.0,32.54209898797555,33.32965049616943,338.4038674730403,384.5991913541252,0.0
0.138,7.866967857557402,-0.5023583248430694,10.0,0.0,32.67239301463279,33.46290703018624,348.14816593189573,384.5991913541252,0.0
0.139,7.917328871927369,-0.7145419135348483,10.0,0.0,32.82502044342854,33.59161913129446,359.2719256335205,384.5991913541252,0.0
0.14,7.922214973000734,-0.9524364498929745,10.0,0.0,32.999302902568004,33.72268890419705,370.5700474832184,384.5991913541252,0.0
0.14100000000000001,7.892920603408685,-1.1973712877093092,10.0,0.0,33.19382797987999,33.86135118738919,382.1197621596737,384.5991913541252,0.0
0.14200000000000002,7.833579213825622,-1.4431571761146462,7.819309680438872,0.0,33.40735387712643,33.77195842399981,392.30582162023535,384.5991913541252,0.0
0.14300000000000002,7.672152563117683,-1.6502335818008214,2.6492136474969517,0.0,33.61090845405072,33.18311738392807,399.6096527900106,384.5991913541252,0.0
0.14400000000000002,7.307666670853859,-1.7615340172383962,-1.152806551749535,0.0,33.745395753116675,32.34547382561017,404.5356352894489,384.5991913541252,0.0
0.145,6.800050149465211,-1.7926895148824742,-3.815162240821925,0.0,33.78498406683071,31.40239738765527,407.0719533012686,384.5991913541252,0.0
0.146,6.224139118141934,-1.766978235637334,-5.308048866203196,0.0,33.72316610968445,30.478267501197724,407.5046243609279,384.5991913541252,0.0
0.147,5.65076185371486,-1.7068534981430368,-5.753438726100873,0.0,33.56876035127514,29.663617178110112,406.18168660997395,384.5991913541252,0.0
