timestamp,iq,id,iq_ref,id_ref,vq,vd,omega,omega_ref,r
0.0,0.0,0.0,0.0,0.0,0.0,0.0,0.0,138.54831477037487,0.0
0.001,0.0,0.0,10.0,0.0,0.0,1.0999999999999999,4.367581426025123,138.54831477037487,0.0
0.002,0.5998308989797609,-0.3062070273695103,10.0,0.0,0.14368277301064605,1.924018601112226,9.803808335677978,138.54831477037487,0.0
0.003,1.297955679819546,-0.6889664184458841,10.0,0.0,0.3944405915761563,2.609208202511715,15.114793202343373,138.54831477037487,0.0
0.004,1.9413775286676171,-1.046243466226365,10.0,0.0,0.7241144697701535,3.187159470062917,20.428245689006683,138.54831477037487,0.0
0.005,2.477357905476884,-1.3404467514951057,10.0,0.0,1.1074056778016277,3.6877593757178597,25.818570238030095,138.54831477037487,0.0
0.006,2.9005793352212654,-1.5692405071125317,10.0,0.0,1.524653035860678,4.135433858106666,31.260102597600742,138.54831477037487,0.0
0.007,3.227061651624658,-1.7426046712172332,10.0,0.0,1.9617252268480476,4.548384787555567,36.704226978857164,138.54831477037487,0.0
0.008,3.4790076809567463,-1.8734491985241846,10.0,0.0,2.4090445480442875,4.9392986030958195,42.15036215569284,138.54831477037487,0.0
0.009000000000000001,3.6775151763012444,-1.9736069494718051,10.0,0.0,2.860432226006097,5.316536605007096,47.586821147787624,138.54831477037487,0.0
0.01,3.8397424103915316,-2.0525173858864854,10.0,0.0,3.3120835068589924,5.6853296537269395,52.93301770984407,138.54831477037487,0.0
0.011,3.9776737907777124,-2.1183834790732523,10.0,0.0,3.7619051303849806,6.048858346158513,58.20974009476163,138.54831477037487,0.0
0.012,4.100587201367231,-2.1752000179471547,10.0,0.0,4.208688619145788,6.40887517033854,63.44091921752012,138.54831477037487,0.0
0.013000000000000001,4.214250507056765,-2.2261155769191223,10.0,0.0,4.651827987546696,6.766294831456693,68.6224000748316,138.54831477037487,0.0
0.014,4.322257084195264,-2.273082457819269,10.0,0.0,5.0910525865286225,7.121542372874783,73.74577473720228,138.54831477037487,0.0
0.015,4.426834828748293,-2.317067868155503,10.0,0.0,5.526248206082152,7.47476413391981,78.80526762594097,138.54831477037487,0.0
0.016,4.529320252295514,-2.3584395849424884,10.0,0.0,5.957357474528035,7.825955661671017,83.79139161366456,138.54831477037487,0.0
0.017,4.6304808261770685,-2.397253478516593,10.0,0.0,6.384330780029734,8.175036154600196,88.69265775325091,138.54831477037487,0.0
0.018000000000000002,4.730799790671087,-2.4333244276646493,10.0,0.0,6.807094469744726,8.521882448431102,93.50585006170958,138.54831477037487,0.0
0.019,4.83067458254103,-2.4662398929385225,10.0,0.0,7.225526411559954,8.86633744438966,98.22900889830329,138.54831477037487,0.0
0.02,4.930417783042667,-2.495566246073111,10.0,0.0,7.6394574029815825,9.208217130797406,102.8687848140338,138.54831477037487,0.0
0.021,5.030387407443487,-2.52074827668108,10.0,0.0,8.048660023737353,9.547302721027467,107.40064336658268,138.54831477037487,0.0
0.022,5.130762374199984,-2.541547835542689,10.0,0.0,8.452887072609249,9.883358464210895,111.80688283459108,138.54831477037487,0.0
0.023,5.231928687392079,-2.5574285597727062,10.0,0.0,8.851835874988982,10.216106793179598,116.07687148112015,138.54831477037487,0.0
0.024,5.334275039199782,-2.5679067093906167,10.0,0.0,9.245158419243287,10.54522873392248,120.19890122530386,138.54831477037487,0.0
0.025,5.4381983077872444,-2.5725450830426366,10.0,0.0,9.632466342751993,10.870362638989967,124.1603199138165,138.54831477037487,0.0
0.026000000000000002,5.5441149185727285,-2.5709311380215873,10.0,0.0,10.013332946727736,11.191102351401039,127.94852003855775,138.54831477037487,0.0
0.027,5.652449514125074,-2.5626897451465402,9.21253777797146,0.0,10.387296447780969,11.42037626914254,131.17524559745547,138.54831477037487,0.0
0.028,5.717201979544193,-2.5239218315093694,7.672905690251792,0.0,10.742608933931692,11.496594812545752,133.4586377379085,138.54831477037487,0.0
0.029,5.6877388700314935,-2.4252608707712264,6.58210639034994,0.0,11.059546999262837,11.500019614812302,134.69118726015785,138.54831477037487,0.0
0.03,5.5851865811961865,-2.282041650214989,6.004402904327439,0.0,11.33036623363372,11.493142473598606,135.36742665860606,138.54831477037487,0.0
0.031,5.460854445106736,-2.113591354236699,5.698092086221019,0.0,11.556318490094096,11.498768826893375,136.0784990156366,138.54831477037487,0.0
0.032,5.345849180046629,-1.947296586919238,5.367254065253135,0.0,11.743630234792773,11.50450595417502,136.26197544968616,138.54831477037487,0.0
0.033,5.248710526736469,-1.7908275953644084,5.2983792414352395,0.0,11.89723587635189,11.5336678920016,136.2221080290767,138.54831477037487,0.0
0.034,5.188561458034968,-1.6473496742732312,5.341575019152948,0.0,12.024179266133272,11.586359495012614,136.31948240579453,138.54831477037487,0.0
0.035,5.166648980468522,-1.5275583039418625,5.31517615443984,0.0,12.131955205712078,11.644949325650348,136.00038980687077,138.54831477037487,0.0
0.036000000000000004,5.178194902117236,-1.4203507051835829,5.500201703536761,0.0,12.224217612236682,11.727585390072953,135.85125867941406,138.54831477037487,0.0
0.037,5.22281278264728,-1.3349530204092714,5.601737828174725,0.0,12.30719571521349,11.81571029928315,135.19393336091278,138.54831477037487,0.0
0.038,5.297429351605229,-1.255101695929917,5.963944301519986,0.0,12.38275882996866,11.934386234911535,135.63134889757205,138.54831477037487,0.0
0.039,5.401299655187593,-1.1985930807979437,5.774406191918377,0.0,12.457215792391416,12.013600063958481,134.14812349755502,138.54831477037487,0.0
0.04,5.50218958739894,-1.141992284877707,6.5600208046550925,0.0,12.526487440076695,12.170592005332647,134.76281917699825,138.54831477037487,0.0
0.041,5.659438703509428,-1.0865743252673612,6.290527920867244,0.0,12.59900114953292,12.265023050543846,133.99568027743203,138.54831477037487,0.0
0.042,5.788266637558085,-1.0543451648273867,6.719623715579782,0.0,12.670715564512353,12.39455924685156,133.27868441963494,138.54831477037487,0.0
0.043000000000000003,5.9531436861573575,-0.9953237760313449,7.130817947985725,0.0,12.742042096461448,12.542405476638546,133.8110024838538,138.54831477037487,0.0
0.044,6.120417337463483,-0.9734197194764862,6.912032038741508,0.0,12.819201365861261,12.637670013143138,131.75759358823018,138.54831477037487,0.0
0.045,6.2819019523785204,-0.9205049949862092,8.006643698374765,0.0,12.892569582843162,12.837628593461755,133.54816927901695,138.54831477037487,0.0
0.046,6.489974861147297,-0.8971998449460536,7.16135730789496,0.0,12.976562416899224,12.899727344082176,130.724525406408,138.54831477037487,0.0
0.047,6.6449034572714165,-0.8519529384521505,8.651417137839106,0.0,13.053621734397796,13.121413531758847,132.69924100637712,138.54831477037487,0.0
0.048,6.873524849472458,-0.8225557616271635,7.722550075494518,0.0,13.142362518528367,13.187961990079495,130.1972016088383,138.54831477037487,0.0
0.049,7.039930116214899,-0.7809817685040943,9.057080905879296,0.0,13.224604902602657,13.396798377527247,131.83986966203454,138.54831477037487,0.0
0.05,7.26994177072914,-0.7491509155795217,8.302831330364576,0.0,13.316421033123824,13.473025373698036,129.30379017135144,138.54831477037487,0.0
0.051000000000000004,7.447982600234277,-0.7040448465934612,9.663316321696364,0.0,13.40203489115073,13.69072275340509,134.88467940981943,138.54831477037487,0.0
0.052000000000000005,7.6267514213894145,-0.7814360908530986,6.909508056067924,0.0,13.509821198904072,13.560803859779671,134.2213411256284,138.54831477037487,0.0
0.053,7.614026409789213,-0.8151020494163634,7.284446934610895,0.0,13.5967663295189,13.526624285075707,138.3870196297166,138.54831477037487,0.0
0.054,7.564628620097957,-0.8505825423317139,5.203220633973382,0.0,13.675165184236905,13.27717940579811,137.0687009519011,138.54831477037487,0.0
0.055,7.372621770634083,-0.8439424056262266,5.877176111065876,0.0,13.719694445588598,13.176093040950736,140.2112687320769,138.54831477037487,0.0
0.056,7.2099408163185,-0.8408463667571184,4.289262681360958,0.0,13.749387981411827,12.924133043164868,139.44924206156273,138.54831477037487,0.0
0.057,6.9611556746104,-0.8385982749772705,4.66126674370616,0.0,13.750699834167058,12.782877535939676,140.58740384890885,138.54831477037487,0.0
0.058,6.759757402329957,-0.8301580550032677,4.071794959247759,0.0,13.736849007644906,12.606982786332408,141.61170649753365,138.54831477037487,0.0
0.059000000000000004,6.543148338268846,-0.851995898088981,3.529009717663773,0.0,13.709280353753412,12.415293784627924,141.53119364573644,138.54831477037487,0.0
0.06,6.3301541365288045,-0.8562199626162448,3.539437354808763,0.0,13.665545933747765,12.26785498175732,142.54398001275487,138.54831477037487,0.0
0.061,6.136047900720435,-0.8837181236899254,2.993087518875745,0.0,13.614423632528448,12.089805602770648,142.57905959805782,138.54831477037487,0.0
0.062,5.940615015088954,-0.9060811061764227,2.9352402779474396,0.0,13.552793569995174,11.94310578847931,143.160194571413,138.54831477037487,0.0
0.063,5.761554200950266,-0.938252858222369,2.59855399325947,0.0,13.485971795186286,11.786198291156325,143.36219746186592,138.54831477037487,0.0
0.064,5.585068659804591,-0.9729391266604237,2.449413721118101,0.0,13.413635220133711,11.642883600380713,143.64794526509746,138.54831477037487,0.0
0.065,5.419329835523153,-1.009337488938944,2.2555435145551037,0.0,13.337857790675091,11.503298816436391,143.87084332070035,138.54831477037487,0.0
0.066,5.25976270999825,-1.0488476544597134,2.090869201250408,0.0,13.2596817603524,11.36981429110768,144.02906384665997,138.54831477037487,0.0
0.067,5.107426284565016,-1.0884977971804988,1.9569514475077465,0.0,13.179941294573183,11.243937741043327,144.1831851785038,138.54831477037487,0.0
0.068,4.9623242139667125,-1.1290996387773793,1.8235420775045377,0.0,13.099656921513903,11.123776809756045,144.28967163760376,138.54831477037487,0.0
0.069,4.823649624531506,-1.169555440426134,1.712885279282271,0.0,13.019429012397216,11.010568564319037,144.37167508059431,138.54831477037487,0.0
0.07,4.691630092744113,-1.2094189412415912,1.6136499546847993,0.0,12.939883496721714,10.903984437392824,144.4283459880544,138.54831477037487,0.0
0.07100000000000001,4.566026513760697,-1.2483837982604666,1.5265141887779672,0.0,12.861521619185059,10.804007788958204,144.45799559581442,138.54831477037487,0.0
0.07200000000000001,4.446751584803555,-1.2860109817001313,1.4525925766435543,0.0,12.784747606166782,10.710796804333116,144.46447065064302,138.54831477037487,0.0
0.073,4.333829924804162,-1.322024272630914,1.3901934904265731,0.0,12.709915086155817,10.624333466816548,144.44550486116165,138.54831477037487,0.0
0.074,4.227274975571133,-1.356175098972431,1.3407044842593905,0.0,12.637315942382548,10.544805239049959,144.3989145181191,138.54831477037487,0.0
0.075,4.127243963377298,-1.388268619185128,1.3054936583032175,0.0,12.567212669169928,10.472529480738189,144.33469616436466,138.54831477037487,0.0
0.076,4.034028259777835,-1.4182148699804904,1.2797390212405473,0.0,12.499865299832754,10.407243486392998,144.25549533604595,138.54831477037487,0.0
0.077,3.9476488941650905,-1.4458621576533344,1.2622676297431887,0.0,12.43546580713084,10.348656621035937,144.16242175392375,138.54831477037487,0.0
0.078,3.8680324599001388,-1.4709691749632627,1.2526633509688008,0.0,12.374132876190778,10.2965007503072,144.05830385018166,138.54831477037487,0.0
0.079,3.7950679491020747,-1.4933140251730315,1.249622412041779,0.0,12.31592451462182,10.250418644908239,143.94739125453265,138.54831477037487,0.0
0.08,3.7285824077010754,-1.5126978081563922,1.2510879450247074,0.0,12.260837546295935,10.209899296355799,143.837507112331,138.54831477037487,0.0
0.081,3.668312954511598,-1.5288950116501427,1.2531380927059717,0.0,12.208795194501873,10.174098831177956,143.65488165357428,138.54831477037487,0.0
0.082,3.613432577510432,-1.5422261048944357,1.2933851532523368,0.0,12.159681479591365,10.146514999460013,143.3604497662163,138.54831477037487,0.0
0.083,3.56574674988295,-1.5535339196480118,1.392479746972909,0.0,12.113831301690567,10.131972751395624,143.09932422742514,138.54831477037487,0.0
0.084,3.5293531820127284,-1.5635348422770639,1.4775324217979873,0.0,12.07209894011507,10.126190992830598,142.83345935646517,138.54831477037487,0.0
0.085,3.503110253330072,-1.5725309106670218,1.5676134114170708,0.0,12.034851197137227,10.128395342550764,142.56784888623397,138.54831477037487,0.0
0.08600000000000001,3.4864576343323406,-1.579618229604799,1.6602233053740774,0.0,12.00223830782844,10.13751012024313,142.37219395802705,138.54831477037487,0.0
0.08700000000000001,3.478744247918268,-1.5837220191340733,1.7198119776010157,0.0,11.974178728878606,10.148762732556348,142.17657444600462,138.54831477037487,0.0
0.088,3.4755961720099036,-1.5857304899595754,1.7813391368559346,0.0,11.95023026295059,10.162525381024805,141.87318641656606,138.54831477037487,0.0
0.089,3.476829519432435,-1.583581124392146,1.8997844351133053,0.0,11.929796393541551,10.184763480293821,141.5621948128001,138.54831477037487,0.0
0.09,3.4855126051294842,-1.5785394915050237,2.0251414365720306,0.0,11.913096635038409,10.214396393920465,141.24669100483504,138.54831477037487,0.0
0.091,3.502061912948145,-1.5719134213522996,2.155909578209958,0.0,11.900351692360319,10.250793372896633,140.872765411986,138.54831477037487,0.0
0.092,3.526735482226398,-1.563553335212153,2.3196278682183706,0.0,11.891667593073764,10.296428890649503,140.44162240232532,138.54831477037487,0.0
0.093,3.5619935470088833,-1.5524451901604472,2.516266296729203,0.0,11.887277160396863,10.352993839501243,140.39051655070543,138.54831477037487,0.0
0.094,3.6104013746974197,-1.5377977426662182,2.5233972047358444,0.0,11.88748212809898,10.397308985397828,140.46207883718054,138.54831477037487,0.0
0.095,3.6520075944728747,-1.5275836178306597,2.4684784208302304,0.0,11.891121034363575,10.427008132266867,139.55051534678978,138.54831477037487,0.0
0.096,3.6880570581848486,-1.505217181889681,2.9142381602614624,0.0,11.895007797983466,10.500134635441391,139.04903410840927,138.54831477037487,0.0
0.097,3.7502320480897797,-1.4804839895100272,3.1599715860713715,0.0,11.903321548756463,10.582431489852809,139.27478297173633,138.54831477037487,0.0
0.098,3.8260761235818994,-1.4630335334140678,3.039832472394229,0.0,11.917361391646546,10.633936298732714,138.71853902818773,138.54831477037487,0.0
0.099,3.888959940710483,-1.4444220021725918,3.3162522015903972,0.0,11.933274967260006,10.707143393232762,137.69814259149913,138.54831477037487,0.0
0.1,3.9656259074672455,-1.4174147214034685,3.8349521417234547,0.0,11.952133209189938,10.821109513794873,138.06757809572807,138.54831477037487,0.0
0.101,4.0733510894724505,-1.3933795962433535,3.655041756355457,0.0,11.978128448023165,10.88950459434895,137.86396456412848,138.54831477037487,0.0
0.10200000000000001,4.159479657324857,-1.3769263451046627,3.7636920242177143,0.0,12.00679416465482,10.959013433405755,136.67866504295762,138.54831477037487,0.0
0.10300000000000001,4.248548020214816,-1.3433627893183262,4.375038282077318,0.0,12.036016734903885,11.081663311666606,136.88447729301032,138.54831477037487,0.0
0.10400000000000001,4.370308549281823,-1.3127642603706329,4.288770531824612,0.0,12.071551833327744,11.166864569451418,136.70422035137878,138.54831477037487,0.0
0.105,4.475286571409278,-1.2933923328875014,4.397339946830343,0.0,12.11022862095403,11.24957454730994,135.410512427809,138.54831477037487,0.0
0.106,4.5843178594293965,-1.2568133918213673,5.075571932040887,0.0,12.149478763361094,11.390457368907404,135.97903847866692,138.54831477037487,0.0
0.107,4.728687597611965,-1.2257214231244395,4.81700166952901,0.0,12.195837846541204,11.47116151553753,135.4523032876656,138.54831477037487,0.0
0.108,4.842704096562629,-1.2051921330584316,5.111329379856771,0.0,12.243684133846019,11.572294789081083,134.12019022181917,138.54831477037487,0.0
0.109,4.975225798308347,-1.1598501855232675,5.8216671582655355,0.0,12.292076798446502,11.729856020319927,135.20984354711354,138.54831477037487,0.0
0.11,5.1366473960039585,-1.1368593433212397,5.310225207850967,0.0,12.349310746543944,11.796707243836181,133.59319400687912,138.54831477037487,0.0
0.111,5.2580459143531355,-1.1076048007432555,6.168101185603134,0.0,12.404518330921713,11.950337895825989,133.68237298481134,138.54831477037487,0.0
0.112,5.429894116592592,-1.0631936594250757,6.1721711144926585,0.0,12.464975541941469,12.06830585639207,133.6689180558364,138.54831477037487,0.0
0.113,5.580612031196493,-1.0459103625675101,6.227692546125512,0.0,12.529726776674707,12.171728911610202,132.0159559059886,138.54831477037487,0.0
0.114,5.737893829069601,-0.9975479923971879,7.11949720969328,0.0,12.59319816570627,12.353034264835966,133.31045188590164,138.54831477037487,0.0
0.115,5.927825797509674,-0.9787922260855506,6.524627848581487,0.0,12.666873440564677,12.428882846734657,131.21025552810298,138.54831477037487,0.0
0.116,6.078087467673279,-0.9421210254337964,7.648106619903539,0.0,12.736919771718535,12.61941599235227,132.47077644916374,138.54831477037487,0.0
0.117,6.285694152858235,-0.9068012854537701,7.07862154258527,0.0,12.815496324927487,12.702688191636566,130.8055368400536,138.54831477037487,0.0
0.11800000000000001,6.442518158711354,-0.8771278397592943,7.988669126443548,0.0,12.891631561117377,12.876116337518932,131.4799376493111,138.54831477037487,0.0
0.11900000000000001,6.649761489125749,-0.8338793980049332,7.7221524930254395,0.0,12.973035494140486,12.98016936063042,130.1292986561778,138.54831477037487,0.0
0.12,6.819949636494811,-0.8065438953716191,8.481662150734053,0.0,13.054129915300308,13.15152044050875,130.70100138853584,138.54831477037487,0.0
0.121,7.035495098458772,-0.762616362690219,8.274283918373428,0.0,13.139691328763357,13.261431033036125,129.24457283446196,138.54831477037487,0.0
0.122,7.216484674544379,-0.7346843710286739,9.095535614769497,0.0,13.225054416376887,13.44356477783446,131.10455288610456,138.54831477037487,0.0
0.123,7.442784786779656,-0.6980804853222637,8.239983207790903,0.0,13.316347462197802,13.49061505859769,132.18770909150712,138.54831477037487,0.0
0.124,7.528171855419421,-0.7714586834650056,7.762011161878301,0.0,13.411653872165719,13.490938638458065,135.04480069088373,138.54831477037487,0.0
0.125,7.561616933442247,-0.8073243007733405,6.3685005029849036,0.0,13.50067343504537,13.349428961413935,135.45991492742218,138.54831477037487,0.0
0.126,7.459646844664746,-0.8425870810708558,6.191827383145209,0.0,13.570160323592285,13.237024432314502,137.3878207918299,138.54831477037487,0.0
0.127,7.337440082611385,-0.8405515380837532,5.239479390726792,0.0,13.620881532843013,13.052240539950173,138.20941128373175,138.54831477037487,0.0
0.128,7.137921980804779,-0.8580757547187395,4.8320731796423,0.0,13.650000251191953,12.876440878030431,138.9116365856442,138.54831477037487,0.0
0.129,6.936924964353334,-0.8432778313562734,4.477327310533383,0.0,13.656824117777802,12.706299561438012,140.15548759917337,138.54831477037487,0.0
0.13,6.721554674742993,-0.854985441543157,3.839330075480815,0.0,13.647387282400008,12.508903287691352,140.13744984576297,138.54831477037487,0.0
0.131,6.501328475759616,-0.8507280745679653,3.8324576014321323,0.0,13.618569116716186,12.357998136978809,141.28444371400136,138.54831477037487,0.0
0.132,6.298484111555029,-0.8708800950546056,3.231599377876676,0.0,13.579801548452776,12.173386622991206,141.30622887936534,138.54831477037487,0.0
0.133,6.093919148146671,-0.8839398589357066,3.1931276541047815,0.0,13.527684639438998,12.025609898529536,142.04464900866017,138.54831477037487,0.0
0.134,5.907295006183502,-0.9115659962623376,2.7889542470745097,0.0,13.468910026347555,11.861807804058916,142.21459500483581,138.54831477037487,0.0
0.135,5.722739913763218,-0.9403315699975235,2.6673184466420796,0.0,13.402520616855794,11.717605072495545,142.60996232864525,138.54831477037487,0.0
0.136,5.551722453910415,-0.9736746387693034,2.4290183091546567,0.0,13.331729956984418,11.573153385679646,142.8490220976449,138.54831477037487,0.0
0.137,5.386295077591779,-1.01087890357062,2.2664813513821294,0.0,13.257332232859017,11.43705857437462,143.05852350690435,138.54831477037487,0.0
