timestamp,iq,id,iq_ref,id_ref,vq,vd,omega,omega_ref,r
0.0,0.0,0.0,0.0,0.0,0.0,0.0,0.0,348.248283874726,0.0
0.001,0.0,0.0,10.0,0.0,0.0,1.0999999999999999,8.28856175275493,348.248283874726,0.0
0.002,0.5712161866069008,-0.32130166281078026,10.0,0.0,0.1453431829091858,1.9271662194732406,18.227636395021758,348.248283874726,0.0
0.003,1.233259692301009,-0.6947178960963789,10.0,0.0,0.39673143850808507,2.619037511529793,28.900798837600266,348.248283874726,0.0
0.004,1.8371037950299909,-1.0347136293084316,10.0,0.0,0.7258333660732196,3.2070580836973326,39.98735458528091,348.248283874726,0.0
0.005,2.3349542433192685,-1.3139648948947256,10.0,0.0,1.1081448399809666,3.7204616831201025,51.334209571825866,348.248283874726,0.0
0.006,2.725779563995256,-1.5322206076667757,10.0,0.0,1.5247811421892783,4.182743789199902,62.77797808145838,348.248283874726,0.0
0.007,3.027024849877798,-1.6989810044730786,10.0,0.0,1.962143111305712,4.6112325866522355,74.24372734166238,348.248283874726,0.0
0.008,3.260036527331243,-1.8262813503302524,10.0,0.0,2.4109531973319607,5.017989869609924,85.67050349726425,348.248283874726,0.0
0.009000000000000001,3.4441685762736154,-1.924896132802539,10.0,0.0,2.865132625664734,5.4110280242653435,96.93010864290765,348.248283874726,0.0
0.01,3.5950063756806268,-2.002854231628493,10.0,0.0,3.3207871696759037,5.79542946884315,108.21778337065336,348.248283874726,0.0
0.011,3.7233210703591304,-2.0670454528241384,10.0,0.0,3.7755978570869986,6.174349984943725,119.34330000393992,348.248283874726,0.0
0.012,3.837479304259693,-2.120657055140237,10.0,0.0,4.228074891409856,6.549585259393082,130.26146766235107,348.248283874726,0.0
0.013000000000000001,3.943098543764765,-2.165669278918508,10.0,0.0,4.677242978337811,6.922068175823227,140.9428119042019,348.248283874726,0.0
0.014,4.043993470064288,-2.203011258890003,10.0,0.0,5.122400043775069,7.292177359805263,151.30767066088077,348.248283874726,0.0
0.015,4.142999266415204,-2.2325674561093733,10.0,0.0,5.56293008296122,7.659909643597215,161.42405832754474,348.248283874726,0.0
0.016,4.241802180270507,-2.254473879341132,10.0,0.0,5.99829449119125,8.025043440368009,171.18244039786296,348.248283874726,0.0
0.017,4.342150297619455,-2.2678177786831704,10.0,0.0,6.427884602970662,8.387150034514901,180.52092899427575,348.248283874726,0.0
0.018000000000000002,4.445540746729238,-2.2716111032575323,10.0,0.0,6.8510101896965825,8.745635512196454,189.53193532093383,348.248283874726,0.0
0.019,4.552622646795682,-2.2660772926081068,10.0,0.0,7.267025113100887,9.099839896266232,197.94850495448424,348.248283874726,0.0
0.02,4.665418599603438,-2.2491597568374173,10.0,0.0,7.6750533917434565,9.448888598461279,205.8353817650334,348.248283874726,0.0
0.021,4.785075618456142,-2.220268493035552,10.0,0.0,8.074174849080777,9.791800945755355,213.12632611929246,348.248283874726,0.0
0.022,4.912509321632822,-2.1792824229613723,10.0,0.0,8.463455840343629,10.12751306689285,219.8549321387605,348.248283874726,0.0
0.023,5.047965949542191,-2.127248826334787,10.0,0.0,8.842066109665765,10.454956183004613,225.8274777140548,348.248283874726,0.0
0.024,5.19426976158427,-2.0610141425482587,10.0,0.0,9.208794184416611,10.772777161391883,231.13912783196693,348.248283874726,0.0
0.025,5.347819830160375,-1.9878274165540828,10.0,0.0,9.563243356509602,11.080061379992555,235.23430204493079,348.248283874726,0.0
0.026000000000000002,5.513341164074673,-1.9013895098384535,10.0,0.0,9.904199730774586,11.37539024789765,238.69121290226494,348.248283874726,0.0
0.027,5.689213946409594,-1.805305813624323,10.0,0.0,10.230888526887185,11.657591073721035,241.368653794954,348.248283874726,0.0
0.028,5.875751249801475,-1.699934861754587,10.0,0.0,10.542498558227333,11.925480321023581,243.36224462795533,348.248283874726,0.0
0.029,6.07237716034923,-1.5867592149200123,10.0,0.0,10.838340899530614,12.17797816960356,244.7471451446664,348.248283874726,0.0
0.03,6.278551048246901,-1.4668856699949808,10.0,0.0,11.117794458088156,12.414097598892594,245.88709110988194,348.248283874726,0.0
0.031,6.4937472514854315,-1.3410259996060292,10.0,0.0,11.38026877542531,12.63294059763122,247.30499140009772,348.248283874726,0.0
0.032,6.717601931237789,-1.209172289321217,10.0,0.0,11.625134649475175,12.833674675489329,245.38146930921943,348.248283874726,0.0
0.033,6.905864809151039,-1.1458351756477705,10.0,0.0,11.859938798504635,13.020351563193676,260.39725534264943,348.248283874726,0.0
0.034,7.026556502800543,-1.1920137723599074,10.0,0.0,12.09564323817665,13.20044771950822,272.2871806997934,348.248283874726,0.0
0.035,7.09248635460426,-1.3169564681505128,10.0,0.0,12.339068760082764,13.380059337396599,274.85082681871125,348.248283874726,0.0
0.036000000000000004,7.145665229066159,-1.4463407291790795,10.0,0.0,12.58909573334234,13.56086196801398,293.55482814163827,348.248283874726,0.0
0.037,7.171075916351771,-1.6037123977168144,10.0,0.0,12.848217313266563,13.746323646038782,304.7869013411528,348.248283874726,0.0
0.038,7.169678921240182,-1.7877422576055553,10.0,0.0,13.118642470903227,13.93955909058866,313.09933498000476,348.248283874726,0.0
0.039,7.160841740183884,-1.964142606585853,10.0,0.0,13.39891239702016,14.141471626412287,328.81044489004165,348.248283874726,0.0
0.04,7.132458996850296,-2.152394292859964,10.0,0.0,13.690290266108109,14.354253631221384,343.2929868780459,348.248283874726,0.0
0.041,7.086272238826066,-2.3485007259291573,7.237018242562246,0.0,13.993497739543042,14.275763945089535,355.47440386130336,348.248283874726,0.0
0.042,6.858990380421689,-2.477545865576074,1.074048551067741,0.0,14.270769398051764,13.60968626326859,358.69858828789955,348.248283874726,0.0
0.043000000000000003,6.244860417821789,-2.4019517498919956,-0.6425467063620927,0.0,14.444100318405804,12.976029211380222,359.7341467279927,348.248283874726,0.0
0.044,5.497694889987962,-2.228133177991146,-1.2751845549413376,0.0,14.518368339783358,12.446693654382399,359.5146417915481,348.248283874726,0.0
0.045,4.773042282264291,-2.034475936155739,-1.2780956658872622,0.0,14.512711892440482,12.055964743075116,358.14067206475215,348.248283874726,0.0
0.046,4.160896205085011,-1.863562579352977,-0.6900346843895431,0.0,14.451684301871218,11.828548439650966,356.1044020436426,348.248283874726,0.0
0.047,3.712250420814388,-1.7377861510356756,0.2495391444760635,0.0,14.361891566469584,11.758473094370522,354.3556669982165,348.248283874726,0.0
0.048,3.4386137190398327,-1.667614581872427,1.062832835954202,0.0,14.267609461755288,11.792106157204392,352.9250856616856,348.248283874726,0.0
0.049,3.31319612908129,-1.6370684898952736,1.7313554863500586,0.0,14.183460519369955,11.889411825789901,350.6249100285611,348.248283874726,0.0
0.05,3.299741691183355,-1.6244739786952984,2.85767704137397,0.0,14.116377102769476,12.086007990096185,348.33604114372804,348.248283874726,0.0
0.051000000000000004,3.3964813480199294,-1.6308764044824817,4.001233911100475,0.0,14.076491856208273,12.359988329800471,345.46460897262966,348.248283874726,0.0
0.052000000000000005,3.5888591775386938,-1.6500565416301143,5.464786745670626,0.0,14.070038959101979,12.731943189304955,342.6695853090997,348.248283874726,0.0
0.053,3.8852201105814617,-1.674171759786583,6.918085563091862,0.0,14.103887710282498,13.180608690379483,343.05227040334404,348.248283874726,0.0
0.054,4.268785999858717,-1.7069148068005193,6.77870315068352,0.0,14.182578719442386,13.518698824435411,343.2242615955725,348.248283874726,0.0
0.055,4.637781137835959,-1.6965609644151651,6.742947777360824,0.0,14.285743287959354,13.791555972775592,343.93486077588864,348.248283874726,0.0
0.056,4.969193697965295,-1.6428304911644334,6.4307824181911295,0.0,14.400070300824911,13.980697797123561,339.7712890893731,348.248283874726,0.0
0.057,5.245406162580039,-1.5480928866919248,8.59733820930242,0.0,14.511994963079248,14.3767316854309,329.99656778780377,348.248283874726,0.0
0.058,5.632714305281229,-1.4583072627183091,10.0,0.0,14.643401505346507,14.837140119147577,332.8017558955814,348.248283874726,0.0
0.059000000000000004,6.112801310647513,-1.3839995052232483,10.0,0.0,14.800432239673986,15.201685256649057,334.36807592360543,348.248283874726,0.0
0.06,6.5781686552642515,-1.3127467273199873,10.0,0.0,14.971119686324462,15.49908941597896,322.1687126464088,348.248283874726,0.0
0.061,7.025968180970721,-1.20017035672651,10.0,0.0,15.142807931256625,15.739217629659372,322.4325724506852,348.248283874726,0.0
0.062,7.448615103069726,-1.0523983072486112,10.0,0.0,15.306211011326981,15.930488680291132,312.8542209260023,348.248283874726,0.0
0.063,7.835863841327411,-0.8986668026782397,10.0,0.0,15.456968143445517,16.080602041879402,334.0450010032522,348.248283874726,0.0
0.064,8.046169298827339,-0.9827064412948389,10.0,0.0,15.618442573804556,16.21151866757828,341.35394965103296,348.248283874726,0.0
0.065,8.139010599000365,-1.1928581900689497,8.590643729687905,0.0,15.799137519676563,16.182352395564806,353.12613093000476,348.248283874726,0.0
0.066,8.103173736235282,-1.3763255725571977,2.6557746196492173,0.0,15.97692623834599,15.540300673844643,361.9056237411875,348.248283874726,0.0
0.067,7.639686887245389,-1.4452367950246756,-1.8705451846067795,0.0,16.078476473623,14.592311693556894,361.6789068367199,348.248283874726,0.0
0.068,6.842673070844512,-1.3523261261517676,-1.8914929619928929,0.0,16.064163501542836,13.87527222866992,364.30926360210555,348.248283874726,0.0
0.069,6.028686645241479,-1.2577182862146112,-3.3672811419595234,0.0,15.970100124477629,13.14794655969347,365.1519894477235,348.248283874726,0.0
0.07,5.216891103120192,-1.1640535806881385,-3.9576811204984805,0.0,15.803353479012767,12.51491864944584,364.2627108002174,348.248283874726,0.0
0.07100000000000001,4.4779207072638485,-1.085784105979038,-3.6731860660003433,0.0,15.582305711906885,12.03888610957966,362.61364917510235,348.248283874726,0.0
0.07200000000000001,3.871930721796862,-1.0478902937606072,-2.9923089064465804,0.0,15.332373842928039,11.719672778438248,360.5662252921249,348.248283874726,0.0
0.073,3.422625550033192,-1.0566834101027494,-2.091776379131842,0.0,15.076860008652755,11.54300106896151,358.4700508355067,348.248283874726,0.0
0.074,3.128081407978247,-1.1080954437269797,-1.145906820430549,0.0,14.834797779392577,11.481392277097314,356.62599365789697,348.248283874726,0.0
0.075,2.96814487521946,-1.1905614725437177,-0.30765532945739515,0.0,14.619338036705589,11.499134687096474,354.87669417054656,348.248283874726,0.0
0.076,2.9124143977116583,-1.2858813683700694,0.5007103112596059,0.0,14.43685903753995,11.57862557459443,353.085555574152,348.248283874726,0.0
0.077,2.9363649000209744,-1.3799296059655397,1.3479068924626185,0.0,14.289969134217904,11.713835580922082,352.0538429496237,348.248283874726,0.0
0.078,3.0230453596123494,-1.468582554145026,1.8257076139778037,0.0,14.18010056378462,11.855626364307449,350.00535939213256,348.248283874726,0.0
0.079,3.1430203945130764,-1.5317123177657799,2.8323786375493003,0.0,14.101455673249687,12.065876568445496,347.7862815844419,348.248283874726,0.0
0.08,3.3151528408390254,-1.581069780712068,3.9465375642974747,0.0,14.056498315469936,12.34199321607598,344.99567342107866,348.248283874726,0.0
0.081,3.54677642624101,-1.6231070220529729,5.374367750515564,0.0,14.047778880149245,12.70816492445099,342.01490297478614,348.248283874726,0.0
0.082,3.859997924831986,-1.6575981540648168,6.927086782661224,0.0,14.079922211306021,13.161230181139288,342.29234346857623,348.248283874726,0.0
0.083,4.255096390887279,-1.6964836258949583,6.847925939827674,0.0,14.158090225597146,13.507639745961113,342.64805865060504,348.248283874726,0.0
0.084,4.633839548870201,-1.6922771939355017,6.726070601054483,0.0,14.262230832707496,13.77690191417558,343.29309132405837,348.248283874726,0.0
0.085,4.9683571144925835,-1.639897770728648,6.453106189834495,0.0,14.377163923695106,13.96783489379454,339.43753391289533,348.248283874726,0.0
0.08600000000000001,5.246607492487752,-1.5467572965055758,8.468992395034318,0.0,14.489975345613374,14.3483826453113,329.1031913843996,348.248283874726,0.0
0.08700000000000001,5.624969115876668,-1.456582743907292,10.0,0.0,14.620572604447911,14.811571463569605,331.90458103275637,348.248283874726,0.0
0.088,6.105172603400108,-1.3787474201235965,10.0,0.0,14.776768879134604,15.177152282442195,333.5493463896553,348.248283874726,0.0
0.089,6.56978234781478,-1.3087197586748305,10.0,0.0,14.946978918718353,15.475489609885805,321.5955764184592,348.248283874726,0.0
0.09,7.017527857915199,-1.1975427607264404,10.0,0.0,15.118472493928262,15.716408299876537,321.89187707968136,348.248283874726,0.0
0.091,7.440421684668314,-1.0508358427352076,10.0,0.0,15.281882589616696,15.908343612547345,312.36110198350167,348.248283874726,0.0
0.092,7.827689131422061,-0.8982314578890858,10.0,0.0,15.432825793850212,16.05905592264454,333.6128053963492,348.248283874726,0.0
0.093,8.03758224601302,-0.983649914165996,10.0,0.0,15.59466798270901,16.190575754017896,340.80750859406527,348.248283874726,0.0
0.094,8.131244722527882,-1.1928597611133371,8.612171354415464,0.0,15.775636834420704,16.16426272885477,352.8815822292975,348.248283874726,0.0
0.095,8.09674626122813,-1.3770581568144244,2.528801553253622,0.0,15.954047223502569,15.50811695521529,361.0862281707841,348.248283874726,0.0
0.096,7.626670950680553,-1.441739841293391,-1.7019008604502606,0.0,16.05427499764797,14.582246529899374,361.12549554480637,348.248283874726,0.0
0.097,6.838805338049752,-1.3521034757705523,-1.8503066641621873,0.0,16.041386134794934,13.866932774542226,363.84885642092513,348.248283874726,0.0
0.098,6.029736347974239,-1.2591953164690075,-3.367992827683559,0.0,15.948931248823548,13.137519021267256,364.6707074488823,348.248283874726,0.0
0.099,5.218897399135556,-1.1652883394508446,-3.943142577403705,0.0,15.783379790242822,12.504813138360149,363.7847650794631,348.248283874726,0.0
0.1,4.480379657336492,-1.086583298969308,-3.6555362047414848,0.0,15.563394404546662,12.029339458485227,362.1453867415534,348.248283874726,0.0
0.101,3.874692310674361,-1.0484286801895797,-2.9748180644549067,0.0,15.31445023177168,11.71065797044793,360.1293402231098,348.248283874726,0.0
0.10200000000000001,3.425666264371313,-1.057021903426973,-2.085605368716944,0.0,15.059859128214379,11.533292420691891,358.05009567482654,348.248283874726,0.0
0.10300000000000001,3.1306813147095687,-1.1081214485829638,-1.1440012125763142,0.0,14.818525597771988,11.470846729773575,356.2187073442166,348.248283874726,0.0
0.10400000000000001,2.969929085619093,-1.1902493783518817,-0.30801128196626415,0.0,14.603603928105024,11.487788001411888,354.48654715963005,348.248283874726,0.0
0.105,2.9132286624440096,-1.2853420745336825,0.4956861774779826,0.0,14.421507469850898,11.56621932441079,352.70265340825915,348.248283874726,0.0
0.106,2.936035807620825,-1.3791749312437371,1.3430893578280996,0.0,14.274834476998363,11.700699454327262,351.6808468501165,348.248283874726,0.0
0.107,3.0216497892157497,-1.4678027864442154,1.8196670071455232,0.0,14.165087531927677,11.841824315064574,349.66088093132026,348.248283874726,0.0
0.108,3.140585971202296,-1.5310995271657115,2.8155239959776956,0.0,14.086504130365153,12.050413647296885,347.45252890872865,348.248283874726,0.0
0.109,3.3111970862131823,-1.5804052633240724,3.9276575569334744,0.0,14.041428665752315,12.325083967135184,344.7040483986189,348.248283874726,0.0
0.11,3.5411156788319174,-1.6225029250750436,5.337340166749417,0.0,14.032465465015616,12.688138525960621,341.7046733737261,348.248283874726,0.0
0.111,3.85163784142493,-1.6567666492447295,6.902463784205816,0.0,14.064052073276287,13.14019982869284,341.7375891446498,348.248283874726,0.0
0.112,4.245129254936517,-1.6951994103061516,6.9511128460447305,0.0,14.14157111745917,13.499734988745281,342.56073552108995,348.248283874726,0.0
0.113,4.629114643721552,-1.6955575810974175,6.596415141361017,0.0,14.246946844405432,13.753261820445926,343.06178327639986,348.248283874726,0.0
0.114,4.9571294708881135,-1.6416223006186743,6.397756269689321,0.0,14.361201219266558,13.941426265733615,338.5593790514648,348.248283874726,0.0
0.115,5.231097962797126,-1.546623491092213,8.745847430389457,0.0,14.472936084927223,14.355619934534053,329.5610251973855,348.248283874726,0.0
0.116,5.627493613002285,-1.4598492839813848,10.0,0.0,14.606321656214934,14.813179757467196,332.4906162133263,348.248283874726,0.0
0.117,6.106166904729875,-1.3913897095349423,10.0,0.0,14.765461841549193,15.177090523951701,333.1387668873985,348.248283874726,0.0
0.11800000000000001,6.572026806517197,-1.3184431738131868,10.0,0.0,14.937739561813544,15.474066376041858,321.7079728628467,348.248283874726,0.0
0.11900000000000001,7.016795505877975,-1.208036174943877,10.0,0.0,15.111071790742068,15.71430645703762,321.9493095989616,348.248283874726,0.0
0.12,7.438372732304739,-1.0589060075805712,10.0,0.0,15.275794556456049,15.905929944913325,312.61102331141166,348.248283874726,0.0
0.121,7.823125018072275,-0.9063633433188931,10.0,0.0,15.427919002991047,16.056756381402696,332.4927535764665,348.248283874726,0.0
0.122,8.039203853896547,-0.9790747125877344,10.0,0.0,15.58943732578367,16.187791469813632,341.29446609498945,348.248283874726,0.0
0.123,8.12969666606398,-1.1922366604601988,8.22296210715348,0.0,15.770628025711414,16.11860729246945,350.3239082738775,348.248283874726,0.0
0.124,8.074541817653017,-1.3620044322978608,3.6874847737179266,0.0,15.94332407333538,15.600300436549883,362.98160841640606,348.248283874726,0.0
0.125,7.6697554669346815,-1.4549009122395078,-2.788698542963144,0.0,16.0554407656802,14.528043429579027,360.76216507420554,348.248283874726,0.0
0.126,6.8312765066445955,-1.3419689061701106,-1.8041156838576793,0.0,16.0357686026264,13.835474562332871,363.07111648324815,348.248283874726,0.0
0.127,6.013379018447237,-1.2428763789834645,-3.106819714464204,0.0,15.939035911223527,13.138636027646994,364.21438796058794,348.248283874726,0.0
0.128,5.21681487697611,-1.1557119517587586,-3.8381164939927217,0.0,15.7736954737695,12.513835552527183,363.49029376991166,348.248283874726,0.0
0.129,4.489154426988049,-1.0831984195123134,-3.6284894976064366,0.0,15.555304188274032,12.037430026655711,361.91523545536404,348.248283874726,0.0
0.13,3.8878287312344826,-1.0479821735370998,-2.977629856139008,0.0,15.30796282700616,11.715193437452406,359.924162953408,348.248283874726,0.0
0.131,3.4385488429087863,-1.057337480225013,-2.0988523959477936,0.0,15.054513189140165,11.534010826007293,357.8615221438846,348.248283874726,0.0
0.132,3.1410574196826335,-1.1081305677980748,-1.1636643738776935,0.0,14.81378394048241,11.467915677417505,356.0485590754004,348.248283874726,0.0
0.133,2.976899051389231,-1.1896096460464367,-0.3351855916423476,0.0,14.598972869563049,11.481220410926127,354.3166150797209,348.248283874726,0.0
0.134,2.916485348530392,-1.2839566318767743,0.4701030941474533,0.0,14.416536756745336,11.557014455238015,352.52079533664806,348.248283874726,0.0
0.135,2.9360682898270625,-1.3772968663918639,1.3252878510646595,0.0,14.269247615578943,11.69024465966871,351.49742149266007,348.248283874726,0.0
0.136,3.0194064450674736,-1.4660378826968121,1.8044833968793172,0.0,14.158838518420646,11.830611224346658,349.53256841870916,348.248283874726,0.0
0.137,3.136666938145195,-1.5299822444028908,2.774067088414938,0.0,14.079653457070599,12.035697200765615,347.3187118405324,348.248283874726,0.0
0.138,3.3045545683537627,-1.5791884948513573,3.890291097845261,0.0,14.033668743429722,12.308149843137478,344.65183436907495,348.248283874726,0.0
0.139,3.5317643894616273,-1.6215187141909357,5.259694328630491,0.0,14.023692027012988,12.664916661180364,341.5752164661235,348.248283874726,0.0
0.14,3.8374016230277026,-1.6552417739722893,6.864733954192244,0.0,14.053675898424768,13.116521454800036,341.66101071307065,348.248283874726,0.0
0.14100000000000001,4.228304703681069,-1.6940483217166753,6.887709562335218,0.0,14.129753351711402,13.47249811030282,342.20715683434497,348.248283874726,0.0
0.14200000000000002,4.60930554717503,-1.694029195546716,6.675047772101868,0.0,14.233430555863517,13.738861230599085,342.8452114242892,348.248283874726,0.0
