timestamp,iq,id,iq_ref,id_ref,vq,vd,omega,omega_ref,r
0.0,0.0,0.0,0.0,0.0,0.0,0.0,0.0,237.2291132701704,0.0
0.001,0.0,0.0,10.0,0.0,0.0,1.0999999999999999,18.173659044888954,237.2291132701704,0.0
0.002,0.5138260761045412,-0.27960116618756325,10.0,0.0,0.14075612828063186,1.9334791316285,35.861891011012744,237.2291132701704,0.0
0.003,0.8720580813446571,-0.4682259219362125,10.0,0.0,0.3687372683665264,2.663418703106846,54.44954313840748,237.2291132701704,0.0
0.004,1.15659054898122,-0.6139218136555514,10.0,0.0,0.6610545521233071,3.315446180058326,73.61641899564594,237.2291132701704,0.0
0.005,1.3857490363163647,-0.7276204390878896,10.0,0.0,1.0003927450799215,3.909140528759837,93.17248734575897,237.2291132701704,0.0
0.006,1.5730578098602275,-0.8172523794157224,10.0,0.0,1.373889080792763,4.459086881670383,113.11251813239863,237.2291132701704,0.0
0.007,1.7290257882385573,-0.8878769465671924,10.0,0.0,1.7719028012087592,4.976104842974983,133.0984619270125,237.2291132701704,0.0
0.008,1.8607601953046773,-0.9444450746164436,10.0,0.0,2.1873331941275183,5.468291275197231,153.0008427656445,237.2291132701704,0.0
0.009000000000000001,1.97419767555859,-0.9895496825233941,10.0,0.0,2.6148350165658982,5.941641324731861,172.69650943907163,237.2291132701704,0.0
0.01,2.0738984479939124,-1.024963594381353,10.0,0.0,3.0503661459392095,6.40057384139152,192.03677309337778,237.2291132701704,0.0
0.011,2.1634925211599203,-1.0517814148422422,10.0,0.0,3.4908332351732723,6.848307878998636,210.85654468028187,237.2291132701704,0.0
0.012,2.246019559868846,-1.0705258856232664,10.0,0.0,3.9338207328259465,7.287133188242126,228.98114069246526,237.2291132701704,0.0
0.013000000000000001,2.3241453455288426,-1.0813012769060735,6.082872386583877,0.0,4.377389859971,7.28772211281525,239.14926399295527,237.2291132701704,0.0
0.014,2.205884196526664,-0.9776266438717858,0.9796092291110239,0.0,4.765149003312261,6.824211370704555,239.1353738939362,237.2291132701704,0.0
0.015,1.894196781928994,-0.7657098510685381,0.9674916723829052,0.0,5.045507057230312,6.528630321589411,239.23186272201505,237.2291132701704,0.0
0.016,1.6892844801662092,-0.6124723249643031,0.8992197638250279,0.0,5.253534240901609,6.302677927451433,239.07872967287156,237.2291132701704,0.0
0.017,1.5365631889175762,-0.4947028540872578,0.9572901243697618,0.0,5.406741200256546,6.141944168859603,237.03237498569857,237.2291132701704,0.0
0.018000000000000002,1.430536379521013,-0.40482818508177104,1.9824348508009764,0.0,5.519845568934974,6.134925434485571,235.10693253884625,237.2291132701704,0.0
0.019,1.4131448131255957,-0.3515873485081285,2.9663778815403754,0.0,5.615979881975111,6.238754100743337,236.2259093722756,237.2291132701704,0.0
0.02,1.4521692134200341,-0.33150230982807805,2.4169215038046516,0.0,5.711206684447941,6.267067100124676,235.73374404855576,237.2291132701704,0.0
0.021,1.4598394710657199,-0.29415407445585323,2.6779578578807137,0.0,5.7958346511074765,6.335826558202803,235.08852230937603,237.2291132701704,0.0
0.022,1.4908706796334927,-0.26860203712606057,3.0219746370785234,0.0,5.876438525156319,6.438067618944075,234.54140701392666,237.2291132701704,0.0
0.023,1.541641192292257,-0.2510270246592723,3.3224093473656473,0.0,5.957528386876353,6.562478167048921,234.46605251374135,237.2291132701704,0.0
0.024,1.6055769491907232,-0.23823584503298134,3.387717205022594,0.0,6.041719037600645,6.680210935622435,233.89547743484502,237.2291132701704,0.0
0.025,1.667989106141905,-0.2241706530655534,3.7063411028240103,0.0,6.127844640789705,6.82275906289697,233.64561182725637,237.2291132701704,0.0
0.026000000000000002,1.7454036680197893,-0.2134641847113914,3.8671089210474734,0.0,6.2185754367880275,6.9662716785524665,233.21095620122645,237.2291132701704,0.0
0.027,1.8244901637030084,-0.2031911554257282,4.124618304751873,0.0,6.31356144621419,7.123299097361121,233.19884848973263,237.2291132701704,0.0
0.028,1.91266959148188,-0.1937376731726227,4.170974808303164,0.0,6.413814443823611,7.267737624686278,241.91423387599167,237.2291132701704,0.0
0.029,1.9634701798969685,-0.23162675837122215,-0.23356909088457023,0.0,6.522748328598986,6.918087934645827,242.11451305896733,237.2291132701704,0.0
0.03,1.7703635820744645,-0.16462036180912043,-0.3825626802603712,0.0,6.578074261418962,6.66370247789213,244.58765390977265,237.2291132701704,0.0
0.031,1.6312632324667575,-0.12828449635302497,-1.6927185120590549,0.0,6.599102174047021,6.311030926970323,244.35823532880514,237.2291132701704,0.0
0.032,1.45062023358857,-0.0796587153678806,-1.649300442161643,0.0,6.577774663066288,6.0320865947907265,244.24708733584117,237.2291132701704,0.0
0.033,1.3149182336178473,-0.05156337264992861,-1.6639061863363689,0.0,6.528081240076545,5.789983922180822,243.7732421178334,237.2291132701704,0.0
0.034,1.202656172258863,-0.0356608886795442,-1.4924248658091153,0.0,6.457678572315224,5.597122983982458,243.14068547031383,237.2291132701704,0.0
0.035,1.1171877525667506,-0.03415149521060501,-1.2352622640507602,0.0,6.375023069068318,5.451359851368489,242.63805377868803,237.2291132701704,0.0
0.036000000000000004,1.0561364116196637,-0.04391599831931969,-1.0380358233230398,0.0,6.287145992161353,5.336891727460948,242.22781568848194,237.2291132701704,0.0
0.037,1.0104693630483295,-0.059772282263439225,-0.8829038024031086,0.0,6.198256356757097,5.244587828080758,241.88506845032836,237.2291132701704,0.0
0.038,0.9748932508007406,-0.07872616989725328,-0.7580897351278995,0.0,6.110951659755528,5.1682602841507554,241.57065238066446,237.2291132701704,0.0
0.039,0.9459736401513098,-0.09876084533864865,-0.644297091400887,0.0,6.026758953483331,5.104929471099778,241.3013827302681,237.2291132701704,0.0
0.04,0.9222523471063689,-0.11851685607539125,-0.5503849608036875,0.0,5.94662525095988,5.051025022783547,240.94958614627785,237.2291132701704,0.0
0.041,0.9017143774770704,-0.13742250381019022,-0.41169139756963724,0.0,5.870996535000614,5.010836783425145,240.64424684791157,237.2291132701704,0.0
0.042,0.8864737043163966,-0.15630898066070453,-0.2931730841639102,0.0,5.8008003226776435,4.980225669600324,240.2963726162782,237.2291132701704,0.0
0.043000000000000003,0.8745470002437379,-0.17402643249479471,-0.1499085618083038,0.0,5.736322675137731,4.961389490967135,239.84679738347896,237.2291132701704,0.0
0.044,0.8668259717663526,-0.19142213731670155,0.048702213458234445,0.0,5.6781455275005595,4.959133751590822,239.67772623474454,237.2291132701704,0.0
0.045,0.8658868910839692,-0.20898526762750952,0.10875165817970167,0.0,5.627318507975444,4.955931291145408,239.34158614617016,237.2291132701704,0.0
0.046,0.8633653302550279,-0.22254980673041846,0.2556969737068948,0.0,5.582570412356513,4.96379784593716,239.12191506240944,237.2291132701704,0.0
0.047,0.865336494967324,-0.23510995563277257,0.3466044976648621,0.0,5.5443297527668784,4.974691266441306,238.83361852057175,237.2291132701704,0.0
0.048,0.8681749690660809,-0.24473412147695206,0.474707716079696,0.0,5.5119355579404585,4.9935610372183845,238.58732544913354,237.2291132701704,0.0
0.049,0.8744161175526104,-0.2528710069871243,0.584272130009166,0.0,5.485466575422064,5.017417323190676,238.08207184978988,237.2291132701704,0.0
0.05,0.8826875440325233,-0.25912149234622756,0.8283693438848012,0.0,5.464636304287138,5.0611486862729995,238.1418519935247,237.2291132701704,0.0
0.051000000000000004,0.9006035888187401,-0.26621663240825666,0.7893518847838448,0.0,5.45098015712717,5.089802942632052,237.68183070418632,237.2291132701704,0.0
0.052000000000000005,0.911230591623342,-0.2667003513220122,1.014835355112878,0.0,5.4415373079989955,5.138429705105762,237.15517516691637,237.2291132701704,0.0
0.053,0.9313143057105455,-0.2697930604508105,1.2789025047803984,0.0,5.438236780846044,5.2059391196578755,236.5559389837917,237.2291132701704,0.0
0.054,0.9601577244308532,-0.27490121441206355,1.585252339206522,0.0,5.442548217708047,5.294453411411316,236.30165924052028,237.2291132701704,0.0
0.055,0.9986318303816423,-0.2819324722594245,1.721666751138729,0.0,5.4560022968827875,5.382545787176513,235.62454858071342,237.2291132701704,0.0
0.056,1.0375212243879264,-0.284047081234601,2.076267727936727,0.0,5.477082500125372,5.496923204329937,235.36395858537992,237.2291132701704,0.0
0.057,1.0893671810239973,-0.28807964014183707,2.225214272451384,0.0,5.507914860149084,5.609494848931005,235.53738726726283,237.2291132701704,0.0
0.058,1.1394228314987833,-0.28966803679073727,2.155417191539004,0.0,5.547055546672841,5.6997377587429625,235.4745424240619,237.2291132701704,0.0
0.059000000000000004,1.1796191981898612,-0.2827703271932143,2.2043853216005567,0.0,5.5905318235031976,5.787033867510726,235.2589428612044,237.2291132701704,0.0
0.06,1.2195172365065776,-0.2734870739866141,2.3318868071189693,0.0,5.637437902770545,5.87949665464323,234.8824592471056,237.2291132701704,0.0
0.061,1.2633046473112448,-0.2639963417761648,2.543595154399011,0.0,5.687948504813327,5.98499903952949,234.44057148057723,237.2291132701704,0.0
0.062,1.3147447690949712,-0.25607414185214933,2.7924244555591264,0.0,5.7431817504709155,6.105035846498053,234.0914303177037,237.2291132701704,0.0
0.063,1.3744004738414266,-0.24983366735390733,2.9983718665205616,0.0,5.8042881220640385,6.232710493225403,233.89633625784052,237.2291132701704,0.0
0.064,1.4388097628847187,-0.24363120970514068,3.12924666657545,0.0,5.871431455574201,6.3595766015884525,233.67108552453877,237.2291132701704,0.0
0.065,1.5040311611623272,-0.235619825724815,3.277452310682641,0.0,5.943727838908304,6.488934044397356,233.38888072841232,237.2291132701704,0.0
0.066,1.5719174392430355,-0.22668401629131307,3.4569570341634472,0.0,6.020827502992008,6.624033567794494,233.1284435133827,237.2291132701704,0.0
0.067,1.6441951636124559,-0.21763920094399056,3.6281823392461297,0.0,6.102821581413179,6.763101154684745,232.68383097483346,237.2291132701704,0.0
0.068,1.7199409319155525,-0.20839432486943787,3.8959414314741245,0.0,6.189596522466536,6.916593380552694,232.38330515674923,237.2291132701704,0.0
0.069,1.8045151653463867,-0.20075706543127614,4.094662421650448,0.0,6.282295542223896,7.074049887941939,232.04567355652404,237.2291132701704,0.0
0.07,1.892502520777902,-0.19281382500354197,4.315312618899509,0.0,6.380672926891778,7.238482091600471,240.26550049583992,237.2291132701704,0.0
0.07100000000000001,1.958103075890365,-0.22777491519951176,0.17503527698487376,0.0,6.489580945784558,6.932335616268781,241.07092512798963,237.2291132701704,0.0
0.07200000000000001,1.7856755814739458,-0.17075158376048738,-0.26609515766817293,0.0,6.550361337894637,6.680196045903783,243.60678852424286,237.2291132701704,0.0
0.073,1.6466279750203943,-0.13399581524464424,-1.5978036083355147,0.0,6.57637683253486,6.330842808325136,243.47616425302556,237.2291132701704,0.0
0.074,1.4663802514105515,-0.08541884098810862,-1.5949619825554162,0.0,6.55987954447013,6.051092880843411,243.4783036120552,237.2291132701704,0.0
0.075,1.329353222351741,-0.056195618216708376,-1.6585235654890922,0.0,6.514328207701416,5.803918522883252,243.0870958823543,237.2291132701704,0.0
0.076,1.2139271135976841,-0.03829281235787771,-1.5214995267604767,0.0,6.446937492396799,5.603941328804078,242.44446821297842,237.2291132701704,0.0
0.077,1.1248027654004922,-0.034153223199490323,-1.2523392415006152,0.0,6.366011802465895,5.454109590807812,241.93821714683455,237.2291132701704,0.0
0.078,1.0615726024533987,-0.042739008795703665,-1.0463047471953193,0.0,6.279181340035617,5.337204723581269,241.53099085352198,237.2291132701704,0.0
0.079,1.0146675541663586,-0.05797728401452079,-0.8857103763725545,0.0,6.1909337895438235,5.243439586363914,241.19872013713382,237.2291132701704,0.0
0.08,0.9784049809621101,-0.07665333038471578,-0.7592710868481058,0.0,6.104036462728005,5.166048418528168,240.90811546279267,237.2291132701704,0.0
0.081,0.9490153796340381,-0.09660259561403642,-0.6507587716037517,0.0,6.020097410521719,5.101248826990098,240.5470699400261,237.2291132701704,0.0
0.082,0.9246186174426717,-0.11629131188271807,-0.5034155769190221,0.0,5.940038570519516,5.052047665475852,240.4160060529724,237.2291132701704,0.0
0.083,0.9063907877838557,-0.13651717774568167,-0.4697525612201925,0.0,5.865093456448346,5.003751329533388,240.00317316106774,237.2291132701704,0.0
0.084,0.8872781032678952,-0.15363014772604455,-0.29107671417683756,0.0,5.7944933882292595,4.9740279457960055,239.71958658815905,237.2291132701704,0.0
0.085,0.8758669885117156,-0.17194451762794027,-0.17418816090237965,0.0,5.729824439447746,4.952351971778229,239.258167062402,237.2291132701704,0.0
0.08600000000000001,0.8669039814699515,-0.18900146248315458,0.036231064053822815,0.0,5.6711479083776615,4.9492257491235465,239.0847174337181,237.2291132701704,0.0
0.08700000000000001,0.8656220449564009,-0.20685555528072552,0.1043998367602943,0.0,5.619819788908297,4.945990251321548,238.79611838316384,237.2291132701704,0.0
0.088,0.8631726416662644,-0.22084082087999435,0.23302931090749368,0.0,5.574660769893615,4.95166966077872,238.55776087098738,237.2291132701704,0.0
0.089,0.864126526412859,-0.23336091422597016,0.3389215909875556,0.0,5.535822951338181,4.962497662101014,238.346621389036,237.2291132701704,0.0
0.09,0.8671589452361292,-0.24310041358795187,0.43331625077459546,0.0,5.502897858766879,4.9773595439882135,238.08918206568808,237.2291132701704,0.0
0.091,0.8715261139399301,-0.2507560523756463,0.5534352244933736,0.0,5.4754961889144536,4.999261804571574,237.54334257862482,237.2291132701704,0.0
0.092,0.8786936713552831,-0.2575002418635983,0.8232126749404602,0.0,5.453690216561404,5.043963242294697,237.6563458373457,237.2291132701704,0.0
0.093,0.8969544051811038,-0.26561058712635277,0.762438719908267,0.0,5.439359681299997,5.070694024305504,237.06443833120514,237.2291132701704,0.0
0.094,0.9065715799417511,-0.26621047300888684,1.0600392223681983,0.0,5.429120161760264,5.125787187524591,236.58670545020107,237.2291132701704,0.0
0.095,0.9295352692017782,-0.2713408892888161,1.305329741069928,0.0,5.425972257428375,5.195923200429389,236.34731283363212,237.2291132701704,0.0
0.096,0.9592742655105801,-0.2773225614763577,1.4338440537197854,0.0,5.430759424597989,5.267372838113621,236.3136239341785,237.2291132701704,0.0
0.097,0.9889518841464321,-0.28134961780357287,1.4598433968065083,0.0,5.442595998293182,5.330763865272573,235.30855736460546,237.2291132701704,0.0
0.098,1.016002541443371,-0.27904030356453197,1.9815822406486803,0.0,5.459293722205183,5.443451930360618,234.47652671962715,237.2291132701704,0.0
0.099,1.0681605147080897,-0.2831306855823887,2.4251234286432712,0.0,5.4860635153991435,5.584646233085891,235.05189758903347,237.2291132701704,0.0
0.1,1.1320024685286616,-0.2925338709988767,2.159210150751477,0.0,5.5252692061218704,5.674211177222374,234.95985094673,237.2291132701704,0.0
0.101,1.1717691965661488,-0.2853753096139683,2.227926095137617,0.0,5.56862934857947,5.7652221621329565,234.84514582881081,237.2291132701704,0.0
0.10200000000000001,1.2129235324055063,-0.2771323138014094,2.309118328510806,0.0,5.615919431356833,5.855582739363475,234.5554519735439,237.2291132701704,0.0
0.10300000000000001,1.2551271860061857,-0.26726191952696965,2.480701869110523,0.0,5.66651325016745,5.955467675743235,234.1438035022822,237.2291132701704,0.0
0.10400000000000001,1.3033647002893307,-0.2582275051061974,2.717379202420261,0.0,5.721141099091441,6.069858081589016,233.75540490604786,237.2291132701704,0.0
0.105,1.3599331582631693,-0.25100951554683293,2.946315584178656,0.0,5.781041569000288,6.195348305168653,233.51905103312407,237.2291132701704,0.0
0.106,1.4230047730639233,-0.24470260023790857,3.101593143011012,0.0,5.846879433487826,6.322698527986841,233.327666054635,237.2291132701704,0.0
0.107,1.4881520607239582,-0.23718908518652515,3.2363001044109074,0.0,5.918105116305866,6.450627019643033,233.0543471902618,237.2291132701704,0.0
0.108,1.5549372807400756,-0.22836602287732188,3.414707197396584,0.0,5.994105678304225,6.584468039704664,232.81861026704365,237.2291132701704,0.0
0.109,1.6262303578142185,-0.21935171851962842,3.576680689036929,0.0,6.074986943252652,6.721383640832551,232.38846806318108,237.2291132701704,0.0
0.11,1.7004666403514672,-0.21006846407783908,3.8401582430381085,0.0,6.160540626874008,6.872605544057865,232.07916827626067,237.2291132701704,0.0
0.111,1.783550279715451,-0.20223883278241583,4.0463075864374085,0.0,6.251892705557682,7.0289054400520286,231.7582676600036,237.2291132701704,0.0
0.112,1.8704995361365777,-0.19448930860293068,4.261466350667607,0.0,6.3489654146256145,7.191582943133788,237.8577692797778,237.2291132701704,0.0
0.113,1.9429085893512255,-0.21766619032335455,1.2054289806844327,0.0,6.455225555325973,7.002288765184314,240.4073161850293,237.2291132701704,0.0
0.114,1.8276592380762469,-0.1860840452818603,-0.10112650108989385,0.0,6.528224459389579,6.742790808976873,242.9655080620446,237.2291132701704,0.0
0.115,1.6830469886021266,-0.14557466159525212,-1.4375863875162878,0.0,6.563833466670965,6.397352360036777,243.1066391311872,237.2291132701704,0.0
0.116,1.5030386861604639,-0.09539718181434953,-1.5669271806977572,0.0,6.556223299391171,6.107510559106974,243.1987248340578,237.2291132701704,0.0
0.117,1.3587712349045267,-0.06352383170431103,-1.672666147771934,0.0,6.517385675032085,5.849623379709567,242.87396493900926,237.2291132701704,0.0
0.11800000000000001,1.2372398449286035,-0.04155044324162627,-1.5667347169360508,0.0,6.4545447559393665,5.638276781263471,242.25941726309568,237.2291132701704,0.0
0.11900000000000001,1.1418989989148665,-0.03417377075870304,-1.3097639189085186,0.0,6.376261568822818,5.478260403389134,241.71510278589088,237.2291132701704,0.0
0.12,1.0734098050368461,-0.040278827785204196,-1.0824665754633198,0.0,6.290550385628236,5.355430747255719,241.29301646290546,237.2291132701704,0.0
0.121,1.02361079573705,-0.05435262584809972,-0.9120624458979596,0.0,6.202614422356422,5.257577418318121,240.9532490120652,237.2291132701704,0.0
0.122,0.9855138031463692,-0.07247102901349547,-0.779420077896787,0.0,6.115539008885595,5.177295124223553,240.6699000168075,237.2291132701704,0.0
0.123,0.9549387582484842,-0.09227621922055565,-0.6721534477343027,0.0,6.031140294243517,5.109788708842083,240.31356164289593,237.2291132701704,0.0
0.124,0.9294671233696856,-0.11195943141193021,-0.5248287445057735,0.0,5.9503979109664815,5.058222243975754,240.1809099507014,237.2291132701704,0.0
0.125,0.9103685840789035,-0.13226892205964225,-0.48802086521381227,0.0,5.874610331379849,5.0081599299313835,239.78868025453002,237.2291132701704,0.0
0.126,0.8906606486633896,-0.149657733180357,-0.31750168697172365,0.0,5.803104952664246,4.975891007649295,239.51390627467777,237.2291132701704,0.0
0.127,0.8782736056488407,-0.16807194454487062,-0.20296262709066948,0.0,5.737374894730883,4.951758039905794,239.06881295601474,237.2291132701704,0.0
0.128,0.8683985605566836,-0.18523524647065623,0.001187035382400392,0.0,5.677508366914699,4.945738819946527,238.86024188537826,237.2291132701704,0.0
0.129,0.8659511296658549,-0.203201369357824,0.08916128454856209,0.0,5.624831210382535,4.942141006932184,238.618581082037,237.2291132701704,0.0
0.13,0.8635376893697564,-0.21788930678437343,0.19609700810052666,0.0,5.578498000090202,4.9447594507887755,238.33805826395843,237.2291132701704,0.0
0.131,0.8631396176868947,-0.23053831420753934,0.32526896720192944,0.0,5.538304466655045,4.955641940978264,238.14775885202815,237.2291132701704,0.0
0.132,0.8660697271114363,-0.24150512489144352,0.41123221734849336,0.0,5.5042983946833495,4.9692547739768695,237.98813600977292,237.2291132701704,0.0
0.133,0.8702924808255507,-0.2488681297161159,0.4834534110800838,0.0,5.475754475632561,4.9847552134731465,237.4050503420555,237.2291132701704,0.0
0.134,0.8744069860306057,-0.25494415319692865,0.7732368742199462,0.0,5.45220972497112,5.026594818087369,237.43743924763567,237.2291132701704,0.0
0.135,0.8913405615016888,-0.26336288249559403,0.7549591616552048,0.0,5.436068709825292,5.055166055910737,236.80760437711157,237.2291132701704,0.0
0.136,0.9017671518927226,-0.2654402768317185,1.074091685847839,0.0,5.424543246060369,5.1135758340357205,236.47309029176495,237.2291132701704,0.0
