timestamp,iq,id,iq_ref,id_ref,vq,vd,omega,omega_ref,r
0.0,0.0,0.0,0.0,0.0,0.0,0.0,0.0,357.24387987316334,0.0
0.001,0.0,0.0,10.0,0.0,0.0,1.0999999999999999,5.504581983099538,357.24387987316334,0.0
0.002,0.324136555242143,-0.17734974737000753,10.0,0.0,0.1295084722107008,1.954344978923364,10.818897140744665,357.24387987316334,0.0
0.003,0.6744273620224133,-0.37834256998758536,10.0,0.0,0.3518363081069014,2.700915683982053,15.963108441837152,357.24387987316334,0.0
0.004,0.9897612271517151,-0.5576091842296945,10.0,0.0,0.6442978302598069,3.3638782850280733,21.43114659036307,357.24387987316334,0.0
0.005,1.2551260512224163,-0.7078284992786049,10.0,0.0,0.9885409188149832,3.9637539861882978,27.014745148253077,357.24387987316334,0.0
0.006,1.4737141000759972,-0.8314378249395546,10.0,0.0,1.37044210130288,4.516675388954831,32.73530728971238,357.24387987316334,0.0
0.007,1.654015047407878,-0.9330190691851774,10.0,0.0,1.7793831494290484,5.03484754597553,38.496411618503714,357.24387987316334,0.0
0.008,1.8044415642704363,-1.017649846069932,10.0,0.0,2.207540881459537,5.527352684725211,44.23520021359518,357.24387987316334,0.0
0.009000000000000001,1.932275824038481,-1.0893312381685394,10.0,0.0,2.6491719995239458,6.000865579397117,49.993796877947815,357.24387987316334,0.0
0.01,2.043177314746527,-1.151284142333612,10.0,0.0,3.100089300786274,6.460269475028064,55.79137838621804,357.24387987316334,0.0
0.011,2.1414600185351524,-1.2058755343948238,10.0,0.0,3.5572407855705483,6.909122628712484,61.65961930188988,357.24387987316334,0.0
0.012,2.2303449275081197,-1.2548146453183402,10.0,0.0,4.018399825525811,7.350011102557749,67.53762551067922,357.24387987316334,0.0
0.013000000000000001,2.312173683141829,-1.29938283760206,10.0,0.0,4.481944918912047,7.784814318984035,73.23157628108976,357.24387987316334,0.0
0.014,2.388419063186224,-1.3409101630631148,10.0,0.0,4.9467381484801685,8.21492301885777,78.88565234700062,357.24387987316334,0.0
0.015,2.4608647839733084,-1.3791458475795828,10.0,0.0,5.411853577121052,8.641293596214807,84.55378838342119,357.24387987316334,0.0
0.016,2.5303017753636183,-1.4147617005115776,10.0,0.0,5.876629907610904,9.064625046855168,90.10815046941924,357.24387987316334,0.0
0.017,2.597322588056073,-1.448221755999283,10.0,0.0,6.340586197690136,9.485423065998207,95.64528999302652,357.24387987316334,0.0
0.018000000000000002,2.662860260353189,-1.4790246935195994,10.0,0.0,6.803280383248109,9.90399797640911,101.12976174394689,357.24387987316334,0.0
0.019,2.7271807488556874,-1.5075201326250935,10.0,0.0,7.264389110217773,10.320564937322416,106.53009855452322,357.24387987316334,0.0
0.02,2.7907912468236433,-1.5334678144652663,10.0,0.0,7.723612951193166,10.735232124949908,111.84545516817766,357.24387987316334,0.0
0.021,2.854070547052059,-1.5567173927095894,10.0,0.0,8.180679103622243,11.148030359866741,117.06676677372027,357.24387987316334,0.0
0.022,2.917389796428859,-1.5770541690206628,10.0,0.0,8.635323013911869,11.55892306210564,122.19721421627175,357.24387987316334,0.0
0.023,2.981120670898384,-1.5942190779884704,10.0,0.0,9.08727657561977,11.967813681451727,127.56725255086464,357.24387987316334,0.0
0.024,3.0462536195471133,-1.6068996008559049,10.0,0.0,9.53614705151723,12.374483279427334,132.34653179179523,357.24387987316334,0.0
0.025,3.1108816147979144,-1.6186050570310935,10.0,0.0,9.981958234573101,12.778915215204023,136.73277563256158,357.24387987316334,0.0
0.026000000000000002,3.178286168791675,-1.6242673576339102,10.0,0.0,10.424137291405614,13.180716854721826,141.32314559700788,357.24387987316334,0.0
0.027,3.246897976433385,-1.6268192594262927,10.0,0.0,10.86250269269779,13.579682982670448,145.26667274778922,357.24387987316334,0.0
0.028,3.3175856791859077,-1.6252375898828662,10.0,0.0,11.296728663987908,13.975499508727067,149.4703073645136,357.24387987316334,0.0
0.029,3.391430627193463,-1.6181495687971186,10.0,0.0,11.72634982513068,14.367740912053732,153.00562132266614,357.24387987316334,0.0
0.03,3.467133084123734,-1.6081221901723302,10.0,0.0,12.151200879053967,14.756131470379746,156.74745737472014,357.24387987316334,0.0
0.031,3.5471728926653414,-1.5915571372610189,10.0,0.0,12.57068400138353,15.140120723895215,159.82148311710154,357.24387987316334,0.0
0.032,3.629511140621679,-1.5722379168792902,10.0,0.0,12.984658273118814,15.519402555102324,163.14353244931422,357.24387987316334,0.0
0.033,3.716720623249705,-1.5464516991292308,10.0,0.0,13.392520009052586,15.893383969752716,165.62383799338852,357.24387987316334,0.0
0.034,3.8069567987123425,-1.5176561662414012,10.0,0.0,13.794084066417863,16.261699532056838,168.58650312443822,357.24387987316334,0.0
0.035,3.901933040615978,-1.4835366771202894,10.0,0.0,14.188858085802579,16.623794919012308,170.46040328966026,357.24387987316334,0.0
0.036000000000000004,4.0014901597108725,-1.4447515157645388,10.0,0.0,14.576439069086446,16.979156648529305,172.79347603105865,357.24387987316334,0.0
0.037,4.1038540984022,-1.4046525559530656,10.0,0.0,14.956775093027925,17.327475841357884,175.30912319832834,357.24387987316334,0.0
0.038,4.21543501888889,-1.3530333799709355,10.0,0.0,15.328632314098193,17.667746455431132,177.11089224505017,357.24387987316334,0.0
0.039,4.318326189486777,-1.3197462860866633,10.0,0.0,15.694185485901311,18.000973510643185,177.93714638982232,357.24387987316334,0.0
0.04,4.446333680062095,-1.2494937012798875,10.0,0.0,16.049111132655423,18.32438126525703,174.91885227576273,357.24387987316334,0.0
0.041,4.559062416167146,-1.2086166267779355,10.0,0.0,16.397091037848355,18.639820723019106,178.99503509848037,357.24387987316334,0.0
0.042,4.6867676423624545,-1.1480728081355802,10.0,0.0,16.735565848992564,18.94559393800383,180.16877361530447,357.24387987316334,0.0
0.043000000000000003,4.819410118101581,-1.0837388099750285,10.0,0.0,17.064299198909595,19.241323692535154,182.5094869605879,357.24387987316334,0.0
0.044,4.9569862161903036,-1.015749965486213,10.0,0.0,17.382896756375878,19.526546860572687,179.31064819904333,357.24387987316334,0.0
0.045,5.09801806309641,-0.9465843440200892,10.0,0.0,17.691228544982906,19.8009697253743,180.28040514530915,357.24387987316334,0.0
0.046,5.205402668995005,-0.939400463126185,10.0,0.0,17.996070870525728,20.068381494376673,187.40261978640095,357.24387987316334,0.0
0.047,5.27113214579067,-1.0010183907100005,10.0,0.0,18.304019951257658,20.333379922644554,195.31637979790065,357.24387987316334,0.0
0.048,5.32601396198178,-1.0762737332967975,10.0,0.0,18.6153358751519,20.597293711145777,202.9151598044303,357.24387987316334,0.0
0.049,5.374080729528939,-1.1569303892325924,10.0,0.0,18.930031264233904,20.861209186918025,207.34764386535318,357.24387987316334,0.0
0.05,5.4227089565072895,-1.2293756391297133,10.0,0.0,19.24681107291426,21.125334216729097,210.88110556507522,357.24387987316334,0.0
0.051000000000000004,5.439059198371281,-1.3513848304641485,10.0,0.0,19.5710219622555,21.393412480091843,222.8155206822408,357.24387987316334,0.0
0.052000000000000005,5.462365603779077,-1.4547220083870882,10.0,0.0,19.899766586657073,21.66470380387623,227.57505740569542,357.24387987316334,0.0
0.053,5.490031579643462,-1.5414935089891686,10.0,0.0,20.23127737428393,21.938930264431317,233.83259671893742,357.24387987316334,0.0
0.054,5.483114517871613,-1.6806642761874138,10.0,0.0,20.57150079858939,22.219922694247135,244.78254842533693,357.24387987316334,0.0
0.055,5.494677028115152,-1.778173790348682,10.0,0.0,20.91513546233164,22.505497176767406,248.40224681868582,357.24387987316334,0.0
0.056,5.4785776411900375,-1.9135818876875685,10.0,0.0,21.266883903517364,22.798764235074074,260.19655698102997,357.24387987316334,0.0
0.057,5.474744357476931,-2.016068462102397,10.0,0.0,21.622703648627425,23.098140099007843,265.47300765373035,357.24387987316334,0.0
0.058,5.4423756221491075,-2.156211667863905,10.0,0.0,21.98726989250947,23.406682579108175,274.36174669050286,357.24387987316334,0.0
0.059000000000000004,5.426427130320181,-2.254319562630485,10.0,0.0,22.35562419638006,23.72225808233458,283.15523990718145,357.24387987316334,0.0
0.06,5.383496856266575,-2.385433372719312,10.0,0.0,22.73214206034833,24.047674310853,288.75626694104915,357.24387987316334,0.0
0.061,5.350829914594857,-2.484604513012605,10.0,0.0,23.113147448102985,24.381364763759763,297.58572543113587,357.24387987316334,0.0
0.062,5.30857851727964,-2.585811711342597,10.0,0.0,23.49956242278622,24.724107694439272,305.3049407645406,357.24387987316334,0.0
0.063,5.2708489100464995,-2.665535805335126,10.0,0.0,23.88936777142497,25.074945572341647,312.88855541711644,357.24387987316334,0.0
0.064,5.226739874185746,-2.7439084966996927,10.0,0.0,24.283100128100244,25.434154895190012,313.4425001981977,357.24387987316334,0.0
0.065,5.1919413582615155,-2.796357815272601,10.0,0.0,24.67836587952221,25.80020326781413,322.40242573719615,357.24387987316334,0.0
0.066,5.179291880749393,-2.803398621404274,10.0,0.0,25.070959888553144,26.17021683568512,329.8625502892453,357.24387987316334,0.0
0.067,5.159300945787096,-2.8186596920556974,10.0,0.0,25.46290416317842,26.54456095574284,325.644489031582,357.24387987316334,0.0
0.068,5.162923385398014,-2.79563150859929,10.0,0.0,25.850402711460234,26.92006671355049,332.1825931723156,357.24387987316334,0.0
0.069,5.201252651795116,-2.7195659560070147,10.0,0.0,26.228565051744035,27.292591755497977,336.30897155981154,357.24387987316334,0.0
0.07,5.232213474496259,-2.6652026966598648,10.0,0.0,26.600944359191942,27.662658129445948,326.40699899751604,357.24387987316334,0.0
0.07100000000000001,5.313463433993548,-2.54380200984975,10.0,0.0,26.96028193033422,28.02432790942622,335.4448331121615,357.24387987316334,0.0
0.07200000000000001,5.409005938513387,-2.417022522250968,10.0,0.0,27.307120985592533,28.376067292620487,326.034512367632,357.24387987316334,0.0
0.073,5.524903764525569,-2.2796907469015646,10.0,0.0,27.64061137323198,28.715523307205004,330.4620876059211,357.24387987316334,0.0
0.074,5.67605235076935,-2.1104688880910527,10.0,0.0,27.957457236850285,29.038915392868336,319.15525803273124,357.24387987316334,0.0
0.075,5.84113062213775,-1.9448369049859662,10.0,0.0,28.258430423119623,29.345005732339065,323.74610643337104,357.24387987316334,0.0
0.076,6.026083079721302,-1.7751004798774814,10.0,0.0,28.54290063777824,29.631890368869158,313.62962768428736,357.24387987316334,0.0
0.077,6.247778881510808,-1.5724864844049606,10.0,0.0,28.8070221193731,29.8959965495911,305.7798722581738,357.24387987316334,0.0
0.078,6.45466716131168,-1.4200648866610508,10.0,0.0,29.05640183508357,30.13956350764011,307.93813602439144,357.24387987316334,0.0
0.079,6.696647461932518,-1.2363296330794045,10.0,0.0,29.286513613111346,30.359162791185,301.9941476626448,357.24387987316334,0.0
0.08,6.957234059941432,-1.0428762028476792,10.0,0.0,29.496131616901156,30.553568601403406,292.953473322353,357.24387987316334,0.0
0.081,7.21953556243241,-0.8656082542369538,10.0,0.0,29.686663461288983,30.723248331685028,302.3819064615728,357.24387987316334,0.0
0.082,7.351128115197367,-0.9190372652564075,10.0,0.0,29.882759964964425,30.88316110759804,309.2086480067522,357.24387987316334,0.0
0.083,7.39208629692002,-1.1050072581830066,10.0,0.0,30.09516050497535,31.04350278182545,323.3343049032927,357.24387987316334,0.0
0.084,7.394188529398764,-1.3310715994568096,10.0,0.0,30.325362536018773,31.209228678875775,336.6000483110057,357.24387987316334,0.0
0.085,7.389490026808904,-1.536422244291219,10.0,0.0,30.569444881181944,31.38194004693508,340.38880378300513,357.24387987316334,0.0
0.08600000000000001,7.337808441263444,-1.7884048939198531,10.0,0.0,30.83205471364553,31.567426502088892,359.0654559003815,357.24387987316334,0.0
0.08700000000000001,7.2671649042961555,-2.0392155611975835,6.352581877060044,0.0,31.112021555282404,31.366663274661214,361.65322650136744,357.24387987316334,0.0
0.088,7.069190327545614,-2.207892259743219,5.014603110285028,0.0,31.35996172018006,31.12434033909703,376.7552523328674,357.24387987316334,0.0
0.089,6.780340035229093,-2.375849269737401,-2.731523530062006,0.0,31.57566407914544,30.122143357195917,374.15162502319197,357.24387987316334,0.0
0.09,6.25726670627191,-2.371971610137898,-1.5987873267245618,0.0,31.667470391368287,29.498448121414164,381.37040605186365,357.24387987316334,0.0
0.091,5.753338571735178,-2.386650825296632,-5.449443102847408,0.0,31.689380039054114,28.56160490453546,380.1258560127771,357.24387987316334,0.0
0.092,5.1974153089196085,-2.31054398705743,-5.055987844700264,0.0,31.6068958559256,27.85853588783496,381.48203604914244,357.24387987316334,0.0
0.093,4.703049718739152,-2.2365240942641944,-5.976459424642728,0.0,31.454972069615025,27.161159910408216,378.91528650915336,357.24387987316334,0.0
0.094,4.2587117452303875,-2.1381998383977043,-4.909798721008091,0.0,31.238427594975448,26.68880006647649,374.8265478607584,357.24387987316334,0.0
0.095,3.924153257284268,-2.0420703833575033,-3.041256076686566,0.0,30.986710585910902,26.46925289725197,370.9224452158751,357.24387987316334,0.0
0.096,3.725042259882639,-1.9649134742399854,-1.2259904076720218,0.0,30.73068459537783,26.446039166026566,366.40397860561075,357.24387987316334,0.0
0.097,3.650142749368371,-1.9048919186197475,0.941641910135675,0.0,30.492109028748477,26.626078943321637,361.12087582610525,357.24387987316334,0.0
0.098,3.696220027176129,-1.859183515252626,3.544423340359005,0.0,30.29096728769739,27.023069324706768,363.19229817694224,357.24387987316334,0.0
0.099,3.8666667306957727,-1.8229886107681952,2.449227981902718,0.0,30.146114403430303,27.195458825506762,354.84318913220835,357.24387987316334,0.0
0.1,4.000816785462218,-1.7813398602786787,6.647789411679214,0.0,30.02876634416092,27.795865759670924,350.961448936026,357.24387987316334,0.0
0.101,4.302849447574504,-1.7140724571665156,8.651483819141768,0.0,29.976210857397444,28.471035872730145,351.4812234687276,357.24387987316334,0.0
0.10200000000000001,4.639471923839377,-1.7241387169945992,8.449223116835324,0.0,29.99820789322846,28.99713965871075,341.1447198045774,357.24387987316334,0.0
0.10300000000000001,5.010240927843361,-1.632104550703902,10.0,0.0,30.06039118318418,29.6080224681698,340.9491466780235,357.24387987316334,0.0
0.10400000000000001,5.369456518212935,-1.5985913565999255,10.0,0.0,30.17467831540168,30.112721531946246,336.11945992809,357.24387987316334,0.0
0.105,5.760908161777159,-1.468104346050356,10.0,0.0,30.313988201555688,30.53891187767843,324.8239299460246,357.24387987316334,0.0
0.106,6.098283618172877,-1.372418786094328,10.0,0.0,30.472765592177833,30.903217393684923,326.87301963279896,357.24387987316334,0.0
0.107,6.435194424338458,-1.2381554525062093,10.0,0.0,30.63828368424329,31.213283663038705,319.4067531520078,357.24387987316334,0.0
0.108,6.778092131501979,-1.0642315916039045,10.0,0.0,30.800467602674193,31.474545474937337,308.47412341698396,357.24387987316334,0.0
0.109,7.10042096608714,-0.9049144848292192,10.0,0.0,30.956773667315666,31.693872302756446,308.6495973122447,357.24387987316334,0.0
0.11,7.391092948075801,-0.7895979654822178,10.0,0.0,31.108290162214495,31.878146424584898,315.1911407063044,357.24387987316334,0.0
0.111,7.507369652041107,-0.9431518243286341,10.0,0.0,31.28112650947288,32.0492610661041,331.8933664829218,357.24387987316334,0.0
0.112,7.556659003133631,-1.1669541501726823,10.0,0.0,31.47687340341171,32.21628881661669,343.0564716628675,357.24387987316334,0.0
0.113,7.578593618279932,-1.39023543321278,10.0,0.0,31.692071300883878,32.38426856731673,347.89847806661595,357.24387987316334,0.0
0.114,7.546984539098365,-1.6586248597527005,10.0,0.0,31.929837407767838,32.56066647755542,366.22376323351693,357.24387987316334,0.0
0.115,7.4838671868359326,-1.937026360626076,1.8808397282923623,0.0,32.18940696581794,31.856720395527866,368.1421079825854,357.24387987316334,0.0
0.116,7.1501059528419315,-2.0480685693852236,0.8126850726639079,0.0,32.362055587815036,31.248903030322722,377.2718260117411,357.24387987316334,0.0
0.117,6.712203118181917,-2.164350311623258,-3.9524534032997183,0.0,32.46833818065052,30.250480277510746,378.9887907174898,357.24387987316334,0.0
0.11800000000000001,6.155341631003042,-2.158812896317734,-5.02838486461733,0.0,32.46237830581524,29.348702718521302,383.2370686379912,357.24387987316334,0.0
0.11900000000000001,5.571422087577097,-2.154937708523285,-7.412455712516298,0.0,32.36646576606025,28.34368098419662,382.2148779884517,357.24387987316334,0.0
0.12,4.981128340707221,-2.0894218208998456,-7.151070368899441,0.0,32.17247431108763,27.541256382327184,381.97672570063986,357.24387987316334,0.0
0.121,4.462558150541818,-2.02512989673774,-7.279322683268291,0.0,31.91122258864374,26.834093270580187,380.08102330000736,357.24387987316334,0.0
0.122,4.023261508361327,-1.948312335973326,-6.559842917220481,0.0,31.597572714827066,26.29508352391064,375.78443703766607,357.24387987316334,0.0
0.123,3.6824715407046145,-1.8730140336640655,-4.596955357694861,0.0,31.253872216078744,26.020426528434164,370.91989089765775,357.24387987316334,0.0
0.124,3.4767704118064464,-1.813726414179916,-2.3014423979356478,0.0,30.911307412537433,25.99096195711098,366.6185566916605,357.24387987316334,0.0
0.125,3.4076245125454423,-1.7768743887412777,-0.24452206312199465,0.0,30.596591785614528,26.139042507427632,361.4206040051631,357.24387987316334,0.0
0.126,3.4512222873954608,-1.7561077013310882,2.3126870388067022,0.0,30.326239961054846,26.496080023658223,359.37030804615165,357.24387987316334,0.0
0.127,3.618408551785497,-1.732251323352343,3.316570736582551,0.0,30.11621053587062,26.857279210211452,359.4662966408436,357.24387987316334,0.0
0.128,3.808163096874828,-1.7402276105557157,3.2463522715597684,0.0,29.964419927232317,27.124391530144734,346.8878962027361,357.24387987316334,0.0
0.129,4.026243183694786,-1.664315070073986,9.639112327317795,0.0,29.846089469126134,28.031428083905176,352.9799021438861,357.24387987316334,0.0
0.13,4.422389070431481,-1.683696756289687,6.635749134035579,0.0,29.83318682309516,28.400235137987494,338.2097497905235,357.24387987316334,0.0
0.131,4.738787427943362,-1.6274228548694774,10.0,0.0,29.85207120105715,29.100130088788454,344.72180155498484,357.24387987316334,0.0
0.132,5.13222876878962,-1.5812725520716027,10.0,0.0,29.93454284200945,29.658166909727893,330.5841674132464,357.24387987316334,0.0
0.133,5.524211290434312,-1.4993750396663503,10.0,0.0,30.05602377762387,30.129463548696165,330.49102248151183,357.24387987316334,0.0
0.134,5.877461241053281,-1.4212943251703571,10.0,0.0,30.20471638010317,30.530840947977424,327.07052515197614,357.24387987316334,0.0
0.135,6.244632865667819,-1.268282459445297,10.0,0.0,30.362626964177885,30.870093488377066,314.22332841760397,357.24387987316334,0.0
0.136,6.575653259204053,-1.1337318643545595,10.0,0.0,30.525401297082354,31.15847130610139,309.4072315079523,357.24387987316334,0.0
0.137,6.891099068873176,-1.0001383566394533,10.0,0.0,30.687386198571048,31.402899940215462,308.41610353924824,357.24387987316334,0.0
0.138,7.208272042008093,-0.8481731300331816,10.0,0.0,30.842235233472746,31.60734963211887,315.6695906791545,357.24387987316334,0.0
0.139,7.4248996820817785,-0.852320590773135,10.0,0.0,31.004020207022073,31.786181947645343,324.2354150446406,357.24387987316334,0.0
0.14,7.516050329247741,-1.0247665853715455,10.0,0.0,31.18643749956754,31.95544923418659,329.81939449822517,357.24387987316334,0.0
0.14100000000000001,7.541721806111926,-1.2641075887532902,10.0,0.0,31.392142841938597,32.12411916534485,343.7445181398102,357.24387987316334,0.0
0.14200000000000002,7.522408671007666,-1.536324331704992,10.0,0.0,31.621695074879227,32.298873797254494,358.13002863163615,357.24387987316334,0.0
0.14300000000000002,7.499370134858605,-1.768647060957409,5.168223302496401,0.0,31.868600880505024,31.949953860167202,360.8371204252594,357.24387987316334,0.0
0.14400000000000002,7.264841041564116,-1.9701990588397273,3.7787450001638154,0.0,32.07577160433402,31.58165946597056,373.75516539676494,357.24387987316334,0.0
0.145,6.966648624923591,-2.105381187305598,-2.845390340824969,0.0,32.2382503305129,30.58660735398858,374.98624050648476,357.24387987316334,0.0
