timestamp,iq,id,iq_ref,id_ref,vq,vd,omega,omega_ref,r
0.0,0.0,0.0,0.0,0.0,0.0,0.0,0.0,424.7970649254066,0.0
0.001,0.0,0.0,10.0,0.0,0.0,1.0999999999999999,11.224544402525057,424.7970649254066,0.0
0.002,1.243511279947356,-0.7474073680758395,10.0,0.0,0.1922148104883424,1.8532137592057902,24.43385714807007,424.7970649254066,0.0
0.003,2.594332969468541,-1.5240244784731798,10.0,0.0,0.5184833243113784,2.414172350491979,36.05402895436221,424.7970649254066,0.0
0.004,3.6828839072911035,-2.1453791705676712,10.0,0.0,0.928803690907151,2.845429547766584,47.45055236556048,424.7970649254066,0.0
0.005,4.43299005421092,-2.5787225361604675,10.0,0.0,1.3826719638650686,3.20296689519035,59.300084504690794,424.7970649254066,0.0
0.006,4.903172049032743,-2.8506453694165237,10.0,0.0,1.8524852222718096,3.5259183772063283,71.00361777734255,424.7970649254066,0.0
0.007,5.183469004042565,-3.0128257388008364,10.0,0.0,2.322732915339188,3.837425191758523,82.56915784194024,424.7970649254066,0.0
0.008,5.355496521910214,-3.1101582832816517,10.0,0.0,2.786191296754095,4.1486860367468905,93.84911746179846,424.7970649254066,0.0
0.009000000000000001,5.475589919434773,-3.1766971028975126,10.0,0.0,3.2407758692392847,4.463676636828888,104.9652656523584,424.7970649254066,0.0
0.01,5.577926820867469,-3.231254287218645,10.0,0.0,3.6867369465633204,4.7825705089688535,115.95273875977989,424.7970649254066,0.0
0.011,5.679633700984196,-3.282307261108231,10.0,0.0,4.125061558653592,5.104006713828713,126.79300802483763,424.7970649254066,0.0
0.012,5.78836816445173,-3.330128091583703,10.0,0.0,4.556447091634231,5.426188037231352,137.25788142794272,424.7970649254066,0.0
0.013000000000000001,5.905676920795462,-3.3729128937756245,10.0,0.0,4.981140323593424,5.747473163028657,147.28566910470553,424.7970649254066,0.0
0.014,6.030275877188469,-3.408872164072641,10.0,0.0,5.399020416647181,6.0665663018023555,156.91894928490532,424.7970649254066,0.0
0.015,6.161075014598561,-3.4352818097054083,10.0,0.0,5.809567282589567,6.382396220452883,166.17498381256382,424.7970649254066,0.0
0.016,6.297624316051838,-3.4495238592983437,10.0,0.0,6.211944982801661,6.693985402046832,174.9692606983006,424.7970649254066,0.0
0.017,6.441968217122213,-3.446422509000055,10.0,0.0,6.604760262123203,7.000141099399389,183.00822041570922,424.7970649254066,0.0
0.018000000000000002,6.5950093330912765,-3.424132808353235,10.0,0.0,6.986488729679675,7.299571671202953,190.21587631753968,424.7970649254066,0.0
0.019,6.758105846636601,-3.38111659878735,10.0,0.0,7.35547852161508,7.59082182725151,196.52859106729423,424.7970649254066,0.0
0.02,6.93304472736038,-3.3157504703637786,10.0,0.0,7.709934237930865,7.872233635144592,201.87423444276152,424.7970649254066,0.0
0.021,7.121652882291345,-3.2266254973815762,10.0,0.0,8.047935477660573,8.141952325644773,206.1437511489024,424.7970649254066,0.0
0.022,7.3254294165235025,-3.1128947942792546,10.0,0.0,8.367489334855897,8.397969933851682,209.61403150939674,424.7970649254066,0.0
0.023,7.546230289060694,-2.9729441726927135,10.0,0.0,8.66643230580888,8.63809083632066,211.8516076438823,424.7970649254066,0.0
0.024,7.783349014731611,-2.8090187775033373,10.0,0.0,8.9428607826585,8.860218894539612,214.03863531984683,424.7970649254066,0.0
0.025,8.037793012616739,-2.6201087261488274,10.0,0.0,9.19471836594795,9.062159342110975,216.94751790157667,424.7970649254066,0.0
0.026000000000000002,8.306664776601352,-2.410977585958426,10.0,0.0,9.420468910758188,9.242060049194691,220.3555409122835,424.7970649254066,0.0
0.027,8.586316287188298,-2.1871277686229424,10.0,0.0,9.619102303290775,9.398472791526341,225.1357736485789,424.7970649254066,0.0
0.028,8.86718346568983,-1.9633058002168688,10.0,0.0,9.79113171245196,9.531008724348789,228.77988984420134,424.7970649254066,0.0
0.029,9.143353728134706,-1.7481155983509593,10.0,0.0,9.93777907145808,9.639923947721186,228.26703051278506,424.7970649254066,0.0
0.03,9.414044865661262,-1.5412982770891324,10.0,0.0,10.060055213580686,9.725598062153484,219.82795258943776,424.7970649254066,0.0
0.031,9.690890631445916,-1.3211863133189907,10.0,0.0,10.156527010132162,9.787186256493763,217.3379601445507,424.7970649254066,0.0
0.032,9.997982582938644,-1.0435133034703088,10.0,0.0,10.221167535016866,9.821251154048813,221.91087037790024,424.7970649254066,0.0
0.033,10.252501622108788,-0.8443968904274399,10.0,0.0,10.263624421832375,9.83344743954304,218.051964769658,424.7970649254066,0.0
0.034,10.36741077968681,-0.8682031880608543,10.0,0.0,10.307665105385862,9.838574968227507,225.5098488230877,424.7970649254066,0.0
0.035,10.410626006080328,-0.974856720029301,10.0,0.0,10.359308298992643,9.843989229071376,236.74498507544143,424.7970649254066,0.0
0.036000000000000004,10.364246992020673,-1.1959827422398401,10.0,0.0,10.429585926446604,9.859560227002031,238.76654880390006,424.7970649254066,0.0
0.037,10.284540508012036,-1.4442801584476248,10.0,0.0,10.519494346508989,9.88890581098537,239.97756599859264,424.7970649254066,0.0
0.038,10.201178155810267,-1.6762548802270079,10.0,0.0,10.62638072819712,9.932680472478724,245.45630111132567,424.7970649254066,0.0
0.039,10.110966149068563,-1.9047223863886522,10.0,0.0,10.749767616325762,9.991856003211126,253.61753301931125,424.7970649254066,0.0
0.04,10.005559966885409,-2.150767552818751,10.0,0.0,10.891513661960477,10.068145229655876,261.71399637381177,424.7970649254066,0.0
0.041,9.88729462691246,-2.4142800239544115,10.0,0.0,11.053239945836815,10.162935263594823,269.24548043594945,424.7970649254066,0.0
0.042,9.75849023578911,-2.6922361345805976,10.0,0.0,11.236212652176937,10.277404752151345,276.92401345214745,424.7970649254066,0.0
0.043000000000000003,9.619188248699938,-2.983836567428211,10.0,0.0,11.441631523245674,10.412759737154802,286.1926491076227,424.7970649254066,0.0
0.044,9.470335019451298,-3.285776358525003,10.0,0.0,11.670341378400055,10.570101946111242,298.18019148905717,424.7970649254066,0.0
0.045,9.316866229026607,-3.5871501644469097,10.0,0.0,11.92204618967508,10.749973954341709,312.2085804706183,424.7970649254066,0.0
0.046,9.165995798215814,-3.8728506217145804,10.0,0.0,12.19498103288588,10.952090302361576,326.05311460065866,424.7970649254066,0.0
0.047,9.022463501592842,-4.132648744320924,10.0,0.0,12.486554815491603,11.17556834822095,337.65495426040997,424.7970649254066,0.0
0.048,8.88795439830901,-4.3629348357175495,10.0,0.0,12.79405251325026,11.419216646149952,346.590944080138,424.7970649254066,0.0
0.049,8.762760362813632,-4.564264394716099,10.0,0.0,13.115008661601824,11.681676136933573,356.374138962253,424.7970649254066,0.0
0.05,8.644935644861945,-4.743076487868008,10.0,0.0,13.447771178853317,11.961694072093719,368.0570339664855,424.7970649254066,0.0
0.051000000000000004,8.567934164413753,-4.8468214842079105,10.0,0.0,13.78488306656155,12.254278381132785,377.72484638268315,424.7970649254066,0.0
0.052000000000000005,8.53841013646547,-4.870774655537863,10.0,0.0,14.119139595285755,12.553793076308597,385.7700408743365,424.7970649254066,0.0
0.053,8.566991589484942,-4.807422415566258,10.0,0.0,14.44271366254495,12.853342754727626,387.705098041902,424.7970649254066,0.0
0.054,8.681184486942602,-4.6229880214791805,10.0,0.0,14.744231029970267,13.143019467840524,378.2609871759703,424.7970649254066,0.0
0.055,8.828503936429883,-4.417708997503223,10.0,0.0,15.02382798326786,13.418817035915637,379.30353904006637,424.7970649254066,0.0
0.056,9.04658394030302,-4.144255411670242,10.0,0.0,15.27501789384133,13.672478936581825,381.63556138630804,424.7970649254066,0.0
0.057,9.367118363997294,-3.7576003080486924,10.0,0.0,15.486657477884032,13.8928156516711,378.5896467092899,424.7970649254066,0.0
0.058,9.765413795256137,-3.3007633053851775,10.0,0.0,15.65278125577462,14.07167550045419,371.22478400888576,424.7970649254066,0.0
0.059000000000000004,10.226775260885105,-2.7983411514300522,10.0,0.0,15.769480573846032,14.202494935241432,361.89672697704333,424.7970649254066,0.0
0.06,10.747283311944397,-2.2513108986669748,10.0,0.0,15.832442797324639,14.279260087396858,354.16056917628276,424.7970649254066,0.0
0.061,11.305514881719326,-1.6828113219023917,10.0,0.0,15.839720662754454,14.298444554519959,351.32931507752335,424.7970649254066,0.0
0.062,11.867220452466833,-1.134051597070111,10.0,0.0,15.793510614389689,14.26023306438925,343.386386091195,424.7970649254066,0.0
0.063,12.388633716232455,-0.6619905760415823,10.0,0.0,15.701661306783524,14.169483315128394,325.46574901501907,424.7970649254066,0.0
0.064,12.912655804304038,-0.17941526204905067,10.0,0.0,15.561559280682989,14.026195312982784,327.46325498768675,424.7970649254066,0.0
0.065,13.199440746879757,-0.06573070613884291,10.0,0.0,15.413459108967748,13.856919785639073,337.53284108934076,424.7970649254066,0.0
0.066,13.153521588945937,-0.4047822518300267,10.0,0.0,15.301673917274798,13.697680750656682,344.34243575857244,424.7970649254066,0.0
0.067,12.963221712540193,-0.8713076490730989,10.0,0.0,15.233070619492727,13.56366089482853,351.63030246874297,424.7970649254066,0.0
0.068,12.68844138849246,-1.3779588307219588,10.0,0.0,15.208992041914989,13.464505531686184,360.2984654650879,424.7970649254066,0.0
0.069,12.361472578714093,-1.8950846524386025,10.0,0.0,15.22922311435314,13.406076612935436,370.3901194653993,424.7970649254066,0.0
0.07,12.003080394005874,-2.412462195582156,10.0,0.0,15.29332845920102,13.391667145523705,381.4057039052673,424.7970649254066,0.0
0.07100000000000001,11.629525603446057,-2.9209362217369965,10.0,0.0,15.400340690268536,13.42261626445243,392.76500401617216,424.7970649254066,0.0
0.07200000000000001,11.252291612250898,-3.4116127172507924,10.0,0.0,15.548636284367138,13.4989318857209,402.6646255500933,424.7970649254066,0.0
0.073,10.879502562473165,-3.875276393305472,10.0,0.0,15.735830120593612,13.619679959835988,408.61978083162154,424.7970649254066,0.0
0.074,10.509542639020598,-4.316826379372222,10.0,0.0,15.960313242315742,13.784040311244215,418.9629461235491,424.7970649254066,0.0
0.075,10.14208693921495,-4.739141011182037,9.701857430743704,0.0,16.22082319664489,13.958337784809736,434.7702241372401,424.7970649254066,0.0
0.076,9.79051729350132,-5.037711455415205,1.69848683177986,0.0,16.501331505445222,13.298865270288601,435.8487032406302,424.7970649254066,0.0
0.077,8.545448430184301,-4.618378333643201,1.0487308969325912,0.0,16.638729384076157,12.875393269763784,427.130346926785,424.7970649254066,0.0
0.078,7.235779847015386,-4.023803605177925,5.384576233841388,0.0,16.658830385878066,13.123061659078406,422.684667886293,424.7970649254066,0.0
0.079,6.741407977769121,-3.7883815932155955,7.628539724478522,0.0,16.68173745240003,13.592735060028142,429.71697129036716,424.7970649254066,0.0
0.08,6.955432044007324,-3.7705595379584054,4.063188958791852,0.0,16.74971494640611,13.574617242424534,433.2340649344245,424.7970649254066,0.0
0.081,7.030642368391188,-3.417320589740828,2.220272136672996,0.0,16.77040484549986,13.391908718185846,422.7683064265475,424.7970649254066,0.0
0.082,6.934526140458226,-2.788322261174085,7.473438975600093,0.0,16.705097475600205,13.837142445100037,411.15251711816,424.7970649254066,0.0
0.083,7.524156440360713,-2.4842995308237965,10.0,0.0,16.66369169832906,14.390891611358953,401.2120948770867,424.7970649254066,0.0
0.084,8.608702121642064,-2.3680713857018665,10.0,0.0,16.672056546751016,14.746455951078943,394.1139457022146,424.7970649254066,0.0
0.085,9.73324206688244,-2.18274373380678,10.0,0.0,16.695917584045535,14.9544464045055,389.36907699073794,424.7970649254066,0.0
0.08600000000000001,10.74538892588653,-1.86778006198485,10.0,0.0,16.705398835571803,15.043933161280814,384.3573566205787,424.7970649254066,0.0
0.08700000000000001,11.600805504528411,-1.4616118091822692,10.0,0.0,16.681351766532902,15.041445012470653,369.97399848062383,424.7970649254066,0.0
0.088,12.32522344688645,-0.9965847780513553,10.0,0.0,16.612369298620507,14.965669163764648,351.6307616694125,424.7970649254066,0.0
0.089,12.980170274717597,-0.4609383905669038,10.0,0.0,16.48843666031677,14.825772681500164,339.67668121186483,424.7970649254066,0.0
0.09,13.561972746935652,0.0720921825754326,10.0,0.0,16.30963073844614,14.630023779966075,348.61105065908913,424.7970649254066,0.0
0.091,13.674931463055184,-0.08301448162227931,10.0,0.0,16.151522557402338,14.429361742347371,357.39619140711665,424.7970649254066,0.0
0.092,13.54092586522082,-0.5121697367195566,10.0,0.0,16.034815002119764,14.248825293309125,365.1717726058953,424.7970649254066,0.0
0.093,13.274088908244583,-1.0389672546899895,10.0,0.0,15.965380731887409,14.102683742935493,373.77934739579615,424.7970649254066,0.0
0.094,12.928977463610298,-1.5977845158523327,10.0,0.0,15.944477657189072,13.999506809915996,383.6610458486133,424.7970649254066,0.0
0.095,12.537408226375026,-2.16385182171917,10.0,0.0,15.972026427692345,13.944178764378158,394.4110687907708,424.7970649254066,0.0
0.096,12.121743498788359,-2.722963436914053,10.0,0.0,16.04712912120429,13.938945828106606,405.42399100472034,424.7970649254066,0.0
0.097,11.696351246735189,-3.2661734436974728,10.0,0.0,16.1683602363321,13.984382955263388,416.12351094356274,424.7970649254066,0.0
0.098,11.2716444582956,-3.783855278579077,10.0,0.0,16.33352485443195,14.079863305425096,424.1302107240667,424.7970649254066,0.0
0.099,10.857129482287851,-4.263160507071906,7.654730683013114,0.0,16.53926780252339,13.965682036988511,429.61407877538875,424.7970649254066,0.0
0.1,10.161224263419811,-4.547572301865657,4.864626518852283,0.0,16.7395105741044,13.672438849632321,436.1453813540836,424.7970649254066,0.0
0.101,9.141986369516475,-4.550227889071042,1.4854920652180805,0.0,16.887852746436348,13.18989762605238,439.53085513938515,424.7970649254066,0.0
0.10200000000000001,7.848967909950204,-4.173677196021285,-0.35458272957247594,0.0,16.931659447069585,12.733867510786265,432.2083437738571,424.7970649254066,0.0
0.10300000000000001,6.549273782058992,-3.610925264136964,3.232560164707041,0.0,16.867345260536105,12.870843712901113,424.8294216313208,424.7970649254066,0.0
0.10400000000000001,6.002321469221732,-3.3441358120023357,6.921697668916039,0.0,16.799440792451488,13.404792385804502,427.1376484459355,424.7970649254066,0.0
0.105,6.302944389534297,-3.4254527455459356,5.7441784264034155,0.0,16.80333439567682,13.673599208527863,432.46005344550184,424.7970649254066,0.0
0.106,6.761155065920503,-3.359516096938621,3.00634604141929,0.0,16.82565312016971,13.57913139417893,427.4382598333535,424.7970649254066,0.0
0.107,6.946576478239553,-2.920108908106894,5.490830898413977,0.0,16.788617766493005,13.781199643242205,416.92222645189224,424.7970649254066,0.0
0.108,7.388932604446988,-2.528471177646506,10.0,0.0,16.736806694627976,14.383716324876378,407.0646574486338,424.7970649254066,0.0
0.109,8.457373470030875,-2.4000835201773985,10.0,0.0,16.740222133095862,14.762603606192613,399.1913338331993,424.7970649254066,0.0
0.11,9.594571677156715,-2.227347757441791,10.0,0.0,16.763467698522362,14.989536309096003,393.85856505659746,424.7970649254066,0.0
0.111,10.629033319481056,-1.9281795731943645,10.0,0.0,16.775900835056685,15.09368149966729,387.96170518664155,424.7970649254066,0.0
0.112,11.506501562998107,-1.532960568878301,10.0,0.0,16.757022768362415,15.102478594471247,373.2741325057407,424.7970649254066,0.0
0.113,12.251962524994147,-1.0681127800827843,10.0,0.0,16.693731151093623,15.035282149740986,355.0948670179352,424.7970649254066,0.0
0.114,12.922857155057311,-0.5295710756509706,10.0,0.0,16.575457941479137,14.902132388069877,342.77599250425516,424.7970649254066,0.0
0.115,13.518573396392785,0.010579859439433292,10.0,0.0,16.40166589084337,14.711650441358183,353.17533655671934,424.7970649254066,0.0
0.116,13.705056312659238,-0.04322274660253811,10.0,0.0,16.23752464661552,14.508281525878107,356.7248776795341,424.7970649254066,0.0
0.117,13.59708763667231,-0.4483881520598434,10.0,0.0,16.113490803802335,14.322576761044488,364.7701011206788,424.7970649254066,0.0
0.11800000000000001,13.347606557055611,-0.9618340224070465,10.0,0.0,16.035717260470726,14.169402320410876,373.89709332651387,424.7970649254066,0.0
0.11900000000000001,13.008390906246989,-1.5216380718033955,10.0,0.0,16.00684761413904,14.05858688030025,383.94714477560376,424.7970649254066,0.0
0.12,12.617431733800252,-2.0932703802851096,10.0,0.0,16.027064901868492,13.995579372028566,394.70727380524636,424.7970649254066,0.0
0.121,12.200051826804634,-2.6583729594000873,10.0,0.0,16.095404670615657,13.982896541402052,405.60307938891907,424.7970649254066,0.0
0.122,11.771365511371702,-3.207836529782255,10.0,0.0,16.21043214637634,14.021297666340573,416.45460626395663,424.7970649254066,0.0
0.123,11.341946812817007,-3.7327983276363192,10.0,0.0,16.37004814911494,14.110310620047994,424.97072961622035,424.7970649254066,0.0
0.124,10.922653499734174,-4.218676598509994,7.487385811177825,0.0,16.57080083876798,13.971824395341661,430.2612216492621,424.7970649254066,0.0
0.125,10.20145109583387,-4.496974968997822,4.787498227418399,0.0,16.76338367503001,13.670539901044158,434.7213501929844,424.7970649254066,0.0
0.126,9.166213620539809,-4.498900307579899,2.458191102881468,0.0,16.90400858177523,13.296081330184478,440.5866996456971,424.7970649254066,0.0
0.127,7.977053285907414,-4.220869386032614,-0.6323799706777766,0.0,16.962522486003945,12.776916622295767,433.9119978618492,424.7970649254066,0.0
0.128,6.6496008989477,-3.6573213111800764,2.613821591881731,0.0,16.90405855000261,12.83763581745518,426.04558764027,424.7970649254066,0.0
0.129,5.998876682424247,-3.340201124340348,6.534541475522697,0.0,16.8282651873135,13.343559011021412,426.4988382785639,424.7970649254066,0.0
0.13,6.216234725564001,-3.3920832244061483,6.29089842284419,0.0,16.819521713125564,13.694885987420456,432.2810942494854,424.7970649254066,0.0
0.131,6.724156187698581,-3.381695259364233,3.3249301441426313,0.0,16.845123786841057,13.63268805822701,430.5408940193412,424.7970649254066,0.0
0.132,6.964700065130055,-2.9873354507566963,4.137591968275405,0.0,16.818670160969248,13.676942000869964,419.20601331142876,424.7970649254066,0.0
0.133,7.255186340243616,-2.5045383483069643,9.860942838371393,0.0,16.750123208765515,14.30601911264249,409.0734238784852,424.7970649254066,0.0
0.134,8.27893480678523,-2.367828322708096,10.0,0.0,16.74112853116804,14.713689128527143,401.0299516326853,424.7970649254066,0.0
0.135,9.431509967175073,-2.213751250083939,10.0,0.0,16.7582189451861,14.961756320469831,395.39715259045255,424.7970649254066,0.0
0.136,10.496234122432854,-1.9410169022926533,10.0,0.0,16.769947029465825,15.081131929145592,388.9671798578276,424.7970649254066,0.0
0.137,11.403100732583855,-1.5664828870814806,10.0,0.0,16.753968467989843,15.100634699817725,374.3593554198657,424.7970649254066,0.0
0.138,12.17143069207862,-1.1131491175649582,10.0,0.0,16.69541666523396,15.041141707832123,356.266650012703,424.7970649254066,0.0
0.139,12.856973712207393,-0.5804621846508111,10.0,0.0,16.582708518629712,14.91401640215028,343.88820413666144,424.7970649254066,0.0
0.14,13.462745096223939,-0.04011034690399651,10.0,0.0,16.414446823294696,14.728553390335662,351.3597696970385,424.7970649254066,0.0
0.14100000000000001,13.717257702425348,0.007074092085585515,10.0,0.0,16.244678226400346,14.522871837327019,357.88008523468267,424.7970649254066,0.0
0.14200000000000002,13.613977027772714,-0.4025655410512399,10.0,0.0,16.116850537929498,14.334687580203607,364.29234108507416,424.7970649254066,0.0
0.14300000000000002,13.372702303765028,-0.9137164028587867,10.0,0.0,16.03511739106086,14.178046392839764,372.79746112168255,424.7970649254066,0.0
0.14400000000000002,13.041047936880119,-1.4690143808471474,10.0,0.0,16.00186470910335,14.062965242642717,382.6195955454213,424.7970649254066,0.0
0.145,12.654721254945555,-2.0381718598843914,10.0,0.0,16.0174835232361,13.995246330613572,393.40247974562544,424.7970649254066,0.0
0.146,12.23921225599931,-2.60372845279787,10.0,0.0,16.081288215182767,13.977703914265353,404.34803857256304,424.7970649254066,0.0
0.147,11.81130324366647,-3.1546333753008797,10.0,0.0,16.191902171846152,14.011211110113775,415.3518669803627,424.7970649254066,0.0
