timestamp,iq,id,iq_ref,id_ref,vq,vd,omega,omega_ref,r
0.0,0.0,0.0,0.0,0.0,0.0,0.0,0.0,23.478622070479517,0.0
0.001,0.0,0.0,10.0,0.0,0.0,1.0999999999999999,17.188245181823117,23.478622070479517,0.0
0.002,0.7310689989714702,-0.40580011468505667,3.4033964888006683,0.0,0.15463801261535623,1.1839560238812115,25.29019744866888,23.478622070479517,0.0
0.003,0.9182267233056981,-0.5096384194566302,-0.6656953984041074,0.0,0.30957203873532047,0.8800695144682554,25.90140026957759,23.478622070479517,0.0
0.004,0.7068665305233358,-0.38908192976314976,-0.9955245908494424,0.0,0.4043244143879942,0.6515959647610546,24.888782988291698,23.478622070479517,0.0
0.005,0.4643254799326135,-0.2509823431624068,-0.5033175593846186,0.0,0.4527688078755335,0.5374519866125808,24.210361574916902,23.478622070479517,0.0
0.006,0.30721478097251614,-0.16070069856785485,-0.1714242477415946,0.0,0.4764043791600783,0.4860098059734961,23.896876455767096,23.478622070479517,0.0
0.007,0.22313663546176254,-0.11225323678662869,-0.018864232019567134,0.0,0.48810577090227053,0.4632155581563492,23.769675461255165,23.478622070479517,0.0
0.008,0.18165008655305964,-0.08810725969957657,0.041825731328641785,0.0,0.4941860158267656,0.4527439090310687,23.706749515326134,23.478622070479517,0.0
0.009000000000000001,0.1615894077893337,-0.07618044674250944,0.0710074298446911,0.0,0.4975405816918762,0.44832234568897184,23.75426830465637,23.478622070479517,0.0
0.01,0.15218614025176347,-0.07029167540960823,0.04449157283780414,0.0,0.49958903791921755,0.4423035866531732,23.859038255726034,23.478622070479517,0.0
0.011,0.14485882122153423,-0.06595042392449105,-0.011697564549492612,0.0,0.5004121226702111,0.43188787501910425,23.719151212213493,23.478622070479517,0.0
0.012,0.13533768120314224,-0.06117507993641173,0.05584066578943814,0.0,0.4996294524588607,0.43156119194641784,23.597301666263064,23.478622070479517,0.0
0.013000000000000001,0.1328631087052599,-0.059818277309991286,0.11557864280681715,0.0,0.4987908861123513,0.4372616969029704,23.548291196871038,23.478622070479517,0.0
0.014,0.13632992007562073,-0.0614444563018224,0.13938718623891524,0.0,0.49879867461151395,0.44392375976085535,23.721909621767352,23.478622070479517,0.0
0.015,0.1416535880056958,-0.06402924829044246,0.05014509827787944,0.0,0.49973995587537845,0.43931474471422854,23.823715663717632,23.478622070479517,0.0
0.016,0.1394548040768131,-0.06282055673100183,-0.004208858629641488,0.0,0.4999674035167692,0.43046934782991164,23.6579165900774,23.478622070479517,0.0
0.017,0.13260035354999056,-0.05949236137365779,0.07689773299449634,0.0,0.49893355213187596,0.4327285017645576,23.546621909860615,23.478622070479517,0.0
0.018000000000000002,0.13265379762822485,-0.05949111016152932,0.13186507470907705,0.0,0.49826214559917553,0.43981927348573807,23.571806346823966,23.478622070479517,0.0
0.019,0.13771217028728064,-0.061818819919522955,0.11834101346395742,0.0,0.49862301747736415,0.4435406206757078,23.70585417443282,23.478622070479517,0.0
0.02,0.14130571104707607,-0.0635323378899292,0.049044778619997786,0.0,0.49948514676589545,0.439093869357128,23.796911117780617,23.478622070479517,0.0
0.021,0.13878060967165115,-0.06220063142507397,0.00033341647308771094,0.0,0.49965276510287754,0.4308264151704336,23.61973896323207,23.478622070479517,0.0
0.022,0.13229529991549113,-0.058995100410265,0.08750832481983567,0.0,0.49863758484051157,0.4341669548351415,23.520489255966464,23.478622070479517,0.0
0.023,0.13316798159617718,-0.05939943803658745,0.13671450659776943,0.0,0.4981345090198966,0.44145200533681017,23.56597366543407,23.478622070479517,0.0
0.024,0.13852924445187148,-0.06182365305557627,0.11309878591442155,0.0,0.4986728661073355,0.44428744001598336,23.696593971670307,23.478622070479517,0.0
0.025,0.14155126197667853,-0.06319084606032102,0.045608913784394356,0.0,0.49956708003427985,0.4394266289093419,23.772710887688994,23.478622070479517,0.0
0.026000000000000002,0.13856733508868843,-0.061656370229727385,0.0046095676029558885,0.0,0.49970332718645283,0.4316647430803278,23.590309873301024,23.478622070479517,0.0
0.027,0.13235854759865695,-0.058518231031126626,0.09469319676872603,0.0,0.4987199104869669,0.4356649905745054,23.482046643635424,23.478622070479517,0.0
0.028,0.1337394417216222,-0.059159318774306136,0.14879056586996667,0.0,0.4983367612505832,0.4440027597303687,23.59528477069306,23.478622070479517,0.0
0.029,0.13991910239612848,-0.061944330588512016,0.09100487533901394,0.0,0.4991256442755551,0.44390508366462406,23.69712324928605,23.478622070479517,0.0
0.03,0.14113965844458032,-0.06223919105101293,0.03790062425445273,0.0,0.4998304559241883,0.43855998823537434,23.716171180653994,23.478622070479517,0.0
0.031,0.1373502115463209,-0.06044708604189221,0.02600116746873632,0.0,0.49973019670940483,0.43347103049762264,23.556568050823138,23.478622070479517,0.0
0.032,0.13289312761969774,-0.05811317303200836,0.10502327258072813,0.0,0.49889225826132866,0.4381447535052899,23.45656694055173,23.478622070479517,0.0
0.033,0.13514053676566964,-0.05915014811794926,0.15524437901570942,0.0,0.4987428923483791,0.44670962517878804,23.619293399974453,23.478622070479517,0.0
0.034,0.14160556433522367,-0.06207065159334372,0.0724744360093994,0.0,0.49977583582550833,0.4441074893574061,23.714678387321207,23.478622070479517,0.0
0.035,0.14113853944409976,-0.06145448035167488,0.022421379167605143,0.0,0.5003482875014488,0.43730674765706,23.660563947225207,23.478622070479517,0.0
0.036000000000000004,0.13596016438579053,-0.05899344616245328,0.047659180448148625,0.0,0.499918867791363,0.43508496501112326,23.52115342146004,23.478622070479517,0.0
0.037,0.13322051868594656,-0.05752336304909249,0.11693912982092747,0.0,0.49917311298711475,0.4406604123533714,23.450077970969193,23.478622070479517,0.0
0.038,0.13657373095916278,-0.05893692778001073,0.15276229606145325,0.0,0.4992296713490506,0.44845523846664814,23.63067168240837,23.478622070479517,0.0
0.039,0.1426740519118394,-0.061738362934352926,0.06094494422257671,0.0,0.5003540787057892,0.4443805942580465,23.739547556865805,23.478622070479517,0.0
0.04,0.14101656220703176,-0.06068744015395329,0.0038977521299960183,0.0,0.500814965048606,0.4357121646712394,23.566838971525883,23.478622070479517,0.0
0.041,0.13439604717356207,-0.057366499769062204,0.08936987578949354,0.0,0.5000081255839267,0.43864075395749885,23.453133641307456,23.478622070479517,0.0
0.042,0.13488476295298965,-0.05755706127589549,0.14647742519042734,0.0,0.499629000163942,0.4465029456801005,23.52214142135886,23.478622070479517,0.0
0.043000000000000003,0.14059347693268523,-0.059921407320754766,0.1115383416559319,0.0,0.5003321789080819,0.44850355962566735,23.640810432372128,23.478622070479517,0.0
0.044,0.1431590284434613,-0.060829752152062176,0.05058195253037215,0.0,0.5012413756433598,0.4437934945562366,23.6977393074406,23.478622070479517,0.0
0.045,0.14012186484342987,-0.05931253909093008,0.019926342626525317,0.0,0.501412669313129,0.4372425459802204,23.51687366626284,23.478622070479517,0.0
0.046,0.1347862251743767,-0.05649802421143832,0.10997664725757236,0.0,0.5006173142521871,0.4421324599648318,23.408321129938198,23.478622070479517,0.0
0.047,0.13700958154999623,-0.057360760209633335,0.1649559248253061,0.0,0.5005135322043969,0.4513031389330195,23.590309908758286,23.478622070479517,0.0
0.048,0.14388285708442783,-0.060397548023695576,0.07284465703247442,0.0,0.5016626155577691,0.4481305128216892,23.716943054773772,23.478622070479517,0.0
0.049,0.143046190616651,-0.059696556173346904,0.007144874181788885,0.0,0.5022720509829924,0.439244960287982,23.556443620144112,23.478622070479517,0.0
0.05,0.13642713511187948,-0.05640273969514458,0.08661637599997293,0.0,0.501576677718224,0.44142749901952183,23.414621393812475,23.478622070479517,0.0
0.051000000000000004,0.13641083996493347,-0.05626670381622683,0.15816749593246202,0.0,0.5011870698711874,0.45033375663693936,23.507382603459916,23.478622070479517,0.0
0.052000000000000005,0.14273788469171736,-0.05884146085241061,0.11149928577893703,0.0,0.5020116322033653,0.4517652755202829,23.644504790053446,23.478622070479517,0.0
0.053,0.14505484031590432,-0.059561943402541166,0.04127936528643289,0.0,0.5029503957008125,0.4456869949244771,23.647672617898472,23.478622070479517,0.0
0.054,0.14098333521169235,-0.05760429861853972,0.03800494588973047,0.0,0.5029649090371928,0.44112346692698945,23.4753838836615,23.478622070479517,0.0
0.055,0.1368390549231691,-0.05531369652629049,0.12418169487639646,0.0,0.502289228457879,0.44694508542608447,23.401915755371512,23.478622070479517,0.0
0.056,0.14004625408023508,-0.05646557214883835,0.16168282217247076,0.0,0.5024128901258089,0.4549860958198775,23.59851990808331,23.478622070479517,0.0
0.057,0.14628620545294801,-0.05921651733877287,0.06218176744053311,0.0,0.5036193718809925,0.4502609213881826,23.688657914248953,23.478622070479517,0.0
0.058,0.14415644670732644,-0.05801922789799406,0.015012405920017832,0.0,0.5040734767271032,0.44223196633098383,23.486756418147657,23.478622070479517,0.0
0.059000000000000004,0.1379457975272823,-0.05477124802599796,0.11588181049398463,0.0,0.5033339706913709,0.44728051920480605,23.368805684540586,23.478622070479517,0.0
0.06,0.1401291087107823,-0.05541056343633537,0.17595534115690925,0.0,0.5032760750404514,0.4570473897928694,23.572013122480296,23.478622070479517,0.0
0.061,0.1473935040195403,-0.05856382921895905,0.07341771166704639,0.0,0.5045411220954155,0.4531746588343922,23.69466766932426,23.478622070479517,0.0
0.062,0.14610529634265879,-0.05772229588312122,0.009929982256616635,0.0,0.5051682900242667,0.4440717785345546,23.489503061278672,23.478622070479517,0.0
0.063,0.1392997478972331,-0.05421611234637903,0.11240347637141954,0.0,0.504445188274566,0.44858459295654673,23.351108625683718,23.478622070479517,0.0
0.064,0.14095930565428572,-0.05461184421302728,0.18287582861685442,0.0,0.5043242704827332,0.4590504327294894,23.559884869303936,23.478622070479517,0.0
0.065,0.14861534133300897,-0.0579035181998417,0.07767507881850143,0.0,0.5056201552672612,0.45535522239859233,23.690019048987924,23.478622070479517,0.0
0.066,0.14754957733734536,-0.05714165778910091,0.010494019191423079,0.0,0.506300209155197,0.4460150069145527,23.47751319314734,23.478622070479517,0.0
0.067,0.14062686431345242,-0.05356947920145972,0.11675803588503611,0.0,0.505592915065402,0.45078851159295064,23.341699846799063,23.478622070479517,0.0
0.068,0.1424558527129019,-0.05399103557584496,0.18603393129598,0.0,0.5055157938394852,0.46130122886861846,23.563640624092386,23.478622070479517,0.0
0.069,0.15016153421883882,-0.057316305941187154,0.07421335711318978,0.0,0.5068592206401707,0.45693260509825284,23.67781008520687,23.478622070479517,0.0
0.07,0.1486195793286973,-0.056363649279406,0.015136746408675211,0.0,0.5074933974473017,0.44800163680229876,23.450719579402232,23.478622070479517,0.0
0.07100000000000001,0.14191370659989588,-0.052826537949562956,0.12896102422176603,0.0,0.5067915040644594,0.4538608461344051,23.347513403902102,23.478622070479517,0.0
0.07200000000000001,0.14458775721756245,-0.053535492687147995,0.18187519863760526,0.0,0.5068590770875446,0.46338505730739643,23.57710805569812,23.478622070479517,0.0
0.073,0.15175167597914913,-0.05664082939441722,0.06609301288741083,0.0,0.5082068114160442,0.4579371319311198,23.646507193635458,23.478622070479517,0.0
0.074,0.14929900729945927,-0.055343523932005735,0.0297145926871821,0.0,0.5087012228061281,0.4506664009031789,23.41880319471599,23.478622070479517,0.0
0.075,0.14358251840462743,-0.052236097316692126,0.14416478090455048,0.0,0.5080902760813495,0.4577297761145881,23.373213067070825,23.478622070479517,0.0
0.076,0.14736486940364457,-0.05333103836095943,0.16801393476122053,0.0,0.5083982793312118,0.46503140067559834,23.59575506581152,23.478622070479517,0.0
0.077,0.15319375134206306,-0.055792215971733464,0.055571605437552934,0.0,0.5096654248389315,0.4584231618380879,23.597265484968744,23.478622070479517,0.0
0.078,0.14960356418742043,-0.05402936916323781,0.053629961714048574,0.0,0.5099265069870861,0.4539665133251464,23.390095009544968,23.478622070479517,0.0
0.079,0.14563884253118592,-0.0517185175550466,0.15810047003528227,0.0,0.5094792508603148,0.4618930277415246,23.402633996555586,23.478622070479517,0.0
0.08,0.1504350427048424,-0.05322223946596855,0.15259085726921243,0.0,0.5100578897141419,0.46676417338044346,23.61010013867433,23.478622070479517,0.0
0.081,0.15477444761884168,-0.05493339579782788,0.04754300552789251,0.0,0.5112389692238735,0.45927652823816506,23.563361729194124,23.478622070479517,0.0
0.082,0.1502093443382681,-0.05275555466203202,0.07006481368084927,0.0,0.5112965021801479,0.45672918838532933,23.343320808452695,23.478622070479517,0.0
0.083,0.14737455254392134,-0.05101204680527126,0.18143828667183193,0.0,0.5109235404026254,0.46673437582545557,23.425230486741153,23.478622070479517,0.0
0.084,0.15390563114361266,-0.05324675562125161,0.14101736336498663,0.0,0.5118516465951934,0.46939494548624455,23.6548101860585,23.478622070479517,0.0
0.085,0.1570490115349879,-0.0543709065476729,0.02446563255052267,0.0,0.5130543086483301,0.4591853265866345,23.503332197791377,23.478622070479517,0.0
0.08600000000000001,0.15033808698759343,-0.051114864033869334,0.09995752541096652,0.0,0.5127463364204096,0.46035619680921974,23.294266466989463,23.478622070479517,0.0
0.08700000000000001,0.1496849448149054,-0.05028657415450735,0.20633394684682402,0.0,0.5125276969759476,0.472330406609616,23.51691123796929,23.478622070479517,0.0
0.088,0.15795768932493043,-0.05355771279192473,0.09462866968201306,0.0,0.5138964506048811,0.4688174534652091,23.65660124304159,23.478622070479517,0.0
0.089,0.15713042340988792,-0.05293638760406464,0.02300387542024243,0.0,0.5146759763994416,0.4592047230967445,23.37945975833904,23.478622070479517,0.0
0.09,0.15016729641249008,-0.04917761209686955,0.16256624089292243,0.0,0.5140090245237869,0.46745699779975836,23.353806830702414,23.478622070479517,0.0
0.091,0.15453549550903062,-0.050410938617423455,0.17664085710900565,0.0,0.514407248978332,0.4744198008033539,23.610795268196988,23.478622070479517,0.0
0.092,0.16025513514606077,-0.052809814632925466,0.04682490638454412,0.0,0.5157134743842818,0.46572016684108525,23.518636899984656,23.478622070479517,0.0
0.093,0.15517156909482335,-0.05043890223421439,0.09250394219565834,0.0,0.5157343247293965,0.46496036092411186,23.270401618587353,23.478622070479517,0.0
0.094,0.15355181121719214,-0.04907755066177931,0.2187037874132315,0.0,0.5155510698993216,0.47783115095519635,23.518438001619856,23.478622070479517,0.0
0.095,0.16221034259496792,-0.0524420483150348,0.09428743658557683,0.0,0.517056927812945,0.4734801034266155,23.641578050074088,23.478622070479517,0.0
0.096,0.16083966131110608,-0.05159906227023416,0.031087852562515117,0.0,0.5178507217408874,0.4642443159629973,23.344308322513935,23.478622070479517,0.0
0.097,0.1540577942199782,-0.04781100956454206,0.1810658538222472,0.0,0.5172333015924959,0.4738733611845217,23.36690042971172,23.478622070479517,0.0
0.098,0.15945767458934462,-0.049384961054694046,0.170887016631033,0.0,0.5178515431720694,0.4791965022538821,23.65139250277857,23.478622070479517,0.0
0.099,0.16418887904218288,-0.05140284624404365,0.026913275774617204,0.0,0.5191465025565484,0.46784739656585167,23.415453857343923,23.478622070479517,0.0
0.1,0.1571458097561178,-0.04793945387673981,0.14551428062329666,0.0,0.5187759034214797,0.47307059499298676,23.290070161465966,23.478622070479517,0.0
0.101,0.15939829597366273,-0.04809209496892812,0.21009164765241078,0.0,0.5190161084864451,0.48333370981182644,23.590717934854794,23.478622070479517,0.0
0.10200000000000001,0.16689577259057148,-0.051312668431266674,0.058646802314243934,0.0,0.5206113411967334,0.47448762943210476,23.519041701199065,23.478622070479517,0.0
0.10300000000000001,0.1621022732317159,-0.04901898417803438,0.0940807228349132,0.0,0.5208779315955416,0.4727001197676826,23.248306568453245,23.478622070479517,0.0
0.10400000000000001,0.15986816188024927,-0.047149767935004264,0.23175144422808583,0.0,0.5207564350438258,0.48610527751269866,23.549106119545193,23.478622070479517,0.0
0.105,0.16869332563864445,-0.050592314931725314,0.0806468281914548,0.0,0.5223849762538528,0.4791664457231421,23.581875996558747,23.478622070479517,0.0
0.106,0.165514853120793,-0.049008718865484475,0.0632293504238858,0.0,0.5229481591266677,0.4731173584540253,23.26155457600552,23.478622070479517,0.0
0.107,0.16061735629938315,-0.04599740991124396,0.2255607356452396,0.0,0.5225347069609854,0.48626706527630276,23.490716169022587,23.478622070479517,0.0
0.108,0.16881857074547632,-0.04891879564705104,0.11085899815127498,0.0,0.5238290362145803,0.48286884266595026,23.618611076448477,23.478622070479517,0.0
0.109,0.1680212426378916,-0.04843342981214951,0.0455116543786402,0.0,0.5245715061825832,0.47406840303823794,23.288623059191092,23.478622070479517,0.0
0.11,0.16178266324989488,-0.04482067752404848,0.21240565312021698,0.0,0.5239671360976725,0.4859123381210002,23.42940349671348,23.478622070479517,0.0
0.111,0.16883847576145253,-0.04718498478955621,0.14250762009668355,0.0,0.5249037978516161,0.4863151938968396,23.62961030527515,23.478622070479517,0.0
0.112,0.17049968926254538,-0.04783364201458308,0.0408943334678919,0.0,0.5258347882298469,0.476180773711553,23.289220725922156,23.478622070479517,0.0
0.113,0.16382732536590355,-0.04421009430898725,0.21298313658996254,0.0,0.5252541607318603,0.4878493679559755,23.39790154935918,23.478622070479517,0.0
0.114,0.17069173479779703,-0.0464375983441399,0.15944993008265435,0.0,0.5261797163290373,0.48986169060265755,23.63393222688702,23.478622070479517,0.0
0.115,0.17340313102548247,-0.04758745661706991,0.03988148975465955,0.0,0.5273181580008357,0.47891853068265655,23.282855485043925,23.478622070479517,0.0
0.116,0.16636525891934145,-0.0438107746309897,0.2173775265305627,0.0,0.5268215059122558,0.49070505926441693,23.399530293122176,23.478622070479517,0.0
0.117,0.17320676081912756,-0.04598743532139204,0.15983104026501055,0.0,0.5278303713865152,0.4923352519921358,23.62838672837581,23.478622070479517,0.0
0.11800000000000001,0.17560761741896863,-0.04701266119180231,0.043905176059231305,0.0,0.5289923778249617,0.48153125258754376,23.264398673404045,23.478622070479517,0.0
0.11900000000000001,0.16861994805918692,-0.04318017007015056,0.22804143751586758,0.0,0.5285259573970182,0.4941307533651179,23.422063824534334,23.478622070479517,0.0
0.12,0.17600277655460214,-0.045633822804507354,0.14977444441017518,0.0,0.5296743558016226,0.494090942337854,23.603664025751865,23.478622070479517,0.0
0.121,0.1773214744577097,-0.046223347351655876,0.057723924248686165,0.0,0.5307442444358829,0.4847558364826826,23.242640227551114,23.478622070479517,0.0
0.122,0.1711752294362153,-0.04264216032645951,0.24059564177834578,0.0,0.5303738078029568,0.49818689813772743,23.46192894929096,23.478622070479517,0.0
0.123,0.17926715008313573,-0.045487197569650174,0.13111821212030775,0.0,0.5317322869658309,0.49541500180491793,23.557202588619024,23.478622070479517,0.0
0.124,0.1787887848737236,-0.04532360966139665,0.08269558727488113,0.0,0.5326312835367968,0.4889579679647649,23.20665068489273,23.478622070479517,0.0
0.125,0.17430912693104914,-0.042350352898511266,0.2606912529938965,0.0,0.5324692547018157,0.5037882653648694,23.533332330860055,23.478622070479517,0.0
0.126,0.18364216496466645,-0.0458818502678212,0.09680332740642786,0.0,0.5342246557685961,0.49624027090652945,23.48208889736138,23.478622070479517,0.0
0.127,0.18009115542967719,-0.044252705314226405,0.12239037588694746,0.0,0.5348351963642763,0.4945600120186182,23.180777576544923,23.478622070479517,0.0
0.128,0.17836019465131497,-0.0422172220121586,0.2760244812345215,0.0,0.5350090452979057,0.5099076097727641,23.638110205024102,23.478622070479517,0.0
0.129,0.1884295984491128,-0.046433576632711006,0.045763285649486146,0.0,0.5371844229548681,0.4957478160514871,23.383717434028267,23.478622070479517,0.0
0.13,0.18060418801723066,-0.04242443771962937,0.17390871751191633,0.0,0.5372431146473624,0.5005816381142372,23.336807203747117,23.478622070479517,0.0
