timestamp,iq,id,iq_ref,id_ref,vq,vd,omega,omega_ref,r
0.0,0.0,0.0,0.0,0.0,0.0,0.0,0.0,206.23072365378758,0.0
0.001,0.0,0.0,10.0,0.0,0.0,1.0999999999999999,18.342509173265015,206.23072365378758,0.0
0.002,0.527812421523619,-0.2739556141969198,10.0,0.0,0.14013511756166108,1.9319406336324019,33.11084102712404,206.23072365378758,0.0
0.003,1.1333240864850955,-0.6345071322792445,10.0,0.0,0.38637189757748286,2.6333725567272035,46.62202033209606,206.23072365378758,0.0
0.004,1.705501743849004,-0.9554337169691828,10.0,0.0,0.7098246010362728,3.2324005398536917,62.91205477893986,206.23072365378758,0.0
0.005,2.1845584109279828,-1.2271581270926253,10.0,0.0,1.0875152517285116,3.7568965382083612,78.41701664288206,206.23072365378758,0.0
0.006,2.565266496492028,-1.445753474860046,10.0,0.0,1.5012146813401752,4.229624679055533,94.21328965886255,206.23072365378758,0.0
0.007,2.8627847990106225,-1.6140518928673486,10.0,0.0,1.937143854578519,4.667530016357749,110.09499461229366,206.23072365378758,0.0
0.008,3.0933839769255465,-1.745037015242465,10.0,0.0,2.3859960235044397,5.0828470107081225,125.74755107861468,206.23072365378758,0.0
0.009000000000000001,3.275255663816789,-1.8467986007308714,10.0,0.0,2.8413785981527795,5.483817628737162,141.3027738769323,206.23072365378758,0.0
0.01,3.4228926186280924,-1.9268900088133982,10.0,0.0,3.2991124161733834,5.875808094267803,156.5987935020891,206.23072365378758,0.0
0.011,3.5474668522912385,-1.9907421640115432,10.0,0.0,3.7564947219359603,6.262146098892606,171.54537945928357,206.23072365378758,0.0
0.012,3.657495627123038,-2.0414279209544697,10.0,0.0,4.2117095092965,6.644731110736319,186.07593595314444,206.23072365378758,0.0
0.013000000000000001,3.7591052538641216,-2.080703707821109,10.0,0.0,4.66347479809126,7.024502328938512,200.0716976927148,206.23072365378758,0.0
0.014,3.856876575388201,-2.109094615206974,5.202283190677051,0.0,5.1107709217705395,6.873985356074204,203.53751063766353,206.23072365378758,0.0
0.015,3.706969384136847,-1.9974485925502377,3.4963088483639218,0.0,5.485720764229361,6.661037187555926,205.68201967188523,206.23072365378758,0.0
0.016,3.4409294619485706,-1.7836494474307325,2.429541371072096,0.0,5.779479359853898,6.434359460584587,207.37530053415503,206.23072365378758,0.0
0.017,3.1182661956263518,-1.5541790164569351,1.5714551711335205,0.0,5.998090567262922,6.208836118726071,203.1467236231828,206.23072365378758,0.0
0.018000000000000002,2.8062497533461714,-1.3041534479051218,3.7165836269256864,0.0,6.14708021151423,6.303366399918432,210.0830817433132,206.23072365378758,0.0
0.019,2.6596992102905603,-1.1514389684367585,0.20988098596523397,0.0,6.276325582403642,6.0091544376664325,199.2457291122762,206.23072365378758,0.0
0.02,2.423339629244024,-0.9545611280185143,5.698407246898844,0.0,6.34309580232759,6.420627172325435,212.2782360841545,206.23072365378758,0.0
0.021,2.4977549710791034,-0.9075135544271656,-0.8783213633439853,0.0,6.441129819034179,6.008754962362561,195.0664506111306,206.23072365378758,0.0
0.022,2.3255583492982206,-0.7482059472168548,7.839214103594546,0.0,6.471119852016599,6.69225534434655,214.5617531471471,206.23072365378758,0.0
0.023,2.5732943008387994,-0.7935062484940124,-1.991747459347304,0.0,6.573037029111767,6.112850643950122,191.32507467416218,206.23072365378758,0.0
0.024,2.4187526455760775,-0.6295633341096255,9.77564826694141,0.0,6.5883352948627225,7.013778218418333,216.24006529635741,206.23072365378758,0.0
0.025,2.7753724423598243,-0.744471228800516,-2.781940460581905,0.0,6.706475789045243,6.286360550525528,189.17091520706344,206.23072365378758,0.0
0.026000000000000002,2.6221298163449465,-0.5498877292371566,10.0,0.0,6.717507203121353,7.195510923608971,212.83432956064343,206.23072365378758,0.0
0.027,2.971090715943098,-0.6817267826521335,-0.992975220696874,0.0,6.834798643969478,6.6378845966932625,193.1062017784762,206.23072365378758,0.0
0.028,2.9153606084985695,-0.508050855198156,9.002333889139857,0.0,6.86417556548713,7.366783721657823,205.60826764840107,206.23072365378758,0.0
0.029,3.217501879098881,-0.6221714497089681,2.757525514231284,0.0,6.977794732020206,7.2050557730989055,201.53363526365942,206.23072365378758,0.0
0.03,3.332136365309858,-0.5320516810529448,4.841812590503389,0.0,7.052824806546809,7.352993817411,196.13903091723768,206.23072365378758,0.0
0.031,3.453518777226459,-0.5151815165345159,7.640031691079761,0.0,7.134191157641497,7.768396574596511,205.72175673707224,206.23072365378758,0.0
0.032,3.7328302670862494,-0.5554053246923696,2.8537584503296314,0.0,7.253554469887813,7.566413003919248,207.87358514425867,206.23072365378758,0.0
0.033,3.748209981399661,-0.5375934898696435,1.761415631831706,0.0,7.3384215539296935,7.3253704902311965,206.24543188908618,206.23072365378758,0.0
0.034,3.6044650628667574,-0.5135624130724181,2.5753451770649662,0.0,7.388232378099112,7.233340352658526,214.56092394914418,206.23072365378758,0.0
0.035,3.470813499443856,-0.5101802738127099,-1.6657028559176026,0.0,7.4237273815437295,6.694103954970843,207.9492841437949,206.23072365378758,0.0
0.036000000000000004,3.1397169198830004,-0.39503469477765796,1.6229314418569665,0.0,7.389117052573855,6.65158505859888,212.59607848235228,206.23072365378758,0.0
0.037,2.9387479854180043,-0.39791039068885214,-0.7641192757073729,0.0,7.3551836492043545,6.333190714052849,210.36358005161154,206.23072365378758,0.0
0.038,2.6973449634730526,-0.3440629313699881,0.3108013756847612,0.0,7.286852174233012,6.20989888552254,210.84601535124867,206.23072365378758,0.0
0.039,2.5128782491384998,-0.35449947024656736,0.023430808891584665,0.0,7.214711157775388,6.067620431844311,211.70200456411314,206.23072365378758,0.0
0.04,2.3661271303443763,-0.3597296142611983,-0.4592766066439071,0.0,7.136027348048545,5.896429567771176,210.43068434989127,206.23072365378758,0.0
0.041,2.2125592379822603,-0.37624520679991824,0.1343838935059929,0.0,7.049857246626187,5.8200440952764065,211.48661981266392,206.23072365378758,0.0
0.042,2.1100632553569816,-0.40689880328106265,-0.44614279946909674,0.0,6.9678723477841285,5.68262449782528,210.26942622375998,206.23072365378758,0.0
0.043000000000000003,1.9975042391943179,-0.43491379275811004,0.12206696928314864,0.0,6.883119091958824,5.630413243679195,211.11191300672965,206.23072365378758,0.0
0.044,1.9244279296316842,-0.474417121199069,-0.3479883157311079,0.0,6.805685252535178,5.524472414216364,210.18484193491244,206.23072365378758,0.0
0.045,1.840189211761504,-0.5080531524664456,0.07600603736624834,0.0,6.728705644262614,5.481257711318393,210.61156161427562,206.23072365378758,0.0
0.046,1.7829172326594174,-0.5464970197809368,-0.18116218192021938,0.0,6.65899499161943,5.40759560075301,210.1355807997802,206.23072365378758,0.0
0.047,1.719932510051612,-0.5808710922859109,0.017779653867562084,0.0,6.592285902486428,5.365139519805201,210.02100169563965,206.23072365378758,0.0
0.048,1.670642016009472,-0.6136857294027835,0.03716642551931426,0.0,6.531267983529753,5.325193371681249,209.9377549489881,206.23072365378758,0.0
0.049,1.6263349682095622,-0.6459725316945673,0.04171948589308583,0.0,6.475580643537278,5.287827885716185,209.6669340034602,206.23072365378758,0.0
0.05,1.5861517055976728,-0.6726696819266307,0.14276785516031065,0.0,6.424339307450153,5.26367709277335,209.57330675256551,206.23072365378758,0.0
0.051000000000000004,1.5527690819748121,-0.6980604056244848,0.15615564961987327,0.0,6.3783330337818995,5.240549675186362,209.40828773136144,206.23072365378758,0.0
0.052000000000000005,1.5232382685725434,-0.7184392417311277,0.20688951944617173,0.0,6.336602410456525,5.223495782965562,209.27364172554041,206.23072365378758,0.0
0.053,1.4978246745837753,-0.7351927832269533,0.24378334163915616,0.0,6.298978561445082,5.210025386582014,208.49018454735372,206.23072365378758,0.0
0.054,1.4759482546685296,-0.7480003546993778,0.6129173217968416,0.0,6.265011355143437,5.236527714781881,208.5810444795342,206.23072365378758,0.0
0.055,1.4760980530919245,-0.763542158994469,0.543984147449136,0.0,6.238672625049678,5.245473858526046,208.3503735655302,206.23072365378758,0.0
0.056,1.4747746323751154,-0.7782128466319618,0.6381231053337144,0.0,6.217320739936889,5.262083206260284,207.35056866443952,206.23072365378758,0.0
0.057,1.4818065799969045,-0.7818117506903383,1.1268271057725299,0.0,6.200014150678844,5.326925732733676,209.3350988271401,206.23072365378758,0.0
0.058,1.5127536833009496,-0.7943563971197409,0.10351827268872205,0.0,6.192266395060596,5.262768474103092,205.6728643309768,206.23072365378758,0.0
0.059000000000000004,1.4893246087762853,-0.7836740032356773,1.9402141139984692,0.0,6.177577179349573,5.419408465879406,208.00835762489282,206.23072365378758,0.0
0.06,1.5598062050301844,-0.7916625758419048,0.7546911273294086,0.0,6.1810064513128085,5.402153783627114,206.54729319762922,206.23072365378758,0.0
0.061,1.5717986887508264,-0.7955534147761789,1.4820576455227963,0.0,6.182715434411199,5.478218686417607,205.01090463778584,206.23072365378758,0.0
0.062,1.6235154718707026,-0.7807572625250242,2.2624501156045005,0.0,6.190193524341831,5.619848582459966,209.19363497297113,206.23072365378758,0.0
0.063,1.706452250334548,-0.8022169164492757,0.14145583482002344,0.0,6.213595318337813,5.498344124504216,200.92716631340926,206.23072365378758,0.0
0.064,1.688170182116955,-0.7588446418817851,4.327725738004739,0.0,6.217520940396957,5.875870319190376,210.71297025334587,206.23072365378758,0.0
0.065,1.8672527415302973,-0.7948034047857077,-0.6099986979591498,0.0,6.26319580638391,5.611142167408319,199.04838472096935,206.23072365378758,0.0
0.066,1.812913171869587,-0.7418603533131723,5.2941174575572925,0.0,6.271647047302943,6.084052517126418,210.84260135842104,206.23072365378758,0.0
0.067,2.0313700977057665,-0.7764732932198243,-0.6491096382148835,0.0,6.330881053006341,5.773147156335924,197.31130097666616,206.23072365378758,0.0
0.068,1.9712142704709124,-0.7141579075041058,6.205734779433768,0.0,6.34590030023255,6.321522599348087,211.67331208767735,206.23072365378758,0.0
0.069,2.224409447818528,-0.7591774157947476,-1.029696660410722,0.0,6.419830466806484,5.923663492441687,194.3339672627275,206.23072365378758,0.0
0.07,2.145186098803089,-0.6702911913524731,7.758943315974802,0.0,6.43635402626083,6.623334544849346,213.72114070536531,206.23072365378758,0.0
0.07100000000000001,2.4567467068729507,-0.7477888648484715,-2.009547575859883,0.0,6.530605941339488,6.057206549718167,190.75347881077764,206.23072365378758,0.0
0.07200000000000001,2.3368468287459585,-0.6133050304069664,9.629055819864055,0.0,6.543251666873637,6.951352420730617,215.6546838255704,206.23072365378758,0.0
0.073,2.7117636073831166,-0.7355928068494788,-2.915786289250155,0.0,6.6588439007087095,6.21858976680408,188.10821380261638,206.23072365378758,0.0
0.074,2.5612869085947483,-0.5504336372723377,10.0,0.0,6.668010259349709,7.137149119215453,212.85421877322935,206.23072365378758,0.0
0.075,2.918893610104332,-0.6845533036665319,-1.4213370921771058,0.0,6.784720672366876,6.538422725063869,191.209423601428,206.23072365378758,0.0
0.076,2.8449500626188295,-0.5066090193718795,9.551273494247164,0.0,6.808972336730816,7.3441504042961006,206.62254805921705,206.23072365378758,0.0
0.077,3.1751442385025332,-0.6371194993085764,1.8407930212983432,0.0,6.927507198217567,7.0767907293308285,199.20914615906,206.23072365378758,0.0
0.078,3.2535459815929406,-0.526164106865693,5.617709746324147,0.0,6.993942408091037,7.335263902511977,196.7610216562708,206.23072365378758,0.0
0.079,3.4047556117185724,-0.5362944710855679,6.936469017693914,0.0,7.081805308283885,7.66597859007986,204.39503935284066,206.23072365378758,0.0
0.08,3.6638139243174606,-0.5558421330850056,3.137817012418455,0.0,7.196002326391978,7.514384467531616,204.60035286572682,206.23072365378758,0.0
0.081,3.7102162474055467,-0.5137781774075348,3.0514639638559804,0.0,7.27879771868992,7.415343471346191,205.08442103381336,206.23072365378758,0.0
0.082,3.6408888888297146,-0.5280758001506842,2.8208929060124537,0.0,7.345402850198048,7.31807686080616,214.39567580908212,206.23072365378758,0.0
0.083,3.5456782356807235,-0.5270917752307532,-1.9163840031748736,0.0,7.395369588532735,6.728182573299405,205.86189202557767,206.23072365378758,0.0
0.084,3.2029946272972682,-0.40437384949020977,2.354196204859449,0.0,7.367861092701017,6.7561540707431345,212.9948547680167,206.23072365378758,0.0
0.085,3.028246838339755,-0.4200354886790889,-1.279926477502352,0.0,7.348850555765028,6.351913692420671,208.80709006014337,206.23072365378758,0.0
0.08600000000000001,2.758085403580976,-0.3452157452014263,0.7881922123707539,0.0,7.282930246515956,6.278000860880401,211.29335600571892,206.23072365378758,0.0
0.08700000000000001,2.5805115306972133,-0.3607357685986023,-0.5055670839363362,0.0,7.218666085046233,6.058724083746369,209.85285162394257,206.23072365378758,0.0
0.088,2.3997248038175383,-0.3471972119788582,0.17846382725028898,0.0,7.137256220547934,5.961240362600293,210.70829043101807,206.23072365378758,0.0
0.089,2.265132025798675,-0.37390111138888915,-0.29403124405976655,0.0,7.05731178488616,5.819546598476301,209.9817327604221,206.23072365378758,0.0
0.09,2.139633845933373,-0.3932537737211117,0.03173750017187871,0.0,6.973054170240607,5.737046151782107,210.55071555908208,206.23072365378758,0.0
0.091,2.0432351624893688,-0.4292222464791786,-0.29595381821106037,0.0,6.8927352777702575,5.624415129208525,209.75251300936927,206.23072365378758,0.0
0.092,1.947281386276375,-0.45993020726918804,0.06792956308952869,0.0,6.812203363248903,5.56791033332115,210.3555213271548,206.23072365378758,0.0
0.093,1.8778397647098313,-0.499758551847278,-0.27482257253691245,0.0,6.738148198886637,5.474340297448651,209.61681628238617,206.23072365378758,0.0
0.094,1.8012328290155333,-0.5328749470077527,0.06066902356141979,0.0,6.665386067395216,5.4307856923649656,209.8684282561223,206.23072365378758,0.0
0.095,1.746032632202699,-0.5694694926657417,-0.10151400932998644,0.0,6.599238924615345,5.368421237353935,209.5161133366797,206.23072365378758,0.0
0.096,1.6890236484321677,-0.6027876258545972,0.041789553562388226,0.0,6.536769099806553,5.32878272205973,209.4407215106043,206.23072365378758,0.0
0.097,1.6428599852409003,-0.633916676684884,0.04738548803191556,0.0,6.4796734202086625,5.290551506090122,209.27008257943396,206.23072365378758,0.0
0.098,1.600401537409319,-0.6631030164695898,0.10231136436062416,0.0,6.427363393841613,5.260628523438707,209.03338012990966,206.23072365378758,0.0
0.099,1.564097980712527,-0.6880116500201452,0.19263602436155414,0.0,6.379740158138842,5.241422097010878,209.04790354391085,206.23072365378758,0.0
0.1,1.5346308947461624,-0.7113060044824722,0.15720251845972655,0.0,6.337271896018915,5.2174514012956745,208.8823649288635,206.23072365378758,0.0
0.101,1.5060775809897486,-0.7285858654604827,0.21345541323264405,0.0,6.29832123170242,5.201019296077583,208.2425083496322,206.23072365378758,0.0
0.10200000000000001,1.4813086368320176,-0.7419887130132614,0.513265855889844,0.0,6.26292393791679,5.217191005413998,208.1496790634991,206.23072365378758,0.0
0.10300000000000001,1.4746272819348065,-0.7573177008819705,0.5404909448592838,0.0,6.234235704633395,5.228689729395393,207.80260571621125,206.23072365378758,0.0
0.10400000000000001,1.472376707990633,-0.7719789174825764,0.6983087978789704,0.0,6.211025611023858,5.2534382201776655,207.35950528348138,206.23072365378758,0.0
0.105,1.4816160531387874,-0.7808020490729233,0.9085711979469644,0.0,6.193435308162436,5.293902704292299,208.54704587536912,206.23072365378758,0.0
0.106,1.5008713023053102,-0.792390705123771,0.2916376797872795,0.0,6.182837004848307,5.256570714754247,205.46812042530954,206.23072365378758,0.0
0.107,1.4867560148017505,-0.7851804145694228,1.8387264371018528,0.0,6.168656314390302,5.400006426441846,208.11373205999524,206.23072365378758,0.0
0.108,1.552791723838462,-0.7959357471018916,0.4970905356969224,0.0,6.171492453630968,5.357224580318119,205.81063244894503,206.23072365378758,0.0
0.109,1.5512249181458442,-0.793876931182795,1.652841253270455,0.0,6.169432771258774,5.460386176394529,205.6102482234905,206.23072365378758,0.0
0.11,1.6093238203495757,-0.7838246846974839,1.7592381203006968,0.0,6.176810057777242,5.546765245524329,208.05787585665905,206.23072365378758,0.0
0.111,1.6666824815314172,-0.7984834327098007,0.5171527816876995,0.0,6.193800507303055,5.481822316767301,200.8540261134162,206.23072365378758,0.0
0.112,1.666756242528891,-0.7611666640552913,4.172844628712834,0.0,6.198346186968465,5.840185155299547,210.71482864913747,206.23072365378758,0.0
0.113,1.8414176296584284,-0.8020515259177933,-0.8023976891012963,0.0,6.243144085011975,5.560120689541029,198.71927038197623,206.23072365378758,0.0
0.114,1.7791972003515677,-0.745074784272285,5.270495977197439,0.0,6.2487794564756545,6.038904047728766,210.72260025100147,206.23072365378758,0.0
0.115,1.995843337353793,-0.7809522952882183,-0.7760877232873185,0.0,6.306245920239947,5.720066184164476,197.25527145078297,206.23072365378758,0.0
0.116,1.9300117323569284,-0.7191363519496862,6.047331198851976,0.0,6.318923422393984,6.259308609692889,211.18687910224867,206.23072365378758,0.0
0.117,2.1770454285637486,-0.7610623135808321,-0.9680341813654838,0.0,6.389487432098267,5.878138139205832,194.69308751309262,206.23072365378758,0.0
0.11800000000000001,2.1006325213793895,-0.6786770763284409,7.3942379746194895,0.0,6.405396358069346,6.543020464450778,212.89467466674895,206.23072365378758,0.0
0.11900000000000001,2.3988043479762515,-0.7477770836982963,-1.7731951123382919,0.0,6.494627477151015,6.017402058645635,191.20978132365627,206.23072365378758,0.0
0.12,2.2885487533322184,-0.6249399035659298,9.219460982509363,0.0,6.508170553855746,6.869244940308802,215.0095807973008,206.23072365378758,0.0
0.121,2.65072707551225,-0.7371871985430125,-2.7682273257480334,0.0,6.619119185305125,6.167743395233096,188.09210875094857,206.23072365378758,0.0
0.122,2.5044237535310216,-0.5627520139730096,10.0,0.0,6.628512455849524,7.091583905364489,213.51541108199808,206.23072365378758,0.0
0.123,2.8697750563506337,-0.6965119853748578,-1.9300410902795186,0.0,6.745808399052523,6.442341221818985,189.7546484741263,206.23072365378758,0.0
0.124,2.7712116307344106,-0.5122411645232916,10.0,0.0,6.7648430895729845,7.315852821627857,208.35596125059976,206.23072365378758,0.0
0.125,3.122492934292997,-0.6546806661964557,0.7908901819390723,0.0,6.886836524414848,6.93198766197078,196.9725346531931,206.23072365378758,0.0
0.126,3.156234395044284,-0.518438764336572,6.575185370648351,0.0,6.941833095585501,7.326873183055174,198.45504416982072,206.23072365378758,0.0
0.127,3.3461624024660317,-0.5593404990255766,5.911687407174205,0.0,7.036680171581914,7.536387415070063,204.0445004755578,206.23072365378758,0.0
0.128,3.571758926828226,-0.5514541611100781,3.138821486087959,0.0,7.141717448662583,7.413138322192739,201.6057866270848,206.23072365378758,0.0
0.129,3.6292585144056866,-0.4823192788549917,4.404427780591494,0.0,7.216400115078548,7.475594228527568,203.40875270524754,206.23072365378758,0.0
0.13,3.6462585555718245,-0.5212462240053608,3.5311644509955245,0.0,7.294833418275491,7.429262773017413,213.38503946035883,206.23072365378758,0.0
0.131,3.617100326661197,-0.5412155872894497,-1.5285220846258327,0.0,7.362597606111468,6.850952313347408,205.30837417878132,206.23072365378758,0.0
0.132,3.3096406451315823,-0.4283075339700406,2.5190340509129823,0.0,7.353134749698872,6.866606341372641,212.09169263322042,206.23072365378758,0.0
0.133,3.141846050091411,-0.44436990520865083,-0.9312348661008949,0.0,7.3490795230994985,6.475126347366295,209.22390516182347,206.23072365378758,0.0
0.134,2.879339333391113,-0.36868524262298397,0.4727270545172222,0.0,7.297795883162621,6.338525123425413,210.03923889463024,206.23072365378758,0.0
0.135,2.6717041049017762,-0.36770679543351703,0.026975035705406603,0.0,7.238629702260357,6.167598124576269,210.74303962976595,206.23072365378758,0.0
0.136,2.498369101911919,-0.3572374548406151,-0.3700484916222275,0.0,7.167145596570084,5.985622637747888,209.5459140551037,206.23072365378758,0.0
