timestamp,iq,id,iq_ref,id_ref,vq,vd,omega,omega_ref,r
0.0,0.0,0.0,0.0,0.0,0.0,0.0,0.0,443.1562317143846,0.0
0.001,0.0,0.0,10.0,0.0,0.0,1.0999999999999999,8.433096446441219,443.1562317143846,0.0
0.002,0.8353152386756613,-0.4371888473610336,10.0,0.0,0.1580907732097137,1.8981153237456776,20.99490137192122,443.1562317143846,0.0
0.003,1.794192437989712,-0.9530248034662009,10.0,0.0,0.43255406817098163,2.535104852899969,35.04722294967276,443.1562317143846,0.0
0.004,2.642210618595813,-1.4172207899912403,10.0,0.0,0.7891731855082549,3.0521485307614276,49.4803000781394,443.1562317143846,0.0
0.005,3.307171844435006,-1.782973021326012,10.0,0.0,1.197425544479521,3.4884841995342177,63.94935835621692,443.1562317143846,0.0
0.006,3.794493838179581,-2.049479516622032,10.0,0.0,1.634144426600154,3.875055730273344,78.39017926225152,443.1562317143846,0.0
0.007,4.139904262048448,-2.234769159039492,10.0,0.0,2.0835653692955978,4.233520069462491,92.739622970411,443.1562317143846,0.0
0.008,4.384331559697253,-2.361330302993724,10.0,0.0,2.535959481051201,4.5776471704995885,106.87609945130883,443.1562317143846,0.0
0.009000000000000001,4.562533449052249,-2.4498775326649675,10.0,0.0,2.9860014755592506,4.915443037755975,120.7628670460746,443.1562317143846,0.0
0.01,4.701669051314979,-2.5137483566779135,10.0,0.0,3.430959175686842,5.250940620382178,134.39328697288025,443.1562317143846,0.0
0.011,4.820093517876456,-2.5616629293803452,10.0,0.0,3.8696027588214346,5.585748879459383,147.74274863956757,443.1562317143846,0.0
0.012,4.929353125578977,-2.5984338255866675,10.0,0.0,4.301428462405959,5.9201063587606635,160.76363707134925,443.1562317143846,0.0
0.013000000000000001,5.0363501135246045,-2.625973683815532,10.0,0.0,4.726169019005272,6.253533587893277,173.3831604127099,443.1562317143846,0.0
0.014,5.145060973006447,-2.644404105999639,10.0,0.0,5.143530190715875,6.585203925109012,185.51441955930676,443.1562317143846,0.0
0.015,5.257986943386799,-2.65259733247876,10.0,0.0,5.553039229667856,6.914108597627216,197.06812269790515,443.1562317143846,0.0
0.016,5.376939815247223,-2.6488374527773417,10.0,0.0,5.953992312944514,7.239118150587956,207.96498469901806,443.1562317143846,0.0
0.017,5.5035380955432185,-2.6311806533418225,10.0,0.0,6.345446394048684,7.5589857744663265,218.13522766216852,443.1562317143846,0.0
0.018000000000000002,5.639309710744939,-2.5979065603270968,10.0,0.0,6.726258247193012,7.872343149198055,227.47635395310522,443.1562317143846,0.0
0.019,5.78552515426572,-2.5480463309886594,10.0,0.0,7.095172768198997,8.177719989135769,235.87559586176144,443.1562317143846,0.0
0.02,5.9435348077890735,-2.4808612215018124,10.0,0.0,7.450841761347988,8.47353168972795,243.2390076398389,443.1562317143846,0.0
0.021,6.114592981599341,-2.3960166078132428,10.0,0.0,7.791863968830422,8.758092816991915,249.50064486031698,443.1562317143846,0.0
0.022,6.299682273719803,-2.2936987386776,10.0,0.0,8.116833548822973,9.029650811882581,254.62484413708447,443.1562317143846,0.0
0.023,6.4993789662441745,-2.1746459179357935,10.0,0.0,8.424389338715095,9.286434222026958,258.60696868227967,443.1562317143846,0.0
0.024,6.713758564974187,-2.040121997682993,10.0,0.0,8.713260787612052,9.526710081211053,261.47187567718123,443.1562317143846,0.0
0.025,6.942339239920454,-1.8918559559394508,10.0,0.0,8.982308652148463,9.748845421109646,263.2689072841473,443.1562317143846,0.0
0.026000000000000002,7.184072778091628,-1.7319462530970693,10.0,0.0,9.230557857325865,9.951367131022653,264.06623734331845,443.1562317143846,0.0
0.027,7.437390033576382,-1.562725821062672,10.0,0.0,9.457219162481465,10.133014027740487,263.82283793097173,443.1562317143846,0.0
0.028,7.699608091684553,-1.3877525640721964,10.0,0.0,9.661824172844682,10.292851551465048,262.28436969590695,443.1562317143846,0.0
0.029,7.968486800890789,-1.2093134102593641,10.0,0.0,9.84407386019453,10.430211346421872,270.1334657858063,443.1562317143846,0.0
0.03,8.21744828925871,-1.070162696623726,10.0,0.0,10.00831237134328,10.547363153989584,276.63731132957435,443.1562317143846,0.0
0.031,8.31616481908837,-1.1715994821580336,10.0,0.0,10.180391765679055,10.66085442851782,285.91885588719896,443.1562317143846,0.0
0.032,8.395333282074562,-1.2819480907819312,10.0,0.0,10.357736327127363,10.772483149396624,299.9422830481188,443.1562317143846,0.0
0.033,8.415475016706317,-1.462733145986359,10.0,0.0,10.54729217450497,10.889259548152749,310.5956823657509,443.1562317143846,0.0
0.034,8.40286769471195,-1.6710702799719557,10.0,0.0,10.7506793112068,11.01490211453672,321.88076579746246,443.1562317143846,0.0
0.035,8.376115785355866,-1.8757449144606753,10.0,0.0,10.966722829330743,11.151135774761704,336.4760729447114,443.1562317143846,0.0
0.036000000000000004,8.323200425192645,-2.0985558511559064,10.0,0.0,11.197247818356383,11.300903591300973,350.83100253294134,443.1562317143846,0.0
0.037,8.244232657199465,-2.3409406787154134,10.0,0.0,11.444131311797978,11.466904425966499,364.8847199161614,443.1562317143846,0.0
0.038,8.14797374832621,-2.5876592213631167,10.0,0.0,11.707641730777619,11.65079232880576,379.4326378761263,443.1562317143846,0.0
0.039,8.03815324622182,-2.8306990068632025,10.0,0.0,11.987457089121756,11.853760149401808,394.4220723835677,443.1562317143846,0.0
0.04,7.91516812541454,-3.067843206873717,10.0,0.0,12.283243157837235,12.07684288204042,409.1820541300328,443.1562317143846,0.0
0.041,7.783744601087816,-3.2902775769425308,10.0,0.0,12.5938552316525,12.32042268475459,423.135177053209,443.1562317143846,0.0
0.042,7.652040123812206,-3.484844309017755,10.0,0.0,12.91694207518523,12.583878971835912,435.76678437593876,443.1562317143846,0.0
0.043000000000000003,7.533793476596396,-3.6313877263047427,8.359279352740653,0.0,13.248239971653646,12.684509129784837,445.28481379083297,443.1562317143846,0.0
0.044,7.309241216364287,-3.6454669633985732,3.5789788245290612,0.0,13.55655437617756,12.3222984921084,447.42971209720395,443.1562317143846,0.0
0.045,6.7177447275110165,-3.379504388991915,2.4637948675153805,0.0,13.768419600925768,12.015092219834148,443.18202411668165,443.1562317143846,0.0
0.046,6.058814068149485,-2.964846377732002,4.58738093375356,0.0,13.88542492047721,12.071106811759716,436.8377300849367,443.1562317143846,0.0
0.047,5.71172833146817,-2.59501368548086,7.822712965920508,0.0,13.95979615123103,12.49946126376518,433.3035634442077,443.1562317143846,0.0
0.048,5.848440237740208,-2.3703832928519497,9.688322968986768,0.0,14.048554687843353,13.046772006604364,433.55607285340454,443.1562317143846,0.0
0.049,6.334819796643843,-2.2523534732033754,9.65806985299816,0.0,14.172431468843303,13.474108953614767,433.271258130214,443.1562317143846,0.0
0.05,6.91418005235019,-2.140005389770957,9.89932695043514,0.0,14.315476275463224,13.839074863363424,429.3079033985212,443.1562317143846,0.0
0.051000000000000004,7.524569819498364,-1.9841443127421248,10.0,0.0,14.464691954757166,14.129160855447733,420.8482236854491,443.1562317143846,0.0
0.052000000000000005,8.12774534780247,-1.7674301578419893,10.0,0.0,14.60571471906142,14.343907675315393,409.95555998247477,443.1562317143846,0.0
0.053,8.715352106392482,-1.477833138803592,10.0,0.0,14.72442135837679,14.492677101464844,401.46277404053427,443.1562317143846,0.0
0.054,9.279523509371819,-1.141633488263388,10.0,0.0,14.812048285006531,14.582257462189064,391.3193808053613,443.1562317143846,0.0
0.055,9.797308834656778,-0.8207404182429349,10.0,0.0,14.867934313848878,14.620327807752284,398.94937001542365,443.1562317143846,0.0
0.056,10.221460591455779,-0.616217155795939,10.0,0.0,14.902750146194338,14.618700881648373,407.93273189214267,443.1562317143846,0.0
0.057,10.335238308933658,-0.8459713013703927,10.0,0.0,14.961239891332525,14.612444200034831,422.63706455762696,443.1562317143846,0.0
0.058,10.335281945818313,-1.1684740730210432,10.0,0.0,15.046432757221368,14.613795138213918,441.30627907924475,443.1562317143846,0.0
0.059000000000000004,10.224319990539325,-1.577109659228018,6.6036351620414875,0.0,15.164966317105494,14.262136388438087,453.29694816447636,443.1562317143846,0.0
0.06,9.751755393489466,-1.891291482156119,0.5068934549247626,0.0,15.266954290683646,13.371691416347684,458.09949022030736,443.1562317143846,0.0
0.061,8.68744333667065,-1.9285244750512565,-2.043810158049963,0.0,15.270652780684127,12.473228438747661,458.9759086186421,443.1562317143846,0.0
0.062,7.353200023989225,-1.8048900470375029,-2.6402161262599133,0.0,15.170163006914095,11.761007631361108,457.80088949518995,443.1562317143846,0.0
0.063,6.066316781973198,-1.6514977386234666,-2.1991531423418875,0.0,14.992863320137001,11.292655638744236,455.4095265615692,443.1562317143846,0.0
0.064,5.025201047949695,-1.5488254247758422,-1.1260046240033494,0.0,14.776698371336828,11.06869848221183,452.65731173944187,443.1562317143846,0.0
0.065,4.31905124661003,-1.5290424959727034,0.1550919868097349,0.0,14.558604802733571,11.042975009265831,449.83959501673485,443.1562317143846,0.0
0.066,3.9440822826121744,-1.5864078176366083,1.4971167151397413,0.0,14.366256258367097,11.167011368788636,447.19906486916,443.1562317143846,0.0
0.067,3.8533146914299943,-1.6938599536349945,2.7769534573794132,0.0,14.216792286132737,11.393005777675643,444.6097047466407,443.1562317143846,0.0
0.068,3.9820070697223775,-1.8181488235388579,4.057098788316492,0.0,14.11747140633995,11.69440812990721,441.8091422302402,443.1562317143846,0.0
0.069,4.27791515409799,-1.9317505994837978,5.4708509413582025,0.0,14.069476156404505,12.067186476963165,439.2617310947887,443.1562317143846,0.0
0.07,4.717685371391182,-2.0151396767923755,6.783501515279918,0.0,14.071595046912694,12.482725862862459,437.1202914817883,443.1562317143846,0.0
0.07100000000000001,5.2669886902747365,-2.0587013440764776,7.914580724106074,0.0,14.119013879588163,12.912189743550044,435.62810964585344,443.1562317143846,0.0
0.07200000000000001,5.888011923080886,-2.0583693896685222,8.735952862758808,0.0,14.204165085407121,13.31966974018011,432.80363820393046,443.1562317143846,0.0
0.073,6.54249263516026,-2.002437338102302,10.0,0.0,14.31539996417899,13.759965675438401,428.52524562059546,443.1562317143846,0.0
0.074,7.2613275493293905,-1.9069466664402883,10.0,0.0,14.449596295232341,14.082188000237831,422.06610295100876,443.1562317143846,0.0
0.075,7.946585456206035,-1.7366966093375416,10.0,0.0,14.584822626095615,14.317417705047914,413.4587842754495,443.1562317143846,0.0
0.076,8.582156116470486,-1.4922228601438783,10.0,0.0,14.704859682513298,14.479586878902985,402.1412108466149,443.1562317143846,0.0
0.077,9.171251851530805,-1.1925496823822317,10.0,0.0,14.798590638612875,14.579098016760337,391.11407758492703,443.1562317143846,0.0
0.078,9.725001452313801,-0.8561881374950717,10.0,0.0,14.858896574728254,14.62300963770638,394.3403833763469,443.1562317143846,0.0
0.079,10.210308463536363,-0.5702786710461267,10.0,0.0,14.88947665346619,14.620714414942704,408.9327385236705,443.1562317143846,0.0
0.08,10.328081545330036,-0.8122606396310763,10.0,0.0,14.946246313262805,14.613604753444115,419.8395308539171,443.1562317143846,0.0
0.081,10.34233228023385,-1.1275380846496161,10.0,0.0,15.02888874019608,14.612493174053558,437.19295921279206,443.1562317143846,0.0
0.082,10.251775106219013,-1.514062151434313,8.797577664076039,0.0,15.142520639393101,14.497594334834423,454.1121704531753,443.1562317143846,0.0
0.083,9.97122793100118,-1.9090165564466557,0.22841265649652254,0.0,15.272879208632022,13.504919259516207,458.92181917929116,443.1562317143846,0.0
0.084,8.90807257817771,-1.9624140112240833,-2.3340675812104834,0.0,15.292858589390626,12.542507989640137,458.8551030159535,443.1562317143846,0.0
0.085,7.523254666077512,-1.819474423762625,-2.457698212557335,0.0,15.198341575917228,11.832059634559233,457.76661268851313,443.1562317143846,0.0
0.08600000000000001,6.21106783443297,-1.6580818850203647,-2.0595568585784427,0.0,15.02590764489604,11.358728641250124,455.89147005683395,443.1562317143846,0.0
0.08700000000000001,5.149769889105509,-1.5551275226577213,-1.2493379261633457,0.0,14.813672953173596,11.104250928865255,453.3760698337368,443.1562317143846,0.0
0.088,4.406366136606825,-1.5302017269319848,-0.0938361958082794,0.0,14.5955016654787,11.044161952883115,450.54149976900726,443.1562317143846,0.0
0.089,3.984715603270469,-1.5778794114869226,1.249596156010253,0.0,14.39863241221338,11.143434808268198,447.74756882595915,443.1562317143846,0.0
0.09,3.851273030559746,-1.6776731452185492,2.6006482564185625,0.0,14.241877903678036,11.358737037979793,445.04472178009564,443.1562317143846,0.0
0.091,3.9506077932407866,-1.8011100596545784,3.9331868786932063,0.0,14.134909192218027,11.657641071690792,442.3769938098268,443.1562317143846,0.0
0.092,4.230829462236514,-1.9182634934768545,5.274843242873213,0.0,14.080180263851211,12.02038360875903,439.8599429346531,443.1562317143846,0.0
0.093,4.653669078532472,-2.006910207739571,6.566331568257382,0.0,14.07577808625858,12.426316010331618,437.56256821231113,443.1562317143846,0.0
0.094,5.18628859647186,-2.05469238041544,7.770955564449088,0.0,14.116778938434187,12.856448959504563,436.0600331116475,443.1562317143846,0.0
0.095,5.798561838674442,-2.060333202361541,8.593185100808277,0.0,14.19683566899684,13.264043846552472,433.3794229599214,443.1562317143846,0.0
0.096,6.446731383461499,-2.010666703271914,10.0,0.0,14.3041264920887,13.72023634399481,429.4555254216568,443.1562317143846,0.0
0.097,7.17164748694666,-1.9261994702981091,10.0,0.0,14.437512751979384,14.054211449074675,423.43408766173394,443.1562317143846,0.0
0.098,7.8643895289567505,-1.767226085813192,10.0,0.0,14.574315496425383,14.299175206049371,414.84149201598694,443.1562317143846,0.0
0.099,8.506021458162474,-1.532065740298187,10.0,0.0,14.697656437962454,14.46967076997867,403.7903028805068,443.1562317143846,0.0
0.1,9.101011972224077,-1.2361981469336372,10.0,0.0,14.79551900992379,14.57641823441402,392.85925484599335,443.1562317143846,0.0
0.101,9.658172545365275,-0.9027216875377744,10.0,0.0,14.860546336532632,14.626939451697055,386.8557067779194,443.1562317143846,0.0
0.10200000000000001,10.167436728251056,-0.5822942689851995,10.0,0.0,14.892210800762065,14.628463825526655,408.51433364638626,443.1562317143846,0.0
0.10300000000000001,10.337130407628692,-0.7507536909123678,10.0,0.0,14.942596066549036,14.619428545493554,419.67810597148105,443.1562317143846,0.0
0.10400000000000001,10.343614786215207,-1.0913412942575933,10.0,0.0,15.022819319902698,14.617318975191713,434.1691826870333,443.1562317143846,0.0
0.105,10.2696340002134,-1.4640458679341162,10.0,0.0,15.132400917961778,14.631645417501492,452.5757360647253,443.1562317143846,0.0
0.106,10.10488809612459,-1.8915679051827832,1.0950786382756608,0.0,15.275757378806516,13.693338267186272,459.9347579587217,443.1562317143846,0.0
0.107,9.130603631987334,-1.9937187389426874,-2.7522175711659305,0.0,15.317908849876355,12.634567940579927,459.582436859334,443.1562317143846,0.0
0.108,7.706938120842787,-1.8442024055922221,-2.7403190729215634,0.0,15.23249983617243,11.872531952227021,457.91296664726366,443.1562317143846,0.0
0.109,6.3340439062802325,-1.6603475103086698,-2.0531513162151853,0.0,15.060699249855917,11.390409838084707,456.01888043197,443.1562317143846,0.0
0.11,5.2351636789674165,-1.5464782095040976,-1.234734695744205,0.0,14.847179436621163,11.129621910268508,453.72845075520695,443.1562317143846,0.0
0.111,4.467049636374865,-1.5196733025736235,-0.19524204777090848,0.0,14.627122965173951,11.053224561394853,451.0879990370801,443.1562317143846,0.0
0.112,4.019460031452416,-1.5664613601086623,1.045666138065549,0.0,14.426847141382263,11.130119990341669,448.2909265614159,443.1562317143846,0.0
0.113,3.8552248935279967,-1.6636806082584772,2.3928554274273406,0.0,14.264514679585545,11.32867000310852,445.64624949432937,443.1562317143846,0.0
0.114,3.927244962733783,-1.7841079332438643,3.6902937831711657,0.0,14.150545278512084,11.61081353566534,442.91511313843466,443.1562317143846,0.0
0.115,4.180520343641618,-1.9008933439998412,5.058273146878018,0.0,14.08782929273495,11.963709030101644,440.17431754027297,443.1562317143846,0.0
0.116,4.582519420291303,-1.9920022112671074,6.458490087699983,0.0,14.075528576271006,12.373700301747572,437.7454940183989,443.1562317143846,0.0
0.117,5.1078752950115085,-2.047437962098709,7.7270092255968645,0.0,14.11064390253685,12.813228154890215,436.36552515831323,443.1562317143846,0.0
0.11800000000000001,5.722907945584942,-2.063515459645071,8.48490072120042,0.0,14.187414648712153,13.220597595666726,433.98022097751607,443.1562317143846,0.0
0.11900000000000001,6.3695920587408885,-2.022176731937781,9.769312918967687,0.0,14.29253722932432,13.663628667840062,430.1516007623454,443.1562317143846,0.0
0.12,7.080196756886708,-1.940306548292685,10.0,0.0,14.42285832616871,14.013700672128683,424.23249738346675,443.1562317143846,0.0
0.121,7.775635379503835,-1.7889623452807164,10.0,0.0,14.559325353262658,14.270098513356128,415.9725070904093,443.1562317143846,0.0
0.122,8.424303838050722,-1.5606660740905356,10.0,0.0,14.684186313969153,14.450104128956239,405.39142162179377,443.1562317143846,0.0
0.123,9.024036630152441,-1.2739139506932364,10.0,0.0,14.78530196930321,14.565111356521268,394.104301079327,443.1562317143846,0.0
0.124,9.58766527273433,-0.9429401358570701,10.0,0.0,14.854267183462365,14.62272760410021,383.7268479657351,443.1562317143846,0.0
0.125,10.111693823866672,-0.6070383188912873,10.0,0.0,14.888458039245622,14.629471894138435,404.78318883157516,443.1562317143846,0.0
0.126,10.335831447052746,-0.699948750240089,10.0,0.0,14.933483404072401,14.619545987712016,419.98169483747614,443.1562317143846,0.0
0.127,10.347297149748057,-1.044828050115509,10.0,0.0,15.010021260446667,14.616095357346296,432.14980731714905,443.1562317143846,0.0
0.128,10.27964008264658,-1.4208704541600923,10.0,0.0,15.116476139593082,14.628200510062692,449.6362609634368,443.1562317143846,0.0
0.129,10.131183538288974,-1.8330820178291591,2.626119383019228,0.0,15.255078894059647,13.854267416762523,459.6464444679219,443.1562317143846,0.0
0.13,9.290156504214877,-1.9965053790125786,-2.5438744967586944,0.0,15.316282517843034,12.767655795937845,460.00793740225356,443.1562317143846,0.0
0.131,7.902382629125754,-1.8741496925047096,-2.8931380208032023,0.0,15.247611258037907,11.953351506645912,458.25079961424717,443.1562317143846,0.0
0.132,6.501532127273892,-1.685428572127194,-2.165514805798633,0.0,15.084840928907647,11.437357525646421,456.3279446371278,443.1562317143846,0.0
0.133,5.3590608946183425,-1.5584426049279982,-1.335804446466387,0.0,14.87466698940233,11.15234114778395,454.0421741122851,443.1562317143846,0.0
0.134,4.54794963211341,-1.520335348695046,-0.30177860802404766,0.0,14.654086867547674,11.058052278941515,451.4710845884539,443.1562317143846,0.0
0.135,4.063758546437683,-1.5597965700203105,0.9006176251508764,0.0,14.450857677902345,11.11820751886195,448.704212396069,443.1562317143846,0.0
0.136,3.86753649838074,-1.6528414596052188,2.228573914526473,0.0,14.283807256854674,11.302818059754893,446.07619217728467,443.1562317143846,0.0
0.137,3.9127952384023748,-1.7712846531926394,3.513384419289644,0.0,14.164021234399833,11.573371415201013,443.3857367308601,443.1562317143846,0.0
0.138,4.143364143866353,-1.888850248384325,4.856317092337164,0.0,14.0950169332703,11.91485532964381,440.5337699122991,443.1562317143846,0.0
0.139,4.524544587431518,-1.9823124939969454,6.308525119638539,0.0,14.076166644763472,12.321979819064525,438.0335997480805,443.1562317143846,0.0
0.14,5.036730734560907,-2.042790941728027,7.609836521410859,0.0,14.105631840843687,12.762600332865844,436.6139884578894,443.1562317143846,0.0
0.14100000000000001,5.645274722219106,-2.065023100976668,8.385064599071383,0.0,14.178053321736058,13.172549312248885,434.43100350291166,443.1562317143846,0.0
0.14200000000000002,6.288650252330655,-2.0307723032658105,9.563809358674968,0.0,14.280237643136816,13.605969316126952,430.74092368854457,443.1562317143846,0.0
0.14300000000000002,6.987278524309781,-1.9519841979931303,10.0,0.0,14.407221349182413,13.972043920090417,425.0306805019514,443.1562317143846,0.0
