timestamp,iq,id,iq_ref,id_ref,vq,vd,omega,omega_ref,r
0.0,0.0,0.0,0.0,0.0,0.0,0.0,0.0,423.87258664752625,0.0
0.001,0.0,0.0,10.0,0.0,0.0,1.0999999999999999,5.2160326936365395,423.87258664752625,0.0
0.002,0.4888487186770415,-0.27590720371317384,10.0,0.0,0.14034979240844905,1.9362266409455249,11.520851905493883,423.87258664752625,0.0
0.003,0.9340039662898414,-0.5260587858044625,10.0,0.0,0.3750448716635159,2.6587870069867052,18.30420461975764,423.87258664752625,0.0
0.004,1.2946876474833193,-0.7272512579858379,10.0,0.0,0.6781561357162323,3.29733719189412,25.37523458011392,423.87258664752625,0.0
0.005,1.5812357912792347,-0.8859266582600487,10.0,0.0,1.0302536611627677,3.8744300257104487,32.64679566865041,423.87258664752625,0.0
0.006,1.8107481833981696,-1.0121909200960844,10.0,0.0,1.4171530322455046,4.406642446994673,40.02464605522791,423.87258664752625,0.0
0.007,1.998157875998102,-1.1141655522614142,10.0,0.0,1.8285382752682164,4.906003620993948,47.469498513757436,423.87258664752625,0.0
0.008,2.154663975182569,-1.198241529318577,10.0,0.0,2.256949722543219,5.381225627911273,54.95109776410749,423.87258664752625,0.0
0.009000000000000001,2.2884669614822375,-1.2691105526449178,10.0,0.0,2.6969970585777796,5.838613311363247,62.4416594287011,423.87258664752625,0.0
0.01,2.4055465249799526,-1.330103389384894,10.0,0.0,3.1447789511622157,6.282726237951727,69.88164997312555,423.87258664752625,0.0
0.011,2.510424136818725,-1.3832694975101987,10.0,0.0,3.5974322906734395,6.7168403194725155,77.36979658451358,423.87258664752625,0.0
0.012,2.6056969416471953,-1.4312174037404959,10.0,0.0,4.0529743129897,7.143377094379604,84.81366724707503,423.87258664752625,0.0
0.013000000000000001,2.6940339652300396,-1.4744686397565128,10.0,0.0,4.509893967464501,7.564050049481782,92.16563834465586,423.87258664752625,0.0
0.014,2.777405653995109,-1.513329416366881,10.0,0.0,4.9670311250690204,7.980060158992891,99.45834510551813,423.87258664752625,0.0
0.015,2.856967373329627,-1.5484943046548145,10.0,0.0,5.42353510780977,8.392264901074196,106.6634897215787,423.87258664752625,0.0
0.016,2.9338199271295067,-1.58004715083181,10.0,0.0,5.878728330681162,8.801241403496801,113.7624203749211,423.87258664752625,0.0
0.017,3.0088420927713435,-1.6079555306121067,10.0,0.0,6.332054274821737,9.207355665281685,120.73701214291255,423.87258664752625,0.0
0.018000000000000002,3.0827822350061678,-1.6320737833756418,10.0,0.0,6.783032974732933,9.610807901312727,127.56838710802569,423.87258664752625,0.0
0.019,3.1563116513423197,-1.6521673223602147,10.0,0.0,7.231228135016781,10.01166394935715,134.23697930381527,423.87258664752625,0.0
0.02,3.230058654082934,-1.667938695579099,10.0,0.0,7.676223299740916,10.409877032487415,140.7227651272721,423.87258664752625,0.0
0.021,3.3046316792604884,-1.679049279845777,10.0,0.0,8.117604706842812,10.80530276103494,147.00518905067145,423.87258664752625,0.0
0.022,3.380642412242424,-1.6851235288526736,10.0,0.0,8.554947607637361,11.197708607061664,153.0681400439289,423.87258664752625,0.0
0.023,3.4586981121148317,-1.6857908607501093,10.0,0.0,8.987809466973776,11.586782138909028,158.92557730062325,423.87258664752625,0.0
0.024,3.538892989911709,-1.6815484480943157,10.0,0.0,9.415819154850174,11.972193623946357,164.53544177000143,423.87258664752625,0.0
0.025,3.6217719595609132,-1.6721760034093176,10.0,0.0,9.838580477653876,12.353550191384159,169.8535263171216,423.87258664752625,0.0
0.026000000000000002,3.707973332242113,-1.6573227900477185,10.0,0.0,10.255661195898057,12.73039387306011,174.81282589444612,423.87258664752625,0.0
0.027,3.7982097610277243,-1.6365386365228252,10.0,0.0,10.6665804857313,13.102197264953276,179.4248516147079,423.87258664752625,0.0
0.028,3.8929214436874835,-1.6098341350715135,10.0,0.0,11.070858532146133,13.468396325835728,183.66602673872538,423.87258664752625,0.0
0.029,3.9923044248217576,-1.5776268990556395,10.0,0.0,11.468052929060498,13.828418274173252,187.50634687839272,423.87258664752625,0.0
0.03,4.096920476606931,-1.539721197240578,10.0,0.0,11.857682526277681,14.18164353148343,190.95228531601293,423.87258664752625,0.0
0.031,4.207038461382875,-1.4963585303390308,10.0,0.0,12.239280853163146,14.527442404976815,193.9983195939532,423.87258664752625,0.0
0.032,4.322862583041535,-1.4478385627008359,10.0,0.0,12.612395664938209,14.865181750274704,196.64296415428402,423.87258664752625,0.0
0.033,4.444533956339979,-1.3944953705879966,10.0,0.0,12.976590378609533,15.194233032374074,198.89523466119914,423.87258664752625,0.0
0.034,4.572119472286985,-1.3366993910061262,10.0,0.0,13.33144662329078,15.51398096460945,200.76980309146515,423.87258664752625,0.0
0.035,4.7055873809020285,-1.2748855203306577,10.0,0.0,13.676570470748956,15.82383411330123,202.2875240710021,423.87258664752625,0.0
0.036000000000000004,4.8448409341259,-1.2094889055138636,10.0,0.0,14.011591759407406,16.123231120101174,203.48527061354858,423.87258664752625,0.0
0.037,4.989729930165735,-1.1409183555519617,10.0,0.0,14.336161825532358,16.411645301054826,204.4444734810527,423.87258664752625,0.0
0.038,5.140128676949061,-1.0694197115176607,10.0,0.0,14.649937157796025,16.688580098339834,205.54235826513693,423.87258664752625,0.0
0.039,5.296646465616655,-0.9938465626017843,10.0,0.0,14.952430376621425,16.95348597983711,204.58380640158003,423.87258664752625,0.0
0.04,5.445844367480542,-0.937069679457017,10.0,0.0,15.245675136057251,17.207304003748852,213.4918494096208,423.87258664752625,0.0
0.041,5.539762618962168,-0.9734103192649428,10.0,0.0,15.53954246115098,17.456225672568657,221.24304627256117,423.87258664752625,0.0
0.042,5.589919719811567,-1.0737925191923372,10.0,0.0,15.839593856211255,17.705063808437238,225.44156348162676,423.87258664752625,0.0
0.043000000000000003,5.648344401242074,-1.1501397358445815,10.0,0.0,16.141918297184837,17.953098126276128,236.79851205860663,423.87258664752625,0.0
0.044,5.679143432012344,-1.2644919503052914,10.0,0.0,16.4506289972691,18.203757809858054,241.78191280810543,423.87258664752625,0.0
0.045,5.708279747531472,-1.3721699686215216,10.0,0.0,16.76423565557331,18.45732559069082,252.8787270658795,423.87258664752625,0.0
0.046,5.7308335763834375,-1.4806179493405622,10.0,0.0,17.082690923826306,18.714707701252213,263.08478175216703,423.87258664752625,0.0
0.047,5.738614000361712,-1.6035507065328978,10.0,0.0,17.407476999794106,18.977566819233665,272.1096621750453,423.87258664752625,0.0
0.048,5.735708252211841,-1.733082415635181,10.0,0.0,17.739089540392612,19.247016069550032,278.6441838738786,423.87258664752625,0.0
0.049,5.728537975999037,-1.8562126896258646,10.0,0.0,18.07673476501084,19.523441321796504,289.9349738012187,423.87258664752625,0.0
0.05,5.710507705986622,-1.9831248979518845,10.0,0.0,18.420987032567854,19.8079001982194,300.4499186272277,423.87258664752625,0.0
0.051000000000000004,5.680501222074508,-2.1146399640033193,10.0,0.0,18.77245749619385,20.101458824285913,310.3698307198764,423.87258664752625,0.0
0.052000000000000005,5.641631641384388,-2.244230039784875,10.0,0.0,19.13107653373936,20.404784223145175,319.7977520827479,423.87258664752625,0.0
0.053,5.596400487398224,-2.366598281551309,10.0,0.0,19.496330813252737,20.718225717004625,329.3773962257146,423.87258664752625,0.0
0.054,5.542334030728048,-2.4860360010669353,10.0,0.0,19.868318280929785,21.04234348812334,338.2391837208601,423.87258664752625,0.0
0.055,5.490248037622834,-2.5843315514991767,10.0,0.0,20.24513691230337,21.376437023572745,346.5414234187637,423.87258664752625,0.0
0.056,5.441598403047419,-2.660604854315422,10.0,0.0,20.625090141890016,21.71963366848682,353.8575082198432,423.87258664752625,0.0
0.057,5.400445345661533,-2.711202421601489,10.0,0.0,21.006170712382712,22.07054631183485,360.44564563702824,423.87258664752625,0.0
0.058,5.370978441840227,-2.733675036827416,10.0,0.0,21.386200502162925,22.42730557674383,366.01678276828846,423.87258664752625,0.0
0.059000000000000004,5.358646214762161,-2.72472017438201,10.0,0.0,21.762693478434763,22.787453770080305,370.34913250584214,423.87258664752625,0.0
0.06,5.368620098848418,-2.6825440265190785,10.0,0.0,22.13300214877259,23.14801599219004,373.15166817314,423.87258664752625,0.0
0.061,5.406051375737097,-2.6059900515296697,10.0,0.0,22.494336998517404,23.505535157505705,374.574400953959,423.87258664752625,0.0
0.062,5.4745846888297205,-2.496444487964801,10.0,0.0,22.844005807577073,23.85627153959297,374.8588972334982,423.87258664752625,0.0
0.063,5.576568899854599,-2.356814967859395,10.0,0.0,23.179517582363538,24.19636823429567,374.631054536078,423.87258664752625,0.0
0.064,5.709226928979788,-2.1972868160919523,10.0,0.0,23.499336047648278,24.522433895913224,372.7555443532149,423.87258664752625,0.0
0.065,5.866168166471848,-2.032599379191565,10.0,0.0,23.80325889602492,24.83193788206463,366.7151397741535,423.87258664752625,0.0
0.066,6.051984084129187,-1.8578012684523013,10.0,0.0,24.090158940366734,25.122013415871162,357.3104695634392,423.87258664752625,0.0
0.067,6.284054795011215,-1.644161488216382,10.0,0.0,24.355624138936456,25.38810178171078,356.2702105884074,423.87258664752625,0.0
0.068,6.540961757516759,-1.4244801632399593,10.0,0.0,24.59912310628812,25.628188772056617,349.72344329133983,423.87258664752625,0.0
0.069,6.787275223595166,-1.2558008229429733,10.0,0.0,24.825922961756287,25.844091548459467,339.27471434610584,423.87258664752625,0.0
0.07,7.086808437165077,-1.0305773106079426,10.0,0.0,25.028545316364053,26.030598513936937,336.98981186070296,423.87258664752625,0.0
0.07100000000000001,7.370848914259352,-0.8558146033571262,10.0,0.0,25.21258446938455,26.19046789798277,338.1848026067976,423.87258664752625,0.0
0.07200000000000001,7.600770775262649,-0.7918558236651816,10.0,0.0,25.38891880681397,26.330303258986657,352.26800216217987,423.87258664752625,0.0
0.073,7.630971629726726,-1.0245956097530695,10.0,0.0,25.587844210867427,26.472765642252078,361.2545427535713,423.87258664752625,0.0
0.074,7.636808286254434,-1.253228487626297,10.0,0.0,25.803945531547253,26.620534303922884,379.04771829508286,423.87258664752625,0.0
0.075,7.601876008312703,-1.5046004131002177,10.0,0.0,26.038578169349577,26.77903714863347,390.63584185652644,423.87258664752625,0.0
0.076,7.5177335403636025,-1.7958136046011202,10.0,0.0,26.29511755965309,26.95405932134821,401.8189652841693,423.87258664752625,0.0
0.077,7.426540200573111,-2.0523101893267635,10.0,0.0,26.568807720602535,27.146423058519296,416.8350008556483,423.87258664752625,0.0
0.078,7.313110965849568,-2.296849461074109,10.0,0.0,26.858699593219097,27.3584847204899,434.0193589354085,423.87258664752625,0.0
0.079,7.168856103139011,-2.544583697534154,1.5706298127305462,0.0,27.165613818064198,26.66583242547639,443.0523107995376,423.87258664752625,0.0
0.08,6.589136923996861,-2.5755979702937597,-3.137643360854134,0.0,27.37350561856239,25.701846996305644,446.1565654313844,423.87258664752625,0.0
0.081,5.832083247813875,-2.4486105918685928,-4.912610464616115,0.0,27.44993094173932,24.78436435301252,446.0128381443546,423.87258664752625,0.0
0.082,5.103624639696309,-2.2658009120532654,-5.062149336069481,0.0,27.40812627727381,24.040132811675257,443.6004148394755,423.87258664752625,0.0
0.083,4.5038084058374945,-2.086578522863065,-4.053215965549425,0.0,27.278192559108362,23.53731721714021,439.71874697103834,423.87258664752625,0.0
0.084,4.0846683844236855,-1.9339054883895594,-2.2708436345659724,0.0,27.09596884340577,23.29786867296204,434.3857275195313,423.87258664752625,0.0
0.085,3.862947938467854,-1.8139525099769622,0.2905346824674915,0.0,26.896354547574965,23.348268352036268,428.9575656705709,423.87258664752625,0.0
0.08600000000000001,3.8438000424424876,-1.738566555392454,2.95376581671726,0.0,26.7146487240145,23.64089733932037,423.35494502479565,423.87258664752625,0.0
0.08700000000000001,3.9990235783302257,-1.6994783593000231,5.7602525558321815,0.0,26.576830539514166,24.15090800757225,416.9266410592541,423.87258664752625,0.0
0.088,4.30862074723076,-1.6841949527357605,9.043863994485676,0.0,26.502504947527907,24.89676472818946,410.2787863954925,423.87258664752625,0.0
0.089,4.775102713962513,-1.6885212230215068,10.0,0.0,26.510826310599068,25.58472501911488,405.5681901173572,423.87258664752625,0.0
0.09,5.269028312457725,-1.6422782251017691,10.0,0.0,26.581981573981636,26.14549306103257,403.39547574315355,423.87258664752625,0.0
0.091,5.7191541588408334,-1.5514369414906872,10.0,0.0,26.692568003999682,26.612725237979557,397.29086427584895,423.87258664752625,0.0
0.092,6.120158027138339,-1.4503690453536962,10.0,0.0,26.828609952971675,27.00468367318477,383.9467057822079,423.87258664752625,0.0
0.093,6.526134051865564,-1.2832518232292935,10.0,0.0,26.972871335094673,27.330403135729632,378.4904380068876,423.87258664752625,0.0
0.094,6.93546383619735,-1.074116485666452,10.0,0.0,27.11394481034918,27.59701027420308,369.6672116545154,423.87258664752625,0.0
0.095,7.301680934672177,-0.9170305634374083,10.0,0.0,27.252383553856024,27.81487346336572,358.64888894569657,423.87258664752625,0.0
0.096,7.70156309209547,-0.6965393755380922,10.0,0.0,27.37608157048181,27.98446934163097,369.5484756734047,423.87258664752625,0.0
0.097,7.9147322052383124,-0.775601255321896,10.0,0.0,27.51527109192676,28.130025652860795,380.3101718838399,423.87258664752625,0.0
0.098,7.985746428893984,-1.0125835477568224,10.0,0.0,27.680374725720192,28.26926541164144,398.4079126478128,423.87258664752625,0.0
0.099,7.96434709248624,-1.332907030461879,10.0,0.0,27.875757732185555,28.41415562716477,408.62450342515416,423.87258664752625,0.0
0.1,7.910007411396639,-1.641367102489212,10.0,0.0,28.09681883265267,28.569858493338078,423.38455436175946,423.87258664752625,0.0
0.101,7.82249547272609,-1.9388840521597634,6.696757027595026,0.0,28.340986373433893,28.377823372419087,441.7454594434323,423.87258664752625,0.0
0.10200000000000001,7.524453895685328,-2.172764972070837,-2.662424241200462,0.0,28.564285379738614,27.26484046191444,447.1712851278954,423.87258664752625,0.0
0.10300000000000001,6.757757449121018,-2.164242120626191,-5.608324068235685,0.0,28.65067987150436,26.136384768156468,450.9604007368648,423.87258664752625,0.0
0.10400000000000001,5.915627897499959,-2.070355224262356,-7.773760013613791,0.0,28.605347014632166,25.005642423442318,451.88158406193327,423.87258664752625,0.0
0.105,5.091608009622488,-1.9327259471626537,-8.514441650292088,0.0,28.437272857458446,24.005841299081837,449.8378614790084,423.87258664752625,0.0
0.106,4.372213553344783,-1.7855400348505504,-7.752233107144467,0.0,28.171211845982725,23.251355818864827,445.5542982875387,423.87258664752625,0.0
0.107,3.8286540712153347,-1.6569673352776517,-5.82726862780975,0.0,27.84363724980297,22.80243439128875,440.32319698191947,423.87258664752625,0.0
0.108,3.4936164109798518,-1.5726405183047778,-3.376224078344065,0.0,27.4959377476123,22.647431450304786,434.928209691085,423.87258664752625,0.0
0.109,3.3633635045108883,-1.5302624934516837,-0.7892866633624136,0.0,27.163689586978183,22.744188966462715,428.80248129777345,423.87258664752625,0.0
0.11,3.413231825601181,-1.5153272557217166,2.2242785867908816,0.0,26.87312289812151,23.096880673923856,423.3011079172351,423.87258664752625,0.0
0.111,3.629618401987283,-1.533187221172354,4.980680064362985,0.0,26.64899599747349,23.63501121159306,417.21903250878074,423.87258664752625,0.0
0.112,3.97622983599605,-1.5642821621360086,8.088253309977604,0.0,26.504336684508676,24.37522165569532,410.5660170406692,423.87258664752625,0.0
0.113,4.452944343827839,-1.6039100757952565,10.0,0.0,26.45221246834346,25.157189046015773,405.04331963736365,423.87258664752625,0.0
0.114,4.994077805362498,-1.6049542991712642,10.0,0.0,26.483215998261578,25.781872273096948,402.41882509367315,423.87258664752625,0.0
0.115,5.485738522612745,-1.5436549098988777,10.0,0.0,26.56683412284228,26.298516186179626,399.26647218406947,423.87258664752625,0.0
0.116,5.917348031409835,-1.4602820533806855,10.0,0.0,26.68519680594889,26.729297081616938,386.76685051754066,423.87258664752625,0.0
0.117,6.327250428910815,-1.3316963269049138,10.0,0.0,26.82149060894144,27.088062987184053,377.69562068789287,423.87258664752625,0.0
0.11800000000000001,6.748787751064172,-1.1323756495977046,10.0,0.0,26.95939220495239,27.382311601031823,373.8146123050231,423.87258664752625,0.0
0.11900000000000001,7.128738807678562,-0.9703534431930616,10.0,0.0,27.097099266815597,27.623346270089883,359.4674856001306,423.87258664752625,0.0
0.12,7.520485046357674,-0.7738316416771016,10.0,0.0,27.22514191329558,27.814755602739897,365.4681677339336,423.87258664752625,0.0
0.121,7.838303150000951,-0.6928557907000736,10.0,0.0,27.35257910280024,27.968785737758935,372.857386428,423.87258664752625,0.0
0.122,7.943826846322996,-0.907126952540799,10.0,0.0,27.507055173168595,28.11172715266754,392.0598893176222,423.87258664752625,0.0
0.123,7.954815059724046,-1.2024588886060763,10.0,0.0,27.690721579339748,28.255668566611238,401.9280953406968,423.87258664752625,0.0
0.124,7.910085567032906,-1.5224195932282099,10.0,0.0,27.902657844435943,28.408612606107706,415.4218025717628,423.87258664752625,0.0
0.125,7.841372005763286,-1.8154142672516587,10.0,0.0,28.137724694068527,28.574567064976897,434.0428887491951,423.87258664752625,0.0
0.126,7.733685590886527,-2.108064383281005,0.7045689501408638,0.0,28.39514187064776,27.736093717461674,444.6423911484368,423.87258664752625,0.0
0.127,7.116661355656716,-2.200115297083032,-4.8028802944891,0.0,28.550169094175466,26.561140117671695,449.02611897583165,423.87258664752625,0.0
0.128,6.269805748350513,-2.126009573649431,-7.246279531469586,0.0,28.5631260966557,25.39246905104332,450.97831762677254,423.87258664752625,0.0
0.129,5.410817599727376,-1.9943418145784033,-8.493436166732492,0.0,28.444177895961587,24.315227694092172,449.7845823084094,423.87258664752625,0.0
0.13,4.633186676910849,-1.8404189637059445,-8.155688464159768,0.0,28.213785543636515,23.46038898642594,446.2525031189951,423.87258664752625,0.0
0.131,4.015695048186275,-1.7012912233655604,-6.613448034167291,0.0,27.907183732848612,22.89441165449881,441.37318139362606,423.87258664752625,0.0
0.132,3.599455112542477,-1.6003524856181977,-4.34879311894377,0.0,27.56493238619798,22.627672987693845,435.96790976113294,423.87258664752625,0.0
0.133,3.3912238807214123,-1.5425943715388344,-1.7671105338332804,0.0,27.224888302360657,22.633464624258103,430.1623424920261,423.87258664752625,0.0
0.134,3.3742719512081085,-1.5197360306178684,1.072775542275151,0.0,26.917490954202975,22.89102573123128,424.6315157339152,423.87258664752625,0.0
0.135,3.5278604578034236,-1.5273859623741646,3.8305996304667067,0.0,26.667659527460792,23.349988526610744,419.01563976442276,423.87258664752625,0.0
0.136,3.8194663062868655,-1.5542487385364432,6.6871070840439595,0.0,26.49158592899104,23.994168720522385,412.5491358080192,423.87258664752625,0.0
0.137,4.236104496208968,-1.5876883511121251,10.0,0.0,26.400947439381156,24.849262539008706,406.52119723647183,423.87258664752625,0.0
0.138,4.7886183887200025,-1.6237208334169346,10.0,0.0,26.40851135750865,25.520044051248835,402.93804484890336,423.87258664752625,0.0
0.139,5.298489045099442,-1.5845242906193902,10.0,0.0,26.477725090516643,26.07394317080108,400.80341914067753,423.87258664752625,0.0
0.14,5.749400079135441,-1.5052555207979765,10.0,0.0,26.587079762926663,26.53487224451874,391.83586721492037,423.87258664752625,0.0
0.14100000000000001,6.155269808708984,-1.4045177636192643,10.0,0.0,26.72130340987601,26.920507318192897,379.55691742219454,423.87258664752625,0.0
0.14200000000000002,6.572950922561257,-1.2240608828131212,10.0,0.0,26.86182532018095,27.239115023966555,376.68431851049246,423.87258664752625,0.0
0.14300000000000002,6.973103600680468,-1.0342290866314896,10.0,0.0,27.00107888126084,27.500074166738752,364.0226910447823,423.87258664752625,0.0
0.14400000000000002,7.344839526284792,-0.871754657486601,10.0,0.0,27.13652913126584,27.711973326306442,356.54751346688766,423.87258664752625,0.0
0.145,7.743691667764193,-0.6545302871948392,10.0,0.0,27.257354335786474,27.876071218611166,367.4497000711789,423.87258664752625,0.0
