timestamp,iq,id,iq_ref,id_ref,vq,vd,omega,omega_ref,r
0.0,0.0,0.0,0.0,0.0,0.0,0.0,0.0,447.8974450580752,0.0
0.001,0.0,0.0,10.0,0.0,0.0,1.0999999999999999,9.843535242104203,447.8974450580752,0.0
0.002,0.47014052879197615,-0.26966993587210464,10.0,0.0,0.1396636929459315,1.9382845418328822,18.203000948406068,447.8974450580752,0.0
0.003,0.9644144978772438,-0.5493604902835482,10.0,0.0,0.37725873240709584,2.6570382674656106,27.131946944220147,447.8974450580752,0.0
0.004,1.3904771374831972,-0.7911775388061375,10.0,0.0,0.6867726102787869,3.2857519738153793,36.36486887614485,447.8974450580752,0.0
0.005,1.7356310725066413,-0.9859386631261584,10.0,0.0,1.047212024188262,3.8488393908608205,45.759113472485524,447.8974450580752,0.0
0.006,2.010144358475669,-1.1404033890346372,10.0,0.0,1.4429597470180657,4.364917085486308,55.27606747766115,447.8974450580752,0.0
0.007,2.229584111769122,-1.2634572217484794,10.0,0.0,1.8627317413668774,4.847568542929637,64.86364526321064,447.8974450580752,0.0
0.008,2.4081394526175126,-1.3630255804954319,10.0,0.0,2.298513663160166,5.306485364103125,74.44377775737644,447.8974450580752,0.0
0.009000000000000001,2.557106579897778,-1.445157981712418,10.0,0.0,2.7446479554378733,5.74848786474625,84.04990863750866,447.8974450580752,0.0
0.01,2.6844334274947066,-1.5150652865721042,10.0,0.0,3.1972375480745185,6.178387262589973,93.59194837701511,447.8974450580752,0.0
0.011,2.7965555358422587,-1.5752507600253194,10.0,0.0,3.6534794502631285,6.599495516470723,103.07755999070856,447.8974450580752,0.0
0.012,2.8976035239158193,-1.6281974719723475,10.0,0.0,4.111430271200593,7.014123077577646,112.39466492038525,447.8974450580752,0.0
0.013000000000000001,2.9910969740887223,-1.6745954426700929,10.0,0.0,4.5696230758122836,7.42380916502934,121.60545854593671,447.8974450580752,0.0
0.014,3.0788944161033176,-1.7159673712962493,10.0,0.0,5.027052141149874,7.829623140077158,130.65458490252547,447.8974450580752,0.0
0.015,3.163153182529567,-1.7519743697169756,10.0,0.0,5.482866747998509,8.23220813426721,139.51423909617375,447.8974450580752,0.0
0.016,3.245093164494827,-1.7829375003431187,10.0,0.0,5.936404267965951,8.631945279371203,148.43529670440353,447.8974450580752,0.0
0.017,3.3254392248628886,-1.8094226530430828,10.0,0.0,6.387165485937785,9.02904379514071,156.78551198557406,447.8974450580752,0.0
0.018000000000000002,3.406507370043539,-1.8289540033151166,10.0,0.0,6.834444030692309,9.423394545764255,164.63890390737512,447.8974450580752,0.0
0.019,3.4884664503919676,-1.84241441635948,10.0,0.0,7.277715127965895,9.814833258414378,172.2159608975926,447.8974450580752,0.0
0.02,3.572219223283426,-1.8493879784249716,10.0,0.0,7.716435474473895,10.203061995312273,179.41688280419615,447.8974450580752,0.0
0.021,3.6588194390415634,-1.8491590891411045,10.0,0.0,8.150011746579006,10.5876513971667,186.16653757119374,447.8974450580752,0.0
0.022,3.7491409658049815,-1.8413118118253848,10.0,0.0,8.577828420047156,10.968070120259796,192.41873538605606,447.8974450580752,0.0
0.023,3.8440387276589147,-1.8254923282567659,10.0,0.0,8.999243628058414,11.3436930998541,198.13197150518664,447.8974450580752,0.0
0.024,3.944326122800388,-1.8014465263460826,10.0,0.0,9.41359276985348,11.713812666443076,203.27247670544915,447.8974450580752,0.0
0.025,4.050748273386207,-1.7690520259940703,10.0,0.0,9.820196017108326,12.077651627939638,207.81386615612465,447.8974450580752,0.0
0.026000000000000002,4.163969383380463,-1.7283166422788987,10.0,0.0,10.218365888582198,12.434376917418515,211.73904841357515,447.8974450580752,0.0
0.027,4.284549279730282,-1.6793868058763388,10.0,0.0,10.607416373689436,12.783115087598357,215.04144400897476,447.8974450580752,0.0
0.028,4.412922265336621,-1.622548346957472,10.0,0.0,10.986672695186886,13.122969259817742,217.74696653531296,447.8974450580752,0.0
0.029,4.549419719609453,-1.5581541750459642,10.0,0.0,11.355473827435453,13.453032656850983,219.76496163154638,447.8974450580752,0.0
0.03,4.69408939144965,-1.4868904877441742,10.0,0.0,11.713206122278407,13.772421138046065,221.91173642348818,447.8974450580752,0.0
0.031,4.847421501130725,-1.4085406120484125,10.0,0.0,12.059198186303055,14.080224165259413,224.32328495276425,447.8974450580752,0.0
0.032,5.008426835111042,-1.3251353657875014,10.0,0.0,12.392980268314833,14.375668830512872,226.63689054297245,447.8974450580752,0.0
0.033,5.176212630355982,-1.238437689708703,10.0,0.0,12.714225916744716,14.65810085330502,228.68329191744334,447.8974450580752,0.0
0.034,5.3505808287292345,-1.1488621779603283,10.0,0.0,13.0226038730793,14.926911594792331,230.57229859813896,447.8974450580752,0.0
0.035,5.529471778525035,-1.0597649082346545,10.0,0.0,13.318120163376808,15.181744735270563,237.58832425113079,447.8974450580752,0.0
0.036000000000000004,5.668464895576504,-1.0453435613039512,10.0,0.0,13.608872763227273,15.427145857353029,246.91791792272736,447.8974450580752,0.0
0.037,5.75020016952017,-1.1207244401658594,10.0,0.0,13.903526325445055,15.669481178248995,256.0823171751298,447.8974450580752,0.0
0.038,5.8098982198017115,-1.2230381732015778,10.0,0.0,14.203448765375963,15.911298890485615,265.5848160205777,447.8974450580752,0.0
0.039,5.85301715632556,-1.341494376939238,10.0,0.0,14.509567777618228,16.154780972976855,274.96013115862075,447.8974450580752,0.0
0.04,5.882346013427984,-1.4705451252553394,10.0,0.0,14.822434117162791,16.401731763527177,284.1637202788789,447.8974450580752,0.0
0.041,5.897158736383603,-1.6107246393075858,10.0,0.0,15.142838140870511,16.653937998022815,296.3444699908558,447.8974450580752,0.0
0.042,5.897244873615296,-1.7614631855782448,10.0,0.0,15.471601830606264,16.913102663573735,309.70534316001056,447.8974450580752,0.0
0.043000000000000003,5.884278449036952,-1.9183126565496331,10.0,0.0,15.80915167426769,17.18065439961908,324.4195402577308,447.8974450580752,0.0
0.044,5.859874841416008,-2.076467799044961,10.0,0.0,16.15553027813228,17.457760679018552,339.4657426637689,447.8974450580752,0.0
0.045,5.825387244993089,-2.2314181565566376,10.0,0.0,16.51044463745169,17.745343790394845,353.8644567087648,447.8974450580752,0.0
0.046,5.779769199834243,-2.3831671209448104,10.0,0.0,16.873768754484367,18.044333135568692,366.48980667369125,447.8974450580752,0.0
0.047,5.724830443792636,-2.527346031786996,10.0,0.0,17.245001584879923,18.35534304064141,378.58735246064936,447.8974450580752,0.0
0.048,5.6606779669105345,-2.6634830824340945,10.0,0.0,17.62374540920595,18.67888262314303,390.2508792446936,447.8974450580752,0.0
0.049,5.593626963737392,-2.781553238508123,10.0,0.0,18.008595156011207,19.01467671540732,401.91815772300373,447.8974450580752,0.0
0.05,5.533101407459281,-2.8678145991027857,10.0,0.0,18.396847385467048,19.361363674284558,411.2184704977719,447.8974450580752,0.0
0.051000000000000004,5.486107171391018,-2.9149527475828396,10.0,0.0,18.78526567059188,19.71677127062438,419.816484376172,447.8974450580752,0.0
0.052000000000000005,5.446908887842427,-2.940181674005703,10.0,0.0,19.17268668725993,20.079321804672375,425.54541261542073,447.8974450580752,0.0
0.053,5.456861754686214,-2.8835630374449455,10.0,0.0,19.551140316380064,20.442872588794074,419.6059260912296,447.8974450580752,0.0
0.054,5.480092352747395,-2.814488275662827,10.0,0.0,19.921071623569922,20.80545782029732,427.44636526004166,447.8974450580752,0.0
0.055,5.544080115539226,-2.7009490519369503,10.0,0.0,20.278469756199094,21.161971311442734,428.954166673641,447.8974450580752,0.0
0.056,5.667951265893278,-2.52048652165867,10.0,0.0,20.617063938586547,21.505587317825515,423.2687068978733,447.8974450580752,0.0
0.057,5.83359633220704,-2.310363903648557,10.0,0.0,20.9348514406952,21.83171889601777,408.15267152182963,447.8974450580752,0.0
0.058,6.036338591399559,-2.0854058247454597,10.0,0.0,21.230829187912963,22.13637086875363,405.1012861390593,447.8974450580752,0.0
0.059000000000000004,6.270227957681532,-1.8593394359881366,10.0,0.0,21.505056635708282,22.416455011238593,396.42699552365303,447.8974450580752,0.0
0.06,6.543092549735732,-1.6192082258699174,10.0,0.0,21.755715983747116,22.66827727279145,388.9474530167497,447.8974450580752,0.0
0.061,6.851222432522307,-1.367422645410621,10.0,0.0,21.981196521388025,22.88881760180692,380.30966715939286,447.8974450580752,0.0
0.062,7.184979673391569,-1.1143424347340602,10.0,0.0,22.180862070796547,23.07621995401718,377.8437248136213,447.8974450580752,0.0
0.063,7.530670431867993,-0.8769237774908113,10.0,0.0,22.355716050295264,23.230160214923554,396.0145856548131,447.8974450580752,0.0
0.064,7.711161281319757,-0.9361742722042699,10.0,0.0,22.53737039892566,23.36979476183424,408.9200566442958,447.8974450580752,0.0
0.065,7.758808972285818,-1.1762667685375625,10.0,0.0,22.740640437033598,23.51019495140513,424.8730095828155,447.8974450580752,0.0
0.066,7.7462075035872875,-1.4656217390398663,10.0,0.0,22.96705161207976,23.658744764296234,444.1134063602819,447.8974450580752,0.0
0.067,7.685435384892901,-1.7772398536562182,8.147863702143114,0.0,23.217061093813193,23.61790463900799,462.5925805075538,447.8974450580752,0.0
0.068,7.499486453401429,-2.0451046544720226,-1.2386747259876305,0.0,23.464334561788036,22.61199827158321,468.53640023856093,447.8974450580752,0.0
0.069,6.832903179740292,-2.077777162217183,-4.41697414329605,0.0,23.58720537406672,21.547127006863583,470.2711290660691,447.8974450580752,0.0
0.07,5.984042971965007,-2.0151744554094004,-5.508075397130064,0.0,23.584088955819265,20.599500596213797,470.6347123890646,447.8974450580752,0.0
0.07100000000000001,5.150186307454774,-1.9261211408506496,-5.917239731937713,0.0,23.477351700798195,19.795463751532125,469.291541973916,447.8974450580752,0.0
0.07200000000000001,4.417131495104451,-1.8279552836590738,-5.459595493521839,0.0,23.290976775665584,19.187886838103765,466.4952275982138,447.8974450580752,0.0
0.073,3.835660010849163,-1.7380039829198706,-4.247416131072098,0.0,23.053568667194,18.807824726134875,462.44920257676637,447.8974450580752,0.0
0.074,3.43689743090321,-1.6632234503370613,-2.369921195535307,0.0,22.794568812795966,18.67447983275176,457.0792821669484,447.8974450580752,0.0
0.075,3.2371738375091894,-1.6077194127829981,0.22322063828493643,0.0,22.542776815694303,18.813022065105898,450.7115706529845,447.8974450580752,0.0
0.076,3.241647059818911,-1.5892809184609658,3.3789351393177984,0.0,22.32854504753834,19.231238760901864,446.38808107573374,447.8974450580752,0.0
0.077,3.4433897594467027,-1.625705928264604,5.555773567766598,0.0,22.18174926179919,19.771958727685703,449.7104941691115,447.8974450580752,0.0
0.078,3.7897546159917592,-1.651275461316762,3.8764365299673615,0.0,22.106153449850037,20.001348953551172,438.393464663945,447.8974450580752,0.0
0.079,4.075945235397844,-1.5580196247714753,9.629991086491907,0.0,22.050542404331846,20.821907627661645,425.3207617323414,447.8974450580752,0.0
0.08,4.583474735936871,-1.5795660281834916,10.0,0.0,22.08585099351729,21.485048425864665,423.912903187404,447.8974450580752,0.0
0.081,5.1207361201611645,-1.5654755549268948,10.0,0.0,22.18217738751216,22.02768245677158,419.5463561596579,447.8974450580752,0.0
0.082,5.638870456016606,-1.4821676335815632,10.0,0.0,22.314111578582807,22.474063560885423,411.83441145021675,447.8974450580752,0.0
0.083,6.125481079604941,-1.347751919843493,10.0,0.0,22.46353781166003,22.840654148458782,401.5000168876928,447.8974450580752,0.0
0.084,6.586912441132117,-1.1772362564522592,10.0,0.0,22.617267914351213,23.13963695705042,389.58217728645496,447.8974450580752,0.0
0.085,7.032033191595186,-0.9820755764698195,10.0,0.0,22.765760769468297,23.37974552611635,379.17382595853064,447.8974450580752,0.0
0.08600000000000001,7.468941858302203,-0.7681601459851612,10.0,0.0,22.901836105426767,23.56708377795425,404.09940457813724,447.8974450580752,0.0
0.08700000000000001,7.704359663366794,-0.8598551651766613,10.0,0.0,23.0552633393891,23.72776886631418,419.4379072067878,447.8974450580752,0.0
0.088,7.7812987319193105,-1.136510943305323,10.0,0.0,23.238931544193427,23.88161904974421,436.4723717849172,447.8974450580752,0.0
0.089,7.7853761282392275,-1.456143172193826,10.0,0.0,23.45201093425677,24.038771912402012,455.40325916415276,447.8974450580752,0.0
0.09,7.734209409249859,-1.7887943403343995,1.9194734530120368,0.0,23.692892977786148,23.31832862068372,466.8055511040723,447.8974450580752,0.0
0.091,7.2571227492308354,-1.9234134368806464,-3.9707535774077174,0.0,23.84912407672943,22.1788660200261,470.4546700114785,447.8974450580752,0.0
0.092,6.446604806292905,-1.8990815889324193,-6.020885280644853,0.0,23.87176311147286,21.086746679399663,470.92486373929466,447.8974450580752,0.0
0.093,5.559717995306783,-1.822531210909388,-6.486256331365117,0.0,23.774749085576246,20.164866047542446,470.3114138763078,447.8974450580752,0.0
0.094,4.748803474082114,-1.7427670894327312,-6.403671088054022,0.0,23.587239849501373,19.41954189277758,468.1135414419671,447.8974450580752,0.0
0.095,4.072290976548092,-1.6668803401623957,-5.506895834722565,0.0,23.336399220352533,18.894125884831546,464.8825575168117,447.8974450580752,0.0
0.096,3.5654187515755758,-1.6075727915205562,-4.061254996732236,0.0,23.052336090466063,18.595210974182482,460.5407704952309,447.8974450580752,0.0
0.097,3.2431491769821164,-1.5639256243681168,-2.016794740313401,0.0,22.762579669602992,18.53859639239142,455.1807967079874,447.8974450580752,0.0
0.098,3.1137875363456327,-1.53861352732437,0.5903586368092366,0.0,22.49378957364384,18.73601698033652,448.8004696572668,447.8974450580752,0.0
0.099,3.1754712131058023,-1.544333390021171,3.7714919161776255,0.0,22.272502851942193,19.202590806000522,445.460607160336,447.8974450580752,0.0
0.1,3.4209993549043505,-1.6021119639762325,5.465791543620407,0.0,22.126300629485197,19.72854894432274,448.8635407527488,447.8974450580752,0.0
0.101,3.7844823630086264,-1.622437774471528,3.7546637904672675,0.0,22.04897249652106,19.944596147972277,435.44474316990227,447.8974450580752,0.0
0.10200000000000001,4.0711940704507885,-1.5288402514578967,10.0,0.0,21.99048291158183,20.80750062080298,424.84216532412097,447.8974450580752,0.0
0.10300000000000001,4.598461541768765,-1.5623010284094911,10.0,0.0,22.02874939311441,21.4606800209908,422.32213587866477,447.8974450580752,0.0
0.10400000000000001,5.141099923348658,-1.5483925355140644,10.0,0.0,22.126642624524507,21.9979505820525,417.5832861058038,447.8974450580752,0.0
0.105,5.659744329356379,-1.4652928183209344,10.0,0.0,22.259471704937468,22.439658909303986,409.70398023787527,447.8974450580752,0.0
0.106,6.1463583092230465,-1.329779369001335,10.0,0.0,22.409113227781056,22.80213821814636,399.24199575817005,447.8974450580752,0.0
0.107,6.606093131046787,-1.1605360481276312,10.0,0.0,22.56277689842161,23.097629057786914,387.561198121295,447.8974450580752,0.0
0.108,7.050596930933453,-0.9649525758126929,10.0,0.0,22.710801537216263,23.334639110758168,377.6579247905167,447.8974450580752,0.0
0.109,7.486186386489413,-0.7516472052978198,10.0,0.0,22.846216961395083,23.519280820199484,395.5857962495213,447.8974450580752,0.0
0.11,7.695774497543761,-0.8811090921156999,10.0,0.0,23.002928875355266,23.680301103454124,412.3002738776123,447.8974450580752,0.0
0.111,7.776420626036656,-1.1455106678823062,10.0,0.0,23.18786118071105,23.834115356755643,430.36638461170304,447.8974450580752,0.0
0.112,7.7796102370746,-1.4594846976348266,10.0,0.0,23.401574808376516,23.991497019333345,448.3309977904933,447.8974450580752,0.0
0.113,7.724461257730857,-1.7926615472126421,5.088902434721489,0.0,23.643164952689244,23.620389430077374,464.83280656691704,447.8974450580752,0.0
0.114,7.388893131602696,-2.012527656638807,-3.3313555685787932,0.0,23.844338827186203,22.469795213548696,472.42858462737246,447.8974450580752,0.0
0.115,6.609130987784231,-2.0127569451919043,-7.374555994499474,0.0,23.908162453227167,21.17624649386305,472.93172594323914,447.8974450580752,0.0
0.116,5.636866148885618,-1.8898538615420455,-7.876469461284455,0.0,23.822727212608463,20.102808042503593,471.00005040037695,447.8974450580752,0.0
0.117,4.727643052468222,-1.7545602111657332,-7.141657743276376,0.0,23.624838380210782,19.30431022808387,467.99513639389176,447.8974450580752,0.0
0.11800000000000001,3.996642370610456,-1.6448553872536937,-5.840177653391944,0.0,23.35617405548434,18.77300584861375,464.3011298212885,447.8974450580752,0.0
0.11900000000000001,3.47432223755795,-1.5702176925633768,-4.157211214722448,0.0,23.054132627106718,18.490222189789993,459.59113221135294,447.8974450580752,0.0
0.12,3.160138570077535,-1.5236295134735927,-1.9191492812874476,0.0,22.749638652931502,18.464206904394313,454.1272766890844,447.8974450580752,0.0
0.121,3.052353584178866,-1.5038283781348813,0.7504801635367335,0.0,22.471280304537892,18.690336881491053,447.6637409781223,447.8974450580752,0.0
0.122,3.138353363571744,-1.5174447198990497,3.9845850598173156,0.0,22.24506659764075,19.184535444589166,444.46601765587764,447.8974450580752,0.0
0.123,3.406979646529891,-1.5843373927556383,5.617760994961619,0.0,22.09811614833972,19.725312191259363,448.5805174301614,447.8974450580752,0.0
0.124,3.7879406989101736,-1.6089872737732125,3.5536803840988647,0.0,22.021980978819187,19.914716138853834,434.37226892547454,447.8974450580752,0.0
0.125,4.071483258612308,-1.5101176157116316,10.0,0.0,21.961277559813194,20.779922067551126,423.5167529754324,447.8974450580752,0.0
0.126,4.60151603126913,-1.5415144560297975,10.0,0.0,21.99760742459314,21.43260568592386,420.5350016658108,447.8974450580752,0.0
0.127,5.1465166702814455,-1.5281541623867523,10.0,0.0,22.093789064028456,21.969004186372512,415.7073088207172,447.8974450580752,0.0
0.128,5.667348303419144,-1.446076328373668,10.0,0.0,22.225097430760105,22.409539527464823,407.7626823700141,447.8974450580752,0.0
0.129,6.155090500182362,-1.3127152414001695,10.0,0.0,22.373479553700854,22.770708845808475,397.37330597481713,447.8974450580752,0.0
0.13,6.616584208211943,-1.143736834417092,10.0,0.0,22.525886382283502,23.064712558696232,385.7498633607233,447.8974450580752,0.0
0.131,7.061560676224655,-0.9495044489254592,10.0,0.0,22.6727771209624,23.300224108752367,377.2803654874162,447.8974450580752,0.0
0.132,7.497461119925801,-0.7369483777920431,10.0,0.0,22.807091096809266,23.48337429354378,398.3490548524734,447.8974450580752,0.0
0.133,7.697764802325042,-0.8785443609841248,10.0,0.0,22.96398981241305,23.64396645681383,419.0420198247051,447.8974450580752,0.0
0.134,7.768427123624868,-1.1562415796191834,10.0,0.0,23.1503886070014,23.79841945679827,437.37220002758806,447.8974450580752,0.0
0.135,7.764463164632926,-1.4794404067465745,10.0,0.0,23.366367720927016,23.957209694945206,455.9807515209031,447.8974450580752,0.0
0.136,7.708153437055422,-1.8116167859410839,0.914421752980453,0.0,23.60993536071489,23.12845964394147,464.6452978562923,447.8974450580752,0.0
0.137,7.175284292133059,-1.9282630871639033,-3.585329942696327,0.0,23.755780560766162,22.06087696662832,468.9338030847764,447.8974450580752,0.0
0.138,6.377607936042914,-1.9113438188430851,-5.9399461372053874,0.0,23.77725539055347,20.983042520333097,469.7470940117306,447.8974450580752,0.0
0.139,5.502431345612203,-1.8351463436547348,-6.565088090219046,0.0,23.68058676314503,20.058212210146177,468.9539626932887,447.8974450580752,0.0
0.14,4.695558699620079,-1.7491141716729688,-6.379087607350227,0.0,23.49240040329262,19.322913766037637,466.5472555280674,447.8974450580752,0.0
0.14100000000000001,4.026431732151458,-1.6683285932279184,-5.362232129439503,0.0,23.241476743105466,18.817855868057833,463.2956898692618,447.8974450580752,0.0
0.14200000000000002,3.5327590775187407,-1.6074254924862406,-3.8904317481485746,0.0,22.959248173841907,18.5375536033551,458.53626782460645,447.8974450580752,0.0
0.14300000000000002,3.2257820621947513,-1.5616295269821283,-1.6171089534862038,0.0,22.6727837098364,18.52123695693556,453.44854339834325,447.8974450580752,0.0
0.14400000000000002,3.1190207479937415,-1.5431668036777921,0.8712422762427199,0.0,22.41176108768105,18.737564910489837,447.1631552382246,447.8974450580752,0.0
0.145,3.1972434647587997,-1.551659452572402,4.021279254500555,0.0,22.19959234170812,19.218106249798065,444.4252113520454,447.8974450580752,0.0
