timestamp,iq,id,iq_ref,id_ref,vq,vd,omega,omega_ref,r
0.0,0.0,0.0,0.0,0.0,0.0,0.0,0.0,283.393854512415,0.0
0.001,0.0,0.0,10.0,0.0,0.0,1.0999999999999999,13.828709361438472,283.393854512415,0.0
0.002,0.45717032457552004,-0.24935170701107479,10.0,0.0,0.13742868777121825,1.9397112642966925,25.787142990351175,283.393854512415,0.0
0.003,0.9455219101097609,-0.5150836711225241,10.0,0.0,0.3718226321771325,2.660047299777827,38.61615727097552,283.393854512415,0.0
0.004,1.3726732990080015,-0.7458137147083795,10.0,0.0,0.6775337708438984,3.289685989227974,51.81676612506004,283.393854512415,0.0
0.005,1.7219157208796496,-0.9314899541266113,10.0,0.0,1.0337547504891496,3.8527867710828856,65.27883159889367,283.393854512415,0.0
0.006,2.0014311500271167,-1.077145175486858,10.0,0.0,1.4248290223108109,4.367945299729325,78.87487440236715,283.393854512415,0.0
0.007,2.2256083737473813,-1.1909834201864453,10.0,0.0,1.8393773745183029,4.848831062375533,92.52175949769553,283.393854512415,0.0
0.008,2.408076289831241,-1.280804862954681,10.0,0.0,2.2693014440271764,5.305253385445848,106.15245176796246,283.393854512415,0.0
0.009000000000000001,2.5599387271410823,-1.3527211028529424,10.0,0.0,2.7088879108533206,5.744145694216772,119.7056770396306,283.393854512415,0.0
0.01,2.6896491682245016,-1.4111618925418892,10.0,0.0,3.154114286340744,6.170357894647142,133.12028641867352,283.393854512415,0.0
0.011,2.8035633566602423,-1.4589870837775791,10.0,0.0,3.6021156074614975,6.587238056266121,146.33137847229312,283.393854512415,0.0
0.012,2.9064222348384128,-1.4979115723363963,10.0,0.0,4.050808254461188,6.997054999120036,159.26807132688631,283.393854512415,0.0
0.013000000000000001,3.0014905833033065,-1.5293585650122756,10.0,0.0,4.4986832553550595,7.401330582839172,171.86584315432023,283.393854512415,0.0
0.014,3.091499537052609,-1.5537296113899735,10.0,0.0,4.944564659706244,7.801015806848006,184.0437481563685,283.393854512415,0.0
0.015,3.1786516720385647,-1.5710256324761869,10.0,0.0,5.387485297878902,8.196634003580115,195.7204761752713,283.393854512415,0.0
0.016,3.26482193151943,-1.5809751468620847,10.0,0.0,5.826597178279091,8.588375237263243,206.8140043432036,283.393854512415,0.0
0.017,3.351683599631957,-1.5831506014360173,10.0,0.0,6.261111798866848,8.976160454720505,217.2440696429935,283.393854512415,0.0
0.018000000000000002,3.440779622588604,-1.5770720290376221,10.0,0.0,6.690263081631992,9.359686666646713,226.93540108442932,283.393854512415,0.0
0.019,3.533555291164275,-1.5622949638170738,10.0,0.0,7.113287165862964,9.738461022343056,235.821089286748,283.393854512415,0.0
0.02,3.6313616364158436,-1.5384841399565468,10.0,0.0,7.529414857268022,10.111829409600947,243.84607799420942,283.393854512415,0.0
0.021,3.7354400804387002,-1.5054687555846287,10.0,0.0,7.93787303421606,10.479003161883558,250.96984405352592,283.393854512415,0.0
0.022,3.846894507277175,-1.46328029169304,10.0,0.0,8.337892191513195,10.839086154120702,257.16817246802475,283.393854512415,0.0
0.023,3.9666591636394375,-1.4121696706034406,10.0,0.0,8.728717448623396,11.191103194932388,262.434124108501,283.393854512415,0.0
0.024,4.095469626224793,-1.3526021812778035,10.0,0.0,9.109620566488818,11.534029553053157,266.7777003614089,283.393854512415,0.0
0.025,4.233840645548185,-1.2852337741164013,10.0,0.0,9.479911158485276,11.866820879648667,270.2234402687695,283.393854512415,0.0
0.026000000000000002,4.38205356150825,-1.2108733042635447,10.0,0.0,9.838945856329442,12.188442422221906,272.66479060020964,283.393854512415,0.0
0.027,4.540053073473096,-1.130609608931274,9.084107921643998,0.0,10.186153836858491,12.397159334546537,273.87693575377,283.393854512415,0.0
0.028,4.666062657217434,-1.0245589651960092,8.57320453245027,0.0,10.508649776709543,12.560403842571635,273.5813287142333,283.393854512415,0.0
0.029,4.773729599564389,-0.9039500066702038,8.819133310200446,0.0,10.803014094377517,12.761151425403066,281.0822740047149,283.393854512415,0.0
0.03,4.8855459149291836,-0.8208432867135924,5.091776470036628,0.0,11.08008108895186,12.547569016255967,291.0389103048195,283.393854512415,0.0
0.031,4.769785054063519,-0.7707302981302342,0.03700776206027934,0.0,11.303401781609464,11.878152415854128,294.1838824313566,283.393854512415,0.0
0.032,4.389747899916758,-0.6433719257328332,-1.643378580397679,0.0,11.423940453883239,11.204361212515103,295.63790434481854,283.393854512415,0.0
0.033,3.9255314986383585,-0.505950459141844,-2.4928300354526796,0.0,11.451203360994699,10.580630632705047,295.76168188016516,283.393854512415,0.0
0.034,3.467243121418286,-0.38901871898685303,-2.6783970768034906,0.0,11.401878642662869,10.05585109907053,294.9014728302165,283.393854512415,0.0
0.035,3.065958937091822,-0.3101481764628138,-2.36336873500718,0.0,11.297502000524673,9.654684211481088,294.1926836011392,283.393854512415,0.0
0.036000000000000004,2.7476637789586302,-0.2754506784925166,-2.1169624113557743,0.0,11.160418314489869,9.338150386171852,293.57342877072824,283.393854512415,0.0
0.037,2.5014356346700533,-0.27459521423406685,-1.909130738733424,0.0,11.005642488438887,9.083861139832415,292.9326866327386,283.393854512415,0.0
0.038,2.310734257585503,-0.2964811821022375,-1.6841479909418289,0.0,10.843331331467146,8.880707891089092,292.34428290521475,283.393854512415,0.0
0.039,2.1629699493956154,-0.33258737068925504,-1.4794504111079139,0.0,10.680688786384133,8.716252817956782,291.7029298595429,283.393854512415,0.0
0.04,2.046990266032367,-0.3759241004063607,-1.2418646417432688,0.0,10.52227096687921,8.587346578549237,290.99847651626516,283.393854512415,0.0
0.041,1.9566591590591322,-0.4225626903788431,-0.9656841901428965,0.0,10.37150118298382,8.492269798047761,290.28615696087036,283.393854512415,0.0
0.042,1.8888200983236803,-0.46982846797427014,-0.678447436930051,0.0,10.231033549063595,8.427016941155479,289.551110707149,283.393854512415,0.0
0.043000000000000003,1.8403942341533372,-0.5156279610841548,-0.37249687201671566,0.0,10.102652679312298,8.389673255620123,288.7822866158482,283.393854512415,0.0
0.044,1.8093301670932982,-0.5588237183688325,-0.04196914740064095,0.0,9.987669066352812,8.379457184456706,288.0276655833752,283.393854512415,0.0
0.045,1.7944257265741745,-0.5991672521334623,0.2890032581262485,0.0,9.887168038714192,8.393194894261985,287.2214688512106,283.393854512415,0.0
0.046,1.7950236551637038,-0.6342324481152417,0.6538254808205961,0.0,9.801544621040318,8.432114634213946,286.39783449662303,283.393854512415,0.0
0.047,1.8115116237997588,-0.6637658370178834,1.0356028582722998,0.0,9.731273539948491,8.49511965043199,285.548205551829,283.393854512415,0.0
0.048,1.8423382887266468,-0.690170677756509,1.4388738202751625,0.0,9.676939267179877,8.582113035509254,284.6267987399913,283.393854512415,0.0
0.049,1.8889572804744617,-0.7113451746171706,1.8872477839182773,0.0,9.638802906443136,8.695442258739648,283.5934911701402,283.393854512415,0.0
0.05,1.9511544079796836,-0.7305020540416781,2.4019052022665477,0.0,9.617708615871202,8.839378005847117,282.8616536232974,283.393854512415,0.0
0.051000000000000004,2.030730339410291,-0.7498646701446677,2.773145984579137,0.0,9.61505564804429,8.994369279875226,283.6842070101108,283.393854512415,0.0
0.052000000000000005,2.122578732389793,-0.7623500435659801,2.3589657661954733,0.0,9.629346869318193,9.07501633395907,281.4806363490457,283.393854512415,0.0
0.053,2.193792249053165,-0.7422761521200485,3.479883278361716,0.0,9.647940692079828,9.269555530380867,279.4096001214251,283.393854512415,0.0
0.054,2.2996139909737074,-0.7431014361713696,4.555243936081912,0.0,9.684420572367582,9.54265243021958,280.0624734060139,283.393854512415,0.0
0.055,2.4550262107139083,-0.7564104852810976,4.262121104851527,0.0,9.746017897171988,9.733053383338437,279.3050990259475,283.393854512415,0.0
0.056,2.595454342071361,-0.7483384856401964,4.681695849749391,0.0,9.819474574356247,9.945765451624997,278.1251896218771,283.393854512415,0.0
0.057,2.740756143316328,-0.7344478608081114,5.3243372006899845,0.0,9.905409541915608,10.196467865132442,276.9955425323857,283.393854512415,0.0
0.058,2.906220268048304,-0.7218836256968422,5.953143865235984,0.0,10.006578094455863,10.476687817927669,276.1540651442298,283.393854512415,0.0
0.059000000000000004,3.093686443044893,-0.7112439235431014,6.44628045299579,0.0,10.12460706213582,10.76799295070321,275.53991060143557,283.393854512415,0.0
0.06,3.296488637425404,-0.6982326534168787,6.83189716350269,0.0,10.258638803632984,11.059023359615464,274.9828846563923,283.393854512415,0.0
0.061,3.5074677520734934,-0.6798606039950892,7.194519834584556,0.0,10.406479599136523,11.34920654783266,274.12957609014865,283.393854512415,0.0
0.062,3.724136879420326,-0.6559105767713032,7.71381690192904,0.0,10.566103851411029,11.656928134613892,272.96626647432925,283.393854512415,0.0
0.063,3.954119477362762,-0.630079735671542,8.399747590219597,0.0,10.737935944887473,11.99696799848277,272.6637672536736,283.393854512415,0.0
0.064,4.206671888074603,-0.606550881518371,8.658298073134835,0.0,10.92425894985731,12.316287392351303,276.4609574807592,283.393854512415,0.0
0.065,4.458854416251635,-0.5826523021220531,6.829031929908597,0.0,11.121488038524946,12.393287812753561,286.2559905957865,283.393854512415,0.0
0.066,4.537154646722355,-0.6269220970250268,1.9028940115612265,0.0,11.311802923599338,11.952637390326407,293.4137485269697,283.393854512415,0.0
0.067,4.331953344145684,-0.591738139150591,-1.7761838941759196,0.0,11.43470834460836,11.243001453789937,295.0881720123341,283.393854512415,0.0
0.068,3.9191839682768896,-0.48133866517003454,-2.730338811857311,0.0,11.462567527303715,10.59180600944023,294.9868488113076,283.393854512415,0.0
0.069,3.4696709314084617,-0.36888607347960206,-2.7956071543329855,0.0,11.411255456948423,10.056196799596362,294.02332529715625,283.393854512415,0.0
0.07,3.0683733469527557,-0.2902192446938813,-2.420140105104724,0.0,11.303984847394744,9.650618966462662,293.25055780166,283.393854512415,0.0
0.07100000000000001,2.749561284524886,-0.255686984668936,-2.132323390249062,0.0,11.163871635168183,9.333833374851308,292.6150850179574,283.393854512415,0.0
0.07200000000000001,2.5043161204427657,-0.2559694045636022,-1.9067993034531883,0.0,11.006467573791804,9.080433351002176,291.98897535293554,283.393854512415,0.0
0.073,2.31546901998926,-0.2796154573185041,-1.679695679347451,0.0,10.842062157772242,8.877679810593065,291.4276377486533,283.393854512415,0.0
0.074,2.1694445554299366,-0.3176561836496913,-1.4793647095687126,0.0,10.677769948682606,8.7127006731545,290.8225932867106,283.393854512415,0.0
0.075,2.054563117817961,-0.36282946554616924,-1.2511298663403347,0.0,10.517997700503376,8.582069465099881,290.16571284402045,283.393854512415,0.0
0.076,1.9644353258966114,-0.41100287991599294,-0.9904082283112992,0.0,10.365986899098324,8.483686427518943,289.4773668136632,283.393854512415,0.0
0.077,1.8956106463911286,-0.4595017039757615,-0.7070703361451556,0.0,10.224192010578559,8.415170002139968,288.78238507597183,283.393854512415,0.0
0.078,1.8457174392971372,-0.5064326051702072,-0.4134647729350416,0.0,10.094402379263666,8.373588969463649,288.0456455218748,283.393854512415,0.0
0.079,1.8125270300163674,-0.5505322695065041,-0.09161290598112615,0.0,9.977815261877677,8.358806739606251,287.31462004024036,283.393854512415,0.0
0.08,1.7950391485626143,-0.5916971338274685,0.23469217955784316,0.0,9.87549577167649,8.368110824602844,286.54263804790764,283.393854512415,0.0
0.081,1.7926895963586462,-0.6279583337257959,0.5891953403692729,0.0,9.787915722340692,8.40206842084143,285.7732854625718,283.393854512415,0.0
0.082,1.8059189215820646,-0.6585430516875028,0.9500773235356381,0.0,9.71549114453913,8.458545517766137,284.94286568851226,283.393854512415,0.0
0.083,1.8330025929745903,-0.6850563735589136,1.3497970988044257,0.0,9.658567352436437,8.539645892065185,284.0618227295483,283.393854512415,0.0
0.084,1.8753406490111684,-0.7072186415277679,1.7836388961150798,0.0,9.617618693231776,8.64628290022544,283.06061914356775,283.393854512415,0.0
0.085,1.9336826222658905,-0.7258712921535939,2.287573042793819,0.0,9.59325876965276,8.783261443313105,282.2367723363291,283.393854512415,0.0
0.08600000000000001,2.0089179382877873,-0.7450518070106629,2.711067268173989,0.0,9.586956022868431,8.937958698029272,283.0801584269432,283.393854512415,0.0
0.08700000000000001,2.0968553084113304,-0.7624560775638206,2.292511183721655,0.0,9.598475940846425,9.017359083498464,281.25243873727345,283.393854512415,0.0
0.088,2.167255221202681,-0.7428537732852137,3.2277851863079587,0.0,9.614453609397367,9.190172506641735,278.25714384346594,283.393854512415,0.0
0.089,2.26527186398676,-0.7373992305336178,4.776799739901204,0.0,9.64571087674765,9.498263383616838,279.4373828867464,283.393854512415,0.0
0.09,2.4288650987209595,-0.7625734509423985,4.226244934517672,0.0,9.707475214732897,9.685604636108412,279.1046848648469,283.393854512415,0.0
0.091,2.570620883902067,-0.7577185827447177,4.435485641943098,0.0,9.78101146646294,9.874953018997404,277.9332972613902,283.393854512415,0.0
0.092,2.7057600074344768,-0.7402837925654965,5.075785016181699,0.0,9.864259653071146,10.107612967125744,276.7048810424296,283.393854512415,0.0
0.093,2.8592202919562566,-0.7236440922332665,5.756882860361855,0.0,9.960792996696611,10.378320268157431,275.6495577519917,283.393854512415,0.0
0.094,3.037468196939248,-0.7114722248779277,6.361987473185015,0.0,10.073571227656933,10.673288035714325,275.1535468286166,283.393854512415,0.0
0.095,3.2379951685224504,-0.699993978828682,6.692396011710567,0.0,10.203427523885043,10.96005525489682,274.49680381584955,283.393854512415,0.0
0.096,3.4455231970200444,-0.6827379709842039,7.109738025059741,0.0,10.347191534006202,11.25291210444813,273.8063711726296,283.393854512415,0.0
0.097,3.661175505578187,-0.6609147498133703,7.550829180067563,0.0,10.503636833820021,11.553559803317366,272.83824392841404,283.393854512415,0.0
0.098,3.8866716633779936,-0.6355108487050696,8.140448908015355,0.0,10.67192617662918,11.877586466532847,272.1498846785379,283.393854512415,0.0
0.099,4.129623206869088,-0.6101366092278169,8.597068231292205,0.0,10.853252124147557,12.20590161778265,271.59447298124667,283.393854512415,0.0
0.1,4.384835426629305,-0.5822442616061465,8.992767895249496,0.0,11.046462576195465,12.53283478972313,284.8388288182482,283.393854512415,0.0
0.101,4.58521783823469,-0.6522897083481556,2.3561402336903976,0.0,11.261029222850466,12.09291970718429,293.5957213786495,283.393854512415,0.0
0.10200000000000001,4.422247018153189,-0.6213015458283453,-2.1243247151725964,0.0,11.406038544241484,11.311898544130512,294.1070254709794,283.393854512415,0.0
0.10300000000000001,3.992043283606864,-0.49326546936384297,-2.4871084709231948,0.0,11.444670730402127,10.674071568476563,294.01968439356506,283.393854512415,0.0
0.10400000000000001,3.5399531313571977,-0.3759729849902963,-2.54969623102752,0.0,11.404035187864865,10.146061572352098,293.3602880187571,283.393854512415,0.0
0.105,3.1395576362907702,-0.29585120944923105,-2.3196623786869646,0.0,11.3070217295031,9.732241225879672,292.727822783163,283.393854512415,0.0
0.106,2.8161852989959173,-0.2583193409768598,-2.0967694435973887,0.0,11.17500029455372,9.40388645470653,292.1728772873486,283.393854512415,0.0
0.107,2.5632054457055777,-0.25499516259128485,-1.9070869234395422,0.0,11.023355185044274,9.138395225511218,291.60055370012293,283.393854512415,0.0
0.108,2.3655845790964887,-0.2752387186462054,-1.7029921217037738,0.0,10.862585496516136,8.924050708067945,291.0792201043757,283.393854512415,0.0
0.109,2.210952435362964,-0.31049289433318517,-1.5191789797497552,0.0,10.70013384886151,8.748275498258366,290.503603510024,283.393854512415,0.0
0.11,2.088119347498898,-0.35365558257383717,-1.3024681725500025,0.0,10.540745198940982,8.607798020264429,289.8827401810579,283.393854512415,0.0
0.111,1.9909080483117225,-0.4005432142957802,-1.056925364753384,0.0,10.387973678820124,8.499736937895412,289.2022336963093,283.393854512415,0.0
0.112,1.915463651412041,-0.4483837332847713,-0.7747559142180247,0.0,10.244466783246024,8.423114793899227,288.53263812163357,283.393854512415,0.0
0.113,1.8599127814244094,-0.4953153351161066,-0.491345962972348,0.0,10.11233243384127,8.373513726606564,287.815370905892,283.393854512415,0.0
0.114,1.8215054123195225,-0.539732150816856,-0.1769275190363322,0.0,9.99286794635649,8.351080562324857,287.0792981725585,283.393854512415,0.0
0.115,1.7992952541179743,-0.5811673831813207,0.15425441102899007,0.0,9.887220298595103,8.354289137301791,286.34803309153136,283.393854512415,0.0
0.116,1.792381822487515,-0.6191938533967243,0.4903451657513851,0.0,9.796226832507594,8.380808629621036,285.6008266961925,283.393854512415,0.0
0.117,1.800915038499697,-0.6510179290829312,0.841878641583049,0.0,9.720105045884097,8.42987681281622,284.7887577332554,283.393854512415,0.0
0.11800000000000001,1.8235583737263212,-0.677976016472262,1.2339640908431826,0.0,9.659149405098427,8.503634628975032,283.91170052704257,283.393854512415,0.0
0.11900000000000001,1.8608226269616401,-0.7015239234186399,1.6673142338033264,0.0,9.613985798897417,8.603796126168787,282.99651375889664,283.393854512415,0.0
0.12,1.9148963703621567,-0.7208322441278876,2.1288810254114745,0.0,9.585243139244433,8.73028848942866,282.04571677694287,283.393854512415,0.0
0.121,1.984360757751261,-0.7396583996309536,2.6177608937430814,0.0,9.573901775780984,8.883318122818842,282.11012830122655,283.393854512415,0.0
0.122,2.069728532475039,-0.758095284277962,2.598392393713123,0.0,9.580837307759037,9.004195511491325,281.72010114141693,283.393854512415,0.0
0.123,2.1536026247684896,-0.7532685692918231,2.810143507327913,0.0,9.598451717911585,9.128792549587255,279.4531034499114,283.393854512415,0.0
0.124,2.2386506456399298,-0.7381556603099166,3.983049863705718,0.0,9.625150238020325,9.361076971581332,278.31546198334274,283.393854512415,0.0
0.125,2.3643663029821065,-0.748010360431486,4.602654522280766,0.0,9.67364249442079,9.616252010167424,278.7278564141346,283.393854512415,0.0
0.126,2.5198782010920913,-0.757067474582766,4.443117287867652,0.0,9.743700764595244,9.811164475945082,277.95704899732806,283.393854512415,0.0
0.127,2.6624730533662557,-0.7460963670431918,4.882889051421781,0.0,9.824947061359152,10.029431473728456,276.7833872707239,283.393854512415,0.0
0.128,2.811512740411918,-0.7300122168583019,5.535824587140776,0.0,9.918235882780062,10.286453175651143,275.6362628695276,283.393854512415,0.0
0.129,2.9814124492412666,-0.7164497228982198,6.186962704167781,0.0,10.026566959417393,10.574998855938663,275.07152734039374,283.393854512415,0.0
0.13,3.1752209436310728,-0.7046377563712771,6.552553740454936,0.0,10.151755805041375,10.859606771387897,274.3692631587837,283.393854512415,0.0
0.131,3.378404723044806,-0.6882556673265752,6.993931744796258,0.0,10.291202647518237,11.152756319177664,273.8069714264013,283.393854512415,0.0
0.132,3.591583820830729,-0.6679408328011582,7.37094644184762,0.0,10.443948949619045,11.446175570106064,272.93830011186645,283.393854512415,0.0
0.133,3.811852291304084,-0.642807602481851,7.9098376431205155,0.0,10.608201039612737,11.758937670547,271.5914258252856,283.393854512415,0.0
0.134,4.046772810207259,-0.616603257350635,8.701299073282222,0.0,10.784672984989916,12.114882042873656,271.6680018538843,283.393854512415,0.0
0.135,4.309522312031271,-0.5949368910105233,8.780269585568204,0.0,10.976970916215938,12.427098074543593,280.4064392525727,283.393854512415,0.0
0.136,4.533532751032064,-0.6192386340004896,4.440925038822425,0.0,11.184150512878652,12.227191037632396,289.61164211938154,283.393854512415,0.0
0.137,4.479954283761524,-0.6252755425451728,-0.22385427065167107,0.0,11.35104248869399,11.606394121293667,293.48450869089334,283.393854512415,0.0
0.138,4.152308043166357,-0.5441424683636342,-2.2611940981923513,0.0,11.430180568048508,10.922411808028373,294.40443844217435,283.393854512415,0.0
0.139,3.712469144812081,-0.4276638182703283,-2.831264813130454,0.0,11.421005287372592,10.317512970070297,293.7697315071529,283.393854512415,0.0
