timestamp,iq,id,iq_ref,id_ref,vq,vd,omega,omega_ref,r
0.0,0.0,0.0,0.0,0.0,0.0,0.0,0.0,165.20876573958466,0.0
0.001,0.0,0.0,10.0,0.0,0.0,1.0999999999999999,5.344052915120073,165.20876573958466,0.0
0.002,0.41900207373766474,-0.23808935082112934,10.0,0.0,0.13618982859032425,1.9439097718888567,9.54692274572644,165.20876573958466,0.0
0.003,0.861323535257361,-0.48921553667209716,10.0,0.0,0.3683946384458967,2.6725822094180707,14.21668076968045,165.20876573958466,0.0
0.004,1.246930588129825,-0.7077429320050307,10.0,0.0,0.6717729626969464,3.313614322979145,18.982604277977188,165.20876573958466,0.0
0.005,1.563025049919401,-0.886107801867159,10.0,0.0,1.0263515276105033,3.88996673734109,23.857245678285942,165.20876573958466,0.0
0.006,1.8178925728628277,-1.0293642189809575,10.0,0.0,1.4170820346527961,4.419267283852314,28.821532129349887,165.20876573958466,0.0
0.007,2.024500913522319,-1.144995806014937,10.0,0.0,1.8329564560445815,4.914532584173536,33.77155455057662,165.20876573958466,0.0
0.008,2.195007142849461,-1.239605746871413,10.0,0.0,2.266020742953183,5.385169194782423,38.76847136447431,165.20876573958466,0.0
0.009000000000000001,2.338764163423685,-1.3191245589997225,10.0,0.0,2.7106432321573624,5.837940363051388,43.7991388037715,165.20876573958466,0.0
0.01,2.4630520231888875,-1.3875990157265985,10.0,0.0,3.162817591386693,6.277662569045444,48.82053209237257,165.20876573958466,0.0
0.011,2.5732667720863382,-1.4478414487970013,10.0,0.0,3.6196886583629726,6.707749246581962,53.760441936494686,165.20876573958466,0.0
0.012,2.6733346855801527,-1.5017833357527577,10.0,0.0,4.079212469629705,7.1306090400671085,58.71316465280623,165.20876573958466,0.0
0.013000000000000001,2.7657766747391945,-1.5512672737071935,10.0,0.0,4.539973693423707,7.547967295657858,63.663398248079005,165.20876573958466,0.0
0.014,2.852602814942169,-1.5972101260434695,10.0,0.0,5.000953494774833,7.961039392538194,68.61662789716817,165.20876573958466,0.0
0.015,2.9351963540773984,-1.6403191807785438,10.0,0.0,5.461425093176374,8.370685231962765,73.57361890819237,165.20876573958466,0.0
0.016,3.0146368706640607,-1.6809160779160341,10.0,0.0,5.920848683817993,8.777501125851852,78.38063444099896,165.20876573958466,0.0
0.017,3.091832461648033,-1.7189808567673712,10.0,0.0,6.378792661486629,9.181880679573828,83.16958648188573,165.20876573958466,0.0
0.018000000000000002,3.1672437537491493,-1.7548133948946631,10.0,0.0,6.83494112816609,9.584093389469182,87.90623297993704,165.20876573958466,0.0
0.019,3.241389230390517,-1.7883126465755859,10.0,0.0,7.289022611470765,9.984297785533403,92.58375184364121,165.20876573958466,0.0
0.02,3.314652182839278,-1.8193998787930334,10.0,0.0,7.740800989078507,10.382572420318725,97.19530429550183,165.20876573958466,0.0
0.021,3.3873933302014256,-1.8478990400120439,10.0,0.0,8.190053027815926,10.778928532700942,101.71501866901424,165.20876573958466,0.0
0.022,3.4599861418131037,-1.8735270413589018,10.0,0.0,8.636549562453784,11.17331643991501,106.12744528304226,165.20876573958466,0.0
0.023,3.532764980687709,-1.8960168758105271,10.0,0.0,9.080052836125475,11.56563546571137,110.45798915796856,165.20876573958466,0.0
0.024,3.6059259677629116,-1.9153101231366694,10.0,0.0,9.520335043870993,11.955752996105739,114.69418199864481,165.20876573958466,0.0
0.025,3.679849442377301,-1.9310354772538458,10.0,0.0,9.957137640361024,12.34348702189839,118.60596223864525,165.20876573958466,0.0
0.026000000000000002,3.755008300203927,-1.9426704903197285,10.0,0.0,10.39015597767739,12.728599665145993,122.524300491896,165.20876573958466,0.0
0.027,3.8312257297625614,-1.9507990636798016,10.0,0.0,10.819161538525831,13.110870549127288,126.34834435795362,165.20876573958466,0.0
0.028,3.909355280949176,-1.954311926584893,10.0,0.0,11.243798760873517,13.489982824460357,130.2387603844095,165.20876573958466,0.0
0.029,3.9892370018870125,-1.9537995715966716,10.0,0.0,11.663792000841985,13.865641900703592,133.83570962058127,165.20876573958466,0.0
0.03,4.072079917257146,-1.947610806835914,10.0,0.0,12.078676183864129,14.237420489838014,137.2638208726595,165.20876573958466,0.0
0.031,4.157161006985228,-1.937306298519625,10.0,0.0,12.488178199230315,14.604979147644826,140.517698296082,165.20876573958466,0.0
0.032,4.2455776902599975,-1.9214812463412831,10.0,0.0,12.891848168184112,14.967857116944623,143.6464352829267,165.20876573958466,0.0
0.033,4.337064534738177,-1.9009659418977694,10.0,0.0,13.289340504205502,15.325634900149971,146.6763894381833,165.20876573958466,0.0
0.034,4.432499040926842,-1.8747320338455058,10.0,0.0,13.680180808103984,15.67780121140096,149.83480619436764,165.20876573958466,0.0
0.035,4.531951062439005,-1.8430572052160976,10.0,0.0,14.063931820668994,16.023849544612236,152.45792442169542,165.20876573958466,0.0
0.036000000000000004,4.637346053169358,-1.8031556554675114,10.0,0.0,14.439840143112583,16.363069216993672,153.66452429567389,165.20876573958466,0.0
0.037,4.749826012105483,-1.7534616133949987,10.0,0.0,14.807012271419467,16.694638908805654,149.75866601855836,165.20876573958466,0.0
0.038,4.850182804176763,-1.726055186623295,10.0,0.0,15.168106389552694,17.019854396728647,154.42118567514495,165.20876573958466,0.0
0.039,4.964548292904327,-1.6787531506854863,10.0,0.0,15.520683484979457,17.337081111833335,156.43770176190966,165.20876573958466,0.0
0.04,5.086549530281717,-1.6215607589410965,9.560895586557313,0.0,15.863907399641514,17.59726489826731,157.2385988714105,165.20876573958466,0.0
0.041,5.192415632435111,-1.5541566292146465,9.240148700488643,0.0,16.191984771128297,17.824436325327866,157.71697576523,165.20876573958466,0.0
0.042,5.287925851367854,-1.476050307118254,9.075878153322439,0.0,16.50205389403912,18.037388592442372,157.79977362010032,165.20876573958466,0.0
0.043000000000000003,5.380944537443995,-1.394661001110698,9.108569147082115,0.0,16.794239570930436,18.256014306642694,158.14863209452122,165.20876573958466,0.0
0.044,5.485892440837363,-1.3100078113874518,9.004741246322302,0.0,17.07057129374317,18.45963395557843,157.89251907235996,165.20876573958466,0.0
0.045,5.594440252445597,-1.2262936584282786,9.205960224075179,0.0,17.331269784239932,18.682806398219306,157.93462584699,165.20876573958466,0.0
0.046,5.7197206060723165,-1.1470788858745489,9.257648235686105,0.0,17.580339186499785,18.900709576362594,157.47188367107574,165.20876573958466,0.0
0.047,5.854749826686576,-1.070343408415019,9.566388144328322,0.0,17.818643211552967,19.141573476020763,158.1159338469812,165.20876573958466,0.0
0.048,6.008162014405687,-1.0000096913082945,9.315291375301632,0.0,18.050233869959513,19.33594829609612,158.80740893717618,165.20876573958466,0.0
0.049,6.154004561155732,-0.9256622324614101,9.033567398228225,0.0,18.270628061230852,19.491057471951475,164.12800262307243,165.20876573958466,0.0
0.05,6.233176877004083,-0.9355796355587116,6.38407818644522,0.0,18.48632813988976,19.356818046547215,168.1891246018728,165.20876573958466,0.0
0.051000000000000004,6.161338500608057,-0.9443061823198908,4.323713608422152,0.0,18.667895014255098,19.0661213046466,170.0765484098992,165.20876573958466,0.0
0.052000000000000005,5.97823552583678,-0.930775448920202,3.3313238777058087,0.0,18.80065988085227,18.7535146432349,172.04549207146687,165.20876573958466,0.0
0.053,5.757435141206939,-0.9076325255513007,2.2784847836031537,0.0,18.88647718041198,18.402013744141534,173.41906056726424,165.20876573958466,0.0
0.054,5.515130260493463,-0.8804635781487415,1.5095975874276721,0.0,18.92580550512578,18.04464099730738,174.5543337935764,165.20876573958466,0.0
0.055,5.269811443565107,-0.8573205210034889,0.8485052937316722,0.0,18.923189675872838,17.6864690983382,175.3046045798806,165.20876573958466,0.0
0.056,5.02896935655674,-0.8414100034116405,0.37241151217661983,0.0,18.883499513284615,17.342132854708183,175.73698442224656,165.20876573958466,0.0
0.057,4.800112700032866,-0.835622999195345,0.050939404167014146,0.0,18.812867277304345,17.020426036464382,175.89847786504495,165.20876573958466,0.0
0.058,4.588268084234144,-0.8414345254948972,-0.1367044384867837,0.0,18.717824721032837,16.727414916007735,175.92808201897807,165.20876573958466,0.0
0.059000000000000004,4.3965390683698775,-0.8591057710567673,-0.2586996782472779,0.0,18.60487103009162,16.461629359609564,175.92807622827186,165.20876573958466,0.0
0.06,4.2244768414914775,-0.8869127594846637,-0.36588988778104437,0.0,18.479516208876156,16.21756557390396,175.91508400630534,165.20876573958466,0.0
0.061,4.068903822781502,-0.921955734878944,-0.46645695946498744,0.0,18.345867148620776,15.990774618646794,175.88665252255953,165.20876573958466,0.0
0.062,3.926336640906882,-0.961417198006782,-0.5590200854218335,0.0,18.206894230055337,15.7782482395705,175.98247036217649,165.20876573958466,0.0
0.063,3.7933673575714817,-1.0041072632226091,-0.7146660514562289,0.0,18.06486725798127,15.570082730889219,176.09911740352442,165.20876573958466,0.0
0.064,3.6661216989118284,-1.044508784840509,-0.8818930887695924,0.0,17.9202436989723,15.364359891043748,176.033591261323,165.20876573958466,0.0
0.065,3.5419171890873677,-1.0812079733794469,-0.957378272886273,0.0,17.773143107402785,15.170505918896321,175.83460724429204,165.20876573958466,0.0
0.066,3.423348837815597,-1.116034826664641,-0.9641446794178634,0.0,17.624831139751443,14.993138305471017,175.57692032117555,165.20876573958466,0.0
0.067,3.313411866330777,-1.1497739315922242,-0.9389827636755248,0.0,17.476976640531902,14.832419114770705,175.26474820433103,165.20876573958466,0.0
0.068,3.2130370709732956,-1.1825728244580906,-0.8834565299007275,0.0,17.33110615933025,14.688784517550747,174.90845155059324,165.20876573958466,0.0
0.069,3.122594278921396,-1.2143595802155873,-0.8023050611419205,0.0,17.188627820731433,14.562242690330471,174.51995437816163,165.20876573958466,0.0
0.07,3.0421210097912947,-1.244899310499259,-0.7011683613118831,0.0,17.050784636044103,14.452368365949852,174.1549622131796,165.20876573958466,0.0
0.07100000000000001,2.971339631235791,-1.273947360551487,-0.6081342435568189,0.0,16.91862822559034,14.355900760443118,173.82793256638266,165.20876573958466,0.0
0.07200000000000001,2.909124944787848,-1.3001426775301717,-0.5308110884263266,0.0,16.792631699998424,14.269575282052207,174.17401454592692,165.20876573958466,0.0
0.073,2.8537791378364497,-1.3224949032328772,-0.7935045662618823,0.0,16.672799070784116,14.155079076728153,173.40691655272053,165.20876573958466,0.0
0.074,2.790641472695795,-1.3320365277241302,-0.4919370777900447,0.0,16.554326140395847,14.082240272621295,172.47851271625157,165.20876573958466,0.0
0.075,2.7418670391963884,-1.3416575851047174,-0.10043262932223485,0.0,16.441379522702665,14.04962168136656,171.4743071982708,165.20876573958466,0.0
0.076,2.7124801239820053,-1.3580058927286789,0.33901471508129344,0.0,16.338167810918158,14.056139267206275,172.04948391230005,165.20876573958466,0.0
0.077,2.702251802652804,-1.3841537704978204,-0.016980823660487143,0.0,16.248641812374444,14.008961186772009,171.2279589577127,165.20876573958466,0.0
0.078,2.6910359360679212,-1.3737211657703532,0.33358972145190524,0.0,16.161941540343964,14.000802491987631,169.37150303744082,165.20876573958466,0.0
0.079,2.676291879861125,-1.387715140755771,1.2201903086092858,0.0,16.084739089333763,14.080319686131716,171.65021117670028,165.20876573958466,0.0
0.08,2.7081265537008754,-1.3996619809450213,0.016421784608397605,0.0,16.024382815509952,13.999235117564266,167.91860370486052,165.20876573958466,0.0
0.081,2.6897180405315724,-1.379718892607316,1.8551271408755219,0.0,15.959640504092734,14.136861936087595,169.7212018403504,165.20876573958466,0.0
0.082,2.731015642638021,-1.4057631619622937,0.9087037121229207,0.0,15.918199406181998,14.127031389528007,168.16092765714367,165.20876573958466,0.0
0.083,2.7558853765680666,-1.3767994451065118,1.6593191845506952,0.0,15.876472911858693,14.203749029376649,166.12638554450453,165.20876573958466,0.0
0.084,2.7838344524550167,-1.387354416054219,2.6674140428210684,0.0,15.848041514925393,14.369180834485295,169.83383965459257,165.20876573958466,0.0
0.085,2.8674050734221734,-1.3904844539331733,0.7674362486269715,0.0,15.839235192653488,14.28723453589817,164.64668670156493,165.20876573958466,0.0
0.08600000000000001,2.869980404200031,-1.344081970960058,3.366633515520986,0.0,15.817979299244236,14.518066132066965,166.01295695380136,165.20876573958466,0.0
0.08700000000000001,2.952608806083613,-1.3679442101838881,2.6754564772606027,0.0,15.825021025937131,14.612604161500947,167.16704681560654,165.20876573958466,0.0
0.088,3.036043352691704,-1.3379825793818427,2.078828735597796,0.0,15.837277981123675,14.631323763352464,162.30853317151343,165.20876573958466,0.0
0.089,3.069756793167705,-1.3080797275386848,4.5370878833250625,0.0,15.847191503581989,14.922897751217835,164.73694085049667,165.20876573958466,0.0
0.09,3.192499031073682,-1.3318973273505348,3.3276022927243254,0.0,15.888190037078742,15.015515174334245,166.07288937586503,165.20876573958466,0.0
0.091,3.28880539023095,-1.2937674733598428,2.650986793677339,0.0,15.929917999600372,15.031271582371293,161.1030286818526,165.20876573958466,0.0
0.092,3.3303991131959143,-1.2467656430960237,5.176974511260872,0.0,15.964259903884425,15.330637703846882,161.8972825736413,165.20876573958466,0.0
0.093,3.4592858492454277,-1.2618617779309065,4.812962397025963,0.0,16.027234823022113,15.52443859012585,164.66145503200417,165.20876573958466,0.0
0.094,3.5895781285554706,-1.2503988366654075,3.436349274920329,0.0,16.10188045398638,15.544326274037807,162.20633828928948,165.20876573958466,0.0
0.095,3.659032445614666,-1.1842067543056745,4.693931920780628,0.0,16.163883790598483,15.715452922837265,157.48465373681682,165.20876573958466,0.0
0.096,3.7568032792031683,-1.1503606405516789,7.132015317044632,0.0,16.233738306739987,16.12122033902429,159.4599171723896,165.20876573958466,0.0
0.097,3.9494670432491894,-1.1822178414801605,6.201872084930198,0.0,16.34102686612572,16.346484570002357,160.90296390304886,165.20876573958466,0.0
0.098,4.114479086149102,-1.1755224356143454,5.523406737965924,0.0,16.459057926016158,16.478396790897733,161.49197145236695,165.20876573958466,0.0
0.099,4.235457362409536,-1.1323503216743134,5.266070906179053,0.0,16.573795123532356,16.575741117706052,161.13921423566083,165.20876573958466,0.0
0.1,4.331024787074166,-1.069033764453074,5.483145029571353,0.0,16.680259933822807,16.69197360952568,159.63547009919063,165.20876573958466,0.0
0.101,4.4269845766521465,-1.006788967311277,6.290750054210395,0.0,16.781487750152813,16.88429524206183,158.1694264865296,165.20876573958466,0.0
0.10200000000000001,4.556537729586957,-0.9596639366233757,7.094165253071458,0.0,16.88726364269917,17.134515865678637,155.7148342268788,165.20876573958466,0.0
0.10300000000000001,4.7206541092428616,-0.9308355025013435,8.41640069802392,0.0,17.004784130906028,17.49094649291176,155.19417372714824,165.20876573958466,0.0
0.10400000000000001,4.935034821994044,-0.9328082572690942,8.776876868013563,0.0,17.146700920381186,17.827975415885533,154.9790784666281,165.20876573958466,0.0
0.105,5.16171735684147,-0.931678063033089,8.9867213710032,0.0,17.307984874292575,18.142179987432687,155.0804145458342,165.20876573958466,0.0
0.106,5.383782857924998,-0.9203259557828132,9.037336843337652,0.0,17.483323460112363,18.422401374372456,155.2689056468898,165.20876573958466,0.0
0.107,5.592002224834067,-0.8949373738109764,9.042489893736798,0.0,17.666471103099752,18.671511686671618,155.75654585144952,165.20876573958466,0.0
0.108,5.78416315407844,-0.8579683108078184,8.893191990338295,0.0,17.85240230190768,18.878495923613986,158.31366958777372,165.20876573958466,0.0
0.109,5.948598814667399,-0.8221660412704732,7.683581083694304,0.0,18.03687024550999,18.935644322673717,162.23697744373416,165.20876573958466,0.0
0.11,5.986436133249772,-0.8595368642570382,5.751645038672587,0.0,18.213075047881937,18.802590071863587,165.38361877144987,165.20876573958466,0.0
0.111,5.908800508926081,-0.8813353161347814,4.176575844496078,0.0,18.36037806641236,18.555441767323895,167.19567192828416,165.20876573958466,0.0
0.112,5.749264529543099,-0.8804650807117079,3.2506802041919425,0.0,18.46792224222045,18.278413368088415,168.9331034887728,165.20876573958466,0.0
0.113,5.555609611131978,-0.870171690718494,2.3447210464557457,0.0,18.535885589979166,17.96915235664074,170.36944481955996,165.20876573958466,0.0
0.114,5.3431377350800835,-0.8556520534427932,1.5749435902624063,0.0,18.564632275616837,17.643433209691402,171.4549965961255,165.20876573958466,0.0
0.115,5.123023097592038,-0.8420527408551315,0.9697053934142215,0.0,18.556581649983933,17.316370110272572,172.17920360660446,165.20876573958466,0.0
0.116,4.904502977730783,-0.8338412336776271,0.5378975095045497,0.0,18.515862504308785,17.001597839780597,172.60114840650652,165.20876573958466,0.0
0.117,4.695529526515597,-0.8342286553662265,0.25300128288429846,0.0,18.447862777609476,16.708012254116234,172.78367160286592,165.20876573958466,0.0
0.11800000000000001,4.501495559850897,-0.8449339559864482,0.08599062607178709,0.0,18.358478173865,16.440717046186172,172.86906139441112,165.20876573958466,0.0
0.11900000000000001,4.325411938893746,-0.8661803703925915,-0.033307226249076116,0.0,18.25353256228044,16.197189100126135,172.9299752793795,165.20876573958466,0.0
0.12,4.166477423217814,-0.896199039050523,-0.1409762641312171,0.0,18.13781830665664,15.972590732384601,172.978079386365,165.20876573958466,0.0
0.121,4.021764957943882,-0.9323547881466767,-0.24272145409177348,0.0,18.01489258553507,15.76309452136137,173.06926608552672,165.20876573958466,0.0
0.122,3.887947660186495,-0.9726368632308231,-0.36691980713204897,0.0,17.887379286191617,15.562883770494059,173.26366943627076,165.20876573958466,0.0
0.123,3.7614518232771395,-1.014180374221597,-0.5446705194709294,0.0,17.75676320715393,15.364208539034712,173.3997591001192,165.20876573958466,0.0
0.124,3.6387205310568773,-1.0524844653105732,-0.6946252850005008,0.0,17.623139227783952,15.169857189507809,173.36378364800376,165.20876573958466,0.0
0.125,3.5188593037815825,-1.0879153331232452,-0.7581877380269662,0.0,17.486956865946787,14.988043676897055,173.23282666866567,165.20876573958466,0.0
0.126,3.4049991063232445,-1.1218598962498318,-0.7729498576487286,0.0,17.34959098229806,14.8211310801832,173.04250812683892,165.20876573958466,0.0
0.127,3.299240110240506,-1.1547737462276506,-0.7561280106079007,0.0,17.212551505209127,14.66966606674108,172.7965588111505,165.20876573958466,0.0
0.128,3.202364562255121,-1.1867804368328663,-0.7090312834793484,0.0,17.077261071951657,14.534254748765573,172.50290470296062,165.20876573958466,0.0
0.129,3.1147877481127915,-1.217804483761936,-0.6351456190181661,0.0,16.945051128478525,14.41517666915712,172.17290570907056,165.20876573958466,0.0
0.13,3.036638227026865,-1.2477339608106222,-0.5397875217679964,0.0,16.817136373397936,14.312256616393142,171.94725472452038,165.20876573958466,0.0
0.131,2.967616347331766,-1.2766812524187068,-0.4943469193422607,0.0,16.694605995855415,14.217692890247426,171.6740743770329,165.20876573958466,0.0
0.132,2.9061210795528285,-1.3001725411515719,-0.42240983197300164,0.0,16.577166852297097,14.13386543320712,171.9592165283788,165.20876573958466,0.0
0.133,2.849939659180028,-1.3220569848061587,-0.6324854155338899,0.0,16.46526125330526,14.028414126012851,171.43948822203083,165.20876573958466,0.0
0.134,2.7890652050151714,-1.3316365859783583,-0.43492848718437305,0.0,16.354835995185574,13.952283783347276,170.5229900872732,165.20876573958466,0.0
0.135,2.7383898972389655,-1.3398143854419444,-0.0298216632824424,0.0,16.24864399054058,13.92027566979575,169.56511066606691,165.20876573958466,0.0
0.136,2.707274510209226,-1.3553571867548093,0.4055545980558781,0.0,16.151498305154707,13.927605427138582,170.5264020799593,165.20876573958466,0.0
0.137,2.6971780091352793,-1.3783108081094326,-0.12826747229405955,0.0,16.06716963437758,13.862212911104502,168.93626608423224,165.20876573958466,0.0
0.138,2.67564353883351,-1.3669555773641835,0.6295255221229912,0.0,15.983255967479238,13.885890056407943,168.06904460772424,165.20876573958466,0.0
