timestamp,iq,id,iq_ref,id_ref,vq,vd,omega,omega_ref,r
0.0,0.0,0.0,0.0,0.0,0.0,0.0,0.0,74.95028829806077,0.0
0.001,0.0,0.0,10.0,0.0,0.0,1.0999999999999999,11.156190603151861,74.95028829806077,0.0
0.002,0.8754928538052796,-0.4999113161072851,10.0,0.0,0.16499024477180135,1.893695786081419,22.305624498779437,74.95028829806077,0.0
0.003,1.5598025260045385,-0.8883259376692682,10.0,0.0,0.43057753888530964,2.5580018826280106,33.90698536300032,74.95028829806077,0.0
0.004,2.065641688934457,-1.1741804767314186,10.0,0.0,0.763596566323343,3.1336368877309964,45.815426389467156,74.95028829806077,0.0
0.005,2.4422514732741556,-1.385914089475696,10.0,0.0,1.1413093435391213,3.648641610419417,58.05839826360257,74.95028829806077,0.0
0.006,2.7296149371695844,-1.5459179582014781,9.525837652012802,0.0,1.548234404734556,4.069915397096882,69.80668857954026,74.95028829806077,0.0
0.007,2.9141008102451718,-1.6471289202304833,3.7031284912291595,0.0,1.966127505614127,3.836578115620456,74.58376188545307,74.95028829806077,0.0
0.008,2.560202198582055,-1.4391254100790636,1.3182571023988328,0.0,2.2950050725211524,3.505028817229829,76.98553514554618,74.95028829806077,0.0
0.009000000000000001,2.091351560589289,-1.164679269630489,0.09701800387742443,0.0,2.529730912550583,3.177069202482489,77.41455323017196,74.95028829806077,0.0
0.01,1.6518784737295529,-0.9087510231913885,-0.14213368775657798,0.0,2.682780561398521,2.934937371292943,77.7802399406074,74.95028829806077,0.0
0.011,1.3229636005333936,-0.7162832433859186,-0.35327655939976443,0.0,2.7776998889285007,2.7432753943257144,78.06612063144533,74.95028829806077,0.0
0.012,1.0778773841944573,-0.5711335806722591,-0.5273752281525741,0.0,2.829919300908312,2.5869024580271507,77.78135404912338,74.95028829806077,0.0
0.013000000000000001,0.893839976900654,-0.45936948317792164,-0.41330259450222506,0.0,2.8504369239630436,2.4834709855844204,77.15597421494027,74.95028829806077,0.0
0.014,0.7750008932429472,-0.38603741739688213,-0.12266953657946655,0.0,2.8516107512070588,2.434495257855846,76.555948092913,74.95028829806077,0.0
0.015,0.7175059333179361,-0.34885232157247514,0.1612869264856478,0.0,2.8444125830709415,2.42399942073764,76.06435444480746,74.95028829806077,0.0
0.016,0.7031616744935778,-0.3369780059935119,0.39594308907094855,0.0,2.835950324281172,2.4378088826428046,75.79625913650212,74.95028829806077,0.0
0.017,0.7151216053372763,-0.3398486539932663,0.5215310348392092,0.0,2.8301497519966596,2.45940024990608,76.09809522281253,74.95028829806077,0.0
0.018000000000000002,0.7360742846883621,-0.3473221880641571,0.3591349224364834,0.0,2.827881755934726,2.456947775972411,75.63477887900748,74.95028829806077,0.0
0.019,0.7375612864240193,-0.34418460142804685,0.5839481885295399,0.0,2.8251754422149387,2.48091312682277,76.00264583749535,74.95028829806077,0.0
0.02,0.7575971504370532,-0.3509047260975653,0.3894911338912609,0.0,2.8259068845321735,2.4763838275208934,75.3917350810753,74.95028829806077,0.0
0.021,0.7563164047799255,-0.3455078643152691,0.6905320442711428,0.0,2.8254513966447496,2.507780913731513,75.91027478272284,74.95028829806077,0.0
0.022,0.7805262255004836,-0.3552188398502866,0.4216623286007517,0.0,2.8293033420938043,2.5007307769689544,75.12644441100196,74.95028829806077,0.0
0.023,0.7773691521844318,-0.34697265983095166,0.8118159533317808,0.0,2.8310608897642213,2.5409658205766448,74.87719606956921,74.95028829806077,0.0
0.024,0.8077984311262896,-0.3588856517619501,0.9371710463330697,0.0,2.8380590779409687,2.583861847156675,74.66265500909545,74.95028829806077,0.0
0.025,0.8441311637277459,-0.3713036956669987,1.0473179094596046,0.0,2.849893904868289,2.6303383861135403,74.87756986073519,74.95028829806077,0.0
0.026000000000000002,0.8823603904347647,-0.3832743901790767,0.9405876680129867,0.0,2.8663854989558435,2.6566670710653018,75.46988084802557,74.95028829806077,0.0
0.027,0.9028660124571711,-0.3849539391923915,0.6392362488681511,0.0,2.883925845576161,2.648057367083781,75.59739136429023,74.95028829806077,0.0
0.028,0.8937472469358905,-0.3679339133030022,0.5690099600735246,0.0,2.89696218879833,2.638559411014049,76.3671143389485,74.95028829806077,0.0
0.029,0.8800510092585896,-0.35207164232502414,0.16998021233551475,0.0,2.906170452542624,2.5895392739995624,76.48895067191026,74.95028829806077,0.0
0.03,0.8357347013270282,-0.3214101927829176,0.09367542211613822,0.0,2.9063417394711886,2.546676579109901,75.18378385452378,74.95028829806077,0.0
0.031,0.7963615685025809,-0.29370063566695986,0.7439238752447472,0.0,2.8994681914305964,2.5842955416797766,74.12468906563338,74.95028829806077,0.0
0.032,0.8251703243938443,-0.30292433448199396,1.281727262014224,0.0,2.898335596891864,2.6665584467256798,73.98267475644394,74.95028829806077,0.0
0.033,0.8996146817759865,-0.33044129642343245,1.3624105520251095,0.0,2.9084771811370036,2.736078138093498,75.51609610704865,74.95028829806077,0.0
0.034,0.963832033622348,-0.35449322175749476,0.5900417986328746,0.0,2.9269271182617427,2.7075731578465145,76.34255256998843,74.95028829806077,0.0
0.035,0.9444906250957064,-0.3343809038600132,0.16289092444371112,0.0,2.938228689427247,2.647270489166212,75.0883235267458,74.95028829806077,0.0
0.036000000000000004,0.8901413726586286,-0.2980452422775998,0.7886250937781766,0.0,2.9385740370130797,2.673015515521986,73.52433154228011,74.95028829806077,0.0
0.037,0.9068267094235928,-0.29525578846824674,1.584880653568827,0.0,2.941515869172701,2.7751724643158755,75.13169711210489,74.95028829806077,0.0
0.038,0.9944022145478235,-0.3278444532596934,0.7793837805159962,0.0,2.9579918606609015,2.7613742376166055,76.23705708402414,74.95028829806077,0.0
0.039,0.9909140294944747,-0.31728093727204665,0.21383610669673436,0.0,2.969952556923801,2.697707612753601,74.10011696829115,74.95028829806077,0.0
0.04,0.9373757163732007,-0.2794688438186303,1.2908078778609293,0.0,2.970296825954109,2.771580424162249,74.2373039272833,74.95028829806077,0.0
0.041,0.9954409644054218,-0.2931479352714889,1.229344242072624,0.0,2.9798767702166007,2.81364710326995,75.67856919219057,74.95028829806077,0.0
0.042,1.0357344125605852,-0.30580305104206623,0.5014288006776968,0.0,2.9939606597838484,2.7691574198808238,74.06878409271764,74.95028829806077,0.0
0.043000000000000003,1.0031044608619457,-0.2794580008974642,1.3151363924675932,0.0,2.9991626853818465,2.8313043124665764,74.59105645645911,74.95028829806077,0.0
0.044,1.0536672301461734,-0.2876072630757007,1.0575925290128703,0.0,3.0112190670196712,2.8454016133173843,75.46987483661063,74.95028829806077,0.0
0.045,1.0689319488938231,-0.28864069032270756,0.6129874735516143,0.0,3.023511724954184,2.811790213411303,73.1931918890508,74.95028829806077,0.0
0.046,1.0455409344396356,-0.2610666355669516,1.7688999114216313,0.0,3.028170496809033,2.9170912967870324,75.72526607011129,74.95028829806077,0.0
0.047,1.1301808776007731,-0.29162985112498635,0.4951130431708789,0.0,3.0465311940749116,2.851108165232125,73.40130797216717,74.95028829806077,0.0
0.048,1.0859578500263747,-0.2574088784366044,1.672581895401872,0.0,3.0523875693074096,2.9415297914520067,75.54132748877953,74.95028829806077,0.0
0.049,1.156893068511542,-0.27816129359013614,0.5966617451885068,0.0,3.069325445032419,2.8851238832182577,73.1870045778456,74.95028829806077,0.0
0.05,1.1195304122761,-0.2466885902768448,1.7914560378576239,0.0,3.075259420845554,2.983058171446872,75.52734388976988,74.95028829806077,0.0
0.051000000000000004,1.1968188515965805,-0.2727676503856617,0.6155158259783917,0.0,3.0935768515453397,2.921615707312924,72.98111849733571,74.95028829806077,0.0
0.052000000000000005,1.1581147907940539,-0.23625176875914972,1.9083202202027256,0.0,3.099640755181749,3.0271474492273027,75.28700741574416,74.95028829806077,0.0
0.053,1.239560917130385,-0.2682915306433004,0.7520085698216706,0.0,3.1195409752694747,2.9732639673247006,73.38206838536904,74.95028829806077,0.0
0.054,1.20934183688794,-0.23179913871577612,1.720160284136147,0.0,3.1277282644273,3.0489572207895677,74.55802355087731,74.95028829806077,0.0
0.055,1.2662621238374787,-0.25297994346384745,1.1361053488538464,0.0,3.1453609624573917,3.0374088954326592,74.51096639103258,74.95028829806077,0.0
0.056,1.2687304278459375,-0.23187520459566985,1.1640271478464914,0.0,3.157542228825804,3.037988309085029,72.89351317287402,74.95028829806077,0.0
0.057,1.2699333806216826,-0.22080937644177678,1.9933215081776385,0.0,3.1675571162143648,3.130563427890257,74.66266531867805,74.95028829806077,0.0
0.058,1.3471904208818894,-0.24854308371487704,1.1116216650694515,0.0,3.1889893928261728,3.1011163523077396,74.51241323836331,74.95028829806077,0.0
0.059000000000000004,1.336710072213794,-0.2205579300507129,1.1911264558237977,0.0,3.2019780302427594,3.096245146114807,72.91844614076875,74.95028829806077,0.0
0.06,1.3335399475037732,-0.20331401384568182,2.008428426193997,0.0,3.2115637040524816,3.182512003347428,73.69326064567991,74.95028829806077,0.0
0.061,1.4049155271534406,-0.22961192747613213,1.6335914502622237,0.0,3.2318827058658948,3.203822640172997,74.62307064288694,74.95028829806077,0.0
0.062,1.4335893561796373,-0.22643738957006876,1.1719586282104468,0.0,3.251688692874551,3.175562507434587,74.41445370064523,74.95028829806077,0.0
0.063,1.4173671026942491,-0.1969315323630434,1.2816254453054616,0.0,3.2634741689947884,3.170859850945509,73.52085976779303,74.95028829806077,0.0
0.064,1.4163646826496252,-0.17755502335007345,1.742716697034238,0.0,3.271774474434739,3.2173774209066326,72.70516548163192,74.95028829806077,0.0
0.065,1.4589665146733044,-0.18512841951469527,2.1730150682790788,0.0,3.2849233449950437,3.2980989470122317,72.91639142750873,74.95028829806077,0.0
0.066,1.5339355547200895,-0.20908777100649012,2.0877410640461966,0.0,3.3073892758123282,3.3505595073003267,73.42382965425595,74.95028829806077,0.0
0.067,1.58827527738914,-0.21857180352537342,1.8492865371106317,0.0,3.3336583196388543,3.3694156676276292,73.47366897070312,74.95028829806077,0.0
0.068,1.6109383451491488,-0.2108704810556603,1.8391330721606272,0.0,3.3582440893186014,3.3883312402028,73.48513835397186,74.95028829806077,0.0
0.069,1.6304002873281396,-0.20058644719551033,1.8480498799671428,0.0,3.3812086087879702,3.406982033034555,73.3344554189225,74.95028829806077,0.0
0.07,1.6502082294056102,-0.19027627814280668,1.9395496762832058,0.0,3.4027104773363837,3.4340557538400427,73.86136987450526,74.95028829806077,0.0
0.07100000000000001,1.6735874998693556,-0.19121056646351187,1.6869816327273834,0.0,3.4249754045163074,3.4295011663352835,74.47264328043163,74.95028829806077,0.0
0.07200000000000001,1.6641466526384296,-0.1927411943620312,1.3861213799404906,0.0,3.444717406413392,3.3983318688280315,74.98398514776731,74.95028829806077,0.0
0.073,1.628755740601771,-0.18488196910704524,1.1301134777755812,0.0,3.458488457313011,3.350900026402666,75.63692302487419,74.95028829806077,0.0
0.074,1.5783965450447144,-0.1713644725234884,0.7967781919540076,0.0,3.464730886508489,3.280667273281985,76.78381203490643,74.95028829806077,0.0
0.075,1.5103104668614171,-0.14988033916394639,0.20499844956943103,0.0,3.4610977177686384,3.163305496233424,76.23865575573458,74.95028829806077,0.0
0.076,1.4060378698696412,-0.1091756405440033,0.46469291457861717,0.0,3.4418290126833186,3.1025898934778526,75.63288345390968,74.95028829806077,0.0
0.077,1.3483089423537455,-0.09544549038333683,0.7607531139325778,0.0,3.417312348299499,3.081296113824981,75.24020058355953,74.95028829806077,0.0
0.078,1.3317029511604952,-0.10345469914934224,0.9541954262526688,0.0,3.3941362868546414,3.079247467816783,75.02449973928651,74.95028829806077,0.0
0.079,1.335879514959474,-0.12245468501138057,1.0613037339769194,0.0,3.3750828733106144,3.084308089061566,74.85725137940763,74.95028829806077,0.0
0.08,1.346835241943371,-0.14484235634603992,1.1458582831028923,0.0,3.36071350723366,3.094023859823844,75.33223403857217,74.95028829806077,0.0
0.081,1.3594901443323293,-0.16973289462542807,0.9045474961155089,0.0,3.351266737338014,3.0726589028493794,76.59178955929971,74.95028829806077,0.0
0.082,1.3476389554580528,-0.1751433662569547,0.2583547231393468,0.0,3.340974395231163,2.9852478472253545,75.19183316319116,74.95028829806077,0.0
0.083,1.2768755163122663,-0.15275256187048258,0.9559174725423181,0.0,3.320453088573764,2.9964079595344266,74.95480779961242,74.95028829806077,0.0
0.084,1.2808093833884282,-0.1732547973802675,1.0743849593161703,0.0,3.3055790777629563,3.0093153662281127,76.4230971757222,74.95028829806077,0.0
0.085,1.2958923304277774,-0.19656232867337642,0.32551218248466585,0.0,3.2958420147897396,2.9342641653485773,75.29732672184761,74.95028829806077,0.0
0.08600000000000001,1.2395638221989653,-0.1792942189261416,0.8849270251840944,0.0,3.277440970640766,2.941115704100489,75.24471965538135,74.95028829806077,0.0
0.08700000000000001,1.240150547276632,-0.19866950192183375,0.9082862448440214,0.0,3.263869147008878,2.9417895254570774,76.35784429592036,74.95028829806077,0.0
0.088,1.24577154853985,-0.21215321667604237,0.33764836459591896,0.0,3.2530113436688444,2.8774225804027513,75.0358506055709,74.95028829806077,0.0
0.089,1.1942826817570142,-0.20226925193614387,0.9977895866955471,0.0,3.2355805528884503,2.9024484481120387,76.58939819372613,74.95028829806077,0.0
0.09,1.2116775150584043,-0.22597333652677976,0.20462469366128055,0.0,3.2251017169093923,2.82695077918661,74.98478388662626,74.95028829806077,0.0
0.091,1.1537315363793776,-0.20997934310402688,1.0065868913255582,0.0,3.20612461751329,2.86065049021694,76.55763825024624,74.95028829806077,0.0
0.092,1.177521457930133,-0.23687792446670852,0.20408620999371263,0.0,3.1955339830439513,2.7895914721241057,74.96329554706308,74.95028829806077,0.0
0.093,1.1235759253316542,-0.22354193410901685,1.0011274890952688,0.0,3.1771605654592925,2.8264507477094534,76.5081159662016,74.95028829806077,0.0
0.094,1.1511212669249677,-0.2497166417804415,0.21313900284460185,0.0,3.1673229949390675,2.759568164797961,75.12522081575625,74.95028829806077,0.0
0.095,1.0993189480853374,-0.23972270618553493,0.902837252890322,0.0,3.1504198431875596,2.7881104839814226,76.00160302836008,74.95028829806077,0.0
0.096,1.120691542077164,-0.25998393719073587,0.4541329992854144,0.0,3.140389913296072,2.7529847971468935,75.7862269413229,74.95028829806077,0.0
0.097,1.092980225182214,-0.263829716542278,0.5534616563713859,0.0,3.128070831128897,2.739043851620538,75.3039814877347,74.95028829806077,0.0
0.098,1.0802414970570873,-0.2676647107275875,0.7910474512687424,0.0,3.115972954192674,2.7515303902227646,76.62108436954459,74.95028829806077,0.0
0.099,1.0903866517408063,-0.28377835107660093,0.1157880496489605,0.0,3.1080676693068328,2.683660740847535,75.67420862422819,74.95028829806077,0.0
0.1,1.0333160047602998,-0.271440237250852,0.5819867190454886,0.0,3.0926476190477303,2.686201198285754,75.3122927120897,74.95028829806077,0.0
0.101,1.0308423280988432,-0.28024157142891853,0.7593246309744419,0.0,3.080115147456205,2.701492186535415,76.29140607508238,74.95028829806077,0.0
0.10200000000000001,1.0449932693622457,-0.29736570731557505,0.25635677170788707,0.0,3.0721606634545506,2.65531964485676,76.18214085740144,74.95028829806077,0.0
0.10300000000000001,1.0062769601526516,-0.293431721928652,0.2986708549549516,0.0,3.059780393933768,2.627053440121335,75.47781353190392,74.95028829806077,0.0
0.10400000000000001,0.9786738896233755,-0.2908822384060414,0.6455592653652782,0.0,3.0455704275579025,2.6407595878861647,75.48695704071076,74.95028829806077,0.0
0.105,0.9884829532336494,-0.3053926199843942,0.6356208235353564,0.0,3.035773709404952,2.6457569838291075,76.19912716737618,74.95028829806077,0.0
0.106,0.9944121031064261,-0.31769044382916634,0.2670473715094961,0.0,3.028664059468731,2.6082771572080126,76.55874717349957,74.95028829806077,0.0
0.107,0.9615739256071296,-0.31468637794073423,0.0711527796934116,0.0,3.018063966377848,2.559643168699545,75.79088014182464,74.95028829806077,0.0
0.108,0.9169065813852507,-0.3028497511427645,0.44668037709323527,0.0,3.002388495456315,2.56266457745439,75.57630485107035,74.95028829806077,0.0
0.109,0.9150418311928139,-0.3127017711862283,0.547707856940288,0.0,2.98978480097518,2.5709324941297256,75.52806425552089,74.95028829806077,0.0
0.11,0.9226376643410663,-0.3263829689036161,0.5660503951404161,0.0,2.98067467915817,2.577266464944724,75.58804102041817,74.95028829806077,0.0
0.111,0.9284674753376124,-0.3386021311830521,0.5296844854681992,0.0,2.9743162624779242,2.57730703017244,75.78581585409766,74.95028829806077,0.0
0.112,0.9278406414055845,-0.3466035993267839,0.4224417930680857,0.0,2.9693557138614923,2.5654019099845584,76.18153143357004,74.95028829806077,0.0
0.113,0.9160559801620621,-0.34796923148894277,0.2122715719768028,0.0,2.963770912944314,2.5334349939552476,76.71135695234476,74.95028829806077,0.0
0.114,0.8853265725240694,-0.34195633756320565,-0.07025187395339438,0.0,2.9548728258624704,2.478392800823485,76.11823631603241,74.95028829806077,0.0
0.115,0.8348131790515226,-0.325186175080384,0.21462896402306386,0.0,2.9395757392417816,2.467376324139028,75.975530554569,74.95028829806077,0.0
0.116,0.8204234636819057,-0.32671820800517015,0.2757294221896833,0.0,2.9250429388612713,2.460881763235443,75.83518080560589,74.95028829806077,0.0
0.117,0.8147772524660137,-0.3322970330136693,0.33705537159579113,0.0,2.9119123128501405,2.460195414317224,75.75021404866621,74.95028829806077,0.0
0.11800000000000001,0.8146806468256116,-0.3400925587742858,0.37153949255957597,0.0,2.9008278341318827,2.4613987960099535,75.76258253175808,74.95028829806077,0.0
0.11900000000000001,0.8160792890933068,-0.3481717827961502,0.35723230867666467,0.0,2.8917829008395244,2.4592999435189764,75.81109456768382,74.95028829806077,0.0
0.12,0.814166510732923,-0.35402296030235286,0.3243682280175645,0.0,2.8839954129127663,2.4532588979565078,75.71829556271808,74.95028829806077,0.0
0.121,0.8082400366207463,-0.35692750692573616,0.3630876578538619,0.0,2.8766435575759486,2.452263770614931,75.61449462582694,74.95028829806077,0.0
0.122,0.8055202926589935,-0.3614799754464135,0.4083460630217739,0.0,2.870399101109695,2.455464107838607,75.64253955551,74.95028829806077,0.0
0.123,0.8061169283678746,-0.3677253866966792,0.3874010856057504,0.0,2.8657405945647563,2.4548706067582535,75.78707025914673,74.95028829806077,0.0
0.124,0.8035014602659369,-0.371843615175816,0.3067679141765246,0.0,2.8618791395864798,2.44550407389669,75.80463172843265,74.95028829806077,0.0
0.125,0.792969950241181,-0.3714937427580243,0.2894437452298444,0.0,2.8573875085691247,2.4367210333753158,76.01974281127139,74.95028829806077,0.0
0.126,0.7824016156879356,-0.37016301963736886,0.17119365867837244,0.0,2.852323855782274,2.416590067673758,75.70419331833158,74.95028829806077,0.0
0.127,0.7626851291570514,-0.364275249907434,0.3214293549455687,0.0,2.8451191242648664,2.4177373908914417,75.8951723914352,74.95028829806077,0.0
0.128,0.7601614435696272,-0.36677417431124326,0.21649097746001467,0.0,2.8390833576026857,2.405084370698842,75.71978490968407,74.95028829806077,0.0
0.129,0.7484285128238195,-0.36425700292252694,0.2964897522193468,0.0,2.8320839874906674,2.4042077103838304,75.73065750815967,74.95028829806077,0.0
0.13,0.7454851319818648,-0.3659585088908003,0.2832497608805574,0.0,2.825909225728746,2.400668834879415,75.64620980878585,74.95028829806077,0.0
0.131,0.7413519187573181,-0.366774826041013,0.3185143954602122,0.0,2.8200708324194164,2.40130310011268,75.61864248150839,74.95028829806077,0.0
0.132,0.7403784588953775,-0.3689124442266226,0.32561451726446944,0.0,2.8151066797932613,2.4017842149969244,75.58004164702311,74.95028829806077,0.0
0.133,0.7394499140008509,-0.3707156143856346,0.33861740101748583,0.0,2.810864026453781,2.403172524464697,75.5500955035431,74.95028829806077,0.0
0.134,0.7390553587942681,-0.37240957808208075,0.3475924007026644,0.0,2.8073527737000448,2.404889074403363,75.51723124163742,74.95028829806077,0.0
0.135,0.7387928902476164,-0.37378584348448884,0.3583551022197411,0.0,2.80449875077285,2.407201917230881,75.48165373160784,74.95028829806077,0.0
0.136,0.7388572880703901,-0.374949839300743,0.370830202899062,0.0,2.8022756913068894,2.4102529990965107,75.44050883869409,74.95028829806077,0.0
