timestamp,iq,id,iq_ref,id_ref,vq,vd,omega,omega_ref,r
0.0,0.0,0.0,0.0,0.0,0.0,0.0,0.0,74.89421877492187,0.0
0.001,0.0,0.0,10.0,0.0,0.0,1.0999999999999999,6.75742862344409,74.89421877492187,0.0
0.002,0.739592881272789,-0.42454349946486863,10.0,0.0,0.1566997849411355,1.9086447830599933,11.993637855170915,74.89421877492187,0.0
0.003,1.4214852091142833,-0.8147909819215523,10.0,0.0,0.4172758577697433,2.5844828390582633,17.827070986124795,74.89421877492187,0.0
0.004,1.9575682162864807,-1.1213679781980719,10.0,0.0,0.7491991236811678,3.166644489229042,23.75486496364722,74.89421877492187,0.0
0.005,2.3631929809096297,-1.3529139646143817,10.0,0.0,1.1285505165615568,3.6845244069370597,29.765124423059373,74.89421877492187,0.0
0.006,2.671494156205698,-1.5282865090543762,10.0,0.0,1.5387302819489446,4.158694590525979,35.86986742972919,74.89421877492187,0.0
0.007,2.9112137657114685,-1.664763664488939,10.0,0.0,1.9685678508098876,4.60317958700207,41.96262373159945,74.89421877492187,0.0
0.008,3.104166094986475,-1.7741541182682068,10.0,0.0,2.410538340793719,5.027372280591453,48.05921339339452,74.89421877492187,0.0
0.009000000000000001,3.2651393187343367,-1.865292751535688,10.0,0.0,2.859662396259736,5.43756522250077,54.202439721848634,74.89421877492187,0.0
0.01,3.40430877392229,-1.943861719517593,10.0,0.0,3.312624540515417,5.837952367932556,60.25932256047815,74.89421877492187,0.0
0.011,3.5287236861182434,-2.013227148074369,9.207315438906873,0.0,3.7671736923501355,6.1441077657368135,65.61928437954873,74.89421877492187,0.0
0.012,3.584833701082141,-2.042238253910189,6.620083873325312,0.0,4.209381036138181,6.183505959817009,69.64584897326213,74.89421877492187,0.0
0.013000000000000001,3.448656747717894,-1.959913694797088,4.6592852744852085,0.0,4.601961652394642,6.088910103671099,72.3362393279034,74.89421877492187,0.0
0.014,3.191620825938328,-1.8051663757700065,3.3396698916347596,0.0,4.929625661909018,5.944394370502388,74.42826497266239,74.89421877492187,0.0
0.015,2.89452837202068,-1.6258100023925777,2.298316607277859,0.0,5.191889969273836,5.775853714864375,74.53747934352627,74.89421877492187,0.0
0.016,2.600647776412833,-1.4382936065331453,2.2472768161598746,0.0,5.392240540527611,5.684548652324926,75.90962956106499,74.89421877492187,0.0
0.017,2.3693187998421203,-1.3165109857676722,1.5510475995290847,0.0,5.551904624076457,5.56884171871329,77.37874285807035,74.89421877492187,0.0
0.018000000000000002,2.1736392443397423,-1.1804119477761106,0.7916457101949179,0.0,5.6702785379378335,5.423311432496803,75.39296152804897,74.89421877492187,0.0
0.019,1.9713941495254272,-1.0601428863904605,1.7795489476743374,0.0,5.750393425418922,5.4407251061787365,78.26370926115155,74.89421877492187,0.0
0.02,1.894070667839573,-1.0102905658112102,0.31048017626075297,0.0,5.819957126870231,5.299415436047596,76.42035494745774,74.89421877492187,0.0
0.021,1.75801074823312,-0.9062178077242937,1.2168959713822987,0.0,5.857484010979528,5.307782884592056,76.93081290970696,74.89421877492187,0.0
0.022,1.7008952990287103,-0.8818953437798847,0.9413010489098379,0.0,5.890460208079325,5.284608777486237,78.1168161086369,74.89421877492187,0.0
0.023,1.6665052889161274,-0.8337227606893848,0.3160734761077184,0.0,5.912765615258049,5.204242363637808,75.61612078679232,74.89421877492187,0.0
0.024,1.591764341938625,-0.7814224863123597,1.559202116911301,0.0,5.919532535983491,5.285017162174911,77.51007368239787,74.89421877492187,0.0
0.025,1.6179276642384028,-0.7959018868000405,0.5860671200337655,0.0,5.935815981287513,5.235289661943533,76.95080396871657,74.89421877492187,0.0
0.026000000000000002,1.5965683469374856,-0.7503122766449803,0.8451361249364697,0.0,5.9403386809160645,5.233003354899864,75.11760505249671,74.89421877492187,0.0
0.027,1.5795133203923954,-0.7416060244131746,1.7595017202706498,0.0,5.943678688233442,5.331049933708102,77.62862470805078,74.89421877492187,0.0
0.028,1.6407567183791043,-0.764838583909965,0.47664783316232806,0.0,5.959131996766874,5.26246094778801,76.37017275127502,74.89421877492187,0.0
0.029,1.6147252366862226,-0.7189734898392908,1.0911142717866755,0.0,5.960903589912208,5.2861719353991115,75.06530892496731,74.89421877492187,0.0
0.03,1.6169861473853566,-0.7180744016502827,1.7418352834400759,0.0,5.965228873744037,5.3726146154654355,77.41724844810122,74.89421877492187,0.0
0.031,1.6762289611518804,-0.7382939294866131,0.5406352251413287,0.0,5.979999036143203,5.305712238971589,76.20954015101134,74.89421877492187,0.0
0.032,1.6529512151278511,-0.6905594091932599,1.131336159925374,0.0,5.981148952142432,5.327119199976583,74.62986335703322,74.89421877492187,0.0
0.033,1.6573033273294495,-0.6852169220020169,1.9238181110933221,0.0,5.9842142442541375,5.427054951959219,76.32411802865293,74.89421877492187,0.0
0.034,1.724623619365378,-0.7140188116663642,1.0623917827461529,0.0,6.000188215087924,5.407260231322956,77.05262730537781,74.89421877492187,0.0
0.035,1.7353270172941109,-0.6857481519962403,0.6765530590791542,0.0,6.009187525314351,5.356710212662001,74.62493054953795,74.89421877492187,0.0
0.036000000000000004,1.7052453105399066,-0.6457755158563441,1.893094319252924,0.0,6.008117619273352,5.453209074467818,74.67171652013627,74.89421877492187,0.0
0.037,1.7593368822655941,-0.6717305808858745,1.871926356501619,0.0,6.02005937353168,5.519206281027204,76.29995122279536,74.89421877492187,0.0
0.038,1.8190151284369196,-0.6873715739193214,1.0437516806933416,0.0,6.0388676316035,5.482886716283495,76.31119386479408,74.89421877492187,0.0
0.039,1.8161830387098583,-0.6495013482462089,1.0239606087952593,0.0,6.0478409726393885,5.459092975002325,74.56745320235673,74.89421877492187,0.0
0.04,1.8015391057161365,-0.6167702562500081,1.899098595739584,0.0,6.050315887580721,5.536621542967758,73.68548047450169,74.89421877492187,0.0
0.041,1.8488984429694015,-0.6333643721600131,2.3521723426713073,0.0,6.062448831494525,5.64237551149603,75.04068433133176,74.89421877492187,0.0
0.042,1.9325091159343621,-0.664213713277201,1.6731057586921718,0.0,6.087171364233567,5.650815735202218,76.03437126125408,74.89421877492187,0.0
0.043000000000000003,1.9611355750079653,-0.6516591025330729,1.1648607688676904,0.0,6.1085761654763004,5.609455103002345,75.79669412579165,74.89421877492187,0.0
0.044,1.944979260890646,-0.6071674920072917,1.2746745830902093,0.0,6.118935892324376,5.593596442753095,74.53321928199689,74.89421877492187,0.0
0.045,1.9348099542523363,-0.5723536714648118,1.910021999916836,0.0,6.123289176308304,5.650106759511322,73.30735747592739,74.89421877492187,0.0
0.046,1.9740904059096298,-0.5736419823290309,2.538821515941532,0.0,6.133348015970151,5.759793302837885,73.32934716485119,74.89421877492187,0.0
0.047,2.0590820326811397,-0.6047743578306145,2.543475387580341,0.0,6.156781304195001,5.844784732089704,73.99549292487862,74.89421877492187,0.0
0.048,2.1379282957524746,-0.6265117696270979,2.219389766067057,0.0,6.188450198065147,5.880101217485847,74.49799674389786,74.89421877492187,0.0
0.049,2.1797882760447114,-0.624068749450779,1.9721000768676777,0.0,6.219997744750531,5.887275798931156,74.89041433502808,74.89421877492187,0.0
0.05,2.194184607177777,-0.6033256336825196,1.7759293257015027,0.0,6.246850682379161,5.876616794542473,75.10339724758916,74.89421877492187,0.0
0.051000000000000004,2.1917545594164545,-0.5718299003020654,1.6673460846942927,0.0,6.266695326291897,5.860137803921466,75.05295113762719,74.89421877492187,0.0
0.052000000000000005,2.1841917443067698,-0.536790275852364,1.690981816048223,0.0,6.279368205395594,5.851784548797292,74.83328866123811,74.89421877492187,0.0
0.053,2.183359556475261,-0.5064148202707593,1.8014223553795983,0.0,6.286947567207022,5.857461921619184,74.55082497182026,74.89421877492187,0.0
0.054,2.1955217412785704,-0.48465517304934436,1.9460881381195405,0.0,6.292246923480958,5.876792161841432,74.25720052066846,74.89421877492187,0.0
0.055,2.221151031002024,-0.4714815803663249,2.0992705462379746,0.0,6.2977178694268074,5.907425120712929,73.96495685205326,74.89421877492187,0.0
0.056,2.25800097174531,-0.4651380674012039,2.2546849997742604,0.0,6.30513896616589,5.947308443515142,73.63723483349709,74.89421877492187,0.0
0.057,2.3034891567001083,-0.4638039990036097,2.431115848466595,0.0,6.3157229731172,5.99716359159424,73.17672466078798,74.89421877492187,0.0
0.058,2.357083325877385,-0.4667120645719758,2.678545875962487,0.0,6.330567322077785,6.063104143338234,72.40153324904976,74.89421877492187,0.0
0.059000000000000004,2.4230534368376437,-0.47441225349843463,3.0910684370903185,0.0,6.351339231442938,6.160117485739131,71.77904498637588,74.89421877492187,0.0
0.06,2.5144466264552694,-0.48799469692006303,3.43346430631272,0.0,6.38115235099878,6.273651455091303,71.97122834250614,74.89421877492187,0.0
0.061,2.621500567549595,-0.5054781788490703,3.366602532571748,0.0,6.42112491411223,6.357172584035914,72.69936043032361,74.89421877492187,0.0
0.062,2.7080346229632433,-0.5121882960142446,3.024485072108995,0.0,6.466015611877676,6.390926346799358,73.63061343681909,74.89421877492187,0.0
0.063,2.7518441034506997,-0.5003759207569005,2.571494622242282,0.0,6.508426153692961,6.375432325882807,74.31864348767219,74.89421877492187,0.0
0.064,2.7506551913631148,-0.46918495705858454,2.2332353496882282,0.0,6.541733356980817,6.333619020891665,73.78321752982752,74.89421877492187,0.0
0.065,2.720914460862957,-0.42994218351149827,2.512058341061505,0.0,6.563523713987582,6.336630479739169,72.2079042161516,74.89421877492187,0.0
0.066,2.7226131946089582,-0.4009757071724833,3.3265781434871675,0.0,6.580642296516601,6.42784450873863,71.50489940159807,74.89421877492187,0.0
0.067,2.8004646987240953,-0.3979560302267524,3.711973744497174,0.0,6.60512792399202,6.537350633062682,73.08460043681448,74.89421877492187,0.0
0.068,2.9055273508188666,-0.41208490915456975,2.94021941027004,0.0,6.639699974603822,6.538829398237514,73.77847183056939,74.89421877492187,0.0
0.069,2.9328114056130907,-0.4036003273808699,2.604441182836113,0.0,6.669888103887539,6.512448810774167,71.80874972522086,74.89421877492187,0.0
0.07,2.9261716268428404,-0.37370289316482697,3.6201569260073847,0.0,6.691215489550523,6.607814825221371,71.53344823350717,74.89421877492187,0.0
0.07100000000000001,3.0081709511726604,-0.36490686252314575,3.791415377278377,0.0,6.719278149063507,6.695371925534271,73.6805950708409,74.89421877492187,0.0
0.07200000000000001,3.094802767975991,-0.3772506740843473,2.729978195652326,0.0,6.75473603223463,6.649799400670533,71.85160648969129,74.89421877492187,0.0
0.073,3.086094339590251,-0.3517254447529117,3.674898609079433,0.0,6.779159661260198,6.728709779193989,71.4823096437365,74.89421877492187,0.0
0.074,3.1576100554257094,-0.33536992367845,3.893666123368683,0.0,6.807488110210676,6.808832892179444,74.51531090138923,74.89421877492187,0.0
0.075,3.21723912814355,-0.37758776676326256,2.3809545732776454,0.0,6.845803543514728,6.709346552267888,72.84789205721842,74.89421877492187,0.0
0.076,3.147780625198166,-0.36726183364482345,3.235127262540085,0.0,6.868780768423344,6.740963227048844,73.35375020025188,74.89421877492187,0.0
0.077,3.151455331134706,-0.3718039143338163,2.997602876770053,0.0,6.893224826526164,6.735947744832762,75.85895467713013,74.89421877492187,0.0
0.078,3.135783250231202,-0.3895436145883502,1.7353532793088466,0.0,6.916628876818203,6.599166680744288,74.87684023602291,74.89421877492187,0.0
0.079,3.0225009896788517,-0.3678550839705179,2.2265842852514433,0.0,6.921451280301686,6.55736636257389,73.97060879500717,74.89421877492187,0.0
0.08,2.9645673722227923,-0.3570570925892296,2.688936105558464,0.0,6.920640517874016,6.571414582057866,75.00097295891568,74.89421877492187,0.0
0.081,2.9611879123288363,-0.37119143387759346,2.172686481764268,0.0,6.922978411093043,6.522358330944021,76.77829603590433,74.89421877492187,0.0
0.082,2.9207344545170435,-0.38068993333981327,1.2651841706601181,0.0,6.921080381406744,6.388194822040307,76.36973169543924,74.89421877492187,0.0
0.083,2.810489157648649,-0.3639853798645998,1.4547112116874898,0.0,6.9040233179218085,6.3089033067597935,75.46530514518346,74.89421877492187,0.0
0.084,2.729801686034376,-0.35420968222509575,1.901213623112763,0.0,6.879834528051721,6.290828400414227,75.12000166155059,74.89421877492187,0.0
0.085,2.7028726805128436,-0.3673510182839914,2.0716075360629134,0.0,6.857800430476959,6.2885757279177,75.08679279040925,74.89421877492187,0.0
0.08600000000000001,2.6997896547599565,-0.3922833059089894,2.08628623147871,0.0,6.840355613688184,6.284325473057191,75.38156369866289,74.89421877492187,0.0
0.08700000000000001,2.7003117548790536,-0.41734261027472885,1.93402732811448,0.0,6.826737453696214,6.2617722344089985,76.07807763494253,74.89421877492187,0.0
0.088,2.687059720608701,-0.43546470235806467,1.5739317713744514,0.0,6.813968622924133,6.203487526189599,77.0710314621426,74.89421877492187,0.0
0.089,2.643283727436174,-0.4412847237893509,1.05568673090221,0.0,6.797107185843926,6.1010312457366584,77.53704880013206,74.89421877492187,0.0
0.09,2.559578824124446,-0.43313821436622124,0.7962497616553801,0.0,6.770731948175591,5.992548612841128,77.38038680003456,74.89421877492187,0.0
0.091,2.4653166321489186,-0.4191777488319892,0.849719081453002,0.0,6.73469178487,5.910284506422714,77.13342689585252,74.89421877492187,0.0
0.092,2.390629163178717,-0.4132919207957775,0.9508069523347129,0.0,6.693521390824486,5.850500766581561,76.91270612003655,74.89421877492187,0.0
0.093,2.3388202335284864,-0.41775042743280677,1.0409824667915544,0.0,6.651038956209847,5.806438896773232,76.77289754847844,74.89421877492187,0.0
0.094,2.3045121675238294,-0.430179432794932,1.0920999648350418,0.0,6.6097211835993,5.770511938088495,76.69445397770342,74.89421877492187,0.0
0.095,2.280009951529478,-0.4468111833985434,1.1133193981947374,0.0,6.57064769489411,5.738221023799643,76.6277940289758,74.89421877492187,0.0
0.096,2.259707626111109,-0.46483310256164334,1.1293136200180074,0.0,6.534068557232459,5.7087872557721955,76.53576835458493,74.89421877492187,0.0
0.097,2.2414567693821703,-0.483190724907423,1.1589109614168107,0.0,6.500043075800633,5.683539287102964,76.41045857280123,74.89421877492187,0.0
0.098,2.2255396730114665,-0.5021527793384681,1.2064034543298665,0.0,6.468797595409024,5.663910139997407,76.25736580149376,74.89421877492187,0.0
0.099,2.212893577711814,-0.5223571823266867,1.2693183697178827,0.0,6.440746612130412,5.6507969748460525,76.07179614143682,74.89421877492187,0.0
0.1,2.2041683833499937,-0.5443438060863443,1.3503274260812042,0.0,6.416405895248207,5.645305185354861,75.8581748046597,74.89421877492187,0.0
0.101,2.199533911286955,-0.5695969558607024,1.4474985341723874,0.0,6.396508051342686,5.648229774434282,75.66825430864806,74.89421877492187,0.0
0.10200000000000001,2.1996363019945804,-0.5980683277457959,1.5347184268409444,0.0,6.381771770145275,5.657436989629367,75.71024424073755,74.89421877492187,0.0
0.10300000000000001,2.2021342342194807,-0.6302081561798052,1.5055632061380413,0.0,6.372680505996007,5.659896833343538,76.60897778525597,74.89421877492187,0.0
0.10400000000000001,2.198293454966839,-0.6593758514051569,1.0390488437754895,0.0,6.367631400823526,5.610624003658548,77.89236014887402,74.89421877492187,0.0
0.105,2.1600480321170217,-0.6592495789643781,0.36737624822694515,0.0,6.357854356279058,5.5007232932590515,77.33030928868526,74.89421877492187,0.0
0.106,2.0727445119347294,-0.6291880673895239,0.6240407731836921,0.0,6.33475944160026,5.445005706137339,76.39992440656891,74.89421877492187,0.0
0.107,2.0103872090632153,-0.6209366747083108,1.0741761579253932,0.0,6.307795221597989,5.445484901445981,76.00725306296766,74.89421877492187,0.0
0.108,1.9935895599729379,-0.6418650606346321,1.2593814868455606,0.0,6.285959979505512,5.460315155928547,76.68484295463291,74.89421877492187,0.0
0.109,1.9964804490645487,-0.6751262591044672,0.9026802992158254,0.0,6.27124073504296,5.429903702534157,77.96787644023281,74.89421877492187,0.0
0.11,1.9772871758068538,-0.6813413282624252,0.23042697976276516,0.0,6.255303315309902,5.332820785718675,76.8155309909247,74.89421877492187,0.0
0.111,1.9050128547470249,-0.6586640672620199,0.7873865822567943,0.0,6.228694696466977,5.319598750664314,76.06300520748532,74.89421877492187,0.0
0.112,1.8749091147600705,-0.6704238998056233,1.1519616096508503,0.0,6.204945090192709,5.342160382407468,76.8598530793378,74.89421877492187,0.0
0.113,1.8798302334430763,-0.703214834054966,0.7338813306804521,0.0,6.189316012162175,5.309613948933197,77.79323467988662,74.89421877492187,0.0
0.114,1.8612600204190812,-0.704635288024866,0.23820037135639094,0.0,6.171823539181463,5.230507082886824,76.36887704554002,74.89421877492187,0.0
0.115,1.7997502866401849,-0.6900266909544287,0.9356326058235123,0.0,6.146548476676737,5.2458163801170805,76.27951094705006,74.89421877492187,0.0
0.116,1.7903912481196866,-0.7145583870006671,0.9664627333472111,0.0,6.128176422681301,5.2538986299562405,77.81782787698532,74.89421877492187,0.0
0.117,1.7938637655352438,-0.733535589780259,0.16806817735894497,0.0,6.114291974414615,5.170728179677079,76.5922756883184,74.89421877492187,0.0
0.11800000000000001,1.737551044491045,-0.7140555235134269,0.7638637025584418,0.0,6.091146346629537,5.174236907420008,76.2229778310598,74.89421877492187,0.0
0.11900000000000001,1.7204043479917441,-0.7316859927546767,0.9352250406263634,0.0,6.072800306676465,5.189295000950097,77.67122771106855,74.89421877492187,0.0
0.12,1.7260261819829834,-0.751158346252454,0.18333001126051673,0.0,6.059760334264051,5.115800745816915,76.50559555392621,74.89421877492187,0.0
0.121,1.6766480127228474,-0.7341238564807469,0.7500323220416432,0.0,6.038606416169696,5.1236959403939215,76.43680966169566,74.89421877492187,0.0
0.122,1.6640301090708998,-0.7517550217153817,0.7689993592891806,0.0,6.022467182416001,5.125999762402321,77.40071414061808,74.89421877492187,0.0
0.123,1.6630132992689837,-0.7619650179025721,0.26198216617101044,0.0,6.009119042166763,5.0704833872607304,76.40712971977932,74.89421877492187,0.0
0.124,1.6217756255744957,-0.752731240550344,0.743645267141815,0.0,5.990436262957672,5.081762924654718,76.74208542011715,74.89421877492187,0.0
0.125,1.6154039736963464,-0.7674780392606535,0.5576887505209474,0.0,5.976464201040543,5.065062887520045,76.7946898361017,74.89421877492187,0.0
0.126,1.6014149653015994,-0.7700699877258792,0.5123818319168758,0.0,5.9623569879457365,5.046986526431531,76.61336397391906,74.89421877492187,0.0
0.127,1.5823616142850083,-0.7724180250783722,0.5858533110182198,0.0,5.948085224675679,5.039797990557453,76.43555729199942,74.89421877492187,0.0
0.128,1.5698986820591785,-0.7777538060098319,0.6593432668072685,0.0,5.935085239674153,5.040430701324231,77.13973207345579,74.89421877492187,0.0
0.129,1.5664954934482975,-0.7819628038640798,0.2848007430937425,0.0,5.92385815620411,4.998015286772742,76.05283369873443,74.89421877492187,0.0
0.13,1.531355895796809,-0.7766994484981011,0.8166637812162958,0.0,5.908891180557124,5.024800388615568,77.21554689323305,74.89421877492187,0.0
0.131,1.5380197741664619,-0.7921019729366232,0.21209390278387308,0.0,5.8998463239010155,4.974504543103444,75.99310578307582,74.89421877492187,0.0
0.132,1.5054280541975205,-0.7755897859030618,0.812325587780951,0.0,5.884706002541229,5.0040567085912055,76.6574428192281,74.89421877492187,0.0
0.133,1.510526964543618,-0.7960281939058587,0.46252482926175076,0.0,5.876448276616838,4.983772427769366,76.4916662283237,74.89421877492187,0.0
0.134,1.5006801155398584,-0.7862931945099481,0.5294386501799326,0.0,5.865712661189128,4.976683472817342,75.89944996613967,74.89421877492187,0.0
0.135,1.4852340104328288,-0.7938130840928831,0.8154944693597668,0.0,5.856266249657067,5.001627456790082,77.26559167152408,74.89421877492187,0.0
0.136,1.4994154093420047,-0.8003045563617173,0.10870988770154066,0.0,5.850897740729229,4.94081112410706,75.33723390408255,74.89421877492187,0.0
0.137,1.4573744944891023,-0.7814206831476018,1.0684586201306967,0.0,5.837842308649629,5.002946094806258,77.10360622377347,74.89421877492187,0.0
0.138,1.4841453216229599,-0.8072136212968655,0.16317858579672273,0.0,5.8353319787764715,4.945018533993292,75.65625099142974,74.89421877492187,0.0
