timestamp,iq,id,iq_ref,id_ref,vq,vd,omega,omega_ref,r
0.0,0.0,0.0,0.0,0.0,0.0,0.0,0.0,71.82830535348533,0.0
0.001,0.0,0.0,10.0,0.0,0.0,1.0999999999999999,11.429508010473892,71.82830535348533,0.0
0.002,0.43494771545853145,-0.2344467564241472,10.0,0.0,0.1357891432066562,1.9421557512995613,20.010738200137226,71.82830535348533,0.0
0.003,0.8407343870986791,-0.46373704842220426,10.0,0.0,0.36509241177814755,2.6733877850640018,29.724860782442025,71.82830535348533,0.0
0.004,1.178257205769913,-0.6480989772680045,10.0,0.0,0.6625754661219917,3.321357298971712,39.63075697044419,71.82830535348533,0.0
0.005,1.4488999706220698,-0.7959177917410504,10.0,0.0,1.0095236167257988,3.9078826909760105,49.75166084924409,71.82830535348533,0.0
0.006,1.6674546286946197,-0.9133587701401671,10.0,0.0,1.3918698109488281,4.449115774100801,60.05174832703461,71.82830535348533,0.0
0.007,1.8463066977304563,-1.0084929879637177,7.09492553558402,0.0,1.7993950482386332,4.637413796236443,66.95625649599738,71.82830535348533,0.0
0.008,1.8706015981879331,-1.0182763304051143,3.691391939677514,0.0,2.1851223895033396,4.50141267062198,70.83869631359143,71.82830535348533,0.0
0.009000000000000001,1.7349409242968818,-0.9377828738215398,1.7600681212794294,0.0,2.5097247704315215,4.2543397307632995,73.06440093977254,71.82830535348533,0.0
0.01,1.530611953241842,-0.8170878753442498,0.6348548523260011,0.0,2.764688104014351,3.981093681659553,74.40279872660355,71.82830535348533,0.0
0.011,1.314746814319973,-0.6899042772550025,-0.06008897482068587,0.0,2.95404725352348,3.7171787580987203,73.77750891914881,71.82830535348533,0.0
0.012,1.1145338409448173,-0.5720752755500362,0.2330638932500464,0.0,3.0863896415189567,3.557652271286178,75.10112477032939,71.82830535348533,0.0
0.013000000000000001,0.9713772379846702,-0.48782931207931574,-0.4614722265086826,0.0,3.1814563760689034,3.3617272666921347,73.71767501759052,71.82830535348533,0.0
0.014,0.8379255825961557,-0.4074346445682707,0.21135895321970022,0.0,3.239422982912943,3.289106343043335,74.66408758074888,71.82830535348533,0.0
0.015,0.7617181679389928,-0.36258715975509764,-0.29020515063211594,0.0,3.280201560053361,3.174692108281238,73.36726867107973,71.82830535348533,0.0
0.016,0.6893955283055659,-0.3168722774697107,0.3428146710265181,0.0,3.3008806938002646,3.1576383923434665,74.1244573397572,71.82830535348533,0.0
0.017,0.658458285619915,-0.29825427718341035,-0.058741183174936484,0.0,3.316195711370063,3.0965364894945027,73.02919545917132,71.82830535348533,0.0
0.018000000000000002,0.6241974756942068,-0.27401868122186346,0.47688085606114394,0.0,3.3213893013450777,3.1094695782103696,73.72667426417331,71.82830535348533,0.0
0.019,0.6179147802324044,-0.2696514109690281,0.10915776445326775,0.0,3.327118797425981,3.0761714449844666,72.77319396493343,71.82830535348533,0.0
0.02,0.6031332227017483,-0.2559761644763622,0.5764490279587295,0.0,3.32748492616454,3.1034184889646768,73.46606223666086,71.82830535348533,0.0
0.021,0.6083225087834873,-0.2582699511352474,0.21363732326325713,0.0,3.3309282154246667,3.082676604224868,72.60722360030155,71.82830535348533,0.0
0.022,0.6022137443044401,-0.24880408977726187,0.6352674589747493,0.0,3.3308888046688327,3.115084525813785,73.27523601679431,71.82830535348533,0.0
0.023,0.6116474983163942,-0.2535097199042109,0.28679194409528086,0.0,3.3347064050750195,3.100600305588263,72.50798541267109,71.82830535348533,0.0
0.024,0.60933992808462,-0.2454789370566932,0.663620445565033,0.0,3.335763381003538,3.1332303280019964,73.11381517788043,71.82830535348533,0.0
0.025,0.6196147082478972,-0.2505110652230121,0.3478504647164141,0.0,3.3406115035073487,3.123046761338882,72.44115718457644,71.82830535348533,0.0
0.026000000000000002,0.6193112316477468,-0.24294780918451503,0.6780509430574959,0.0,3.3430741776485684,3.1539822462461164,72.96866482850284,71.82830535348533,0.0
0.027,0.629213392295731,-0.247540007959697,0.4028935263441217,0.0,3.3489649072920447,3.1474088570175867,72.38840633682705,71.82830535348533,0.0
0.028,0.6303047165894944,-0.24017105856389856,0.6874217623486008,0.0,3.35275271862703,3.1761105357380495,72.8329673416024,71.82830535348533,0.0
0.029,0.6395412051479623,-0.2440850232502528,0.4550946400797542,0.0,3.3595361423100214,3.172914461411853,72.33698941542409,71.82830535348533,0.0
0.03,0.6418555923632655,-0.2369038883434041,0.6979967625495229,0.0,3.3644925517054762,3.199596623872842,72.70715400586124,71.82830535348533,0.0
0.031,0.6505539726804952,-0.2401388965042467,0.5041259808071858,0.0,3.372049198654245,3.199417725848179,72.2999121131855,71.82830535348533,0.0
0.032,0.6541025527993259,-0.23294446822409956,0.7030308595480553,0.0,3.3780085539132467,3.223527266789877,72.54024772145578,71.82830535348533,0.0
0.033,0.6619166510453142,-0.2356598286454535,0.575743631733208,0.0,3.3861535616696687,3.2290070803103967,72.36673859274609,71.82830535348533,0.0
0.034,0.6677462939198267,-0.22898431894566787,0.6571138636954486,0.0,3.393270590331311,3.244413891314763,72.22333915751143,71.82830535348533,0.0
0.035,0.6726416785081492,-0.2298110270380138,0.7248632432725156,0.0,3.401374290214381,3.265150257642742,72.55342844275003,71.82830535348533,0.0
0.036000000000000004,0.6832726689354773,-0.22684196148103228,0.5525673697605686,0.0,3.410406392449751,3.263872862343023,71.7625416298212,71.82830535348533,0.0
0.037,0.6845104286079644,-0.22165400594932474,0.9486684134616261,0.0,3.4178665604786937,3.3088906466793473,72.70303859986835,71.82830535348533,0.0
0.038,0.7013150561473637,-0.22678912569761242,0.4696725959742212,0.0,3.429699232866002,3.2916659875916996,71.85728704380864,71.82830535348533,0.0
0.039,0.7004419777923786,-0.21490517808457235,0.8922585571008431,0.0,3.4372675866708997,3.328885560444792,72.22007252431999,71.82830535348533,0.0
0.04,0.7118950630613825,-0.21989175003519726,0.7069481451368222,0.0,3.448468424771315,3.3372614363026174,72.27284656247109,71.82830535348533,0.0
0.041,0.7203875839494001,-0.2127775515167894,0.676115713971415,0.0,3.4585543390909397,3.343561698631154,71.6773884870453,71.82830535348533,0.0
0.042,0.7232636339245206,-0.20961064488042613,0.9753539203487063,0.0,3.4679844704666403,3.383233612883572,72.43072448552425,71.82830535348533,0.0
0.043000000000000003,0.7394768209264941,-0.21208021140370262,0.5926617297888443,0.0,3.480742101513936,3.373038135752496,71.68292427662917,71.82830535348533,0.0
0.044,0.7412089694199556,-0.20126950067610827,0.9680156450049491,0.0,3.4899905478981275,3.410225417554366,71.89266005215902,71.82830535348533,0.0
0.045,0.7536433637713986,-0.20586526874041441,0.862504210253287,0.0,3.5026465194184357,3.427908556945899,72.1781253133961,71.82830535348533,0.0
0.046,0.7658086029261406,-0.20097979529078497,0.7162733800356402,0.0,3.5152218479657638,3.428844870210379,71.36076213584877,71.82830535348533,0.0
0.047,0.7690352033706147,-0.1942570862060659,1.1296304009856664,0.0,3.5259426317199853,3.477643391952478,72.01436995634295,71.82830535348533,0.0
0.048,0.7877033592418201,-0.19986702761881334,0.8009658447100038,0.0,3.5411555099192435,3.4803262373545794,71.97713969662466,71.82830535348533,0.0
0.049,0.7955330930843009,-0.19134637349487707,0.8180926311377531,0.0,3.554122013471025,3.4887580889422445,71.32371722419434,71.82830535348533,0.0
0.05,0.7997131841879677,-0.18706976753393303,1.1498497486458237,0.0,3.5662498317119304,3.533583908104951,71.9371574498283,71.82830535348533,0.0
0.051000000000000004,0.8182288966344535,-0.1903788572895745,0.8420411148654113,0.0,3.582054215977747,3.5359684788264754,71.77575799153651,71.82830535348533,0.0
0.052000000000000005,0.8256754265252901,-0.181822499197956,0.923266317630798,0.0,3.595542328601498,3.551073928380899,71.24604869960251,71.82830535348533,0.0
0.053,0.8325543896969467,-0.1789085595384528,1.193943530136625,0.0,3.608957205136689,3.5942976649402674,71.83247983630784,71.82830535348533,0.0
0.054,0.8516110235009491,-0.18132254542241905,0.9006862169557356,0.0,3.625647645518129,3.597547998835541,71.69470050914158,71.82830535348533,0.0
0.055,0.8595529678539,-0.17278419542041212,0.9709119289823016,0.0,3.640030716891891,3.612116697293375,71.09995685377295,71.82830535348533,0.0
0.056,0.8668864540189162,-0.16898820788703328,1.2755672416637411,0.0,3.654100175845408,3.658749396282873,71.64804966102488,71.82830535348533,0.0
0.057,0.8871543516290802,-0.17255356546378142,1.0033233949623792,0.0,3.6718561080113004,3.6669762611293404,71.78301421097613,71.82830535348533,0.0
0.058,0.8975807191261964,-0.16498750101856935,0.9362940314118466,0.0,3.6877912127805086,3.670561019735625,71.01889430351498,71.82830535348533,0.0
0.059000000000000004,0.9027124383822827,-0.15648150105598468,1.3264480956421254,0.0,3.7016312835819933,3.7185078282158397,71.17677294458191,71.82830535348533,0.0
0.06,0.9219345976935781,-0.16158056925497422,1.254024099197695,0.0,3.7195279856528662,3.7491126623453104,71.70219956138091,71.82830535348533,0.0
0.061,0.9403269808920975,-0.1605284918335067,0.9925718487192415,0.0,3.7385287817312465,3.74858023512201,71.46935031124997,71.82830535348533,0.0
0.062,0.946809312197641,-0.1502016361990275,1.112586024207065,0.0,3.75445082213388,3.765288079425698,70.81611719627587,71.82830535348533,0.0
0.063,0.9556799757030973,-0.14528979044576823,1.4493244632662097,0.0,3.7700144084501064,3.816847480208365,71.1701244704705,71.82830535348533,0.0
0.064,0.9783450124078443,-0.15025019221426028,1.2789026349990436,0.0,3.789772338865043,3.840289066641938,71.587318340325,71.82830535348533,0.0
0.065,0.9949513231945719,-0.14730300154638998,1.0727155702033966,0.0,3.8095248398906927,3.840785884809308,71.3932876310955,71.82830535348533,0.0
0.066,1.0017009691576306,-0.13664459051140604,1.1740811020420419,0.0,3.826208819323345,3.855843952464644,70.74387413206044,71.82830535348533,0.0
0.067,1.0108338554274228,-0.1303754868648292,1.5096321637738224,0.0,3.8421471902874917,3.9060244517397744,70.77040940312233,71.82830535348533,0.0
0.068,1.0332799072993872,-0.13504685457221555,1.5069434877465082,0.0,3.8620863155670158,3.9467517363602647,71.24130831689315,71.82830535348533,0.0
0.069,1.0566144930956194,-0.13650416872259696,1.2773640012270178,0.0,3.884217847660104,3.957831004370923,71.45336644706238,71.82830535348533,0.0
0.07,1.0686966262090132,-0.1296992280037711,1.1750843252066345,0.0,3.9044810367243747,3.959964840508264,71.22978106690697,71.82830535348533,0.0
0.07100000000000001,1.0753165699483571,-0.1186391156180413,1.2928622581501246,0.0,3.9217827275407102,3.977282608842094,70.57976954349989,71.82830535348533,0.0
0.07200000000000001,1.0860381758572302,-0.11233339554174987,1.6303533779535155,0.0,3.938502998024261,4.029431836060529,70.43242067125833,71.82830535348533,0.0
0.073,1.1104378674235709,-0.1169539259477278,1.7179866608965684,0.0,3.9593374797267202,4.081726167517971,71.35326798869583,71.82830535348533,0.0
0.074,1.1377770891035057,-0.12342889782672711,1.2623133758257103,0.0,3.9839839880073074,4.077110802343557,72.3690117588871,71.82830535348533,0.0
0.075,1.138511393137599,-0.12477972611535298,0.7490344266760607,0.0,4.005788150335354,4.023710291731939,72.66659947101854,71.82830535348533,0.0
0.076,1.1145633822995964,-0.11377591005547832,0.591857629435006,0.0,4.018847917319961,3.968315214441791,72.46842017354922,71.82830535348533,0.0
0.077,1.0836897174240347,-0.10358160654185966,0.6845461299690287,0.0,4.024050864651194,3.9346897476382043,72.39799634767482,71.82830535348533,0.0
0.078,1.0611883192858143,-0.09951042237724039,0.7140611329643337,0.0,4.025025083345972,3.9094333047186893,72.54241449807668,71.82830535348533,0.0
0.079,1.044163206741177,-0.1006411867057092,0.6347109663174895,0.0,4.023541331797101,3.8794240079980282,72.8988408611776,71.82830535348533,0.0
0.08,1.0274816545258236,-0.10167385485066283,0.44579242969010546,0.0,4.019307311583709,3.833944448050242,73.20586610776586,71.82830535348533,0.0
0.081,1.0065769187028613,-0.09742642346258534,0.27850419885317357,0.0,4.010471193262739,3.778209627468481,72.94994332905958,71.82830535348533,0.0
0.082,0.9802456095296525,-0.09236229308957106,0.3952492084505702,0.0,3.9964306246885406,3.7443669071277044,72.74728323388825,71.82830535348533,0.0
0.083,0.9619350167130072,-0.0929712004672616,0.4873894772322035,0.0,3.98052746205296,3.723223233551691,72.7788046207485,71.82830535348533,0.0
0.084,0.9506674165685112,-0.09842741413503481,0.4621237911294477,0.0,3.964694342753014,3.699959312998328,72.92157477605801,71.82830535348533,0.0
0.085,0.9409361978517418,-0.10328498951401205,0.37980601924896773,0.0,3.9485979144827366,3.6695939325818823,73.04686588405777,71.82830535348533,0.0
0.08600000000000001,0.9290041415823855,-0.10595160014859434,0.3049748599433648,0.0,3.9313193424138566,3.634462411577703,72.94447601801505,71.82830535348533,0.0
0.08700000000000001,0.9145462758729472,-0.10756699008839665,0.34500808631942437,0.0,3.9124065022384795,3.607739196626823,72.83318149762923,71.82830535348533,0.0
0.088,0.9026201236954322,-0.11162753410314497,0.3906065850708984,0.0,3.8931431305277746,3.587579819834824,72.8563592650506,71.82830535348533,0.0
0.089,0.8940394014176954,-0.11745779658857125,0.3687371622445592,0.0,3.8743908817421913,3.5654730399813177,72.89766392002439,71.82830535348533,0.0
0.09,0.8856921843385734,-0.12250534063157198,0.3373912490922758,0.0,3.8558001070696912,3.5413047436720455,72.87532729801744,71.82830535348533,0.0
0.091,0.8763288970796009,-0.12704753714280892,0.33808934065042806,0.0,3.83710074640932,3.5190309381570644,72.84392091734243,71.82830535348533,0.0
0.092,0.867320954052299,-0.13194878495434587,0.3436363753493613,0.0,3.8185376565576443,3.498615010889258,72.84073981266651,71.82830535348533,0.0
0.093,0.8590768736572669,-0.13715143209915492,0.3351025830955081,0.0,3.80031256167217,3.478206949281333,72.84894926186443,71.82830535348533,0.0
0.094,0.8509371056646572,-0.1421901129082908,0.3207914194127569,0.0,3.7823713985320064,3.4573412279383247,72.84622358173549,71.82830535348533,0.0
0.095,0.8425096549052845,-0.14695582645953237,0.31197507719472883,0.0,3.7646116212541036,3.436786898312051,72.83584557908992,71.82830535348533,0.0
0.096,0.834015037692438,-0.15162109404621993,0.3070886762614662,0.0,3.7470379110403864,3.4169128166259535,72.82745494603014,71.82830535348533,0.0
0.097,0.8256680611317233,-0.15628669833082165,0.30129249686590587,0.0,3.7297007274748726,3.397513277612468,72.82174876589384,71.82830535348533,0.0
0.098,0.8174691694996177,-0.1608600557163654,0.2942111528099711,0.0,3.7126137216341224,3.378417396405504,72.81317892306791,71.82830535348533,0.0
0.099,0.8093277634632015,-0.16531884508116151,0.2886473385271129,0.0,3.695770561513023,3.359794762352291,72.80241971564278,71.82830535348533,0.0
0.1,0.8012720199785301,-0.16973158858089515,0.28428579861810044,0.0,3.6791902678900392,3.341730662168079,72.79440830840132,71.82830535348533,0.0
0.101,0.793370956544221,-0.1740777016314088,0.2786304726896751,0.0,3.6628955386114876,3.3240250317298794,72.78526649351438,71.82830535348533,0.0
0.10200000000000001,0.7855433392252906,-0.17833534139383067,0.27363176873285,0.0,3.6468845984603346,3.3067492145024175,72.7764573278278,71.82830535348533,0.0
0.10300000000000001,0.777804483205908,-0.1825066135538515,0.2685548318327182,0.0,3.6311634341415284,3.289864406952083,72.76778807651174,71.82830535348533,0.0
0.10400000000000001,0.7701459296741586,-0.18657916711059047,0.26349463026048625,0.0,3.6157321736692105,3.2733551632492546,72.75888142970959,71.82830535348533,0.0
0.105,0.7625585788893863,-0.19055233701890062,0.25864219289931656,0.0,3.600589438028187,3.2572285748264793,72.7500133846276,71.82830535348533,0.0
0.106,0.7550501260239895,-0.19441964997363892,0.25385913512889213,0.0,3.5857339898349285,3.24147281600809,72.74082490614626,71.82830535348533,0.0
0.107,0.7476165358265152,-0.1981841778025749,0.2493281788429501,0.0,3.571163935510791,3.226099124031533,72.73156945263261,71.82830535348533,0.0
0.108,0.7402698553935125,-0.20183899894694896,0.24492326460830027,0.0,3.556877902469004,3.211100363762921,72.72197774692272,71.82830535348533,0.0
0.109,0.7330069926654127,-0.2053918197992226,0.24078239352887376,0.0,3.542874858786841,3.1964868776363624,72.7122958136775,71.82830535348533,0.0
0.11,0.7258433396838684,-0.20883005927733017,0.23678345554956137,0.0,3.5291534489943075,3.1822513344880012,72.7022829495546,71.82830535348533,0.0
0.111,0.7187711745838297,-0.2121697035415331,0.2330501116503183,0.0,3.5157136043404718,3.1684028278572893,72.69218102935824,71.82830535348533,0.0
0.112,0.7118122041089697,-0.21538522439829988,0.22946231498977043,0.0,3.5025532043405523,3.1549326283318315,72.68159959125158,71.82830535348533,0.0
0.113,0.7049482418752491,-0.21851016103435164,0.22622009166543544,0.0,3.489673412209475,3.141858088300815,72.6697586883881,71.82830535348533,0.0
0.114,0.6982198978931816,-0.22149185376839964,0.22372600974814927,0.0,3.4770708821227894,3.1292325744978258,72.6596578362523,71.82830535348533,0.0
0.115,0.6916032478827788,-0.22443411616071707,0.2204629109883831,0.0,3.4647598856002877,3.1169359070833886,72.64708207388423,71.82830535348533,0.0
0.116,0.6851446927375403,-0.2271546719112969,0.2185630249684234,0.0,3.452720160497233,3.1051057248494205,72.63581070114046,71.82830535348533,0.0
0.117,0.6787576655095511,-0.22992655846327548,0.2161236578637611,0.0,3.4409790916442984,3.0936432442508544,72.62684062609381,71.82830535348533,0.0
0.11800000000000001,0.6726122680588253,-0.232373803255172,0.21262334266100025,0.0,3.4295073596783903,3.0824043872728977,72.606798619015,71.82830535348533,0.0
0.11900000000000001,0.6664023450587935,-0.2349126072514992,0.21485941354511062,0.0,3.4183137112029547,3.0720448513009195,72.60467580567688,71.82830535348533,0.0
0.12,0.6606459744871799,-0.23719091212944474,0.2081571156922546,0.0,3.4074286994744742,3.061413392138818,72.57508539675617,71.82830535348533,0.0
0.121,0.6547007368546668,-0.23942422807296365,0.2154845197199019,0.0,3.39679192470764,3.052226027575509,72.57562630035272,71.82830535348533,0.0
0.122,0.6493321009789934,-0.2416340866952277,0.20774085845294876,0.0,3.386520842250172,3.0424997427822045,72.55661180289975,71.82830535348533,0.0
0.123,0.6438005815190065,-0.24360057239991795,0.20996504268529026,0.0,3.3764984544004144,3.0335958558825533,72.54705256239289,71.82830535348533,0.0
0.124,0.6385209902851936,-0.24552040840667586,0.20755719084964475,0.0,3.3667794337493633,3.0248184531847664,72.53011184442413,71.82830535348533,0.0
0.125,0.6333150577276726,-0.24728082043621727,0.20900948492463944,0.0,3.3573290218568195,3.0166505762272475,72.51081686046543,71.82830535348533,0.0
0.126,0.6283451055752485,-0.2489524558135701,0.21183186183418923,0.0,3.3481731392289937,3.0091450197067178,72.49646830656003,71.82830535348533,0.0
0.127,0.623663299518981,-0.2505718259744274,0.21232450925613866,0.0,3.339343703575817,3.001965697167444,72.48077882106257,71.82830535348533,0.0
0.128,0.619110168750102,-0.25213422723770484,0.21364451732909684,0.0,3.330834949671382,2.995215664054599,72.444377325584,71.82830535348533,0.0
0.129,0.6147767567451297,-0.25350887282749524,0.2256845453473959,0.0,3.3226376548483523,2.9900321058767365,72.41603003430934,71.82830535348533,0.0
0.13,0.6111030340539141,-0.254971934597405,0.23398094417648385,0.0,3.314888924028631,2.985700153001359,72.37325993724325,71.82830535348533,0.0
0.131,0.6078608218895099,-0.256469695729771,0.24991644687195302,0.0,3.307631994110203,2.9830163697509287,72.36544710417864,71.82830535348533,0.0
0.132,0.60529872221744,-0.2581560784898209,0.2484514458973225,0.0,3.3010029033508594,2.9798041755418194,72.33318080821024,71.82830535348533,0.0
0.133,0.602607964858348,-0.25955635925079085,0.2595358393342724,0.0,3.2948526693026445,2.9777545872782767,72.30696088483475,71.82830535348533,0.0
0.134,0.6002698522384912,-0.26096753617751345,0.2678592457085246,0.0,3.289253726487226,2.976329950017657,72.28286871567191,71.82830535348533,0.0
0.135,0.5981822578828304,-0.2623326225668901,0.2753596966680796,0.0,3.2842082619608512,2.9754359519962907,72.28744140407649,71.82830535348533,0.0
