timestamp,iq,id,iq_ref,id_ref,vq,vd,omega,omega_ref,r
0.0,0.0,0.0,0.0,0.0,0.0,0.0,0.0,206.79450710808828,0.0
0.001,0.0,0.0,10.0,0.0,0.0,1.0999999999999999,2.166439871861624,206.79450710808828,0.0
0.002,0.5535499995656735,-0.3275073344013941,10.0,0.0,0.14602580678415336,1.9291095000477756,5.758684462317768,206.79450710808828,0.0
0.003,1.274483607372215,-0.7516999757023354,10.0,0.0,0.40374610009375866,2.6161434339061262,10.202434955025689,206.79450710808828,0.0
0.004,1.9958325693004635,-1.1741594507934525,10.0,0.0,0.746626373305252,3.1881069539755607,15.068213244457809,206.79450710808828,0.0
0.005,2.634330722631175,-1.5466284937529067,10.0,0.0,1.1491619711771677,3.6741408421121062,19.998589026980756,206.79450710808828,0.0
0.006,3.1598406985224265,-1.8523860554729057,10.0,0.0,1.589956039435152,4.100403785407456,24.973078624501586,206.79450710808828,0.0
0.007,3.5729025964346484,-2.092416645290294,10.0,0.0,2.0526427844595854,4.487938132187638,29.903531489675565,206.79450710808828,0.0
0.008,3.88926780683536,-2.2761841871148216,10.0,0.0,2.5256284133621194,4.85231816462729,34.757456443612654,206.79450710808828,0.0
0.009000000000000001,4.129983020535831,-2.416099955047829,10.0,0.0,3.001306541672749,5.204243735310184,39.536548275129135,206.79450710808828,0.0
0.01,4.3158023066063524,-2.5242559962624225,10.0,0.0,3.4751074210748807,5.550511592425102,44.03272365391026,206.79450710808828,0.0
0.011,4.464154643239761,-2.6113744821884337,10.0,0.0,3.9446564712880057,5.895072187599767,48.612394221084976,206.79450710808828,0.0
0.012,4.589146576615826,-2.6846899451102604,10.0,0.0,4.408900192059427,6.239866038973248,53.18562167389321,206.79450710808828,0.0
0.013000000000000001,4.700721975381106,-2.749627938295388,10.0,0.0,4.867608950512199,6.585581502756102,57.69714691518722,206.79450710808828,0.0
0.014,4.805481409603575,-2.8097705374081507,10.0,0.0,5.320984685468533,6.93218851222913,62.115790805785835,206.79450710808828,0.0
0.015,4.9074753517767675,-2.86723211632406,10.0,0.0,5.769402895566156,7.279300654953661,66.53910641553126,206.79450710808828,0.0
0.016,5.009212170975094,-2.9226117409590286,10.0,0.0,6.21320764184716,7.626372293725417,70.84027670574599,206.79450710808828,0.0
0.017,5.111668906052591,-2.976382899730373,10.0,0.0,6.652700108595738,7.972864370581557,75.02615819063838,206.79450710808828,0.0
0.018000000000000002,5.215261099529888,-3.0283291367064775,10.0,0.0,7.088068910834726,8.318285912495215,78.99359276030111,206.79450710808828,0.0
0.019,5.31981246237067,-3.078365016679076,10.0,0.0,7.5194274714684095,8.662237452463689,82.93636082270291,206.79450710808828,0.0
0.02,5.4256716580583815,-3.1251465985647773,10.0,0.0,7.946690945243272,9.004330696601443,86.79497492085217,206.79450710808828,0.0
0.021,5.532824283315543,-3.1678832523994487,10.0,0.0,8.369670612157382,9.344212766881501,90.53178157212945,206.79450710808828,0.0
0.022,5.6413060084549755,-3.2058070298050474,10.0,0.0,8.788084768384353,9.681543133312196,94.12235074197282,206.79450710808828,0.0
0.023,5.751251005618315,-3.2381610046327407,10.0,0.0,9.201570245088687,10.01597274628595,97.54913558280013,206.79450710808828,0.0
0.024,5.8628847974285225,-3.264226326157343,10.0,0.0,9.609693781039395,10.34712767850527,100.62402773743267,206.79450710808828,0.0
0.025,5.9763824796272695,-3.2835469787241314,10.0,0.0,10.011985075184063,10.67461106397397,103.85145167831824,206.79450710808828,0.0
0.026000000000000002,6.092555111009124,-3.2947475437484846,10.0,0.0,10.407834434088144,10.997931227680244,106.75117054061012,206.79450710808828,0.0
0.027,6.2116374702364565,-3.2975307517829737,10.0,0.0,10.796625020705996,11.316566977705115,109.6049564753228,206.79450710808828,0.0
0.028,6.334254361796628,-3.2910374511837484,10.0,0.0,11.177658028518286,11.629921176909937,112.58036128825853,206.79450710808828,0.0
0.029,6.460752051495067,-3.2749342332166327,10.0,0.0,11.550216734499443,11.93735468002428,115.75297180728487,206.79450710808828,0.0
0.03,6.591360727369821,-3.2491228902945144,10.0,0.0,11.91358470465216,12.23819872597607,119.30123999150875,206.79450710808828,0.0
0.031,6.726013688484657,-3.2140251632325563,10.0,0.0,12.267097645837188,12.53178942538406,123.10340825877707,206.79450710808828,0.0
0.032,6.864803047844745,-3.169824426302501,10.0,0.0,12.610107259052821,12.8174520490513,127.18951258271181,206.79450710808828,0.0
0.033,7.007901737527564,-3.116571945535118,10.0,0.0,12.941966407798509,13.09449640940187,131.71856187518543,206.79450710808828,0.0
0.034,7.153502954975163,-3.0575799534309276,10.0,0.0,13.262387483380895,13.362437101569531,136.23410872331937,206.79450710808828,0.0
0.035,7.300029134188661,-2.995834386903423,10.0,0.0,13.571358428224825,13.620963964539675,140.02485404703478,206.79450710808828,0.0
0.036000000000000004,7.448886349515988,-2.9294291666871386,10.0,0.0,13.86859784632286,13.869626203803314,142.48508558568554,206.79450710808828,0.0
0.037,7.599995227624424,-2.8588272678302804,10.0,0.0,14.153877389865363,14.108012756511744,142.5966284446553,206.79450710808828,0.0
0.038,7.755446474597114,-2.7808931607320386,10.0,0.0,14.426600901532229,14.335500059917669,139.04768529314424,206.79450710808828,0.0
0.039,7.920565886404674,-2.6870342848517135,10.0,0.0,14.685255657097137,14.550902361320583,138.88096396696116,206.79450710808828,0.0
0.04,8.110476590753791,-2.552170896419533,10.0,0.0,14.925688783277113,14.75139092477936,145.38876613610407,206.79450710808828,0.0
0.041,8.289199429470425,-2.434986120781236,10.0,0.0,15.150585761749076,14.938113539294928,147.25319081732243,206.79450710808828,0.0
0.042,8.451651605631398,-2.3448005092851063,10.0,0.0,15.362916734317213,15.1125710792156,139.40397949695333,206.79450710808828,0.0
0.043000000000000003,8.63614624378833,-2.2187394911460165,10.0,0.0,15.558495507740265,15.272146073965352,144.09657410130959,206.79450710808828,0.0
0.044,8.842483801854964,-2.055611000387742,10.0,0.0,15.73379037949396,15.414469261576683,146.92269829399552,206.79450710808828,0.0
0.045,9.007185699462031,-1.9599624936940168,10.0,0.0,15.896898032004701,15.544035784446134,138.47569119789716,206.79450710808828,0.0
0.046,9.206567547803525,-1.806474978855531,10.0,0.0,16.040724429986014,15.656671435938225,147.24924376218723,206.79450710808828,0.0
0.047,9.39764534033615,-1.6644103762685871,10.0,0.0,16.167339522182225,15.753401423384059,138.0623538428695,206.79450710808828,0.0
0.048,9.573781386388521,-1.5451031404425,10.0,0.0,16.279262953988393,15.835655734164499,144.6965085624734,206.79450710808828,0.0
0.049,9.77541671767693,-1.3805198068851872,10.0,0.0,16.37130837935895,15.900458431066308,136.0277181531586,206.79450710808828,0.0
0.05,9.945418975096548,-1.265087806269411,10.0,0.0,16.449577845150472,15.95130150581172,143.2845359380673,206.79450710808828,0.0
0.051000000000000004,10.135185700113533,-1.1127224791819446,10.0,0.0,16.50949880586392,15.98571290248407,135.81441194907936,206.79450710808828,0.0
0.052000000000000005,10.308842632516757,-0.9823799423855517,10.0,0.0,16.55405478439652,16.005470660246353,143.39223573142164,206.79450710808828,0.0
0.053,10.361531387799568,-1.050665761996468,10.0,0.0,16.60494580637726,16.02364904632858,141.26727741426345,206.79450710808828,0.0
0.054,10.420705469707721,-1.0959700163168824,10.0,0.0,16.656866174547286,16.039116434543605,146.86130615758185,206.79450710808828,0.0
0.055,10.407398754793828,-1.2517387838474576,10.0,0.0,16.721822766606966,16.060284600213723,144.4464316781579,206.79450710808828,0.0
0.056,10.42423202853148,-1.3426245036958049,10.0,0.0,16.790840257535713,16.083846881262527,153.6625284105838,206.79450710808828,0.0
0.057,10.3868928320312,-1.5152321714121726,10.0,0.0,16.87339021372677,16.11623032765172,147.03598072933048,206.79450710808828,0.0
0.058,10.362410578912566,-1.6567158783118954,10.0,0.0,16.964760650019453,16.15595008089916,157.1064686803606,206.79450710808828,0.0
0.059000000000000004,10.338535979594152,-1.78933343673069,10.0,0.0,17.06413911236468,16.203216285844956,159.29323669567535,206.79450710808828,0.0
0.06,10.27230559381127,-1.991324333156979,10.0,0.0,17.179199171992664,16.26274031297363,154.88287314153592,206.79450710808828,0.0
0.061,10.235728351617094,-2.138331217292957,10.0,0.0,17.30285647666142,16.331179136135763,162.7011558209649,206.79450710808828,0.0
0.062,10.200830293021287,-2.278952986358699,10.0,0.0,17.434990258935386,16.408612821472165,171.34622749739674,206.79450710808828,0.0
0.063,10.133994530591325,-2.474267441025424,10.0,0.0,17.581732403838267,16.498519469783652,170.6020509573569,206.79450710808828,0.0
0.064,10.062899828201807,-2.6768914191149284,10.0,0.0,17.743126492125192,16.601261727392824,168.1322815499979,206.79450710808828,0.0
0.065,10.006856443338144,-2.8518009807116207,10.0,0.0,17.915869209339085,16.71532299338088,170.69443987314202,206.79450710808828,0.0
0.066,9.95947808413321,-3.0090785887124465,10.0,0.0,18.09829522269452,16.839903590155433,177.01637079852196,206.79450710808828,0.0
0.067,9.903332408301857,-3.1794167556828272,10.0,0.0,18.2921011166786,16.97597096933747,183.63274637745744,206.79450710808828,0.0
0.068,9.837733848254025,-3.364234922755376,10.0,0.0,18.498759775890747,17.124466584846655,189.21112551659894,206.79450710808828,0.0
0.069,9.767558831595858,-3.5545681259699755,10.0,0.0,18.71869060141548,17.285841770958065,193.87791066905618,206.79450710808828,0.0
0.07,9.69514964303608,-3.7455672957039114,10.0,0.0,18.951872439637473,17.460335781585794,197.7104543728946,206.79450710808828,0.0
0.07100000000000001,9.6222554099882,-3.933393711373124,10.0,0.0,19.19793640912631,17.64799284872262,200.8150444102389,206.79450710808828,0.0
0.07200000000000001,9.549872694602204,-4.115629854477572,10.0,0.0,19.456327399964742,17.84872376245663,203.0487167412866,206.79450710808828,0.0
0.073,9.477674543674121,-4.292368681650058,9.015854328968919,0.0,19.726571292650657,17.954182629535882,204.74680100205197,206.79450710808828,0.0
0.074,9.348687504872679,-4.436359509125982,8.187289259646597,0.0,19.994408285526532,18.008285891019543,206.7151149393359,206.79450710808828,0.0
0.075,9.156736141300836,-4.541100475636182,7.203926212692153,0.0,20.250953503304558,18.003703020775554,209.82874898493904,206.79450710808828,0.0
0.076,8.89967749065311,-4.597788548602837,5.6167667711220775,0.0,20.48657419064161,17.886835989166123,211.42723136376736,206.79450710808828,0.0
0.077,8.557880361150817,-4.578106997252734,4.771198339151126,0.0,20.684214254705836,17.76310389408902,213.03725361004626,206.79450710808828,0.0
0.078,8.171511189652012,-4.509016844726855,3.903759750992095,0.0,20.84231400159157,17.623629092118104,215.4991322372289,206.79450710808828,0.0
0.079,7.766752826486503,-4.39789373786353,2.5857741861093677,0.0,20.959123653361953,17.418267447010567,218.91872380725698,206.79450710808828,0.0
0.08,7.338221980369956,-4.232094447864445,0.7547362341036425,0.0,21.02658948461326,17.09997942196018,221.4435101420463,206.79450710808828,0.0
0.081,6.8664561935135655,-3.9853197174725365,-0.6541469636306001,0.0,21.029992702791294,16.731208938402297,221.17110468476162,206.79450710808828,0.0
0.082,6.3681550165780205,-3.6757398135328665,-0.6617102107549879,0.0,20.96459250866628,16.463008171406003,218.85404320449683,206.79450710808828,0.0
0.083,5.927132034556413,-3.366688163201931,0.37622516841331866,0.0,20.848012374757133,16.37286550212962,216.10064266960967,206.79450710808828,0.0
0.084,5.630981561798821,-3.114340442753694,1.659864080241686,0.0,20.709408254565275,16.439066335082515,213.29451994587356,206.79450710808828,0.0
0.085,5.514373329736799,-2.943044012674978,2.997925313731889,0.0,20.57496549958371,16.629002420085826,210.9985494170447,206.79450710808828,0.0
0.08600000000000001,5.575895169553275,-2.8521376432535934,4.103870155056755,0.0,20.46467389226507,16.88684045660105,209.3847783387506,206.79450710808828,0.0
0.08700000000000001,5.781236826570333,-2.8210755291722593,4.884852981897177,0.0,20.388687480475067,17.16074182739836,208.40681586564455,206.79450710808828,0.0
0.088,6.080092787967603,-2.8208559255609456,5.3577111308746455,0.0,20.347976311687386,17.413038248872546,207.68180995328734,206.79450710808828,0.0
0.089,6.420952378642322,-2.8249560983379833,5.711341058601256,0.0,20.33701911696747,17.635698626520437,206.93468095707215,206.79450710808828,0.0
0.09,6.77019974618453,-2.8149626857385845,6.0835038182190155,0.0,20.34828340237062,17.837390236689345,205.91683202061105,206.79450710808828,0.0
0.091,7.11350075816821,-2.7838200601506173,6.601205037324334,0.0,20.37526466556168,18.038993983244307,202.95313524961009,206.79450710808828,0.0
0.092,7.454225820031736,-2.734807356695998,8.1214671414096,0.0,20.414628205965002,18.351140554036043,197.2782730922983,206.79450710808828,0.0
0.093,7.857292008106921,-2.6906038269963304,10.0,0.0,20.476897788174742,18.786514785123394,191.65754765062454,206.79450710808828,0.0
0.094,8.373993567937562,-2.6539539846700553,10.0,0.0,20.572888387913352,19.112986713036477,193.7201194751503,206.79450710808828,0.0
0.095,8.900210204633023,-2.5881685356960484,10.0,0.0,20.685057219505527,19.3636936936939,200.58360117376665,206.79450710808828,0.0
0.096,9.370893651944815,-2.5202742408117493,9.584358097339207,0.0,20.804269348056692,19.508313237314777,198.91540721513806,206.79450710808828,0.0
0.097,9.747412405619215,-2.4392056521045484,10.0,0.0,20.91778361630588,19.663558839316913,187.11419751568357,206.79450710808828,0.0
0.098,10.125272856299004,-2.2780581588753908,10.0,0.0,21.01855547956223,19.77267542687911,191.2363703668834,206.79450710808828,0.0
0.099,10.490350548288072,-2.055340177675947,10.0,0.0,21.09727431224952,19.84457760039873,193.26442892075946,206.79450710808828,0.0
0.1,10.770023766555026,-1.9055070719334508,10.0,0.0,21.161057017200367,19.89004816274563,180.1511528049496,206.79450710808828,0.0
0.101,11.076048962364732,-1.6628162181545392,10.0,0.0,21.19781084503255,19.906483899996537,189.90370887669033,206.79450710808828,0.0
0.10200000000000001,11.343847671286555,-1.4456955133137095,10.0,0.0,21.211076494811916,19.898553840282265,174.90477775834168,206.79450710808828,0.0
0.10300000000000001,11.595927933698816,-1.2295719486501322,10.0,0.0,21.20062018857733,19.86769250974122,184.40546542585136,206.79450710808828,0.0
0.10400000000000001,11.842909901295593,-1.0045792784534804,10.0,0.0,21.165535421837095,19.814224467819304,169.21807944977297,206.79450710808828,0.0
0.105,12.08424932880694,-0.7757319218790909,10.0,0.0,21.10568904505748,19.738517236065285,179.3941447015671,206.79450710808828,0.0
0.106,12.156993229965376,-0.8213525771198034,10.0,0.0,21.05156332842265,19.65880765495638,178.7205579672251,206.79450710808828,0.0
0.107,12.204380301496165,-0.889549773902785,10.0,0.0,21.001924710434135,19.577171321438076,183.44106157238934,206.79450710808828,0.0
0.108,12.13980042931726,-1.1253719521393208,10.0,0.0,20.974344788530818,19.506312416127745,180.43155470546952,206.79450710808828,0.0
0.109,12.110435129781859,-1.27794418357244,10.0,0.0,20.95686169196209,19.44236579338522,192.76840777030384,206.79450710808828,0.0
0.11,12.006819038014303,-1.5365214763044845,10.0,0.0,20.961650022662173,19.394169640359156,184.1937769792941,206.79450710808828,0.0
0.111,11.903791154572,-1.7774963707639555,10.0,0.0,20.98506137045286,19.36156884196668,191.39711132699614,206.79450710808828,0.0
0.112,11.817737728086467,-1.9737572487347215,10.0,0.0,21.022050451257417,19.3430048562715,201.80164188172316,206.79450710808828,0.0
0.113,11.678438592877935,-2.252092101495118,9.937072049182829,0.0,21.082138450435945,19.33753647324451,198.0243373104816,206.79450710808828,0.0
0.114,11.532993599583438,-2.526956890279119,10.0,0.0,21.163122589632547,19.360781040446422,195.39541882941361,206.79450710808828,0.0
0.115,11.41533646540235,-2.752681486099677,10.0,0.0,21.26041382928211,19.400658120166604,201.51453167189752,206.79450710808828,0.0
0.116,11.298761467542999,-2.9729421778523184,10.0,0.0,21.373935083073317,19.457923294302443,211.0934387505139,206.79450710808828,0.0
0.117,11.164811902712618,-3.220735983760817,5.3937203838063095,0.0,21.5068854406314,19.027692020775277,217.89841082323633,206.79450710808828,0.0
0.11800000000000001,10.754401290162445,-3.3556123773605315,1.880195310293618,0.0,21.59587610031784,18.35715962016438,219.36939003269595,206.79450710808828,0.0
0.11900000000000001,10.065828982523723,-3.343409001833791,1.018956876317735,0.0,21.6062233187306,17.774617396295753,218.81976842721406,206.79450710808828,0.0
0.12,9.279041436190987,-3.2547617921693655,1.1735150658674218,0.0,21.547652433607404,17.35663880886571,218.1818949959046,206.79450710808828,0.0
0.121,8.537377652202041,-3.1627071051844555,1.378577902643988,0.0,21.44390123478184,17.069327462591723,217.99183874099435,206.79450710808828,0.0
0.122,7.904147457313039,-3.1031050722813136,1.3616327137700504,0.0,21.31615834446193,16.858696215516595,217.9265241888922,206.79450710808828,0.0
0.123,7.385536605190312,-3.0795619592400647,1.2829698190130943,0.0,21.178132896360978,16.698585229367055,217.78459424054617,206.79450710808828,0.0
0.124,6.968381877578848,-3.0849083124878556,1.244033921861524,0.0,21.03872242444286,16.57788738879932,217.62916034533393,206.79450710808828,0.0
0.125,6.636750657926424,-3.1099688481850363,1.213404337095188,0.0,20.903886411053975,16.48464627662941,216.85998362052777,206.79450710808828,0.0
0.126,6.373755225681695,-3.1440219466269976,1.4973379343738724,0.0,20.776705123258644,16.44439785123632,214.94572447168215,206.79450710808828,0.0
0.127,6.17940607760821,-3.190560492648859,2.372955335160741,0.0,20.66299583078152,16.5076831696824,213.0939583036622,206.79450710808828,0.0
0.128,6.078304305599659,-3.2644233281155275,3.235843907214983,0.0,20.574645525837827,16.648608299394482,212.26049953676062,206.79450710808828,0.0
0.129,6.073579092741518,-3.358206355824291,3.5979133663790464,0.0,20.51880026905301,16.79731339612279,210.83147928123464,206.79450710808828,0.0
0.13,6.126153067977534,-3.4530669756209136,4.272053772410575,0.0,20.492906885520043,16.990267818167066,208.75948296201753,206.79450710808828,0.0
0.131,6.2286647479100345,-3.5524720697519223,5.288402173479835,0.0,20.498884236701247,17.25564383467072,207.47761976813038,206.79450710808828,0.0
0.132,6.390718972131328,-3.6658113601178774,5.922502643822988,0.0,20.542274725413638,17.537866704504154,207.4493891238727,206.79450710808828,0.0
0.133,6.593977171901045,-3.7740008128784694,5.930069145793989,0.0,20.620315899138145,17.769959787006403,207.7392876727233,206.79450710808828,0.0
0.134,6.795139101098067,-3.8461625181678976,5.775672065722338,0.0,20.720618156794654,17.949493104589315,208.9103682621732,206.79450710808828,0.0
0.135,6.9715098179458135,-3.8629294681204973,5.168973159456539,0.0,20.829966267885702,18.038521247729793,209.3208918260135,206.79450710808828,0.0
0.136,7.092220260536804,-3.8085308386863357,4.93844753035713,0.0,20.9311308634444,18.09877611601051,208.8886785684109,206.79450710808828,0.0
0.137,7.174155360693243,-3.6952151453751014,5.133612444555202,0.0,21.01628374630541,18.179089597280516,207.67895220519006,206.79450710808828,0.0
0.138,7.25488271471133,-3.5465757479622644,5.729631175194611,0.0,21.08573551222502,18.31543677199754,205.9900513609424,206.79450710808828,0.0
0.139,7.3762505026367595,-3.3872901671422273,6.582126154789897,0.0,21.14584179910829,18.5203654831523,204.36839836434103,206.79450710808828,0.0
0.14,7.568757928968206,-3.235545596054229,7.417213740528054,0.0,21.20533128140724,18.774184497497956,203.44920592855283,206.79450710808828,0.0
0.14100000000000001,7.838438082310021,-3.096946283614835,7.910262970217511,0.0,21.270525238253395,19.02671535544311,204.99220343627118,206.79450710808828,0.0
0.14200000000000002,8.159846650937913,-2.964232525784334,7.156787253076505,0.0,21.3412403649725,19.140041561080306,208.64310909450765,206.79450710808828,0.0
0.14300000000000002,8.442692192061376,-2.8051466413971546,5.312848404094078,0.0,21.400044289879116,19.025909218771734,210.4618191698923,206.79450710808828,0.0
0.14400000000000002,8.58402275003423,-2.5928877332807163,4.366820245783716,0.0,21.419796967015287,18.83072888829459,202.4084120103449,206.79450710808828,0.0
