timestamp,iq,id,iq_ref,id_ref,vq,vd,omega,omega_ref,r
0.0,0.0,0.0,0.0,0.0,0.0,0.0,0.0,441.35927973127883,0.0
0.001,0.0,0.0,10.0,0.0,0.0,1.0999999999999999,5.054295302696037,441.35927973127883,0.0
0.002,0.5407857510329,-0.3082404175083586,10.0,0.0,0.14390644592591945,1.9305135673863805,10.265731760809535,441.35927973127883,0.0
0.003,1.2263987547579709,-0.692514936065831,10.0,0.0,0.39566139686412344,2.6223568497272867,15.588242504133506,441.35927973127883,0.0
0.004,1.8959331623609728,-1.0672194101561048,10.0,0.0,0.7287999279069526,3.203398644128843,21.074908820833933,441.35927973127883,0.0
0.005,2.478260394993289,-1.3916301084050113,10.0,0.0,1.1186669173521322,3.7022894606810017,26.64957579880579,441.35927973127883,0.0
0.006,2.95287893794076,-1.6539870128406526,10.0,0.0,1.5450514420134407,4.143893127124563,32.238234018917105,441.35927973127883,0.0
0.007,3.3256317583738224,-1.8578012451775936,10.0,0.0,1.9927538773656819,4.54771825457174,37.808380793394974,441.35927973127883,0.0
0.008,3.61374992295037,-2.0130762791583883,10.0,0.0,2.451110693341935,4.92796564291033,43.32408396837158,441.35927973127883,0.0
0.009000000000000001,3.837185179787318,-2.131439748395167,10.0,0.0,2.9131237978306586,5.294327277406389,48.84591160995211,441.35927973127883,0.0
0.01,4.014571174832105,-2.2230115342451655,10.0,0.0,3.3744610170712477,5.65297595201516,54.34784222604505,441.35927973127883,0.0
0.011,4.160885995014444,-2.2963059090224154,10.0,0.0,3.832676045215653,6.0075727108175,59.73413411075555,441.35927973127883,0.0
0.012,4.2870469256470916,-2.3581710491909624,10.0,0.0,4.286601468096619,6.3601167423862774,65.08901203110267,441.35927973127883,0.0
0.013000000000000001,4.401243032109341,-2.4124089885086484,10.0,0.0,4.735736273769627,6.711498950681756,70.37302696185394,441.35927973127883,0.0
0.014,4.508635155423568,-2.461835921831512,10.0,0.0,5.17999040297722,7.061985246215045,75.58294389661476,441.35927973127883,0.0
0.015,4.612466682045367,-2.5080007810008773,10.0,0.0,5.619451613992783,7.411500778420507,80.71411335889913,441.35927973127883,0.0
0.016,4.714658924876574,-2.551580456216749,10.0,0.0,6.05425037280939,7.759808047061765,85.75899034848017,441.35927973127883,0.0
0.017,4.816276024797059,-2.5927008999153975,10.0,0.0,6.484487434663153,8.106608506157617,90.7078695327679,441.35927973127883,0.0
0.018000000000000002,4.917877279185595,-2.6311511884693086,10.0,0.0,6.910199163545071,8.451592658545724,95.54823436962852,441.35927973127883,0.0
0.019,5.019752787681614,-2.6665398419595916,10.0,0.0,7.331346383775996,8.794459275192537,100.4401794517529,441.35927973127883,0.0
0.02,5.122908431906297,-2.696984961137409,10.0,0.0,7.747660620223169,9.134825586418003,105.08246056115325,441.35927973127883,0.0
0.021,5.2264933710730945,-2.723658098519435,10.0,0.0,8.159009658068417,9.472423903299545,109.59734123707206,441.35927973127883,0.0
0.022,5.331017535802945,-2.745509327835631,10.0,0.0,8.56512052766825,9.806935483548836,113.9615479056405,441.35927973127883,0.0
0.023,5.436843255286162,-2.7618256347345067,10.0,0.0,8.96564774979875,10.13801140523733,118.16707593227802,441.35927973127883,0.0
0.024,5.544353805458226,-2.771976059200668,10.0,0.0,9.360183225507337,10.465264553645929,122.00580635384321,441.35927973127883,0.0
0.025,5.653156350375489,-2.7767442654038117,10.0,0.0,9.748413466923607,10.788352760345347,125.8962648555342,441.35927973127883,0.0
0.026000000000000002,5.765519061981422,-2.772594602970421,10.0,0.0,10.12962535993849,11.106683297688972,129.58788103961655,441.35927973127883,0.0
0.027,5.880956219067606,-2.7606077925022126,10.0,0.0,10.503272064859077,11.419727510436305,132.96780259214893,441.35927973127883,0.0
0.028,5.999155745053232,-2.7416797711657246,10.0,0.0,10.868896306320009,11.726984396113398,136.18303141755263,441.35927973127883,0.0
0.029,6.121562051586267,-2.7138696346189453,10.0,0.0,11.22581397739577,12.027795318910101,139.16020285119257,441.35927973127883,0.0
0.03,6.248312147260866,-2.6773852152644353,10.0,0.0,11.573385788880103,12.321498469075834,141.87312390593843,441.35927973127883,0.0
0.031,6.379645960668568,-2.6322966527938094,10.0,0.0,11.910975836554353,12.607409266855331,144.76772452935927,441.35927973127883,0.0
0.032,6.516957356159169,-2.5767665465640994,10.0,0.0,12.237740533178563,12.884697074254408,146.89702552003058,441.35927973127883,0.0
0.033,6.658562998203511,-2.513981694867045,10.0,0.0,12.55320650825588,13.15272906390603,149.0991807770476,441.35927973127883,0.0
0.034,6.805728093598446,-2.4423203288099424,10.0,0.0,12.85667418304132,13.41073234802722,150.94118672926558,441.35927973127883,0.0
0.035,6.9582231456467385,-2.3625090206190826,10.0,0.0,13.14753278851991,13.657979266443474,152.71343365168036,441.35927973127883,0.0
0.036000000000000004,7.115523269083813,-2.2757022856084235,10.0,0.0,13.425279597522996,13.893809290508369,154.121049727562,441.35927973127883,0.0
0.037,7.277893441779984,-2.181720952996795,10.0,0.0,13.689364848795101,14.117543275304868,155.3593136947327,441.35927973127883,0.0
0.038,7.444749299939815,-2.081671029932633,10.0,0.0,13.9393492952087,14.328581944078316,156.31743704118998,441.35927973127883,0.0
0.039,7.6161529285146505,-1.9755235421385078,10.0,0.0,14.17476343943157,14.52632935005414,157.03003788581293,441.35927973127883,0.0
0.04,7.791521853643797,-1.8641958848196167,10.0,0.0,14.395226342402601,14.710266884376212,157.3594531087863,441.35927973127883,0.0
0.041,7.972092117173053,-1.7454780970568016,10.0,0.0,14.60009102842801,14.879747915826247,158.31746517986275,441.35927973127883,0.0
0.042,8.153369533495425,-1.6265340571232958,10.0,0.0,14.78952068248083,15.034632499573657,158.90821364147737,441.35927973127883,0.0
0.043000000000000003,8.334250096240464,-1.5090456039446578,10.0,0.0,14.963761540052793,15.174887502612878,158.79413335791926,441.35927973127883,0.0
0.044,8.514776559175125,-1.3926598828282089,10.0,0.0,15.122976267380459,15.300491985810012,157.98742622732777,441.35927973127883,0.0
0.045,8.696558191394129,-1.274259779854713,10.0,0.0,15.266969816179149,15.411266778505453,157.00190918274626,441.35927973127883,0.0
0.046,8.87608321860731,-1.159149600220922,10.0,0.0,15.396163370637533,15.50743351013996,153.74013889402548,441.35927973127883,0.0
0.047,9.0642628940417,-1.0282870093673573,10.0,0.0,15.50881045961598,15.587998410031203,157.55023146533247,441.35927973127883,0.0
0.048,9.231140510811354,-0.9316027196035659,10.0,0.0,15.608922683720218,15.655296787740845,160.37245319127638,441.35927973127883,0.0
0.049,9.305640410850748,-0.9849301731532805,10.0,0.0,15.712586385973104,15.719350337253314,161.965460960735,441.35927973127883,0.0
0.05,9.350796874577238,-1.0774649689394113,10.0,0.0,15.821934625952927,15.783142690030305,164.63029614682728,441.35927973127883,0.0
0.051000000000000004,9.38456082491571,-1.1764038983978136,10.0,0.0,15.936685211495032,15.848228161627613,168.8971111386581,441.35927973127883,0.0
0.052000000000000005,9.39905133982159,-1.2952665255197036,10.0,0.0,16.05855478533148,15.917023827483133,173.30843365529353,441.35927973127883,0.0
0.053,9.395618946962706,-1.4335468449357904,10.0,0.0,16.18913917723438,15.991649352500286,176.79824056595604,441.35927973127883,0.0
0.054,9.380529904421683,-1.5823978250199464,10.0,0.0,16.329118487063813,16.073496234956945,181.3951602831431,441.35927973127883,0.0
0.055,9.360666600229784,-1.7313077268434345,10.0,0.0,16.478176133555696,16.163190433186564,184.70276071827905,441.35927973127883,0.0
0.056,9.330493383050262,-1.8912309687828648,10.0,0.0,16.637399892816465,16.26194139709025,188.11092413913417,441.35927973127883,0.0
0.057,9.294960208205506,-2.0546115248037036,10.0,0.0,16.806949001284423,16.370346557590768,191.24651593067188,441.35927973127883,0.0
0.058,9.258795015168591,-2.213463270306815,10.0,0.0,16.98622360140077,16.488488952373643,195.29944735039547,441.35927973127883,0.0
0.059000000000000004,9.218019450061504,-2.3748646217586216,10.0,0.0,17.17555061218844,16.61686822792128,199.7499000358468,441.35927973127883,0.0
0.06,9.170761729788925,-2.542172799754604,10.0,0.0,17.375572735517142,16.75613287057182,204.15629232153566,441.35927973127883,0.0
0.061,9.118010977754398,-2.713466822584159,10.0,0.0,17.586688371509315,16.906803266811263,209.11157182918188,441.35927973127883,0.0
0.062,9.060479246693987,-2.8870147521919303,10.0,0.0,17.809136815554787,17.069319169922277,214.1052930990664,441.35927973127883,0.0
0.063,8.998646482148649,-3.0613773995956084,10.0,0.0,18.043036417425125,17.24405461391611,219.24002652013502,441.35927973127883,0.0
0.064,8.933327594719211,-3.2344958068328253,10.0,0.0,18.288319001829883,17.431273223669386,224.4309732378529,441.35927973127883,0.0
0.065,8.865303638113453,-3.4044095468555957,10.0,0.0,18.544754516099623,17.631127677240155,229.99341231677528,441.35927973127883,0.0
0.066,8.79631205824653,-3.5675529592892667,10.0,0.0,18.811778562266937,17.843549071100117,235.2987414274916,441.35927973127883,0.0
0.067,8.726976741649667,-3.722541503195867,10.0,0.0,19.088759648908905,18.068367699217802,240.5490651987578,441.35927973127883,0.0
0.068,8.659511771328035,-3.8654776807428926,10.0,0.0,19.374697583789555,18.30513036675732,245.8443263619665,441.35927973127883,0.0
0.069,8.596462448725182,-3.992187369099361,10.0,0.0,19.668226695879834,18.553071336814057,250.2886138464678,441.35927973127883,0.0
0.07,8.536849517147417,-4.105085411283882,10.0,0.0,19.96834868152349,18.811498050321667,254.73355931933617,441.35927973127883,0.0
0.07100000000000001,8.486349748906198,-4.195640445539613,10.0,0.0,20.273133213299822,19.079053136233643,258.91158019463796,441.35927973127883,0.0
0.07200000000000001,8.448093085260197,-4.260075266243662,10.0,0.0,20.58037708042461,19.3540344020507,262.63080681499576,441.35927973127883,0.0
0.073,8.425034142538978,-4.295541829170506,10.0,0.0,20.887651661133535,19.634395845061405,265.79106300113233,441.35927973127883,0.0
0.074,8.420509209418817,-4.299141027313216,10.0,0.0,21.192276174239073,19.917715755057937,268.35221738050797,441.35927973127883,0.0
0.075,8.437580777680992,-4.268935532518555,10.0,0.0,21.491411630624867,20.20124300352533,270.2834254668414,441.35927973127883,0.0
0.076,8.479135961330478,-4.203666568948861,10.0,0.0,21.782108735174102,20.48193071826574,271.55598767011355,441.35927973127883,0.0
0.077,8.547672118235782,-4.102936740021245,10.0,0.0,22.061377309196114,20.75649594656395,272.1457872539836,441.35927973127883,0.0
0.078,8.645064019286469,-3.9673883665953618,10.0,0.0,22.326272525858183,21.021503761888013,272.04194678837706,441.35927973127883,0.0
0.079,8.772418990696895,-3.798713815561407,10.0,0.0,22.573980285506963,21.27346518950123,271.2485472374382,441.35927973127883,0.0
0.08,8.929991294352016,-3.5995646600447087,10.0,0.0,22.80189375035569,21.50894184663005,269.80285015733403,441.35927973127883,0.0
0.081,9.117221171325017,-3.373275233648701,10.0,0.0,23.007663189084038,21.72464262110039,267.7197759065984,441.35927973127883,0.0
0.082,9.332600794063774,-3.123913677400624,10.0,0.0,23.189258884463253,21.917530802264988,264.9893198051827,441.35927973127883,0.0
0.083,9.573870152556577,-2.855859032452264,10.0,0.0,23.34499143303917,22.084903901644235,262.2080906403848,441.35927973127883,0.0
0.084,9.838698315698274,-2.5726207747459533,10.0,0.0,23.473412374797213,22.224394541582473,257.34684901697466,441.35927973127883,0.0
0.085,10.124098125006226,-2.277784703295807,10.0,0.0,23.57334070109082,22.334032514310252,255.19701536462577,441.35927973127883,0.0
0.08600000000000001,10.426053304607146,-1.975798892234252,10.0,0.0,23.64396991352557,22.412338450731585,253.4006074889727,441.35927973127883,0.0
0.08700000000000001,10.731239575931024,-1.685764651943388,10.0,0.0,23.686482890037595,22.459325776704638,249.4170817916982,441.35927973127883,0.0
0.088,11.036182728232738,-1.4108288409238434,10.0,0.0,23.702100704686487,22.475373783691644,243.32420736543378,441.35927973127883,0.0
0.089,11.34789815951614,-1.1359132955637041,10.0,0.0,23.690270186689766,22.460139505526683,236.91781480888153,441.35927973127883,0.0
0.09,11.664260097409846,-0.8597798857044598,10.0,0.0,23.650473773045324,22.413562944523072,231.4005388826767,441.35927973127883,0.0
0.091,11.978370316827096,-0.5893591264327351,10.0,0.0,23.58301439524365,22.336275893498403,238.47733320401647,441.35927973127883,0.0
0.092,12.157449784898837,-0.5431043640801254,10.0,0.0,23.51218843385361,22.243413970502342,240.62954291647222,441.35927973127883,0.0
0.093,12.192797377738854,-0.7118243377747845,10.0,0.0,23.458180621032906,22.150658203135173,244.1617942495606,441.35927973127883,0.0
0.094,12.167244142176006,-0.9484420601624027,10.0,0.0,23.42463876248325,22.064941563062977,248.55240828476377,441.35927973127883,0.0
0.095,12.096647532875615,-1.2222837773592659,10.0,0.0,23.413635837449117,21.99195249581044,253.43012415590124,441.35927973127883,0.0
0.096,11.990704512591467,-1.5182502221705259,10.0,0.0,23.426252189950418,21.93610980891801,258.4517300794942,441.35927973127883,0.0
0.097,11.85893492775161,-1.8239253758822305,10.0,0.0,23.46268724097251,21.90054825009448,263.7520097125816,441.35927973127883,0.0
0.098,11.707051455238386,-2.1340182043245823,10.0,0.0,23.522976090601592,21.887575838383583,269.29202987916926,441.35927973127883,0.0
0.099,11.53964737793357,-2.444835062143012,10.0,0.0,23.60702774017227,21.89882516658507,275.0413028033128,441.35927973127883,0.0
0.1,11.360272041346425,-2.7536273550306944,10.0,0.0,23.714658141245497,21.935411973175025,280.94729313013266,441.35927973127883,0.0
0.101,11.171905254582283,-3.0576495604673704,10.0,0.0,23.84553870253956,21.998029732391483,286.9340245804378,441.35927973127883,0.0
0.10200000000000001,10.977313428959032,-3.353653671474546,10.0,0.0,23.999113213782273,22.08699520476662,292.8869546494006,441.35927973127883,0.0
0.10300000000000001,10.779352057161395,-3.637618783490834,10.0,0.0,24.174502942349953,22.20225141367002,298.62608119370645,441.35927973127883,0.0
0.10400000000000001,10.581167081325667,-3.904736882540059,10.0,0.0,24.37042265872646,22.34334170816381,303.7361299440023,441.35927973127883,0.0
0.105,10.38606165000163,-4.1500224250565765,10.0,0.0,24.58516966160102,22.50939469253315,308.0205238351619,441.35927973127883,0.0
0.106,10.196583967759608,-4.370346124500394,10.0,0.0,24.81683001413871,22.699208569486395,312.58573060724063,441.35927973127883,0.0
0.107,10.014775690943102,-4.56433362356421,10.0,0.0,25.06344110702053,22.911311227625482,317.1217467738837,441.35927973127883,0.0
0.108,9.8523742046761,-4.714843433009607,10.0,0.0,25.32121756047645,23.142910809960053,321.3345667995033,441.35927973127883,0.0
0.109,9.716095991419314,-4.814270800371337,10.0,0.0,25.585808239135552,23.39049466800233,324.6113974695083,441.35927973127883,0.0
0.11,9.612242406360526,-4.857292371574754,10.0,0.0,25.852436334891742,23.649840320330178,327.03306356863897,441.35927973127883,0.0
0.111,9.548342947158478,-4.83772213406363,10.0,0.0,26.115753244466834,23.915904621662513,328.2612727704209,441.35927973127883,0.0
0.112,9.526667979095285,-4.759345379383406,10.0,0.0,26.370919152577947,24.183439435714046,328.45578999818287,441.35927973127883,0.0
0.113,9.553425535118006,-4.61996523148248,10.0,0.0,26.612773902560793,24.446577278328405,327.5896706520935,441.35927973127883,0.0
0.114,9.631463788944577,-4.422725586518262,10.0,0.0,26.836454402339744,24.69927017931892,325.7106916477012,441.35927973127883,0.0
0.115,9.762222324739735,-4.172400523515771,10.0,0.0,27.037472781759217,24.93545878378908,322.8845536476142,441.35927973127883,0.0
0.116,9.94505808942668,-3.8758742396777084,10.0,0.0,27.2118935430916,25.14932601699656,319.203485229343,441.35927973127883,0.0
0.117,10.177375191878989,-3.5414489738745627,10.0,0.0,27.356437435211514,25.33552207939364,314.77571885972225,441.35927973127883,0.0
0.11800000000000001,10.454778577007204,-3.17827643027816,10.0,0.0,27.46854181722158,25.489361723423425,309.69892829595955,441.35927973127883,0.0
0.11900000000000001,10.771427736909374,-2.79566961333756,10.0,0.0,27.546364701006112,25.606970467513282,304.00056660713545,441.35927973127883,0.0
0.12,11.12063181608926,-2.4022181901079485,10.0,0.0,27.588712582435328,25.685354668461844,297.7110553632104,441.35927973127883,0.0
0.121,11.495025802425161,-2.005749922794511,10.0,0.0,27.59498710064429,25.722443939753312,290.84018943747867,441.35927973127883,0.0
0.122,11.889605293560964,-1.6086811109627632,10.0,0.0,27.564630207533153,25.71679193157496,283.6617687377259,441.35927973127883,0.0
0.123,12.29393628306455,-1.2210360423318392,10.0,0.0,27.49807353348421,25.66813882096929,276.42177671174124,441.35927973127883,0.0
0.124,12.700567613326278,-0.8477557971669523,10.0,0.0,27.39612283949776,25.577009217585537,268.9101758824804,441.35927973127883,0.0
0.125,13.102463063435069,-0.49286523941001104,10.0,0.0,27.259949095669967,25.444655318932156,269.60610330541857,441.35927973127883,0.0
0.126,13.390830843096122,-0.33173295386078916,10.0,0.0,27.109981690526773,25.284217934499715,277.03512765150094,441.35927973127883,0.0
0.127,13.447431859700348,-0.5273007688642002,10.0,0.0,26.982091069960525,25.121485113966347,281.6193786164878,441.35927973127883,0.0
0.128,13.411529821354627,-0.829594249904595,10.0,0.0,26.882012834161966,24.966751747813753,286.90865115907883,441.35927973127883,0.0
0.129,13.306923561484252,-1.1902637389093798,10.0,0.0,26.813119794308133,24.82863156289885,292.55202144480114,441.35927973127883,0.0
0.13,13.151357527635056,-1.579191583713265,10.0,0.0,26.77647940798657,24.71350029361477,298.39861790842775,441.35927973127883,0.0
0.131,12.957868379460246,-1.9785128456913914,10.0,0.0,26.772025993738303,24.625946258587675,304.56541337041966,441.35927973127883,0.0
0.132,12.734746122380587,-2.380179237559733,10.0,0.0,26.799452607897894,24.56931084243547,310.96221940413375,441.35927973127883,0.0
0.133,12.488847447553917,-2.778648956707956,10.0,0.0,26.858288024213945,24.545899260974593,317.462084205672,441.35927973127883,0.0
0.134,12.226372541357707,-3.1685808849840815,10.0,0.0,26.947806555671164,24.557125632224718,323.98449975587937,441.35927973127883,0.0
0.135,11.95296421960153,-3.5444086931529997,10.0,0.0,27.06693761072352,24.603631385826777,330.42040560827525,441.35927973127883,0.0
0.136,11.674243717523396,-3.8996325254297606,10.0,0.0,27.21412247909959,24.68532484158489,336.6229488469013,441.35927973127883,0.0
0.137,11.396279732542373,-4.226484684536805,10.0,0.0,27.38715970539287,24.801356271931937,341.7543681391538,441.35927973127883,0.0
0.138,11.124844951925814,-4.517826624921664,10.0,0.0,27.58327544394279,24.950166467891602,346.52721020219224,441.35927973127883,0.0
0.139,10.867926313437492,-4.763619118251249,10.0,0.0,27.7987843830961,25.129253920537863,351.0125257735353,441.35927973127883,0.0
0.14,10.628516750016615,-4.963674295453645,10.0,0.0,28.030199318157663,25.335749387426226,354.6260943736854,441.35927973127883,0.0
0.14100000000000001,10.424212138878202,-5.094578886578848,10.0,0.0,28.271521259653646,25.56481621272294,357.89886215086125,441.35927973127883,0.0
0.14200000000000002,10.261756162402742,-5.1528846359346545,10.0,0.0,28.516722276047606,25.810935660940494,360.2041765446294,441.35927973127883,0.0
0.14300000000000002,10.152754916359196,-5.128996280230054,10.0,0.0,28.75880435900285,26.06732884327572,361.0225708273815,441.35927973127883,0.0
0.14400000000000002,10.104320649903325,-5.022075286680262,10.0,0.0,28.99079512616266,26.32652867252265,360.53412661204504,441.35927973127883,0.0
0.145,10.120914148676407,-4.8365205874967465,10.0,0.0,29.206164992556495,26.580697968031274,358.91133594989475,441.35927973127883,0.0
0.146,10.206337395382675,-4.577397392542064,10.0,0.0,29.398766797408637,26.821756698478474,356.7801109811595,441.35927973127883,0.0
0.147,10.362007615002451,-4.252111486100062,10.0,0.0,29.563024077061208,27.04170024467504,354.8229919509759,441.35927973127883,0.0
0.148,10.587978827543171,-3.867843673676037,10.0,0.0,29.69383338306595,27.23277503303394,346.22197570028175,441.35927973127883,0.0
0.149,10.869701725211367,-3.452733340773155,10.0,0.0,29.78884977881104,27.389093466539318,340.60569987445075,441.35927973127883,0.0
