timestamp,iq,id,iq_ref,id_ref,vq,vd,omega,omega_ref,r
0.0,0.0,0.0,0.0,0.0,0.0,0.0,0.0,493.64903271502124,0.0
0.001,0.0,0.0,10.0,0.0,0.0,1.0999999999999999,11.070641821293224,493.64903271502124,0.0
0.002,0.4735444569259511,-0.24504992122336697,10.0,0.0,0.13695549133457022,1.937910109738145,20.91507714097417,493.64903271502124,0.0
0.003,0.8886023031436582,-0.47130584829700606,10.0,0.0,0.36644409727536487,2.6648038391212436,31.22701068536732,493.64903271502124,0.0
0.004,1.225689214421245,-0.6481680617268484,10.0,0.0,0.6628654997669359,3.3090280743817573,41.94341345229865,493.64903271502124,0.0
0.005,1.4949751310273298,-0.7867022356764402,10.0,0.0,1.0075373225355582,3.892221444651481,52.84102662905573,493.64903271502124,0.0
0.006,1.7128074569073732,-0.8954385461592235,10.0,0.0,1.3866369524679003,4.430293963490351,63.87057724572209,493.64903271502124,0.0
0.007,1.8922291525098818,-0.981987827695153,10.0,0.0,1.7900669291550204,4.934911130181092,74.96915567662879,493.64903271502124,0.0
0.008,2.043082602101245,-1.0520124882470188,10.0,0.0,2.2104528446878478,5.414609915372448,86.10355477549867,493.64903271502124,0.0
0.009000000000000001,2.172581125565298,-1.1097090521824229,10.0,0.0,2.642416422613904,5.875641110512815,97.22301677631974,493.64903271502124,0.0
0.01,2.2861106364847683,-1.1579433717122392,10.0,0.0,3.0820155717703175,6.322572282965253,108.28788983220306,493.64903271502124,0.0
0.011,2.3876671175692685,-1.198697792777848,10.0,0.0,3.5263485663782532,6.75873433527799,119.25915726159921,493.64903271502124,0.0
0.012,2.4802505518391573,-1.233294062066127,10.0,0.0,3.9732625121677208,7.186544868861401,130.09705586507232,493.64903271502124,0.0
0.013000000000000001,2.5661592841101526,-1.2625533518427108,10.0,0.0,4.421138675919128,7.607741617458308,140.75969682977282,493.64903271502124,0.0
0.014,2.6472032383718296,-1.286921834353316,10.0,0.0,4.868734838333481,8.023550559924589,151.20224719990748,493.64903271502124,0.0
0.015,2.724860770792155,-1.3065654260084758,10.0,0.0,5.3150693890099925,8.434806335362058,161.37681398495414,493.64903271502124,0.0
0.016,2.8003913859209444,-1.321446103659752,10.0,0.0,5.759336500787686,8.84203819598347,171.2328110597045,493.64903271502124,0.0
0.017,2.8749151663846195,-1.331385106506317,10.0,0.0,6.200844570986362,9.245531272020797,180.7177917895495,493.64903271502124,0.0
0.018000000000000002,2.9494662326385366,-1.3361172911917862,10.0,0.0,6.63897229205584,9.645370467990958,189.7786831446716,493.64903271502124,0.0
0.019,3.025025570423048,-1.3353391995016635,10.0,0.0,7.073138248682614,10.041472499977294,198.363405686383,493.64903271502124,0.0
0.02,3.1025371273321523,-1.3287523037020075,10.0,0.0,7.502781035224287,10.43361024654552,206.4225144647499,493.64903271502124,0.0
0.021,3.182911500002694,-1.316099950380631,10.0,0.0,7.9273474278612595,10.821432431686421,213.91075651229988,493.64903271502124,0.0
0.022,3.2670204587082226,-1.2971969931328353,10.0,0.0,8.34628659798458,11.204480795846028,220.78929295357963,493.64903271502124,0.0
0.023,3.3556815838630567,-1.2719570812392607,10.0,0.0,8.759049326775715,11.582206606422032,227.02722543924426,493.64903271502124,0.0
0.024,3.4496402993065027,-1.2404093931611646,10.0,0.0,9.165090517175685,11.953987261372312,232.60319513855316,493.64903271502124,0.0
0.025,3.5495469671400306,-1.2027124944823333,10.0,0.0,9.563874472056794,12.319143823560314,237.50637770667578,493.64903271502124,0.0
0.026000000000000002,3.655930680071185,-1.1591669235872717,10.0,0.0,9.954882643856923,12.67695998327353,241.7355672949552,493.64903271502124,0.0
0.027,3.7691831001558107,-1.1102087435156291,10.0,0.0,10.337621670349426,13.026701415115438,245.2973854001562,493.64903271502124,0.0
0.028,3.889582833305977,-1.0563364982504975,10.0,0.0,10.711624572198424,13.36763115997674,248.2058868505859,493.64903271502124,0.0
0.029,4.017306854708561,-0.9980612471853441,10.0,0.0,11.076448603184138,13.699022575514023,250.4846502562653,493.64903271502124,0.0
0.03,4.152235475600905,-0.9362118112790743,10.0,0.0,11.431708687185974,14.020192344512026,252.16766388673977,493.64903271502124,0.0
0.031,4.294884660411931,-0.8703482470006041,10.0,0.0,11.776933241975858,14.330429020890119,253.23481719919624,493.64903271502124,0.0
0.032,4.444241597019188,-0.8023821649083684,10.0,0.0,12.111841375537193,14.62916171393069,258.45055119343243,493.64903271502124,0.0
0.033,4.593405472106976,-0.7439684738227583,10.0,0.0,12.437386119847961,14.91659749412977,269.15154947152297,493.64903271502124,0.0
0.034,4.674400064113854,-0.7971846142646066,10.0,0.0,12.765557880107025,15.200426404370132,281.67764372873637,493.64903271502124,0.0
0.035,4.736821839313382,-0.8705335736508104,10.0,0.0,13.096831579492276,15.482633150260488,294.47521872601374,493.64903271502124,0.0
0.036000000000000004,4.787516188741863,-0.9523765908662882,10.0,0.0,13.43146782582788,15.764794430815197,307.93382035251,493.64903271502124,0.0
0.037,4.826260258172896,-1.0424135986517107,10.0,0.0,13.769942216269634,16.04844830380486,321.8621800842613,493.64903271502124,0.0
0.038,4.853787799928363,-1.1380319433124513,10.0,0.0,14.11255220280101,16.334943639640947,336.40023415644913,493.64903271502124,0.0
0.039,4.8686446440685,-1.2400048226396168,10.0,0.0,14.459811557542242,16.62569146310871,351.449720549386,493.64903271502124,0.0
0.04,4.870975157676128,-1.3460240151292717,10.0,0.0,14.812062141536707,16.921982651648364,366.9306340817241,493.64903271502124,0.0
0.041,4.860479208649085,-1.4544119419193648,10.0,0.0,15.169579266007716,17.22504763926257,382.31238462145,493.64903271502124,0.0
0.042,4.838085903822611,-1.56150233082636,10.0,0.0,15.532347240304905,17.53591614460308,397.53577457689,493.64903271502124,0.0
0.043000000000000003,4.804895248893522,-1.6638964643484988,10.0,0.0,15.900117718504799,17.85540163583321,412.27684059855204,493.64903271502124,0.0
0.044,4.763778169182321,-1.7561257163458843,10.0,0.0,16.2721809743922,18.18390659797924,426.1397850639485,493.64903271502124,0.0
0.045,4.718729758304096,-1.8323631450681512,10.0,0.0,16.647352225544942,18.521311543898914,438.9665353458227,493.64903271502124,0.0
0.046,4.674943647955283,-1.8868856768432756,10.0,0.0,17.023981950382414,18.866859108371475,449.8733825828528,493.64903271502124,0.0
0.047,4.639690130416723,-1.912955517536553,10.0,0.0,17.39982591634191,19.218954914706284,458.4964295181707,493.64903271502124,0.0
0.048,4.620874452610065,-1.9053709527942528,10.0,0.0,17.772200065810352,19.575142726386908,464.5180099307652,493.64903271502124,0.0
0.049,4.625993580522044,-1.86179544723168,10.0,0.0,18.138238121535544,19.932197910997925,467.7216153544646,493.64903271502124,0.0
0.05,4.661816145681189,-1.7823375841781408,10.0,0.0,18.495073280269064,20.28626209183198,467.8047786637754,493.64903271502124,0.0
0.051000000000000004,4.733885117287223,-1.6690368015627446,10.0,0.0,18.839962833755475,20.633034009230904,465.39972295331256,493.64903271502124,0.0
0.052000000000000005,4.842330846713475,-1.5313893988193032,10.0,0.0,19.171032417157512,20.968409349717753,460.9709873650309,493.64903271502124,0.0
0.053,4.992167265017663,-1.3684089235111074,10.0,0.0,19.485981198011558,21.28795656577692,453.41942333654225,493.64903271502124,0.0
0.054,5.171078245677494,-1.204013804199898,10.0,0.0,19.784936164014976,21.588862094626037,447.0475956504488,493.64903271502124,0.0
0.055,5.392888309748702,-1.0171804725380964,10.0,0.0,20.065178471013272,21.86696256994935,435.5687008688865,493.64903271502124,0.0
0.056,5.6417306063804755,-0.8304578782985559,10.0,0.0,20.326535442794345,22.120122676451377,425.68160234539215,493.64903271502124,0.0
0.057,5.901594027461938,-0.667827924800088,10.0,0.0,20.57105065910507,22.348005916128663,418.26878836272203,493.64903271502124,0.0
0.058,6.1887137719965475,-0.49732033827595656,10.0,0.0,20.796773142769784,22.548567815781304,439.40273442739743,493.64903271502124,0.0
0.059000000000000004,6.313232332987122,-0.5978373590579665,10.0,0.0,21.03274151618455,22.74081992957153,457.53971347522906,493.64903271502124,0.0
0.06,6.346434048202352,-0.7895943577892518,10.0,0.0,21.284426363289487,22.935036666260444,477.51738634306537,493.64903271502124,0.0
0.061,6.324603485473781,-1.0202477991603698,10.0,0.0,21.553818707916335,23.137733593043254,499.14405808497634,493.64903271502124,0.0
0.062,6.26990239135506,-1.2496172717935854,3.0464739506027145,0.0,21.839465618334714,22.588011010902544,514.1750620839217,493.64903271502124,0.0
0.063,5.856708759803845,-1.3191348565517276,-4.67428834255898,0.0,22.04692881909425,21.386981074793376,519.4078110609605,493.64903271502124,0.0
0.064,5.095108251588883,-1.2211420409341638,-7.548250614537771,0.0,22.1020683206014,20.16751634497316,520.401125009884,493.64903271502124,0.0
0.065,4.2924655463397645,-1.070931879749647,-8.312428511948156,0.0,22.014204209401704,19.100866784785584,517.4821148630692,493.64903271502124,0.0
0.066,3.5874539838624986,-0.9210331096337803,-7.091254260021237,0.0,21.813474790202307,18.343591561002853,512.6618936524312,493.64903271502124,0.0
0.067,3.0743017098297534,-0.8073434354919948,-4.871272264076332,0.0,21.546083914090143,17.923353829231967,506.7634793230917,493.64903271502124,0.0
0.068,2.775665709814415,-0.7401760339983081,-2.053209565487278,0.0,21.257156834989217,17.833906297173666,500.43644480542326,493.64903271502124,0.0
0.069,2.686501783594844,-0.7161045343877015,1.0424335724429206,0.0,20.98620151965033,18.04367260048153,494.5966500914388,493.64903271502124,0.0
0.07,2.7827330218986797,-0.7304018779651589,3.952854755670982,0.0,20.765131788965743,18.483079565224877,489.04678637601,493.64903271502124,0.0
0.07100000000000001,3.024254437211167,-0.7676321366781473,6.773809076775487,0.0,20.614062082846594,19.112034580613315,484.89325746526674,493.64903271502124,0.0
0.07200000000000001,3.383719664161345,-0.8163559868832619,8.938131284644662,0.0,20.54598216981365,19.83572706269417,480.6311743425837,493.64903271502124,0.0
0.073,3.8129170106870434,-0.859648071475337,10.0,0.0,20.561354387095154,20.531787586025708,474.6009747200037,493.64903271502124,0.0
0.074,4.261827047356492,-0.8584908289720481,10.0,0.0,20.644235217460377,21.104072461030302,463.98732212835057,493.64903271502124,0.0
0.075,4.671038668962639,-0.81552692261346,10.0,0.0,20.771341995015135,21.58689275356099,457.866009855793,493.64903271502124,0.0
0.076,5.058146572649266,-0.731155306825938,10.0,0.0,20.925168885394434,21.995651941404606,446.3269257717297,493.64903271502124,0.0
0.077,5.441480433727006,-0.6031241728709698,10.0,0.0,21.091249296943005,22.340622253820115,434.0469042866048,493.64903271502124,0.0
0.078,5.806155093977797,-0.4770050711131044,10.0,0.0,21.262625908724445,22.631422702132113,431.1265725665427,493.64903271502124,0.0
0.079,6.159071077610982,-0.3558016440543814,10.0,0.0,21.433873718200058,22.87510675519391,450.41205414653376,493.64903271502124,0.0
0.08,6.287696900125107,-0.5498908015426234,10.0,0.0,21.634926993628593,23.100927503256877,470.64713929832095,493.64903271502124,0.0
0.081,6.333072313352683,-0.7934726247148074,10.0,0.0,21.863310125294625,23.3205664668265,495.41438002185805,493.64903271502124,0.0
0.082,6.333992401160405,-1.0305463461687892,4.50200860006882,0.0,22.114461131279235,22.93665333768677,509.20203347816414,493.64903271502124,0.0
0.083,6.022592633980651,-1.1606236765675968,-2.5473481357156533,0.0,22.314043492880728,21.930060470390337,518.3530770750806,493.64903271502124,0.0
0.084,5.376723281241957,-1.135530902255306,-7.369910377774472,0.0,22.388947353114105,20.65202847784454,520.8647664654245,493.64903271502124,0.0
0.085,4.568641638647983,-1.0148135060100303,-8.897912410450463,0.0,22.31552964222569,19.47186575656082,519.4147250026886,493.64903271502124,0.0
0.08600000000000001,3.807108157932266,-0.8768919331070402,-8.43054860195916,0.0,22.117473231240886,18.54475544203024,515.3892920017971,493.64903271502124,0.0
0.08700000000000001,3.20108415786943,-0.7625903090359486,-6.635234694381199,0.0,21.835317466982694,17.942408714802646,509.77953436195304,493.64903271502124,0.0
0.088,2.7989461615664815,-0.6887581351969059,-3.991660890928479,0.0,21.514164083545985,17.683096002768714,503.7766516710533,493.64903271502124,0.0
0.089,2.6098271005323026,-0.6611236052516865,-1.0914957350389232,0.0,21.196893290693986,17.726963369458552,497.57974244417454,493.64903271502124,0.0
0.09,2.6116572375405473,-0.6695052031087915,1.9676517811089163,0.0,20.91693463485988,18.040128989730324,491.9764540597258,493.64903271502124,0.0
0.091,2.7780921963917544,-0.7071082081897289,4.7860217598862285,0.0,20.700340921216714,18.55512186079199,486.513809214626,493.64903271502124,0.0
0.092,3.0710066108911507,-0.7590838318206505,7.58869641744009,0.0,20.56224715459262,19.2465103499199,483.4485027236588,493.64903271502124,0.0
0.093,3.469786863876762,-0.8195264704430267,9.223354962837316,0.0,20.513230547555867,19.965799623207346,477.5274502043443,493.64903271502124,0.0
0.094,3.913283458386676,-0.8496159336572755,10.0,0.0,20.54374994311889,20.632545854230056,471.63597608871464,493.64903271502124,0.0
0.095,4.348756520366691,-0.8491580104790828,10.0,0.0,20.63754075604613,21.18443588046247,462.56143192539304,493.64903271502124,0.0
0.096,4.765508972601613,-0.7780805681844223,10.0,0.0,20.769327550883258,21.649027946238327,451.6198803586715,493.64903271502124,0.0
0.097,5.14398323654184,-0.6969338113997201,10.0,0.0,20.92617950399089,22.042874840409233,443.92602159940066,493.64903271502124,0.0
0.098,5.518856498503469,-0.578196279416368,10.0,0.0,21.09448129025453,22.375570924297435,431.9462669937653,493.64903271502124,0.0
0.099,5.891381589461526,-0.43649491345308444,10.0,0.0,21.26482273134449,22.654598551037406,437.8518105548887,493.64903271502124,0.0
0.1,6.185235484412857,-0.4101485587517151,10.0,0.0,21.444551705641942,22.89415888167732,456.7270749692362,493.64903271502124,0.0
0.101,6.300498045336695,-0.6012741972901043,10.0,0.0,21.651551099359875,23.117995733930876,476.0517029275495,493.64903271502124,0.0
0.10200000000000001,6.3323592667494495,-0.8460351966407895,10.0,0.0,21.885246692474563,23.337796731584707,497.72351868975,493.64903271502124,0.0
0.10300000000000001,6.312040410865402,-1.1007846436981792,2.9602193539122412,0.0,22.143127655225967,22.787165004076332,512.7203250780932,493.64903271502124,0.0
0.10400000000000001,5.9243905337147265,-1.1858750797607591,-4.72889676389008,0.0,22.326969802447703,21.584417877024304,518.7253836114475,493.64903271502124,0.0
0.105,5.177770962911096,-1.1115940984530543,-7.982189539531472,0.0,22.36313120993759,20.317610287274,520.2843678627369,493.64903271502124,0.0
0.106,4.36446047232081,-0.9782227733454472,-9.028035016653337,0.0,22.255067681754706,19.180587480777636,517.8967064707407,493.64903271502124,0.0
0.107,3.630131485300442,-0.8413330283502354,-8.076681058212444,0.0,22.030384067042068,18.334211075978658,513.4287769059305,493.64903271502124,0.0
0.108,3.073831085796354,-0.7365776949109916,-6.040513717716426,0.0,21.733376984092434,17.818318572133727,507.68616032986984,493.64903271502124,0.0
0.109,2.7259316655084285,-0.6751563489035728,-3.309576705834591,0.0,21.408772564326846,17.637061940516993,501.5680380168435,493.64903271502124,0.0
0.11,2.586824520749576,-0.6573764774566221,-0.3297056023396472,0.0,21.097161350977046,17.75376977307159,495.42840507599584,493.64903271502124,0.0
0.111,2.6333323601474152,-0.6747721364509665,2.722317144474438,0.0,20.830473363421543,18.127062558369005,490.01886138582876,493.64903271502124,0.0
0.112,2.836541221718418,-0.7185567427461289,5.463390702849905,0.0,20.63242580325386,18.685467233955453,484.48504895945996,493.64903271502124,0.0
0.113,3.1567417319608624,-0.7728149147448935,8.321936753589917,0.0,20.515554019518493,19.422066048453168,482.1039625629457,493.64903271502124,0.0
0.114,3.580384331761454,-0.8371533977066359,9.627930653367804,0.0,20.49056394701224,20.144992990720112,476.1233471235137,493.64903271502124,0.0
0.115,4.032459591122218,-0.8602529352845147,10.0,0.0,20.542263140287254,20.775504068109814,469.2223656211991,493.64903271502124,0.0
0.116,4.45549765673464,-0.8473898546086984,10.0,0.0,20.650197587723625,21.302399828997974,460.7023653553419,493.64903271502124,0.0
0.117,4.863372911415024,-0.7652152486955786,10.0,0.0,20.791117590661482,21.746763561182235,448.8943699224405,493.64903271502124,0.0
0.11800000000000001,5.238918266369543,-0.6714844169355559,10.0,0.0,20.952893321089512,22.123551683943653,440.78480890354024,493.64903271502124,0.0
0.11900000000000001,5.606131968275991,-0.5543060619628373,10.0,0.0,21.124217980021488,22.442200513811578,429.51870354487056,493.64903271502124,0.0
0.12,5.976868201427021,-0.40913595601156844,10.0,0.0,21.295478127942133,22.70900807795835,439.132178932442,493.64903271502124,0.0
0.121,6.232623860476192,-0.43362212054338334,10.0,0.0,21.480438196643412,22.94183514031862,459.2698848811292,493.64903271502124,0.0
0.122,6.30864101962885,-0.6662283367058193,10.0,0.0,21.69552678684314,23.16407117239669,480.92880766166144,493.64903271502124,0.0
0.123,6.332215431494904,-0.9056539611461603,10.0,0.0,21.93534087775752,23.383759446573187,502.79700020598165,493.64903271502124,0.0
0.124,6.301218067667891,-1.1591718063111098,0.1487574231795179,0.0,22.198635093721844,22.525469073112845,514.3977374391563,493.64903271502124,0.0
0.125,5.772298605202007,-1.1799540935307746,-5.859098240649182,0.0,22.34952172388622,21.274856628575,519.4348433090181,493.64903271502124,0.0
0.126,4.983080745568453,-1.0813319689813323,-8.635509281520031,0.0,22.34920219000774,20.0005922035849,519.6491602405886,493.64903271502124,0.0
0.127,4.166892294097898,-0.9380817086946833,-9.002669022560937,0.0,22.206716859632053,18.922987357665598,516.5873382288066,493.64903271502124,0.0
0.128,3.4679062049880356,-0.8058852725054737,-7.701141071807821,0.0,21.957610472324063,18.154460720581287,511.72047078587013,493.64903271502124,0.0
0.129,2.9609941525838286,-0.7116376076364401,-5.448421731048062,0.0,21.64751678126474,17.721430421324015,505.86224392536946,493.64903271502124,0.0
0.13,2.6653144346132445,-0.6624690792598761,-2.6414404129012046,0.0,21.32066336791289,17.61439018292782,499.6828727395049,493.64903271502124,0.0
0.131,2.5736829026055226,-0.6543229388115699,0.3879067797862428,0.0,21.015386881891054,17.797649676391345,493.62752034988915,493.64903271502124,0.0
0.132,2.6615162879871708,-0.6795698507294794,3.415798098245431,0.0,20.761822615533216,18.224252157297926,488.37907758550233,493.64903271502124,0.0
0.133,2.8971666576618302,-0.7294406483493501,6.092719031734031,0.0,20.58150834252082,18.82197714616681,483.38804139703785,493.64903271502124,0.0
0.134,3.241913947665249,-0.7859460120524175,8.690847039146103,0.0,20.484714877727697,19.565357382124386,480.56629614828694,493.64903271502124,0.0
0.135,3.6751689252817688,-0.8449029468089788,10.0,0.0,20.477858992195827,20.29853521898891,474.7686396750381,493.64903271502124,0.0
0.136,4.136105443950591,-0.8630986661944067,10.0,0.0,20.546418438688434,20.898247686727856,465.70482391977606,493.64903271502124,0.0
0.137,4.551760286573627,-0.8372086973870583,10.0,0.0,20.665063333543007,21.403732184840322,459.2556243821073,493.64903271502124,0.0
0.138,4.947243398247206,-0.7559179289378866,10.0,0.0,20.813709103882033,21.831186128769133,447.5033954856209,493.64903271502124,0.0
0.139,5.32938807796199,-0.6386371690753205,10.0,0.0,20.97814771567965,22.192678171687074,435.6387021494127,493.64903271502124,0.0
0.14,5.691670069741139,-0.5207670775828603,10.0,0.0,21.150498768123754,22.498435299194423,426.98485092635707,493.64903271502124,0.0
0.14100000000000001,6.049303935101523,-0.3933844607645507,10.0,0.0,21.323357041139094,22.755134913923598,446.8310170415177,493.64903271502124,0.0
0.14200000000000002,6.254467197435615,-0.48630837762061185,10.0,0.0,21.51609490534817,22.984458774278245,464.72252226114995,493.64903271502124,0.0
0.14300000000000002,6.321885709219371,-0.7121168606495087,10.0,0.0,21.736401063136412,23.20475963134546,485.3934736081051,493.64903271502124,0.0
0.14400000000000002,6.3267254865198295,-0.964706921937809,8.777420816256619,0.0,21.98223351276398,23.290719117887797,506.39033972428933,493.64903271502124,0.0
