timestamp,iq,id,iq_ref,id_ref,vq,vd,omega,omega_ref,r
0.0,0.0,0.0,0.0,0.0,0.0,0.0,0.0,24.475942225075155,0.0
0.001,0.0,0.0,10.0,0.0,0.0,1.0999999999999999,5.710963081888862,24.475942225075155,0.0
0.002,0.46018738211637644,-0.27262338776373035,9.765244174579994,0.0,0.13998857265401035,1.913556247170998,10.523753332326597,24.475942225075155,0.0
0.003,1.121144698151181,-0.6428291157424317,7.498370938288613,0.0,0.3853303089597393,2.34464379820978,13.68144446275426,24.475942225075155,0.0
0.004,1.7375081218547848,-0.9930784620745102,6.02747035069799,0.0,0.6840719975555153,2.5568360320561547,16.70042157411434,24.475942225075155,0.0
0.005,2.2157649109418482,-1.266465123462797,4.595737001527558,0.0,1.0007287799657416,2.588456936282086,19.084202677503782,24.475942225075155,0.0
0.006,2.511241462747116,-1.4333945123264977,3.4577638453085506,0.0,1.304510340718663,2.510001861826352,20.831946658037534,24.475942225075155,0.0
0.007,2.625396785236671,-1.496965240991599,2.620331810712051,0.0,1.5753917242152429,2.379430338692261,22.166683315136034,24.475942225075155,0.0
0.008,2.5895907204970054,-1.4747569773459637,1.9760560712621924,0.0,1.8030492007610845,2.2315883155739753,23.131404559782954,24.475942225075155,0.0
0.009000000000000001,2.44470070573402,-1.389661291168057,1.5071408255916543,0.0,1.9840182844974008,2.091738163769375,23.89163056726736,24.475942225075155,0.0
0.01,2.232470852160452,-1.2662301438479031,1.1328709384275295,0.0,2.120178975336186,1.9693857841329794,24.330391920099352,24.475942225075155,0.0
0.011,1.9887215488512715,-1.1233329051737582,0.9149457650612912,0.0,2.2160039743465005,1.8773457661737316,24.40263531482455,24.475942225075155,0.0
0.012,1.7437127770432097,-0.9792134555506077,0.8795571368011981,0.0,2.2786183045880524,1.8268922244022872,24.43325560082814,24.475942225075155,0.0
0.013000000000000001,1.5199855696592393,-0.8547549928232636,0.8646738600418734,0.0,2.3176766112245284,1.8086221007653729,25.062047468575265,24.475942225075155,0.0
0.014,1.337641750788056,-0.7456605091779231,0.5444168737333096,0.0,2.340246266259953,1.77882593243144,24.763633888903012,24.475942225075155,0.0
0.015,1.1830590021578908,-0.6519174285477671,0.6907467469311577,0.0,2.3483585449255764,1.7887458665098985,24.533937241939647,24.475942225075155,0.0
0.016,1.0654602431605233,-0.5883715403972738,0.8050151202441954,0.0,2.3505989722422305,1.8209812933829375,25.249986254147174,24.475942225075155,0.0
0.017,0.9915940527480247,-0.5448725073112841,0.43925017384971143,0.0,2.3516894647565705,1.815789685819216,25.128503360623682,24.475942225075155,0.0
0.018000000000000002,0.9363333655055364,-0.5054238957758206,0.49346600925597217,0.0,2.3482473903250622,1.826187693314483,24.601566875216168,24.475942225075155,0.0
0.019,0.8952053081844475,-0.48627394653873146,0.7556780054583192,0.0,2.344477315785506,1.8674743332781616,25.264664917992068,24.475942225075155,0.0
0.02,0.8830309702052995,-0.4808136123056867,0.41624175714120004,0.0,2.3448037754230104,1.8652230911191063,25.44785059243637,24.475942225075155,0.0
0.021,0.8755083759576195,-0.4707327744725134,0.31492983624543647,0.0,2.3438181760615393,1.856185412311798,24.82493693114169,24.475942225075155,0.0
0.022,0.8640717450558602,-0.4640779365364531,0.622896719832112,0.0,2.34139614496085,1.8840252213092814,25.080958570940435,24.475942225075155,0.0
0.023,0.8654211579215821,-0.4693050906797037,0.4888357364740862,0.0,2.3426418332050956,1.8907496675674507,25.539786070839945,24.475942225075155,0.0
0.024,0.8720548632148278,-0.4685099713604901,0.24878354806668346,0.0,2.344295662584189,1.8711448936793944,25.039706414399845,24.475942225075155,0.0
0.025,0.8680504113223423,-0.4626715054285178,0.49318573439348656,0.0,2.3431893515772413,1.8834575692591806,24.844038380539818,24.475942225075155,0.0
0.026000000000000002,0.8671722901587517,-0.46620986961483746,0.5873387897688535,0.0,2.3438725439487818,1.9023977092173867,25.493187890883103,24.475942225075155,0.0
0.027,0.8759192347181811,-0.46971327592176954,0.25259157793913123,0.0,2.346731422130889,1.8807774854487298,25.189287089833766,24.475942225075155,0.0
0.028,0.8753862292160947,-0.4612982308332291,0.3974085298162139,0.0,2.34618170109511,1.8810286087507493,24.721815152887,24.475942225075155,0.0
0.029,0.8699804404768131,-0.4632039717270825,0.628685769011478,0.0,2.3460058464423215,1.9057812811179973,25.37886962903064,24.475942225075155,0.0
0.03,0.8774191338008085,-0.46797090212669884,0.2911292569001038,0.0,2.3488281494265557,1.887724797906006,25.464364456566148,24.475942225075155,0.0
0.031,0.8778233285782083,-0.4606926433527396,0.2384976208174393,0.0,2.3487142960220346,1.8693722039733833,24.78590771638275,24.475942225075155,0.0
0.032,0.8671091319353056,-0.45568071132988264,0.5746263359960633,0.0,2.34629803862993,1.8915265627025386,25.090920661540892,24.475942225075155,0.0
0.033,0.8676590822809476,-0.4589816681129831,0.4159700790523342,0.0,2.34675206741632,1.8902427478995243,25.480050581966832,24.475942225075155,0.0
0.034,0.8703437288348574,-0.4553031648348216,0.21136403527044723,0.0,2.346594666915341,1.8679228035914037,24.923116079911324,24.475942225075155,0.0
0.035,0.8625752214862644,-0.4471594276650843,0.4853595477498397,0.0,2.3433619859777575,1.8808860627484345,24.724803955331716,24.475942225075155,0.0
0.036000000000000004,0.8599195593688563,-0.4490085064513221,0.5820269927370783,0.0,2.3420337350878198,1.900337629479236,25.367662555407648,24.475942225075155,0.0
0.037,0.8681294821267896,-0.4515501016969272,0.25168048939578713,0.0,2.34304455064911,1.8794767765060019,25.048663477718048,24.475942225075155,0.0
0.038,0.8682564985157816,-0.44247601200760434,0.40545281571415837,0.0,2.340844633538667,1.8810896387394438,24.546221290203285,24.475942225075155,0.0
0.039,0.8641298592498973,-0.44478686694221603,0.6559711188202586,0.0,2.339370929302312,1.9087957136001226,25.202496266804015,24.475942225075155,0.0
0.04,0.8740956732777686,-0.450775137263559,0.3205680901026047,0.0,2.3414508041616626,1.8930467884253697,25.359308077746,24.475942225075155,0.0
0.041,0.8776054813482065,-0.4450834296988539,0.23332852610490362,0.0,2.3410618284822715,1.8725520007539869,24.64247023245231,24.475942225075155,0.0
0.042,0.8691146627200552,-0.43961960354875773,0.5900821686779767,0.0,2.3381181678028184,1.89515217873462,24.9489339674206,24.475942225075155,0.0
0.043000000000000003,0.8699438266277645,-0.44567378603404606,0.43212038377037754,0.0,2.338449489324257,1.894078523867548,25.34524052906042,24.475942225075155,0.0
0.044,0.8753779721320708,-0.44013711530627225,0.22527411991061574,0.0,2.3379707376019354,1.8713824310974327,24.729550808718283,24.475942225075155,0.0
0.045,0.8686513657778004,-0.43223136745803054,0.5305828942452525,0.0,2.334455986218806,1.8873547684015168,24.519571008146293,24.475942225075155,0.0
0.046,0.8681558073893327,-0.4349689364636675,0.6351365067005359,0.0,2.3332701337734996,1.909813451822804,25.200862689285454,24.475942225075155,0.0
0.047,0.8793219072870753,-0.43875111664498195,0.28724146148885255,0.0,2.334837399044741,1.889360463986957,24.94576406913405,24.475942225075155,0.0
0.048,0.8822208565147466,-0.42986536375970386,0.41009255312396564,0.0,2.3331873843860804,1.8878948485777314,24.34798816375686,24.475942225075155,0.0
0.049,0.8784884385138458,-0.4319604665580723,0.7102600464257438,0.0,2.331875128489036,1.9186402620627834,24.97849071567635,24.475942225075155,0.0
0.05,0.8897387237399224,-0.4389509530262765,0.3899832855599863,0.0,2.3345166420137202,1.9066729344264965,25.269826998786495,24.475942225075155,0.0
0.051000000000000004,0.8956368351395798,-0.43498490920013466,0.23637629626780066,0.0,2.33519110173675,1.8819362002911224,24.57556091244788,24.475942225075155,0.0
0.052000000000000005,0.8881608214328333,-0.4275968970745042,0.582513152563381,0.0,2.3325514211783815,1.9002330522487627,24.47059341985218,24.475942225075155,0.0
0.053,0.8874929265472301,-0.43179511555176153,0.6350503869134614,0.0,2.332541078025369,1.9187526864707047,25.17729850578836,24.475942225075155,0.0
0.054,0.8986910508016089,-0.43207414787879617,0.2746842811382384,0.0,2.334372443981052,1.8940152063595384,24.82277535921078,24.475942225075155,0.0
0.055,0.8969963745925615,-0.4242159908146472,0.44847752308567246,0.0,2.3326797377297233,1.8949539241525657,24.39150385955205,24.475942225075155,0.0
0.056,0.8939352515791444,-0.4224827656195303,0.664957656570269,0.0,2.3311381006820096,1.918024158574374,24.762367343549304,24.475942225075155,0.0
0.057,0.9012627340637491,-0.42696112793110635,0.4766616633869002,0.0,2.332567602887473,1.9149192109607729,25.128133242488577,24.475942225075155,0.0
0.058,0.9076343477144898,-0.42447984435758457,0.28725680374312956,0.0,2.3332259352948252,1.8926885310233614,24.56263942047733,24.475942225075155,0.0
0.059000000000000004,0.9028571518836053,-0.41671246170483006,0.569136742794732,0.0,2.3307657672116346,1.9062368018904452,24.27010932410819,24.475942225075155,0.0
0.06,0.9028872651813671,-0.4183075963466939,0.7174601199889705,0.0,2.3301595816606038,1.9316299165422899,24.885303233856167,24.475942225075155,0.0
0.061,0.9149290526369168,-0.4229532885578424,0.40576955502717227,0.0,2.332648400926668,1.9173296097689732,25.03283750434242,24.475942225075155,0.0
0.062,0.920689576144711,-0.4164652700578926,0.32643346699137266,0.0,2.3326981686316874,1.8985849118539724,24.278014588293146,24.475942225075155,0.0
0.063,0.9137639320342621,-0.4121750997259822,0.70582420138383,0.0,2.3304614512231963,1.9250654282517303,24.453262631758342,24.475942225075155,0.0
0.064,0.9186336150141339,-0.4176315841598789,0.6184269755844002,0.0,2.3317395721863763,1.9346616975181103,24.98939085184276,24.475942225075155,0.0
0.065,0.9294511267282043,-0.41744432110532753,0.3452283792745152,0.0,2.3337743441995364,1.9131070491593278,24.668340481396935,24.475942225075155,0.0
0.066,0.9287519914360599,-0.4100900729424535,0.5038295819342098,0.0,2.3326430795081325,1.914274541092682,24.24196809339053,24.475942225075155,0.0
0.067,0.9268607450418438,-0.408002594441501,0.7193555172542592,0.0,2.331585610325729,1.937535043972611,24.55865432782404,24.475942225075155,0.0
0.068,0.9348610742687684,-0.41253095586712607,0.5601852790100146,0.0,2.333478932891385,1.9378008154073354,24.948737629322093,24.475942225075155,0.0
0.069,0.9428475970188352,-0.41124784675171955,0.36041567421851917,0.0,2.335023074726998,1.9170478736002932,24.540221171582512,24.475942225075155,0.0
0.07,0.9404083055548207,-0.4035050910103606,0.5640311136232357,0.0,2.3334986361579504,1.9232682218284936,24.076831610356155,24.475942225075155,0.0
0.07100000000000001,0.9394417769680861,-0.40238849144932454,0.7997170003836043,0.0,2.3327032778743266,1.9526853097564618,24.601899576926556,24.475942225075155,0.0
0.07200000000000001,0.9510575605103984,-0.40841322866097,0.53592344357989,0.0,2.3356030513007537,1.946419601471737,24.81181316901852,24.475942225075155,0.0
0.073,0.9590853984184502,-0.4060739433882967,0.42760793809447384,0.0,2.3372687078039545,1.9310267669883057,24.450987709986826,24.475942225075155,0.0
0.074,0.9584438468676705,-0.3995793800226351,0.6082702127612044,0.0,2.336537506090997,1.9384466359214,24.05414788884426,24.475942225075155,0.0
0.075,0.9589929281866484,-0.3998284882609665,0.810908066694797,0.0,2.3367137589825173,1.9654681245153207,24.623771088740213,24.475942225075155,0.0
0.076,0.9711406552521554,-0.4051301803827185,0.5246181781101693,0.0,2.340155230495286,1.9549560640913397,25.000394618250077,24.475942225075155,0.0
0.077,0.9778279102622301,-0.4009163425349181,0.33106188942348813,0.0,2.3416848097299052,1.9267969432108925,24.332306427428833,24.475942225075155,0.0
0.078,0.9702888021234445,-0.3910228057972762,0.6665423428105735,0.0,2.3391993682903554,1.9413412795467662,23.93685636813217,24.475942225075155,0.0
0.079,0.9691326455794944,-0.3906176942514519,0.8696582310283352,0.0,2.338471277725683,1.973222367413626,24.554696620710978,24.475942225075155,0.0
0.08,0.9826382175614143,-0.3961182868920021,0.5599505607825727,0.0,2.341613221310083,1.9642463603446705,24.946364889816913,24.475942225075155,0.0
0.081,0.9908726311937763,-0.3928250498810528,0.3594121995821875,0.0,2.3431261078315377,1.9367492755317253,24.294169026123246,24.475942225075155,0.0
0.082,0.9849106982221719,-0.3836060411271075,0.6873278634185399,0.0,2.3407568386267275,1.9509674512494226,23.857530324760628,24.475942225075155,0.0
0.083,0.9848848388315117,-0.38346007907443536,0.9118313331029942,0.0,2.3401224481759137,1.984886332705053,24.46913567485776,24.475942225075155,0.0
0.084,0.9998661275800387,-0.38999313048616224,0.6060967235566019,0.0,2.3436634801915615,1.9778258448668469,24.661266471195766,24.475942225075155,0.0
0.085,1.0095994291869232,-0.3884346304020426,0.5081780829263929,0.0,2.3459075946984527,1.9631909543508939,24.389412215271825,24.475942225075155,0.0
0.08600000000000001,1.0106223488220845,-0.3824031325588884,0.6449705109863966,0.0,2.3458159289411546,1.9662551296863295,23.905239612802525,24.475942225075155,0.0
0.08700000000000001,1.011212771307864,-0.38069188468886883,0.892763838343773,0.0,2.345911925005858,1.9948383453641183,24.333390477853033,24.475942225075155,0.0
0.088,1.0230618632443853,-0.3866696752101,0.6801139232907402,0.0,2.3495313124679065,1.9934059192630322,24.71152461176046,24.475942225075155,0.0
0.089,1.0330533987640922,-0.38560971928197146,0.48869103247017376,0.0,2.352469145516335,1.9725680776907257,24.475413305437968,24.475942225075155,0.0
0.09,1.0321954198772507,-0.3772791772420227,0.6067519748277916,0.0,2.352123651037577,1.9692030291807852,24.0337430475231,24.475942225075155,0.0
0.091,1.0290199393578485,-0.3719465665193134,0.8320090955607463,0.0,2.3509729193966025,1.9900783329992775,24.005806286596705,24.475942225075155,0.0
0.092,1.03382294660623,-0.37577305493927127,0.850678835408728,0.0,2.3524990311349967,2.0079920478452555,24.59037298640829,24.475942225075155,0.0
0.093,1.0476299128025803,-0.37722776407937625,0.557251177889604,0.0,2.355785656305361,1.9903325264457772,24.71447550701394,24.475942225075155,0.0
0.094,1.0531403428502522,-0.367778092260467,0.49281458476739126,0.0,2.35592365582726,1.970145793391751,23.872101920576853,24.475942225075155,0.0
0.095,1.0450252481667484,-0.361841263163193,0.9200397810309181,0.0,2.353470627609055,2.0005784358311893,23.767542303830083,24.475942225075155,0.0
0.096,1.0508983916218755,-0.3669604914922454,0.9794035886167534,0.0,2.3549286498637847,2.0292530813497702,24.4992281217358,24.475942225075155,0.0
0.097,1.069786719066642,-0.3723833387241307,0.6133278206972884,0.0,2.359653655357115,2.0123251074105943,24.720452718757812,24.475942225075155,0.0
0.098,1.0777656506843152,-0.3680695015173947,0.500270417249456,0.0,2.3616846123421356,1.9880980755111046,24.188078226575623,24.475942225075155,0.0
0.099,1.0729536828864223,-0.3588167684480116,0.7693363033255458,0.0,2.3601151081731393,1.99783376977686,23.82770486699514,24.475942225075155,0.0
0.1,1.072683977879477,-0.3560291182997338,0.9560053566965869,0.0,2.3594620096620016,2.024263429081979,24.0645255322183,24.475942225075155,0.0
0.101,1.0834509288022447,-0.360472093408497,0.8417091910135754,0.0,2.3620337906959366,2.0323584821950567,24.44449578431047,24.475942225075155,0.0
0.10200000000000001,1.096088867412188,-0.3621287961094519,0.6520385293751384,0.0,2.3652957064838036,2.0188978932389565,24.624049588779076,24.475942225075155,0.0
0.10300000000000001,1.1024796290084808,-0.35395687359668987,0.5607805535037954,0.0,2.36596989329386,1.9983912796382959,23.856797956001394,24.475942225075155,0.0
0.10400000000000001,1.0957362186766175,-0.3473086298093471,0.9505978125833744,0.0,2.363876412471365,2.024600907088642,23.651347865255502,24.475942225075155,0.0
0.105,1.1012254505629724,-0.35020075895178254,1.0615688015545168,0.0,2.3649978591196956,2.055617610296917,24.21663028194675,24.475942225075155,0.0
0.106,1.1195772866910727,-0.35682650432342294,0.7815207126401775,0.0,2.3698087421234764,2.0497659785236806,24.53087467761475,24.475942225075155,0.0
0.107,1.131627545971186,-0.3563641626420795,0.6238491902807806,0.0,2.373436258610891,2.029295201498224,24.312200167186873,24.475942225075155,0.0
0.108,1.1323389944264484,-0.34862300671365976,0.7348238660736023,0.0,2.3738070420117063,2.0250604266475825,23.902260090063393,24.475942225075155,0.0
0.109,1.1305936538102193,-0.3423141171477706,0.9455307259854597,0.0,2.373100703294412,2.0435533174067997,23.537656731506893,24.475942225075155,0.0
0.11,1.135216454092379,-0.34520886787053007,1.1372152601993928,0.0,2.374695798999932,2.0785785539455794,24.2486116895834,24.475942225075155,0.0
0.111,1.1552437051873812,-0.3515033304783505,0.7840110865160573,0.0,2.3802973521684097,2.0673347023360993,24.43948452651104,24.475942225075155,0.0
0.112,1.1661474884786416,-0.3493812581536122,0.6889392450378772,0.0,2.3839179922772926,2.04985038672756,24.280323909442252,24.475942225075155,0.0
0.113,1.1668718721156832,-0.3417855532764005,0.7704757367286007,0.0,2.384613830001187,2.0444256548243613,23.907505822045913,24.475942225075155,0.0
0.114,1.1647858641766853,-0.3349422438818412,0.9625691444570629,0.0,2.3840208037777426,2.0601645945267557,23.495521585278777,24.475942225075155,0.0
0.115,1.1685273975760033,-0.3359130451125682,1.1783654692385948,0.0,2.3852361953762085,2.0956545705319356,24.0959634969665,24.475942225075155,0.0
0.116,1.187278979576544,-0.34248354171164475,0.8819443006758191,0.0,2.390592092028936,2.0909275376206575,24.412974925417114,24.475942225075155,0.0
0.117,1.2000752031107054,-0.3421072023700378,0.7240682594470932,0.0,2.394832593431696,2.0715865760474945,24.436048789324285,24.475942225075155,0.0
0.11800000000000001,1.2021137786986462,-0.33399378228800525,0.712930261851016,0.0,2.3958262357212567,2.0548610603693116,23.97577507685474,24.475942225075155,0.0
0.11900000000000001,1.1960725932622487,-0.3243476556184005,0.948068789567992,0.0,2.394068022481206,2.0665689946666137,23.740720042408622,24.475942225075155,0.0
0.12,1.1964191359733862,-0.32090236342958617,1.0729485286177172,0.0,2.3933739031208168,2.088217168675892,23.78182812109132,24.475942225075155,0.0
0.121,1.2060688878653067,-0.32329451373065327,1.059335630316207,0.0,2.3952116025524,2.103826889863541,24.067963610327237,24.475942225075155,0.0
0.122,1.220641229091282,-0.3264614570147581,0.9203476718457275,0.0,2.3987509464178314,2.101400402410906,24.357035794699378,24.475942225075155,0.0
0.123,1.231185364679683,-0.3253027400196191,0.7770006439634145,0.0,2.40153457884915,2.084178073105265,24.18049266536546,24.475942225075155,0.0
0.124,1.2325159156775318,-0.3178453131719414,0.8682267042274706,0.0,2.4015088853234783,2.0803837576273096,23.8773446298483,24.475942225075155,0.0
0.125,1.2319978697284395,-0.3113283338283345,1.0257866979383197,0.0,2.4004640361432585,2.0934559336145138,23.47523242382046,24.475942225075155,0.0
0.126,1.2371998307159817,-0.31000052422157803,1.2368498989647851,0.0,2.400750000216475,2.126180363092658,23.723706682568412,24.475942225075155,0.0
0.127,1.2547147942368682,-0.3168019170264654,1.120135125015877,0.0,2.4050412421347884,2.1388370625082413,24.023684554211222,24.475942225075155,0.0
0.128,1.273531295680412,-0.3219832446146031,0.9746687659031117,0.0,2.4106709619094753,2.133928398887604,24.27173704350289,24.475942225075155,0.0
0.129,1.285589130107536,-0.3217020043328215,0.8526845730730013,0.0,2.4151640936377525,2.116971779213765,24.278627286409126,24.475942225075155,0.0
0.13,1.2880692687834459,-0.314244768545416,0.8512126010065426,0.0,2.4166947666920207,2.10306582277105,23.945581589264798,24.475942225075155,0.0
0.131,1.2839232440053316,-0.3049790798150258,1.0230390559368103,0.0,2.415737123394123,2.110100023153379,23.60146242332747,24.475942225075155,0.0
0.132,1.2843299620331845,-0.29944693578434867,1.2038434369229516,0.0,2.415062785508176,2.134419057296013,23.48160174422818,24.475942225075155,0.0
0.133,1.2945432144793334,-0.30204445427840965,1.2737171812810661,0.0,2.417228833299742,2.1609974317165213,23.773740061185816,24.475942225075155,0.0
0.134,1.313923223477289,-0.30827297951078275,1.1346700444411413,0.0,2.4224952763448213,2.1671109825128507,24.042000538143974,24.475942225075155,0.0
