timestamp,iq,id,iq_ref,id_ref,vq,vd,omega,omega_ref,r
0.0,0.0,0.0,0.0,0.0,0.0,0.0,0.0,409.4341625860612,0.0
0.001,0.0,0.0,10.0,0.0,0.0,1.0999999999999999,7.509551192985054,409.4341625860612,0.0
0.002,0.788837225498832,-0.46536537968980013,10.0,0.0,0.16119019176587795,1.9032279051951286,13.008632286426437,409.4341625860612,0.0
0.003,1.7492528127697549,-1.0084000652296554,10.0,0.0,0.4416643164871671,2.5444946967025195,18.68686560669105,409.4341625860612,0.0
0.004,2.627969647094992,-1.5170592828217835,10.0,0.0,0.808739874966802,3.062627525628232,24.948234357513694,409.4341625860612,0.0
0.005,3.3402845821690503,-1.9257633345716274,10.0,0.0,1.2307920140076063,3.4960871529944426,30.9548541308384,409.4341625860612,0.0
0.006,3.8736548525833547,-2.231643607039437,10.0,0.0,1.6835446913349115,3.8768584511332804,37.05258284775264,409.4341625860612,0.0
0.007,4.254801862269947,-2.4510805286524127,10.0,0.0,2.1501784893961196,4.228235418829583,43.16782680450504,409.4341625860612,0.0
0.008,4.52322109227598,-2.605528364157209,10.0,0.0,2.620081497110235,4.565423424358578,49.14009914581316,409.4341625860612,0.0
0.009000000000000001,4.716492738008309,-2.7155391087989496,10.0,0.0,3.0872697081613816,4.89730724137559,55.033799772669255,409.4341625860612,0.0
0.01,4.8634805794170815,-2.7994215737900214,10.0,0.0,3.5490544435117153,5.2284855516983715,60.929512733109696,409.4341625860612,0.0
0.011,4.985552408949529,-2.868498369077305,10.0,0.0,4.004538159190985,5.560766481689429,66.86010874690447,409.4341625860612,0.0
0.012,5.095966091216584,-2.9305796555442702,10.0,0.0,4.453839769859925,5.894442903495257,72.62997279253348,409.4341625860612,0.0
0.013000000000000001,5.2032192491852305,-2.988432941816774,10.0,0.0,4.89732191026786,6.2289881336335124,78.22058234168989,409.4341625860612,0.0
0.014,5.3106698032687945,-3.0446738202442796,10.0,0.0,5.33551832341313,6.563680025429232,83.82349133462105,409.4341625860612,0.0
0.015,5.419606707224391,-3.1000096837969195,10.0,0.0,5.7688888206299564,6.897813815465627,89.33981620018122,409.4341625860612,0.0
0.016,5.5309774841574875,-3.152816080666611,10.0,0.0,6.197590992148883,7.230709859796981,94.7216162199734,409.4341625860612,0.0
0.017,5.644192937240865,-3.202813409045738,10.0,0.0,6.621684193102057,7.56184652477725,100.03314251655617,409.4341625860612,0.0
0.018000000000000002,5.758961260277422,-3.248925228854273,10.0,0.0,7.04105406735309,7.890786482351622,105.24829688180789,409.4341625860612,0.0
0.019,5.875242685621369,-3.289836376761373,10.0,0.0,7.455420058008151,8.217126158036196,110.3480033349479,409.4341625860612,0.0
0.02,5.992993731542721,-3.324616793821284,10.0,0.0,7.864400151563684,8.540478664419902,115.33390867070761,409.4341625860612,0.0
0.021,6.112481591534832,-3.352220705211976,10.0,0.0,8.267506112484408,8.860427775380877,120.33184310367189,409.4341625860612,0.0
0.022,6.234001492541923,-3.3719084628360885,10.0,0.0,8.664186002633908,9.176520260826967,124.82797416596574,409.4341625860612,0.0
0.023,6.359054547228787,-3.3811950896408645,10.0,0.0,9.053631803685347,9.488130849737912,129.03049353787085,409.4341625860612,0.0
0.024,6.486466071628919,-3.3822596828338827,10.0,0.0,9.435318322505921,9.794760222725765,133.22772804916417,409.4341625860612,0.0
0.025,6.617865359318927,-3.372773598065983,10.0,0.0,9.808445011486828,10.095715503894986,137.17833539903285,409.4341625860612,0.0
0.026000000000000002,6.754268307800853,-3.351482858350531,10.0,0.0,10.17210743916554,10.390197594389265,140.79242887731988,409.4341625860612,0.0
0.027,6.895731683216767,-3.31878069289667,10.0,0.0,10.525467502323039,10.677400776791055,144.14536056893277,409.4341625860612,0.0
0.028,7.0427352117654065,-3.274400355137459,10.0,0.0,10.867657061905998,10.956463892882228,147.2441471133159,409.4341625860612,0.0
0.029,7.195918282120396,-3.2178059324550565,10.0,0.0,11.197752394022299,11.22645955086902,150.0463084573078,409.4341625860612,0.0
0.03,7.355626455648421,-3.1489187882662506,10.0,0.0,11.514826117091708,11.486429107884224,152.52602584984217,409.4341625860612,0.0
0.031,7.521997718987189,-3.0679633715104564,10.0,0.0,11.817973199154444,11.735405324272865,154.67173536345507,409.4341625860612,0.0
0.032,7.695057641489313,-2.975290719899917,10.0,0.0,12.106318757140176,11.97242574838707,156.4687790835884,409.4341625860612,0.0
0.033,7.874699717723352,-2.871388835210673,10.0,0.0,12.37902932093904,12.196548656727705,157.892373710742,409.4341625860612,0.0
0.034,8.060659850725681,-2.7569061807266166,10.0,0.0,12.635327046045727,12.406871136746245,158.90489523868473,409.4341625860612,0.0
0.035,8.252525277258655,-2.6326219723111652,10.0,0.0,12.87450081026274,12.602545545684997,159.45619438372353,409.4341625860612,0.0
0.036000000000000004,8.4497589478539,-2.499393733541116,10.0,0.0,13.09591237477138,12.78279284065143,159.491341168715,409.4341625860612,0.0
0.037,8.651687853429634,-2.358167752330073,10.0,0.0,13.299004936780278,12.946916719664701,158.95271046414496,409.4341625860612,0.0
0.038,8.857376986853266,-2.2101858365175184,10.0,0.0,13.483334879562353,13.094330951356703,158.0170424559133,409.4341625860612,0.0
0.039,9.068492292642919,-2.052224892747471,10.0,0.0,13.64807736657883,13.224270961855071,156.87716974641876,409.4341625860612,0.0
0.04,9.282979407147817,-1.8869727727148375,10.0,0.0,13.792741482177611,13.336208790467616,155.55836040070315,409.4341625860612,0.0
0.041,9.499194558694292,-1.7163960354708774,10.0,0.0,13.91702204918126,13.429780452253722,154.8736801796121,409.4341625860612,0.0
0.042,9.716749778595686,-1.5402487164048777,10.0,0.0,14.020561287938332,13.504654081887894,156.05622333889468,409.4341625860612,0.0
0.043000000000000003,9.93006220787185,-1.3668622383569669,10.0,0.0,14.10392292638851,13.561105457412992,157.71832747925274,409.4341625860612,0.0
0.044,10.133327237715447,-1.2052249603949003,10.0,0.0,14.168547302750824,13.600021830240564,158.2040299211176,409.4341625860612,0.0
0.045,10.322914288065938,-1.0609170593543853,10.0,0.0,14.216343382424828,13.622687078181485,154.20117162987682,409.4341625860612,0.0
0.046,10.505292398847626,-0.9224137109391846,10.0,0.0,14.247834089610265,13.629699687613247,152.40469714546157,409.4341625860612,0.0
0.047,10.62455989889779,-0.8830308299300746,10.0,0.0,14.273929903593476,13.627864462922668,155.7128521644475,409.4341625860612,0.0
0.048,10.667931908634658,-0.954598031271555,10.0,0.0,14.305498834666967,13.625244096028919,161.03839210970867,409.4341625860612,0.0
0.049,10.668839549439621,-1.0792344102633482,10.0,0.0,14.346643165619419,13.626376538540711,165.54988012095058,409.4341625860612,0.0
0.05,10.637698571298301,-1.2411773744360586,10.0,0.0,14.400353669996878,13.634944753900164,168.41663089688336,409.4341625860612,0.0
0.051000000000000004,10.590594536488359,-1.4163397017870265,10.0,0.0,14.46719837183942,13.6528972322091,170.64070907391658,409.4341625860612,0.0
0.052000000000000005,10.535798264422223,-1.5941972430165707,10.0,0.0,14.546966557590334,13.681295482450565,173.3112694862868,409.4341625860612,0.0
0.053,10.476118539316648,-1.7734666114644986,10.0,0.0,14.639538804907293,13.72084753328394,176.53431993863435,409.4341625860612,0.0
0.054,10.413300623194727,-1.9540756262228927,10.0,0.0,14.744883330514828,13.772014777288017,180.22802269295704,409.4341625860612,0.0
0.055,10.34874583310917,-2.13565067451293,10.0,0.0,14.862977293126335,13.835072597200632,183.91372880197966,409.4341625860612,0.0
0.056,10.283879667774707,-2.316853821074657,10.0,0.0,14.993684237106851,13.910123761669082,186.8259574908327,409.4341625860612,0.0
0.057,10.218725776244,-2.498068777342969,10.0,0.0,15.136947216860055,13.997258770503766,187.70059754708586,409.4341625860612,0.0
0.058,10.146724156581175,-2.691010668841669,10.0,0.0,15.294008858023583,14.097275215677906,188.61471837697127,409.4341625860612,0.0
0.059000000000000004,10.06000303831054,-2.9098065541352827,10.0,0.0,15.467504108055472,14.21181548726412,194.56853179857654,409.4341625860612,0.0
0.06,9.966558652920996,-3.1400112693425064,10.0,0.0,15.658238420062663,14.341662927905048,203.05444074306672,409.4341625860612,0.0
0.061,9.8842705882512,-3.348519613773433,10.0,0.0,15.863517915668554,14.485716298942394,209.93755749467354,409.4341625860612,0.0
0.062,9.811796012377608,-3.5361096516779957,10.0,0.0,16.081224619542787,14.643041605135986,210.89065206733122,409.4341625860612,0.0
0.063,9.736724873702146,-3.72408941934121,10.0,0.0,16.311695057712857,14.813938130593206,213.3244280501065,409.4341625860612,0.0
0.064,9.629199320569835,-3.9658213613827096,10.0,0.0,16.560918820559575,15.001869146779505,224.13138274278128,409.4341625860612,0.0
0.065,9.540261479673,-4.170697940150211,10.0,0.0,16.82413241298427,15.204637344599181,229.41163414340542,409.4341625860612,0.0
0.066,9.471875185214161,-4.332924548461919,10.0,0.0,17.097097627075062,15.42008319586086,229.67523895156702,409.4341625860612,0.0
0.067,9.378368867100622,-4.532819710531418,10.0,0.0,17.38467710662748,15.650882815453354,238.97684881641908,409.4341625860612,0.0
0.068,9.297707808137764,-4.70500385924915,10.0,0.0,17.683519904922164,15.895298074346622,244.56223288693258,409.4341625860612,0.0
0.069,9.235043860074017,-4.839785337433589,10.0,0.0,17.990024070389808,16.151242510877406,249.5464438259791,409.4341625860612,0.0
0.07,9.167608985587197,-4.977525253483908,10.0,0.0,18.305275838947466,16.419034117014803,255.48009578626395,409.4341625860612,0.0
0.07100000000000001,9.136332340563355,-5.049271117494696,10.0,0.0,18.62229623714377,16.69433782160197,253.25690948985732,409.4341625860612,0.0
0.07200000000000001,9.086920432490963,-5.149710953934486,10.0,0.0,18.945475889347435,16.97893573898778,265.6373896656753,409.4341625860612,0.0
0.073,9.088834063113103,-5.16407668471332,10.0,0.0,19.265373200090593,17.266687211406214,263.66567072140475,409.4341625860612,0.0
0.074,9.132103134084755,-5.110379168272033,10.0,0.0,19.576005542884946,17.552912806156456,265.44533329348826,409.4341625860612,0.0
0.075,9.145815512545994,-5.112643180279163,10.0,0.0,19.88498322736008,17.84050340479009,274.9155574774216,409.4341625860612,0.0
0.076,9.250249447221611,-4.9750598727568365,10.0,0.0,20.176665399303538,18.11888210297817,269.00241458299644,409.4341625860612,0.0
0.077,9.387041847492679,-4.7953234210110836,10.0,0.0,20.44862204725466,18.38458832385873,268.3372250053394,409.4341625860612,0.0
0.078,9.505933515956253,-4.66253874222128,10.0,0.0,20.707144702349293,18.639209427918058,275.80981656034993,409.4341625860612,0.0
0.079,9.711877650911925,-4.4086345960052045,10.0,0.0,20.938675593044536,18.87275574892044,274.06867451883653,409.4341625860612,0.0
0.08,9.967252149085235,-4.094027865439721,10.0,0.0,21.138340327870434,19.080068773442598,265.74851545028724,409.4341625860612,0.0
0.081,10.2326410751581,-3.7855812508135824,10.0,0.0,21.307986831362754,19.259977932108836,261.34922034578375,409.4341625860612,0.0
0.082,10.506716539654896,-3.488059020976303,10.0,0.0,21.449016621236616,19.411366413423764,262.17297519050896,409.4341625860612,0.0
0.083,10.82196757999517,-3.1477606602753516,10.0,0.0,21.556624682875853,19.529782165802132,261.84319858565186,409.4341625860612,0.0
0.084,11.166987634550969,-2.7792341578440074,10.0,0.0,21.628178581928573,19.612317453508854,260.07003825945134,409.4341625860612,0.0
0.085,11.530862330066183,-2.3966855157907028,10.0,0.0,21.662435534245137,19.657178586389044,256.2433304545813,409.4341625860612,0.0
0.08600000000000001,11.902610741490143,-2.014134263374779,10.0,0.0,21.659497753272856,19.663725722911412,250.747608934705,409.4341625860612,0.0
0.08700000000000001,12.274229028349444,-1.640305104866684,10.0,0.0,21.62021276913829,19.63216384024401,244.0113039840003,409.4341625860612,0.0
0.088,12.640831966205276,-1.2782574448004629,10.0,0.0,21.545613144128243,19.563219507134356,236.20088329593594,409.4341625860612,0.0
0.089,13.000285586047774,-0.926021697431922,10.0,0.0,21.43645359269836,19.457835776030542,228.17805461909586,409.4341625860612,0.0
0.09,13.350780281532987,-0.5808292364051832,10.0,0.0,21.293222810061824,19.31711458258917,222.68374582804626,409.4341625860612,0.0
0.091,13.685217587814748,-0.24904181906599962,10.0,0.0,21.117198295047775,19.142859273492142,229.75045066133373,409.4341625860612,0.0
0.092,13.737535942446685,-0.3651980012501206,10.0,0.0,20.957445754839064,18.966016397856723,234.6180408213251,409.4341625860612,0.0
0.093,13.669467779350523,-0.6363933427407833,10.0,0.0,20.824654106829815,18.798893237250866,237.20486480188535,409.4341625860612,0.0
0.094,13.538487730699561,-0.961452375166591,10.0,0.0,20.721473847712836,18.64893035162531,240.32414036311903,409.4341625860612,0.0
0.095,13.366497817934825,-1.3072997731155542,10.0,0.0,20.648407949395125,18.521254818568227,244.1292093978008,409.4341625860612,0.0
0.096,13.167372782536132,-1.6595977261928632,10.0,0.0,20.6051753884625,18.419224103751294,248.35075985486515,409.4341625860612,0.0
0.097,12.95103248390659,-2.011874092828268,10.0,0.0,20.591290432940557,18.34487938681805,252.2759604233962,409.4341625860612,0.0
0.098,12.72476415179259,-2.3608524026458975,10.0,0.0,20.60622435169107,18.299306759572186,255.07419424561874,409.4341625860612,0.0
0.099,12.491573271859153,-2.7084396284020786,10.0,0.0,20.649852427576953,18.283173100397487,256.6714979291739,409.4341625860612,0.0
0.1,12.249357801178384,-3.0633301444656604,10.0,0.0,20.72306641446621,18.297327407704405,258.7279156445151,409.4341625860612,0.0
0.101,11.996938522209778,-3.430740764756707,10.0,0.0,20.827240696468607,18.342731648949293,265.0036390022163,409.4341625860612,0.0
0.10200000000000001,11.73789665842309,-3.805703444010697,10.0,0.0,20.96310976291029,18.41998330649678,275.9126308349319,409.4341625860612,0.0
0.10300000000000001,11.500921156480416,-4.1366612126088675,10.0,0.0,21.125772816215807,18.526573591509518,280.17540567088747,409.4341625860612,0.0
0.10400000000000001,11.286640409541217,-4.420314695653423,10.0,0.0,21.310720898140964,18.659972280495417,280.06249134946404,409.4341625860612,0.0
0.105,11.04648717336109,-4.742599548506263,10.0,0.0,21.523128839755568,18.822799957285667,291.3415749575946,409.4341625860612,0.0
0.106,10.816877865592957,-5.04141938508413,10.0,0.0,21.760226088382762,19.013441152051044,297.61114631196966,409.4341625860612,0.0
0.107,10.640158351627438,-5.24132437267766,10.0,0.0,22.01167908189329,19.225871005661123,298.33983061617056,409.4341625860612,0.0
0.108,10.4506568125261,-5.457109759812029,10.0,0.0,22.280967104122624,19.461281147422753,307.35755160907877,409.4341625860612,0.0
0.109,10.29163821347503,-5.618899290233054,10.0,0.0,22.562506332780153,19.715676107735742,310.5020962067083,409.4341625860612,0.0
0.11,10.197178486726933,-5.670662033557874,10.0,0.0,22.845407141064747,19.981585878834967,309.1567649015447,409.4341625860612,0.0
0.111,10.088297945601955,-5.7520238063059645,10.0,0.0,23.13504101319985,20.260227015909006,320.9505182412405,409.4341625860612,0.0
0.112,10.071107799144045,-5.692079739836188,10.0,0.0,23.416168146789683,20.540769537188265,314.2947889529205,409.4341625860612,0.0
0.113,10.118711549998988,-5.539769603275918,10.0,0.0,23.68108214479153,20.81596220563995,314.98698754505716,409.4341625860612,0.0
0.114,10.155142855110016,-5.431239178985795,10.0,0.0,23.936608764532046,21.086595600992993,323.8235330944134,409.4341625860612,0.0
0.115,10.319738327991484,-5.14511298203272,10.0,0.0,24.163257484411886,21.337977129818942,315.95489486682675,409.4341625860612,0.0
0.116,10.54947868564829,-4.786239082130672,10.0,0.0,24.35576461816664,21.563259893136838,306.2452689165459,409.4341625860612,0.0
0.117,10.783621037887418,-4.461250288889985,10.0,0.0,24.51938928662025,21.76180683832869,309.55649059582555,409.4341625860612,0.0
0.11800000000000001,11.08465152777904,-4.0738600313043865,10.0,0.0,24.647143142345676,21.92608962548102,311.39861918145704,409.4341625860612,0.0
0.11900000000000001,11.461867066202954,-3.6057112485939724,10.0,0.0,24.730927427691498,22.048236115162947,306.5186792750819,409.4341625860612,0.0
0.12,11.886066428215054,-3.099854719904065,10.0,0.0,24.767585203142158,22.123656609974173,299.31978723422,409.4341625860612,0.0
0.121,12.329481760388095,-2.5974128551294164,10.0,0.0,24.757909210690546,22.15066713993043,292.71135254069287,409.4341625860612,0.0
0.122,12.784070877764847,-2.1061823916491296,10.0,0.0,24.702890938144645,22.128438368056194,286.45643686189004,409.4341625860612,0.0
0.123,13.240187755223232,-1.634060806174288,10.0,0.0,24.60413054589849,22.057303680768136,279.67327600130585,409.4341625860612,0.0
0.124,13.690360430338469,-1.1842219056550416,10.0,0.0,24.46337166094576,21.93844859749617,270.1020620278915,409.4341625860612,0.0
0.125,14.131285721054926,-0.7524188211976082,10.0,0.0,24.281803205875995,21.773403078828473,259.1681325596823,409.4341625860612,0.0
0.126,14.562358691343604,-0.32967324350997274,10.0,0.0,24.059703061745363,21.56369649269597,254.28023015577747,409.4341625860612,0.0
0.127,14.8926606224835,-0.06095007480724046,10.0,0.0,23.81351018063412,21.320728068041163,258.8993212581912,409.4341625860612,0.0
0.128,14.918131703591165,-0.25680572616379926,10.0,0.0,23.591871098504768,21.077938398130268,263.8200237925819,409.4341625860612,0.0
0.129,14.810165574686053,-0.6069021732243645,10.0,0.0,23.404669010260363,20.849394771988162,268.17143310618775,409.4341625860612,0.0
0.13,14.619557959114676,-1.0231032427357096,10.0,0.0,23.25561392140182,20.644872476059632,272.5048781931336,409.4341625860612,0.0
0.131,14.375374532594599,-1.4640479517806524,10.0,0.0,23.145354019136118,20.470851001599588,277.288853478213,409.4341625860612,0.0
0.132,14.096420760135159,-1.9107367765703933,10.0,0.0,23.073444283287408,20.331448765064316,281.2687541297242,409.4341625860612,0.0
0.133,13.79621219652474,-2.353722673076932,10.0,0.0,23.039046857737848,20.229029182870253,284.63848177489695,409.4341625860612,0.0
0.134,13.481990251176413,-2.792416400659171,10.0,0.0,23.04167366759284,20.164974144692863,287.1495286518369,409.4341625860612,0.0
0.135,13.156149440051802,-3.2318516860188886,10.0,0.0,23.081583236758323,20.140287561088922,290.03253039063856,409.4341625860612,0.0
0.136,12.820764520316303,-3.6746893341795235,10.0,0.0,23.15935097909094,20.155694525821588,296.32212967695193,409.4341625860612,0.0
0.137,12.480030788352336,-4.117142325485945,10.0,0.0,23.275124096225667,20.21146442963293,307.3992082450391,409.4341625860612,0.0
0.138,12.16350471134188,-4.507863726712595,10.0,0.0,23.42345171624991,20.304645185928123,310.9740651733078,409.4341625860612,0.0
0.139,11.87287649644724,-4.842747883968405,10.0,0.0,23.599194693187137,20.43214447146452,312.53255529050193,409.4341625860612,0.0
0.14,11.559562074421429,-5.20875375994134,10.0,0.0,23.80702510576874,20.596026430414895,324.86745099031185,409.4341625860612,0.0
0.14100000000000001,11.28348015252096,-5.504310153145436,10.0,0.0,24.03931181747994,20.791539101917195,327.405988146615,409.4341625860612,0.0
0.14200000000000002,11.056291233105544,-5.709112444102717,10.0,0.0,24.287493813243508,21.01295913935706,330.806093938691,409.4341625860612,0.0
0.14300000000000002,10.829192798295441,-5.911703003919567,10.0,0.0,24.55323655184499,21.259764311264263,339.8758658021414,409.4341625860612,0.0
0.14400000000000002,10.684149468345018,-5.97895436412382,10.0,0.0,24.822457277801337,21.52214702178734,333.26652273097824,409.4341625860612,0.0
0.145,10.580155793712938,-5.985943094721956,10.0,0.0,25.091090448978118,21.79520240476377,342.9991006946824,409.4341625860612,0.0
0.146,10.507304627065732,-5.960840014205213,10.0,0.0,25.357334615172036,22.074789258145106,345.75272270250406,409.4341625860612,0.0
0.147,10.575724435987798,-5.728789973010246,10.0,0.0,25.59963857635842,22.34478715215979,335.0423772373544,409.4341625860612,0.0
0.148,10.659863853935253,-5.505414504805142,10.0,0.0,25.822461129737015,22.603444515006654,340.0603374007098,409.4341625860612,0.0
0.149,10.810547222613193,-5.22104397264653,10.0,0.0,26.019820160207047,22.84278462053159,343.79788966968624,409.4341625860612,0.0
0.15,11.094936922296595,-4.770306313877837,10.0,0.0,26.174639861039598,23.048150585272648,331.48391854380895,409.4341625860612,0.0
