timestamp,iq,id,iq_ref,id_ref,vq,vd,omega,omega_ref,r
0.0,0.0,0.0,0.0,0.0,0.0,0.0,0.0,365.8642562755792,0.0
0.001,0.0,0.0,10.0,0.0,0.0,1.0999999999999999,16.672197491592566,365.8642562755792,0.0
0.002,0.47662155503279297,-0.24962724321732627,10.0,0.0,0.1374589967539058,1.9375716289463922,32.501018449394834,365.8642562755792,0.0
0.003,1.1835880154794982,-0.6449412748723693,10.0,0.0,0.3859175277769418,2.632131899574727,48.67400643501392,365.8642562755792,0.0
0.004,1.9959606672293144,-1.0992970823232917,10.0,0.0,0.7250122312635588,3.1997906691545173,65.67895128832238,365.8642562755792,0.0
0.005,2.8166677126927055,-1.5594260248699408,10.0,0.0,1.1330339669651153,3.6624389836415174,82.98546221399508,365.8642562755792,0.0
0.006,3.5813319428940833,-1.9888154810588217,10.0,0.0,1.5891499113005265,4.043718645382454,100.72143309661105,365.8642562755792,0.0
0.007,4.25259167298642,-2.3655294590557023,10.0,0.0,2.074926870394259,4.366290007374697,117.80219257522296,365.8642562755792,0.0
0.008,4.813695198811994,-2.6799533996080926,10.0,0.0,2.575202763458635,4.650173138537198,134.6250116487138,365.8642562755792,0.0
0.009000000000000001,5.264029334211567,-2.9295073318425997,10.0,0.0,3.078146073473096,4.911769826254188,151.08581089951235,365.8642562755792,0.0
0.01,5.61277375413515,-3.11792810147038,10.0,0.0,3.5751854665945206,5.163642631363328,166.93501942116652,365.8642562755792,0.0
0.011,5.875483870696542,-3.251519898507083,10.0,0.0,4.060519090892478,5.41462142665118,182.1120739611359,365.8642562755792,0.0
0.012,6.0705338649325356,-3.337739992418447,10.0,0.0,4.5305655246493055,5.6702073066396945,196.5347103632483,365.8642562755792,0.0
0.013000000000000001,6.216737414354472,-3.383861533097264,10.0,0.0,4.983377071564859,5.933107351510989,210.10664680962074,365.8642562755792,0.0
0.014,6.3317897642151,-3.396082886470241,10.0,0.0,5.418080601740226,6.20380482359626,222.7402743907973,365.8642562755792,0.0
0.015,6.431289815768146,-3.3791705524929116,10.0,0.0,5.8344009558353465,6.4811084193183115,234.34586011172956,365.8642562755792,0.0
0.016,6.5282881993826045,-3.336384005546463,10.0,0.0,6.2322822372688265,6.762638869195609,245.39209758876132,365.8642562755792,0.0
0.017,6.633224151388029,-3.2695823077684176,10.0,0.0,6.611608114260565,7.045231431344074,254.46295223855654,365.8642562755792,0.0
0.018000000000000002,6.753844891473237,-3.1798401215680183,10.0,0.0,6.972057036263712,7.325278403087546,262.3026940603598,365.8642562755792,0.0
0.019,6.895957758731113,-3.067045806626762,10.0,0.0,7.312955810459359,7.598939361859471,267.38030490758456,365.8642562755792,0.0
0.02,7.062763699898413,-2.9317985404087357,10.0,0.0,7.633381546978065,7.862396577317949,272.56500769482057,365.8642562755792,0.0
0.021,7.256637253711182,-2.773422849289643,10.0,0.0,7.932041578029827,8.111892613374714,276.21398317418357,365.8642562755792,0.0
0.022,7.47764203481234,-2.5929572730527233,10.0,0.0,8.207517753107219,8.343933258547976,278.5770236442841,365.8642562755792,0.0
0.023,7.725057584642382,-2.3913213406482714,10.0,0.0,8.458275078392074,8.555311794041362,279.67880175085935,365.8642562755792,0.0
0.024,7.99698335456622,-2.170299151905388,10.0,0.0,8.682798443260115,8.743190529320573,279.58259298746714,365.8642562755792,0.0
0.025,8.29070450626156,-1.9322178552349714,10.0,0.0,8.879678624422956,8.905143658571419,278.38848849857163,365.8642562755792,0.0
0.026000000000000002,8.602768329177858,-1.6799774966297112,10.0,0.0,9.047700473914716,9.039199684009622,276.2311092695028,365.8642562755792,0.0
0.027,8.929202536948791,-1.416792595678519,10.0,0.0,9.185897805482549,9.143865167227542,286.5850828636226,365.8642562755792,0.0
0.028,9.191879758788012,-1.2681617562082992,10.0,0.0,9.307024408883173,9.226253682955846,302.72818481165785,365.8642562755792,0.0
0.029,9.361896564067912,-1.2704064736405623,10.0,0.0,9.426010430828821,9.296440931088993,311.53203839718793,365.8642562755792,0.0
0.03,9.481805910618426,-1.3455590443835699,10.0,0.0,9.548360911000625,9.360018196535629,326.5192219554601,365.8642562755792,0.0
0.031,9.546247303542051,-1.4947252231789383,10.0,0.0,9.680490823659971,9.423583323698685,339.04612462767307,365.8642562755792,0.0
0.032,9.574350192006927,-1.6798843364786542,10.0,0.0,9.824640098444705,9.491558025609471,353.64241203722815,365.8642562755792,0.0
0.033,9.549167348172464,-1.925388484803804,10.0,0.0,9.986325781124812,9.570201326514091,368.2019580358114,365.8642562755792,0.0
0.034,9.49006489369778,-2.1967885715691167,2.9912695566012983,0.0,10.167106193688305,8.892437958376277,369.31726570878175,365.8642562755792,0.0
0.035,9.055090610616663,-2.3459161837386033,2.3990856257840996,0.0,10.27572226465266,8.352732186946866,371.4899075927108,365.8642562755792,0.0
0.036000000000000004,8.407049861597098,-2.398533394641327,1.2565081706482673,0.0,10.323802768455234,7.825031658561395,371.41980601447904,365.8642562755792,0.0
0.037,7.601731282643662,-2.379721877320647,1.2360034623751401,0.0,10.311709730024713,7.446184126230733,369.0644054326355,365.8642562755792,0.0
0.038,6.753998451343269,-2.322476153069223,2.3817022617263395,0.0,10.256832327709724,7.315441383954953,368.3595364836129,365.8642562755792,0.0
0.039,5.993162556150057,-2.277773084371577,2.709183934157315,0.0,10.190023511084426,7.292065791807399,367.7725624113378,365.8642562755792,0.0
0.04,5.3547081137118,-2.256398576455407,2.983587908937278,0.0,10.1256538517231,7.353878127429831,366.56164971936334,365.8642562755792,0.0
0.041,4.857541935172516,-2.2562784861539047,3.5820703204866575,0.0,10.07410292700615,7.514465024291457,368.2616046530556,365.8642562755792,0.0
0.042,4.5202175007143675,-2.278289245956878,2.7081193698657664,0.0,10.0461881689284,7.583852736316441,364.9849203908687,365.8642562755792,0.0
0.043000000000000003,4.270278978331933,-2.288568312153523,4.355254859806324,0.0,10.02891424754452,7.857554607848305,365.67495002219465,365.8642562755792,0.0
0.044,4.1884327475560745,-2.3092689422899757,4.012133106677191,0.0,10.042912184105262,8.054447852506506,364.90336424158494,365.8642562755792,0.0
0.045,4.203749447301983,-2.3155833256695284,4.407534917321989,0.0,10.075687227346135,8.27747368377737,363.47696788960195,365.8642562755792,0.0
0.046,4.314865604778773,-2.298073094948074,5.1446059771732555,0.0,10.12549808017685,8.546528624397443,362.54951267295553,365.8642562755792,0.0
0.047,4.524520741222406,-2.2633349600297294,5.6414810215227025,0.0,10.193587249252696,8.818993797084469,360.5214236432982,365.8642562755792,0.0
0.048,4.819983000487917,-2.2037868746397677,6.708953862674181,0.0,10.275911110645952,9.153070334338777,360.4693368091767,365.8642562755792,0.0
0.049,5.21445616997708,-2.131158342828022,6.788946474398954,0.0,10.376016581979922,9.41965863683404,355.0506848430509,365.8642562755792,0.0
0.05,5.665750437236724,-2.0247295334648134,9.606408171787148,0.0,10.481789452718177,9.933021879104952,359.9876364376054,365.8642562755792,0.0
0.051000000000000004,6.269740016894234,-1.9461987355092107,7.196698572889636,0.0,10.620747260928221,10.050457500280263,347.8635213268324,365.8642562755792,0.0
0.052000000000000005,6.841428872378251,-1.7828765719956114,10.0,0.0,10.740372720427846,10.445659714823503,350.696044343995,365.8642562755792,0.0
0.053,7.49953083164129,-1.6396051161756642,10.0,0.0,10.873429216926784,10.718596912627177,344.70778225718584,365.8642562755792,0.0
0.054,8.205474646052465,-1.4465295637756577,10.0,0.0,11.000668187350389,10.906473240307783,337.0318688670368,365.8642562755792,0.0
0.055,8.898649565454711,-1.2360806848835901,10.0,0.0,11.112752272345565,11.019096029272548,347.9167775547742,365.8642562755792,0.0
0.056,9.564280690705083,-0.9950821686788619,10.0,0.0,11.200484879744101,11.065377273256836,358.9996592878785,365.8642562755792,0.0
0.057,9.967560869138543,-1.078476398288892,8.29150228074197,0.0,11.295655701220364,10.890164396088991,375.16619203235575,365.8642562755792,0.0
0.058,10.183313692584123,-1.1835207583822545,0.11521655093557825,0.0,11.374509090146386,9.839983426904752,370.7265783659052,365.8642562755792,0.0
0.059000000000000004,9.8446720527149,-1.1686988402458414,2.2864001632575963,0.0,11.337778188665443,9.2627070568051,375.04009435757223,365.8642562755792,0.0
0.06,9.294535866746564,-1.1502431415850551,0.037883786604149705,0.0,11.245110832651307,8.527565160070038,372.6280533572422,365.8642562755792,0.0
0.061,8.511450039730189,-1.1042761405919281,1.17626631595253,0.0,11.08332420944244,8.085016038514048,371.33279023464854,365.8642562755792,0.0
0.062,7.687139724246697,-1.087371172262903,1.7692125376586691,0.0,10.892061459892602,7.80722670231998,370.44548684103427,365.8642562755792,0.0
0.063,6.905749302749228,-1.1248642142644412,2.167051928811256,0.0,10.696439335981799,7.6536327388099465,370.3633507708686,365.8642562755792,0.0
0.064,6.217193808085764,-1.2170476464939393,2.1631290189412065,0.0,10.514785275236303,7.559353245460612,369.84627560769303,365.8642562755792,0.0
0.065,5.628359768430852,-1.3502057075305194,2.381846407207842,0.0,10.355594223622148,7.538320626595093,369.8030457665339,365.8642562755792,0.0
0.066,5.150264987095962,-1.512964484787558,2.364073432877861,0.0,10.22679090017077,7.546032048946039,369.65179119600094,365.8642562755792,0.0
0.067,4.770384175426403,-1.6868285639693528,2.4018253689401208,0.0,10.129136512237054,7.581428380897202,369.38835632737704,365.8642562755792,0.0
0.068,4.479222785483925,-1.855204249535722,2.498301802734094,0.0,10.061569880912304,7.641983473993568,368.59068028514145,365.8642562755792,0.0
0.069,4.268721589072449,-2.0046664145412305,2.8698755837562686,0.0,10.021572503324606,7.74987826392816,368.56902553526083,365.8642562755792,0.0
0.07,4.142427137982617,-2.1309528053149736,2.853655266099757,0.0,10.008761223824196,7.849271242013852,367.23459066718067,365.8642562755792,0.0
0.07100000000000001,4.078850300619976,-2.22152757094969,3.507169356223825,0.0,10.01587073039448,8.015223055030138,365.9755946139666,365.8642562755792,0.0
0.07200000000000001,4.09844583375505,-2.2784189429398642,4.135553999446975,0.0,10.044216770871934,8.225086530236645,365.59407572543114,365.8642562755792,0.0
0.073,4.2042358607222114,-2.3059037140136214,4.329015249216195,0.0,10.093168965920503,8.420354205377592,363.4641787044176,365.8642562755792,0.0
0.074,4.37492191315335,-2.2956432527318666,5.417964535434593,0.0,10.15534921052658,8.701122575997882,363.13001127958665,365.8642562755792,0.0
0.075,4.640614287932895,-2.2600973846762966,5.61239069780998,0.0,10.235580826860787,8.943010218314418,359.6490682709648,365.8642562755792,0.0
0.076,4.967065667048097,-2.191793557908933,7.415014082167056,0.0,10.324820083529367,9.33182384073337,361.46711405297407,365.8642562755792,0.0
0.077,5.4139247655237055,-2.1165109350245235,6.549962613388468,0.0,10.436418726523376,9.531608144126903,351.31821481232635,365.8642562755792,0.0
0.078,5.876572363279774,-1.996071688539588,10.0,0.0,10.54434044467284,10.06430586392713,356.96371670124944,365.8642562755792,0.0
0.079,6.507777209225246,-1.8979051814982486,9.00072964665971,0.0,10.68514583967768,10.345299813752288,352.795818465138,365.8642562755792,0.0
0.08,7.16824673612891,-1.760477064339912,10.0,0.0,10.825834662347548,10.665847750996303,353.29071620603787,365.8642562755792,0.0
0.081,7.869497243010704,-1.6123594516607511,10.0,0.0,10.969590740251707,10.887884212761538,343.7218050040249,365.8642562755792,0.0
0.082,8.59040079367815,-1.4019801482688488,10.0,0.0,11.099514309295657,11.029805750636067,335.49378635479604,365.8642562755792,0.0
0.083,9.276614420933113,-1.1716235448161147,10.0,0.0,11.207402241876782,11.102253028136165,351.103248883756,365.8642562755792,0.0
0.084,9.825166850929865,-1.0689739631361448,10.0,0.0,11.302758220999534,11.12476574011727,372.9427447940259,365.8642562755792,0.0
0.085,10.18234464024526,-1.160047129774627,1.4460826487176108,0.0,11.40187441755516,10.179827837646757,369.34674399958885,365.8642562755792,0.0
0.08600000000000001,10.007834366217132,-1.1424167465599728,3.2092581686960298,0.0,11.393735130388169,9.641551733825555,375.08831361706586,365.8642562755792,0.0
0.08700000000000001,9.596474425019673,-1.138147488111362,0.24623278654265768,0.0,11.332288846958555,8.856229255224555,373.20016023879083,365.8642562755792,0.0
0.088,8.899392759348755,-1.0912234942888173,1.1169504360480582,0.0,11.19333599727581,8.341268975219647,373.0505143263518,365.8642562755792,0.0
0.089,8.106055668385482,-1.065247375204414,1.119910811759853,0.0,11.014394271399794,7.9358241664294535,371.21780826714627,365.8642562755792,0.0
0.09,7.291806284949672,-1.073129915410476,1.9827283214469427,0.0,10.813929077845865,7.7295440495074414,370.4532727122734,365.8642562755792,0.0
0.091,6.5538363538238045,-1.138968564920529,2.3191059345164255,0.0,10.620045817999179,7.6252529858525,370.55058644144606,365.8642562755792,0.0
0.092,5.921968291300282,-1.258886967022944,2.2235857682714357,0.0,10.447654415507829,7.560257495727066,370.2154549773594,365.8642562755792,0.0
0.093,5.390980646256204,-1.4127185084402458,2.3476395132969623,0.0,10.301724889787952,7.551213488309916,370.11985673103976,365.8642562755792,0.0
0.094,4.963329709725807,-1.5862427550631042,2.352882631902176,0.0,10.187033267612684,7.5695488612267114,369.90998945935496,365.8642562755792,0.0
0.095,4.62752445385592,-1.762013980130614,2.417358935906819,0.0,10.103243937237824,7.614283565669143,369.13538572565227,365.8642562755792,0.0
0.096,4.374786289697605,-1.9253388180713773,2.771949508257433,0.0,10.048515030267502,7.708969212047084,369.61269122952393,365.8642562755792,0.0
0.097,4.2099476227746235,-2.0685050890434007,2.4958124067821545,0.0,10.022842620059517,7.770397287924356,367.4569098719313,365.8642562755792,0.0
0.098,4.098073950371354,-2.1746842938856616,3.5577765496149407,0.0,10.016128308282992,7.953350459214593,367.7841384849036,365.8642562755792,0.0
0.099,4.086790404198271,-2.254242974241627,3.3749634210355435,0.0,10.036070407603875,8.086730249981093,365.66313363675636,365.8642562755792,0.0
0.1,4.131029555047621,-2.294427029136531,4.437477071497405,0.0,10.070980935304197,8.322491762384477,365.2950527618656,365.8642562755792,0.0
0.101,4.272306828601091,-2.303805109266105,4.62720954407993,0.0,10.126606309740133,8.533315503214622,362.7511659789079,365.8642562755792,0.0
0.10200000000000001,4.477654372867927,-2.281329072636593,5.9302838385254715,0.0,10.195185375984945,8.848884797934712,363.4248644298421,365.8642562755792,0.0
0.10300000000000001,4.790425952349201,-2.2354977248375025,5.617828531515752,0.0,10.28364677718568,9.060002844791482,357.19179422530186,365.8642562755792,0.0
0.10400000000000001,5.140360084886882,-2.153892883573202,8.821088254288645,0.0,10.375855623890939,9.578973310873431,360.6572092840397,365.8642562755792,0.0
0.105,5.667030371278307,-2.0885502894053873,7.140451194835116,0.0,10.504368995588047,9.783930551072414,355.5916893976909,365.8642562755792,0.0
0.106,6.196818895729865,-1.9722080917558202,9.775936806788396,0.0,10.628382538335572,10.234943157504846,357.7400549850079,365.8642562755792,0.0
0.107,6.845293063548164,-1.8609331524353094,8.78299602603563,0.0,10.774019166102827,10.451643242350958,347.578145889424,365.8642562755792,0.0
0.108,7.500148846748458,-1.6906455008075487,10.0,0.0,10.909143247292116,10.739487431958937,347.5848023328972,365.8642562755792,0.0
0.109,8.182215149622182,-1.5195410021998779,10.0,0.0,11.042420720992709,10.9314108355013,342.4860845810162,365.8642562755792,0.0
0.11,8.883782073391698,-1.282259011414851,10.0,0.0,11.157172813677203,11.047117947473575,335.7055829378805,365.8642562755792,0.0
0.111,9.552338621951334,-1.024194648525992,10.0,0.0,11.246006148280552,11.096204006413206,362.62871250984847,365.8642562755792,0.0
0.112,9.965686182443923,-1.0844388699811018,6.763282184423219,0.0,11.340072263306476,10.754443167037179,371.43905155509464,365.8642562755792,0.0
0.113,10.119856371981722,-1.1337891569310052,2.3023647090049817,0.0,11.39538177224215,9.985106033716875,372.4382719285512,365.8642562755792,0.0
0.114,9.851782870086176,-1.1458036632935293,1.7370143657469717,0.0,11.3690547097826,9.311683988721853,374.9635514498342,365.8642562755792,0.0
0.115,9.316928970169176,-1.1261155384710912,0.38338165336292995,0.0,11.275732310275407,8.615878541022633,373.7989553277458,365.8642562755792,0.0
0.116,8.5633290136963,-1.0889570627854024,0.8863327238854772,0.0,11.118271054871816,8.126729799236784,372.0998760897003,365.8642562755792,0.0
0.117,7.7410490560009375,-1.071511189859668,1.6735161447670164,0.0,10.926093589565019,7.835225267462665,371.2872576097418,365.8642562755792,0.0
0.11800000000000001,6.95639093744865,-1.1057282479541466,2.025595371404626,0.0,10.727921752731145,7.662599916520397,370.64397074615255,365.8642562755792,0.0
0.11900000000000001,6.2568478899331765,-1.1939590050976356,2.29944165849352,0.0,10.54166777719127,7.583125370343551,370.4322775431839,365.8642562755792,0.0
0.12,5.666623958656557,-1.3286973756737104,2.359608047301803,0.0,10.380030657779628,7.554781923093693,370.34730410791985,365.8642562755792,0.0
0.121,5.184111713316232,-1.4937120781479691,2.3572642866104125,0.0,10.248527139150573,7.559423738738194,370.19859475391854,365.8642562755792,0.0
0.122,4.799768131406612,-1.6703061349130042,2.3882755788276757,0.0,10.148413353168285,7.591338372262807,369.95512741754055,365.8642562755792,0.0
0.123,4.503599270478959,-1.8419669106323489,2.4691005355970557,0.0,10.078619153898167,7.647365935042135,369.0859589562763,365.8642562755792,0.0
0.124,4.287110794401596,-1.99480424028441,2.8714677394222257,0.0,10.036502629337523,7.755115508228826,369.22896949839105,365.8642562755792,0.0
0.125,4.156312947374235,-2.1245512460775537,2.7663153361367163,0.0,10.022116511892339,7.844510913653364,367.67029409491397,365.8642562755792,0.0
0.126,4.084239212203757,-2.2177245331087487,3.5275926596819094,0.0,10.02706013824963,8.01494032881223,366.8509358144209,365.8642562755792,0.0
0.127,4.0994906738547,-2.277754917416587,3.92740500454003,0.0,10.054223952890624,8.202789351656575,365.83642425055456,365.8642562755792,0.0
0.128,4.191261974733532,-2.3054075245165424,4.434939106723444,0.0,10.099897771289873,8.416458152992021,364.2184178392886,365.8642562755792,0.0
0.129,4.3601337713574235,-2.2978258142688555,5.260400696719341,0.0,10.161260573784498,8.681394705291716,363.2336347189148,365.8642562755792,0.0
0.13,4.615532657381123,-2.264459127341726,5.779098472472873,0.0,10.239386232800118,8.948370862547467,360.91353492662546,365.8642562755792,0.0
0.131,4.94625340886854,-2.2006052828253675,6.98865558210708,0.0,10.329706685612226,9.29050098047805,361.2412354768314,365.8642562755792,0.0
0.132,5.374205584196514,-2.1219458691178095,6.8710355149916,0.0,10.437194107873516,9.538648821646547,353.1258426578709,365.8642562755792,0.0
0.133,5.845316284069042,-2.005044040002523,10.0,0.0,10.546674964959921,10.070550259713698,360.04750146497764,365.8642562755792,0.0
0.134,6.477170557130217,-1.9171858013276375,7.632331883988587,0.0,10.68990249218131,10.203683639033432,348.13050275479503,365.8642562755792,0.0
0.135,7.079763039858662,-1.7485376281271914,10.0,0.0,10.814447887947237,10.56197997669518,349.8745039185562,365.8642562755792,0.0
0.136,7.748145869447488,-1.5937008918265643,10.0,0.0,10.947022818641683,10.805728352579749,344.02663205434476,365.8642562755792,0.0
0.137,8.454867319796119,-1.3824744549099275,10.0,0.0,11.069028553157317,10.967303852702846,335.06257330692017,365.8642562755792,0.0
0.138,9.141849967595787,-1.15233515764435,10.0,0.0,11.171788205903647,11.056421499510718,352.37584496589994,365.8642562755792,0.0
0.139,9.707744200396506,-1.0396508666160982,10.0,0.0,11.263089779015683,11.091524807782355,370.50891856338404,365.8642562755792,0.0
0.14,10.09302339366633,-1.1133300216347397,2.84288428333668,0.0,11.358003075606009,10.308243444773385,369.0551968386374,365.8642562755792,0.0
0.14100000000000001,10.000864024030879,-1.1335004362839896,3.5378357400794123,0.0,11.36657886029764,9.77478768772529,374.98179104997155,365.8642562755792,0.0
0.14200000000000002,9.65946219576124,-1.1513621215933108,0.4833632866684212,0.0,11.322714572052826,8.989226207821824,373.96312905598023,365.8642562755792,0.0
