timestamp,iq,id,iq_ref,id_ref,vq,vd,omega,omega_ref,r
0.0,0.0,0.0,0.0,0.0,0.0,0.0,0.0,425.8844216202067,0.0
0.001,0.0,0.0,10.0,0.0,0.0,1.0999999999999999,6.522174098840823,425.8844216202067,0.0
0.002,0.49089074033009744,-0.2748859166378534,10.0,0.0,0.1402374508301639,1.936002018563689,13.710684718724847,425.8844216202067,0.0
0.003,1.1185190967682745,-0.6266965732378958,10.0,0.0,0.38600167149330633,2.638297368549128,21.318642452013044,425.8844216202067,0.0
0.004,1.7401244564406746,-0.9749791060228578,10.0,0.0,0.7122119771290237,3.2328392996027526,29.1709168830064,425.8844216202067,0.0
0.005,2.2893135959559077,-1.2814825307867186,10.0,0.0,1.0954879967027076,3.746353316364638,37.16671528029014,425.8844216202067,0.0
0.006,2.7443646846122247,-1.533879830089014,10.0,0.0,1.516486484670825,4.202279805050658,45.21938076374504,425.8844216202067,0.0
0.007,3.107690083467589,-1.7335909375588363,10.0,0.0,1.9604220215393897,4.619298210677363,53.24041118048382,425.8844216202067,0.0
0.008,3.392726310370452,-1.8883457586471917,10.0,0.0,2.4166917645287898,5.011287598457493,61.29858538779872,425.8844216202067,0.0
0.009000000000000001,3.61621683725491,-2.007846479520527,10.0,0.0,2.878131003082446,5.387971426070284,69.29319780614861,425.8844216202067,0.0
0.01,3.7943899885955976,-2.1009918590924386,10.0,0.0,3.3401456850861924,5.755766653398535,77.20260185786779,425.8844216202067,0.0
0.011,3.94086859927358,-2.175296284383619,10.0,0.0,3.799980454608701,6.118652910533163,84.98810347314132,425.8844216202067,0.0
0.012,4.066300792165654,-2.2363703714642766,10.0,0.0,4.25609547821838,6.47890126379523,92.69234012709562,425.8844216202067,0.0
0.013000000000000001,4.178354577275013,-2.288351518798245,10.0,0.0,4.707731020129231,6.837664689658951,100.27453943055802,425.8844216202067,0.0
0.014,4.282518672715097,-2.333651996869138,10.0,0.0,5.154542591549826,7.195377814480066,107.72266421090738,425.8844216202067,0.0
0.015,4.382444928200208,-2.373652779372373,10.0,0.0,5.596391399605119,7.552050536812171,115.03421639743438,425.8844216202067,0.0
0.016,4.4804594378554325,-2.4090215300023305,10.0,0.0,6.0332131538323575,7.907458534209371,122.12681957704407,425.8844216202067,0.0
0.017,4.578242130945994,-2.4395406795368593,10.0,0.0,6.464896951319091,8.261231956146165,129.21443266626895,425.8844216202067,0.0
0.018000000000000002,4.676738625701417,-2.4649976620802514,10.0,0.0,6.891284787835255,8.612939628145757,135.98119959175983,425.8844216202067,0.0
0.019,4.776896577418649,-2.4844883852723414,10.0,0.0,7.312094017625461,8.962082906855674,142.49527161112712,425.8844216202067,0.0
0.02,4.879350476308788,-2.497299638282175,10.0,0.0,7.726950982906798,9.308124431312871,148.7324085191485,425.8844216202067,0.0
0.021,4.984740733063466,-2.502609162154705,10.0,0.0,8.135382339201602,9.650479110598368,154.64471109285114,425.8844216202067,0.0
0.022,5.093761920158958,-2.499537457635586,10.0,0.0,8.536815045059644,9.98850302957184,160.1617863612938,425.8844216202067,0.0
0.023,5.207190613092456,-2.4871677496797493,10.0,0.0,8.93057692139928,10.32148088288204,165.6607393241445,425.8844216202067,0.0
0.024,5.324998162472243,-2.4660374772630194,10.0,0.0,9.316059762549692,10.648712594992743,170.6844297029979,425.8844216202067,0.0
0.025,5.448401436214058,-2.43477062810481,10.0,0.0,9.692489440112896,10.969373135389612,175.1968019549702,425.8844216202067,0.0
0.026000000000000002,5.579252847774876,-2.3910137900951263,10.0,0.0,10.058841620269982,11.282450966968845,179.75624917806076,425.8844216202067,0.0
0.027,5.715372801213839,-2.3390703350876905,10.0,0.0,10.414590153898565,11.587191552643187,183.70193843342213,425.8844216202067,0.0
0.028,5.857777554354131,-2.278158032174055,10.0,0.0,10.759056973961297,11.882729609801912,187.11608209422485,425.8844216202067,0.0
0.029,6.008015407656818,-2.2065479294530137,10.0,0.0,11.091362929463447,12.168058426919137,190.22235117294719,425.8844216202067,0.0
0.03,6.166210479602786,-2.124735745207283,10.0,0.0,11.410687931887287,12.44218587849383,193.18169492166172,425.8844216202067,0.0
0.031,6.332153137156367,-2.03369357860871,10.0,0.0,11.716296662742828,12.704161343542003,195.43389679651625,425.8844216202067,0.0
0.032,6.505795674671548,-1.934000519085961,10.0,0.0,12.00748625213611,12.953058882619777,197.379975981674,425.8844216202067,0.0
0.033,6.683730751048452,-1.831754773395204,10.0,0.0,12.28419653506709,13.188349193702795,197.2344175755636,425.8844216202067,0.0
0.034,6.87380402616988,-1.7143175062862759,10.0,0.0,12.544869178888202,13.408652792471026,200.34393119314464,425.8844216202067,0.0
0.035,7.0630713605529,-1.6028590873947608,10.0,0.0,12.790418864797045,13.614074621713621,195.5875478195691,425.8844216202067,0.0
0.036000000000000004,7.251172986582932,-1.4984391978178224,10.0,0.0,13.021584161374713,13.804710731103372,197.36351109026717,425.8844216202067,0.0
0.037,7.467832664106067,-1.3511807716406028,10.0,0.0,13.233542311249868,13.977448210944669,200.22689925469805,425.8844216202067,0.0
0.038,7.672154487363137,-1.2273895511469028,10.0,0.0,13.429433944129105,14.133798954006306,194.4270110959344,425.8844216202067,0.0
0.039,7.882952120128124,-1.0962886502521054,10.0,0.0,13.608188301133083,14.272959264678123,202.94483734836066,425.8844216202067,0.0
0.04,8.027124433626389,-1.0794411745964019,10.0,0.0,13.782441040190673,14.402328001825996,208.13193034483794,425.8844216202067,0.0
0.041,8.121689592643497,-1.1384834020257348,10.0,0.0,13.958868498831071,14.527224694807943,216.205131749844,425.8844216202067,0.0
0.042,8.178198309541646,-1.2504583130983908,10.0,0.0,14.141869698849321,14.652004157087108,218.01930591051908,425.8844216202067,0.0
0.043000000000000003,8.217831467100638,-1.377362711058017,10.0,0.0,14.3318884597585,14.778811232977674,227.41124599015143,425.8844216202067,0.0
0.044,8.241135716157052,-1.517264406730844,10.0,0.0,14.52970619471023,14.90977234154949,235.2719983498278,425.8844216202067,0.0
0.045,8.245836257418702,-1.6744316613349355,10.0,0.0,14.736727648073686,15.04713509571107,241.82882166158174,425.8844216202067,0.0
0.046,8.233240912672514,-1.8477313586345336,10.0,0.0,14.954274525673876,15.192896213127545,247.12323436742864,425.8844216202067,0.0
0.047,8.21451066101177,-2.0180659263755096,10.0,0.0,15.1816466327342,15.347770280797608,255.96381425648693,425.8844216202067,0.0
0.048,8.18434833711955,-2.194589902074701,10.0,0.0,15.419483227505006,15.51302470551824,264.7504514405672,425.8844216202067,0.0
0.049,8.14140843737166,-2.379703103646891,10.0,0.0,15.668658817686744,15.689959112977224,273.1313162841595,425.8844216202067,0.0
0.05,8.08832190349719,-2.568589559570747,10.0,0.0,15.9295366677321,15.879527758437206,281.5001852838931,425.8844216202067,0.0
0.051000000000000004,8.02238333134946,-2.7653900098198694,10.0,0.0,16.20304278228709,16.082949701953225,288.9185777875243,425.8844216202067,0.0
0.052000000000000005,7.952800637465673,-2.953045486322783,10.0,0.0,16.488214577651007,16.300374773178884,297.70770529337403,425.8844216202067,0.0
0.053,7.874062954855492,-3.1402448008910357,10.0,0.0,16.785327070438584,16.53253983496665,306.02734412053115,425.8844216202067,0.0
0.054,7.791098886254896,-3.3179827495727743,10.0,0.0,17.093624001335485,16.779538310574353,314.22511563269296,425.8844216202067,0.0
0.055,7.707186860566865,-3.4804629199884554,10.0,0.0,17.411886525962377,17.041067313850665,322.3290230137935,425.8844216202067,0.0
0.056,7.626197686282726,-3.621676470889585,10.0,0.0,17.73838438734917,17.3163393581764,329.10274354735816,425.8844216202067,0.0
0.057,7.554646485215352,-3.732106304512779,10.0,0.0,18.07049481321941,17.60379472458282,335.3711181870112,425.8844216202067,0.0
0.058,7.496398860891577,-3.808074549098259,10.0,0.0,18.405391941711425,17.90140732360056,340.66589953619035,425.8844216202067,0.0
0.059000000000000004,7.457604468960748,-3.8435273890018786,10.0,0.0,18.739700747199567,18.206433282434876,344.81515514529985,425.8844216202067,0.0
0.06,7.4446253525251675,-3.8334238834517413,10.0,0.0,19.069615354012768,18.515427284823186,347.59908340231857,425.8844216202067,0.0
0.061,7.463768375362078,-3.773993606729495,10.0,0.0,19.391001604999538,18.824277823977567,348.7504643717475,425.8844216202067,0.0
0.062,7.521491802881125,-3.6619725877578286,10.0,0.0,19.6994062754834,19.12822378751647,350.13561706263914,425.8844216202067,0.0
0.063,7.619452859075029,-3.502320286219272,10.0,0.0,19.99092353229325,19.422417139843716,350.9633541169411,425.8844216202067,0.0
0.064,7.756631024919135,-3.304273303882884,10.0,0.0,20.262519753613226,19.702232894938312,350.1831664117375,425.8844216202067,0.0
0.065,7.933945058031567,-3.072913241524231,10.0,0.0,20.511468791274567,19.96309393467152,347.3723488694907,425.8844216202067,0.0
0.066,8.153713101000568,-2.8093872191092446,10.0,0.0,20.734934767301045,20.200362429802084,343.7837675994271,425.8844216202067,0.0
0.067,8.412466912880586,-2.5219786046623183,10.0,0.0,20.93080130787291,20.40998543414512,336.5081476468732,425.8844216202067,0.0
0.068,8.701043099253464,-2.2262611319895376,10.0,0.0,21.098388658972354,20.58907694972882,326.8907225393463,425.8844216202067,0.0
0.069,9.036994772068294,-1.8925392726924133,10.0,0.0,21.233374196724267,20.732949126718196,327.597613676537,425.8844216202067,0.0
0.07,9.389440189255842,-1.56627010799651,10.0,0.0,21.336696008876352,20.840523160621345,316.67137993743364,425.8844216202067,0.0
0.07100000000000001,9.74576520310332,-1.2648256904757964,10.0,0.0,21.410546848923225,20.912000674998037,308.35173481011174,425.8844216202067,0.0
0.07200000000000001,10.12943249201854,-0.944522243623392,10.0,0.0,21.451941421424525,20.945075370299552,310.98847171737305,425.8844216202067,0.0
0.073,10.488839810202013,-0.6831532484222201,10.0,0.0,21.466956451202236,20.94328392121001,317.16800995196013,425.8844216202067,0.0
0.074,10.623091579597823,-0.79457754645723,10.0,0.0,21.495161195829088,20.9319994985555,324.7022591834438,425.8844216202067,0.0
0.075,10.672311930063184,-1.01864010976358,10.0,0.0,21.54294966271115,20.92059227177188,334.9039546216804,425.8844216202067,0.0
0.076,10.654663620068588,-1.3098533489572375,10.0,0.0,21.614611390904876,20.917538131958892,347.02436923284563,425.8844216202067,0.0
0.077,10.575753175971077,-1.6526580363715389,10.0,0.0,21.713597915521582,20.93045924469736,354.6183391611538,425.8844216202067,0.0
0.078,10.456138528228374,-2.01064926001382,10.0,0.0,21.839928886676958,20.96435540543437,365.1059769457792,425.8844216202067,0.0
0.079,10.301358124154167,-2.374820708980155,10.0,0.0,21.993495323940387,21.023324745183956,375.54211079479387,425.8844216202067,0.0
0.08,10.112543414301447,-2.7454601000477727,10.0,0.0,22.17473066998019,21.110975608727983,386.0801852954717,425.8844216202067,0.0
0.081,9.903329778701412,-3.101351333794719,10.0,0.0,22.38204920957191,21.22911027333906,398.047805490462,425.8844216202067,0.0
0.082,9.678504077663895,-3.4361198690295387,10.0,0.0,22.61371498820393,21.378802016206325,410.1465201477,425.8844216202067,0.0
0.083,9.440289349820919,-3.749120785531873,10.0,0.0,22.86826577872238,21.56064652570243,420.46002418873115,425.8844216202067,0.0
0.084,9.204389769161557,-4.017763601458358,9.651784623387691,0.0,23.141966641725485,21.73502477846751,427.54192324423354,425.8844216202067,0.0
0.085,8.964206764695735,-4.221573331030426,6.094260079396227,0.0,23.425467885798454,21.555550880868093,431.3447569214206,425.8844216202067,0.0
0.08600000000000001,8.580284472146182,-4.251314841557775,4.138239887790568,0.0,23.663905084566466,21.282617143935003,430.75863495665334,425.8844216202067,0.0
0.08700000000000001,8.103332057885668,-4.11706247986206,4.382558736809723,0.0,23.836140014872573,21.155881318523367,428.65428841103665,425.8844216202067,0.0
0.088,7.6783919418490765,-3.8882391846314817,5.40703334170977,0.0,23.954649830748487,21.211265475353713,425.3426621037119,425.8844216202067,0.0
0.089,7.402515738136773,-3.6234171932605026,7.068264090537084,0.0,24.040004894621354,21.471549815658623,418.71281430924927,425.8844216202067,0.0
0.09,7.345436731258198,-3.3542289340767737,10.0,0.0,24.11589039754092,22.02373979959249,413.4306006188749,425.8844216202067,0.0
0.091,7.575642474889775,-3.1283326449878763,10.0,0.0,24.21724963935398,22.473088554462045,407.0673957626445,425.8844216202067,0.0
0.092,7.950612241211891,-2.8858449467184424,10.0,0.0,24.328993148553927,22.84869374116682,402.8610795348334,425.8844216202067,0.0
0.093,8.402815627809998,-2.6068316944049883,10.0,0.0,24.438856244732584,23.151920085258553,398.2038234996136,425.8844216202067,0.0
0.094,8.88451537475394,-2.3053204058967878,10.0,0.0,24.537679556489778,23.387345166261113,385.99850991064403,425.8844216202067,0.0
0.095,9.387127302567917,-1.9701237252600259,10.0,0.0,24.61630652318655,23.558639755749063,374.47125471628675,425.8844216202067,0.0
0.096,9.913292334770711,-1.5889473219859318,10.0,0.0,24.665622814608646,23.6678155486937,368.8439959632511,425.8844216202067,0.0
0.097,10.43546752657588,-1.2059031405874387,10.0,0.0,24.68260196026192,23.71882777070956,354.557840720346,425.8844216202067,0.0
0.098,10.949233836813228,-0.8319370117277112,10.0,0.0,24.665678581190853,23.715144142881094,357.78622886914843,425.8844216202067,0.0
0.099,11.426178690748985,-0.5166733179595546,10.0,0.0,24.619139832218153,23.662810269097815,365.1045342829808,425.8844216202067,0.0
0.1,11.5927598843044,-0.6857777407848857,10.0,0.0,24.593775694212862,23.59750142504386,374.78898316154107,425.8844216202067,0.0
0.101,11.638805913504434,-0.9957854529149297,10.0,0.0,24.596826889708755,23.532787800318314,387.2625958116283,425.8844216202067,0.0
0.10200000000000001,11.583898023155633,-1.3978747775336506,10.0,0.0,24.634231351769266,23.481350985845285,398.8298914872562,425.8844216202067,0.0
0.10300000000000001,11.454080426730721,-1.8423770063576876,10.0,0.0,24.70762603810087,23.452529155728847,411.8532094727069,425.8844216202067,0.0
0.10400000000000001,11.259433261674458,-2.311955421595163,10.0,0.0,24.818007676175558,23.454041989449177,424.6177537065164,425.8844216202067,0.0
0.105,11.015417837372867,-2.7831670224601144,8.179879106639946,0.0,24.964639925757584,23.291123630357937,436.50751024579597,425.8844216202067,0.0
0.106,10.643737230641333,-3.1954215781562874,2.1287699507442666,0.0,25.120952999590212,22.55018424641655,443.02685065637434,425.8844216202067,0.0
0.107,9.929777524482912,-3.406667281765464,-1.3023245449065932,0.0,25.206655309485484,21.656879566900038,444.7140048247676,425.8844216202067,0.0
0.108,8.969563284366242,-3.4276213809967473,-2.3341974611488263,0.0,25.194649414318924,20.88076447984582,443.22731480949943,425.8844216202067,0.0
0.109,7.95276409316792,-3.328467346272363,-1.7642813854076778,0.0,25.09511611515161,20.356315578104965,439.9068536501819,425.8844216202067,0.0
0.11,7.053829787817456,-3.1798649849104224,-0.24427512604867108,0.0,24.937736536324362,20.124574546070107,435.7304920228893,425.8844216202067,0.0
0.111,6.3887937197634,-3.0327990068388133,1.7454449835708203,0.0,24.758229578202098,20.168103433253012,432.1901974658754,425.8844216202067,0.0
0.112,6.008583919859985,-2.9168816575925844,3.4525345036210595,0.0,24.589745955973992,20.39238409932357,427.89294538881666,425.8844216202067,0.0
0.113,5.897363318810501,-2.8230906221653282,5.5810753044643455,0.0,24.45138092217121,20.802889097572923,424.47418112137984,425.8844216202067,0.0
0.114,6.039283814849835,-2.757865767723192,7.304559843171021,0.0,24.36166606793928,21.31008152329154,417.56179611275235,425.8844216202067,0.0
0.115,6.391584384940267,-2.690654385894874,10.0,0.0,24.324900938245705,21.999512935129673,411.9943664159099,425.8844216202067,0.0
0.116,6.962829282976563,-2.6316517013994734,10.0,0.0,24.3549372812291,22.530056358163257,405.38706985601016,425.8844216202067,0.0
0.117,7.602934422661155,-2.516454164459232,10.0,0.0,24.422942629999035,22.94584995680688,402.7131464457263,425.8844216202067,0.0
0.11800000000000001,8.247725398726395,-2.3318275746115265,10.0,0.0,24.5065698542425,23.26233877449281,395.0606222631477,425.8844216202067,0.0
0.11900000000000001,8.86068534688425,-2.0999434786332407,10.0,0.0,24.58982225317106,23.494563748297768,381.3670535069286,425.8844216202067,0.0
0.12,9.454591311588466,-1.8038351256296639,10.0,0.0,24.65771883171666,23.65269140797921,371.1687361865555,425.8844216202067,0.0
0.121,10.045924154832777,-1.4341616235530918,10.0,0.0,24.696935516677463,23.74268840643724,367.64196347036636,425.8844216202067,0.0
0.122,10.588630375893857,-1.0865612136760054,10.0,0.0,24.706690922922267,23.773823017661257,351.21621059964787,425.8844216202067,0.0
0.123,11.127381806510321,-0.7096210211579805,10.0,0.0,24.680596832586787,23.748984113230165,358.28613444442027,425.8844216202067,0.0
0.124,11.521154564948997,-0.5481649756994686,10.0,0.0,24.640637497766487,23.68609220108654,370.18711866754927,425.8844216202067,0.0
0.125,11.64225807435755,-0.7808367002702443,10.0,0.0,24.625593355371223,23.61610988822469,379.39981490021614,425.8844216202067,0.0
0.126,11.65497080559695,-1.122033352017744,10.0,0.0,24.640260310375815,23.55143402706725,391.86541571535406,425.8844216202067,0.0
0.127,11.570677606127115,-1.5430606251976284,10.0,0.0,24.689894017296517,23.504091826780094,403.6234427854094,425.8844216202067,0.0
0.128,11.415955640548496,-1.9975633513609985,10.0,0.0,24.775615160642616,23.482623701432683,416.643658465607,425.8844216202067,0.0
0.129,11.201150402061952,-2.4698093117255766,10.0,0.0,24.89801940549782,23.493955859532342,429.5193565989507,425.8844216202067,0.0
0.13,10.940487905956552,-2.939332740448866,5.535213010418165,0.0,25.056241559233392,23.051793479640278,439.3684338347816,425.8844216202067,0.0
0.131,10.42813839261003,-3.275832347974848,0.47583427035695625,0.0,25.18674498214683,22.21153758310714,444.0231002840725,425.8844216202067,0.0
0.132,9.594314753334865,-3.409039991783224,-2.0328857409271297,0.0,25.231460317859273,21.329589309864826,444.30061207681007,425.8844216202067,0.0
0.133,8.582348141265626,-3.376481068946313,-2.355803541861956,0.0,25.178595734726088,20.632851730462857,442.0030714623765,425.8844216202067,0.0
0.134,7.586307647959537,-3.253377889183243,-1.3682197330668755,0.0,25.04812809142045,20.21180963580755,438.23217508083854,425.8844216202067,0.0
0.135,6.760025879049312,-3.103552353105895,0.39375092309578896,0.0,24.873353225808984,20.084696510024212,434.1702012424604,425.8844216202067,0.0
0.136,6.195195497331573,-2.9697686759036728,2.341880046062327,0.0,24.690126585048848,20.20336023152261,430.4521141936009,425.8844216202067,0.0
0.137,5.915920139604248,-2.8675464909748904,4.155246644758137,0.0,24.527182376944427,20.496895936954854,426.44215616088854,425.8844216202067,0.0
0.138,5.900218910629484,-2.788599117341515,6.154648315707491,0.0,24.402224170943292,20.94551855046085,422.36237281796707,425.8844216202067,0.0
0.139,6.119497603093808,-2.731373455176595,8.229760475190623,0.0,24.329118697791053,21.520773734388968,415.30650496076424,425.8844216202067,0.0
0.14,6.5521494695409475,-2.674050832540164,10.0,0.0,24.315116058478498,22.159769160358707,409.9859109262392,425.8844216202067,0.0
0.14100000000000001,7.153283911214945,-2.59770685098948,10.0,0.0,24.358588613949962,22.653964114632444,402.1633736188123,425.8844216202067,0.0
0.14200000000000002,7.801855967844925,-2.4560448244243798,10.0,0.0,24.432314026194994,23.037755247213408,400.94453808409367,425.8844216202067,0.0
0.14300000000000002,8.441322988481543,-2.251482277887031,10.0,0.0,24.515960750620156,23.326684156057045,392.34891623719,425.8844216202067,0.0
0.14400000000000002,9.044496327425632,-2.006004618798091,10.0,0.0,24.595178776452773,23.53513044938135,377.1927064645934,425.8844216202067,0.0
0.145,9.63642327513553,-1.6889756116645227,10.0,0.0,24.65490121484075,23.671573685097844,370.5771985412608,425.8844216202067,0.0
0.146,10.216871035100437,-1.3189788200807082,10.0,0.0,24.684766375958688,23.74241485696244,359.9439707020558,425.8844216202067,0.0
0.147,10.754042742464803,-0.9687703250008616,10.0,0.0,24.68390617160835,23.75587401754194,346.48168091668714,425.8844216202067,0.0
0.148,11.290065630411936,-0.5883704693670591,10.0,0.0,24.64613600458208,23.714310441027912,360.8963393804444,425.8844216202067,0.0
