timestamp,iq,id,iq_ref,id_ref,vq,vd,omega,omega_ref,r
0.0,0.0,0.0,0.0,0.0,0.0,0.0,0.0,334.17650357340494,0.0
0.001,0.0,0.0,10.0,0.0,0.0,1.0999999999999999,24.774757589765684,334.17650357340494,0.0
0.002,0.43446086636307363,-0.23611501641436197,10.0,0.0,0.13597265180557977,1.9422093047000621,42.92203459063024,334.17650357340494,0.0
0.003,0.9710542594838326,-0.5386380825067969,10.0,0.0,0.37348535600663185,2.6591142795310234,64.09726181880002,334.17650357340494,0.0
0.004,1.494648652324279,-0.8307821510742711,10.0,0.0,0.6880479041521731,3.2758505780177507,85.54289040861903,334.17650357340494,0.0
0.005,1.9519204575727467,-1.0866592525598686,10.0,0.0,1.0580528678095737,3.8173055468214336,107.50788453917984,334.17650357340494,0.0
0.006,2.32954226233101,-1.2970173894420844,10.0,0.0,1.4657834560237903,4.304649834639562,129.6404951010187,334.17650357340494,0.0
0.007,2.631769586962224,-1.464364344930584,10.0,0.0,1.8977799979333105,4.754563964835452,151.75838103303218,334.17650357340494,0.0
0.008,2.870812402703439,-1.5946697573747648,10.0,0.0,2.344228424485443,5.179413899717481,173.5443771897287,334.17650357340494,0.0
0.009000000000000001,3.0606694631949716,-1.6946671493857968,10.0,0.0,2.798213660867336,5.587929835269865,194.93328409083333,334.17650357340494,0.0
0.01,3.214344701297096,-1.7703325793347175,10.0,0.0,3.2549751905405495,5.98598699531888,215.68891865570518,334.17650357340494,0.0
0.011,3.343069447832267,-1.8258668335739454,10.0,0.0,3.71121839691817,6.3772916225924705,235.60995761186982,334.17650357340494,0.0
0.012,3.4560023730634253,-1.8639238060846408,10.0,0.0,4.164598669819171,6.7639547334663845,254.47460337806532,334.17650357340494,0.0
0.013000000000000001,3.5605324989781404,-1.8857799803379927,10.0,0.0,4.613330835960225,7.146920575944703,272.06256679443493,334.17650357340494,0.0
0.014,3.662635930100479,-1.8917320844688925,10.0,0.0,5.055922539446871,7.526276974624983,288.1623186257891,334.17650357340494,0.0
0.015,3.7672240032062456,-1.8814954021605228,10.0,0.0,5.49100515635765,7.9014732500554885,302.586571533808,334.17650357340494,0.0
0.016,3.878386163952949,-1.8546018017302455,10.0,0.0,5.917243209896156,8.271476202682942,315.1848558287155,334.17650357340494,0.0
0.017,3.999532600088192,-1.8107304769275143,10.0,0.0,6.333300843619561,8.634888179034098,325.8538188551156,334.17650357340494,0.0
0.018000000000000002,4.133453717898425,-1.7499429904783215,6.69712673513674,0.0,6.7378460013443515,8.626728803389737,327.56641982585893,334.17650357340494,0.0
0.019,4.143124567496034,-1.598791474952725,5.906927087240538,0.0,7.085101913888908,8.60622207018471,327.04411513024434,334.17650357340494,0.0
0.02,4.0977108667027,-1.4047519599319733,6.2394033194794405,0.0,7.375748730361478,8.672058199163125,326.46656490955786,334.17650357340494,0.0
0.021,4.0744046408797345,-1.212834844386254,6.6052778164611485,0.0,7.624743990524809,8.79940637706915,325.4596444295323,334.17650357340494,0.0
0.022,4.103168550778861,-1.0403777141475588,7.195906647912646,0.0,7.844523429291613,8.996832597343616,324.0837772474477,334.17650357340494,0.0
0.023,4.200477666969361,-0.8979099103943673,7.984767502214528,0.0,8.048120659098716,9.266946181444046,331.7372765088679,334.17650357340494,0.0
0.024,4.370113229545932,-0.7958815639841592,4.182410142149787,0.0,8.248571084267565,9.086573391243485,342.0148003991836,334.17650357340494,0.0
0.025,4.3267444896227,-0.7589503376141493,-1.0347347712658528,0.0,8.407897036462874,8.414887472722118,344.4413869562073,334.17650357340494,0.0
0.026000000000000002,3.9925376362365967,-0.6455852584443795,-2.3506768836057033,0.0,8.472020955141536,7.770049624522425,343.26098606650555,334.17650357340494,0.0
0.027,3.5239876523743128,-0.5121602636844056,-1.8513212636858447,0.0,8.451705598500467,7.312394922016141,343.2825985399629,334.17650357340494,0.0
0.028,3.0714352919352708,-0.4134096662244253,-1.9531884500801073,0.0,8.378127991499877,6.927370467203483,342.7990943602523,334.17650357340494,0.0
0.029,2.6666658040684346,-0.34995241543531086,-1.7976622680932701,0.0,8.267412908105877,6.631616369115487,342.2173154404257,334.17650357340494,0.0
0.03,2.3296916763611737,-0.32399722206543724,-1.5871809268501758,0.0,8.135973424479682,6.408983317382894,341.5492041857994,334.17650357340494,0.0
0.031,2.063182592522298,-0.3286976061033027,-1.3268523056609718,0.0,7.996191178220712,6.247947215324527,340.96925677272105,334.17650357340494,0.0
0.032,1.8609400526970714,-0.35737392618633157,-1.104806131114961,0.0,7.857390937750557,6.130439880376656,340.35661078826604,334.17650357340494,0.0
0.033,1.7107132693782923,-0.40145825579881955,-0.8602842110360651,0.0,7.725282500889173,6.049982725106586,339.78003053334896,334.17650357340494,0.0
0.034,1.6026182218625555,-0.45369589468103166,-0.6280293531769674,0.0,7.60364448916784,5.99785144423464,339.02355025214644,334.17650357340494,0.0
0.035,1.5275258751935916,-0.5075836179494251,-0.2982596793631185,0.0,7.494362423702146,5.979900813477118,338.38579988421145,334.17650357340494,0.0
0.036000000000000004,1.4823999230307328,-0.5611703484073487,-0.021477458503691427,0.0,7.399569164824956,5.984178318076401,337.2619006538252,334.17650357340494,0.0
0.037,1.4611652194550746,-0.610261399144198,0.5096181858852349,0.0,7.319547130571889,6.036086002873916,337.38941807090595,334.17650357340494,0.0
0.038,1.4701786112596171,-0.6589174294545902,0.41373033236984824,0.0,7.257579321050654,6.057738275301539,335.3946212924903,334.17650357340494,0.0
0.039,1.48315056344326,-0.69169208503405,1.398947544386826,0.0,7.207092171534942,6.179024530569139,336.42485112981655,334.17650357340494,0.0
0.04,1.5366937106210055,-0.7302215482763845,0.8613491501595798,0.0,7.1776928568984255,6.208385423205527,332.3826383074527,334.17650357340494,0.0
0.041,1.5783720340752037,-0.7401423285986342,2.900394214001035,0.0,7.15487555419222,6.457492051971274,337.4624478566529,334.17650357340494,0.0
0.042,1.6960995494787237,-0.7812756908020105,0.3276299965684526,0.0,7.163676106672362,6.36347852957398,327.3771957017896,334.17650357340494,0.0
0.043000000000000003,1.7270468700182269,-0.7492454319143862,5.43824915271624,0.0,7.158260589565085,6.865415233909701,337.8293924410592,334.17650357340494,0.0
0.044,1.938870497993846,-0.8108693350902606,0.17562189440489995,0.0,7.210679226540331,6.663630400253477,324.3654556786397,334.17650357340494,0.0
0.045,1.981942529360038,-0.7506416927859411,7.005700754562307,0.0,7.230436236767198,7.2885811736903,336.6203630982467,334.17650357340494,0.0
0.046,2.2481605411950483,-0.8162688858706686,0.853808449510399,0.0,7.31853389097742,7.079150367660656,323.219081327047,334.17650357340494,0.0
0.047,2.326072190909854,-0.7368442040507314,7.664023557573832,0.0,7.367485712232616,7.704206891242217,331.8968837983415,334.17650357340494,0.0
0.048,2.610078507773277,-0.7905887323109632,3.3479185196772097,0.0,7.480754148647275,7.698317660984049,328.05098351582524,334.17650357340494,0.0
0.049,2.781912936682398,-0.737369362945427,5.332123861511134,0.0,7.575715242481841,7.949706111362493,323.0639168419576,334.17650357340494,0.0
0.05,2.979863676620435,-0.7115148343291096,7.936783065759416,0.0,7.684007267516651,8.432066048031428,328.3744461653409,334.17650357340494,0.0
0.051000000000000004,3.2974244510158957,-0.72347004493697,5.339538978148424,0.0,7.831279702167906,8.53232357407314,326.42165367816,334.17650357340494,0.0
0.052000000000000005,3.5292487519398494,-0.6742616720361625,6.393483720691317,0.0,7.968318172833041,8.75686388817395,323.2281875187889,334.17650357340494,0.0
0.053,3.7668753163762934,-0.622665271119599,8.099699960923026,0.0,8.108923307469922,9.125977677852488,334.676727485898,334.17650357340494,0.0
0.054,4.055687076457806,-0.6211727231469596,2.370427738243532,0.0,8.272731091343152,8.795565467165192,340.8445367741746,334.17650357340494,0.0
0.055,4.032717738406821,-0.6070451997800448,-0.7801572379024657,0.0,8.38557777366969,8.230718375571108,341.27873696164767,334.17650357340494,0.0
0.056,3.7606228979645753,-0.5361629401511046,-1.0682796655214122,0.0,8.42299930527865,7.763153783160601,342.3386642099628,334.17650357340494,0.0
0.057,3.4021343505529713,-0.4647354338268957,-1.6798648960445646,0.0,8.402774021386296,7.318407443881535,342.80696460075825,334.17650357340494,0.0
0.058,3.0164774935868275,-0.4001694579088481,-2.000319701715815,0.0,8.333708649667523,6.925816402614696,342.0680822995083,334.17650357340494,0.0
0.059000000000000004,2.644243147314904,-0.35321824607303065,-1.7097943383518834,0.0,8.227771737451185,6.637829475849659,341.79822357926804,334.17650357340494,0.0
0.06,2.327243615987979,-0.33644829481574384,-1.651082178290375,0.0,8.102254641260034,6.40274823949586,340.93968121107696,334.17650357340494,0.0
0.061,2.0654546432208036,-0.34225379928978733,-1.2894427705715543,0.0,7.966587436057335,6.243443422097901,340.4925490129369,334.17650357340494,0.0
0.062,1.8655976564651469,-0.37065790026972223,-1.1290371258968328,0.0,7.831622865698164,6.119896971571951,339.7623546760985,334.17650357340494,0.0
0.063,1.7134482647450997,-0.4122968900357274,-0.8197984685045709,0.0,7.702096355186774,6.042358768150725,339.2776565330427,334.17650357340494,0.0
0.064,1.6049717342633043,-0.46281160034975627,-0.6284609265730658,0.0,7.582908903621285,5.987987401494828,338.44622316090613,334.17650357340494,0.0
0.065,1.5283385266786962,-0.514451936654121,-0.2554414363797841,0.0,7.475378350437097,5.9735980823794055,337.8435129491121,334.17650357340494,0.0
0.066,1.483551669415572,-0.5667369431657338,0.009243575760160772,0.0,7.38239686801302,5.979440018513664,336.77413721326786,334.17650357340494,0.0
0.067,1.4628019303969864,-0.614873381487093,0.5179551072836479,0.0,7.3040698855950055,6.030545633857686,336.81150066559644,334.17650357340494,0.0
0.068,1.4716416984006688,-0.6621059895199168,0.4729234101974442,0.0,7.243400385453592,6.057487515560197,334.9663420482616,334.17650357340494,0.0
0.069,1.4865070609186386,-0.6946310321485034,1.3876043341163007,0.0,7.194597452105388,6.175186685483311,335.5003258781331,334.17650357340494,0.0
0.07,1.5397066157645547,-0.7314551252875805,1.1073741961332753,0.0,7.166170128903329,6.2305602232541,332.3483698896747,334.17650357340494,0.0
0.07100000000000001,1.5906764607379063,-0.7463578489403476,2.7016335271997693,0.0,7.14739395046897,6.450649815326144,336.99701617656046,334.17650357340494,0.0
0.07200000000000001,1.7020639140440306,-0.7827281451480964,0.34910525772533174,0.0,7.1563560544315745,6.36038920598075,326.85949731257944,334.17650357340494,0.0
0.073,1.731169881763817,-0.7486588446034607,5.491034752324102,0.0,7.1512845610413915,6.86710061315065,337.3905078324725,334.17650357340494,0.0
0.074,1.9438932132974869,-0.810083910599557,0.19338944978688932,0.0,7.204488807972232,6.665364945247956,323.9319712307294,334.17650357340494,0.0
0.075,1.9876279465678541,-0.7494261765962643,7.025103074085198,0.0,7.224912462019401,7.290904633182396,336.1268671141642,334.17650357340494,0.0
0.076,2.2544433189430606,-0.8148969065523509,0.9081514969601998,0.0,7.313656077090496,7.085838564372808,322.94876497306217,334.17650357340494,0.0
0.077,2.3344985650207297,-0.7360669680077463,7.60947995351465,0.0,7.363692723234057,7.702331186598738,331.2791863716514,334.17650357340494,0.0
0.078,2.6163561414918997,-0.7882707590061819,3.4732424262375665,0.0,7.476905683381128,7.709975017699356,327.726516231825,334.17650357340494,0.0
0.079,2.791760207459801,-0.7380717829424692,5.314077369566583,0.0,7.573517805346558,7.95555410925182,323.91568180959274,334.17650357340494,0.0
0.08,2.9894044370011326,-0.7123739293926052,7.32210279832082,0.0,7.682701850140847,8.368724126985393,327.38271366243123,334.17650357340494,0.0
0.081,3.2815690510827076,-0.7080065915437828,5.656524771011314,0.0,7.822061063601191,8.518040044879887,325.0046154179455,334.17650357340494,0.0
0.082,3.5186144977094247,-0.6635673380539882,6.937292774808772,0.0,7.957571302999563,8.80074720003366,322.0815389052936,334.17650357340494,0.0
0.083,3.781421076237169,-0.6279706637463986,8.519780677815838,0.0,8.104329992334534,9.20346238373291,336.3615082160608,334.17650357340494,0.0
0.084,4.094171596822145,-0.6444749674229397,1.3579459760056638,0.0,8.278855771253431,8.745180730287473,341.26855046796845,334.17650357340494,0.0
0.085,4.033672809662094,-0.6099217450745327,-1.166495618893784,0.0,8.386134909440806,8.153891963451086,340.3342037252674,334.17650357340494,0.0
0.08600000000000001,3.7301906924176422,-0.5253310534835525,-0.7608992490618824,0.0,8.414597813274279,7.735098048772869,341.90215472258325,334.17650357340494,0.0
0.08700000000000001,3.375225109608533,-0.4575916160142427,-1.622131259211589,0.0,8.39172960405087,7.298249724067591,342.5354031659269,334.17650357340494,0.0
0.088,2.9955432075022883,-0.39607439249476395,-2.0223444768086245,0.0,8.321373883066823,6.90560363047992,341.6472718039017,334.17650357340494,0.0
0.089,2.6267133286049904,-0.35083905713993024,-1.6529864781009889,0.0,8.214428410168576,6.626592553844061,341.51168231737813,334.17650357340494,0.0
0.09,2.315346588701205,-0.33663566144854395,-1.6585435222789493,0.0,8.089166356724066,6.391045225335757,340.5758073771402,334.17650357340494,0.0
0.091,2.0564571677405254,-0.34334546305245695,-1.2545990901973476,0.0,7.95375588790652,6.236380051211224,340.21375023297645,334.17650357340494,0.0
0.092,1.8599785216515716,-0.3728665686005691,-1.1339429847111773,0.0,7.81960017215253,6.1118968317602285,339.4234963813331,334.17650357340494,0.0
0.093,1.7091780410964243,-0.4145231807145708,-0.7912859869687878,0.0,7.690698722305894,6.037555337775913,339.0040961295907,334.17650357340494,0.0
0.094,1.6026219559228863,-0.46532656959429747,-0.6298617866594514,0.0,7.572425074701124,5.982301104825506,338.12016379435914,334.17650357340494,0.0
0.095,1.5265515116341675,-0.5165800795443123,-0.22733222125320474,0.0,7.465583220767493,5.970711128621282,337.56750258267726,334.17650357340494,0.0
0.096,1.4831073099742986,-0.5688774187001363,0.015088394495012203,0.0,7.373506726814444,5.976255094462054,336.48911610980525,334.17650357340494,0.0
0.097,1.4628333289135524,-0.6166776044514047,0.531155505567015,0.0,7.295927325881858,6.028175886283965,336.4999543803737,334.17650357340494,0.0
0.098,1.4722018172306301,-0.663567460232474,0.5025018622130992,0.0,7.235977826503127,6.057600813425293,334.7150571278786,334.17650357340494,0.0
0.099,1.4882348595456214,-0.6961990302439003,1.3895649529159193,0.0,7.1880863439198475,6.174281824553984,335.30567482426267,334.17650357340494,0.0
0.1,1.541555062745637,-0.732648745776959,1.082964392215306,0.0,7.160335263716288,6.226204001798532,332.03275448316884,334.17650357340494,0.0
0.101,1.591384062014892,-0.7461435495662805,2.7408620536645785,0.0,7.1416714405190325,6.450645613777075,336.69918425419166,334.17650357340494,0.0
0.10200000000000001,1.703738668663804,-0.7828082119833115,0.382420361345301,0.0,7.15121632566734,6.362908402729739,326.1091398726986,334.17650357340494,0.0
0.10300000000000001,1.7347077908474602,-0.748641841221174,5.758116189098886,0.0,7.146908053788074,6.89752730190434,337.90916594058166,334.17650357340494,0.0
0.10400000000000001,1.958440008943299,-0.8166167505669251,-0.17922346851440007,0.0,7.204311402749851,6.6470883105898535,323.204646472674,334.17650357340494,0.0
0.105,1.989210806303131,-0.7480739395332756,7.282754836446724,0.0,7.222711059376843,7.306477097896225,336.4080534479005,334.17650357340494,0.0
0.106,2.2621063903976024,-0.8169390795557262,0.658735850088533,0.0,7.313470222584577,7.068794294308853,322.87473751887364,334.17650357340494,0.0
0.107,2.332254105085884,-0.7337063425512313,7.5384114751472735,0.0,7.361540936642083,7.681972903246268,330.7485618877921,334.17650357340494,0.0
0.108,2.6092046543743104,-0.7811094946728284,3.6357787075441705,0.0,7.472169114290999,7.71079127873392,327.3836075380161,334.17650357340494,0.0
0.109,2.78971046394776,-0.7345648692254364,5.386184842786051,0.0,7.569022371403361,7.96227550343014,324.2273259705302,334.17650357340494,0.0
0.11,2.9925947524149237,-0.7119130396161851,7.063817402557751,0.0,7.679312470271566,8.344819937954794,326.98257058950827,334.17650357340494,0.0
0.111,3.2760761176032203,-0.7022486023462515,5.758134422907691,0.0,7.8159914329018125,8.51058337826853,324.4680253422563,334.17650357340494,0.0
0.112,3.514923137558621,-0.6593114266490994,7.1124918288451715,0.0,7.950952398346425,8.812036156720335,321.6203941532533,334.17650357340494,0.0
0.113,3.786089686902705,-0.6285826380142117,8.661868517548179,0.0,8.099611750098884,9.226287765341079,336.313584341688,334.17650357340494,0.0
0.114,4.10573173127297,-0.6529786883635134,1.293902615647999,0.0,8.277821180962949,8.755561172791658,342.0865478624738,334.17650357340494,0.0
0.115,4.044838508823953,-0.6171284952330587,-1.6716795876356012,0.0,8.386949527737823,8.10708847415449,339.80218468203566,334.17650357340494,0.0
0.116,3.717656813616107,-0.5208959354641955,-0.5857548085028266,0.0,8.41009069032822,7.718864482044333,341.5740656020942,334.17650357340494,0.0
0.117,3.362398967798776,-0.4541534178503348,-1.5456708888189943,0.0,8.385715986108726,7.291133534865959,342.42956046777596,334.17650357340494,0.0
0.11800000000000001,2.986767222390688,-0.39458466289979555,-2.0559488906035788,0.0,8.315120519724925,6.894973706127043,341.3959870387702,334.17650357340494,0.0
0.11900000000000001,2.6187695634109156,-0.3496836329100341,-1.6113570107543604,0.0,8.207625191356241,6.622101625458594,341.3681304587959,334.17650357340494,0.0
0.12,2.310383201010893,-0.3368684358311743,-1.6693449896211212,0.0,8.082631526378806,6.385185146820492,340.37029857506883,334.17650357340494,0.0
0.121,2.052574272737525,-0.34382661252926094,-1.2323669977742164,0.0,7.947339131442879,6.233383526926349,340.0691890655944,334.17650357340494,0.0
0.122,1.857789462445901,-0.37394265161453455,-1.1407390979588965,0.0,7.813638996543535,6.107790358438591,339.23519293473055,334.17650357340494,0.0
0.123,1.7074065020329474,-0.415503110149685,-0.7743279261402265,0.0,7.685020048333362,6.035369720754087,338.86026198944154,334.17650357340494,0.0
0.124,1.6018070762455867,-0.4664742146651937,-0.6337000376560882,0.0,7.567212148087107,5.97924631526456,337.9412854618071,334.17650357340494,0.0
0.125,1.5258380147291535,-0.5174887587273023,-0.21185959272290322,0.0,7.460674586118205,5.969251232866105,337.42231846466575,334.17650357340494,0.0
0.126,1.4830518780589321,-0.569826553621568,0.015165756935176855,0.0,7.369038284104093,5.974303070942223,336.33109335136663,334.17650357340494,0.0
0.127,1.4628699190748216,-0.617432260284937,0.5392324158051189,0.0,7.291784045883033,6.026855328109981,336.34601389576716,334.17650357340494,0.0
0.128,1.472513117684158,-0.6642106330532918,0.5100770403812345,0.0,7.232180021138739,6.056716606416661,334.5744568684534,334.17650357340494,0.0
0.129,1.4888335563599444,-0.6967573276475929,1.3918760210876235,0.0,7.184634879377234,6.173221979781942,335.1950854212898,334.17650357340494,0.0
0.13,1.5421897092928936,-0.7330563233073721,1.0713759261905924,0.0,7.15716221170504,6.223543328952941,331.85336768334656,334.17650357340494,0.0
0.131,1.5914515633501147,-0.7459769755210952,2.765466154062783,0.0,7.138527227504078,6.450754960037569,336.5675166864913,334.17650357340494,0.0
0.132,1.7045521305964801,-0.7829411380264455,0.3844815213595636,0.0,7.148413756185121,6.36258427386103,325.98192974680273,334.17650357340494,0.0
0.133,1.7357525940751155,-0.7487444059616601,5.759220729469856,0.0,7.144363281228234,6.896949423079231,337.77446870950337,334.17650357340494,0.0
0.134,1.9594763801451789,-0.8166296286097714,-0.17302840324144486,0.0,7.201963710500791,6.646880601367656,323.0887139784094,334.17650357340494,0.0
0.135,1.9904022486070434,-0.7480408302253214,7.280726858255507,0.0,7.2205735946261616,7.305649667176166,336.25618464362816,334.17650357340494,0.0
0.136,2.2631237336620544,-0.8167369441209507,0.6761947149438821,0.0,7.311441857432215,7.069676621765682,322.7915994664756,334.17650357340494,0.0
0.137,2.3338206386373805,-0.7337791989807225,7.522336344589461,0.0,7.359813676312232,7.680459163174246,330.5981975298872,334.17650357340494,0.0
