timestamp,iq,id,iq_ref,id_ref,vq,vd,omega,omega_ref,r
0.0,0.0,0.0,0.0,0.0,0.0,0.0,0.0,463.83909525310435,0.0
0.001,0.0,0.0,10.0,0.0,0.0,1.0999999999999999,14.556227736371154,463.83909525310435,0.0
0.002,0.4805093304505318,-0.2721868588423107,10.0,0.0,0.13994055447265416,1.937143973650441,28.44770266950619,463.83909525310435,0.0
0.003,0.9705295893756806,-0.5416246287164447,10.0,0.0,0.37651773696081864,2.655470470205843,42.81055710439486,463.83909525310435,0.0
0.004,1.3853183957552198,-0.7685835431299907,10.0,0.0,0.6835409537424554,3.2848954692420227,57.69773260982796,463.83909525310435,0.0
0.005,1.7183475816183078,-0.9483629179321508,10.0,0.0,1.040310490833649,3.849594967671605,72.83258813633661,463.83909525310435,0.0
0.006,1.9828071089723631,-1.0887897651837133,10.0,0.0,1.4315221835083316,4.367741213817033,88.11359181530031,463.83909525310435,0.0
0.007,2.1946441489068698,-1.1990242544514598,10.0,0.0,1.846148856877025,4.852536525496129,103.41931314706531,463.83909525310435,0.0
0.008,2.367467498094478,-1.2868327751601092,10.0,0.0,2.2763489864620317,5.313422775332895,118.83597036428725,463.83909525310435,0.0
0.009000000000000001,2.5122443975617395,-1.357213531968682,10.0,0.0,2.716481526114073,5.757043187694962,134.08054113639946,463.83909525310435,0.0
0.01,2.6364592069263586,-1.4147533092082578,10.0,0.0,3.162588420965384,6.188098952750591,149.0372315257602,463.83909525310435,0.0
0.011,2.745777355573355,-1.462277162507272,10.0,0.0,3.611842428927621,6.609876982528264,163.79109467965205,463.83909525310435,0.0
0.012,2.844988529224534,-1.50057697074126,10.0,0.0,4.062086579444151,7.024582562509236,178.14579445527548,463.83909525310435,0.0
0.013000000000000001,2.9373313251576025,-1.5306130706193786,10.0,0.0,4.511697845811378,7.433676403727637,192.0155610901631,463.83909525310435,0.0
0.014,3.0255213851246885,-1.5525910678728916,10.0,0.0,4.959374588362828,7.83804450882387,205.29639278633863,463.83909525310435,0.0
0.015,3.111887229546042,-1.5663003401774098,10.0,0.0,5.4040087071497185,8.238125135378947,217.87921370417598,463.83909525310435,0.0
0.016,3.1984971482048157,-1.5713128177742939,10.0,0.0,5.844601756526041,8.633997678548957,229.65720691544118,463.83909525310435,0.0
0.017,3.287252679782368,-1.5671105832349597,10.0,0.0,6.280210384706434,9.025445263052653,240.5312674542741,463.83909525310435,0.0
0.018000000000000002,3.379930829597426,-1.5531978848237524,10.0,0.0,6.70991453403932,9.41200191076014,250.4162534102957,463.83909525310435,0.0
0.019,3.4781884450305536,-1.529195410455083,10.0,0.0,7.132802788013221,9.792991752430668,259.2472206119692,463.83909525310435,0.0
0.02,3.5835402227426654,-1.4949135581527848,10.0,0.0,7.547970221747223,10.167565315937534,266.9840426154682,463.83909525310435,0.0
0.021,3.697319911462799,-1.4504031903672745,10.0,0.0,7.954524946525126,10.534736018485022,273.6125163110422,463.83909525310435,0.0
0.022,3.820635438533981,-1.3959806542390552,10.0,0.0,8.351599893783739,10.893418212164924,279.8327775036138,463.83909525310435,0.0
0.023,3.954669774109548,-1.3316551520568753,10.0,0.0,8.738303985805722,11.242429059560092,284.5688794065226,463.83909525310435,0.0
0.024,4.099316679390904,-1.259291547126307,10.0,0.0,9.113922011844485,11.580638415192752,288.20186136843853,463.83909525310435,0.0
0.025,4.255080818827244,-1.1794910209161944,10.0,0.0,9.477744749008828,11.906901051580839,291.6277684389788,463.83909525310435,0.0
0.026000000000000002,4.421769970577715,-1.0935825674471138,10.0,0.0,9.82915955147605,12.22014153274836,294.4572163376662,463.83909525310435,0.0
0.027,4.5978160257873695,-1.0048080246533904,10.0,0.0,10.167850806640683,12.519501271490297,298.6279724651559,463.83909525310435,0.0
0.028,4.783105569784909,-0.9136611071598069,10.0,0.0,10.49347049466669,12.804172772586867,316.48985442617874,463.83909525310435,0.0
0.029,4.889413036947695,-0.9587064268806884,10.0,0.0,10.820861818343982,13.08309816642845,332.9683135029404,463.83909525310435,0.0
0.03,4.963842588612358,-1.045789326530795,10.0,0.0,11.15253521480201,13.359745977242124,350.53581709464765,463.83909525310435,0.0
0.031,5.016252996117619,-1.1550566880926394,10.0,0.0,11.489854633470904,13.636875497311294,369.3934562670196,463.83909525310435,0.0
0.032,5.049735117132601,-1.2786283647045968,10.0,0.0,11.833655273091523,13.916865078003848,389.5969112574186,463.83909525310435,0.0
0.033,5.064620417363924,-1.4131326230916381,10.0,0.0,12.18463455847579,14.20193320277391,410.9987499356851,463.83909525310435,0.0
0.034,5.060621551079445,-1.5558102812422598,10.0,0.0,12.543372227611332,14.494181171898994,433.2518121605965,463.83909525310435,0.0
0.035,5.0377340461789455,-1.7030426739964604,10.0,0.0,12.91022971336729,14.795555747901341,455.84986295585514,463.83909525310435,0.0
0.036000000000000004,4.996982322424891,-1.8494922307722814,8.014734013627947,0.0,13.285176035465684,14.88935317094206,475.1998615942183,463.83909525310435,0.0
0.037,4.8467221398809786,-1.9379328806784326,-1.7738729689647714,0.0,13.640271443580227,13.97049247850936,477.52526208086863,463.83909525310435,0.0
0.038,4.230840810667727,-1.7501095256127166,-3.0734348805675764,0.0,13.846426266083753,13.200206000069024,474.43949081356766,463.83909525310435,0.0
0.039,3.571095574670138,-1.5097429303749152,-1.6365532025217249,0.0,13.930374866567393,12.765029418091743,471.72929623096854,463.83909525310435,0.0
0.04,3.0887535779163833,-1.3163419964201173,-0.360357921000809,0.0,13.943540512022286,12.554238185830336,467.77153786204394,463.83909525310435,0.0
0.041,2.7938581890202996,-1.175202681204339,1.5791968373720957,0.0,13.92071915437137,12.594046784757403,464.1703300318613,463.83909525310435,0.0
0.042,2.6931673234468008,-1.0914027502055117,3.3764884046758556,0.0,13.896354193120539,12.814025954170477,460.5569714644651,463.83909525310435,0.0
0.043000000000000003,2.7492471729219625,-1.0502199475190201,5.215988926260335,0.0,13.892731535950567,13.18676716012041,455.9497161583387,463.83909525310435,0.0
0.044,2.9328012961418124,-1.0406516814089064,7.598510370271209,0.0,13.92610458384734,13.74592417832428,453.2226693880505,463.83909525310435,0.0
0.045,3.245732266173406,-1.065616732014668,9.068198014065825,0.0,14.014897867002556,14.357756360403457,452.35087028570695,463.83909525310435,0.0
0.046,3.6344328388174127,-1.0844242307578347,9.618979814911585,0.0,14.157814214405864,14.9235460209548,448.53088679832945,463.83909525310435,0.0
0.047,4.0362622542332085,-1.0720864003309163,10.0,0.0,14.34147265678958,15.443138522573312,444.0842450681406,463.83909525310435,0.0
0.048,4.436332235553316,-1.023725224054771,10.0,0.0,14.553528154010664,15.885338012626404,438.00695610710653,463.83909525310435,0.0
0.049,4.817856958293774,-0.9384638048418488,10.0,0.0,14.779702906164296,16.266556083708046,431.12319920234705,463.83909525310435,0.0
0.05,5.1846371858419324,-0.8253690287162356,10.0,0.0,15.009794179029038,16.595739245094002,424.13279333000884,463.83909525310435,0.0
0.051000000000000004,5.542203813108037,-0.6938241148371299,10.0,0.0,15.236455647980458,16.87934869090404,447.55560348527683,463.83909525310435,0.0
0.052000000000000005,5.77352205275448,-0.7448878339343453,10.0,0.0,15.475744372857221,17.135393998939765,470.162483192432,463.83909525310435,0.0
0.053,5.874488680046816,-0.941221188080468,1.3205725105712816,0.0,15.737794787814988,16.42623347821675,483.94532296328225,463.83909525310435,0.0
0.054,5.496390338749854,-0.9628502923418495,-5.771909651955633,0.0,15.903139977131957,15.163415771893728,488.40480997637616,463.83909525310435,0.0
0.055,4.724845522214717,-0.8236715542590741,-8.247310305735304,0.0,15.910142924653215,13.923134051250099,486.7549030826559,463.83909525310435,0.0
0.056,3.8622912907482627,-0.6507593691549444,-7.651514937170699,0.0,15.774788852377355,12.985037811798826,483.15572716407144,463.83909525310435,0.0
0.057,3.1320813728042793,-0.5350246805504411,-6.045093296988131,0.0,15.548158869488502,12.369661764458709,480.0502621853531,463.83909525310435,0.0
0.058,2.607291560507611,-0.4983405916108423,-4.65447247695146,0.0,15.27977637725721,11.980489177539113,477.3144671834641,463.83909525310435,0.0
0.059000000000000004,2.260912837666733,-0.5159735262834728,-3.4213286953105495,0.0,15.001621339260474,11.75798896925801,474.3776097942174,463.83909525310435,0.0
0.06,2.0530193368711043,-0.5616846595950447,-2.0582851460983242,0.0,14.733883679552848,11.686931128461389,471.1871189243841,463.83909525310435,0.0
0.061,1.961385367133592,-0.6217893992387108,-0.5365199478944729,0.0,14.491968411764006,11.757969843747144,467.8429845267671,463.83909525310435,0.0
0.062,1.972615708264899,-0.6899526882491482,1.0955083581773915,0.0,14.288245456677341,11.959866945189486,465.12898453138536,463.83909525310435,0.0
0.063,2.078047893849454,-0.7587681754303311,2.439609463085459,0.0,14.131972577943401,12.241247642455107,461.71964564580463,463.83909525310435,0.0
0.064,2.2510922962496003,-0.8169052448904162,4.165473401948818,0.0,14.02517197957821,12.637286441938492,458.0228449902277,463.83909525310435,0.0
0.065,2.4968167357912336,-0.8749014370402448,6.072036232366038,0.0,13.974453531439767,13.150205329268704,453.7747376615757,463.83909525310435,0.0
0.066,2.8169647723067497,-0.9386324714140053,8.296733472607322,0.0,13.986529268707802,13.799652511553123,453.16454286809005,463.83909525310435,0.0
0.067,3.2266949885144625,-1.0042609516728762,8.708576393200303,0.0,14.068923972962208,14.366549454781026,450.07912547671884,463.83909525310435,0.0
0.068,3.634543562608801,-1.0261841529779154,10.0,0.0,14.201524168454931,14.98216830066532,446.73579587882773,463.83909525310435,0.0
0.069,4.072395848384448,-1.0262868346196206,10.0,0.0,14.382218291954352,15.492485779748081,441.57528857221854,463.83909525310435,0.0
0.07,4.486033227298894,-0.9806663659368644,10.0,0.0,14.590855472640582,15.92871933444967,435.50902282196205,463.83909525310435,0.0
0.07100000000000001,4.875116919030959,-0.8962714125969562,10.0,0.0,14.813425050547789,16.303530419448343,428.45238079196156,463.83909525310435,0.0
0.07200000000000001,5.246762401892733,-0.7839709658004947,10.0,0.0,15.03970967954993,16.626127187540398,421.8583931166952,463.83909525310435,0.0
0.073,5.607786551419184,-0.653329415231048,10.0,0.0,15.262377956366386,16.903096540104166,448.89228982755355,463.83909525310435,0.0
0.074,5.794315887858915,-0.7710484416089995,10.0,0.0,15.504731849164846,17.157727799580105,473.98287307909294,463.83909525310435,0.0
0.075,5.883537088666682,-0.975929633277862,-0.9608546293414229,0.0,15.769673219450848,16.19748827443627,486.36492630948567,463.83909525310435,0.0
0.076,5.378748467492686,-0.9583763321541041,-7.3771395551016,0.0,15.908116825153561,14.82000300363244,487.8363272543489,463.83909525310435,0.0
0.077,4.519314779736513,-0.783602751347362,-8.352812347545647,0.0,15.875917982328119,13.64043928200946,485.39349182426844,463.83909525310435,0.0
0.078,3.663083138889202,-0.6136877361922464,-7.346938598217072,0.0,15.712039735763927,12.781606032232457,481.6131242816997,463.83909525310435,0.0
0.079,2.976302078975237,-0.514732690812234,-5.6344951172186555,0.0,15.469480084038196,12.237561928375335,478.7285320728815,463.83909525310435,0.0
0.08,2.5012494371036578,-0.4950351039310924,-4.341093381007317,0.0,15.195594802996213,11.894204005911352,475.9840890564027,463.83909525310435,0.0
0.081,2.1936556259806594,-0.5222597275124683,-3.090321810800909,0.0,14.91795394227479,11.711528995754978,472.99454087239616,463.83909525310435,0.0
0.082,2.017404625676663,-0.5733114952392266,-1.6871021749905584,0.0,14.655153114823992,11.67751551670138,469.7758612552314,463.83909525310435,0.0
0.083,1.9530909869782058,-0.6368834152291346,-0.13713002642945238,0.0,14.421713415734548,11.782400033045471,466.6094303050521,463.83909525310435,0.0
0.084,1.988813837107366,-0.7064547996101059,1.4183820981407145,0.0,14.22912327127046,12.00448609016212,463.9032493326034,463.83909525310435,0.0
0.085,2.111725484502879,-0.772943930659233,2.77083104357007,0.0,14.084618837536038,12.305155737160014,460.28184406696647,463.83909525310435,0.0
0.08600000000000001,2.299194906445462,-0.828854087597886,4.617106188249925,0.0,13.990117037827615,12.731481232605436,456.3857661129227,463.83909525310435,0.0
0.08700000000000001,2.562721646451486,-0.8884314750338093,6.639678456673636,0.0,13.953692378683137,13.282630949434047,452.9416787455375,463.83909525310435,0.0
0.088,2.9059210831818008,-0.955183519476177,8.470696305441894,0.0,13.982772108150261,13.921092798705338,452.073691773216,463.83909525310435,0.0
0.089,3.318926583572915,-1.0133165693861639,9.022343826401523,0.0,14.07851716464349,14.498988874138378,448.8781545689659,463.83909525310435,0.0
0.09,3.733959311521142,-1.0308611669457775,10.0,0.0,14.22382589826315,15.089172006493278,445.2472244692893,463.83909525310435,0.0
0.091,4.165272837740324,-1.0198592260529569,10.0,0.0,14.412236412282532,15.581796976634042,439.7858509555616,463.83909525310435,0.0
0.092,4.572168026866694,-0.96463660118698,10.0,0.0,14.625103902587721,16.003555165620963,433.5980114791923,463.83909525310435,0.0
0.093,4.956236787745066,-0.8733783203999146,10.0,0.0,14.849374278123161,16.36624567293434,426.497489394257,463.83909525310435,0.0
0.094,5.324590376428776,-0.7566683286136944,10.0,0.0,15.075561150547784,16.67841595992351,434.0881116890213,463.83909525310435,0.0
0.095,5.661868340016967,-0.6599562292513719,10.0,0.0,15.300875133416874,16.94857086534836,456.17543328932646,463.83909525310435,0.0
0.096,5.813276632113681,-0.8188090919646429,7.801531799747116,0.0,15.549114144433617,16.95912804399506,477.0772194696671,463.83909525310435,0.0
0.097,5.779673465501755,-0.9847809062668249,-2.781742532588837,0.0,15.790253343159467,15.856488342572614,486.1869744664157,463.83909525310435,0.0
0.098,5.180105762187219,-0.917755288248808,-7.560098823096232,0.0,15.88798211574548,14.534056498231024,486.8444194324173,463.83909525310435,0.0
0.099,4.321094756778388,-0.7428190683665301,-8.118874547890165,0.0,15.825122098631867,13.428454482321767,484.1599301605474,463.83909525310435,0.0
0.1,3.503575242848642,-0.5894683102848455,-6.979838261029648,0.0,15.642868660448524,12.639345451572849,480.42068275552117,463.83909525310435,0.0
0.101,2.8640668842529635,-0.5087393640789117,-5.276030433540706,0.0,15.392582986506785,12.149121202541894,477.7138623937184,463.83909525310435,0.0
0.10200000000000001,2.430269042168251,-0.5021359875041742,-4.061367924045455,0.0,15.118384373094965,11.840788287832812,474.9709204200364,463.83909525310435,0.0
0.10300000000000001,2.1525610439876877,-0.5353934274468792,-2.801215188873786,0.0,14.844496681712869,11.688548880406405,472.0041531748509,463.83909525310435,0.0
0.10400000000000001,2.000225597810008,-0.5884480545062688,-1.3994821454984971,0.0,14.588277253303445,11.67971357110173,468.545108887085,463.83909525310435,0.0
0.105,1.9545329265202402,-0.6529497902878014,0.282979862044642,0.0,14.363360881469868,11.82069617966267,465.75261637244296,463.83909525310435,0.0
0.106,2.0127165746453675,-0.7241404129246376,1.6600909081722803,0.0,14.182220358807978,12.052889357176111,462.94295469018147,463.83909525310435,0.0
0.107,2.1476566070834338,-0.7867395376308233,3.073883154932255,0.0,14.04858720365494,12.371233634267398,459.0421217430828,463.83909525310435,0.0
0.108,2.3468218960636875,-0.8404560712990689,5.072269363581794,0.0,13.965434619182767,12.82950594715465,454.8973060499454,463.83909525310435,0.0
0.109,2.6276825366405565,-0.9028134303529728,7.234095102182078,0.0,13.942746668605793,13.422549721891851,452.40684944233004,463.83909525310435,0.0
0.11,2.994755248637721,-0.9747277783437706,8.593645864097514,0.0,13.98891889524868,14.044383258608407,451.5361631962705,463.83909525310435,0.0
0.111,3.409214770545278,-1.0238189856070208,9.152018307695634,0.0,14.097338142217986,14.614556305204374,448.029072388131,463.83909525310435,0.0
0.112,3.8226458318203123,-1.032559942559584,10.0,0.0,14.252403362342111,15.184915412034002,443.99958754032167,463.83909525310435,0.0
0.113,4.247113214215965,-1.0112418062088773,10.0,0.0,14.446565566568683,15.662708211819263,437.87470045665293,463.83909525310435,0.0
0.114,4.64842986131606,-0.9477996715340467,10.0,0.0,14.662325376900396,16.072237794691592,431.24074303073894,463.83909525310435,0.0
0.115,5.029380334747684,-0.8498096845756262,10.0,0.0,14.887317687267494,16.424499014703386,425.1344228588586,463.83909525310435,0.0
0.116,5.394840849472928,-0.7304854519749664,10.0,0.0,15.112891122882575,16.727642191865257,434.77581117171235,463.83909525310435,0.0
0.117,5.6944340391836334,-0.691631590720235,10.0,0.0,15.343140850240319,16.993727749151514,455.8147392439872,463.83909525310435,0.0
0.11800000000000001,5.836859816008217,-0.8498786286358482,7.860948303021031,0.0,15.594769873374178,17.008263133223647,480.85295224605034,463.83909525310435,0.0
0.11900000000000001,5.793829331298629,-1.0220738263577416,-4.828296767939988,0.0,15.840048533972118,15.678239051452321,488.25463588577867,463.83909525310435,0.0
0.12,5.081785610443775,-0.9152530396934604,-8.773293994130897,0.0,15.914324681822835,14.276582504193467,487.0080807476666,463.83909525310435,0.0
0.121,4.155234301529764,-0.711096884766837,-8.381706280020492,0.0,15.819618590987318,13.199844054031624,483.5086892586637,463.83909525310435,0.0
0.122,3.3353993881401696,-0.555152522577816,-6.8287064755746325,0.0,15.61159694592764,12.469139268534068,479.47530699406263,463.83909525310435,0.0
0.123,2.727017013513591,-0.4852922134062124,-4.96837746068368,0.0,15.345181796437195,12.038532702748874,476.84560406404637,463.83909525310435,0.0
0.124,2.334126995563367,-0.49217348281573847,-3.783591083784967,0.0,15.063803048044026,11.77320256813136,474.0830539029383,463.83909525310435,0.0
0.125,2.091612194001038,-0.5346013311936421,-2.5047555897292586,0.0,14.788627411655904,11.657839340705781,471.050022936939,463.83909525310435,0.0
0.126,1.9687846951902876,-0.5937098183900752,-1.060349383567968,0.0,14.535510671271865,11.683677076974687,467.60270049253313,463.83909525310435,0.0
0.127,1.9491818688280151,-0.6623513022988825,0.625675786240679,0.0,14.317248856911121,11.85356610810738,464.99696290981075,463.83909525310435,0.0
0.128,2.029471309738108,-0.7353749345009115,1.916965901034807,0.0,14.145148311802856,12.100793848856265,462.06595134108795,463.83909525310435,0.0
0.129,2.179020989244764,-0.7960067742858823,3.400203124516368,0.0,14.020919861334635,12.440684384117834,458.2359503015438,463.83909525310435,0.0
0.13,2.3926215111989677,-0.8497139297824211,5.371235093804038,0.0,13.948404778146159,12.91414360457335,454.10740699471063,463.83909525310435,0.0
0.131,2.6855394986919405,-0.9108058836870345,7.532823629804572,0.0,13.936670168696631,13.520984840526971,451.5390669630596,463.83909525310435,0.0
0.132,3.063975175603124,-0.9802948689515547,8.939993928530528,0.0,13.993826012627462,14.160442594854825,450.69276063015803,463.83909525310435,0.0
0.133,3.4910935204289295,-1.028364917172215,9.49461044121078,0.0,14.113804863049628,14.745407610388822,447.09178102911915,463.83909525310435,0.0
0.134,3.9163354182012835,-1.036414654504254,10.0,0.0,14.280687100607295,15.291415270444944,442.87683421137746,463.83909525310435,0.0
0.135,4.336001535548585,-1.0058047729904531,10.0,0.0,14.482034296074964,15.75254563873284,436.75024867864005,463.83909525310435,0.0
0.136,4.731251421778854,-0.9337588624103559,10.0,0.0,14.701740857475981,16.148416863426867,430.3794156716562,463.83909525310435,0.0
0.137,5.106860458794726,-0.8303178515863023,10.0,0.0,14.92840583312147,16.489307126582148,423.483788361665,463.83909525310435,0.0
0.138,5.469630295970261,-0.7058567410083252,10.0,0.0,15.153837025462586,16.782626269267293,441.6426938251694,463.83909525310435,0.0
0.139,5.7372065859836905,-0.7102979402026026,10.0,0.0,15.387790155855262,17.043350923388324,464.8942882074488,463.83909525310435,0.0
0.14,5.851415417770911,-0.8987246793604324,3.1605962718697125,0.0,15.645102967936186,16.539176806445724,481.3336663755994,463.83909525310435,0.0
0.14100000000000001,5.567549301048263,-0.9684578658255467,-5.234038523430537,0.0,15.832053470234348,15.28850295336111,486.3222823051168,463.83909525310435,0.0
