timestamp,iq,id,iq_ref,id_ref,vq,vd,omega,omega_ref,r
0.0,0.0,0.0,0.0,0.0,0.0,0.0,0.0,381.48330642707805,0.0
0.001,0.0,0.0,10.0,0.0,0.0,1.0999999999999999,6.520888271197504,381.48330642707805,0.0
0.002,0.8090084009001557,-0.44754383485650434,10.0,0.0,0.15922982183421552,1.9010090759009823,16.02767320719016,381.48330642707805,0.0
0.003,1.8292729490775244,-1.0288258291773364,10.0,0.0,0.4421031501018341,2.53370121010478,25.336959983595808,381.48330642707805,0.0
0.004,2.8064150415520865,-1.5931519796891291,10.0,0.0,0.8162214155761597,3.034128479024531,33.88125876767412,381.48330642707805,0.0
0.005,3.6221122758213795,-2.066775130661248,10.0,0.0,1.2494258664968425,3.4419695727548634,42.23888332092037,381.48330642707805,0.0
0.006,4.244714120395533,-2.42754160114771,10.0,0.0,1.7150420619422797,3.7920177716437666,50.90488909088548,381.48330642707805,0.0
0.007,4.689530363272862,-2.684811680382364,10.0,0.0,2.193793501743012,4.110919001917558,59.6679258527594,381.48330642707805,0.0
0.008,4.992846210998996,-2.8614763596013346,10.0,0.0,2.6734203345127896,4.4168886723229415,68.30145236621675,381.48330642707805,0.0
0.009000000000000001,5.19656739520885,-2.9809898684980367,10.0,0.0,3.1470612902325756,4.720847887178944,76.77845602689234,381.48330642707805,0.0
0.01,5.338027305196329,-3.063677739537246,10.0,0.0,3.6116346025913284,5.0282518978647985,85.1336665148324,381.48330642707805,0.0
0.011,5.445967217024772,-3.1249825692603883,10.0,0.0,4.066407637341945,5.340914047516691,93.37563016209,381.48330642707805,0.0
0.012,5.539483321297695,-3.1762798232549816,10.0,0.0,4.5119992332248655,5.658579913326718,101.4017510288599,381.48330642707805,0.0
0.013000000000000001,5.63085370431604,-3.2230399160049474,10.0,0.0,4.949428893763042,5.979922771054745,109.3670154798846,381.48330642707805,0.0
0.014,5.726813064990151,-3.2670771022466365,10.0,0.0,5.379626363579294,6.3032324832198166,117.31961688923192,381.48330642707805,0.0
0.015,5.829709486149976,-3.3089883620546825,10.0,0.0,5.803304924346897,6.6268719584291675,124.95410045039684,381.48330642707805,0.0
0.016,5.939169037088734,-3.348985160460828,10.0,0.0,6.220960111785268,6.94950375580268,132.13677572927816,381.48330642707805,0.0
0.017,6.055975447091155,-3.383022911569106,10.0,0.0,6.632457144855003,7.2698837825917995,139.20586332503774,381.48330642707805,0.0
0.018000000000000002,6.179509213974028,-3.4088036697590303,10.0,0.0,7.037337983186484,7.586954859751885,146.24441353620193,381.48330642707805,0.0
0.019,6.308968656922987,-3.4247260986875174,10.0,0.0,7.434931505001061,7.899801711973559,153.14466499233396,381.48330642707805,0.0
0.02,6.444193447190809,-3.4289418615897604,10.0,0.0,7.82435486948631,8.207543098654549,159.69197289459845,381.48330642707805,0.0
0.021,6.585373119682239,-3.4199263192880114,10.0,0.0,8.204576168908917,8.509275167044587,165.09111743987904,381.48330642707805,0.0
0.022,6.732258941859961,-3.3976968181101634,10.0,0.0,8.574593455521722,8.804110514823247,169.9509944621182,381.48330642707805,0.0
0.023,6.889896245690743,-3.354143569328091,10.0,0.0,8.93252398589686,9.09059281128571,175.50673948964447,381.48330642707805,0.0
0.024,7.053145634578327,-3.2983083952492684,10.0,0.0,9.277603356219887,9.367838871400117,179.54889638450183,381.48330642707805,0.0
0.025,7.228099229598992,-3.2211530509018527,10.0,0.0,9.60797065938462,9.634255860971988,183.68619062417855,381.48330642707805,0.0
0.026000000000000002,7.410439825136806,-3.130655426477064,10.0,0.0,9.922759745946813,9.888759952344191,186.14835383944802,381.48330642707805,0.0
0.027,7.609861969345387,-3.0118767889008184,10.0,0.0,10.219359659100872,10.129179513327832,189.35008458072502,381.48330642707805,0.0
0.028,7.803571481906808,-2.902860335922167,10.0,0.0,10.499537513586,10.355903284588841,188.73550587470947,381.48330642707805,0.0
0.029,8.03513459837657,-2.7332341123120307,10.0,0.0,10.756801239681383,10.564437616486199,192.144752236942,381.48330642707805,0.0
0.03,8.239146028171566,-2.60954740250338,10.0,0.0,10.99728275051412,10.75771926169061,194.62151387299767,381.48330642707805,0.0
0.031,8.492747086441366,-2.406838583558808,10.0,0.0,11.211983171798202,10.929864891346128,188.17332929468583,381.48330642707805,0.0
0.032,8.715476360904143,-2.255024348249078,10.0,0.0,11.407755636224802,11.084301790556292,197.91059972667568,381.48330642707805,0.0
0.033,8.967187339241335,-2.0571928420440035,10.0,0.0,11.579151220800304,11.217411331415638,192.13748736264176,381.48330642707805,0.0
0.034,9.231914966276992,-1.8368204242835717,10.0,0.0,11.724455550112589,11.327746547456046,185.24191410568278,381.48330642707805,0.0
0.035,9.469560288705395,-1.659410861099027,10.0,0.0,11.848951640324993,11.418084965626875,190.1848005419708,381.48330642707805,0.0
0.036000000000000004,9.713898108502722,-1.469245514250554,10.0,0.0,11.95088787081175,11.487338444048442,193.37769889544248,381.48330642707805,0.0
0.037,9.970024188266702,-1.2550033038638158,10.0,0.0,12.027890836417932,11.534129707100464,191.81223185925631,381.48330642707805,0.0
0.038,10.223791971223894,-1.0377483409411958,10.0,0.0,12.080117007951081,11.55858894508025,191.66820408804145,381.48330642707805,0.0
0.039,10.441717531195522,-0.8730203817730358,10.0,0.0,12.113618960249617,11.564390742648062,193.04597259233174,381.48330642707805,0.0
0.04,10.528155272031157,-0.9159757243242508,10.0,0.0,12.1507232643474,11.565633659796745,190.94712289265078,381.48330642707805,0.0
0.041,10.5570482834986,-1.0339140739256694,10.0,0.0,12.196785094780914,11.568148861787275,191.76410473974596,381.48330642707805,0.0
0.042,10.534232813171199,-1.2156080778795486,10.0,0.0,12.257299219309047,11.577817358472798,203.70804742755996,381.48330642707805,0.0
0.043000000000000003,10.490048026312792,-1.4112443767555538,10.0,0.0,12.332431833889734,11.597202589793726,209.76644822288372,381.48330642707805,0.0
0.044,10.451310783836885,-1.577045320641191,10.0,0.0,12.41827145098311,11.625981808244397,203.96087193585984,381.48330642707805,0.0
0.045,10.36882845333548,-1.8035749406318162,10.0,0.0,12.521665276972325,11.669152750489733,219.85167112827511,381.48330642707805,0.0
0.046,10.277044320172276,-2.037371875530863,10.0,0.0,12.642489181226146,11.7276174124524,217.06991702253802,381.48330642707805,0.0
0.047,10.200604831251436,-2.2374013453895802,10.0,0.0,12.776742433586312,11.799808501093839,229.39950015685042,381.48330642707805,0.0
0.048,10.081963520157313,-2.5076465702123496,10.0,0.0,12.932516149606528,11.890491955438295,227.40611449935412,381.48330642707805,0.0
0.049,9.996819640896888,-2.7165384348017043,10.0,0.0,13.102056492315768,11.995863849558035,244.43331033926523,381.48330642707805,0.0
0.05,9.875358154989007,-2.986582019955081,10.0,0.0,13.292795865887037,12.120161913193982,238.77869711853305,381.48330642707805,0.0
0.051000000000000004,9.75994475405844,-3.2440036651414266,10.0,0.0,13.502507053583738,12.262584967066752,253.6120063651483,381.48330642707805,0.0
0.052000000000000005,9.663249010791521,-3.463925545509963,10.0,0.0,13.72710661828672,12.421219232071968,265.36264328675577,381.48330642707805,0.0
0.053,9.525716051111292,-3.7504406413318994,10.0,0.0,13.974427094756656,12.600611695179115,262.40537181398213,381.48330642707805,0.0
0.054,9.402359617590491,-4.006896897147964,10.0,0.0,14.240299807071857,12.79899083771303,270.5000840957628,381.48330642707805,0.0
0.055,9.305925291514178,-4.207675771860941,10.0,0.0,14.51894427606919,13.013493548758255,286.7884848258468,381.48330642707805,0.0
0.056,9.188738200663657,-4.435052760817121,10.0,0.0,14.814178249309375,13.246336672331491,293.81080460630113,381.48330642707805,0.0
0.057,9.06773829086639,-4.661075177487358,10.0,0.0,15.125761833527022,13.497557000040612,299.39577213849714,381.48330642707805,0.0
0.058,8.968948874915675,-4.8409382884963374,10.0,0.0,15.448833810138106,13.764470490057192,297.95837772481434,381.48330642707805,0.0
0.059000000000000004,8.893674367276178,-4.9728853855029,10.0,0.0,15.77900548765037,14.044292130414062,307.4481439692479,381.48330642707805,0.0
0.06,8.854485120107887,-5.037869603391881,10.0,0.0,16.10997095444482,14.332706846598585,320.8199764525932,381.48330642707805,0.0
0.061,8.830387203925664,-5.075674340636162,10.0,0.0,16.44019002509625,14.627635516152463,328.4270400353193,381.48330642707805,0.0
0.062,8.828553118160261,-5.080846620283847,10.0,0.0,16.767070959026732,14.926053996088473,328.4257288533936,381.48330642707805,0.0
0.063,8.8724564857718,-5.020842402040924,10.0,0.0,17.084453460754567,15.222471010129002,317.7521862296571,381.48330642707805,0.0
0.064,8.988101990831337,-4.858457858812623,10.0,0.0,17.382477156140993,15.508702601057827,327.77940015045857,381.48330642707805,0.0
0.065,9.175947843740392,-4.598767427250322,10.0,0.0,17.652379539042084,15.776606813663019,338.29023731356835,381.48330642707805,0.0
0.066,9.372688471437913,-4.3527952500406775,10.0,0.0,17.897622069736148,16.024947832780153,319.4139817298829,381.48330642707805,0.0
0.067,9.63370091286223,-4.038780243516254,10.0,0.0,18.111092520326935,16.24623504077529,326.8780378388315,381.48330642707805,0.0
0.068,9.996536503884473,-3.5964861332670033,10.0,0.0,18.27983244459597,16.42943878243179,319.9983213245512,381.48330642707805,0.0
0.069,10.331337574198091,-3.2357806488579675,10.0,0.0,18.41476408842126,16.57799638052526,316.96552183679,381.48330642707805,0.0
0.07,10.782320360160083,-2.7258920750583178,10.0,0.0,18.498577639399496,16.67893128743923,302.60735635868394,381.48330642707805,0.0
0.07100000000000001,11.190461701299832,-2.3151460239969377,10.0,0.0,18.544020146092546,16.737768339093876,312.042494403018,381.48330642707805,0.0
0.07200000000000001,11.66520544915457,-1.824777647981044,10.0,0.0,18.54096904643062,16.74712553739974,294.3775179555434,381.48330642707805,0.0
0.073,12.15453140004966,-1.325365953818102,10.0,0.0,18.489127173967713,16.706163488788906,279.6012344273328,381.48330642707805,0.0
0.074,12.606335407072214,-0.8942898139403437,10.0,0.0,18.395949025445095,16.619308276529345,273.363682847687,381.48330642707805,0.0
0.075,13.04866328696217,-0.47846875144159584,10.0,0.0,18.261973615072687,16.4876827439258,283.7092149216696,381.48330642707805,0.0
0.076,13.382744678285663,-0.23307676618066847,10.0,0.0,18.105398284723453,16.323496549298685,287.9468347581129,381.48330642707805,0.0
0.077,13.445686439484472,-0.3959247938602136,10.0,0.0,17.968429070843797,16.156488661280726,287.2332200175866,381.48330642707805,0.0
0.078,13.382909506626746,-0.7041627538028918,10.0,0.0,17.860733684867203,16.00001952090294,290.55236845427015,381.48330642707805,0.0
0.079,13.224956468068166,-1.1013344567190468,10.0,0.0,17.78876743117184,15.865174820878138,297.4067466357762,381.48330642707805,0.0
0.08,13.009179461728019,-1.529260387718655,10.0,0.0,17.753613468224334,15.758773905798101,303.0219295764321,381.48330642707805,0.0
0.081,12.758469391268715,-1.9589789800200004,10.0,0.0,17.754324595906724,15.684918023618447,309.7719759346962,381.48330642707805,0.0
0.082,12.458429671935866,-2.429525604659899,10.0,0.0,17.795041965390293,15.64901611084702,315.1549747054873,381.48330642707805,0.0
0.083,12.16506350982556,-2.8558312175410148,10.0,0.0,17.870285557818875,15.650046006939894,329.1086711396071,381.48330642707805,0.0
0.084,11.834008792934783,-3.324364218284521,10.0,0.0,17.985383354566864,15.691979629903228,327.7585767876138,381.48330642707805,0.0
0.085,11.511580145350305,-3.762097116981749,10.0,0.0,18.13663002278565,15.773386274310404,340.0647408903014,381.48330642707805,0.0
0.08600000000000001,11.209379106000746,-4.150448202556941,10.0,0.0,18.319233979049574,15.891794748951346,355.3968696110724,381.48330642707805,0.0
0.08700000000000001,10.887806203042743,-4.56067745105279,10.0,0.0,18.536660093629983,16.048973780686477,359.07229446068754,381.48330642707805,0.0
0.088,10.57908761967952,-4.939922894541549,10.0,0.0,18.785676206224682,16.242920835846512,358.32510445179395,381.48330642707805,0.0
0.089,10.318015468631158,-5.22800355938405,10.0,0.0,19.057081831773697,16.468005547531696,368.47811892668494,381.48330642707805,0.0
0.09,10.096788652505865,-5.43959620178819,10.0,0.0,19.34424974995236,16.71944657886656,380.2803465256745,381.48330642707805,0.0
0.091,9.911406153027983,-5.58753411345975,7.990612790812494,0.0,19.642002223306466,16.77160751265649,389.9181101897449,381.48330642707805,0.0
0.092,9.615442996937787,-5.574135708631905,3.087382921150623,0.0,19.912242339056377,16.359768309007052,383.9138441855168,381.48330642707805,0.0
0.093,8.95484714692293,-5.241145324286394,6.065210545680286,0.0,20.07777956463663,16.462436286633167,368.26861607669935,381.48330642707805,0.0
0.094,8.549602717615254,-4.833720541664327,10.0,0.0,20.1955430431765,17.01241068150826,372.1300859809857,381.48330642707805,0.0
0.095,8.675661744905039,-4.5276794594294625,10.0,0.0,20.32693734213027,17.461897152911686,385.4257504156778,381.48330642707805,0.0
0.096,9.025197399274152,-4.312121991032034,5.373065282089868,0.0,20.46948994762764,17.333423256392322,366.08170839502935,381.48330642707805,0.0
0.097,9.148018451667445,-3.878567800567585,10.0,0.0,20.539404516656216,17.77726921700427,361.89923581357874,381.48330642707805,0.0
0.098,9.67452628300271,-3.4168012179966447,10.0,0.0,20.60025344266498,18.080765040355846,364.9862979251224,381.48330642707805,0.0
0.099,10.261466757600203,-3.07736775657017,10.0,0.0,20.652647043476822,18.300697800080766,346.3977450049776,381.48330642707805,0.0
0.1,10.98559726669954,-2.5825731770909295,10.0,0.0,20.670761491051515,18.430091692659428,342.8977862619587,381.48330642707805,0.0
0.101,11.640105954724454,-2.176312759115401,10.0,0.0,20.660263182944092,18.48360299014594,343.4989105846022,381.48330642707805,0.0
0.10200000000000001,12.355040260981083,-1.6167600581413026,10.0,0.0,20.598677642468672,18.458615640265084,319.6726242967029,381.48330642707805,0.0
0.10300000000000001,13.004129685638526,-1.0921965926052373,10.0,0.0,20.488645466853473,18.365717977675015,308.5098047827049,381.48330642707805,0.0
0.10400000000000001,13.595071459588635,-0.5989965411208651,10.0,0.0,20.33132037153288,18.21259416289449,301.53928983743236,381.48330642707805,0.0
0.105,14.152926709441877,-0.103168658800044,10.0,0.0,20.12480633772583,18.00359556031561,315.25219406465004,381.48330642707805,0.0
0.106,14.365481988852537,-0.12206092004431657,10.0,0.0,19.92508027460168,17.77704288637726,316.58217734554177,381.48330642707805,0.0
0.107,14.346822190510903,-0.43147360096173504,10.0,0.0,19.75651802268459,17.557351004132038,319.86866601740786,381.48330642707805,0.0
0.108,14.190040163042225,-0.8724921463981632,10.0,0.0,19.628260720923514,17.35983150995775,327.2185935515971,381.48330642707805,0.0
0.109,13.941957777507575,-1.371806452636497,10.0,0.0,19.543591588152967,17.194959477158918,333.6418952400808,381.48330642707805,0.0
0.11,13.629631019439302,-1.8971572469029203,10.0,0.0,19.50369760968652,17.06998285389507,340.5320445938177,381.48330642707805,0.0
0.111,13.269582322599238,-2.4379942366035294,10.0,0.0,19.509533927664737,16.989996584182695,347.89148166031896,381.48330642707805,0.0
0.112,12.881749469861322,-2.976991823047289,10.0,0.0,19.560669351485696,16.957653700072143,355.71653355371035,381.48330642707805,0.0
0.113,12.475697532506569,-3.511383791109907,10.0,0.0,19.656850085135957,16.9744460313364,362.5825054501114,381.48330642707805,0.0
0.114,12.074194968812499,-4.011106949674,10.0,0.0,19.794717606309046,17.03928196547204,376.4821125199017,381.48330642707805,0.0
0.115,11.676902884470966,-4.4827052005973975,10.0,0.0,19.972160544794317,17.15110816195206,387.1723238333557,381.48330642707805,0.0
0.116,11.279470411134179,-4.938993154475247,5.156263707811529,0.0,20.1885175014964,16.7764296917155,385.6138914443481,381.48330642707805,0.0
0.117,10.52965546202694,-5.117495377799039,5.894174052142619,0.0,20.360843280531448,16.66896758463954,383.41477927101977,381.48330642707805,0.0
0.11800000000000001,9.803522786551454,-5.154047857461595,6.974415410367367,0.0,20.507426021485045,16.773308156947323,389.03734719218335,381.48330642707805,0.0
0.11900000000000001,9.26283601208273,-5.154787522933821,4.087591042134524,0.0,20.649500383979376,16.605734070468635,396.3892035260474,381.48330642707805,0.0
0.12,8.658945079084763,-4.987818254174775,0.26260390421279123,0.0,20.74223588535819,16.13826562228327,395.12284749967273,381.48330642707805,0.0
0.121,7.831669450065546,-4.5965642261776996,0.7593865066741916,0.0,20.737582741388497,15.904674936566433,377.19808792920355,381.48330642707805,0.0
0.122,7.142152156847927,-4.085929411644751,9.764618476887525,0.0,20.657778553925432,16.747159841686912,371.5472237184784,381.48330642707805,0.0
0.123,7.392991369813595,-3.8702866805574003,10.0,0.0,20.65158892344645,17.39876799903087,386.79431504707327,381.48330642707805,0.0
0.124,8.03321185021609,-3.8089595425002134,4.95896743065199,0.0,20.706589513874338,17.359813119018515,374.93028199437555,381.48330642707805,0.0
0.125,8.414413771897824,-3.564789156280008,10.0,0.0,20.725949086154557,17.89964768779098,361.53758975649805,381.48330642707805,0.0
0.126,9.19102543675883,-3.2691643648025175,10.0,0.0,20.767279134883672,18.255409167302837,373.16426511128486,381.48330642707805,0.0
0.127,9.9945422103285,-3.027758352628051,10.0,0.0,20.81645391326665,18.499106775292375,346.2386790672754,381.48330642707805,0.0
0.128,10.840984143938229,-2.6463667947998153,10.0,0.0,20.84554196337092,18.638278655359883,355.45679646680475,381.48330642707805,0.0
0.129,11.603761126949507,-2.2583410656883434,10.0,0.0,20.846769481847538,18.69100110363592,341.15447307396437,381.48330642707805,0.0
0.13,12.375566667045257,-1.7078652619742911,10.0,0.0,20.79647441218666,18.661303219351602,320.4094724963074,381.48330642707805,0.0
0.131,13.031317807827868,-1.2144523959316613,10.0,0.0,20.6994684038359,18.565131046444492,315.56577141705225,381.48330642707805,0.0
0.132,13.636484549211096,-0.7068043644039328,10.0,0.0,20.55163862422187,18.408864659848692,311.9323235697628,381.48330642707805,0.0
0.133,14.209037250980842,-0.17799129318895623,10.0,0.0,20.349872226391305,18.196512804170233,318.27599068331057,381.48330642707805,0.0
0.134,14.465602204999962,-0.11345525670348522,10.0,0.0,20.145236449474684,17.962722876352146,322.34668625114614,381.48330642707805,0.0
0.135,14.464750719080257,-0.3851445415194643,10.0,0.0,19.96821643916254,17.73450767661558,322.4609711985075,381.48330642707805,0.0
0.136,14.314190051504125,-0.8107425399439778,10.0,0.0,19.830175796886486,17.527965154395613,329.1122850715102,381.48330642707805,0.0
0.137,14.05903638206517,-1.3201782803918984,10.0,0.0,19.73706691808106,17.354834117132572,336.65482532345914,381.48330642707805,0.0
0.138,13.745542046846209,-1.8469629069021245,10.0,0.0,19.688807774941534,17.221638135895,343.15715675214807,381.48330642707805,0.0
0.139,13.378241875287548,-2.399273004768789,10.0,0.0,19.687541212492427,17.134203913986482,350.77521729228306,381.48330642707805,0.0
0.14,12.984766439970539,-2.9459727753883547,10.0,0.0,19.732271757886853,17.09499575419318,358.98303546136884,381.48330642707805,0.0
0.14100000000000001,12.570364564388091,-3.4912700714382083,10.0,0.0,19.823124137621804,17.105830916879572,366.0294660343646,381.48330642707805,0.0
0.14200000000000002,12.158142462701077,-4.004736732284308,10.0,0.0,19.95700315538447,17.165868213700552,377.8509993329358,381.48330642707805,0.0
0.14300000000000002,11.75349145584453,-4.482931134549393,10.0,0.0,20.130964718693672,17.273679072353058,390.1999806235394,381.48330642707805,0.0
0.14400000000000002,11.350621393571432,-4.941043735858624,3.808452112883028,0.0,20.343921653658562,16.747303930669837,389.0738093208174,381.48330642707805,0.0
0.145,10.48167356958613,-5.073600113783044,4.295632735306613,0.0,20.49294545651724,16.501922904004847,384.7268713844597,381.48330642707805,0.0
0.146,9.591387915914074,-5.0339425563562115,6.436666053911663,0.0,20.596840881327356,16.61586616277862,387.97761017767164,381.48330642707805,0.0
0.147,8.978461939601942,-4.9950688244546075,4.746353619799752,0.0,20.697861554598926,16.57997893807527,392.8250036277023,381.48330642707805,0.0
