timestamp,iq,id,iq_ref,id_ref,vq,vd,omega,omega_ref,r
0.0,0.0,0.0,0.0,0.0,0.0,0.0,0.0,273.0325443098539,0.0
0.001,0.0,0.0,10.0,0.0,0.0,1.0999999999999999,4.395706612452627,273.0325443098539,0.0
0.002,0.553246202238818,-0.3037973618514812,10.0,0.0,0.14341770980366292,1.9291429177537296,8.77762418446023,273.0325443098539,0.0
0.003,1.1443055372547564,-0.6379481779878108,10.0,0.0,0.38912655655881395,2.630229249883088,13.206737943339057,273.0325443098539,0.0
0.004,1.6589865018344054,-0.9271863390606182,10.0,0.0,0.7088478414080313,3.235073520721424,17.780818412401896,273.0325443098539,0.0
0.005,2.073798478317096,-1.1586453957977332,10.0,0.0,1.079649539486515,3.770922985193548,22.459726695942276,273.0325443098539,0.0
0.006,2.3994497941909754,-1.3387949645973156,10.0,0.0,1.484457876204946,4.258594148045008,27.195551608417293,273.0325443098539,0.0
0.007,2.6554186922011014,-1.4789262104227079,10.0,0.0,1.9111654368894773,4.71307896266079,31.921274460921374,273.0325443098539,0.0
0.008,2.8602999670829297,-1.589856149629892,10.0,0.0,2.351451703821668,5.144808800626547,36.66940992213357,273.0325443098539,0.0
0.009000000000000001,3.0291713724021294,-1.6799611569132042,10.0,0.0,2.7996845792663096,5.560867239652653,41.37905582298852,273.0325443098539,0.0
0.01,3.1728691206221424,-1.7559477952596663,10.0,0.0,3.2521574912143754,5.966025084069605,46.126226315645575,273.0325443098539,0.0
0.011,3.2995146823730206,-1.821721766319804,10.0,0.0,3.7063741668424814,6.363420400929272,50.921849159396814,273.0325443098539,0.0
0.012,3.414598127676476,-1.880083582981364,10.0,0.0,4.160670766715913,6.75510513029991,55.51297195613265,273.0325443098539,0.0
0.013000000000000001,3.5206345039728357,-1.9349258667849627,10.0,0.0,4.614155212590845,7.142537879781264,60.10178828854457,273.0325443098539,0.0
0.014,3.6214542359151958,-1.985125236512811,10.0,0.0,5.0660079966584455,7.526545992151276,64.6868825170775,273.0325443098539,0.0
0.015,3.718166388358841,-2.032343264136445,10.0,0.0,5.515768302897609,7.907708432241672,69.24731453868793,273.0325443098539,0.0
0.016,3.8119515315217996,-2.0768874513183073,10.0,0.0,5.963096502835665,8.286381414723456,73.71504206188071,273.0325443098539,0.0
0.017,3.9033253114570785,-2.1193863346288686,10.0,0.0,6.407788616320436,8.662806654589616,78.16932496866933,273.0325443098539,0.0
0.018000000000000002,3.993306991509007,-2.159090428856237,10.0,0.0,6.849596503975252,9.03707433481128,82.57944720380192,273.0325443098539,0.0
0.019,4.082074213584067,-2.196344315034821,10.0,0.0,7.2883512574241225,9.409231458148518,86.93159599556597,273.0325443098539,0.0
0.02,4.1700480989052835,-2.2308775098960316,10.0,0.0,7.723872360434778,9.77925888933234,91.22470695814295,273.0325443098539,0.0
0.021,4.257564262428133,-2.2624396560071656,10.0,0.0,8.155970600386363,10.147088648564543,95.46148835705971,273.0325443098539,0.0
0.022,4.344958000007166,-2.2907127856439433,10.0,0.0,8.584436415064943,10.512607106370218,99.83336078447623,273.0325443098539,0.0
0.023,4.433371015117282,-2.3139888039701138,10.0,0.0,9.008885124775741,10.87556880557686,103.86055804044643,273.0325443098539,0.0
0.024,4.52042182890599,-2.3364622822574117,10.0,0.0,9.429424455864467,11.23598774646826,107.67595788634213,273.0325443098539,0.0
0.025,4.609173930977146,-2.3532380953970846,10.0,0.0,9.845572352595951,11.593526503289457,111.46326596944162,273.0325443098539,0.0
0.026000000000000002,4.698862551698973,-2.3657987665911753,10.0,0.0,10.25707325103636,11.947947946842989,115.0813850267596,273.0325443098539,0.0
0.027,4.789938334244076,-2.3736511488857146,10.0,0.0,10.663604359328541,12.298955886012466,118.59746046925669,273.0325443098539,0.0
0.028,4.882953974652937,-2.376153052779773,10.0,0.0,11.064779836313852,12.646195179474692,121.95939936474161,273.0325443098539,0.0
0.029,4.9779970469622565,-2.373459133400023,10.0,0.0,11.460240344776137,12.989303509739287,125.18036395590705,273.0325443098539,0.0
0.03,5.07560658700451,-2.365004974654274,10.0,0.0,11.849562617150424,13.3278604391421,128.23882518817385,273.0325443098539,0.0
0.031,5.175968918792397,-2.350827884801886,10.0,0.0,12.232333416931255,13.661430141745814,131.13268587248416,273.0325443098539,0.0
0.032,5.279476568765688,-2.3306453770810247,10.0,0.0,12.608105802043607,13.989537735888057,133.8501784966651,273.0325443098539,0.0
0.033,5.386361020977369,-2.304450769103327,10.0,0.0,12.976432126258604,14.311689595883754,136.38571752904286,273.0325443098539,0.0
0.034,5.49690052570658,-2.2721671289851244,10.0,0.0,13.336851749718448,14.627368401303288,138.73224266559814,273.0325443098539,0.0
0.035,5.6112940906850195,-2.2338451259632848,10.0,0.0,13.688904707443044,14.93604339142652,140.88578029389245,273.0325443098539,0.0
0.036000000000000004,5.729720865799515,-2.18955832911935,10.0,0.0,14.032131540784887,15.23717316869708,142.84554663070494,273.0325443098539,0.0
0.037,5.85230575089265,-2.1394506115972707,10.0,0.0,14.36607968756061,15.530212581965666,144.60344877448475,273.0325443098539,0.0
0.038,5.979114910833169,-2.0837344232277317,10.0,0.0,14.690309257440195,15.814619709842429,146.15771968817475,273.0325443098539,0.0
0.039,6.110154567424695,-2.022685986819199,10.0,0.0,15.00439841699825,16.089862811293827,147.51463273407913,273.0325443098539,0.0
0.04,6.2453956053064426,-1.9565974053892634,10.0,0.0,15.307943711152433,16.35542440095481,148.67524711708532,273.0325443098539,0.0
0.041,6.384749748819857,-1.8858080654341787,10.0,0.0,15.600564693276542,16.610807815657452,149.64168436204326,273.0325443098539,0.0
0.042,6.528062833129874,-1.810710507009964,10.0,0.0,15.881909080631385,16.85554408926327,150.4292809632453,273.0325443098539,0.0
0.043000000000000003,6.675149025260745,-1.73169168799487,10.0,0.0,16.151651562103908,17.089194823952695,151.0377849586666,273.0325443098539,0.0
0.044,6.825804890987865,-1.6491042277465797,10.0,0.0,16.40949043646096,17.31135345001176,151.46659701031084,273.0325443098539,0.0
0.045,6.979728636804234,-1.563399146416928,10.0,0.0,16.65515960164444,17.521655047518095,151.73140061297002,273.0325443098539,0.0
0.046,7.136654171154484,-1.4749046041598812,10.0,0.0,16.88841466122522,17.71977083047177,151.8608216122794,273.0325443098539,0.0
0.047,7.296652563209971,-1.3833127876231095,10.0,0.0,17.10896563874682,17.905369973305568,151.49905619008592,273.0325443098539,0.0
0.048,7.462213112101681,-1.2841232923472976,10.0,0.0,17.31602650648467,18.077852623150605,148.39101727419086,273.0325443098539,0.0
0.049,7.618909847687494,-1.2013795011748285,10.0,0.0,17.511519630357014,18.238212059359398,149.38141132550788,273.0325443098539,0.0
0.05,7.776548175023418,-1.1187580119011433,10.0,0.0,17.69523845955463,18.386311615683464,150.0977884731566,273.0325443098539,0.0
0.051000000000000004,7.941922036969718,-1.023921366145328,10.0,0.0,17.865789545324493,18.521358357754142,154.40202580878451,273.0325443098539,0.0
0.052000000000000005,8.04773542774499,-1.0292080421339813,10.0,0.0,18.034320097540743,18.649969799828924,156.94864943961602,273.0325443098539,0.0
0.053,8.110106843634256,-1.0987700388598745,10.0,0.0,18.206457691622806,18.776770431077793,157.2932850737681,273.0325443098539,0.0
0.054,8.14722219625134,-1.2015027480376275,10.0,0.0,18.38466656746385,18.90464578398099,162.07151895674758,273.0325443098539,0.0
0.055,8.164991128904791,-1.3283579872901123,10.0,0.0,18.5707688402371,19.03597106011226,168.22702972003162,273.0325443098539,0.0
0.056,8.18529855356947,-1.4421145971522367,10.0,0.0,18.762638088038454,19.170717908521144,170.88121705329928,273.0325443098539,0.0
0.057,8.208589642743274,-1.542216540274255,10.0,0.0,18.95866874354537,19.308818051306815,171.70664387776122,273.0325443098539,0.0
0.058,8.202505441192692,-1.6869190926241684,10.0,0.0,19.163822609107434,19.453613418426908,179.28572578932764,273.0325443098539,0.0
0.059000000000000004,8.201126880299134,-1.8176051021936726,10.0,0.0,19.375869060354443,19.604535435073984,182.22072385717073,273.0325443098539,0.0
0.06,8.20844304480344,-1.926012098565665,10.0,0.0,19.592420977646682,19.760751331476644,185.28008997200035,273.0325443098539,0.0
0.061,8.179872649308308,-2.0917939476685135,10.0,0.0,19.82009122628756,19.926216735117762,192.52551236564133,273.0325443098539,0.0
0.062,8.17353555512614,-2.2120741853889587,10.0,0.0,20.053113998086676,20.09831399966395,193.79477349327203,273.0325443098539,0.0
0.063,8.145529136882395,-2.363369121716301,10.0,0.0,20.295483859779303,20.27952115000042,201.03637040390177,273.0325443098539,0.0
0.064,8.117463424989147,-2.5077464067213375,10.0,0.0,20.546106002323604,20.46965173559833,202.50377376448947,273.0325443098539,0.0
0.065,8.085540540725248,-2.6507800274278717,10.0,0.0,20.804968914600924,20.66906233704097,211.0212812402193,273.0325443098539,0.0
0.066,8.044114510364174,-2.8022785575002476,10.0,0.0,21.073121097895683,20.878655804064163,212.3517757610276,273.0325443098539,0.0
0.067,7.998965715863896,-2.951331789488664,10.0,0.0,21.350298279781278,21.098657249805925,220.71916496131794,273.0325443098539,0.0
0.068,7.955174974144199,-3.088356925930554,10.0,0.0,21.63534012074122,21.328741762806235,225.45370143577114,273.0325443098539,0.0
0.069,7.898039084052529,-3.2389299098360826,10.0,0.0,21.930079005770384,21.5701690490954,229.05891794893776,273.0325443098539,0.0
0.07,7.853165128966262,-3.357753306025282,10.0,0.0,22.2310515746673,21.82129227141713,235.09945900759465,273.0325443098539,0.0
0.07100000000000001,7.7929319646071225,-3.493246233917186,10.0,0.0,22.540755197012924,22.083577336925025,239.33139396939382,273.0325443098539,0.0
0.07200000000000001,7.740027003461594,-3.6063574820706883,10.0,0.0,22.856804271692738,22.355821472199118,244.45724140249442,273.0325443098539,0.0
0.073,7.690953853757849,-3.70340615662662,10.0,0.0,23.178017094151592,22.63731509826972,249.60451389905154,273.0325443098539,0.0
0.074,7.645997599179685,-3.7850857859241396,10.0,0.0,23.503272269448797,22.927235100485724,253.8744557414412,273.0325443098539,0.0
0.075,7.605708211248556,-3.852079833377458,10.0,0.0,23.831546476364775,23.224670890136494,256.3311505457012,273.0325443098539,0.0
0.076,7.584567676290526,-3.881523462078297,10.0,0.0,24.15930570023678,23.527113086479844,261.77852659641553,273.0325443098539,0.0
0.077,7.562278803810495,-3.910553969321487,10.0,0.0,24.48743214086567,23.834327356199296,261.9901580708364,273.0325443098539,0.0
0.078,7.552934743315954,-3.9185809622509824,10.0,0.0,24.81406002855342,24.144437800939276,264.23362809709295,273.0325443098539,0.0
0.079,7.5934328275137775,-3.8460188995516504,10.0,0.0,25.13097407512017,24.45165176010734,269.54483427295196,273.0325443098539,0.0
0.08,7.624093948662004,-3.79590276847221,8.90941274689688,0.0,25.44213095915532,24.636903387689593,265.2070722206403,273.0325443098539,0.0
0.081,7.623875007869457,-3.6783208282751,10.0,0.0,25.728264465434286,24.96594670598818,268.73338906442456,273.0325443098539,0.0
0.082,7.721330490473041,-3.533019110336458,9.413250654628113,0.0,26.003881583343933,25.204528450068544,268.75357552111524,273.0325443098539,0.0
0.083,7.794964458461639,-3.401304790423765,9.44594711417016,0.0,26.26275960585965,25.44915265388247,263.5223668563606,273.0325443098539,0.0
0.084,7.935945926481654,-3.18269334897446,10.0,0.0,26.497482131144878,25.741049470610115,267.65734954290235,273.0325443098539,0.0
0.085,8.0896008189245,-3.0356912347217104,10.0,0.0,26.723937967421044,26.006196105846712,259.3265039783841,273.0325443098539,0.0
0.08600000000000001,8.308468044480682,-2.8166776850994504,10.0,0.0,26.93164141427733,26.244934815300525,263.4162634947328,273.0325443098539,0.0
0.08700000000000001,8.513578116003151,-2.638286802712846,10.0,0.0,27.125015525827067,26.460196562882665,256.53455694459535,273.0325443098539,0.0
0.088,8.774688244488647,-2.3832814194897924,10.0,0.0,27.29431171764938,26.646598533443388,255.66858290602272,273.0325443098539,0.0
0.089,8.996807930195665,-2.204881919004887,10.0,0.0,27.448244596124418,26.809467861987343,254.72086981127075,273.0325443098539,0.0
0.09,9.282860029149335,-1.9369260333680607,10.0,0.0,27.57537996719115,26.942199011496594,245.82885111269178,273.0325443098539,0.0
0.091,9.546357498980793,-1.7174105960160688,10.0,0.0,27.68160777684979,27.048246382469653,244.80552404178246,273.0325443098539,0.0
0.092,9.81263310970026,-1.507105641693629,10.0,0.0,27.7668791520379,27.127656454830444,243.62753316392556,273.0325443098539,0.0
0.093,10.109054691555121,-1.257632247718198,10.0,0.0,27.82622537314922,27.17770903957712,236.41939191499466,273.0325443098539,0.0
0.094,10.396784297692173,-1.029919422866787,10.0,0.0,27.862088553830183,27.20000494710375,230.5916266097476,273.0325443098539,0.0
0.095,10.677138428916331,-0.8211852819238983,10.0,0.0,27.8759113799405,27.195695923572522,232.96239996183178,273.0325443098539,0.0
0.096,10.880969472173657,-0.7457081909460043,10.0,0.0,27.881705882488518,27.173582211559378,236.57501332227085,273.0325443098539,0.0
0.097,10.919143663001835,-0.9247436438661355,10.0,0.0,27.90515823431142,27.152098470443832,240.57835884303222,273.0325443098539,0.0
0.098,10.897366674016755,-1.171649385271376,10.0,0.0,27.94948625386585,27.13788554931876,248.87562535201585,273.0325443098539,0.0
0.099,10.845302187973736,-1.4352965361316836,10.0,0.0,28.014492308532915,27.13503604583653,253.17950894458514,273.0325443098539,0.0
0.1,10.785232122096293,-1.6786312701073358,10.0,0.0,28.09684315661376,27.145059160555313,255.6724022738063,273.0325443098539,0.0
0.101,10.683528290866633,-1.9642455919329704,10.0,0.0,28.200945459419472,27.172901769386787,265.15680736843024,273.0325443098539,0.0
0.10200000000000001,10.570123113774716,-2.2443040215863417,10.0,0.0,28.325372076871375,27.219827878783505,268.6322988292066,273.0325443098539,0.0
0.10300000000000001,10.45763508505519,-2.496863614809693,10.0,0.0,28.46702961447579,27.285743670373968,275.55187616878305,273.0325443098539,0.0
0.10400000000000001,10.305218392501866,-2.795832248586096,6.843506762293927,0.0,28.63147393126198,27.02766033631183,279.28461103965685,273.0325443098539,0.0
0.105,9.998043334705335,-2.9446289147534577,4.9146186595589985,0.0,28.767043429903993,26.663482097842838,283.6443211702983,273.0325443098539,0.0
0.106,9.533175308311343,-3.0747533015951793,2.628645825633817,0.0,28.86546387072581,26.165174234705887,285.586034149763,273.0325443098539,0.0
0.107,8.97720772213118,-3.094899136706514,1.5322544375023845,0.0,28.905126279145577,25.685303631825484,288.2036132854116,273.0325443098539,0.0
0.108,8.383153305888857,-3.1121463217142535,0.07175417992250122,0.0,28.89453111843508,25.167481525547483,288.8726703563259,273.0325443098539,0.0
0.109,7.789957315177072,-3.070705466812144,-0.42117561599935716,0.0,28.828482297278505,24.720075853666497,289.740909501708,273.0325443098539,0.0
0.11,7.2376656865412405,-3.035079578976416,-1.0223788406089582,0.0,28.72079335193659,24.30442292935294,289.8218128497663,273.0325443098539,0.0
0.111,6.745796222748925,-2.9753882966198546,-1.230723200037211,0.0,28.576098226516645,23.95124328037633,289.37796702464414,273.0325443098539,0.0
0.112,6.322455020117168,-2.914241811983051,-1.1722545146240435,0.0,28.404425448254553,23.669075920396693,287.41402425988355,273.0325443098539,0.0
0.113,5.980203378573439,-2.851704525989413,-0.33409793174404623,0.0,28.21543557520777,23.522984824394968,285.3808979997068,273.0325443098539,0.0
0.114,5.755980612425057,-2.8027685249615653,0.558981661445797,0.0,28.02597799261237,23.483703027971703,283.0743520548314,273.0325443098539,0.0
0.115,5.644350531336931,-2.766778783121731,1.6118365564337118,0.0,27.848068477042073,23.54632397670621,280.99350056131334,273.0325443098539,0.0
0.116,5.638748557558223,-2.740320007005541,2.5726527406781585,0.0,27.69166143994787,23.679553026632014,279.16758663828637,273.0325443098539,0.0
0.117,5.719254121384649,-2.712959117048607,3.4242592789073214,0.0,27.561472901421585,23.8589753934599,279.453550694827,273.0325443098539,0.0
0.11800000000000001,5.870729933207661,-2.665363022725529,3.2170671867872658,0.0,27.457283491954744,23.9602721905746,275.737314861864,273.0325443098539,0.0
0.11900000000000001,5.986358888965525,-2.62617780039443,5.0481373977486825,0.0,27.369808289632857,24.23330558414296,270.7749209435629,273.0325443098539,0.0
0.12,6.235257817585465,-2.535566946872368,7.55191059056213,0.0,27.308808605235885,24.701169874631557,274.56638672589844,273.0325443098539,0.0
0.121,6.591318757319149,-2.540540215427554,5.640839275233917,0.0,27.30214848640375,24.844214476932844,266.88441888679586,273.0325443098539,0.0
0.122,6.858739924532023,-2.4334365430469247,9.543304449015789,0.0,27.29862770303756,25.394814770394007,268.8219273884749,273.0325443098539,0.0
0.123,7.299068335188235,-2.39239669288632,8.616656367390071,0.0,27.347075680560224,25.70328510195573,262.2574093302729,273.0325443098539,0.0
0.124,7.684508814808462,-2.3064060974753335,10.0,0.0,27.412477326493196,26.109192309865225,263.5002054010996,273.0325443098539,0.0
0.125,8.112039882924137,-2.212212568864607,10.0,0.0,27.502428146430752,26.42404151255446,256.88095277546483,273.0325443098539,0.0
0.126,8.52323476391744,-2.0767771361058642,10.0,0.0,27.600912842326117,26.675444750740397,256.5048268576537,273.0325443098539,0.0
0.127,8.885523215965387,-1.9436374901042588,10.0,0.0,27.701398385717955,26.875816353781957,253.0772397578844,273.0325443098539,0.0
0.128,9.259919659735333,-1.7267337981266797,10.0,0.0,27.789344525417246,27.028638626564327,245.28418475370984,273.0325443098539,0.0
0.129,9.58188935305524,-1.5484582332156789,10.0,0.0,27.866337003204404,27.143300584210888,244.16536174248031,273.0325443098539,0.0
0.13,9.89374203822128,-1.357572173543765,10.0,0.0,27.927881718062714,27.223111495436456,242.2257470845759,273.0325443098539,0.0
0.131,10.218555324544248,-1.125119909317374,10.0,0.0,27.96759216408956,27.268484852381423,235.55539354745537,273.0325443098539,0.0
0.132,10.52549770146348,-0.9086348808758178,10.0,0.0,27.986380070721918,27.2827763896367,229.9105979846025,273.0325443098539,0.0
0.133,10.819348178243624,-0.7060264198235799,10.0,0.0,27.984596259985224,27.268263435153056,234.50055002082658,273.0325443098539,0.0
0.134,10.911890003569248,-0.8290708145804548,10.0,0.0,27.997100502907625,27.2477822990261,242.63998427042102,273.0325443098539,0.0
0.135,10.927148476039243,-1.043978640621714,10.0,0.0,28.02871562484206,27.229846687085626,246.96958685882268,273.0325443098539,0.0
0.136,10.909614941097546,-1.2735143785526954,10.0,0.0,28.07847552630099,27.218947422100925,249.3347567326258,273.0325443098539,0.0
0.137,10.847494357663484,-1.5417457077808376,10.0,0.0,28.14937959995136,27.220772002588923,254.96795726990155,273.0325443098539,0.0
0.138,10.751513422534128,-1.8363297471255744,10.0,0.0,28.243097655321122,27.23944122942305,263.3256204587084,273.0325443098539,0.0
0.139,10.662881778927986,-2.0880990305008,10.0,0.0,28.354059608615145,27.274405010556123,265.26427094203035,273.0325443098539,0.0
0.14,10.540913603433477,-2.3703776953421256,10.0,0.0,28.48595470499186,27.329498791773617,275.22068612025606,273.0325443098539,0.0
0.14100000000000001,10.404001412677065,-2.654614497179834,6.34171656885542,0.0,28.63861293140641,27.003702186309397,276.10359982687737,273.0325443098539,0.0
0.14200000000000002,10.065556074235506,-2.8060471438224415,5.869549160374531,0.0,28.75724089774537,26.746255348732596,282.473323071483,273.0325443098539,0.0
0.14300000000000002,9.655180933660173,-2.967281552972029,2.5902797504554353,0.0,28.8544828422328,26.212174842619973,283.61383880254255,273.0325443098539,0.0
0.14400000000000002,9.107941354930396,-2.994593441597414,1.9142089399987663,0.0,28.8899845053175,25.755744088770818,286.60131460126036,273.0325443098539,0.0
0.145,8.530350284351051,-3.0335238193776233,0.28478333772579667,0.0,28.880302149378398,25.23409309044602,287.40248531138326,273.0325443098539,0.0
0.146,7.9419700965093725,-3.0096303666937825,-0.2595014273509486,0.0,28.816405345627704,24.77900779818088,288.4790880734816,273.0325443098539,0.0
0.147,7.385580013723519,-2.99081974852714,-0.9522682460363914,0.0,28.71155945955407,24.347598959590577,288.5158667940219,273.0325443098539,0.0
