timestamp,iq,id,iq_ref,id_ref,vq,vd,omega,omega_ref,r
0.0,0.0,0.0,0.0,0.0,0.0,0.0,0.0,373.4740398520371,0.0
0.001,0.0,0.0,10.0,0.0,0.0,1.0999999999999999,7.27127355493215,373.4740398520371,0.0
0.002,0.4638640071919675,-0.23888041144012653,10.0,0.0,0.13627684525841383,1.9389749592088832,14.330893807675569,373.4740398520371,0.0
0.003,0.9986787460709932,-0.541082096790335,10.0,0.0,0.3736768831859964,2.653489125817947,21.059152810948042,373.4740398520371,0.0
0.004,1.499322855562522,-0.8193007972119655,10.0,0.0,0.6863703741746044,3.2705691749035837,28.229098587103255,373.4740398520371,0.0
0.005,1.9244998091861683,-1.0530947330499876,10.0,0.0,1.0524376669108817,3.815447544375833,35.53785432508173,373.4740398520371,0.0
0.006,2.2694485289770863,-1.2415517003660894,10.0,0.0,1.4547783943671464,4.30875221653372,42.87159155725698,373.4740398520371,0.0
0.007,2.5449931944030135,-1.390208352179257,10.0,0.0,1.8806831783198614,4.766100068222501,50.24410739765431,373.4740398520371,0.0
0.008,2.7656546874667303,-1.5073742628804234,10.0,0.0,2.3211339527051793,5.198786295554926,57.617758197111065,373.4740398520371,0.0
0.009000000000000001,2.945208285336117,-1.601025323958083,10.0,0.0,2.7699382299967388,5.614704696757645,64.9680611675373,373.4740398520371,0.0
0.01,3.095124154306954,-1.6775791846182322,10.0,0.0,3.2229383337412543,6.0192164759611515,72.33267933668128,373.4740398520371,0.0
0.011,3.2241911303906314,-1.7418858573467824,10.0,0.0,3.6773978004252066,6.415878878939262,79.59257082121744,373.4740398520371,0.0
0.012,3.3387784922386916,-1.7974751956599349,10.0,0.0,4.131549321225737,6.807007048245508,86.7869576273813,373.4740398520371,0.0
0.013000000000000001,3.443562984512332,-1.846438972365796,10.0,0.0,4.584228628931353,7.194057132169561,93.8750508397049,373.4740398520371,0.0
0.014,3.5416560595477478,-1.8903147285780482,10.0,0.0,5.0346817096751,7.57792774514061,101.04462860787217,373.4740398520371,0.0
0.015,3.6355866571686115,-1.9293476096462792,10.0,0.0,5.482331402996963,7.959105169900988,107.94048572059658,373.4740398520371,0.0
0.016,3.7260002939425103,-1.9654113058799911,10.0,0.0,5.926910547237701,8.337923627448596,114.69032242483847,373.4740398520371,0.0
0.017,3.814921664517928,-1.9970362220002278,10.0,0.0,6.368031726620015,8.71444093926996,121.33539187605004,373.4740398520371,0.0
0.018000000000000002,3.9028676942143714,-2.0246256886814877,10.0,0.0,6.805411111419971,9.088633788286563,127.80458138783767,373.4740398520371,0.0
0.019,3.9905742444671453,-2.047833937441904,10.0,0.0,7.238748855338425,9.460377030650665,134.1370013905728,373.4740398520371,0.0
0.02,4.078803859403371,-2.066051321093874,10.0,0.0,7.667698978815555,9.829451531029736,140.2671370341337,373.4740398520371,0.0
0.021,4.168016840462417,-2.0790666171093193,10.0,0.0,8.09191104870806,10.195582461951489,146.17456258499536,373.4740398520371,0.0
0.022,4.258917871014579,-2.086233897825448,10.0,0.0,8.510973252622108,10.558414523220165,151.8373991837064,373.4740398520371,0.0
0.023,4.35206626195561,-2.08715816709954,10.0,0.0,8.92444243908461,10.917532286055387,157.23119734180042,373.4740398520371,0.0
0.024,4.4480863215908775,-2.0813754609168833,10.0,0.0,9.331831142811549,11.272454468602872,162.3326951103096,373.4740398520371,0.0
0.025,4.547565361802336,-2.0685299536622956,10.0,0.0,9.732618015684364,11.622640809441386,167.1184427640539,373.4740398520371,0.0
0.026000000000000002,4.651087931101499,-2.0483187352743824,10.0,0.0,10.126250056403624,11.967494511262542,171.56625491870972,373.4740398520371,0.0
0.027,4.759195666768087,-2.0205499086785332,10.0,0.0,10.512151804491412,12.30636942174318,175.65562292218303,373.4740398520371,0.0
0.028,4.872388353169738,-1.9851279140328564,10.0,0.0,10.889732137673416,12.638576897837009,179.3697136214748,373.4740398520371,0.0
0.029,4.9910965519711405,-1.9420805890206172,10.0,0.0,11.258394199341716,12.963395684635522,182.6956896688599,373.4740398520371,0.0
0.03,5.115677779608442,-1.8915451095583469,10.0,0.0,11.617543504032309,13.280081945868924,185.626823225369,373.4740398520371,0.0
0.031,5.246396039508069,-1.833779251961278,10.0,0.0,11.966597614836129,13.587881315135462,188.1610745215257,373.4740398520371,0.0
0.032,5.383421518234323,-1.7691397405726175,10.0,0.0,12.304993563809436,13.886040538494836,190.30383434875753,373.4740398520371,0.0
0.033,5.526817640850023,-1.6980820569954633,10.0,0.0,12.63219589014175,14.173820115715127,192.06535549098703,373.4740398520371,0.0
0.034,5.6765525334113685,-1.6211226352304,10.0,0.0,12.947700982004479,14.450505090891046,193.46882616475042,373.4740398520371,0.0
0.035,5.832497034924729,-1.5388256211579447,10.0,0.0,13.251040984868204,14.71541553149478,194.52734174515177,373.4740398520371,0.0
0.036000000000000004,5.994431706473638,-1.4517785664431866,10.0,0.0,13.541785825628034,14.96791555946927,195.24883364739236,373.4740398520371,0.0
0.037,6.16197269128054,-1.3607088575099495,10.0,0.0,13.819558987673819,15.207429907109027,195.70608033580348,373.4740398520371,0.0
0.038,6.334950944749852,-1.2658491973861934,10.0,0.0,14.083982402754721,15.433417938155824,195.40494292538978,373.4740398520371,0.0
0.039,6.5114660364660235,-1.1701980594447785,10.0,0.0,14.334989250859895,15.645562630051952,195.65774690430356,373.4740398520371,0.0
0.04,6.692217365665206,-1.0723715455830796,10.0,0.0,14.572305478198793,15.843476042274235,197.8433709248394,373.4740398520371,0.0
0.041,6.868084314850098,-0.9873195965759378,10.0,0.0,14.797303974773861,16.027791884889833,202.0012663044761,373.4740398520371,0.0
0.042,6.955153461432262,-1.0505070359548658,10.0,0.0,15.026035343774737,16.208357056269193,210.36011521439852,373.4740398520371,0.0
0.043000000000000003,7.0281650719529285,-1.129796106416057,10.0,0.0,15.258040016370398,16.38657826171924,215.74573480626438,373.4740398520371,0.0
0.044,7.0867306759950655,-1.2222381949349792,10.0,0.0,15.49404208128397,16.56446571354443,222.29478577286577,373.4740398520371,0.0
0.045,7.110701892330771,-1.3628777949128734,10.0,0.0,15.738778620001076,16.746113448921946,230.33205277605455,373.4740398520371,0.0
0.046,7.144785170565731,-1.4743888405147816,10.0,0.0,15.988066097400658,16.930560616190927,236.96919992003419,373.4740398520371,0.0
0.047,7.150484836944102,-1.6230120758337603,10.0,0.0,16.246102989216254,17.12120568395372,244.97918026489407,373.4740398520371,0.0
0.048,7.161623267706695,-1.7502697850425615,10.0,0.0,16.50991281428634,17.31742170340167,252.8813388985563,373.4740398520371,0.0
0.049,7.146635939810999,-1.9108027619688657,10.0,0.0,16.783349309164024,17.522157093787996,260.58519949118664,373.4740398520371,0.0
0.05,7.1373283771378375,-2.048540521919771,10.0,0.0,17.063461517417906,17.734636553238545,269.6517472396691,373.4740398520371,0.0
0.051000000000000004,7.1025690255203004,-2.2170954149158653,10.0,0.0,17.35397411142151,17.957609740620626,277.2869451601068,373.4740398520371,0.0
0.052000000000000005,7.072888772307859,-2.362096342612092,10.0,0.0,17.6519973178796,18.19025410300205,286.92043340807504,373.4740398520371,0.0
0.053,7.02174270097261,-2.528834451464248,10.0,0.0,17.96037382262678,18.4347656151059,294.89192808457693,373.4740398520371,0.0
0.054,6.972296415316576,-2.6761004514019917,10.0,0.0,18.276895707014273,18.690591257182888,304.00560499068774,373.4740398520371,0.0
0.055,6.911200280089952,-2.826250749351412,10.0,0.0,18.60239183994577,18.9587126355093,312.1087942635526,373.4740398520371,0.0
0.056,6.849896378325371,-2.959417873414767,10.0,0.0,18.935297378084236,19.238703957138057,319.8007808249671,373.4740398520371,0.0
0.057,6.7864438053629454,-3.079363028653873,10.0,0.0,19.274773790407394,19.530353444426005,327.53837500972264,373.4740398520371,0.0
0.058,6.728830493702519,-3.173836008234364,10.0,0.0,19.6186600864285,19.832488562770493,334.7563070534987,373.4740398520371,0.0
0.059000000000000004,6.677927473657801,-3.243820491922922,10.0,0.0,19.965124828091877,20.143821997970964,340.425487716378,373.4740398520371,0.0
0.06,6.639527430554474,-3.283364948516976,10.0,0.0,20.31172648449742,20.462383538358644,345.20026381864557,373.4740398520371,0.0
0.061,6.621116237159947,-3.284805706424219,10.0,0.0,20.65528716810504,20.78539032119047,348.89275229355087,373.4740398520371,0.0
0.062,6.624790163476428,-3.2505833535249695,10.0,0.0,20.993013595237088,21.109864250271116,351.07673899684227,373.4740398520371,0.0
0.063,6.658082750444124,-3.1750100191370976,10.0,0.0,21.321443929310316,21.432037983853622,352.2861873924121,373.4740398520371,0.0
0.064,6.722559893431209,-3.062494003614555,10.0,0.0,21.637627574970878,21.748077817626303,351.8882094240222,373.4740398520371,0.0
0.065,6.822643178031743,-2.912663371857266,10.0,0.0,21.93844063010458,22.05376764271158,350.60664960885106,373.4740398520371,0.0
0.066,6.957567130945384,-2.732821699414962,10.0,0.0,22.221457084582347,22.345128988827206,347.73852661375906,373.4740398520371,0.0
0.067,7.130938817838279,-2.521983610742581,10.0,0.0,22.483914255194364,22.617934199749953,344.42388467146196,373.4740398520371,0.0
0.068,7.330355425096968,-2.30359606147079,10.0,0.0,22.72549198030428,22.86950249671212,338.48043248656984,373.4740398520371,0.0
0.069,7.576029616554729,-2.0467114347447715,10.0,0.0,22.94199532915228,23.095041741501284,335.7022211911522,373.4740398520371,0.0
0.07,7.827379691564601,-1.8163853011392512,10.0,0.0,23.136635239165045,23.294485630359826,327.1704330012662,373.4740398520371,0.0
0.07100000000000001,8.128814516944072,-1.5398607624295715,10.0,0.0,23.30364110914039,23.462804791292147,322.2866611981743,373.4740398520371,0.0
0.07200000000000001,8.419365220841277,-1.3119907995235887,10.0,0.0,23.448477857678867,23.602046393953866,316.10173844603094,373.4740398520371,0.0
0.073,8.753862838382215,-1.0407064220160473,10.0,0.0,23.5651925097329,23.707958280312734,306.9226219038601,373.4740398520371,0.0
0.074,9.075447076624718,-0.8126335226394759,10.0,0.0,23.658451710061062,23.782921153209855,313.54390861476514,373.4740398520371,0.0
0.075,9.301561295942777,-0.7622499443730272,10.0,0.0,23.746619813030577,23.838056937107517,326.7627836611074,373.4740398520371,0.0
0.076,9.390042388819204,-0.9185097365896172,10.0,0.0,23.849177097019407,23.889024174889137,332.9119040257879,373.4740398520371,0.0
0.077,9.398549009359707,-1.1722949706845656,10.0,0.0,23.97292915421578,23.945099499960786,346.03810510848325,373.4740398520371,0.0
0.078,9.357948804912036,-1.466145539352089,10.0,0.0,24.11969924841216,24.012493586939556,354.01734090065264,373.4740398520371,0.0
0.079,9.292840239672818,-1.7537151143018441,10.0,0.0,24.287225889444585,24.09458121477193,367.7481886866935,373.4740398520371,0.0
0.08,9.177222808377003,-2.0798706211878253,9.951037674720691,0.0,24.479210039164958,24.191893719933724,377.03071000790834,373.4740398520371,0.0
0.081,9.047514277462312,-2.377224513611663,5.2742103125545485,0.0,24.69117439752724,23.797823767053565,385.62958475110486,373.4740398520371,0.0
0.082,8.665287293839008,-2.584250048642119,0.8532174919656121,0.0,24.86233459469439,23.065564191543935,389.36429702736876,373.4740398520371,0.0
0.083,8.037416647086228,-2.636591297500763,-1.1730412179196579,0.0,24.946840096618004,22.310211564727066,392.2316743559939,373.4740398520371,0.0
0.084,7.29414328583394,-2.604012061682507,-2.794306227271796,0.0,24.943252657238986,21.556249550124587,392.5085715095588,373.4740398520371,0.0
0.085,6.522078438360261,-2.5089018488467154,-3.1231001206294637,0.0,24.854491429283858,20.934864714478216,391.03578312227313,373.4740398520371,0.0
0.08600000000000001,5.8208022426021415,-2.3887860208410734,-2.562323359688987,0.0,24.700206201607344,20.501135355296654,388.8900654067775,373.4740398520371,0.0
0.08700000000000001,5.25935785201136,-2.2724648650753743,-1.6436247574885874,0.0,24.506382391926156,20.245545608905637,385.222679265144,373.4740398520371,0.0
0.088,4.861895470050591,-2.1729130306427686,0.07258191919710733,0.0,24.296594498344056,20.21383462270881,381.72623153990276,373.4740398520371,0.0
0.089,4.657295552264865,-2.101489280916427,1.7382838649390715,0.0,24.097753201374907,20.348912460175026,378.24553710091357,373.4740398520371,0.0
0.09,4.626113418520447,-2.058267564869646,3.430916111944901,0.0,23.928263666581415,20.621514947444968,374.3105379557079,373.4740398520371,0.0
0.091,4.746591825747323,-2.0321017322463035,5.390050703511026,0.0,23.800537309566163,21.034922268978367,372.3639420165993,373.4740398520371,0.0
0.092,5.011376770005926,-2.0120386540940216,6.374449651419699,0.0,23.724979040135274,21.45498720121503,368.6166236981452,373.4740398520371,0.0
0.093,5.340054336447603,-1.9989431918436698,8.296682972185678,0.0,23.69774322080511,21.993584806224096,364.8642484968934,373.4740398520371,0.0
0.094,5.780913719709368,-1.9547950541980086,10.0,0.0,23.722365403390345,22.59853385215679,364.158375247754,373.4740398520371,0.0
0.095,6.282196554677814,-1.9373225071706757,10.0,0.0,23.80353977351378,23.077684523462676,354.9368638990057,373.4740398520371,0.0
0.096,6.789332209578356,-1.8577231166747352,10.0,0.0,23.91593056627119,23.466265470960945,355.62996959818275,373.4740398520371,0.0
0.097,7.270527750877102,-1.7265378447273814,10.0,0.0,24.042305988493432,23.779367249991278,342.8064505481418,373.4740398520371,0.0
0.098,7.718365531168231,-1.5599334622813958,10.0,0.0,24.170339417046897,24.029346192921764,342.0680987774264,373.4740398520371,0.0
0.099,8.142914508202328,-1.3623859920879178,10.0,0.0,24.290503219141243,24.224908574743697,330.1090537069728,373.4740398520371,0.0
0.1,8.561971431676755,-1.1250245515273547,10.0,0.0,24.39407259544862,24.371080326781037,324.7160677395508,373.4740398520371,0.0
0.101,8.943330192742353,-0.9189635588436826,10.0,0.0,24.481609114539395,24.4752329467629,318.0828582029988,373.4740398520371,0.0
0.10200000000000001,9.344041163927297,-0.6633996505317064,10.0,0.0,24.544755823731798,24.53745933743597,330.58804834696014,373.4740398520371,0.0
0.10300000000000001,9.530225067932243,-0.7428043920529523,10.0,0.0,24.619100661722722,24.583304640232278,337.8883515555017,373.4740398520371,0.0
0.10400000000000001,9.590880139339829,-0.9813533093853781,10.0,0.0,24.716041879685534,24.62718967773326,350.69718859900576,373.4740398520371,0.0
0.105,9.586439844037711,-1.2736255703097235,10.0,0.0,24.837441939130528,24.677475316477732,359.41917245458075,373.4740398520371,0.0
0.106,9.539427190531105,-1.578347766301516,10.0,0.0,24.98232727545531,24.739999386224973,373.02493712688624,373.4740398520371,0.0
0.107,9.435022268244035,-1.9230040651951952,6.98300457188862,0.0,25.153841456040734,24.489904500454227,380.2285504013128,373.4740398520371,0.0
0.108,9.173321861255268,-2.174164011807621,3.313652829182577,0.0,25.30737576112897,23.936254779448433,388.2273682707353,373.4740398520371,0.0
0.109,8.678237442603898,-2.344947570504935,-0.8332893897156604,0.0,25.40646625559838,23.085695616382065,391.6005808514649,373.4740398520371,0.0
0.11,7.963842600417052,-2.3810067879409402,-2.7011610900747174,0.0,25.41285046264521,22.239737542672792,393.5776463167058,373.4740398520371,0.0
0.111,7.159894835966257,-2.3467275896180917,-3.89072988734186,0.0,25.32986913762654,21.448130152011057,393.2702577567877,373.4740398520371,0.0
0.112,6.3605597762715504,-2.2687467472613934,-3.9349977864303254,0.0,25.167790105367573,20.814298965908485,391.6947094201291,373.4740398520371,0.0
0.113,5.655749198289356,-2.1794034342218143,-3.3294303137819243,0.0,24.949487901713447,20.36423390915357,389.2054755733252,373.4740398520371,0.0
0.114,5.096597911902139,-2.098817926544609,-2.2421277475928703,0.0,24.70003844003515,20.10535128098582,386.47152908141544,373.4740398520371,0.0
0.115,4.707510953582582,-2.036403439175177,-1.0051293939317727,0.0,24.443585923174034,20.00981681525912,382.4830784641815,373.4740398520371,0.0
0.116,4.4838267232562385,-1.991717011375288,0.8990055285637446,0.0,24.198933849242078,20.11598979810958,378.8017833504534,373.4740398520371,0.0
0.117,4.43761893585355,-1.9698047512963353,2.686375650443652,0.0,23.987400796657663,20.36749565377466,375.26110821288927,373.4740398520371,0.0
0.11800000000000001,4.5435776997897905,-1.9672015934461609,4.438842535617184,0.0,23.822104410135477,20.735477732858076,372.25087237393063,373.4740398520371,0.0
0.11900000000000001,4.781264951672076,-1.967017847488305,5.956192129877566,0.0,23.71014168969699,21.174429741830146,370.745452391376,373.4740398520371,0.0
0.12,5.11118758871083,-1.9694243708430395,6.736187995761505,0.0,23.65353699722816,21.59500170961035,363.6292121261667,373.4740398520371,0.0
0.121,5.486065636012378,-1.9452162514671658,10.0,0.0,23.64196301241933,22.281138014340264,364.6936741046461,373.4740398520371,0.0
0.122,6.013670776557573,-1.9233403703155598,9.940473945746557,0.0,23.697995790831463,22.80402951911908,358.00841306948666,373.4740398520371,0.0
0.123,6.521218825220071,-1.8997708149445895,10.0,0.0,23.79834054960098,23.236824043824214,354.65886293092507,373.4740398520371,0.0
0.124,7.032435801745396,-1.7798945470311631,10.0,0.0,23.918979591047282,23.584619944462098,347.6204041564194,373.4740398520371,0.0
0.125,7.485418245494715,-1.6525661497008892,10.0,0.0,24.049526957385552,23.864984260133653,342.6666506223654,373.4740398520371,0.0
0.126,7.937028704073657,-1.4450541979245735,10.0,0.0,24.17350298793506,24.085219554865688,333.5856172263465,373.4740398520371,0.0
0.127,8.341886839525774,-1.2522600521475553,10.0,0.0,24.287972708385105,24.25581063286553,329.6640528224664,373.4740398520371,0.0
0.128,8.752219675386952,-1.0119231797493313,10.0,0.0,24.383545450084092,24.37970154452018,318.55903434717317,373.4740398520371,0.0
0.129,9.139508315567138,-0.7841886528065354,10.0,0.0,24.459302579538928,24.462262217118045,325.18480007120036,373.4740398520371,0.0
0.13,9.430717545778329,-0.7044060479201804,10.0,0.0,24.529241322039997,24.515982406480195,334.76908144877945,373.4740398520371,0.0
0.131,9.563905952070403,-0.8458392803656434,10.0,0.0,24.61391369084503,24.559585818766205,342.3773256758059,373.4740398520371,0.0
0.132,9.581707411648807,-1.1264751146953103,10.0,0.0,24.723934773449976,24.606669850213432,355.44211547872635,373.4740398520371,0.0
0.133,9.558837055079655,-1.4188434750506858,10.0,0.0,24.857016312234947,24.662741340594817,364.892661250656,373.4740398520371,0.0
0.134,9.477056642550654,-1.7529111280029146,10.0,0.0,25.016220604400743,24.73528097762904,377.06144045074217,373.4740398520371,0.0
0.135,9.369614718910446,-2.0739035387061384,4.611527623092379,0.0,25.198726919701222,24.234755926191735,384.1960366539764,373.4740398520371,0.0
0.136,8.97031527078299,-2.2927081073563365,0.9370095534558596,0.0,25.333788676772404,23.49507026759488,389.4970675355474,373.4740398520371,0.0
0.137,8.345853647782851,-2.376770047630424,-1.8737361641647263,0.0,25.388434460020438,22.63512028637167,392.46870781285344,373.4740398520371,0.0
0.138,7.566746380797415,-2.3736000898140133,-3.549502982425915,0.0,25.35043135205879,21.789860171901452,392.9617665545038,373.4740398520371,0.0
0.139,6.74560962150266,-2.307398160684583,-3.990909620275769,0.0,25.22445203082023,21.076062666953796,392.04811159253745,373.4740398520371,0.0
0.14,5.9841337865608795,-2.2192093264868546,-3.7198228566975935,0.0,25.030652138740294,20.530831564999794,389.9359208253341,373.4740398520371,0.0
0.14100000000000001,5.34679318047628,-2.13202513379637,-2.8283462828288917,0.0,24.793000752818973,20.17858784784286,387.4068331513726,373.4740398520371,0.0
0.14200000000000002,4.872036258978695,-2.059947327430435,-1.7031303788414975,0.0,24.536833417000746,19.998512202813302,383.8745928682843,373.4740398520371,0.0
0.14300000000000002,4.564616177499577,-2.0062633253988515,-0.04101576745981994,0.0,24.28309078810157,20.01147647666471,380.0359633383209,373.4740398520371,0.0
0.14400000000000002,4.433188549553926,-1.9746110092791538,1.8126797626590339,0.0,24.0530739347246,20.196438260699548,376.5816906725748,373.4740398520371,0.0
0.145,4.467354957215454,-1.9651314620618874,3.5087395873267306,0.0,23.863828718056105,20.502859225283245,372.7436884112491,373.4740398520371,0.0
0.146,4.6381480487499385,-1.9674851847965058,5.43504423239746,0.0,23.724503824485826,20.936200908460645,370.80111801609826,373.4740398520371,0.0
