timestamp,iq,id,iq_ref,id_ref,vq,vd,omega,omega_ref,r
0.0,0.0,0.0,0.0,0.0,0.0,0.0,0.0,420.4603468567485,0.0
0.001,0.0,0.0,10.0,0.0,0.0,1.0999999999999999,5.391957096730054,420.4603468567485,0.0
0.002,0.448323590289428,-0.24822599199393489,10.0,0.0,0.13730485911933282,1.9406844050681629,11.213110564376942,420.4603468567485,0.0
0.003,0.8391842756291293,-0.46150368767532424,10.0,0.0,0.36592595943856215,2.6725194160569696,17.323254502883927,420.4603468567485,0.0
0.004,1.1544433378790302,-0.6305755267987487,10.0,0.0,0.661333576171512,3.3232631459847264,23.64369047554734,420.4603468567485,0.0
0.005,1.4076453286776014,-0.7636644352647971,10.0,0.0,1.0052238657639736,3.9137736362276594,30.10155753028133,420.4603468567485,0.0
0.006,1.61387257130293,-0.8693846034389114,10.0,0.0,1.3840745048359742,4.459469129624744,36.64972626719722,420.4603468567485,0.0
0.007,1.7850391170270465,-0.9547468897089809,10.0,0.0,1.7879422791484496,4.97171408998592,43.25123896095755,420.4603468567485,0.0
0.008,1.9300469304151724,-1.0250287972717407,10.0,0.0,2.2095251590349987,5.458882137726775,49.90291506961884,420.4603468567485,0.0
0.009000000000000001,2.0554200279616306,-1.0841941719685688,10.0,0.0,2.643471927848002,5.927150706085971,56.56200771369701,420.4603468567485,0.0
0.01,2.1661434411657314,-1.1348252616088683,10.0,0.0,3.085828642729088,6.38106125001356,63.214780501382315,420.4603468567485,0.0
0.011,2.2658152029491907,-1.1789207417029526,10.0,0.0,3.5336849324287716,6.823959751372357,69.84701389845206,420.4603468567485,0.0
0.012,2.357100626648478,-1.2179032812700992,10.0,0.0,3.9848925678458116,7.258309352576159,76.4451972166163,420.4603468567485,0.0
0.013000000000000001,2.4419911267513315,-1.2527567317938861,10.0,0.0,4.437858454003473,7.685919656426961,82.99661456647497,420.4603468567485,0.0
0.014,2.5219883052214067,-1.2841395257897397,10.0,0.0,4.891392354764754,8.10811473387777,89.4886568342473,420.4603468567485,0.0
0.015,2.5982438014672584,-1.3124618485077157,10.0,0.0,5.3445940007540065,8.525855560857282,95.90844173145953,420.4603468567485,0.0
0.016,2.6716611107116783,-1.3379455730469114,10.0,0.0,5.796769551314418,8.939829120683344,102.24258230719158,420.4603468567485,0.0
0.017,2.742970694762991,-1.3606693950782836,10.0,0.0,6.247369685979452,9.350512998429638,108.50889618947613,420.4603468567485,0.0
0.018000000000000002,2.8125684302348235,-1.3809705269214372,10.0,0.0,6.695984081235047,9.758245846806421,114.64608461296736,420.4603468567485,0.0
0.019,2.881194418934641,-1.3983922165393996,10.0,0.0,7.1422236963423025,10.16321396846882,120.64275538990277,420.4603468567485,0.0
0.02,2.9493584181885053,-1.4127240597595798,10.0,0.0,7.585738447963114,10.565497459444776,126.48921377838465,420.4603468567485,0.0
0.021,3.0175082924121615,-1.4237739117001396,10.0,0.0,8.026202238800703,10.965089230313163,132.17515247533348,420.4603468567485,0.0
0.022,3.086069123734439,-1.4313392898335946,10.0,0.0,8.463300520716642,11.36190801047525,137.69178051791184,420.4603468567485,0.0
0.023,3.1554483812253196,-1.4352263522179265,10.0,0.0,8.896722775538139,11.755808630801946,143.03149998623152,420.4603468567485,0.0
0.024,3.226036240201058,-1.4352692349516651,10.0,0.0,9.326158713387024,12.146590542665702,148.18164655441421,420.4603468567485,0.0
0.025,3.298217043192866,-1.4313243112379688,10.0,0.0,9.751294878201552,12.534003847388627,153.11147981036282,420.4603468567485,0.0
0.026000000000000002,3.372412115285082,-1.4232067655362184,10.0,0.0,10.171805276216862,12.91774978822049,157.79173005182193,420.4603468567485,0.0
0.027,3.4490494964857836,-1.410742864457101,10.0,0.0,10.587349374852144,13.29748401355954,162.21086170391948,420.4603468567485,0.0
0.028,3.5285127663555644,-1.3938531936928493,10.0,0.0,10.997579261384526,13.672824640354552,166.3526229517057,420.4603468567485,0.0
0.029,3.6111565473040557,-1.372522438617008,10.0,0.0,11.40214273559247,14.043358009917654,170.21756670910992,420.4603468567485,0.0
0.03,3.697326565413097,-1.3467587803067653,10.0,0.0,11.800682504472562,14.40864212576274,173.79619247259117,420.4603468567485,0.0
0.031,3.7873141391920244,-1.3166578454592757,10.0,0.0,12.192843241799032,14.768214873976728,177.07953572620855,420.4603468567485,0.0
0.032,3.881376733181236,-1.2823589555619332,10.0,0.0,12.578273311674021,15.121599411500942,180.06127536661006,420.4603468567485,0.0
0.033,3.979728505088663,-1.2440482614244328,10.0,0.0,12.956627640857779,15.468310433290302,182.73799452889332,420.4603468567485,0.0
0.034,4.082533646381607,-1.2019579439658634,10.0,0.0,13.327570811323035,15.807860737995966,185.10921360089537,420.4603468567485,0.0
0.035,4.189904547072987,-1.1563581869488189,10.0,0.0,13.690779625115038,16.139767581614457,187.17580736520958,420.4603468567485,0.0
0.036000000000000004,4.30189917176317,-1.1075515439433308,10.0,0.0,14.04594550872926,16.463558922541296,188.94281740200142,420.4603468567485,0.0
0.037,4.418526202956311,-1.055856194151072,10.0,0.0,14.392775516027644,16.778778690552535,190.41752677154233,420.4603468567485,0.0
0.038,4.5397451561152895,-1.0015989434345598,10.0,0.0,14.730993155316424,17.084991667956928,191.61102525653567,420.4603468567485,0.0
0.039,4.6654726552911505,-0.9451002145097789,10.0,0.0,15.060338040742204,17.381787276172,192.54065250567052,420.4603468567485,0.0
0.04,4.795585253537522,-0.8866665197578862,10.0,0.0,15.38056527931345,17.6687827012928,193.2355856824419,420.4603468567485,0.0
0.041,4.929930423157655,-0.826570881424765,10.0,0.0,15.691443153270534,17.9456244650829,193.75153686200937,420.4603468567485,0.0
0.042,5.068385801177377,-0.7649507251028682,10.0,0.0,15.992740155398838,18.211983200003726,199.23497516619113,420.4603468567485,0.0
0.043000000000000003,5.172178010258582,-0.7661213579880322,10.0,0.0,16.29128830198698,18.47180317242657,204.13248997780775,420.4603468567485,0.0
0.044,5.239352716585394,-0.8206247576338983,10.0,0.0,16.591947298790792,18.729144666660808,211.8888404498817,420.4603468567485,0.0
0.045,5.28435815123874,-0.9055041015738547,10.0,0.0,16.897066239174574,18.98653906040339,218.05703519794974,420.4603468567485,0.0
0.046,5.333759151000345,-0.9750688792452515,10.0,0.0,17.204216056998696,19.243721853182866,226.4706510410732,420.4603468567485,0.0
0.047,5.365133121454788,-1.0681024471766367,10.0,0.0,17.51590721701409,19.50294422171442,231.6147194093393,420.4603468567485,0.0
0.048,5.398146582005358,-1.1501058968318265,10.0,0.0,17.830441541663856,19.764095728438345,241.00403912998206,420.4603468567485,0.0
0.049,5.418859675115458,-1.244716659234233,10.0,0.0,18.149224733888754,20.02863721131825,248.89368073452152,420.4603468567485,0.0
0.05,5.433677217726384,-1.3399589326501897,10.0,0.0,18.47211429763088,20.297180066376555,257.11107284788113,420.4603468567485,0.0
0.051000000000000004,5.43916499573365,-1.4409701957710594,10.0,0.0,18.799728006713764,20.570702112148545,265.33238137955084,420.4603468567485,0.0
0.052000000000000005,5.437703756201873,-1.5424701747252838,10.0,0.0,19.132087434519317,20.8498489383802,273.8237722556702,420.4603468567485,0.0
0.053,5.427290998685676,-1.6468985706458887,10.0,0.0,19.469597725929198,21.135447815700708,282.3453597073399,420.4603468567485,0.0
0.054,5.4094157449722555,-1.7506297949201959,10.0,0.0,19.812283026641108,21.428099984763463,290.9575026134723,420.4603468567485,0.0
0.055,5.38437557907962,-1.8522600857934313,10.0,0.0,20.160107033941426,21.72833113270219,299.49713703149246,420.4603468567485,0.0
0.056,5.3535495133721,-1.9488094756387302,10.0,0.0,20.51277588527982,22.036462032145977,308.03120906540767,420.4603468567485,0.0
0.057,5.317356760283008,-2.0394844256001203,10.0,0.0,20.869999692026063,22.352719668961957,316.2395034962148,420.4603468567485,0.0
0.058,5.2788396213876725,-2.119501197864641,10.0,0.0,21.23102197722876,22.67694888051855,323.7836254998867,420.4603468567485,0.0
0.059000000000000004,5.242553722194993,-2.1821652169074413,10.0,0.0,21.594457829438912,23.008463676962,330.57533704539424,420.4603468567485,0.0
0.06,5.210021447871689,-2.227068965863144,10.0,0.0,21.95901434826709,23.346386270165755,336.69101259795445,420.4603468567485,0.0
0.061,5.184546238214369,-2.2518288473980586,10.0,0.0,22.323182024012112,23.689449206251027,341.93705986298943,420.4603468567485,0.0
0.062,5.170324334851799,-2.2534158685115555,10.0,0.0,22.68516619929829,24.03593227357558,346.1073356312978,420.4603468567485,0.0
0.063,5.171440821226116,-2.229810474784491,10.0,0.0,23.0429878002672,24.383700419161492,349.1394417045846,420.4603468567485,0.0
0.064,5.191519754544337,-2.1803708113393294,10.0,0.0,23.394601746656104,24.730276392484456,351.0797927188081,420.4603468567485,0.0
0.065,5.233701862630066,-2.1054962929635015,10.0,0.0,23.737970095351532,25.072916920557752,352.0923339960262,420.4603468567485,0.0
0.066,5.29975037215108,-2.0076926324366284,10.0,0.0,24.07125600451055,25.40878671572681,352.2021859879597,420.4603468567485,0.0
0.067,5.3893113075353165,-1.8924204323556397,10.0,0.0,24.39309839686693,25.735206904497815,351.12496963103763,420.4603468567485,0.0
0.068,5.501942818057818,-1.7644054009499464,10.0,0.0,24.70246963741095,26.04967545682372,349.3259825840538,420.4603468567485,0.0
0.069,5.637405401890881,-1.626865341275911,10.0,0.0,24.998501352883082,26.349859708855018,342.74880227699714,420.4603468567485,0.0
0.07,5.793836216743497,-1.484326574391577,10.0,0.0,25.280644458250592,26.63377594343495,338.665091174547,420.4603468567485,0.0
0.07100000000000001,5.993134827619475,-1.3012850396037035,10.0,0.0,25.544255695381516,26.897156326045803,336.28168574364724,420.4603468567485,0.0
0.07200000000000001,6.194219566472657,-1.1432143463588578,10.0,0.0,25.79228648615138,27.140433458943587,327.926269246836,420.4603468567485,0.0
0.073,6.40761643418084,-0.9933088200336824,10.0,0.0,26.02493301017072,27.362723149569202,324.0053473403026,420.4603468567485,0.0
0.074,6.65500727268487,-0.8124737295901496,10.0,0.0,26.238151046165147,27.56096949997582,316.6453628071299,420.4603468567485,0.0
0.075,6.886749511656403,-0.679563041119159,10.0,0.0,26.437060088773418,27.73769528103941,316.6926817719818,420.4603468567485,0.0
0.076,7.141268616125026,-0.5289814148091926,10.0,0.0,26.618515933217843,27.89095970915561,324.8660471512765,420.4603468567485,0.0
0.077,7.2014863040428025,-0.6902201337748695,10.0,0.0,26.816394711378756,28.042964524278382,335.4528799204176,420.4603468567485,0.0
0.078,7.229048761580711,-0.8654711903542394,10.0,0.0,27.02735132226994,28.197127042254962,347.71295150052094,420.4603468567485,0.0
0.079,7.2073930925657805,-1.0881269367550839,10.0,0.0,27.255368145407957,28.35962671769004,357.35370545827226,420.4603468567485,0.0
0.08,7.178842844881534,-1.2866245644553163,10.0,0.0,27.4964414353587,28.53160207845052,371.2371578757609,420.4603468567485,0.0
0.081,7.126992556074682,-1.4876017112664421,10.0,0.0,27.75072744226264,28.71590526142193,383.8200377872634,420.4603468567485,0.0
0.082,7.039094941232831,-1.7136732958443905,10.0,0.0,28.020873269608785,28.916356961531147,394.9727201681157,420.4603468567485,0.0
0.083,6.941611574654155,-1.9171142914583719,10.0,0.0,28.304167477902997,29.13362226853929,406.63207208573004,420.4603468567485,0.0
0.084,6.824557088730195,-2.113757989436226,10.0,0.0,28.600455192890024,29.369391625461876,418.0189204908369,420.4603468567485,0.0
0.085,6.700883493371416,-2.281595468800548,8.146119611644329,0.0,28.90718675782091,29.419719526102007,429.46291852853574,420.4603468567485,0.0
0.08600000000000001,6.483430569309449,-2.3894597615687845,2.3340948760770264,0.0,29.198464653733573,28.897586961835593,434.306613834708,420.4603468567485,0.0
0.08700000000000001,6.031338384880243,-2.3211979492888286,-0.22621544678870187,0.0,29.399814061349865,28.28083716647414,435.7485320097582,420.4603468567485,0.0
0.088,5.530278598302379,-2.180365482308626,-1.1000563858439003,0.0,29.504544595423347,27.72597354602231,434.1842113147501,420.4603468567485,0.0
0.089,5.091241049383597,-2.0085226933023046,-0.4551346829198559,0.0,29.525821331923417,27.360032670250497,430.9974923769336,420.4603468567485,0.0
0.09,4.784144560340015,-1.8446644917815154,1.0328533307865255,0.0,29.492070332919067,27.219433258489936,426.6906205358558,420.4603468567485,0.0
0.091,4.631923641610694,-1.7041479111969233,3.123986514534349,0.0,29.43381625079,27.318336794249987,421.2443032797839,420.4603468567485,0.0
0.092,4.641112613295539,-1.5891419380201532,5.839305578339969,0.0,29.38003243920624,27.67676533732964,415.9451472731096,420.4603468567485,0.0
0.093,4.809955559187722,-1.5123628896878853,8.534035577513485,0.0,29.360174227504054,28.244758919882692,409.91986283979224,420.4603468567485,0.0
0.094,5.11522327868582,-1.4596536155679585,10.0,0.0,29.394070965557514,28.856385089806132,403.77630245151124,420.4603468567485,0.0
0.095,5.489405415338699,-1.3840437121744409,10.0,0.0,29.477950650165887,29.357471314480865,399.5826998233567,420.4603468567485,0.0
0.096,5.851537546085951,-1.2643893264973176,10.0,0.0,29.591145105390346,29.780744172133296,392.7256438712997,420.4603468567485,0.0
0.097,6.180914724062496,-1.1504265430418803,10.0,0.0,29.724008038534276,30.140399021272987,382.16511971915736,420.4603468567485,0.0
0.098,6.523179583293857,-0.9892125108521754,10.0,0.0,29.862956247571468,30.443019316077418,374.87590070171376,420.4603468567485,0.0
0.099,6.87093008104537,-0.8056840480953382,10.0,0.0,29.99969567460403,30.694442496144774,365.8297965918319,420.4603468567485,0.0
0.1,7.1968097916327585,-0.655347114392721,10.0,0.0,30.133201698860354,30.90202803772155,356.62934079141826,420.4603468567485,0.0
0.101,7.552497622038917,-0.45826433763276064,10.0,0.0,30.25393993874214,31.066338763327472,364.52248276309797,420.4603468567485,0.0
0.10200000000000001,7.768141444610691,-0.49267264673577715,10.0,0.0,30.384791168965286,31.20612829818216,374.25160084856674,420.4603468567485,0.0
0.10300000000000001,7.82599020423908,-0.7183482762981219,10.0,0.0,30.541016465812408,31.340817077240267,388.81206790286535,420.4603468567485,0.0
0.10400000000000001,7.813367655602767,-0.997248881426966,10.0,0.0,30.72351042114918,31.47962647602357,400.2497639786538,420.4603468567485,0.0
0.105,7.775465953183992,-1.2572712792055876,10.0,0.0,30.92744937853497,31.62684729224192,416.8740423797586,420.4603468567485,0.0
0.106,7.6935602022905325,-1.5324781956466877,8.828430042545452,0.0,31.15338905863474,31.659497842831115,428.74539646759973,420.4603468567485,0.0
0.107,7.529480001548697,-1.772908857671196,2.809902502516363,0.0,31.38369512944173,31.07838474111536,439.27143694963837,420.4603468567485,0.0
0.108,7.077288404814716,-1.8673667264799616,-2.641228639431855,0.0,31.540845341945186,30.087074680071197,445.6169680345614,420.4603468567485,0.0
0.109,6.4139808029785765,-1.831147884163704,-6.065560393671503,0.0,31.578220875750986,28.956887385069546,447.974138166557,420.4603468567485,0.0
0.11,5.680790929967505,-1.7261069604554686,-7.519283372767381,0.0,31.48764781349131,27.891807972803363,447.29939825451646,420.4603468567485,0.0
0.111,4.998828183325385,-1.5968641360330937,-7.450303930724793,0.0,31.286457814781606,27.013988167353986,444.11759856202025,420.4603468567485,0.0
0.112,4.444005280226483,-1.4694275201057305,-6.095976601529404,0.0,31.004879235890144,26.406328446244096,439.6587081081681,420.4603468567485,0.0
0.113,4.058292060090583,-1.3685508678461287,-4.05851498711754,0.0,30.68087047718756,26.07873456883337,434.53305698661757,420.4603468567485,0.0
0.114,3.8485286712006266,-1.2979117094500912,-1.636416527640951,0.0,30.349741665713182,26.016772258268297,428.7147504128566,420.4603468567485,0.0
0.115,3.80599934140194,-1.2517023667315534,1.1901927236784644,0.0,30.041152868214667,26.21717992305162,423.13879226207246,420.4603468567485,0.0
0.116,3.918582203572065,-1.2349480158086692,3.9513873450172845,0.0,29.782082831769998,26.629343849304124,417.03657334055544,420.4603468567485,0.0
0.117,4.163123734884207,-1.2309907974516054,7.036734540937726,0.0,29.589868441085002,27.26038688480216,411.27846423036556,420.4603468567485,0.0
0.11800000000000001,4.529432190904173,-1.2485388824200836,10.0,0.0,29.481949654548405,28.066361391370442,405.0344439109435,420.4603468567485,0.0
0.11900000000000001,5.0049342742259295,-1.2639805491470963,10.0,0.0,29.46694329981259,28.702671769432428,399.8784651508982,420.4603468567485,0.0
0.12,5.446248999549358,-1.2090636704625597,10.0,0.0,29.510873345033986,29.230060875262268,395.5189931107182,420.4603468567485,0.0
0.121,5.835574185132881,-1.1345713035315734,10.0,0.0,29.595504304740658,29.670691451870322,385.5922436852476,420.4603468567485,0.0
0.122,6.206226476105613,-1.0218723675064147,10.0,0.0,29.704083266844012,30.038843566637055,376.80902892480333,420.4603468567485,0.0
0.123,6.579992379582411,-0.8610498904748458,10.0,0.0,29.822056061100486,30.34363063966475,371.07536121365973,420.4603468567485,0.0
0.124,6.929387413871648,-0.7152959045966072,10.0,0.0,29.944285569557792,30.595040490078258,359.0520300728167,420.4603468567485,0.0
0.125,7.286469136649359,-0.5447711911977042,10.0,0.0,30.062132933595613,30.797747267133502,354.7045129605487,420.4603468567485,0.0
0.126,7.630263791124701,-0.3904269622224992,10.0,0.0,30.173193620881907,30.957721508122486,365.01771753220214,420.4603468567485,0.0
0.127,7.75508246281038,-0.5669378222700852,10.0,0.0,30.31010530043345,31.102512286400533,380.5209930685991,420.4603468567485,0.0
0.128,7.780112353757566,-0.8311891454991827,10.0,0.0,30.475107426812368,31.245010053518605,390.64356399127206,420.4603468567485,0.0
0.129,7.766024575369734,-1.0946863988571245,10.0,0.0,30.66420130190228,31.391558211094882,405.05781509787306,420.4603468567485,0.0
0.13,7.709107773849475,-1.368836497466373,10.0,0.0,30.87656214355428,31.548480910805882,418.7621228930551,420.4603468567485,0.0
0.131,7.623176007916638,-1.631735821253041,7.18683794526414,0.0,31.109556595642594,31.410382924927433,432.09354414295564,420.4603468567485,0.0
0.132,7.376988993631748,-1.8301822106007215,0.40479534745180423,0.0,31.32464191352463,30.617722371545668,440.70350739447736,420.4603468567485,0.0
0.133,6.821841875863274,-1.8661512240673992,-4.102617883686343,0.0,31.440924771868147,29.556445688654918,445.28158834917656,420.4603468567485,0.0
0.134,6.1198081749109505,-1.7971570699510484,-6.639870775960225,0.0,31.431502629000768,28.450573509975914,446.4418970681002,420.4603468567485,0.0
0.135,5.402862672368035,-1.6813414942597456,-7.479840637535572,0.0,31.300385710767337,27.459165847297708,444.7888725077584,420.4603468567485,0.0
0.136,4.769754581245213,-1.551381289502528,-6.896613613874768,0.0,31.070102251323053,26.688814365280507,441.07216811661124,420.4603468567485,0.0
0.137,4.281415764150242,-1.4332041024478461,-5.244379630899807,0.0,30.774112101093035,26.19576934238045,436.3348174011237,420.4603468567485,0.0
0.138,3.965876834428202,-1.3447868547750241,-3.034448978599791,0.0,30.44987233822255,25.978825732769135,431.0272028909113,420.4603468567485,0.0
0.139,3.8235033049284017,-1.2851378261346014,-0.48631028383523134,0.0,30.13068497000426,26.02185415668076,425.47258004426556,420.4603468567485,0.0
0.14,3.84161463371662,-1.2512990455670814,2.240878807612484,0.0,29.844593405422955,26.299754433029292,419.74551114166053,420.4603468567485,0.0
0.14100000000000001,4.001882995822319,-1.239307373016493,5.111561616065877,0.0,29.613920328759725,26.792310336756493,413.9100997679113,420.4603468567485,0.0
0.14200000000000002,4.290711646094498,-1.2416543872559673,8.094769773828876,0.0,29.455948238427386,27.48182094380516,408.00098665642105,420.4603468567485,0.0
0.14300000000000002,4.690461297686333,-1.2620019690395339,10.0,0.0,29.384939181686956,28.225242349244546,401.906709662237,420.4603468567485,0.0
0.14400000000000002,5.152483330466878,-1.249922731810686,10.0,0.0,29.393840979251493,28.82134347911429,397.23235134666004,420.4603468567485,0.0
0.145,5.579364073583137,-1.1775153639764375,10.0,0.0,29.453618691957075,29.316388014338532,391.4759240481338,420.4603468567485,0.0
0.146,5.954993171698571,-1.097765479348244,10.0,0.0,29.54887467328376,29.730855473949365,381.12222540907874,420.4603468567485,0.0
