timestamp,iq,id,iq_ref,id_ref,vq,vd,omega,omega_ref,r
0.0,0.0,0.0,0.0,0.0,0.0,0.0,0.0,5.1139917055217925,0.0
0.001,0.0,0.0,2.6081357698161143,0.0,0.0,0.28689493467977256,1.4277852501391537,5.1139917055217925,0.0
0.002,0.10103554936385205,-0.06277654012430746,1.9311052093003636,0.0,0.03559491288165109,0.4334317461066504,3.0912079190693578,5.1139917055217925,0.0
0.003,0.19496406509376757,-0.11704644401801594,1.119621712699786,0.0,0.08762593964488968,0.4770597074214473,4.063531734979775,5.1139917055217925,0.0
0.004,0.24541984056312968,-0.1435929556290218,0.6439644044499976,0.0,0.14119407710155768,0.4727096561952868,4.4674837513837184,5.1139917055217925,0.0
0.005,0.2569034764017701,-0.14836601777222597,0.4484534757894066,0.0,0.18922996740958525,0.4566431525796853,4.716584492513409,5.1139917055217925,0.0
0.006,0.2463874427323353,-0.14191377637247704,0.3278771773546453,0.0,0.23009814114984545,0.436950204877253,4.97520645697585,5.1139917055217925,0.0
0.007,0.22577173458671515,-0.13002568997806763,0.19995404760888405,0.0,0.26366703565644883,0.4126101555907276,5.196986005191496,5.1139917055217925,0.0
0.008,0.20038502060311628,-0.11519039417100305,0.08823433050436405,0.0,0.28993203410890633,0.3856374445562153,5.339182938325731,5.1139917055217925,0.0
0.009000000000000001,0.17333257001180533,-0.09924987339064295,0.014883951609207191,0.0,0.30926815728489804,0.3597590623881862,5.4111578289291815,5.1139917055217925,0.0
0.01,0.1473892569743836,-0.08372571590727236,-0.02407515492659197,0.0,0.3225345778111204,0.337433372752776,5.35056702218861,5.1139917055217925,0.0
0.011,0.12443019745125818,-0.06999128747710903,0.0038544952770256657,0.0,0.33088624176869524,0.3243948101384547,5.2550953260748585,5.1139917055217925,0.0
0.012,0.1070479644407978,-0.059940571290036486,0.05017930712837071,0.0,0.33613064857280406,0.319994158018854,5.245341229598707,5.1139917055217925,0.0
0.013000000000000001,0.09587275760302126,-0.05410014754663251,0.05374286012567733,0.0,0.3398686100346383,0.3175422049248655,5.338189675529405,5.1139917055217925,0.0
0.014,0.0888904908584126,-0.05041727212370693,0.005076657460252321,0.0,0.34264086798180254,0.31097662273681864,5.428484189244367,5.1139917055217925,0.0
0.015,0.08281441457141596,-0.04668073508157706,-0.043215524234454517,0.0,0.3441051515950404,0.30111789232665276,5.389122465793083,5.1139917055217925,0.0
0.016,0.0763279796940398,-0.0422727880600154,-0.026285970111525336,0.0,0.34398962500398766,0.2953893831629381,5.27381341672222,5.1139917055217925,0.0
0.017,0.07118758470629263,-0.03905700113345072,0.029770337311901804,0.0,0.34300314306396207,0.29671964963171565,5.19539167189721,5.1139917055217925,0.0
0.018000000000000002,0.06922584751859308,-0.03826733970179583,0.06816721006065272,0.0,0.3421936310766005,0.30164572132851086,5.220641880553735,5.1139917055217925,0.0
0.019,0.07005657944827919,-0.03928926904750717,0.05447560398207049,0.0,0.3420779862999993,0.30399719137661624,5.304040142409327,5.1139917055217925,0.0
0.02,0.07133189692780975,-0.040224193573515685,0.01087598868539949,0.0,0.34230167541027273,0.30131093071695153,5.367268654816315,5.1139917055217925,0.0
0.021,0.07109708511392783,-0.039764044806583375,-0.02327103701103997,0.0,0.3421744039339296,0.2956340708349614,5.313568390864249,5.1139917055217925,0.0
0.022,0.06912853338050008,-0.03810008426243866,0.0015833281115687214,0.0,0.3413137394448352,0.2938018127865254,5.216850551436101,5.1139917055217925,0.0
0.023,0.06763713612740445,-0.0371528120904384,0.04891365936649933,0.0,0.340268355266328,0.29716887506134604,5.163850468427207,5.1139917055217925,0.0
0.024,0.06815432144990874,-0.03785062373830304,0.07491511324189215,0.0,0.33975044773613866,0.30240974494657147,5.217122625938343,5.1139917055217925,0.0
0.025,0.07024759043213934,-0.03954299464617753,0.047247725282158926,0.0,0.33998760063087863,0.30354622214111066,5.305584007934673,5.1139917055217925,0.0
0.026000000000000002,0.07166399240590754,-0.040411060634634496,0.0011011112598649925,0.0,0.34039324950524974,0.29965844171552247,5.342192161260676,5.1139917055217925,0.0
0.027,0.07105822992032478,-0.03959629836475764,-0.01948496996052522,0.0,0.34027125094005395,0.29447779931906215,5.268803305915639,5.1139917055217925,0.0
0.028,0.0690369920888228,-0.03796088173120502,0.01566134170805482,0.0,0.3394716397847397,0.29409125493808536,5.175153643312657,5.1139917055217925,0.0
0.029,0.06796825623472627,-0.03741973759444488,0.06187455363163691,0.0,0.3386701636181511,0.2984927426402186,5.154465931278191,5.1139917055217925,0.0
0.03,0.06899129563488178,-0.03851906179966617,0.07181366739130624,0.0,0.3385153209423768,0.30288188265724936,5.228167981704591,5.1139917055217925,0.0
0.031,0.07101107062400333,-0.04006387705424115,0.03382087941627786,0.0,0.3389738129718339,0.30232608173534814,5.312251193935133,5.1139917055217925,0.0
0.032,0.07178435110525858,-0.04040881879081759,-0.010203321583126174,0.0,0.3393533711446328,0.29734411277535167,5.310670910720208,5.1139917055217925,0.0
0.033,0.07048793249457978,-0.03912304233238132,-0.011379972027647844,0.0,0.3390518917763585,0.2933594458417186,5.226278832610676,5.1139917055217925,0.0
0.034,0.06852139334904814,-0.03768034913229947,0.029693195756229085,0.0,0.3382362551641237,0.29447626774519464,5.1463367453592666,5.1139917055217925,0.0
0.035,0.06800951314030393,-0.037563122850042124,0.06934078898355917,0.0,0.33761539644441235,0.2993869888057739,5.1578879407168445,5.1139917055217925,0.0
0.036000000000000004,0.06945416952547531,-0.038923675332172385,0.06312622895281964,0.0,0.3376985287385871,0.3025004433482131,5.239267680223413,5.1139917055217925,0.0
0.037,0.07122356734078668,-0.04020117109314217,0.021183599452519394,0.0,0.3382116122664736,0.30057913482526766,5.306997794699182,5.1139917055217925,0.0
0.038,0.0714195102497209,-0.0400584227460997,-0.014611518677139196,0.0,0.3384527793134925,0.29537936906631634,5.276038894092577,5.1139917055217925,0.0
0.039,0.06975714963911572,-0.03858920485525831,-0.0007525402595443681,0.0,0.3379896665953924,0.2927909544914499,5.189152080307242,5.1139917055217925,0.0
0.04,0.06810188654754422,-0.037454205600324766,0.0419392628852686,0.0,0.3372038659524812,0.2951380339979804,5.122947184826012,5.1139917055217925,0.0
0.041,0.06814439957972916,-0.03778122954169365,0.07495215583284118,0.0,0.3367786759506142,0.3003550966178956,5.165300613904899,5.1139917055217925,0.0
0.042,0.06995143065574659,-0.03933801661208896,0.05326235220956686,0.0,0.3370856875492551,0.30209357835955647,5.254013583599895,5.1139917055217925,0.0
0.043000000000000003,0.07140741847647977,-0.04030301805854214,0.007505648581287619,0.0,0.33762642845060403,0.298730485374517,5.309088184531169,5.1139917055217925,0.0
0.044,0.07097029938717786,-0.039646319929144296,-0.02198261667444311,0.0,0.3376948991546158,0.2930342766142993,5.244551709912417,5.1139917055217925,0.0
0.045,0.06883452556785619,-0.03790776960352095,0.008980020591026538,0.0,0.33700222835768007,0.2918458724814958,5.149193542287133,5.1139917055217925,0.0
0.046,0.06744122974987503,-0.03707224264212096,0.05630708603601531,0.0,0.33618546176465963,0.29573529731035814,5.108020946474996,5.1139917055217925,0.0
0.047,0.0681296619245349,-0.03792758046553692,0.07695309153255175,0.0,0.33594175674401744,0.3008622324498087,5.1751241832732475,5.1139917055217925,0.0
0.048,0.07023271824023643,-0.03958938948218677,0.04279014835591141,0.0,0.33640936135298166,0.30126326789587365,5.264866657437465,5.1139917055217925,0.0
0.049,0.07136380557945947,-0.04022610256810651,-0.0035898382453540267,0.0,0.33692372939494075,0.2968074021196981,5.28867452046744,5.1139917055217925,0.0
0.05,0.07040762271088338,-0.03915622967767578,-0.017240597909798094,0.0,0.3368170209062798,0.2919272670171956,5.208777209221753,5.1139917055217925,0.0
0.051000000000000004,0.06828735695430302,-0.03752948826588757,0.02176020267604574,0.0,0.33606472692984224,0.2921747376417025,5.120628403103406,5.1139917055217925,0.0
0.052000000000000005,0.06739409961829046,-0.037110142970112635,0.06576823875940337,0.0,0.33538254884508173,0.2968501634188215,5.110555674230243,5.1139917055217925,0.0
0.053,0.0685707257270632,-0.03831185626003382,0.07083896350890026,0.0,0.33537251306135824,0.30096916672603846,5.189132981289726,5.1139917055217925,0.0
0.054,0.07055491011363113,-0.039797535484253896,0.030798897221479507,0.0,0.33592678876849397,0.30001365756361537,5.272254830038991,5.1139917055217925,0.0
0.055,0.07115848326827855,-0.04000364696980138,-0.01234465839832491,0.0,0.3363379014598417,0.29481718522969835,5.2615820376598865,5.1139917055217925,0.0
0.056,0.0696992148899346,-0.03860671739004516,-0.008484165530153798,0.0,0.33603253228003427,0.2912041164231689,5.1754076127062705,5.1139917055217925,0.0
0.057,0.06777818679648602,-0.03721156636963336,0.03398888787480944,0.0,0.335256895821107,0.29275196893167194,5.093826664356395,5.1139917055217925,0.0
0.058,0.06743117675794323,-0.03720585516678235,0.07498101246140128,0.0,0.3347269315368132,0.29817083653721255,5.1170970338993715,5.1139917055217925,0.0
0.059000000000000004,0.06910665444325731,-0.0387282201562407,0.0633147744061371,0.0,0.3349593677023717,0.3011138408760548,5.204753805499019,5.1139917055217925,0.0
0.06,0.0709085863845079,-0.040001112164018034,0.018578767606541202,0.0,0.3355876551562197,0.2988000322934814,5.282927634745428,5.1139917055217925,0.0
0.061,0.07095956504654526,-0.039755875375787335,-0.0221975063088996,0.0,0.3358820280396423,0.292754814918436,5.239320367833648,5.1139917055217925,0.0
0.062,0.06894632528187508,-0.038006919979124094,-0.0016471594761283959,0.0,0.3353525091714674,0.2902338236207307,5.141265581995904,5.1139917055217925,0.0
0.063,0.06714467714321112,-0.03679528510245702,0.047107494678002744,0.0,0.3345080527778728,0.2932475369522115,5.076082573656388,5.1139917055217925,0.0
0.064,0.06734686442967729,-0.03726779540650382,0.08007809016641478,0.0,0.3341135058389975,0.29897439519047075,5.124635341467469,5.1139917055217925,0.0
0.065,0.06940666699189264,-0.038990447812547624,0.05569526990141735,0.0,0.33451586607946004,0.30085274031800374,5.218483815547748,5.1139917055217925,0.0
0.066,0.07102013459919498,-0.040037725078896386,0.00772611176101809,0.0,0.33516379878386754,0.2973938243528547,5.275876727835939,5.1139917055217925,0.0
0.067,0.0706078366355442,-0.03937832182559915,-0.022589194606218818,0.0,0.3353180394907932,0.29155208858774384,5.211289663647013,5.1139917055217925,0.0
0.068,0.068422526980878,-0.037587667565617426,0.008731357906992268,0.0,0.3346823046144502,0.29029462539233897,5.113933611349708,5.1139917055217925,0.0
0.069,0.06697254042962394,-0.03670205433286746,0.05740996499736547,0.0,0.33390488599319834,0.2942784217077406,5.069464286588933,5.1139917055217925,0.0
0.07,0.06765386416125538,-0.03755647834002878,0.08008990156708158,0.0,0.333706431638727,0.2997046580052497,5.137913274009845,5.1139917055217925,0.0
0.07100000000000001,0.06984089649347236,-0.039289244653538016,0.045626192171744955,0.0,0.33425250640386817,0.3003168575191492,5.231278448760343,5.1139917055217925,0.0
0.07200000000000001,0.07107046466208321,-0.03999485734992438,-0.002229262635889552,0.0,0.3348654833773526,0.2958895994480613,5.2627943132596755,5.1139917055217925,0.0
0.073,0.07015666812718094,-0.0389448871071485,-0.01947522096293454,0.0,0.3348518839927105,0.2906606773140575,5.183527374086623,5.1139917055217925,0.0
0.074,0.06793109568150385,-0.03721565991378762,0.019462891937943524,0.0,0.3341370370442903,0.2906446144610323,5.091387241201683,5.1139917055217925,0.0
0.075,0.06689136571673304,-0.036679822417193954,0.06575900302361465,0.0,0.333450418652718,0.2953539788605507,5.073271566083945,5.1139917055217925,0.0
0.076,0.06800287561425615,-0.03784649977569726,0.07522404197686192,0.0,0.33343709142465605,0.2999692747665852,5.152180668318213,5.1139917055217925,0.0
0.077,0.07011731663588473,-0.03944598934538558,0.03538760123176391,0.0,0.3340509035890844,0.29942357607431297,5.239893186630235,5.1139917055217925,0.0
0.078,0.07091076174782894,-0.03979500620795272,-0.009727672735331726,0.0,0.3345711616270281,0.29436337818668357,5.242240348377814,5.1139917055217925,0.0
0.079,0.06957974050440612,-0.0384637039931233,-0.01218374003768155,0.0,0.3343834406601577,0.29019655801592004,5.1575924765018755,5.1139917055217925,0.0
0.08,0.0675216443215608,-0.03693115844381971,0.029704188190487077,0.0,0.3336425427846229,0.2912729609113466,5.073756709059952,5.1139917055217925,0.0
0.081,0.06694076888332154,-0.03674641999612149,0.07202442187606743,0.0,0.3330783792124305,0.296447295489187,5.081872574140695,5.1139917055217925,0.0
0.082,0.06842021341149786,-0.038142946621924995,0.06828768064950684,0.0,0.3332435307685567,0.30004498872776486,5.165479882504815,5.1139917055217925,0.0
0.083,0.07035042332402713,-0.03954498580839496,0.025969144697616284,0.0,0.3338921955371815,0.29848422761055876,5.247093870816522,5.1139917055217925,0.0
0.084,0.07070724483869824,-0.03955056303541551,-0.016168871111184098,0.0,0.33430651082033114,0.29291246443499813,5.223319987978235,5.1139917055217925,0.0
0.085,0.06899603789246947,-0.03798635857205213,-0.005375212516605374,0.0,0.33395009999436936,0.289739792688032,5.133557688254309,5.1139917055217925,0.0
0.08600000000000001,0.06710946394720196,-0.03663787530673665,0.03931027751803247,0.0,0.3331793719617562,0.2918466254155479,5.0575906384281595,5.1139917055217925,0.0
0.08700000000000001,0.06696045516410008,-0.03679837749613073,0.07785781310204368,0.0,0.3327275400786425,0.2974566013076342,5.088589577325117,5.1139917055217925,0.0
0.088,0.06879471135520085,-0.03840321884342263,0.06261236493553152,0.0,0.33305681649935676,0.3001946634991919,5.178292138583786,5.1139917055217925,0.0
0.089,0.07058654216960678,-0.03964508537991949,0.01711807997557717,0.0,0.3337475284026971,0.29766117142206183,5.252045605058162,5.1139917055217925,0.0
0.09,0.07055284591981151,-0.03931467266410148,-0.021139192256974283,0.0,0.33406705584388563,0.2917183675426191,5.207129986417377,5.1139917055217925,0.0
0.091,0.06852299143561162,-0.03756303254396573,0.0003872342544620766,0.0,0.333570973866954,0.28937522346458716,5.11052264482818,5.1139917055217925,0.0
0.092,0.06677398253175289,-0.03637909719866932,0.04872559565599694,0.0,0.33277746919313145,0.29249083352030225,5.0443644885726275,5.1139917055217925,0.0
0.093,0.06702587667552273,-0.036879615068929096,0.08250094595326471,0.0,0.33244177231144406,0.2984022385768943,5.095131695862585,5.1139917055217925,0.0
0.094,0.06915647412098652,-0.0386534313760403,0.05730594240487817,0.0,0.33292090023866416,0.3003478827687999,5.191711507932532,5.1139917055217925,0.0
0.095,0.0708110052729837,-0.03972941299786565,0.008238838345797035,0.0,0.3336472996076826,0.296840751470957,5.253373816531067,5.1139917055217925,0.0
0.096,0.07038885925493107,-0.039060295397568286,-0.023986137063562903,0.0,0.33386598315776383,0.29076587835886697,5.190425572130195,5.1139917055217925,0.0
0.097,0.06811828316319461,-0.0371868919853736,0.006723646470788838,0.0,0.3332559278422895,0.28926622876577696,5.090172333636643,5.1139917055217925,0.0
0.098,0.06654549181610717,-0.03619442780100127,0.057088459436416536,0.0,0.33246647607289476,0.2932388714785864,5.037914915806341,5.1139917055217925,0.0
0.099,0.06716441541658578,-0.03699954449011312,0.083977936248722,0.0,0.33225172122936625,0.29910568955334904,5.104101316163623,5.1139917055217925,0.0
0.1,0.06946074912025553,-0.03883599320216231,0.05098363996366244,0.0,0.33283908186910127,0.3002196755054041,5.202088285312412,5.1139917055217925,0.0
0.101,0.07090374979648985,-0.03970503637321188,0.0011091895913620115,0.0,0.3335563353017632,0.29598898561077575,5.248455616204254,5.1139917055217925,0.0
0.10200000000000001,0.07014263264165034,-0.03875950467225125,-0.02341911496138359,0.0,0.33366609548288007,0.29015187394559194,5.173401319476013,5.1139917055217925,0.0
0.10300000000000001,0.06778526306832118,-0.03687709854544378,0.013513937263194616,0.0,0.33298355912242755,0.2894690677367872,5.074315949879744,5.1139917055217925,0.0
0.10400000000000001,0.06645213752094854,-0.036103641850572576,0.0634533796177495,0.0,0.33223473960197203,0.29403336676405056,5.037584863300689,5.1139917055217925,0.0
0.105,0.06737823625677114,-0.03714518669467689,0.08258299132948785,0.0,0.3321395364360885,0.2995560146848736,5.113086719289899,5.1139917055217925,0.0
0.106,0.06969609570277968,-0.03896578125811092,0.044841113197202125,0.0,0.33279596833241254,0.29992827123365434,5.210798374532676,5.1139917055217925,0.0
0.107,0.07090209537785075,-0.039610144681880725,-0.004982781114295107,0.0,0.33347665672496235,0.2951162543544499,5.238852792995008,5.1139917055217925,0.0
0.108,0.06983523965473569,-0.038432085335905954,-0.020258601220193448,0.0,0.333472044428042,0.28980082086018033,5.15695481555787,5.1139917055217925,0.0
0.109,0.06750614735597908,-0.03662631092619744,0.02026075639801478,0.0,0.33274949541977855,0.28987188862033975,5.062531190783999,5.1139917055217925,0.0
0.11,0.06645029827042456,-0.036073925614198483,0.06798717393232812,0.0,0.33206360344813457,0.2948011595326726,5.04132826092893,5.1139917055217925,0.0
0.111,0.06762500735905509,-0.037287173524331176,0.07931527330579129,0.0,0.3320782088881229,0.2997979644217408,5.121840039615591,5.1139917055217925,0.0
0.112,0.06988915296778986,-0.038998737327256,0.03898090062152261,0.0,0.33276717381223947,0.29950917845082226,5.21369928019047,5.1139917055217925,0.0
0.113,0.07082704626369278,-0.03945028844491345,-0.007945795412603464,0.0,0.3333909186317656,0.29447904792603413,5.227798474197376,5.1139917055217925,0.0
0.114,0.06956511699291208,-0.03814738175482898,-0.016133460102812504,0.0,0.3333014406697745,0.2897311199328405,5.144066167506247,5.1139917055217925,0.0
0.115,0.0673389589473162,-0.03645431749250828,0.025431948622907825,0.0,0.3325729097027087,0.2903353666418061,5.054279691064515,5.1139917055217925,0.0
0.116,0.06651840098007727,-0.03607530423352895,0.07092230698834637,0.0,0.3319528956873815,0.2954626207120501,5.045670933484081,5.1139917055217925,0.0
0.117,0.06786500154563614,-0.037396775721985645,0.07590989349894077,0.0,0.3320567604769316,0.299952547264364,5.1279191658881675,5.1139917055217925,0.0
0.11800000000000001,0.07003213644512486,-0.03900669956106319,0.034646502693233536,0.0,0.3327631083501719,0.29919009995337975,5.216478599552091,5.1139917055217925,0.0
0.11900000000000001,0.07075786889501723,-0.03929891801540811,-0.01065808307903119,0.0,0.33333862149657695,0.29394550241343254,5.218462381038194,5.1139917055217925,0.0
0.12,0.06932537377124286,-0.03788927521880736,-0.012694680577246487,0.0,0.33317414068217727,0.2896767678631535,5.133756727237525,5.1139917055217925,0.0
0.121,0.06718715976342349,-0.03628586786991695,0.029460496105930337,0.0,0.3324369561137776,0.29069677268621663,5.047153307581379,5.1139917055217925,0.0
0.122,0.06655423295481339,-0.03604378955348382,0.07343058991340772,0.0,0.3318648959432057,0.296004456930993,5.048541577015882,5.1139917055217925,0.0
0.123,0.06804806919746721,-0.037453990732779566,0.07339095648121505,0.0,0.33203835312705515,0.30010945486384066,5.131856007285715,5.1139917055217925,0.0
0.124,0.07014736293638184,-0.03899248022885485,0.03155509832865944,0.0,0.33276009621858,0.2990037667104752,5.218312576948908,5.1139917055217925,0.0
0.125,0.07072069116061813,-0.03916882138724634,-0.012716395217208298,0.0,0.33330310881807806,0.2935872428058019,5.211648261216316,5.1139917055217925,0.0
0.126,0.0691582417000539,-0.037679248540570635,-0.01036080290785761,0.0,0.3330845513424407,0.2896461053639375,5.126054131325345,5.1139917055217925,0.0
0.127,0.06707556103125502,-0.03613240227437673,0.03231563777959249,0.0,0.33233847850936604,0.290961548850184,5.041250570485226,5.1139917055217925,0.0
0.128,0.06657231941455477,-0.035986071244307444,0.07544482955001776,0.0,0.331797929357578,0.29642281716351976,5.049355493897101,5.1139917055217925,0.0
0.129,0.06817866783436624,-0.03746385789526696,0.07203872996032702,0.0,0.3320215817942084,0.3002962101154266,5.133680444021292,5.1139917055217925,0.0
0.13,0.07024652498609742,-0.0389652699570572,0.029679367513236785,0.0,0.3327605857426539,0.29896775934003056,5.219126934901566,5.1139917055217925,0.0
