timestamp,iq,id,iq_ref,id_ref,vq,vd,omega,omega_ref,r
0.0,0.0,0.0,0.0,0.0,0.0,0.0,0.0,100.48388294646287,0.0
0.001,0.0,0.0,10.0,0.0,0.0,1.0999999999999999,4.032544906155804,100.48388294646287,0.0
0.002,1.0313901242911603,-0.5922333415112996,10.0,0.0,0.17514566756624284,1.876547086327972,8.62823686220471,100.48388294646287,0.0
0.003,2.2671802876479705,-1.3034059175195978,10.0,0.0,0.48273812695445845,2.467331014053434,13.455414409103572,100.48388294646287,0.0
0.004,3.3764815296628568,-1.9420829427776842,10.0,0.0,0.8817924801947055,2.9201305599571015,18.38494988514835,100.48388294646287,0.0
0.005,4.232354232604896,-2.4349053772093985,10.0,0.0,1.3340450502362018,3.2845026016909515,23.343283870754803,100.48388294646287,0.0
0.006,4.827444450062548,-2.777735528498988,10.0,0.0,1.8102926597444715,3.6007614993646455,28.27272594124072,100.48388294646287,0.0
0.007,5.2110545329915725,-2.998774981455289,10.0,0.0,2.291427436381581,3.89677306127418,33.19145915956875,100.48388294646287,0.0
0.008,5.4483266093429,-3.135638735581543,10.0,0.0,2.7668945099702573,4.189033117087115,37.98896721072719,100.48388294646287,0.0
0.009000000000000001,5.598740956100321,-3.222054379544721,10.0,0.0,3.2321779650760463,4.485441017297824,42.77943765831617,100.48388294646287,0.0
0.01,5.706629483942293,-3.2838361036386505,10.0,0.0,3.6865056979030286,4.7883728784029955,47.444428376621794,100.48388294646287,0.0
0.011,5.800802442569704,-3.337084659142912,10.0,0.0,4.13093336742236,5.0971641865097554,52.153283454308266,100.48388294646287,0.0
0.012,5.89674182747153,-3.3907072475610756,10.0,0.0,4.5671633999713865,5.409907528004845,56.757599405662916,100.48388294646287,0.0
0.013000000000000001,6.00098813397243,-3.4478993747410076,10.0,0.0,4.996799671520633,5.724491838739248,61.40136911184195,100.48388294646287,0.0
0.014,6.114354019549153,-3.509061627186647,10.0,0.0,5.4210866734856165,6.039153561206703,65.83824666035383,100.48388294646287,0.0
0.015,6.235580027845223,-3.5719809601919,10.0,0.0,5.840720651606968,6.3525766095671115,70.43302289135038,100.48388294646287,0.0
0.016,6.3615707387735565,-3.635638734512266,10.0,0.0,6.256106698597413,6.66397403278446,74.92531980859549,100.48388294646287,0.0
0.017,6.490418792639134,-3.6973883172728814,10.0,0.0,6.66724975957101,6.972856939563186,79.33886798810212,100.48388294646287,0.0
0.018000000000000002,6.62064294518792,-3.755246402437977,10.0,0.0,7.073913698665675,7.278929685519689,83.63460777422355,100.48388294646287,0.0
0.019,6.751648190151132,-3.807292543854998,10.0,0.0,7.4756650131507465,7.581953215369542,87.98806319839365,100.48388294646287,0.0
0.02,6.882464596796245,-3.853569585547532,9.383852759461035,0.0,7.872113562344304,7.813993574942303,91.9306540301379,100.48388294646287,0.0
0.021,6.9508859444226125,-3.8564196914095996,7.4980896327521585,0.0,8.251972033803685,7.8549840977721015,95.00739197866584,100.48388294646287,0.0
0.022,6.817504334639726,-3.7312100480445975,6.01448556816616,0.0,8.584142148571335,7.800878790179872,97.7808186287198,100.48388294646287,0.0
0.023,6.503004335618527,-3.4975496791624914,4.6548028863166095,0.0,8.853234176959617,7.683933154260544,99.84013626064085,100.48388294646287,0.0
0.024,6.0627270978950705,-3.1822229058581484,3.6315815372143065,0.0,9.051373097542482,7.551919259348586,100.49215291095099,100.48388294646287,0.0
0.025,5.5713686110184595,-2.840252804956008,3.3054905124143525,0.0,9.18203329320967,7.476929507928332,98.52288585742971,100.48388294646287,0.0
0.026000000000000002,5.145312096897351,-2.528261314470923,4.309734010065323,0.0,9.261229131223779,7.578185077890982,97.67262038294218,100.48388294646287,0.0
0.027,4.959340999063388,-2.328057915809247,4.762979372944295,0.0,9.323728483484803,7.733245485219482,100.93521808802089,100.48388294646287,0.0
0.028,4.963295015005059,-2.243862136807817,3.127167168989362,0.0,9.388224439549042,7.692283338245482,101.56120031661725,100.48388294646287,0.0
0.029,4.890586406314166,-2.13382800038068,2.80340288098964,0.0,9.430912788092481,7.6506485390502945,98.08233343168963,100.48388294646287,0.0
0.03,4.798339206135591,-1.9945627675233562,4.566851818601179,0.0,9.450949987612026,7.824083186578972,100.05415983499398,100.48388294646287,0.0
0.031,4.911952349122611,-1.9505013745721342,3.585235848063693,0.0,9.482872831036424,7.84314592544114,101.45952608887288,100.48388294646287,0.0
0.032,4.977632341054939,-1.9098272801219973,2.8727962897001453,0.0,9.509476127544591,7.78885381536223,96.97725428658529,100.48388294646287,0.0
0.033,4.969003107083816,-1.8058115931430547,5.1489984774427136,0.0,9.51695489877087,8.001763897833493,101.07814529324442,100.48388294646287,0.0
0.034,5.176951403765355,-1.8087425814562834,3.092610350645335,0.0,9.546339366705896,7.922205528380439,98.29128865231164,100.48388294646287,0.0
0.035,5.212009574435315,-1.743342139583223,4.507964614053239,0.0,9.55760619241294,8.02801737710216,99.52209030835628,100.48388294646287,0.0
0.036000000000000004,5.355805107758691,-1.6963772857675492,3.9021817124119806,0.0,9.573815390920458,8.028118134748917,98.0657222489101,100.48388294646287,0.0
0.037,5.43436771991199,-1.651476255534595,4.654547349110597,0.0,9.583944280554437,8.11144385353139,99.17069403463749,100.48388294646287,0.0
0.038,5.586778193111662,-1.603396944273435,4.1151933453651575,0.0,9.596553139166863,8.104617766689591,96.41805895503438,100.48388294646287,0.0
0.039,5.669849759331936,-1.5528639459323936,5.532169125080997,0.0,9.602140666528966,8.25338228264718,99.7400813335422,100.48388294646287,0.0
0.04,5.884931739010723,-1.5459688680477621,3.8785959519562985,0.0,9.621792764166718,8.16893799080188,95.34283247730814,100.48388294646287,0.0
0.041,5.94424963542987,-1.4553633887008948,6.128630884764875,0.0,9.621137570906853,8.354568763435758,97.74273511798702,100.48388294646287,0.0
0.042,6.167697908390857,-1.475379731694289,4.956091042710189,0.0,9.642218826759104,8.346105076464644,97.95803051426644,100.48388294646287,0.0
0.043000000000000003,6.318699986769111,-1.4153200039587368,4.873701868892446,0.0,9.653538854848177,8.328882727184464,94.06556545927442,100.48388294646287,0.0
0.044,6.405517556988858,-1.3403574192403902,6.884117571260338,0.0,9.654359358158663,8.528444322699466,95.25485025206305,100.48388294646287,0.0
0.045,6.662258395089636,-1.3739922156800959,6.341765501810023,0.0,9.679503424145148,8.600995607841915,97.7640422057454,100.48388294646287,0.0
0.046,6.904682156491834,-1.3700642358645858,5.114367932376024,0.0,9.708619786303128,8.515116753752292,96.65829202841664,100.48388294646287,0.0
0.047,6.986083056741842,-1.268022513530188,5.705498930220866,0.0,9.715051317177721,8.511505945331226,94.32348749183163,100.48388294646287,0.0
0.048,7.056777206825201,-1.1699433528902436,6.934505153059684,0.0,9.710710323675695,8.63121639786688,92.59013404254715,100.48388294646287,0.0
0.049,7.24133536948005,-1.1445601709145978,7.880119366741081,0.0,9.716963116366516,8.81065475068413,92.00636135732054,100.48388294646287,0.0
0.05,7.5467734492264675,-1.18355717724861,8.256780925245806,0.0,9.745077967586482,8.972998569641886,91.95170639590249,100.48388294646287,0.0
0.051000000000000004,7.899021691665303,-1.239271509279773,8.369430171460436,0.0,9.792354322040307,9.094851367453614,91.96570486698727,100.48388294646287,0.0
0.052000000000000005,8.233333099672667,-1.274539576458293,8.447612716712804,0.0,9.850410664899254,9.18346833598875,92.0235318555225,100.48388294646287,0.0
0.053,8.522216051142255,-1.2759303252136656,8.503302733354587,0.0,9.911323372017126,9.245939307752757,92.382495425538,100.48388294646287,0.0
0.054,8.759812389386758,-1.2432394132347784,8.404834823556092,0.0,9.968781997794379,9.273619315115697,93.38015300542627,100.48388294646287,0.0
0.055,8.936272770320192,-1.177079940583054,7.977043333022323,0.0,10.016312128858296,9.241170120939106,94.90919835470727,100.48388294646287,0.0
0.056,9.023910053743702,-1.0698817764105923,7.268267504299376,0.0,10.04471412406571,9.135155935665123,94.24447018322894,100.48388294646287,0.0
0.057,8.99510432363789,-0.9197032936753025,7.66302571767088,0.0,10.044226849765828,9.097139533343256,90.50002239248107,100.48388294646287,0.0
0.058,8.985627608106363,-0.7776157256533498,9.635088218584634,0.0,10.025858815008686,9.276609718197793,90.01505297622305,100.48388294646287,0.0
0.059000000000000004,9.214216195802283,-0.737710775811057,9.982261226416044,0.0,10.024305933410279,9.429524975141614,93.39548716421555,100.48388294646287,0.0
0.06,9.531840612907422,-0.7674998183120545,8.362928090242264,0.0,10.041875709839628,9.352742243169178,89.09338621673903,100.48388294646287,0.0
0.061,9.673867070781109,-0.7182204972017932,10.0,0.0,10.044291619681657,9.469219337276947,90.39436995453265,100.48388294646287,0.0
0.062,9.927852550460347,-0.6867138751070962,10.0,0.0,10.055140712730948,9.531401455674592,91.7690328703208,100.48388294646287,0.0
0.063,10.132326601369792,-0.7380972140623561,9.464231582108553,0.0,10.077090341821105,9.509563454766097,89.51752380974519,100.48388294646287,0.0
0.064,10.219989583843688,-0.7954530506439177,10.0,0.0,10.10045651654581,9.548798239441403,94.4897224146739,100.48388294646287,0.0
0.065,10.291828989157072,-0.8937758751440743,8.259499012541795,0.0,10.135651504594776,9.382607665562597,92.57059364990072,100.48388294646287,0.0
0.066,10.146273404462528,-0.9188393576390883,9.298196287894013,0.0,10.152481691280416,9.384946866409434,91.12444618777859,100.48388294646287,0.0
0.067,10.062931817634903,-0.9573685974430628,10.0,0.0,10.171850360935666,9.463258620122378,94.64802793480929,100.48388294646287,0.0
0.068,10.077181249614343,-1.0565210851786082,8.409134775412266,0.0,10.207634820249552,9.351262000217824,97.29450902738779,100.48388294646287,0.0
0.069,9.947802825827761,-1.1066675832725075,7.117787968313767,0.0,10.233165761554568,9.142278112636482,97.14672822877104,100.48388294646287,0.0
0.07,9.648293480615093,-1.0790995664941878,7.22504991479906,0.0,10.231711273144398,9.013110233863665,96.40872426629973,100.48388294646287,0.0
0.07100000000000001,9.342918664348293,-1.0475239308979516,7.634803482836348,0.0,10.214287805950157,8.971310103483583,96.54788210324546,100.48388294646287,0.0
0.07200000000000001,9.124604149747428,-1.0632540245987498,7.604584572795658,0.0,10.19647273910038,8.945486872080664,97.3073446672492,100.48388294646287,0.0
0.073,8.971795622093229,-1.1142958787126815,7.256618673585924,0.0,10.183314158810818,8.897116190216353,98.26736953215152,100.48388294646287,0.0
0.074,8.833095398805536,-1.171169965785006,6.798771375277877,0.0,10.172380099400595,8.819112113972826,99.5210503421425,100.48388294646287,0.0
0.075,8.672403953186063,-1.214661143962688,6.18155929632559,0.0,10.158954327035865,8.700789240496231,99.52406940684381,100.48388294646287,0.0
0.076,8.460302869004249,-1.2305327628398262,6.189647899371128,0.0,10.136349810854657,8.621742149059157,98.52392956601645,100.48388294646287,0.0
0.077,8.258216185198041,-1.2549500074726558,6.709317353589271,0.0,10.1106282178687,8.625530593458073,97.0593357785527,100.48388294646287,0.0
0.078,8.140463656100895,-1.3296772357792488,7.475859719000251,0.0,10.095833451288623,8.71642291113415,97.10507107819227,100.48388294646287,0.0
0.079,8.145950366896901,-1.4793019773587033,7.48678018786317,0.0,10.10731884242484,8.788501284826895,101.13794865615064,100.48388294646287,0.0
0.08,8.197817526458614,-1.6416653931075311,5.4638007417871055,0.0,10.141227260133288,8.626232896063158,102.01804641452674,100.48388294646287,0.0
0.081,8.047273949021436,-1.6702461759753775,5.008410227918419,0.0,10.157038249152492,8.470797490995556,98.62862353250773,100.48388294646287,0.0
0.082,7.774569287155763,-1.6627823190282887,6.721674263067473,0.0,10.154617766670157,8.553991751372568,102.36092562117146,100.48388294646287,0.0
0.083,7.672399734506715,-1.7531116864539364,4.8367527919885225,0.0,10.170769627460043,8.412662139466208,102.14173438010447,100.48388294646287,0.0
0.084,7.461217079635318,-1.7488215240801122,4.9297698981856035,0.0,10.169798129444935,8.338370167731304,100.87118145399704,100.48388294646287,0.0
0.085,7.231516507860984,-1.7765289457110098,5.561173376163976,0.0,10.16458530206098,8.363089691230492,104.73110793576639,100.48388294646287,0.0
0.08600000000000001,7.113372773654678,-1.8274653979100197,3.5887378853862657,0.0,10.167691645290926,8.172232845920988,101.1574655306666,100.48388294646287,0.0
0.08700000000000001,6.828521385540369,-1.8144368244476414,5.368823262094123,0.0,10.149459162064073,8.246458281161576,105.4202034395135,100.48388294646287,0.0
0.088,6.725944958331865,-1.8778921205753458,3.1880911027401666,0.0,10.147582838992632,8.062191426371202,102.13879145080594,100.48388294646287,0.0
0.089,6.459890379378398,-1.8713582137470701,4.812248012050517,0.0,10.126114180036916,8.124868445783196,105.0247371472203,100.48388294646287,0.0
0.09,6.360111540703478,-1.9271457662849318,3.3238666218357587,0.0,10.119262058765417,8.007482501806397,104.08475342630102,100.48388294646287,0.0
0.091,6.157575776891953,-1.956084171670076,3.7578497774970208,0.0,10.103981904290373,7.985053046757533,103.52287843612282,100.48388294646287,0.0
0.092,6.011421490433215,-1.9807301476982138,4.00839731768952,0.0,10.090408493067189,8.000610533502957,106.81878986450906,100.48388294646287,0.0
0.093,5.918142110208572,-2.0471920854492485,2.297092534315942,0.0,10.086812525033201,7.83130511783863,104.48418175910933,100.48388294646287,0.0
0.094,5.674092383182241,-2.0379113198117587,3.4243935988893384,0.0,10.064960108638546,7.845599488044794,103.99637964113093,100.48388294646287,0.0
0.095,5.539681420719599,-2.0596293687398646,3.63316969093186,0.0,10.049204163942438,7.880316247670447,106.96228683840562,100.48388294646287,0.0
0.096,5.475715567801352,-2.1235930193384833,2.0854320533750883,0.0,10.045314310755074,7.743338970008636,106.81945544419133,100.48388294646287,0.0
0.097,5.276515451813287,-2.1299415935369286,2.093492025504946,0.0,10.028174421776107,7.657306762333624,104.71207034485991,100.48388294646287,0.0
0.098,5.066048566949366,-2.109868087775919,3.1049027011866874,0.0,10.001873729551843,7.710497717307061,104.39986640022704,100.48388294646287,0.0
0.099,4.987317031349054,-2.145667166825894,3.22184483896548,0.0,9.987660835800455,7.7650448360269735,106.7004271054893,100.48388294646287,0.0
0.1,4.976195925926646,-2.216785374703492,2.0093990447440877,0.0,9.98778895537223,7.678613500998075,108.70696948026114,100.48388294646287,0.0
0.101,4.8569331594020495,-2.2404149185675637,0.923896992020186,0.0,9.98114919723021,7.506565036835311,107.25588553950773,100.48388294646287,0.0
0.10200000000000001,4.601698828670632,-2.184488658634877,1.5817189364664408,0.0,9.95158038445488,7.461156026406157,105.5994266753121,100.48388294646287,0.0
0.10300000000000001,4.404358370534619,-2.14519733957092,2.3587929312757625,0.0,9.91666476941646,7.5153860628145965,104.71596481100309,100.48388294646287,0.0
0.10400000000000001,4.338966478633509,-2.166476172814318,2.7582030447848664,0.0,9.893397304370138,7.602085610144021,105.80520942202344,100.48388294646287,0.0
0.105,4.374001141014624,-2.237212035248001,2.160367474519087,0.0,9.888694697096664,7.60352471059061,106.51709401351742,100.48388294646287,0.0
0.106,4.375404277923098,-2.288595815793138,1.7440930681015487,0.0,9.889551117830825,7.5647338128258,107.51402256447496,100.48388294646287,0.0
0.107,4.319720549359618,-2.2988862057569692,1.1753273964426612,0.0,9.887060911805655,7.477645408603651,108.47326943349712,100.48388294646287,0.0
0.108,4.183293184104752,-2.2668150970851726,0.6158100970612352,0.0,9.872480160107251,7.357607750878232,107.95304985434205,100.48388294646287,0.0
0.109,3.9780330909117847,-2.191602997001493,0.8012282175599772,0.0,9.839401097883664,7.295321286602873,106.67040868945378,100.48388294646287,0.0
0.11,3.800404022342749,-2.1212934326896113,1.3806835425742063,0.0,9.796419364381428,7.315328063689931,105.43626793537462,100.48388294646287,0.0
0.111,3.722544616279226,-2.0985779690502104,1.948230069724671,0.0,9.757940876580902,7.392459798435764,104.36807729212927,100.48388294646287,0.0
0.112,3.755405206094721,-2.129970742086473,2.443483447890679,0.0,9.734703770705401,7.502439658313381,103.80814335257178,100.48388294646287,0.0
0.113,3.8775055133483893,-2.2015414187149047,2.690207813608338,0.0,9.732347208103972,7.608182540163215,104.34651193350162,100.48388294646287,0.0
0.114,4.03649707700162,-2.287049939146037,2.3823972332730294,0.0,9.749490820428814,7.650521001144545,105.04260802045573,100.48388294646287,0.0
0.115,4.1475178677076725,-2.3400406092383257,1.9887619390560438,0.0,9.774127806125142,7.63949582935858,106.68965505241422,100.48388294646287,0.0
0.116,4.1760134930630475,-2.3444128166838953,1.1031807020172835,0.0,9.79514961219133,7.536534979306718,107.94534136710153,100.48388294646287,0.0
0.117,4.073119240462923,-2.27254531493251,0.40072296046724265,0.0,9.795824005378607,7.389161179706112,106.99459369551997,100.48388294646287,0.0
0.11800000000000001,3.864499939771116,-2.138191569266727,0.8109896887674548,0.0,9.767633342281371,7.330665297462915,105.3364929761445,100.48388294646287,0.0
0.11900000000000001,3.697263342658472,-2.017147217856709,1.5915139481583722,0.0,9.724440816071095,7.373264771059784,103.39281479853605,100.48388294646287,0.0
0.12,3.658959832987867,-1.959124663504905,2.5342637184418644,0.0,9.684655452376937,7.505723296905858,101.9706685952509,100.48388294646287,0.0
0.121,3.780289278232484,-1.980656522361993,3.23046896359656,0.0,9.665043207654598,7.674383238988474,103.1841334201946,100.48388294646287,0.0
0.122,4.017944287184728,-2.0608173573851127,2.596734046387393,0.0,9.67286055487673,7.722614312513738,104.91700438286657,100.48388294646287,0.0
0.123,4.1941218340411,-2.1076440161634453,1.6859673506873731,0.0,9.689068598844557,7.655954045989102,106.02051104023283,100.48388294646287,0.0
0.124,4.220894237607319,-2.0766011338589982,1.0788477410665394,0.0,9.693106828121866,7.538721931488697,103.60851583537442,100.48388294646287,0.0
0.125,4.126076302605862,-1.9691841687323828,2.2535990146066305,0.0,9.673512585680523,7.579608384437506,100.80563729624828,100.48388294646287,0.0
0.126,4.127855407427031,-1.896246781408014,3.651820740671847,0.0,9.65301746982378,7.755359764098733,101.94927163727971,100.48388294646287,0.0
0.127,4.312624950521494,-1.9139820182815925,3.0653496832479634,0.0,9.654827253448172,7.8126856019387,104.67989595437305,100.48388294646287,0.0
0.128,4.4713257659168555,-1.934561237503671,1.6580773946221896,0.0,9.664275004239812,7.69991519891997,102.28598480684087,100.48388294646287,0.0
0.129,4.456425426268613,-1.8612393970183876,2.8370119497844994,0.0,9.653229745004811,7.746348180751646,99.73413613527552,100.48388294646287,0.0
0.13,4.51687593751991,-1.795098241315081,4.120433753679049,0.0,9.641390001153969,7.90962183171931,102.94898608328634,100.48388294646287,0.0
0.131,4.718760428578687,-1.8144157223275916,2.488357748305403,0.0,9.649847931253387,7.841418775671125,101.35145569870139,100.48388294646287,0.0
0.132,4.769655904680727,-1.771082525091554,3.278447213075496,0.0,9.645679936231957,7.880532761955506,99.01320658919883,100.48388294646287,0.0
0.133,4.865451478156382,-1.7090914691929482,4.462278531399415,0.0,9.639454455164621,8.027610542155937,102.98087899049946,100.48388294646287,0.0
0.134,5.068198136265088,-1.7282074482995369,2.4534723703087327,0.0,9.651281968484772,7.905206828669177,97.87332573014668,100.48388294646287,0.0
0.135,5.080769168859453,-1.6390697420511984,5.033354572648288,0.0,9.639690051645847,8.10074599472707,101.59951630310853,100.48388294646287,0.0
0.136,5.300986143692979,-1.6430706270667546,3.1591029526009042,0.0,9.650142717510798,8.019507395360932,97.29758396699168,100.48388294646287,0.0
0.137,5.357097251942027,-1.5797446728347406,5.3419321104540405,0.0,9.644420393036967,8.202321593923163,100.94879805844194,100.48388294646287,0.0
0.138,5.591035550201777,-1.5885653538169502,3.511675913609122,0.0,9.659155255317105,8.11795356522423,96.10575332269157,100.48388294646287,0.0
0.139,5.658310211424703,-1.5149377711042868,5.97697957772202,0.0,9.655792587591119,8.32792096089215,100.54962713252664,100.48388294646287,0.0
