timestamp,iq,id,iq_ref,id_ref,vq,vd,omega,omega_ref,r
0.0,0.0,0.0,0.0,0.0,0.0,0.0,0.0,454.7383279603014,0.0
0.001,0.0,0.0,10.0,0.0,0.0,1.0999999999999999,8.977298215539767,454.7383279603014,0.0
0.002,0.6172200010111102,-0.3370027099092245,10.0,0.0,0.14707029809001473,1.922105799888778,21.15269940930715,454.7383279603014,0.0
0.003,1.4541412211093363,-0.7976922502764142,10.0,0.0,0.4089499687012042,2.590818915396985,34.89880166334724,454.7383279603014,0.0
0.004,2.3189596394864336,-1.274705453829809,10.0,0.0,0.7593775407892969,3.1320878725949926,49.45944191054314,454.7383279603014,0.0
0.005,3.102700939521044,-1.705662076601437,10.0,0.0,1.1715243478577266,3.5767093324619723,64.40497968911217,454.7383279603014,0.0
0.006,3.755706976624799,-2.0621222065365883,10.0,0.0,1.6218196682711614,3.9540900759680304,79.45671905184385,454.7383279603014,0.0
0.007,4.267531516057365,-2.3378973679054402,10.0,0.0,2.0915941974450813,4.288991638198281,94.41801495134297,454.7383279603014,0.0
0.008,4.650653747123581,-2.539796561767432,10.0,0.0,2.5673325896357633,4.60035529709994,109.16299079473545,454.7383279603014,0.0
0.009000000000000001,4.928889045246088,-2.6801785509853624,10.0,0.0,3.0400565353728974,4.9013817688476875,123.60645254754412,454.7383279603014,0.0
0.01,5.129016331900026,-2.773009827678273,10.0,0.0,3.504418354255133,5.200346339443668,137.68349611798246,454.7383279603014,0.0
0.011,5.276105485250112,-2.8309771739074048,10.0,0.0,3.957688543627019,5.501672100866301,151.33875457332266,454.7383279603014,0.0
0.012,5.391184475687871,-2.8640960404305194,10.0,0.0,4.398827692059229,5.807004507669209,164.5014466394746,454.7383279603014,0.0
0.013000000000000001,5.4909127843067,-2.87864486714099,10.0,0.0,4.82765534860143,6.1160982645913515,177.16367115095207,454.7383279603014,0.0
0.014,5.5863614133924155,-2.8798041835749744,10.0,0.0,5.244491651722261,6.42766334536226,189.23504972536676,454.7383279603014,0.0
0.015,5.685741656471233,-2.8689260710041835,10.0,0.0,5.649592647060971,6.7397782079203505,200.6479775132826,454.7383279603014,0.0
0.016,5.794295961544172,-2.8458354367081613,10.0,0.0,6.042963840474766,7.050244512629266,211.3372507604515,454.7383279603014,0.0
0.017,5.9152373781715255,-2.80935500142342,10.0,0.0,6.4242626034797095,7.3567832934303885,221.2371091784106,454.7383279603014,0.0
0.018000000000000002,6.05047506066297,-2.7578465141215744,10.0,0.0,6.792784239013915,7.6571313415441065,230.28174674903346,454.7383279603014,0.0
0.019,6.201122373185146,-2.689676416037682,10.0,0.0,7.147504889889865,7.949077920847355,238.40549317121778,454.7383279603014,0.0
0.02,6.367807341091643,-2.603573023440886,10.0,0.0,7.487158461403734,8.230473033963376,245.54240087926593,454.7383279603014,0.0
0.021,6.550832933518406,-2.4988527526415973,10.0,0.0,7.810327991215866,8.4992280274313,251.62744719630268,454.7383279603014,0.0
0.022,6.750235706510086,-2.375517155720172,10.0,0.0,8.115536354440211,8.75332042542883,256.60251193048947,454.7383279603014,0.0
0.023,6.965785543442142,-2.234238208561372,10.0,0.0,8.401325792923622,8.990807965616433,260.42943661138173,454.7383279603014,0.0
0.024,7.196956268268381,-2.076264587208221,10.0,0.0,8.666320732700196,9.209852414272055,262.88824265007025,454.7383279603014,0.0
0.025,7.4415636490233545,-1.9054638424175288,10.0,0.0,8.909512277651224,9.408896807404982,264.20850609865846,454.7383279603014,0.0
0.026000000000000002,7.700962912016273,-1.7196859309678603,10.0,0.0,9.12956154460889,9.586268070598049,264.4288868771197,454.7383279603014,0.0
0.027,7.97081047840279,-1.525445669819998,10.0,0.0,9.32583436157833,9.740817894494992,263.339860287374,454.7383279603014,0.0
0.028,8.249873389363856,-1.3238384295107957,10.0,0.0,9.497700485417983,9.871541573157327,261.3769569287221,454.7383279603014,0.0
0.029,8.536307107954656,-1.1162290643005974,10.0,0.0,9.644631406969872,9.97766241640202,270.9456274336803,454.7383279603014,0.0
0.03,8.727295433522325,-1.0699299490995737,10.0,0.0,9.784464511671038,10.069719888850896,283.78937304213633,454.7383279603014,0.0
0.031,8.847582773289233,-1.1289793427037318,10.0,0.0,9.926478477595436,10.155233200406315,294.82270043818033,454.7383279603014,0.0
0.032,8.911896901784406,-1.261844141792312,10.0,0.0,10.07686701204664,10.240524896661839,304.45182955934877,454.7383279603014,0.0
0.033,8.942300938365406,-1.426498704478337,10.0,0.0,10.237529216582853,10.329624973997966,316.7111010718163,454.7383279603014,0.0
0.034,8.934387698130191,-1.627796274566614,10.0,0.0,10.411531395481912,10.427055760845793,328.8864976496144,454.7383279603014,0.0
0.035,8.895335642797509,-1.853406522703375,10.0,0.0,10.60068058677,10.536360280582974,341.67088797308116,454.7383279603014,0.0
0.036000000000000004,8.82883432690348,-2.09761707675676,10.0,0.0,10.806452369367513,10.660573891670271,355.15747153785435,454.7383279603014,0.0
0.037,8.737821197089097,-2.3561813673855916,10.0,0.0,11.030068301242634,10.802289751029233,369.1673590374426,454.7383279603014,0.0
0.038,8.625647200822977,-2.6238638523073536,10.0,0.0,11.272353656301249,10.963624625930935,383.47523061654846,454.7383279603014,0.0
0.039,8.49631336107445,-2.8938482165505675,10.0,0.0,11.533565418561706,11.146159531258004,397.78001709511744,454.7383279603014,0.0
0.04,8.35490608472319,-3.157185257780044,10.0,0.0,11.813176726021629,11.350823584279567,411.6750567768447,454.7383279603014,0.0
0.041,8.208180728750914,-3.4023411401365236,10.0,0.0,12.109627084684643,11.577708079138407,424.5576166916274,454.7383279603014,0.0
0.042,8.065205194478036,-3.6149346161082723,10.0,0.0,12.420054580500564,11.825809215587952,436.3232599285107,454.7383279603014,0.0
0.043000000000000003,7.935560718553036,-3.781940568576228,10.0,0.0,12.740494160391608,12.09297412498316,445.8087333891859,454.7383279603014,0.0
0.044,7.83606287949971,-3.881170577197701,9.200512328163217,0.0,13.064851514656745,12.287171175062522,452.0796245684906,454.7383279603014,0.0
0.045,7.731159075834924,-3.8760990919448313,6.091653772428961,0.0,13.374642675039281,12.170949131160654,451.9215597305847,454.7383279603014,0.0
0.046,7.482297015094601,-3.672366356462222,6.198853873679076,0.0,13.61947262894281,12.166534793026866,448.24556390751485,454.7383279603014,0.0
0.047,7.243207124460121,-3.3463869086469185,8.101779425741869,0.0,13.805557741737758,12.419105961173607,444.2353791788922,454.7383279603014,0.0
0.048,7.192743684614403,-3.0037026948723433,10.0,0.0,13.963855991030828,12.857963610909621,440.73539362329853,454.7383279603014,0.0
0.049,7.405379482357397,-2.6940607122266367,10.0,0.0,14.119576404414914,13.225888542708574,436.30567872614637,454.7383279603014,0.0
0.05,7.782250717218565,-2.381072383129606,10.0,0.0,14.265184973266273,13.533263544808738,430.2801171318697,454.7383279603014,0.0
0.051000000000000004,8.26355419307522,-2.0494428240006144,10.0,0.0,14.393620817229289,13.7752872335884,422.368908836065,454.7383279603014,0.0
0.052000000000000005,8.806907801415768,-1.6931985140758057,10.0,0.0,14.497544867173533,13.950996275727508,411.8948291502704,454.7383279603014,0.0
0.053,9.380121275040834,-1.31798081702028,10.0,0.0,14.570935912760403,14.06190687263178,399.28702335195356,454.7383279603014,0.0
0.054,9.96622711143771,-0.9239200290930536,10.0,0.0,14.608484403777574,14.1103260071369,390.2661438104873,454.7383279603014,0.0
0.055,10.54437751515886,-0.5286306547726968,10.0,0.0,14.607578735847573,14.099922591247871,416.86788578724156,454.7383279603014,0.0
0.056,10.811844414241893,-0.5985785918154365,10.0,0.0,14.617370459939572,14.066829095292825,432.38959475564786,454.7383279603014,0.0
0.057,10.91549461728216,-0.8647774890224725,10.0,0.0,14.651456061349217,14.02929726799888,446.7727645332075,454.7383279603014,0.0
0.058,10.907913580829966,-1.223469498653834,9.79878525884024,0.0,14.715174051975882,13.978663978087862,463.2147438478782,454.7383279603014,0.0
0.059000000000000004,10.78557494157857,-1.6448849275133584,1.4930314426291345,0.0,14.810225691627007,13.041226483812128,471.5044768399298,454.7383279603014,0.0
0.06,10.05804634226358,-1.8599569925585469,-2.8194965421929483,0.0,14.821472190751823,11.894522122292887,471.41224326862346,454.7383279603014,0.0
0.061,8.830910656653247,-1.849062417821954,-2.940118909623001,0.0,14.713574479940764,11.021179305692963,467.4365928308418,454.7383279603014,0.0
0.062,7.458845977931013,-1.739814332673343,-1.0792763394375706,0.0,14.517223914931831,10.56893566386996,462.82469242003367,454.7383279603014,0.0
0.063,6.257090626535788,-1.6605826011693325,1.1458102213691657,0.0,14.287661032627536,10.486904867581503,459.57275236706386,454.7383279603014,0.0
0.064,5.396542127298741,-1.676836089182912,2.723436003786447,0.0,14.07543155992136,10.62405161455142,457.63320600249983,454.7383279603014,0.0
0.065,4.893668234948375,-1.7847991079019458,3.6642604056464743,0.0,13.909853106361755,10.86068580910033,456.23795276298097,454.7383279603014,0.0
0.066,4.685721980819285,-1.942889652989561,4.346890777379111,0.0,13.800806247385442,11.14062518474107,454.73464872897455,454.7383279603014,0.0
0.067,4.697743797893692,-2.1057801647984826,5.098579586695589,0.0,13.746995062718943,11.454123539808117,452.6252990519854,454.7383279603014,0.0
0.068,4.8776943249246205,-2.238776899353014,6.174384714273326,0.0,13.742915567708705,11.822038277039539,449.6153257330051,454.7383279603014,0.0
0.069,5.20581148180772,-2.327147900005399,7.730601396036446,0.0,13.784426338648853,12.27888599277813,447.20913236447745,454.7383279603014,0.0
0.07,5.6896560559436615,-2.3762384862363146,9.008990036258497,0.0,13.871987058547722,12.76931886605755,444.9739598174938,454.7383279603014,0.0
0.07100000000000001,6.304096669717584,-2.3799708367794596,10.0,0.0,13.999754646482083,13.25294171183448,442.335341052586,454.7383279603014,0.0
0.07200000000000001,7.014409594537211,-2.3263643677429573,10.0,0.0,14.157173725101249,13.619078916597317,438.10635019324366,454.7383279603014,0.0
0.073,7.739661848681212,-2.185145692276383,10.0,0.0,14.320466626723833,13.891669690038151,431.7403078205053,454.7383279603014,0.0
0.074,8.44450591966163,-1.953775787834203,10.0,0.0,14.470650812794265,14.083050351030757,423.3857417357422,454.7383279603014,0.0
0.075,9.115912266035776,-1.6435675360018536,10.0,0.0,14.593145437699771,14.203505107139787,411.813466008964,454.7383279603014,0.0
0.076,9.748512852481873,-1.2794620465615756,10.0,0.0,14.678486554405534,14.26129184908314,398.41296579197046,454.7383279603014,0.0
0.077,10.35011595593763,-0.8746260307739036,10.0,0.0,14.720181326792805,14.26198369298706,416.7564339744968,454.7383279603014,0.0
0.078,10.826856855715189,-0.6083111256100064,10.0,0.0,14.732529526921592,14.220350361798335,424.36942678023956,454.7383279603014,0.0
0.079,11.003412825753536,-0.7514117023234745,10.0,0.0,14.757883786408744,14.169461436034922,438.6494370280764,454.7383279603014,0.0
0.08,11.05421448939689,-1.0158678057314385,10.0,0.0,14.80327289297859,14.122374205496186,456.4016258072793,454.7383279603014,0.0
0.081,10.983529471060926,-1.388548444166724,5.214684660930297,0.0,14.877764675031372,13.566433290024023,469.1510158853782,454.7383279603014,0.0
0.082,10.516944038619311,-1.692691616915439,-1.304137257369912,0.0,14.918942129949674,12.454935934067251,472.41640493873365,454.7383279603014,0.0
0.083,9.476988938677014,-1.77272352382451,-3.113612553831974,0.0,14.85061418181297,11.434581202439396,470.0738984357874,454.7383279603014,0.0
0.084,8.135348930709224,-1.7031655487481527,-2.095715007113702,0.0,14.678631858999662,10.77667348214132,465.6097593252638,454.7383279603014,0.0
0.085,6.828054515914781,-1.6130076617079618,0.027640234498476524,0.0,14.448835208614222,10.521134388249592,461.7796205060371,454.7383279603014,0.0
0.08600000000000001,5.793691275848598,-1.5962759389218726,1.8722967186544714,0.0,14.215525403242081,10.55055521180886,459.2561851220552,454.7383279603014,0.0
0.08700000000000001,5.114389426774286,-1.6748217278685007,3.088835839027886,0.0,14.017296014775082,10.733455281872022,457.67458395158025,454.7383279603014,0.0
0.088,4.7596440124489146,-1.82443764505769,3.85027386435256,0.0,13.872851865162435,10.98206417474919,456.2524336135763,454.7383279603014,0.0
0.089,4.657418351728463,-1.9983937876982367,4.546207976821798,0.0,13.785352036317342,11.268003504031746,454.48224963935115,454.7383279603014,0.0
0.09,4.7440093032630015,-2.1575193220322704,5.433860747143859,0.0,13.750960370635351,11.596734119836267,452.05958097624034,454.7383279603014,0.0
0.091,4.983970424975626,-2.2770275200712136,6.671982548539876,0.0,13.76443557954295,11.990939564069436,449.01903586151167,454.7383279603014,0.0
0.092,5.369736909321473,-2.349613702378991,8.249448026892109,0.0,13.822773210056578,12.468177267313912,446.7003106568162,454.7383279603014,0.0
0.093,5.906301059928522,-2.3826773667810723,9.489190802274688,0.0,13.925911989104433,12.968957622070548,444.4082845497013,454.7383279603014,0.0
0.094,6.566172736878606,-2.3682407555109113,10.0,0.0,14.066896261839435,13.40654516029383,441.1919231761989,454.7383279603014,0.0
0.095,7.28708279480672,-2.2819452351036755,10.0,0.0,14.228192719991167,13.736662890388434,436.1661907616466,454.7383279603014,0.0
0.096,8.007445007428439,-2.1054029465186006,10.0,0.0,14.387814608796903,13.97786775047965,428.93369810975173,454.7383279603014,0.0
0.097,8.701180277896258,-1.8421747799085946,10.0,0.0,14.52840511928994,14.14180705581707,419.4281757151133,454.7383279603014,0.0
0.098,9.358494004364658,-1.5098366585385414,10.0,0.0,14.637405597582806,14.238044324463209,406.9458933911297,454.7383279603014,0.0
0.099,9.980812467487064,-1.1270035650426933,10.0,0.0,14.70634149584015,14.27367602039523,393.4547117182226,454.7383279603014,0.0
0.1,10.572027421375319,-0.7130361293379428,10.0,0.0,14.730238886872407,14.253827676263313,410.1311578053376,454.7383279603014,0.0
0.101,10.914487591147275,-0.6409602197124213,10.0,0.0,14.745973028686485,14.206595436511778,429.6619631038468,454.7383279603014,0.0
0.10200000000000001,11.051615207530196,-0.8177627834717569,10.0,0.0,14.775579573453786,14.154000398812396,447.7909030054246,454.7383279603014,0.0
0.10300000000000001,11.042274318750692,-1.1463373368709329,9.71335628803179,0.0,14.831341135210735,14.080493484972761,463.7128021082977,454.7383279603014,0.0
0.10400000000000001,10.911220951771377,-1.5469705770995166,1.6626619951152692,0.0,14.914959760299169,13.151525945071574,471.66279930672806,454.7383279603014,0.0
0.105,10.189534707821213,-1.7567674078105382,-2.4815813175641814,0.0,14.916391087864575,12.0265321533685,472.0648660610336,454.7383279603014,0.0
0.106,8.982409035928395,-1.7587682018434139,-2.8558800757242864,0.0,14.803302022539636,11.140017404790164,468.6278458651017,454.7383279603014,0.0
0.107,7.617229547103516,-1.6663137374672639,-1.276265156806315,0.0,14.602680389867654,10.64644434025156,464.25221803963495,454.7383279603014,0.0
0.108,6.396875545186514,-1.5979034462062516,0.8164098551337107,0.0,14.36616302661406,10.517151666346459,461.0349250651651,454.7383279603014,0.0
0.109,5.49716216243451,-1.619523956494764,2.3620903713199946,0.0,14.143430491339661,10.61299956225115,458.8994751262584,454.7383279603014,0.0
0.11,4.9464997192079,-1.7285378696512947,3.3882038691137897,0.0,13.964331324527503,10.825980829560793,457.40181266051366,454.7383279603014,0.0
0.111,4.694256937696429,-1.8912693074194413,4.110400254984029,0.0,13.841250520150457,11.091174602460041,455.8912802597146,454.7383279603014,0.0
0.112,4.669379818741232,-2.0626235969940736,4.854136932389414,0.0,13.77421883097657,11.392344043557506,453.8785997263058,454.7383279603014,0.0
0.113,4.817580694658752,-2.207290519418105,5.86907448143377,0.0,13.758207073400715,11.744348267708183,450.9449625393086,454.7383279603014,0.0
0.114,5.113587031956308,-2.309227332831518,7.373826729142298,0.0,13.788763294248747,12.183845577100143,448.3544743681468,454.7383279603014,0.0
0.115,5.565352688112887,-2.368953693037013,8.732909350644762,0.0,13.865764155439646,12.670166184721651,446.0982862981511,454.7383279603014,0.0
0.116,6.154056586723568,-2.3847394591733,9.947403802264109,0.0,13.984836161946536,13.175318608877593,443.71020512136874,454.7383279603014,0.0
0.117,6.856092713282185,-2.349917798288371,10.0,0.0,14.13852796985963,13.564166693568037,439.8813212820605,454.7383279603014,0.0
0.11800000000000001,7.58423464582845,-2.2297197928722605,10.0,0.0,14.302861841463535,13.855897937288892,433.98775207442753,454.7383279603014,0.0
0.11900000000000001,8.29653137196518,-2.0173602948345652,10.0,0.0,14.457777885549147,14.06381822324847,425.95301154663395,454.7383279603014,0.0
0.12,8.976535626734712,-1.7219825082105369,10.0,0.0,14.587626392273895,14.198760584257373,415.0197225665532,454.7383279603014,0.0
0.121,9.617847766782209,-1.3669244446400746,10.0,0.0,14.68188167530055,14.269449266980327,401.9968417885661,454.7383279603014,0.0
0.122,10.226924960722242,-0.9670689672552382,10.0,0.0,14.733346776420202,14.281909239800724,403.9399575052262,454.7383279603014,0.0
0.123,10.786412517572376,-0.5764682519696533,10.0,0.0,14.741943840802362,14.242816866136934,424.5710392082951,454.7383279603014,0.0
0.124,10.992096848704398,-0.6881608818642688,10.0,0.0,14.761964157821193,14.191463035421718,437.52540238307085,454.7383279603014,0.0
0.125,11.058351416023765,-0.9474513239987317,10.0,0.0,14.802252082402461,14.142015460386093,453.0166829154047,454.7383279603014,0.0
0.126,11.01154835632085,-1.3025841661283792,7.182675287068379,0.0,14.870038165234961,13.797446599130197,467.5871291237558,454.7383279603014,0.0
0.127,10.688306511042375,-1.6502056208274376,-0.23103582874170847,0.0,14.931275785254217,12.741866829056947,473.0227973951391,454.7383279603014,0.0
0.128,9.768559416516581,-1.783804634008638,-3.131714658781732,0.0,14.89205134316717,11.650970999791706,471.53910028958427,454.7383279603014,0.0
0.129,8.459143616383088,-1.7351843638984357,-2.557873829297149,0.0,14.74097554251836,10.892209855857406,467.1934450870654,454.7383279603014,0.0
0.13,7.109539672953322,-1.6355015637629098,-0.5095973993053615,0.0,14.518652302227201,10.549151521031849,462.98967549018226,454.7383279603014,0.0
0.131,5.993345797657729,-1.59407450550042,1.509773923837404,0.0,14.280695404075084,10.529100063753734,460.1987297906214,454.7383279603014,0.0
0.132,5.229814874034767,-1.6505899850342445,2.850642755314622,0.0,14.071160023341712,10.687386383464856,458.36722866061564,454.7383279603014,0.0
0.133,4.806151835179277,-1.7858548588017529,3.7301043133143743,0.0,13.912720793971879,10.931190241234603,456.9465917373344,454.7383279603014,0.0
0.134,4.655704474273017,-1.9585270665456032,4.4183401371846545,0.0,13.81214716743015,11.213993694647261,455.27370195036207,454.7383279603014,0.0
0.135,4.708732097968722,-2.12458861639257,5.249431290770222,0.0,13.766451297289588,11.535659596504598,453.0492850790672,454.7383279603014,0.0
0.136,4.921291853970695,-2.2556785083569246,6.378530155229996,0.0,13.770250876966422,11.913627987793603,449.97178324063725,454.7383279603014,0.0
0.137,5.278340398962772,-2.3387331961587163,7.964946521641613,0.0,13.81929245454303,12.380244567192968,447.5906824797096,454.7383279603014,0.0
0.138,5.788376200887798,-2.3815082301419475,9.226973356911364,0.0,13.91396623916205,12.875528981863777,445.30318917986574,454.7383279603014,0.0
0.139,6.4251692843241806,-2.3771646016585364,10.0,0.0,14.04779553731324,13.338218114757709,442.3673835847698,454.7383279603014,0.0
0.14,7.141670689234957,-2.3081936780100203,10.0,0.0,14.206967453622209,13.68784377404066,437.7399869676135,454.7383279603014,0.0
0.14100000000000001,7.865872062544573,-2.1499452165722137,10.0,0.0,14.368467122706896,13.945926922011262,430.9347199968673,454.7383279603014,0.0
0.14200000000000002,8.566723435331635,-1.9029016256181959,10.0,0.0,14.514032829289611,14.12450008481979,422.12475027856067,454.7383279603014,0.0
0.14300000000000002,9.232837991703011,-1.5812292455403485,10.0,0.0,14.629985755595886,14.233508414532757,409.99722492731655,454.7383279603014,0.0
0.14400000000000002,9.861498594041374,-1.2078737215450817,10.0,0.0,14.707391838404126,14.280719683211546,396.3856493624915,454.7383279603014,0.0
