timestamp,iq,id,iq_ref,id_ref,vq,vd,omega,omega_ref,r
0.0,0.0,0.0,0.0,0.0,0.0,0.0,0.0,447.1153123852318,0.0
0.001,0.0,0.0,10.0,0.0,0.0,1.0999999999999999,4.5440115084764505,447.1153123852318,0.0
0.002,0.5533471455004019,-0.3108397111879072,10.0,0.0,0.1441923682306697,1.9291318139949556,9.058381149047324,447.1153123852318,0.0
0.003,1.2156608073466866,-0.6835008095462861,10.0,0.0,0.39476300474531073,2.622448652065396,13.775058503700206,447.1153123852318,0.0
0.004,1.8355598769728212,-1.0315750494635312,10.0,0.0,0.7241698168228445,3.2099251089398435,18.622023686376345,447.1153123852318,0.0
0.005,2.357393001017437,-1.32304773142908,10.0,0.0,1.1079648459971085,3.720391948385954,23.55175099554439,447.1153123852318,0.0
0.006,2.773601397347464,-1.5536929802414838,10.0,0.0,1.5268833067482648,4.1776270144490235,28.447276743405144,447.1153123852318,0.0
0.007,3.097514496515573,-1.7315730051317721,10.0,0.0,1.9668937782804212,4.599562063035709,33.47828632084945,447.1153123852318,0.0
0.008,3.349506196837054,-1.8675203328741568,10.0,0.0,2.4182721133207896,4.99882469787326,38.46347544471279,447.1153123852318,0.0
0.009000000000000001,3.548662478255825,-1.9733870437061272,10.0,0.0,2.8747247432549687,5.383911628778243,43.39857953347662,447.1153123852318,0.0
0.01,3.711218401728985,-2.0582975960314016,10.0,0.0,3.332322296933689,5.760245540818286,48.26207263038582,447.1153123852318,0.0
0.011,3.849396673225346,-2.1292183584085103,10.0,0.0,3.7887456647867714,6.1311317663923255,52.99095813633136,447.1153123852318,0.0
0.012,3.9717409115700413,-2.1912437216846232,10.0,0.0,4.24272890074855,6.498495622691321,57.76817075384737,447.1153123852318,0.0
0.013000000000000001,4.0844212147000665,-2.2470150437875276,10.0,0.0,4.693564790542609,6.863350025995738,62.57263980946095,447.1153123852318,0.0
0.014,4.19124345210181,-2.2984288552125602,10.0,0.0,5.140900337723428,7.226178934866227,67.36881153768863,447.1153123852318,0.0
0.015,4.294488755635929,-2.3466763872586522,10.0,0.0,5.584578311484034,7.587169746553013,72.10147112179804,447.1153123852318,0.0
0.016,4.39543428822016,-2.392490549075024,10.0,0.0,6.024544651516597,7.946357718898254,76.75345529026268,447.1153123852318,0.0
0.017,4.494907566351344,-2.4360185042037417,10.0,0.0,6.460763088226424,8.303690922743641,81.31972134395981,447.1153123852318,0.0
0.018000000000000002,4.593451846255652,-2.4770961375849483,10.0,0.0,6.893176261770453,8.659067511867311,85.79765458601236,447.1153123852318,0.0
0.019,4.691439634844742,-2.5154162572017817,10.0,0.0,7.321690213696489,9.012354545487261,90.23252002931864,447.1153123852318,0.0
0.02,4.789228040135678,-2.550487639134626,10.0,0.0,7.746156124608354,9.363387424241706,94.55063018850957,447.1153123852318,0.0
0.021,4.886987993167787,-2.582055624546566,10.0,0.0,8.166400496880465,9.711987895431271,98.76920846693716,447.1153123852318,0.0
0.022,4.9850265819933774,-2.6096302819560324,10.0,0.0,8.582198011505247,10.057946111488597,102.88010060122933,447.1153123852318,0.0
0.023,5.083645302918397,-2.6327604968096123,10.0,0.0,8.993280173333076,10.401020583989173,106.87388462483403,447.1153123852318,0.0
0.024,5.183171914011198,-2.6509981120397104,10.0,0.0,9.399336401754958,10.740934085411515,110.7388537848431,447.1153123852318,0.0
0.025,5.283960577839974,-2.6639031167009133,10.0,0.0,9.80001553183732,11.077370372623575,114.45867979363815,447.1153123852318,0.0
0.026000000000000002,5.386389499934259,-2.6710471448172752,10.0,0.0,10.194927170678833,11.409971649330577,118.01003253854948,447.1153123852318,0.0
0.027,5.490859436703718,-2.672012488112447,10.0,0.0,10.583642520788207,11.73833655842734,121.36220770577341,447.1153123852318,0.0
0.028,5.5977907687475,-2.6663917386451934,10.0,0.0,10.965694890921968,12.062018764468238,124.47025658191815,447.1153123852318,0.0
0.029,5.707623293801999,-2.653781644360155,10.0,0.0,11.340579341769757,12.38052572248287,127.09901762344224,447.1153123852318,0.0
0.03,5.820881985179893,-2.633665882893857,10.0,0.0,11.707739410515794,12.693310298979787,130.3105355629601,447.1153123852318,0.0
0.031,5.937430869728919,-2.60664577718438,10.0,0.0,12.066690876023532,12.999844634315005,133.37128260990048,447.1153123852318,0.0
0.032,6.0574715902860214,-2.5727817709791587,10.0,0.0,12.416945788888544,13.299581692251689,134.2748444333505,447.1153123852318,0.0
0.033,6.182982791080519,-2.5291975007988263,10.0,0.0,12.757693286602937,13.591764710799373,138.65882317129837,447.1153123852318,0.0
0.034,6.309532605807294,-2.483596175913638,10.0,0.0,13.089004033365091,13.876138809651732,139.76215826612042,447.1153123852318,0.0
0.035,6.444979599265212,-2.423445790629189,10.0,0.0,13.409460586203835,14.151572902161968,142.55491795677258,447.1153123852318,0.0
0.036000000000000004,6.58223360797874,-2.3606459099113373,10.0,0.0,13.719108409983605,14.417765769681143,144.9415724301413,447.1153123852318,0.0
0.037,6.721336854691957,-2.295575146080382,10.0,0.0,14.017880952923086,14.67437531577506,146.55261392482723,447.1153123852318,0.0
0.038,6.869168480147257,-2.2172227783373293,10.0,0.0,14.304469143364585,14.920330715220583,148.26749078404276,447.1153123852318,0.0
0.039,7.019102092787966,-2.1365262448449176,10.0,0.0,14.578900959699753,15.155335012629788,149.37635752091788,447.1153123852318,0.0
0.04,7.176252313921321,-2.0453016459536215,10.0,0.0,14.840162283599206,15.378494873733311,151.22046778940643,447.1153123852318,0.0
0.041,7.332661555385084,-1.9567031225012057,10.0,0.0,15.088779869628214,15.58983136676676,150.2913407532395,447.1153123852318,0.0
0.042,7.490469881710978,-1.867465192619596,10.0,0.0,15.324739159305206,15.78910114561854,150.56131447536976,447.1153123852318,0.0
0.043000000000000003,7.660602056547595,-1.7593505851418598,10.0,0.0,15.54602927037595,15.97490341958408,152.638541259397,447.1153123852318,0.0
0.044,7.826727259926314,-1.6589306464900946,10.0,0.0,15.753805550559255,16.147682026636847,148.94779878612962,447.1153123852318,0.0
0.045,7.994509360256294,-1.5570510308053165,10.0,0.0,15.9478795050907,16.307165622000166,151.61352773814468,447.1153123852318,0.0
0.046,8.173977642803848,-1.436502638254837,10.0,0.0,16.126252896681628,16.45204456320335,150.65833581521971,447.1153123852318,0.0
0.047,8.335655543703336,-1.3460434494151534,10.0,0.0,16.29253181638692,16.584283063171853,149.86542870505266,447.1153123852318,0.0
0.048,8.519436764357225,-1.2189773948380198,10.0,0.0,16.44233402000344,16.7013264498511,148.954052901563,447.1153123852318,0.0
0.049,8.685559124685831,-1.1208926018575123,10.0,0.0,16.57934167524415,16.805210070794466,148.97121832079125,447.1153123852318,0.0
0.05,8.871533975493112,-0.9884404032378424,10.0,0.0,16.69944803313677,16.893610085182047,150.6573108099518,447.1153123852318,0.0
0.051000000000000004,8.98026477654158,-0.9853471526836053,10.0,0.0,16.817368021104112,16.975080094312876,154.14464512480578,447.1153123852318,0.0
0.052000000000000005,9.047191517330582,-1.0445466773561538,10.0,0.0,16.938185891407336,17.053920467851057,155.8934934974448,447.1153123852318,0.0
0.053,9.07862379820375,-1.1530628997844885,10.0,0.0,17.066150801254437,17.134170307577577,159.9794130478786,447.1153123852318,0.0
0.054,9.105726703678831,-1.257298835079888,10.0,0.0,17.199724994747697,17.21652465752263,162.48635428934824,447.1153123852318,0.0
0.055,9.107993156570837,-1.3936145666655206,10.0,0.0,17.342129575007597,17.30402271105913,165.24620102754378,447.1153123852318,0.0
0.056,9.11447259386942,-1.5133145266680774,10.0,0.0,17.490847340879583,17.396321343694048,170.90256407433722,447.1153123852318,0.0
0.057,9.10284163377713,-1.6565559462982455,10.0,0.0,17.648482749987156,17.495606089635814,170.56127954031513,447.1153123852318,0.0
0.058,9.086640856602408,-1.8014051495416892,10.0,0.0,17.814784090938627,17.60239167778245,175.9434663230633,447.1153123852318,0.0
0.059000000000000004,9.076066215587543,-1.9302774584524762,10.0,0.0,17.98786131855736,17.716130043949462,181.93491575122556,447.1153123852318,0.0
0.06,9.048292086100114,-2.083866378368669,10.0,0.0,18.170610718132597,17.838751704095113,184.01088274702047,447.1153123852318,0.0
0.061,9.014130594792803,-2.2439900996149467,10.0,0.0,18.363425063902813,17.97086616093266,187.5143517824008,447.1153123852318,0.0
0.062,8.983535137131916,-2.39252507297471,10.0,0.0,18.56490703063686,18.112074492093086,192.19866717646988,447.1153123852318,0.0
0.063,8.948845970175897,-2.542395207446659,10.0,0.0,18.775361998871873,18.262820040599433,197.8896324350053,447.1153123852318,0.0
0.064,8.905260294489462,-2.7019811623682215,10.0,0.0,18.99590177883066,18.423984063734594,202.3539589905809,447.1153123852318,0.0
0.065,8.85339514579833,-2.8700396694592314,10.0,0.0,19.22739455933789,18.596354972151282,206.5845829163412,447.1153123852318,0.0
0.066,8.800141390321933,-3.0337389483863655,10.0,0.0,19.469301488247137,18.779977329392505,210.111372148688,447.1153123852318,0.0
0.067,8.745563169406712,-3.1921128177821623,10.0,0.0,19.721164092833845,18.974899210546447,214.59825392851283,447.1153123852318,0.0
0.068,8.687743323753224,-3.3480652997966183,10.0,0.0,19.98290365940491,19.181329564856405,219.52832538410965,447.1153123852318,0.0
0.069,8.62496959193525,-3.5043905339492714,10.0,0.0,20.254748555686515,19.399617752435905,224.17366653358738,447.1153123852318,0.0
0.07,8.561482627559567,-3.6534276465430295,10.0,0.0,20.536068611141687,19.629617439648765,228.88138096009328,447.1153123852318,0.0
0.07100000000000001,8.498588650267477,-3.792755129098198,10.0,0.0,20.82609228172777,19.871032631544235,234.0362591122154,447.1153123852318,0.0
0.07200000000000001,8.438358257407147,-3.91895711379319,10.0,0.0,21.123744047935677,20.123305074750473,238.15813338703848,447.1153123852318,0.0
0.073,8.382947495006036,-4.028819904244501,10.0,0.0,21.427680768946125,20.3856083301924,242.1027067288056,447.1153123852318,0.0
0.074,8.334181553813151,-4.12016033345591,10.0,0.0,21.73640296270846,20.656885078098387,246.09239890177565,447.1153123852318,0.0
0.075,8.29483069748034,-4.189610333877557,10.0,0.0,22.048106707639423,20.935747305374687,249.69908927513927,447.1153123852318,0.0
0.076,8.267479299242188,-4.234595506843443,10.0,0.0,22.360780169826953,21.220508829659323,252.90299408732986,447.1153123852318,0.0
0.077,8.255052938174014,-4.252445215954648,10.0,0.0,22.67217605449677,21.509154933469368,255.6396934231981,447.1153123852318,0.0
0.078,8.260443101677966,-4.240984828778214,10.0,0.0,22.97985782140008,21.79935883376927,257.8556050563446,447.1153123852318,0.0
0.079,8.286378411713345,-4.198680418714863,10.0,0.0,23.281252920407855,22.08851153826066,259.49621899699895,447.1153123852318,0.0
0.08,8.335291342915863,-4.124744481991549,10.0,0.0,23.57371387102506,22.373767412871764,260.5188149094627,447.1153123852318,0.0
0.081,8.409199165722201,-4.019178049994825,10.0,0.0,23.854581365889246,22.652103063886813,260.73129216134726,447.1153123852318,0.0
0.082,8.509859734452384,-3.8823283089252976,10.0,0.0,24.121197869170842,22.920358314954516,260.0425580143394,447.1153123852318,0.0
0.083,8.639941001821803,-3.712722823217032,10.0,0.0,24.370690141213817,23.175147357520274,259.66492249670034,447.1153123852318,0.0
0.084,8.797979433947338,-3.515154396520892,10.0,0.0,24.60067561822959,23.413323308173638,260.6467122012039,447.1153123852318,0.0
0.085,8.97682016905065,-3.303598575193634,10.0,0.0,24.81018468653009,23.632588114923138,260.8602553797804,447.1153123852318,0.0
0.08600000000000001,9.183866131842771,-3.067239145986409,10.0,0.0,24.996785349675957,23.829890699271633,258.2719138517523,447.1153123852318,0.0
0.08700000000000001,9.396806231292171,-2.8430230895292175,10.0,0.0,25.162156033023876,24.004770140188352,254.21431032130738,447.1153123852318,0.0
0.088,9.63434428478456,-2.600884680701901,10.0,0.0,25.304084527722242,24.154698920458525,247.74995624415212,447.1153123852318,0.0
0.089,9.903609429034342,-2.327120228015903,10.0,0.0,25.4191203452706,24.276583886838964,247.77403743735854,447.1153123852318,0.0
0.09,10.186942757486106,-2.0480976678009357,10.0,0.0,25.50688624060538,24.36930992364901,243.80022721812932,447.1153123852318,0.0
0.091,10.465293585847174,-1.7934070280870387,10.0,0.0,25.569922405321304,24.433754688476306,237.16506333832575,447.1153123852318,0.0
0.092,10.766746459677027,-1.5149454548208983,10.0,0.0,25.60501556338624,24.467682285454817,237.67848099201063,447.1153123852318,0.0
0.093,11.057505267360044,-1.2643760154878114,10.0,0.0,25.615214142748545,24.472757498435115,229.73700781561467,447.1153123852318,0.0
0.094,11.359805531051597,-1.0024067304482933,10.0,0.0,25.598589458511636,24.447999607124387,225.35772170809182,447.1153123852318,0.0
0.095,11.649846319166896,-0.7646531966297068,10.0,0.0,25.557618257697698,24.395173552465266,223.92742436110606,447.1153123852318,0.0
0.096,11.901587257909286,-0.592992576714406,10.0,0.0,25.49895643864673,24.318741887810162,229.91676262788167,447.1153123852318,0.0
0.097,11.954038549881455,-0.7398188939639962,10.0,0.0,25.456385136131974,24.240834974985958,232.71676925405757,447.1153123852318,0.0
0.098,11.954147492129508,-0.943140515128187,10.0,0.0,25.431177387741826,24.16697415246512,237.00825962707947,447.1153123852318,0.0
0.099,11.893320278795818,-1.2132993330680746,10.0,0.0,25.428788585700367,24.104670720246542,239.52846618752892,447.1153123852318,0.0
0.1,11.81119966171042,-1.484096440124402,10.0,0.0,25.447494414237994,24.05678374679174,247.4139395325334,447.1153123852318,0.0
0.101,11.699233525460052,-1.7735419514959019,10.0,0.0,25.488671997756676,24.027051122352866,250.2015220456189,447.1153123852318,0.0
0.10200000000000001,11.566100201681278,-2.071493416365694,10.0,0.0,25.55263876650156,24.0179345229629,254.63491717264327,447.1153123852318,0.0
0.10300000000000001,11.422953540405482,-2.3621911102839217,10.0,0.0,25.638294430115273,24.030541059888982,259.54692827144925,447.1153123852318,0.0
0.10400000000000001,11.266228602484524,-2.6546339105836343,10.0,0.0,25.745906912154002,24.066260786042363,263.90981544578176,447.1153123852318,0.0
0.105,11.101957597518556,-2.940313054897601,10.0,0.0,25.874830396475733,24.125672348951326,270.805542027022,447.1153123852318,0.0
0.106,10.93360677221218,-3.2140729476026335,10.0,0.0,26.024059485410604,24.20891098473562,278.2754272506678,447.1153123852318,0.0
0.107,10.75245598961723,-3.492167516016365,10.0,0.0,26.194542332628885,24.316991743667344,283.82285753922804,447.1153123852318,0.0
0.108,10.564974258685721,-3.764121413158187,10.0,0.0,26.385918954019967,24.45012419400424,290.4934145590314,447.1153123852318,0.0
0.109,10.378958114027075,-4.016413588661307,10.0,0.0,26.59650375863955,24.607668020049697,294.7359281111781,447.1153123852318,0.0
0.11,10.195986614989916,-4.246687592295098,10.0,0.0,26.824591684046418,24.788782647400062,298.8977385559734,447.1153123852318,0.0
0.111,10.022304821500313,-4.445303308835153,10.0,0.0,27.0675272684307,24.991869886849557,302.7450186471994,447.1153123852318,0.0
0.112,9.85912440806858,-4.61229933995495,10.0,0.0,27.322861424579273,25.21515498833513,306.46378326131327,447.1153123852318,0.0
0.113,9.714437642815552,-4.737150804424543,10.0,0.0,27.587054376042012,25.45592873533052,309.9087465502152,447.1153123852318,0.0
0.114,9.593154183064271,-4.815702610179131,10.0,0.0,27.85629759104632,25.710938715692752,312.6431481183987,447.1153123852318,0.0
0.115,9.500319905403625,-4.844835813652878,10.0,0.0,28.126536616910993,25.976370955464358,314.59098798687637,447.1153123852318,0.0
0.116,9.442223944504331,-4.820377114675852,10.0,0.0,28.393313175244145,26.247746086767588,315.52932463735135,447.1153123852318,0.0
0.117,9.424226788446678,-4.740420330321515,10.0,0.0,28.651998931585094,26.52006008833116,315.42928158382745,447.1153123852318,0.0
0.11800000000000001,9.450930895874482,-4.604667692492647,10.0,0.0,28.897914290130675,26.787893841994823,313.3076840503589,447.1153123852318,0.0
0.11900000000000001,9.526553473536172,-4.413263804350695,10.0,0.0,29.126324586870737,27.045484313678166,311.9552053198516,447.1153123852318,0.0
0.12,9.654459864410669,-4.1670259635627644,10.0,0.0,29.33248077749988,27.28684329064762,312.7779602910938,447.1153123852318,0.0
0.121,9.820870783623427,-3.8940287296832197,10.0,0.0,29.514589929444178,27.50765585177837,311.00261500658513,447.1153123852318,0.0
0.122,10.033452666296869,-3.5858942551289994,10.0,0.0,29.669404602444953,27.702878174088532,308.02826551519814,447.1153123852318,0.0
0.123,10.283099309042143,-3.2592587012582452,10.0,0.0,29.795411474196438,27.86872441959251,302.0486564936484,447.1153123852318,0.0
0.124,10.570277942257224,-2.913523067389971,10.0,0.0,29.89063771913635,28.001493544495023,294.5566231127643,447.1153123852318,0.0
0.125,10.890970290906308,-2.5530370947300383,10.0,0.0,29.95342215141863,28.098104009382034,289.09375934775153,447.1153123852318,0.0
0.126,11.250862265340935,-2.1647103046185734,10.0,0.0,29.98047809977571,28.15495067730726,286.68049180784413,447.1153123852318,0.0
0.127,11.611138027321399,-1.8066413287016267,10.0,0.0,29.97500880063986,28.172786859202162,277.3929361942848,447.1153123852318,0.0
0.128,11.990477678646517,-1.4441953323569168,10.0,0.0,29.93558167976833,28.15016788896802,270.07879957059725,447.1153123852318,0.0
0.129,12.371480043121664,-1.0988607360878095,10.0,0.0,29.86347302833439,28.087751240091137,264.8656484790535,447.1153123852318,0.0
0.13,12.762316543078583,-0.750472966009216,10.0,0.0,29.757464268410192,27.985183399608033,256.7482748615031,447.1153123852318,0.0
0.131,13.132293323736933,-0.4432745499252606,10.0,0.0,29.621491652361673,27.845482386307978,264.3002262763789,447.1153123852318,0.0
0.132,13.278625401883694,-0.5052162402496521,10.0,0.0,29.495031766684512,27.69375745194351,268.2328821867085,447.1153123852318,0.0
0.133,13.273655229320312,-0.7774028976082379,10.0,0.0,29.39536649154483,27.546569062211212,272.4182694826894,447.1153123852318,0.0
0.134,13.202518065911836,-1.10819950275976,10.0,0.0,29.324614664938952,27.411908370187472,278.26766444975846,447.1153123852318,0.0
0.135,13.072769758834431,-1.482883891824235,10.0,0.0,29.285379268536875,27.297199506849957,282.3650450653597,447.1153123852318,0.0
0.136,12.91006298641184,-1.8614375151648113,10.0,0.0,29.276490580118068,27.20663825210169,289.28791045045006,447.1153123852318,0.0
0.137,12.71426582138617,-2.2498163547495422,10.0,0.0,29.29837077118723,27.144154874414966,294.6188696672086,447.1153123852318,0.0
0.138,12.497507551832694,-2.633044787716539,10.0,0.0,29.350085944611326,27.111993291604456,300.840878160362,447.1153123852318,0.0
0.139,12.264092306176304,-3.008354585058276,10.0,0.0,29.43086523578988,27.111727478744065,307.6808671763347,447.1153123852318,0.0
0.14,12.015649097973938,-3.376665067162938,10.0,0.0,29.54030107162264,27.144560776733286,314.0261016290145,447.1153123852318,0.0
0.14100000000000001,11.758169804098603,-3.7302844090028344,10.0,0.0,29.677291676452388,27.210892618751117,320.2020688281752,447.1153123852318,0.0
0.14200000000000002,11.49647828515221,-4.0627910905869875,10.0,0.0,29.840255946556802,27.310501611195484,326.1999159210324,447.1153123852318,0.0
0.14300000000000002,11.23583918167176,-4.366930560332362,10.0,0.0,30.027014963751363,27.442499517599245,331.85309263873893,447.1153123852318,0.0
0.14400000000000002,10.982478439580985,-4.634312494938403,10.0,0.0,30.234668487976045,27.605236825677267,337.0353355006456,447.1153123852318,0.0
0.145,10.743982741971177,-4.855246440162432,10.0,0.0,30.45945930521465,27.796166674686113,341.7030516460643,447.1153123852318,0.0
0.146,10.527560626489686,-5.022220763957095,10.0,0.0,30.69702186179544,28.011904096244823,345.3188747734489,447.1153123852318,0.0
0.147,10.33736327463045,-5.134918177756353,10.0,0.0,30.94312887715402,28.248581518855435,347.4723003423641,447.1153123852318,0.0
0.148,10.188563663122592,-5.175955620087109,10.0,0.0,31.19168007775617,28.500667884488106,348.7837863534964,447.1153123852318,0.0
0.149,10.088886693085191,-5.141875572197463,10.0,0.0,31.436425615170222,28.761877204206765,348.6723458981762,447.1153123852318,0.0
0.15,10.044032855411503,-5.03396524931292,10.0,0.0,31.67128819577632,29.025377298138693,347.63892032258843,447.1153123852318,0.0
