timestamp,iq,id,iq_ref,id_ref,vq,vd,omega,omega_ref,r
0.0,0.0,0.0,0.0,0.0,0.0,0.0,0.0,111.7261387349761,0.0
0.001,0.0,0.0,10.0,0.0,0.0,1.0999999999999999,7.1291941348506205,111.7261387349761,0.0
0.002,0.4593433256841813,-0.2704295708554746,10.0,0.0,0.1397472527941022,1.9394722341747401,12.336543427642674,111.7261387349761,0.0
0.003,0.9998658801424202,-0.5760909639633183,10.0,0.0,0.38038546125957623,2.6541079224778508,17.900036473195055,111.7261387349761,0.0
0.004,1.4964428557228389,-0.8633562661723067,10.0,0.0,0.6969659870207243,3.272125621027936,23.921712037048337,111.7261387349761,0.0
0.005,1.9152639179787212,-1.1033763316903218,10.0,0.0,1.0672197842456577,3.818895055206783,29.83436356832536,111.7261387349761,0.0
0.006,2.2530332369132746,-1.2971659254322656,10.0,0.0,1.4740417998224162,4.315046511229996,35.89111047741815,111.7261387349761,0.0
0.007,2.5214863043800375,-1.4516032832154637,10.0,0.0,1.9048469728625523,4.776112878976569,41.96265049402452,111.7261387349761,0.0
0.008,2.736095495247167,-1.574800485186857,10.0,0.0,2.3506855840123544,5.213230646931779,48.053639973483435,111.7261387349761,0.0
0.009000000000000001,2.910599755257393,-1.67524070305746,10.0,0.0,2.8054685627887497,5.6341711225139965,54.099192949659184,111.7261387349761,0.0
0.01,3.0566766318766523,-1.7588806858030597,10.0,0.0,3.265063287169036,6.044172434587611,60.132037035971265,111.7261387349761,0.0
0.011,3.1826079395157376,-1.831102993550106,10.0,0.0,3.7268067243433745,6.44674141281779,66.1721721021088,111.7261387349761,0.0
0.012,3.2947681462847593,-1.8950463958984372,10.0,0.0,4.188944266804143,6.844149527274182,72.23367894822442,111.7261387349761,0.0
0.013000000000000001,3.397425976140256,-1.9531511489648714,10.0,0.0,4.6503609552782965,7.237859825314596,78.11246391586681,111.7261387349761,0.0
0.014,3.4940597279287227,-2.006046302688933,10.0,0.0,5.110244424088062,7.62873762800021,83.94873444790532,111.7261387349761,0.0
0.015,3.58602355020437,-2.0557591587803037,10.0,0.0,5.568166788918221,8.0173663143658,89.75679512020301,111.7261387349761,0.0
0.016,3.675233844874959,-2.1018497200650303,10.0,0.0,6.023732619082328,8.40403087438684,95.4424398724884,111.7261387349761,0.0
0.017,3.7625419894081453,-2.1446784900173013,10.0,0.0,6.476658581314033,8.788873768470244,101.06498309386716,111.7261387349761,0.0
0.018000000000000002,3.848590312483453,-2.1843226404422293,8.167288879842914,0.0,6.926708805578127,8.970334512058244,105.65889881060032,111.7261387349761,0.0
0.019,3.8513305455716593,-2.170899399028098,5.931003420720089,0.0,7.348027083714806,8.951548972002966,108.54066779490603,111.7261387349761,0.0
0.02,3.7399401252528004,-2.0852814852853343,4.521973637967936,0.0,7.716051241934727,8.856423740821329,111.3559315199514,111.7261387349761,0.0
0.021,3.5561800452902625,-1.9540776172746075,3.118043847595499,0.0,8.024184214870742,8.686371174059095,109.22121422501843,111.7261387349761,0.0
0.022,3.3236979355403156,-1.789254566933314,4.2104517401615595,0.0,8.267680136979495,8.722076758625542,112.25804014413848,111.7261387349761,0.0
0.023,3.159012519320898,-1.6845051618387004,2.686719766509912,0.0,8.480522821277026,8.615817355605518,115.05878955710463,111.7261387349761,0.0
0.024,2.994693225946298,-1.5475768786796629,1.2530185518055492,0.0,8.64744067974625,8.415426615545297,112.04956236003895,111.7261387349761,0.0
0.025,2.7982840222962415,-1.3883222988019903,2.754397914087763,0.0,8.761478957407578,8.451217296803867,111.48903101319932,111.7261387349761,0.0
0.026000000000000002,2.6817124394765233,-1.3094923004981451,3.0370346647253426,0.0,8.860613721413984,8.52176776872369,115.58811975689017,111.7261387349761,0.0
0.027,2.640406735906705,-1.248482483009136,0.948870482660781,0.0,8.950967276270976,8.36603015388318,114.48549025333176,111.7261387349761,0.0
0.028,2.547378922090631,-1.138011268069414,1.4725917192564268,0.0,9.005169978689743,8.323212636342657,111.31700081002703,111.7261387349761,0.0
0.029,2.4726319148550973,-1.0583631801390445,3.0609278201582857,0.0,9.042014081589633,8.466868792189057,111.79734192260783,111.7261387349761,0.0
0.03,2.4867549366162853,-1.043240056179404,2.820045231991567,0.0,9.088672327027918,8.555162294567362,114.4497312580682,111.7261387349761,0.0
0.031,2.5303083314491053,-1.024573185382046,1.4666146390304609,0.0,9.137591973612093,8.488174088693615,114.72460053229541,111.7261387349761,0.0
0.032,2.526629645654834,-0.9623103009436071,1.2991953839436605,0.0,9.168258586370222,8.428735045321421,111.48538209847757,111.7261387349761,0.0
0.033,2.4999204112076803,-0.898519733841482,2.9212121672175657,0.0,9.183520299978472,8.561303835204498,109.3226213559887,111.7261387349761,0.0
0.034,2.5423619899842747,-0.8878951492316036,4.026627712251875,0.0,9.209981922578132,8.782581793571232,111.05820564736624,111.7261387349761,0.0
0.035,2.6560014890412953,-0.9154910852723499,3.1655148974392064,0.0,9.259066977565086,8.866525624173015,112.72510527322343,111.7261387349761,0.0
0.036000000000000004,2.74681107980523,-0.9170909719845312,2.3220754191281343,0.0,9.311537938291451,8.853963702753763,114.17138325499181,111.7261387349761,0.0
0.037,2.787166218862766,-0.8823010801219686,1.5744839830437893,0.0,9.353662723831256,8.770573436974216,112.72953703820076,111.7261387349761,0.0
0.038,2.7775575302551787,-0.8151308498051413,2.2853731084070676,0.0,9.3761951778229,8.786868901614818,111.13490682354475,111.7261387349761,0.0
0.039,2.7886296955102003,-0.7629168222366152,3.088600534849385,0.0,9.393032092150067,8.883720165781416,109.45172886209636,111.7261387349761,0.0
0.04,2.843100640253769,-0.7407715765727655,3.9529336143023786,0.0,9.415956604713841,9.053733277170235,108.32175092735062,111.7261387349761,0.0
0.041,2.9478736289754828,-0.7489268211281611,4.551966459751503,0.0,9.45470850651785,9.255307491569472,107.92941369696548,111.7261387349761,0.0
0.042,3.087552600570778,-0.774655389980476,4.786102325324178,0.0,9.512491229709582,9.446047134479425,108.01725089089267,111.7261387349761,0.0
0.043000000000000003,3.236953020976822,-0.800694163736565,4.779272606801419,0.0,9.586176624297782,9.60536120119561,108.56165884462013,111.7261387349761,0.0
0.044,3.3762317149047987,-0.8147232829768507,4.53871342884125,0.0,9.669707701477654,9.715892536180593,108.33839485336262,111.7261387349761,0.0
0.045,3.488610633316508,-0.8105370925387019,4.6842228632861405,0.0,9.755338032297438,9.831166580867592,108.78505266198813,111.7261387349761,0.0
0.046,3.5917447692675717,-0.7964736404397015,4.490304819703262,0.0,9.84242761667743,9.910469209258803,108.83108202373928,111.7261387349761,0.0
0.047,3.675742570406604,-0.7696348681483847,4.496240705940053,0.0,9.925926875027496,9.98493424440499,109.28184087007804,111.7261387349761,0.0
0.048,3.750307647001061,-0.7363610816456301,4.2953042614196555,0.0,10.005130982264781,10.030778153697954,109.89604815084229,111.7261387349761,0.0
0.049,3.8098632236921945,-0.6949890267357235,4.0065015268788695,0.0,10.07678088153257,10.044393683760983,110.73187079579901,111.7261387349761,0.0
0.05,3.850229353973202,-0.6457200805109391,3.5985328837922803,0.0,10.137621480344253,10.017979408786374,111.57189032255799,111.7261387349761,0.0
0.051000000000000004,3.865396264988357,-0.5898962939338295,3.1800656045369715,0.0,10.18408866471608,9.957074207994319,110.50419409200776,111.7261387349761,0.0
0.052000000000000005,3.8558645555193296,-0.5296107863361041,3.726133166241768,0.0,10.213745442601537,9.972358507450478,107.92935451823486,111.7261387349761,0.0
0.053,3.8752428735937228,-0.48091925279848846,5.051520795295633,0.0,10.237211759030902,10.12718508624557,105.42461150685774,111.7261387349761,0.0
0.054,3.9759094924651945,-0.45947028281325264,6.366907573265374,0.0,10.271941630333842,10.389434763195101,107.0455949390068,111.7261387349761,0.0
0.055,4.159710666237354,-0.47186333612951104,5.603221295150537,0.0,10.331001207766082,10.512561638281428,111.55193626434998,111.7261387349761,0.0
0.056,4.279315702881128,-0.5327796514245196,3.351792657185212,0.0,10.403044379113018,10.377942953914205,112.95938811884875,111.7261387349761,0.0
0.057,4.256094702842604,-0.5558056840232737,2.6357342360970986,0.0,10.45634506532145,10.21148867554904,112.07211059842214,111.7261387349761,0.0
0.058,4.160416405810774,-0.5480423100749074,3.075913277675942,0.0,10.486586023612215,10.132882575098902,111.37821111630748,111.7261387349761,0.0
0.059000000000000004,4.073842921942811,-0.5466990458416685,3.4263422949199582,0.0,10.505872150702722,10.107872882259072,111.36235608004112,111.7261387349761,0.0
0.06,4.01777604984122,-0.5596799941894111,3.4379076396024875,0.0,10.522170032760775,10.090362290247405,112.47524884426869,111.7261387349761,0.0
0.061,3.97863490852037,-0.5829412505621996,2.8739701563957785,0.0,10.537515996129386,10.017828625867422,113.80494543345002,111.7261387349761,0.0
0.062,3.92190812195531,-0.6016390636419988,2.1883337948203767,0.0,10.545898143598185,9.89015083443002,115.3702856375599,111.7261387349761,0.0
0.063,3.8335282344944055,-0.6077764644706232,1.3692222237395955,0.0,10.54116243313672,9.701987647435157,117.06610857100578,111.7261387349761,0.0
0.064,3.704843263999156,-0.5990994572356441,0.46791105865635707,0.0,10.517068130217776,9.454485643525153,117.96741288366867,111.7261387349761,0.0
0.065,3.534625589807516,-0.5739575524261402,-0.04515383916201188,0.0,10.467954217743031,9.199337477061194,117.79043234826752,111.7261387349761,0.0
0.066,3.347338848492888,-0.5411708535520139,-0.01730650759434793,0.0,10.394881762041308,8.991885956249478,117.24160035912078,111.7261387349761,0.0
0.067,3.178257034905881,-0.516930391828053,0.20195487073757246,0.0,10.306032816027692,8.838438752331019,116.58713208164612,111.7261387349761,0.0
0.068,3.0444451405278903,-0.5100568362682585,0.4805790760082038,0.0,10.210210357729252,8.732935913245207,115.95185285667667,111.7261387349761,0.0
0.069,2.9492589810687377,-0.5223232035428858,0.7559615472759238,0.0,10.114837897307883,8.665039300621597,115.4139808125898,111.7261387349761,0.0
0.07,2.888126711457219,-0.5512031058835376,0.9880191485432208,0.0,10.025267147251014,8.622940302707612,114.98745870187503,111.7261387349761,0.0
0.07100000000000001,2.8525804406123774,-0.5920486078685587,1.168667004231617,0.0,9.944647778603377,8.596943584789209,114.6240280548323,111.7261387349761,0.0
0.07200000000000001,2.833572577128601,-0.6402619030033665,1.3214034345544219,0.0,9.874385682473646,8.582214532851271,114.2969498437687,111.7261387349761,0.0
0.073,2.824060482528736,-0.6930118614488145,1.4592344289982924,0.0,9.814997253240746,8.576422473350902,114.05688342966415,111.7261387349761,0.0
0.074,2.819981019441223,-0.7476652827975849,1.5559601891036858,0.0,9.766452837745009,8.574885920538064,114.0420085712982,111.7261387349761,0.0
0.075,2.816355481085139,-0.8038162830789513,1.5402389199234432,0.0,9.728239284335022,8.566309998834345,115.3094680768742,111.7261387349761,0.0
0.076,2.806612808212296,-0.8578771006441259,0.8706758737164626,0.0,9.69837467402502,8.48231103020149,117.73196522952406,111.7261387349761,0.0
0.077,2.7653547457410994,-0.880890391364181,-0.4006309675539508,0.0,9.665087481686284,8.275018335466344,116.33472815513687,111.7261387349761,0.0
0.078,2.6561246602282713,-0.8616684122290234,0.2519016754380372,0.0,9.612055188495837,8.181220578894361,114.50006721980427,111.7261387349761,0.0
0.079,2.561206069974236,-0.8621277847229073,1.1414928582560595,0.0,9.555189099732921,8.19217781641341,114.34957493101798,111.7261387349761,0.0
0.08,2.5187922452812317,-0.8957713624229979,1.1905046406887814,0.0,9.50880154342027,8.196564440357376,116.84819767887738,111.7261387349761,0.0
0.081,2.499263765198799,-0.9353369139326235,-0.11002732267993132,0.0,9.471507180022341,8.05404900704293,116.8418874728927,111.7261387349761,0.0
0.082,2.4331472743657048,-0.9279343846548567,-0.15802970706675268,0.0,9.42248077589711,7.936858267262087,114.32132856938111,111.7261387349761,0.0
0.083,2.3473800690565017,-0.9245520239262581,1.07629784634499,0.0,9.366339903818943,7.971513243441645,114.69360679741806,111.7261387349761,0.0
0.084,2.3177571898006053,-0.9603927157721059,0.8604840517020969,0.0,9.323254916276884,7.963406686515655,117.29573541469074,111.7261387349761,0.0
0.085,2.3026202487094927,-0.9859307805080638,-0.49627622373139113,0.0,9.286118551998927,7.806085628904267,115.02807362776812,111.7261387349761,0.0
0.08600000000000001,2.228939466946746,-0.9709187317109945,0.6045353208019968,0.0,9.23505701237259,7.8033934298622185,114.0420460670672,111.7261387349761,0.0
0.08700000000000001,2.1862130963989403,-0.9923056394640464,1.0743900278315452,0.0,9.191335087145488,7.840503292032291,116.52603054197441,111.7261387349761,0.0
0.088,2.1815646001257796,-1.0241247005985534,-0.2156011276920391,0.0,9.158982568305369,7.723016472169324,115.24594996934412,111.7261387349761,0.0
0.089,2.131087244041174,-1.014607125140658,0.3892410462794218,0.0,9.116751495451252,7.698981657307314,114.55583885384796,111.7261387349761,0.0
0.09,2.09085070454649,-1.0257407683162776,0.7059996028387863,0.0,9.077659924900242,7.705843481911479,115.38366519430076,111.7261387349761,0.0
0.091,2.074198222596426,-1.0418668442518229,0.25551116801913887,0.0,9.044826225785904,7.656818061223932,114.67944744224631,111.7261387349761,0.0
0.092,2.0451265020524585,-1.0431788313963577,0.5780869569736602,0.0,9.010356412340789,7.652431398267234,114.062716028572,111.7261387349761,0.0
0.093,2.0238574871670214,-1.0575077944806142,0.8630868908748592,0.0,8.980457980012336,7.675209529533239,116.31492128893505,111.7261387349761,0.0
0.094,2.022989155741165,-1.072382876701679,-0.30890356484625814,0.0,8.957320173456804,7.560833881279454,113.41914848498357,111.7261387349761,0.0
0.095,1.973611815831312,-1.0518129531756522,1.1220527396294109,0.0,8.922647140321372,7.630129939320852,114.07419274601892,111.7261387349761,0.0
0.096,1.9703326057102766,-1.0782369100373115,0.7710500690013042,0.0,8.90148335079367,7.6359761711449385,115.8377038420218,111.7261387349761,0.0
0.097,1.976582781087459,-1.079499835853626,-0.15182113007058895,0.0,8.88289524567232,7.540395284249516,112.33883683666151,111.7261387349761,0.0
0.098,1.9335018569467728,-1.062653513144747,1.5914853915926979,0.0,8.854742137617427,7.6583075083144285,114.7326236342088,111.7261387349761,0.0
0.099,1.95525030052154,-1.0953478192364285,0.3645271438267246,0.0,8.844960399671686,7.606391588661838,114.67924067789126,111.7261387349761,0.0
0.1,1.950828635544966,-1.076676307555413,0.36168760255634735,0.0,8.828584434209434,7.571350187701022,111.81422059378028,111.7261387349761,0.0
0.101,1.923395337531265,-1.0715034996078776,1.793316826023796,0.0,8.809959631439906,7.69865638641593,115.36039376792336,111.7261387349761,0.0
0.10200000000000001,1.9610776784759638,-1.0987533502140612,-0.016112311377215693,0.0,8.808977140464973,7.593596597149551,113.24054596288065,111.7261387349761,0.0
0.10300000000000001,1.9408108344583748,-1.0626237584604823,1.0286675188650938,0.0,8.793340166061945,7.634570786664366,111.63356616738876,111.7261387349761,0.0
0.10400000000000001,1.9352556366479259,-1.071176297884823,1.8330831422869078,0.0,8.784666383304913,7.748330183380345,115.43126676845044,111.7261387349761,0.0
0.105,1.9830938720461366,-1.087480421096575,-0.10281843857867434,0.0,8.789943846654229,7.623535174147681,112.12108069979449,111.7261387349761,0.0
0.106,1.9558185163722714,-1.0451894939960416,1.5483251761011179,0.0,8.777399019532172,7.716210897074758,111.53000422976011,111.7261387349761,0.0
0.107,1.9694540744722213,-1.0604771700191686,1.845824756170468,0.0,8.77748080104858,7.812805417710019,114.90190525847504,111.7261387349761,0.0
0.108,2.0222729360182345,-1.0669903335307065,0.12811657657801367,0.0,8.787777427702908,7.702152049688468,111.52923390896957,111.7261387349761,0.0
0.109,2.0021159261397887,-1.0240040147017881,1.8164212995908122,0.0,8.78118542818335,7.809229742163926,110.90349557412566,111.7261387349761,0.0
0.11,2.026669294131251,-1.037605290428376,2.137516898621275,0.0,8.787886401381513,7.920475493525261,114.17085313951974,111.7261387349761,0.0
0.111,2.0893613057521616,-1.0469112349318528,0.4793909718787992,0.0,8.805929493534107,7.8290113715399166,111.71477974285585,111.7261387349761,0.0
0.112,2.084537846553493,-1.002880922966164,1.707541260131943,0.0,8.80808547051165,7.901333262571699,109.4893100757814,111.7261387349761,0.0
0.113,2.102719888437424,-1.0031666046350518,2.8426443802611145,0.0,8.81772976699785,8.077170143330516,113.01344814652187,111.7261387349761,0.0
0.114,2.185623775275687,-1.0274454568408014,1.0677022507754255,0.0,8.846661138837252,8.020855493083982,112.96483170315804,111.7261387349761,0.0
0.115,2.2075287904367955,-0.9907201511321974,1.0796235427755194,0.0,8.862785336318058,7.990545695661573,109.53123993927944,111.7261387349761,0.0
0.116,2.2014616525768234,-0.9552162569768721,2.818368412671784,0.0,8.870727959008542,8.156908455814278,109.82400424379671,111.7261387349761,0.0
0.117,2.2621614437544038,-0.9744911280731089,2.6910076053249465,0.0,8.896987870207386,8.269294416305513,112.84558900495266,111.7261387349761,0.0
0.11800000000000001,2.3424491301544488,-0.9807573040298765,1.169020722047206,0.0,8.932356916979758,8.198698175188198,112.018840816664,111.7261387349761,0.0
0.11900000000000001,2.3559553208623156,-0.9339313451554114,1.5794677953746579,0.0,8.951915917727396,8.198384705644786,109.15524505350834,111.7261387349761,0.0
0.12,2.361834930453357,-0.8964043643217772,3.036974613767164,0.0,8.965827963142976,8.35576806727244,108.2917764016664,111.7261387349761,0.0
0.121,2.4278255090147027,-0.9071301165815966,3.503052563021232,0.0,8.995642242736682,8.528297635967075,110.53705801693485,111.7261387349761,0.0
0.122,2.533146432100445,-0.9289816457781838,2.392302562567418,0.0,9.042024461929506,8.548787000455336,112.29421063611882,111.7261387349761,0.0
0.123,2.5937835713060524,-0.9127393477508277,1.508045533964006,0.0,9.083812227576896,8.48008800119046,111.2162971047697,111.7261387349761,0.0
0.124,2.5988515266917664,-0.8567965407492018,2.0521007159406324,0.0,9.108560030943156,8.491175215019899,109.14267746166189,111.7261387349761,0.0
0.125,2.6102398437542593,-0.8118073089690931,3.1147451502276766,0.0,9.127552387929939,8.61387678843181,106.73451543241599,111.7261387349761,0.0
0.126,2.6713837392277036,-0.8016894746437192,4.368742397876228,0.0,9.156252597101245,8.846908747768229,107.1384131034359,111.7261387349761,0.0
0.127,2.79939138866309,-0.833711911283975,4.212670818681678,0.0,9.209009627662745,9.016330283417092,108.14330454575656,111.7261387349761,0.0
0.128,2.931752079745786,-0.8602758436961736,3.7460534394135383,0.0,9.276034916931918,9.111038573104922,109.00895144353109,111.7261387349761,0.0
0.129,3.033412881235252,-0.8628273334543779,3.340401863440726,0.0,9.345843530792237,9.153163981933549,109.42817264751113,111.7261387349761,0.0
0.13,3.0988128677807305,-0.8410835780936874,3.1537709223253536,0.0,9.410466496162128,9.175407432997268,109.52953383189245,111.7261387349761,0.0
0.131,3.139933862963233,-0.8053412245090855,3.1250563791655313,0.0,9.467137288760707,9.19672723555056,109.40248668279135,111.7261387349761,0.0
0.132,3.171899635562087,-0.7639304893467835,3.21181647423793,0.0,9.516075225022746,9.228307867963897,109.01878511615747,111.7261387349761,0.0
0.133,3.206264031105426,-0.7237408424650678,3.4307407937430536,0.0,9.559270677094553,9.28137787917316,108.30930036161705,111.7261387349761,0.0
0.134,3.2529473193147336,-0.6899312845327819,3.8196515547468572,0.0,9.600136430176367,9.369259857236457,107.26949131958004,111.7261387349761,0.0
0.135,3.3218714476830558,-0.6666907516894823,4.384122549919321,0.0,9.64348544272289,9.503528093422116,106.02065383023671,111.7261387349761,0.0
0.136,3.421828041703792,-0.6572555207754305,5.0655961436383805,0.0,9.695120907561217,9.687715808542634,105.51359518288228,111.7261387349761,0.0
0.137,3.5586090215901214,-0.6605327965721686,5.381250902836532,0.0,9.760466450074546,9.872509244362254,106.03133692486988,111.7261387349761,0.0
0.138,3.710446569467532,-0.6681643723328012,5.179328049943798,0.0,9.838563482494202,10.004655508973409,107.21132621118477,111.7261387349761,0.0
