timestamp,iq,id,iq_ref,id_ref,vq,vd,omega,omega_ref,r
0.0,0.0,0.0,0.0,0.0,0.0,0.0,0.0,79.42175145517378,0.0
0.001,0.0,0.0,10.0,0.0,0.0,1.0999999999999999,10.673601804795547,79.42175145517378,0.0
0.002,0.4660490821331313,-0.28395897990484936,10.0,0.0,0.14123548778953338,1.938734600965355,20.325676948212447,79.42175145517378,0.0
0.003,1.1669009209029204,-0.6751845411633948,10.0,0.0,0.39241610883604044,2.6352860791697825,27.725260089385902,79.42175145517378,0.0
0.004,1.948394724132039,-1.1242169069394667,10.0,0.0,0.7336151202211221,3.2083446716909134,37.185321572747235,79.42175145517378,0.0
0.005,2.719367901833669,-1.5708433456161388,10.0,0.0,1.142638674316482,3.6812251945835515,46.708892866259404,79.42175145517378,0.0
0.006,3.4246125982779994,-1.975453731380383,10.0,0.0,1.5980888033388692,4.077852835764602,55.707460437567605,79.42175145517378,0.0
0.007,4.031094057378385,-2.3250670770865165,10.0,0.0,2.082068047747156,4.420702212193185,64.92784831311266,79.42175145517378,0.0
0.008,4.529250434771995,-2.613685690655364,8.644235378601264,0.0,2.5801862193929836,4.579798080143586,72.60711526297258,79.42175145517378,0.0
0.009000000000000001,4.861379437416778,-2.80369128632975,4.872748265593316,0.0,3.0624165900577633,4.339937615729654,76.08095202665433,79.42175145517378,0.0
0.01,4.897223188463512,-2.8188501782219517,3.169237878037637,0.0,3.47220529936607,4.021993440733851,78.19227071050726,79.42175145517378,0.0
0.011,4.681865924414536,-2.694710803454839,2.1258733435578376,0.0,3.7954138001006603,3.7031352958070953,80.05877170670311,79.42175145517378,0.0
0.012,4.295999949923712,-2.4655308205238287,1.1862526429446179,0.0,4.030447231894376,3.3958508682773183,78.88361207892441,79.42175145517378,0.0
0.013000000000000001,3.8040560947765707,-2.1693843106108437,1.77921385059646,0.0,4.1809645614946245,3.267675330849003,79.84466969475251,79.42175145517378,0.0
0.014,3.3162774427172823,-1.8950650045885453,1.2944558602866245,0.0,4.276398945828694,3.156852302287994,81.83377049223198,79.42175145517378,0.0
0.015,2.8736527788165405,-1.6155988976729376,0.27578527117630935,0.0,4.323209510172762,3.003259756625946,78.46246017085399,79.42175145517378,0.0
0.016,2.447448367997494,-1.3509204393279437,1.9710333447085024,0.0,4.323659794167424,3.1088277544952394,78.81602724189268,79.42175145517378,0.0
0.017,2.14845103767062,-1.181537927696083,1.800307051321965,0.0,4.318636557853495,3.196779270196997,81.9278561001269,79.42175145517378,0.0
0.018000000000000002,1.9612894940015162,-1.0525910277497135,0.21933157575532425,0.0,4.310420462863353,3.1208310678190516,79.35024168259126,79.42175145517378,0.0
0.019,1.7873547210362275,-0.9248557794351142,1.5088538822489705,0.0,4.282669748819289,3.2265744942393457,77.99491740669646,79.42175145517378,0.0
0.02,1.6934315525263555,-0.8667310655614812,2.2007843606811446,0.0,4.263152082778706,3.390777836982239,81.29781181551348,79.42175145517378,0.0
0.021,1.6965496112246738,-0.8568734024328296,0.530576552669235,0.0,4.261503421811056,3.344684697039238,81.28754276183668,79.42175145517378,0.0
0.022,1.6900792632632393,-0.8168437598808037,0.5170531664410101,0.0,4.2511056288964335,3.3189934294515298,77.40389585944622,79.42175145517378,0.0
0.023,1.6681632837505451,-0.7910669214973791,2.479055173593512,0.0,4.236743332717847,3.513133018246968,79.73205073310444,79.42175145517378,0.0
0.024,1.732681889514368,-0.823981316183243,1.3118747439850948,0.0,4.247109576835943,3.5310963447874064,82.03946793388236,79.42175145517378,0.0
0.025,1.798336044890123,-0.8320142742356706,0.13198897880904914,0.0,4.258790010635179,3.423607562178634,79.42023837939745,79.42175145517378,0.0
0.026000000000000002,1.803880286945288,-0.8021823270298999,1.4416188868092712,0.0,4.255191679020458,3.483940523670139,77.83488296874673,79.42175145517378,0.0
0.027,1.8271947010190202,-0.8031585250391513,2.250165276998902,0.0,4.258392177969434,3.6112150165643166,80.4686241018207,79.42175145517378,0.0
0.028,1.9004958622375532,-0.8281438367740228,0.9228259839954487,0.0,4.276738698623673,3.5641593403383984,81.47489203675528,79.42175145517378,0.0
0.029,1.942330545135909,-0.8153953395530777,0.39916061071234155,0.0,4.286892811778243,3.4754452821627537,78.66531431249751,79.42175145517378,0.0
0.03,1.9355779196560374,-0.7782250115621862,1.8115138442679861,0.0,4.283198856693004,3.558374686175854,77.3439825394062,79.42175145517378,0.0
0.031,1.960752502152089,-0.7764879018083937,2.49295741997132,0.0,4.28834785872459,3.690640284941564,80.24377946646523,79.42175145517378,0.0
0.032,2.0388685803336153,-0.7980261308622643,1.034838676328891,0.0,4.308595096723052,3.634645703701155,81.23811133866867,79.42175145517378,0.0
0.033,2.080399331603708,-0.78065109105484,0.5195091413922188,0.0,4.319091516128273,3.5403830211201273,78.68147281921861,79.42175145517378,0.0
0.034,2.0722800571851527,-0.7371861158754287,1.805231187476801,0.0,4.314504628463207,3.6044873968551383,76.98474916848978,79.42175145517378,0.0
0.035,2.0906452851899724,-0.7235236033220607,2.677963035708055,0.0,4.315718640509072,3.7427645612700178,78.60366408918055,79.42175145517378,0.0
0.036000000000000004,2.1648355915758297,-0.7421040946081063,1.8766864490226023,0.0,4.332819446958837,3.762490386007887,80.63301744624695,79.42175145517378,0.0
0.037,2.234851295826081,-0.7444152577192464,0.8498971105786712,0.0,4.350251178266778,3.6700598231512993,79.86525497982832,79.42175145517378,0.0
0.038,2.2529026060398696,-0.7087330249568109,1.2293433085414414,0.0,4.352748522923289,3.639336977790494,77.51535405317684,79.42175145517378,0.0
0.039,2.2536872695229553,-0.6715303377777327,2.423357745887154,0.0,4.34818837531599,3.73957747767882,76.17357597126734,79.42175145517378,0.0
0.04,2.296803392451863,-0.668605437298261,3.126728541680966,0.0,4.354158580277305,3.890033629094096,78.12818420979208,79.42175145517378,0.0
0.041,2.396350615331777,-0.6956022897167863,2.1623600948724118,0.0,4.377576282654848,3.9024079154695954,80.07142187604525,79.42175145517378,0.0
0.042,2.481976829686534,-0.702169573538379,1.1842445575371132,0.0,4.400342076128378,3.809514107456278,80.08154707070901,79.42175145517378,0.0
0.043000000000000003,2.511382226357199,-0.6690171536038204,1.1725840040498823,0.0,4.407829470422204,3.7343064225911773,77.98153805718472,79.42175145517378,0.0
0.044,2.503924836484703,-0.6186073618905443,2.2369906447919155,0.0,4.401833803911023,3.7856839485111466,75.9822695160598,79.42175145517378,0.0
0.045,2.5224081863358556,-0.5914355684566698,3.2710197347455154,0.0,4.399090657282364,3.9323155462931254,75.72071694651238,79.42175145517378,0.0
0.046,2.6016633797907476,-0.6038077986881937,3.4388063646058384,0.0,4.412917648354574,4.063592670237611,77.11893911547122,79.42175145517378,0.0
0.047,2.7216438303438775,-0.6348008983899466,2.762723403523445,0.0,4.44177517137889,4.0946724912509085,78.60919543383937,79.42175145517378,0.0
0.048,2.8291576689026834,-0.6508581402818813,2.025720804552712,0.0,4.472311289813199,4.040593908453414,79.3285341183569,79.42175145517378,0.0
0.049,2.889863871148339,-0.6354499527178534,1.666983635662119,0.0,4.492530465073365,3.957283189329409,78.9963387314295,79.42175145517378,0.0
0.05,2.9033408768585964,-0.5915198988984254,1.8373354563632596,0.0,4.497718426850619,3.9057761230041788,77.76536974439641,79.42175145517378,0.0
0.051000000000000004,2.8955549554255393,-0.5381715155184459,2.46938376698758,0.0,4.491807864184018,3.9287515768656,76.48379880260649,79.42175145517378,0.0
0.052000000000000005,2.905122455090033,-0.49816962042906576,3.1395487644082145,0.0,4.484919178544189,4.015105811506823,75.2927749347234,79.42175145517378,0.0
0.053,2.956364492514726,-0.4828584351275024,3.7763504635542633,0.0,4.486070573500186,4.149941341931725,74.88824923686214,79.42175145517378,0.0
0.054,3.0585516720032127,-0.4980628116008561,4.02394833466801,0.0,4.5024159752681605,4.281548038271305,75.27879985952907,79.42175145517378,0.0
0.055,3.1974453291639535,-0.531013144429132,3.8701025392909885,0.0,4.53375999933967,4.367973158458313,75.83319675148682,79.42175145517378,0.0
0.056,3.3428924082126663,-0.5636108613219355,3.628789640348983,0.0,4.573868378552655,4.409273965980174,76.5323497200338,79.42175145517378,0.0
0.057,3.4727507434113307,-0.5828675378726029,3.308107173426891,0.0,4.615888257848176,4.4047636422177705,76.83309320050928,79.42175145517378,0.0
0.058,3.5697395665004716,-0.5817936687384568,3.183622015735798,0.0,4.652944424467639,4.3850496088965425,76.8465228622265,79.42175145517378,0.0
0.059000000000000004,3.6354475451784065,-0.5627752701196753,3.202659470806666,0.0,4.682242285936308,4.368093577780407,76.701750451823,79.42175145517378,0.0
0.06,3.6797414175036365,-0.5319942775071587,3.3022456860419185,0.0,4.70371903294531,4.362311798878926,76.46123493514983,79.42175145517378,0.0
0.061,3.7141328699563125,-0.4960176255677806,3.452108609578743,0.0,4.718820305576056,4.371404810958649,76.14083068961783,79.42175145517378,0.0
0.062,3.748970628611997,-0.4604492919480734,3.6451199400003045,0.0,4.729768001972925,4.397343027276879,75.75650544360177,79.42175145517378,0.0
0.063,3.7927568606607234,-0.4296148908804853,3.873935023124055,0.0,4.739178649580692,4.440553629503566,75.36080179886704,79.42175145517378,0.0
0.064,3.8517820867926993,-0.4064299656790824,4.112396342054485,0.0,4.749727294888874,4.498271917965441,75.03561489749262,79.42175145517378,0.0
0.065,3.929153090687925,-0.3920612582893295,4.318851158318507,0.0,4.763644195951567,4.563678100544531,74.81116888800284,79.42175145517378,0.0
0.066,4.023753297807755,-0.3855840248358464,4.477179988735108,0.0,4.782141216559913,4.629654665410938,74.7518674960465,79.42175145517378,0.0
0.067,4.131377693918085,-0.3843619475638731,4.553529524304549,0.0,4.805316535428684,4.686805754959074,74.96295802765914,79.42175145517378,0.0
0.068,4.244455290489131,-0.38444938507283477,4.492572192773375,0.0,4.831911270264094,4.721728173953435,76.17574198245406,79.42175145517378,0.0
0.069,4.350360347261323,-0.38187199255735016,3.918640310103115,0.0,4.859054385963608,4.682776110474254,77.59716964747467,79.42175145517378,0.0
0.07,4.396814885182836,-0.3970318938437285,3.226172295669798,0.0,4.88128134681191,4.575950453548339,78.68131171502017,79.42175145517378,0.0
0.07100000000000001,4.379471284820898,-0.3923396087619011,2.691505659298584,0.0,4.8899352955109245,4.432513749962373,79.1605993189798,79.42175145517378,0.0
0.07200000000000001,4.299384305887594,-0.3657763287525806,2.454473378680707,0.0,4.880505141031234,4.2921953587796935,79.14200573284022,79.42175145517378,0.0
0.073,4.175924180080678,-0.325307732165939,2.466567628973836,0.0,4.853800250056807,4.181446225655164,78.92959859223495,79.42175145517378,0.0
0.074,4.035739029022778,-0.28287111820707644,2.5776927279058572,0.0,4.814427593297761,4.105390100483536,78.55483480353695,79.42175145517378,0.0
0.075,3.900620078009953,-0.24860502759789216,2.7737437887712275,0.0,4.7680416858700365,4.066917920959867,78.15704894306235,79.42175145517378,0.0
0.076,3.787700925891979,-0.22996174998811347,2.9852837441296414,0.0,4.7207390516017345,4.0600331703494135,77.8154411423545,79.42175145517378,0.0
0.077,3.706270795462543,-0.23053389489148812,3.172150747611758,0.0,4.677727574414685,4.075374725028683,77.5829513272144,79.42175145517378,0.0
0.078,3.6582257405794656,-0.25024338916597255,3.306783656461401,0.0,4.642713723335426,4.1022925811928035,77.50361969510396,79.42175145517378,0.0
0.079,3.639525109245938,-0.28596764380383655,3.365630790117318,0.0,4.617625616047924,4.129720741144097,77.6282255272442,79.42175145517378,0.0
0.08,3.6417183994630227,-0.33237228913999606,3.3212631333264975,0.0,4.602536403924905,4.146000092550749,77.81083862989156,79.42175145517378,0.0
0.081,3.6529528883672535,-0.38275508048293805,3.2460657102556367,0.0,4.595662108749211,4.150100686757252,77.92449656758139,79.42175145517378,0.0
0.082,3.6637644110888283,-0.43218651830116905,3.2042092902866495,0.0,4.594818932758314,4.148174637449324,77.9161377464127,79.42175145517378,0.0
0.083,3.6698602740154644,-0.4787676056244685,3.2234448379586023,0.0,4.598497074663095,4.14832892022199,77.80519724345574,79.42175145517378,0.0
0.084,3.671673692024976,-0.5233708202619181,3.295080631554265,0.0,4.60626337339155,4.156384653374889,77.7431953460017,79.42175145517378,0.0
0.085,3.6721128941021917,-0.5682906038139661,3.342867141373005,0.0,4.618553759606801,4.168921423181054,78.16127273476403,79.42175145517378,0.0
0.08600000000000001,3.6721508809013015,-0.6139433790747211,3.1464332341959387,0.0,4.6354413916243065,4.1593481732133295,79.13126348615738,79.42175145517378,0.0
0.08700000000000001,3.661450628377646,-0.6533533550871886,2.6643427381894256,0.0,4.6535615050520525,4.102532803600776,80.54014985927863,79.42175145517378,0.0
0.088,3.621597208706194,-0.6757786595536661,1.9487155675877528,0.0,4.666260753906957,3.9835897721247586,81.82610636004955,79.42175145517378,0.0
0.089,3.5344849582476487,-0.6679875759771206,1.2816937681535339,0.0,4.664714502490684,3.82077865580381,81.23732811984478,79.42175145517378,0.0
0.09,3.3932400617912846,-0.6301849710948926,1.5579271216092114,0.0,4.6429613888826635,3.7258157289534117,79.55485311416261,79.42175145517378,0.0
0.091,3.2412945006330425,-0.5927502897593411,2.397833607860405,0.0,4.610147505052315,3.743102726143167,78.53499891100034,79.42175145517378,0.0
0.092,3.1327594858523105,-0.5837173471505022,2.9166282348832735,0.0,4.581724432450363,3.8144673753552136,78.73448488014613,79.42175145517378,0.0
0.093,3.0818761035831272,-0.6070697104675067,2.823757916060658,0.0,4.565939221420767,3.864961392946946,79.90582364348734,79.42175145517378,0.0
0.094,3.0652939974091735,-0.6462900641467966,2.2332478125069173,0.0,4.560862648524858,3.8461152773303056,81.33151214120018,79.42175145517378,0.0
0.095,3.043859220800928,-0.6772984256261787,1.5013059567902327,0.0,4.557427837582816,3.7562296172576075,81.44488512772057,79.42175145517378,0.0
0.096,2.9870411856052543,-0.684448988441769,1.4243881268045704,0.0,4.545824420022626,3.6798831354621577,80.21776892631271,79.42175145517378,0.0
0.097,2.9072266976045222,-0.6826971628921261,2.029986052797107,0.0,4.527482489600296,3.685607323577397,79.46756600732789,79.42175145517378,0.0
0.098,2.8458826981812186,-0.696237013576019,2.404629366767979,0.0,4.513054072862446,3.730029380172304,80.1937529097981,79.42175145517378,0.0
0.099,2.8163407894929007,-0.7277919729441715,2.033815900986627,0.0,4.507846350481532,3.72666664501976,81.72262963057759,79.42175145517378,0.0
0.1,2.7910186976264804,-0.7559890831638696,1.2463687588428494,0.0,4.505609259353937,3.6426983711848004,81.82259563131596,79.42175145517378,0.0
0.101,2.734077426116671,-0.7595653980766987,1.1723773167122387,0.0,4.495310473493821,3.572648947355062,80.4550447927849,79.42175145517378,0.0
0.10200000000000001,2.6560109239886884,-0.7559276740104587,1.8458198026016572,0.0,4.478600711040331,3.5914110777104096,80.08125730082904,79.42175145517378,0.0
0.10300000000000001,2.60055692707661,-0.7708574766492423,2.0261184901230376,0.0,4.46711679339865,3.6250437241923783,81.32351163285269,79.42175145517378,0.0
0.10400000000000001,2.570965654153287,-0.7976886184619972,1.3859737223344242,0.0,4.46294665974235,3.584646302982467,82.29205691557857,79.42175145517378,0.0
0.105,2.5307468805278766,-0.8088895531595787,0.8729980263674344,0.0,4.456117588729294,3.5019738840189945,81.10743022969758,79.42175145517378,0.0
0.106,2.460984515820022,-0.8038411174035901,1.448454581562689,0.0,4.441036845641064,3.502587450263322,80.38466021954338,79.42175145517378,0.0
0.107,2.4030895051593344,-0.8130962078224655,1.8002104989960968,0.0,4.428594077789725,3.540240998465714,81.52659635569104,79.42175145517378,0.0
0.108,2.37300105918516,-0.8365582917852515,1.2081939819170922,0.0,4.423649219875477,3.5069763179602598,82.44382815836964,79.42175145517378,0.0
0.109,2.3358631984539513,-0.8456814376983596,0.7193573135458333,0.0,4.416641304912922,3.432476031584569,81.11127499550219,79.42175145517378,0.0
0.11,2.271939356126257,-0.840415741963385,1.3687386595762767,0.0,4.402213694819076,3.4477055411459876,80.7019165653471,79.42175145517378,0.0
0.111,2.224565142337391,-0.8524527231266633,1.560616223552084,0.0,4.392128521576067,3.4791539824124134,82.22114920214395,79.42175145517378,0.0
0.112,2.200396576533378,-0.8736057889577393,0.7730059276839607,0.0,4.388403177213787,3.4200779541431956,82.30850431933325,79.42175145517378,0.0
0.113,2.1571549571042254,-0.8722579103288961,0.7004608404477137,0.0,4.378782967153327,3.370948030106532,80.65910502872059,79.42175145517378,0.0
0.114,2.0977361011037012,-0.8687741673505153,1.5127869500185773,0.0,4.364842052753915,3.4219540583584136,81.3656502033323,79.42175145517378,0.0
0.115,2.069994315661444,-0.8887818186259907,1.1400753752311399,0.0,4.359631511689719,3.4198012658614814,82.91873501370509,79.42175145517378,0.0
0.116,2.048947275725138,-0.9002524654179225,0.3285631344594293,0.0,4.355788440116607,3.33384122430938,81.31400626258727,79.42175145517378,0.0
0.117,1.993757365200199,-0.889029471849804,1.1120049619442036,0.0,4.342384435785184,3.3562470229446,80.69937478945997,79.42175145517378,0.0
0.11800000000000001,1.9547778563610767,-0.8989019771293032,1.4065444651649934,0.0,4.3337596172668515,3.4033726152296495,82.72544784243672,79.42175145517378,0.0
0.11900000000000001,1.944768899494588,-0.9186107423603792,0.36047097480398627,0.0,4.3327790789514795,3.3276208776293648,82.1012625842723,79.42175145517378,0.0
0.12,1.9056761353671572,-0.9089967360732902,0.6457684925952094,0.0,4.3230667923637265,3.3053898363035685,80.49530103539884,79.42175145517378,0.0
0.121,1.8595388705894837,-0.907418140988008,1.4380137712296919,0.0,4.3120251249056585,3.373388847407725,82.1455747692935,79.42175145517378,0.0
0.122,1.8508270325354235,-0.927916220448038,0.5856386711411625,0.0,4.311158099995267,3.3322970063977477,82.44163188747895,79.42175145517378,0.0
0.123,1.828706621173016,-0.9253606642074117,0.40741130772538847,0.0,4.305782501493852,3.286492514892204,80.97355628975532,79.42175145517378,0.0
0.124,1.7868977693606665,-0.9185916381207464,1.125931058241386,0.0,4.295644976384894,3.329928128463724,81.67901634770058,79.42175145517378,0.0
0.125,1.7705608436308342,-0.9288299591427391,0.7506283803434881,0.0,4.292058670717269,3.320916909405425,82.36239621177033,79.42175145517378,0.0
0.126,1.7551720172920284,-0.9294208068720613,0.3795320007426477,0.0,4.287892483750585,3.27691000834905,80.80583130126114,79.42175145517378,0.0
0.127,1.721887607724241,-0.9203608307028142,1.1439736575363717,0.0,4.278739719519021,3.328194121534033,81.35412552077787,79.42175145517378,0.0
0.128,1.713053116815515,-0.9342926353071235,0.8505028071219638,0.0,4.277253741297278,3.33414728676812,83.01055746668122,79.42175145517378,0.0
0.129,1.7115181137915185,-0.9374194237308712,-0.013601225944785522,0.0,4.2767163061016875,3.247320307946978,80.58661028623033,79.42175145517378,0.0
0.13,1.6713928881800626,-0.9164636063987294,1.1867237759700968,0.0,4.265213508752767,3.314197498816715,80.67763429419973,79.42175145517378,0.0
0.131,1.6620068565408326,-0.929284029074523,1.1286529435951327,0.0,4.263168514893373,3.3554768605083933,83.25871533158093,79.42175145517378,0.0
0.132,1.6763264020204225,-0.9385306429686379,-0.20025721385953688,0.0,4.26634487989068,3.2451553673295526,80.70525550823562,79.42175145517378,0.0
0.133,1.6404139477461932,-0.9113377383300231,1.0636376572824982,0.0,4.255087773421184,3.3025947627934586,79.88801007905639,79.42175145517378,0.0
0.134,1.6285836803917075,-0.9195527298704554,1.467597785633291,0.0,4.251875895260861,3.3859033783374426,83.08314659345051,79.42175145517378,0.0
0.135,1.6587304792341115,-0.9365914901448648,-0.1665844229465374,0.0,4.259108180185749,3.2733258497374966,81.12964177270985,79.42175145517378,0.0
0.136,1.635945389787668,-0.9099251304823495,0.7930890842484328,0.0,4.251255796592534,3.2974430381948117,79.61127815732925,79.42175145517378,0.0
0.137,1.6201674690313925,-0.9082940915917084,1.550375624917175,0.0,4.2466876195230245,3.393575774237412,82.39761531132613,79.42175145517378,0.0
