timestamp,iq,id,iq_ref,id_ref,vq,vd,omega,omega_ref,r
0.0,0.0,0.0,0.0,0.0,0.0,0.0,0.0,459.60587835098164,0.0
0.001,0.0,0.0,10.0,0.0,0.0,1.0999999999999999,11.0342664729786,459.60587835098164,0.0
0.002,0.6107601100974311,-0.3556760156748863,10.0,0.0,0.14912436172423746,1.9228163878892826,22.981748247796094,459.60587835098164,0.0
0.003,1.4436215535992805,-0.8274431934887696,10.0,0.0,0.41395555546775775,2.5927564154778304,34.81234987372007,459.60587835098164,0.0
0.004,2.3022061586544593,-1.3137624102069698,10.0,0.0,0.7680750746566439,3.1360698675608263,46.937090983733576,459.60587835098164,0.0
0.005,3.07763814809294,-1.7533591757322904,10.0,0.0,1.1846064391755444,3.583752253566729,59.28543944748004,459.60587835098164,0.0
0.006,3.7217139257566116,-2.117873532728325,10.0,0.0,1.6399535174574562,3.9652255217753125,71.60352472452921,459.60587835098164,0.0
0.007,4.225097427231156,-2.401817447066075,10.0,0.0,2.115501901739226,4.305154743605666,83.79284073126628,459.60587835098164,0.0
0.008,4.601121187501303,-2.612517871007104,10.0,0.0,2.5978259772659906,4.622317103066189,95.78956402667917,459.60587835098164,0.0
0.009000000000000001,4.873799697843522,-2.763128435700926,10.0,0.0,3.078094039063042,4.929761235598395,107.47107989201888,459.60587835098164,0.0
0.01,5.069546908013041,-2.868590051572122,10.0,0.0,3.5511743800325006,5.23568235304186,119.09929778423069,459.60587835098164,0.0
0.011,5.213972856888423,-2.9404110331070754,10.0,0.0,4.014384490459494,5.544390010563329,130.37588727462298,459.60587835098164,0.0
0.012,5.32706348653706,-2.9897022497215904,10.0,0.0,4.4668481796081805,5.8575522036027525,141.29033192014344,459.60587835098164,0.0
0.013000000000000001,5.42421336828875,-3.02399275411887,10.0,0.0,4.908660762463499,6.175088965556904,151.8337666279559,459.60587835098164,0.0
0.014,5.516501708007596,-3.0475127063638703,10.0,0.0,5.340290052931676,6.4958730910496145,161.96269611938217,459.60587835098164,0.0
0.015,5.611268746367758,-3.0620795387813255,10.0,0.0,5.762201978945776,6.818240242217444,171.6199512704173,459.60587835098164,0.0
0.016,5.713044648008166,-3.0677508736857257,10.0,0.0,6.174637605990559,7.140314192073057,180.74338408764802,459.60587835098164,0.0
0.017,5.82447075942364,-3.0633862006203327,10.0,0.0,6.57750023793019,7.460185196408288,189.2675851407983,459.60587835098164,0.0
0.018000000000000002,5.9470446090048075,-3.0471600052113463,10.0,0.0,6.970322472345044,7.775986501164185,197.12602233203276,459.60587835098164,0.0
0.019,6.0816547293999,-3.016995558336756,10.0,0.0,7.35228678659189,8.085908524138329,204.2537302064458,459.60587835098164,0.0
0.02,6.228917841305901,-2.970904604074211,10.0,0.0,7.722278511211329,8.388181935134039,210.30328727654896,459.60587835098164,0.0
0.021,6.3888173156437364,-2.9081245109782756,10.0,0.0,8.079053503770467,8.681110866434015,216.18860590224966,459.60587835098164,0.0
0.022,6.56336410194943,-2.8249715117135183,10.0,0.0,8.420924861215525,8.962823252109656,220.62961180340315,459.60587835098164,0.0
0.023,6.751458834843594,-2.7232734104247904,10.0,0.0,8.74642506033453,9.231606582206947,224.81747486884709,459.60587835098164,0.0
0.024,6.954244858899561,-2.601624623937793,10.0,0.0,9.053889187050682,9.485636083889187,228.14199038287074,459.60587835098164,0.0
0.025,7.171135710767008,-2.4615899354750557,10.0,0.0,9.341822523397411,9.723178914609962,229.75422363413247,459.60587835098164,0.0
0.026000000000000002,7.401760942456846,-2.304444247847014,10.0,0.0,9.608831130427085,9.942560928926124,232.61311372108594,459.60587835098164,0.0
0.027,7.644980306214729,-2.1325040829411273,10.0,0.0,9.853735116922046,10.142257724817169,233.94126891704232,459.60587835098164,0.0
0.028,7.900002866459138,-1.9472382011728615,10.0,0.0,10.075458539011162,10.320854951779296,235.09650720416107,459.60587835098164,0.0
0.029,8.164372709212603,-1.7523924340412327,10.0,0.0,10.273288966020782,10.477234341153691,235.89776037893503,459.60587835098164,0.0
0.03,8.43576937002143,-1.5510676155482273,10.0,0.0,10.446777016903965,10.610548900030166,236.25578533590428,459.60587835098164,0.0
0.031,8.716469787755965,-1.3380959618518973,10.0,0.0,10.594834084864813,10.719717728764605,236.22135919265057,459.60587835098164,0.0
0.032,8.986537921066867,-1.1451015182718653,10.0,0.0,10.719902656646173,10.80587489093483,244.02632014824522,459.60587835098164,0.0
0.033,9.159810948513563,-1.1145554701888583,10.0,0.0,10.839649966613099,10.87956384238014,247.67662468878436,459.60587835098164,0.0
0.034,9.263190150640842,-1.1882349122155276,10.0,0.0,10.96320163983162,10.94821964771808,254.24747679637494,459.60587835098164,0.0
0.035,9.326532140129018,-1.3091071233063132,10.0,0.0,11.093822875061804,11.016431213021647,264.2386158694872,459.60587835098164,0.0
0.036000000000000004,9.34966889661406,-1.4734416898758629,10.0,0.0,11.235071223511069,11.088972121999406,272.7604652588094,459.60587835098164,0.0
0.037,9.339053884541086,-1.6697303754948272,10.0,0.0,11.389397237765577,11.169782793817197,281.7424433502911,459.60587835098164,0.0
0.038,9.299366163036723,-1.891165157558722,10.0,0.0,11.558766656947249,11.262204499123404,291.1832225715405,459.60587835098164,0.0
0.039,9.234417919466694,-2.133197633200556,10.0,0.0,11.74485052924134,11.369068405394819,301.5523668394627,459.60587835098164,0.0
0.04,9.148088383812217,-2.3911299450170267,10.0,0.0,11.948964634476555,11.492701074754793,312.74181502167414,459.60587835098164,0.0
0.041,9.044245925916234,-2.6597006400717,10.0,0.0,12.171994049462095,11.634941262714307,324.77560955778023,459.60587835098164,0.0
0.042,8.9260856813371,-2.9340422657567506,10.0,0.0,12.414436413619839,11.797219575701169,337.1051228145626,459.60587835098164,0.0
0.043000000000000003,8.796259213151211,-3.2095739359918793,10.0,0.0,12.67642744012951,11.980613602859771,349.6850209558111,459.60587835098164,0.0
0.044,8.6584509991958,-3.4794509751407103,10.0,0.0,12.957489924308097,12.185727968806718,362.0686616849103,459.60587835098164,0.0
0.045,8.516960174774264,-3.7356999961464403,10.0,0.0,13.256446218582662,12.412623055123644,373.92632564525724,459.60587835098164,0.0
0.046,8.377763495523752,-3.967956214820867,10.0,0.0,13.571182085905592,12.660620988709677,385.06830128180343,459.60587835098164,0.0
0.047,8.249718887364384,-4.162044979778738,10.0,0.0,13.89827136181345,12.927985655774423,394.34812735130396,459.60587835098164,0.0
0.048,8.137593648307321,-4.312728600831656,10.0,0.0,14.23402248750324,13.212376113938161,402.71497816430065,459.60587835098164,0.0
0.049,8.056328692612855,-4.4002227631831525,10.0,0.0,14.572755068088561,13.509720531590329,409.16125087875514,459.60587835098164,0.0
0.05,8.017245912440066,-4.413349216275808,10.0,0.0,14.907917800597248,13.814690221797875,413.2812748070973,459.60587835098164,0.0
0.051000000000000004,8.0310620393871,-4.344816494454959,10.0,0.0,15.2323913649446,14.120768614469632,415.01312431477953,459.60587835098164,0.0
0.052000000000000005,8.107507559859865,-4.191150570986675,10.0,0.0,15.53880748776108,14.42041567832641,414.3676427229901,459.60587835098164,0.0
0.053,8.253706444683553,-3.9540904138127413,10.0,0.0,15.82000674662715,14.705422225953289,411.4420768207958,459.60587835098164,0.0
0.054,8.473190496635596,-3.640612719295898,10.0,0.0,16.069474789544184,14.967366787837598,406.43861513553713,459.60587835098164,0.0
0.055,8.765456077799179,-3.2619951375857617,10.0,0.0,16.281677327314995,15.198109324416702,399.68777648023945,459.60587835098164,0.0
0.056,9.12593714699492,-2.832439279994882,10.0,0.0,16.452268896448746,15.390267599315079,391.6206331026401,459.60587835098164,0.0
0.057,9.546187637890785,-2.3678585025791374,10.0,0.0,16.578208809219134,15.537646460330409,381.9778663683719,459.60587835098164,0.0
0.058,10.013880184757914,-1.8856489929731088,10.0,0.0,16.657895378531517,15.635637751274823,373.040494163692,459.60587835098164,0.0
0.059000000000000004,10.518112103014984,-1.3963306769432582,10.0,0.0,16.690409500339875,15.681009984516423,366.47447718583857,459.60587835098164,0.0
0.06,11.042118705495417,-0.9160184203654542,10.0,0.0,16.676268268228295,15.672497999524424,376.8956304581639,459.60587835098164,0.0
0.061,11.494455770008553,-0.5842849410761062,10.0,0.0,16.631002400672628,15.618906078748823,380.77284481295095,459.60587835098164,0.0
0.062,11.670734281438008,-0.6999237428333325,10.0,0.0,16.600941530781146,15.551279497683106,391.7477996589283,459.60587835098164,0.0
0.063,11.72486685946365,-0.9739061048078548,10.0,0.0,16.596105761571877,15.48321768926629,405.1485118976671,459.60587835098164,0.0
0.064,11.670126433712596,-1.3596583586839384,10.0,0.0,16.62464031274847,15.428041257383102,418.96066836813924,459.60587835098164,0.0
0.065,11.525631031759481,-1.8136785062541565,10.0,0.0,16.69088845931305,15.396583013763221,432.9001534754561,459.60587835098164,0.0
0.066,11.306283859071181,-2.30809000471474,10.0,0.0,16.797211030214147,15.397578644137973,446.4875764066495,459.60587835098164,0.0
0.067,11.026604875373986,-2.821171972573112,10.0,0.0,16.944495808542428,15.437678185045163,460.14394510790925,459.60587835098164,0.0
0.068,10.702336876082269,-3.331907164217469,6.004746797853533,0.0,17.13211211453089,15.081891087543474,468.1959459093916,459.60587835098164,0.0
0.069,10.107992186010062,-3.687565059570102,1.892845721528266,0.0,17.29940309674268,14.430222979931504,469.6931507643423,459.60587835098164,0.0
0.07,9.180795138413645,-3.8027566094822927,1.043370569919297,0.0,17.393912661508914,13.90417575372306,467.91007496127594,459.60587835098164,0.0
0.07100000000000001,8.135332472738245,-3.750147112239927,1.8518665053495376,0.0,17.419427586981904,13.643342433773832,465.50332026218615,459.60587835098164,0.0
0.07200000000000001,7.1998397120118005,-3.6180916656744966,2.996269435782386,0.0,17.402307683762885,13.621392878383286,462.4605013661645,459.60587835098164,0.0
0.073,6.506992100551805,-3.4618721158725743,4.489132653641372,0.0,17.36884121931417,13.819555522523395,458.30476221349,459.60587835098164,0.0
0.074,6.1306590433441315,-3.312781778749714,6.5800133913535515,0.0,17.343699924138832,14.244091664952608,453.79366137999983,459.60587835098164,0.0
0.075,6.105492456225762,-3.2149182980246067,8.89368597780845,0.0,17.354252293215417,14.856260234765234,453.7118963587561,459.60587835098164,0.0
0.076,6.445819593964868,-3.1542176329148073,8.993508308352562,0.0,17.419267844010786,15.35842326397708,450.40395313004916,459.60587835098164,0.0
0.077,6.98493258216672,-3.0500993266828456,10.0,0.0,17.517152135613376,15.87068825079823,444.9560857785211,459.60587835098164,0.0
0.078,7.681913557256415,-2.895883557480974,10.0,0.0,17.64055194518794,16.260173473803206,437.2662794059529,459.60587835098164,0.0
0.079,8.44080613293549,-2.6545604887642105,10.0,0.0,17.765556916238722,16.546541781891342,427.6921489281056,459.60587835098164,0.0
0.08,9.212132036384943,-2.3213746013256498,10.0,0.0,17.872461004062163,16.73951683265309,416.71078536976313,459.60587835098164,0.0
0.081,9.969505324318341,-1.9097746689967359,10.0,0.0,17.946028054497646,16.84828698448283,404.61850647996744,459.60587835098164,0.0
0.082,10.697915968583164,-1.4459073437544565,10.0,0.0,17.97620600861918,16.880985388183348,392.0798246028052,459.60587835098164,0.0
0.083,11.392248793198133,-0.9535394114146616,10.0,0.0,17.957114208393666,16.84433924266097,400.87111960822375,459.60587835098164,0.0
0.084,12.01632650490822,-0.5108011821803453,10.0,0.0,17.89248944774609,16.747743311626316,412.04114699836606,459.60587835098164,0.0
0.085,12.241737110040075,-0.6455753425772892,10.0,0.0,17.843920109995814,16.63579010818297,424.1346358017335,459.60587835098164,0.0
0.08600000000000001,12.303426256454609,-0.95725166044314,10.0,0.0,17.8219490390375,16.525643591254642,438.21257764837776,459.60587835098164,0.0
0.08700000000000001,12.2260576928687,-1.39266448970436,10.0,0.0,17.83593907152226,16.433442052381917,452.92055066650903,459.60587835098164,0.0
0.088,12.034837206637423,-1.9080200064878792,10.0,0.0,17.891644925424853,16.372120238494524,467.7408923210578,459.60587835098164,0.0
0.089,11.752356486633051,-2.46990956784392,2.674226600665177,0.0,17.992302309129776,15.545826791797467,473.4963388480943,459.60587835098164,0.0
0.09,10.955482509754123,-2.8095863802052405,-0.3424012678241972,0.0,18.032010163540676,14.63848842685676,473.0926281531443,459.60587835098164,0.0
0.091,9.78038113599938,-2.9471817616518576,-0.275413418370821,0.0,17.988752119851934,13.984682037320216,471.963888550791,459.60587835098164,0.0
0.092,8.523625659029406,-2.9846050049661565,0.16537628080772393,0.0,17.88717984452853,13.566239559512702,469.9509986203558,459.60587835098164,0.0
0.093,7.376009814795192,-2.9752571484298165,1.0683700433315932,0.0,17.75251805230456,13.388075706935501,467.19298433527365,459.60587835098164,0.0
0.094,6.462117647529002,-2.9589400024216848,2.371506126029743,0.0,17.611804646549743,13.437629071822125,464.42313282245306,459.60587835098164,0.0
0.095,5.85357538431021,-2.957249225636154,3.708259337725326,0.0,17.49009510387274,13.659967979385542,461.7617849007394,459.60587835098164,0.0
0.096,5.563832389961631,-2.9662906325986436,5.017374233084562,0.0,17.403801868753508,14.004323455043638,458.19688020913344,459.60587835098164,0.0
0.097,5.568232684990535,-2.974152770089948,6.813916560306038,0.0,17.36134792576643,14.48676110426809,454.52339034468366,459.60587835098164,0.0
0.098,5.851863322581406,-2.9908226450535746,8.701486372593907,0.0,17.37313820687159,15.075221483166152,453.06915580555625,459.60587835098164,0.0
0.099,6.403763260268485,-2.986196298314195,9.493970867611866,0.0,17.44191990086507,15.616439761844337,448.89228787037143,459.60587835098164,0.0
0.1,7.116988763104903,-2.9260446010926104,10.0,0.0,17.55137483010005,16.085216935731438,442.563922114375,459.60587835098164,0.0
0.101,7.917291908546605,-2.7809455570470405,10.0,0.0,17.681402605927435,16.43210050285922,434.1093008428286,459.60587835098164,0.0
0.10200000000000001,8.732652242549834,-2.529549632631632,10.0,0.0,17.806913399639615,16.67561188557103,423.9149900589583,459.60587835098164,0.0
0.10300000000000001,9.528937780578891,-2.1779668602270994,10.0,0.0,17.908064106531423,16.827885403539703,412.46717710163875,459.60587835098164,0.0
0.10400000000000001,10.290917027951677,-1.7478257333063483,10.0,0.0,17.970527398293676,16.89919177856998,400.5024846464151,459.60587835098164,0.0
0.105,11.0117350531998,-1.269567156386529,10.0,0.0,17.98556796619077,16.89794365496989,388.5880450554991,459.60587835098164,0.0
0.106,11.689459546651033,-0.772338796654263,10.0,0.0,17.94906713113678,16.830982886492365,399.8606721541257,459.60587835098164,0.0
0.107,12.165808940945901,-0.5393301104433972,10.0,0.0,17.88886163085457,16.72144692291927,417.817924080001,459.60587835098164,0.0
0.108,12.314392664867128,-0.7514333878076114,10.0,0.0,17.849384531615442,16.60526328998687,430.85830857519267,459.60587835098164,0.0
0.109,12.307738306792778,-1.121993526012277,10.0,0.0,17.840877361435858,16.498968127051192,444.7773081772238,459.60587835098164,0.0
0.11,12.176070823317012,-1.5939942181061921,10.0,0.0,17.87080586672895,16.41686864299271,459.364347104715,459.60587835098164,0.0
0.111,11.941469934317267,-2.131355289995259,7.0257699927936095,0.0,17.943921284073745,16.043296080031908,470.4480577548337,459.60587835098164,0.0
0.112,11.444122571759834,-2.6074803944356697,1.3754928736957428,0.0,18.019368054157535,15.174966333064276,473.66680129292246,459.60587835098164,0.0
0.113,10.483718575297733,-2.8673339975925027,-0.37448812476803717,0.0,18.02425981783902,14.365690065147009,472.9534763392669,459.60587835098164,0.0
0.114,9.265362755099195,-2.965927917344107,-0.15130162782311096,0.0,17.95598157350175,13.804296025295413,471.53452787880724,459.60587835098164,0.0
0.115,8.044364217688397,-2.9848108948010834,0.43888610712846354,0.0,17.839482937935788,13.477028631783675,469.0842223176376,459.60587835098164,0.0
0.116,6.982256508634575,-2.9713490914729,1.56925544804671,0.0,17.70023779843459,13.393898726839824,466.29035111141616,459.60587835098164,0.0
0.117,6.187635558216404,-2.9610272101479334,2.8993463235530994,0.0,17.56560339347666,13.516950828792218,463.54871411827554,459.60587835098164,0.0
0.11800000000000001,5.706979325585689,-2.9652110366130318,4.230736462450468,0.0,17.457301078934165,13.792312262662419,460.50816269453696,459.60587835098164,0.0
0.11900000000000001,5.539248336051868,-2.972539298374581,5.741989330884204,0.0,17.388129409762062,14.195875082352504,455.75021117354896,459.60587835098164,0.0
0.12,5.657114220125031,-2.9889722228455593,8.159521763152531,0.0,17.367965528550375,14.788337934878161,454.98109997651073,459.60587835098164,0.0
0.121,6.088727534640331,-3.0146219817223985,8.590325145416355,0.0,17.41172146494416,15.29645235600047,451.93958985527036,459.60587835098164,0.0
0.122,6.695492857093628,-2.979849206686513,10.0,0.0,17.497831746968085,15.846459076506779,446.99343054000934,459.60587835098164,0.0
0.123,7.457454580126404,-2.889621024507961,10.0,0.0,17.620754300550963,16.25823126830994,439.75914123867653,459.60587835098164,0.0
0.124,8.267835605398842,-2.699261955695795,10.0,0.0,17.752524602208315,16.55959620074144,430.51892458942694,459.60587835098164,0.0
0.125,9.075925255509423,-2.402218738203647,10.0,0.0,17.87048320370707,16.763215618836075,419.74003883413536,459.60587835098164,0.0
0.126,9.857363351657018,-2.0124832530743806,10.0,0.0,17.957107415676116,16.880391661195997,407.8265716004094,459.60587835098164,0.0
0.127,10.601608241484948,-1.5563430653621029,10.0,0.0,18.000508744887192,16.920459963597235,396.0248249337605,459.60587835098164,0.0
0.128,11.303781832613389,-1.0654839285594713,10.0,0.0,17.994143668246114,16.891064922553607,382.20845354516746,459.60587835098164,0.0
0.129,11.966608921484882,-0.5609994070480986,10.0,0.0,17.93489088916656,16.798083634085657,403.93203336953655,459.60587835098164,0.0
0.13,12.251736751139624,-0.6038940456042112,10.0,0.0,17.88202851460445,16.683739406183236,422.917126680691,459.60587835098164,0.0
0.131,12.33520480702901,-0.8853481765904263,10.0,0.0,17.853548962731235,16.569213155763563,436.89941271442353,459.60587835098164,0.0
0.132,12.272414595070098,-1.3059515611929027,10.0,0.0,17.859916571999786,16.471033179072915,451.1393091716649,459.60587835098164,0.0
0.133,12.094674471343282,-1.8107090909670425,10.0,0.0,17.907146717101543,16.402231472468536,465.8160687188989,459.60587835098164,0.0
0.134,11.823103974053707,-2.367275863995469,3.8349510564395146,0.0,17.99894844676807,15.694972920707714,473.24599344568094,459.60587835098164,0.0
0.135,11.10421029331329,-2.745491235501031,-0.016412457898487887,0.0,18.0468821714272,14.781983499856592,473.48358779923285,459.60587835098164,0.0
0.136,9.976321236428547,-2.9140619915915957,-0.273986729156956,0.0,18.0134842109902,14.092145718311368,472.49470616551076,459.60587835098164,0.0
0.137,8.726314745747473,-2.970623843192697,0.09156580955879612,0.0,17.918978364557596,13.63696026425435,470.7314294117243,459.60587835098164,0.0
0.138,7.557849723572712,-2.972346327155238,0.8619486758445909,0.0,17.788028412082422,13.414960448396467,468.0664278381497,459.60587835098164,0.0
0.139,6.6014912247194,-2.958665759894201,2.1098439677602174,0.0,17.646451386030634,13.42514505697684,465.19523462417635,459.60587835098164,0.0
0.14,5.938737536994715,-2.956285514505685,3.489547012014949,0.0,17.519925502121936,13.62278120470403,462.5455750165223,459.60587835098164,0.0
0.14100000000000001,5.596093664801373,-2.9661447743804352,4.7849798491865565,0.0,17.426924142416944,13.947765019977991,459.0020185040149,459.60587835098164,0.0
0.14200000000000002,5.55261033502401,-2.9753251442066713,6.562796703909921,0.0,17.376632548291976,14.414912570955487,455.1002397643374,459.60587835098164,0.0
0.14300000000000002,5.793613361384914,-2.994856086773085,8.558742459615125,0.0,17.3801414686613,15.0051469058056,453.8781847698544,459.60587835098164,0.0
0.14400000000000002,6.313972869430952,-3.001032046488561,9.227046892667905,0.0,17.442806976621736,15.53543321366493,450.04146338015994,459.60587835098164,0.0
0.145,6.997658395857673,-2.948283272609436,10.0,0.0,17.54637043984821,16.027297426183896,444.1170958787009,459.60587835098164,0.0
