timestamp,iq,id,iq_ref,id_ref,vq,vd,omega,omega_ref,r
0.0,0.0,0.0,0.0,0.0,0.0,0.0,0.0,152.2923048571626,0.0
0.001,0.0,0.0,10.0,0.0,0.0,1.0999999999999999,6.207561376186357,152.2923048571626,0.0
0.002,0.40142909999504006,-0.21809300545538632,10.0,0.0,0.1339902306000925,1.9458427990005447,13.086202185942573,152.2923048571626,0.0
0.003,0.8420747891451932,-0.47007151358308796,10.0,0.0,0.36470242387972335,2.676043606354478,19.529710393621077,152.2923048571626,0.0
0.004,1.2387755576266317,-0.697180472341873,10.0,0.0,0.6678256789489742,3.317064924659525,26.17189309467421,152.2923048571626,0.0
0.005,1.570341996240623,-0.8857408115601211,10.0,0.0,1.023209288068224,3.8917911360782673,33.03944517771735,152.2923048571626,0.0
0.006,1.8395544827932688,-1.0386175958371295,10.0,0.0,1.415458000295711,4.41828537813241,40.07624128317167,152.2923048571626,0.0
0.007,2.0574575608114727,-1.1621016524504704,10.0,0.0,1.8331857438905614,4.910077853487411,47.114482714974805,152.2923048571626,0.0
0.008,2.235620547677114,-1.2632244556535757,10.0,0.0,2.2682086284476353,5.377044957891358,54.14726695026128,152.2923048571626,0.0
0.009000000000000001,2.3843540921585165,-1.3473239156054384,10.0,0.0,2.7146656475520703,5.82623858028632,61.17472912619081,152.2923048571626,0.0
0.01,2.5114418952062825,-1.4190518576403606,10.0,0.0,3.1684454060098797,6.262666219461788,68.27070424699957,152.2923048571626,0.0
0.011,2.623014514978793,-1.4813119435663444,10.0,0.0,3.626621282570966,6.689826960420994,75.34632941548035,152.2923048571626,0.0
0.012,2.723133801500711,-1.536859254557398,10.0,0.0,4.087183248921618,7.110191819620701,82.42861865938433,152.2923048571626,0.0
0.013000000000000001,2.8152087950910607,-1.5867797243452026,10.0,0.0,4.548661283123926,7.525449333105782,89.31763674658623,152.2923048571626,0.0
0.014,2.900960338684873,-1.6330012754045686,10.0,0.0,5.010102431173161,7.93681697880317,96.09419739225426,152.2923048571626,0.0
0.015,2.982636632373848,-1.675114490009797,10.0,0.0,5.470706467083195,8.345065097865895,102.85314800855528,152.2923048571626,0.0
0.016,3.0613818414246183,-1.7135636493308755,10.0,0.0,5.9298831866877615,8.750703598554656,109.54148022857932,152.2923048571626,0.0
0.017,3.1380278273172375,-1.7486320150035324,10.0,0.0,6.3871791130315305,9.154052314777315,116.12502041248938,152.2923048571626,0.0
0.018000000000000002,3.2133993861093675,-1.7801488903666374,10.0,0.0,6.842196490996405,9.555271340403879,122.59394210903162,152.2923048571626,0.0
0.019,3.288164490867934,-1.8079005890580533,10.0,0.0,7.294571551829874,9.954399755328753,128.93460859831944,152.2923048571626,0.0
0.02,3.3629262867781997,-1.8315919613838347,10.0,0.0,7.7439504820414005,10.351376688341938,135.14639139558375,152.2923048571626,0.0
0.021,3.4382792455244355,-1.8508331071817363,10.0,0.0,8.189968824847607,10.74605261357198,141.4876896065249,152.2923048571626,0.0
0.022,3.5154579763734146,-1.8641118310643034,8.693728257929092,0.0,8.6321211740653,10.99443675812591,146.70041684403577,152.2923048571626,0.0
0.023,3.542215953132399,-1.8453572028120977,6.143283519304922,0.0,9.052700906470047,10.992539929183273,151.43123553012117,152.2923048571626,0.0
0.024,3.467045637357005,-1.7610075902505913,3.7864848695326367,0.0,9.421942071640812,10.807683666789545,147.58065755730988,152.2923048571626,0.0
0.025,3.2902687250438274,-1.6300367931658353,5.758890328936811,0.0,9.722210202501424,10.937463491381143,151.44709830034665,152.2923048571626,0.0
0.026000000000000002,3.2197664132993773,-1.5167776311734111,3.834122022986583,0.0,9.994280702886815,10.858831063519833,154.1229018700077,152.2923048571626,0.0
0.027,3.102549385191969,-1.411649040966941,2.477914268027611,0.0,10.220849357144743,10.69752260847158,149.2103097280117,152.2923048571626,0.0
0.028,2.9664115384523746,-1.269080386128498,4.965030290317113,0.0,10.393999034341892,10.875949697215662,154.72583794955455,152.2923048571626,0.0
0.029,2.9496734474734305,-1.1949033410577368,2.1829308486217753,0.0,10.560942664284337,10.723426757535952,149.95955142068038,152.2923048571626,0.0
0.03,2.8612992261574828,-1.0945363700329191,4.589401647423678,0.0,10.685641040902542,10.904937040538591,154.1039837227154,152.2923048571626,0.0
0.031,2.8876238230044895,-1.029925916807163,2.499068707750636,0.0,10.809917128014604,10.822985353684398,149.6976909255473,152.2923048571626,0.0
0.032,2.8504291819242633,-0.9587930381385268,4.728161245650843,0.0,10.906391925608752,11.032114609279882,153.6367695946836,152.2923048571626,0.0
0.033,2.917805730836211,-0.9134675711987671,2.7451772637074785,0.0,11.009857696426343,10.981775888891345,148.57640868985527,152.2923048571626,0.0
0.034,2.9190854240107673,-0.8543809731899161,5.312516677794724,0.0,11.091896747011747,11.249587792232365,153.7390634494136,152.2923048571626,0.0
0.035,3.0241593884664586,-0.8358144326828334,2.716721712093045,0.0,11.191061629397018,11.176066230771385,147.88642469510646,152.2923048571626,0.0
0.036000000000000004,3.0452379578593423,-0.7696672745513141,5.687099890867183,0.0,11.265867345408271,11.471244960028544,152.14893375702735,152.2923048571626,0.0
0.037,3.1621634143699366,-0.7720342716485009,3.5572790709080873,0.0,11.363632204006121,11.467751301455637,149.32455750010266,152.2923048571626,0.0
0.038,3.2271231608146413,-0.7109147775595857,4.999144672941034,0.0,11.444524396566141,11.648310601479206,148.22597582736094,152.2923048571626,0.0
0.039,3.31643691896755,-0.7030521078656706,5.589098799609908,0.0,11.535129601147077,11.860204572737295,151.34660934499,152.2923048571626,0.0
0.04,3.4496170073654255,-0.6842902470120551,4.038238995917112,0.0,11.635878504398768,11.869718875512532,147.4168617615718,152.2923048571626,0.0
0.041,3.5219254483402893,-0.6294229271029024,6.051867218582116,0.0,11.721656161021343,12.11874221324224,146.77230761111724,152.2923048571626,0.0
0.042,3.646182660767397,-0.6313576417302644,6.429344266269846,0.0,11.82451987756273,12.359881966923004,149.62386102699384,152.2923048571626,0.0
0.043000000000000003,3.803108121523124,-0.6267311869319323,5.030251996633236,0.0,11.940682940643965,12.413499968194058,149.44754783635568,152.2923048571626,0.0
0.044,3.9058390962881457,-0.5790186320649504,5.1468561621603826,0.0,12.0453893810568,12.490458703933895,145.25976834328264,152.2923048571626,0.0
0.045,3.990874916223217,-0.5324392680092442,7.311071273835701,0.0,12.142674446504879,12.798763200324837,149.64373087403723,152.2923048571626,0.0
0.046,4.110978576849626,-0.6076304441654392,5.1455757482896605,0.0,12.269798278064979,12.813758050225118,155.7475223783034,152.2923048571626,0.0
0.047,4.1459669216388075,-0.6493902946264571,2.059127820945175,0.0,12.389550883248251,12.519463800218405,156.43749502606047,152.2923048571626,0.0
0.048,4.033988994227194,-0.6180939193926072,1.6726895953776522,0.0,12.464038603132192,12.267597965654877,154.5579536375241,152.2923048571626,0.0
0.049,3.8695562760425295,-0.597108596451658,2.589803801842228,0.0,12.503895545800212,12.170082251229069,158.4048387534565,152.2923048571626,0.0
0.05,3.7484381740931445,-0.6102078535658588,0.6052359049130915,0.0,12.531665994270828,11.870508855818379,159.61536567927251,152.2923048571626,0.0
0.051000000000000004,3.58604573425206,-0.5758459069655546,-0.07325816621602055,0.0,12.522791251656134,11.565533163303938,157.41867851445872,152.2923048571626,0.0
0.052000000000000005,3.392820557509424,-0.5561199597359501,0.9738216796179158,0.0,12.482480179322213,11.431762134575775,161.5705233391251,152.2923048571626,0.0
0.053,3.2610460941091857,-0.5680681108254282,-1.194882917534894,0.0,12.434334667441009,11.070871736548485,158.45041538095373,152.2923048571626,0.0
0.054,3.078831934454967,-0.5366454399512393,0.3035899563128748,0.0,12.351338691638137,10.946500702158545,159.90602584162377,152.2923048571626,0.0
0.055,2.9537609509067533,-0.5623640872503741,-0.500352483866759,0.0,12.267348487888208,10.73478444306284,159.60617620847196,152.2923048571626,0.0
0.056,2.836216715217189,-0.564114066801068,-0.42356638080394804,0.0,12.170520989881286,10.564005841330784,159.50926045241147,152.2923048571626,0.0
0.057,2.723526939599155,-0.5905674326006174,-0.4472780587261882,0.0,12.069190751944292,10.40846663733026,159.29830464876616,152.2923048571626,0.0
0.058,2.63108186783427,-0.607181317264275,-0.4118601548195713,0.0,11.964002611055953,10.271523476282994,159.8233103881766,152.2923048571626,0.0
0.059000000000000004,2.5432030935941583,-0.6412566003524448,-0.7496730798349271,0.0,11.859221110444784,10.108984430909628,158.97356626044314,152.2923048571626,0.0
0.06,2.457064552209499,-0.658354789789909,-0.3916136300010029,0.0,11.75020390336463,10.003582260554278,159.76830956873044,152.2923048571626,0.0
0.061,2.384049683858158,-0.6942736771335776,-0.8637453312603358,0.0,11.645328295670392,9.849473754994387,158.50869025924533,152.2923048571626,0.0
0.062,2.306346422171982,-0.7103461470418764,-0.2960995305386045,0.0,11.536938181006061,9.775268104415005,159.77209581999796,152.2923048571626,0.0
0.063,2.2475110365051454,-0.7483422599290938,-1.0026002205432736,0.0,11.435985360468736,9.619947333325888,157.84643941160496,152.2923048571626,0.0
0.064,2.174578198114531,-0.7600054180016579,-0.09531336189119921,0.0,11.330498731135346,9.58436417701003,159.44670869570805,152.2923048571626,0.0
0.065,2.132921372333705,-0.7963498135509767,-0.9669920423281995,0.0,11.235883701033403,9.44068607240981,157.39483547708755,152.2923048571626,0.0
0.066,2.06717871534993,-0.8102890562977814,0.007919260782800919,0.0,11.13753223622829,9.424686429416402,157.59238053558923,152.2923048571626,0.0
0.067,2.0388807339205606,-0.8388131661258704,-0.14385402525230218,0.0,11.050414213257968,9.376462781134249,158.92296921874447,152.2923048571626,0.0
0.068,2.0074967947309625,-0.8721261878097766,-0.8754550104457413,0.0,10.970564819043412,9.248560573368911,156.78510947129627,152.2923048571626,0.0
0.069,1.950779393821681,-0.8782110852333631,0.1485468171370239,0.0,10.886246351973536,9.251344932552819,157.19316919176862,152.2923048571626,0.0
0.07,1.9313688548352024,-0.8993726660173791,-0.10449168644521212,0.0,10.812905092441042,9.208912740720889,157.50747037810396,152.2923048571626,0.0
0.07100000000000001,1.9061838241838727,-0.9198339743219375,-0.3137939348222969,0.0,10.744693867784264,9.14547302781503,156.7406810732383,152.2923048571626,0.0
0.07200000000000001,1.8722806380121448,-0.9303775014190043,0.025116955449773215,0.0,10.677914969200215,9.124406884320154,156.17800151677892,152.2923048571626,0.0
0.073,1.8510938809429844,-0.9421711831192547,0.2675997670833028,0.0,10.616899215841132,9.124044977109218,155.66491248824974,152.2923048571626,0.0
0.074,1.840851471491502,-0.9583619460589536,0.4904182050370216,0.0,10.563611894203232,9.140617682811012,155.074277216231,152.2923048571626,0.0
0.075,1.8436653077145029,-0.9713366996463726,0.7579161174557099,0.0,10.518575890564524,9.176989025686314,156.3176708535963,152.2923048571626,0.0
0.076,1.8577931297103654,-0.9846071789733682,0.09596563880872244,0.0,10.483010626767305,9.128204180077539,156.56053883267975,152.2923048571626,0.0
0.077,1.836006744207198,-0.9935019478014215,-0.06815069048817746,0.0,10.446969124566756,9.071845781839041,153.69356026370733,152.2923048571626,0.0
0.078,1.8080216601466368,-0.980199205869664,1.351326039932589,0.0,10.407343683461631,9.178163172235223,154.0311627054283,152.2923048571626,0.0
0.079,1.8397750855979125,-0.9851840847954288,1.1651362405894448,0.0,10.382993889607791,9.23143790660907,156.80581988605684,152.2923048571626,0.0
0.08,1.8650756102032828,-1.0004677012176781,-0.26732750001376626,0.0,10.368037897593908,9.118775551235153,153.19079176445402,152.2923048571626,0.0
0.081,1.828057568402034,-0.9835828126745159,1.5312016917147293,0.0,10.34130109534005,9.232371670537592,151.948893680081,152.2923048571626,0.0
0.082,1.8635086730115384,-0.9756611355071974,2.155584845672055,0.0,10.327895049638855,9.37836155077737,155.40853130070732,152.2923048571626,0.0
0.083,1.9275420641145158,-0.9933922414143923,0.39460377092344556,0.0,10.332458234953215,9.301770926685895,153.21131928041808,152.2923048571626,0.0
0.084,1.9147846074374746,-0.9851134962439334,1.4840196368355123,0.0,10.327818066299171,9.372784893678322,150.26860117846064,152.2923048571626,0.0
0.085,1.9445636032297486,-0.9649412179267326,2.9756157246012513,0.0,10.32860714804659,9.586011593997291,154.4954697764808,152.2923048571626,0.0
0.08600000000000001,2.0327849953308275,-0.982335996602579,0.840149776397989,0.0,10.352755140088675,9.518770754105894,152.2721960499355,152.2923048571626,0.0
0.08700000000000001,2.0322212788335268,-0.9712341296741421,1.9519877277429107,0.0,10.366369095788528,9.605269854273537,149.59827417792945,152.2923048571626,0.0
0.088,2.0749867451588417,-0.943552511242874,3.315888970538266,0.0,10.384337606577,9.818681358727677,154.36673346619622,152.2923048571626,0.0
0.089,2.1653535131561537,-0.9584227531504703,0.9109150403145456,0.0,10.423762959526192,9.724849729246237,149.72697797971438,152.2923048571626,0.0
0.09,2.1608036679469973,-0.9302176658109623,3.256446052329951,0.0,10.446611352205897,9.927806099284775,151.27920672328008,152.2923048571626,0.0
0.091,2.2459499771158407,-0.9140040578221834,2.490462661885923,0.0,10.485969096616119,9.995626596057765,151.87023052338412,152.2923048571626,0.0
0.092,2.293496247414639,-0.9131035129137444,2.1991715051716882,0.0,10.52823619240257,10.031839997619175,147.14450262286422,152.2923048571626,0.0
0.093,2.337400399560227,-0.8750501344059524,4.613513477774622,0.0,10.565721052579748,10.332795303123527,152.96082391213022,152.2923048571626,0.0
0.094,2.4632058412944593,-0.8950203772362251,1.6986676425919454,0.0,10.632130217786049,10.249227545429726,146.83791545614204,152.2923048571626,0.0
0.095,2.481623549743367,-0.8588173885393122,4.814665764596242,0.0,10.679359659517377,10.551797838286202,152.18579902206537,152.2923048571626,0.0
0.096,2.609976070487132,-0.8586887042197862,2.1417890399855515,0.0,10.752471060973045,10.489723024905619,146.5928248438635,152.2923048571626,0.0
0.097,2.633565006500409,-0.8247237814450994,4.995270929219478,0.0,10.808328986283065,10.78046735031647,151.64069580588549,152.2923048571626,0.0
0.098,2.7615142653400717,-0.8205215200498295,2.477851538721255,0.0,10.887552952077435,10.728433554757872,145.9209912994066,152.2923048571626,0.0
0.099,2.794079334669401,-0.7789831043364348,5.4014169275382535,0.0,10.94912393862199,11.03398925697159,150.80876440157388,152.2923048571626,0.0
0.1,2.926113105009936,-0.7842660125456158,2.9723657810105037,0.0,11.036089900793604,11.004517143568005,145.45955600736963,152.2923048571626,0.0
0.101,2.9791451178996167,-0.734218766835608,5.715297466610561,0.0,11.105854029297502,11.308188650888761,149.36224494022588,152.2923048571626,0.0
0.10200000000000001,3.1107912620501756,-0.7497755901290512,3.793253599351803,0.0,11.20122061870247,11.335664522345706,147.62690361217466,152.2923048571626,0.0
0.10300000000000001,3.194350750330524,-0.6987636302159944,4.707578275827292,0.0,11.284031252489264,11.481850536413011,145.33208806685698,152.2923048571626,0.0
0.10400000000000001,3.277864946026633,-0.6891169471031768,5.9245882163891865,0.0,11.372628408760827,11.738075892505549,149.12960481506727,152.2923048571626,0.0
0.105,3.4219339885558973,-0.6832313877926652,4.0574568427049975,0.0,11.477437440321458,11.744971425383854,146.26208423095613,152.2923048571626,0.0
0.106,3.498427267808995,-0.6297730485105322,5.551519341022629,0.0,11.56663356028593,11.937702926389624,144.1844044336511,152.2923048571626,0.0
0.107,3.602769262074726,-0.6214623889684673,6.671438243910256,0.0,11.665803629197725,12.217618657049023,147.43271594592974,152.2923048571626,0.0
0.108,3.764207418688572,-0.6233353687379464,5.095878376883268,0.0,11.783337398654343,12.278234269846955,147.9468641544937,152.2923048571626,0.0
0.109,3.8705250373283895,-0.5796645948487297,4.882258679627974,0.0,11.890356837519585,12.326718573798702,144.02423518361044,152.2923048571626,0.0
0.11,3.946792684615077,-0.5271823056624043,6.926253861805128,0.0,11.986186418821875,12.6007057932387,147.08508637673305,152.2923048571626,0.0
0.111,4.050014869587299,-0.5944463595181371,5.447900450048122,0.0,12.107755632753927,12.663226657875809,153.37772186422617,152.2923048571626,0.0
0.112,4.095556310770922,-0.6435334839825103,2.2907285362309224,0.0,12.228146954909008,12.395169644359608,154.84468923117788,152.2923048571626,0.0
0.113,3.998057846848364,-0.6182960760383072,1.531721009014916,0.0,12.306426457378455,12.125218600998274,152.72208803845479,152.2923048571626,0.0
0.114,3.8338491872008187,-0.592303946320158,2.5887237735635424,0.0,12.347276145075273,12.031038959514525,155.96066822998037,152.2923048571626,0.0
0.115,3.7127812540470084,-0.6050369939666642,0.9327500440725718,0.0,12.376283456392331,11.769310499109785,158.06740816616286,152.2923048571626,0.0
0.116,3.5645425777404687,-0.5762299422027897,-0.17837095710867734,0.0,12.372921084366716,11.446087618104379,155.31617540705292,152.2923048571626,0.0
0.117,3.37031122059319,-0.55250134216257,1.1670067169473892,0.0,12.335250585956336,11.333836604678064,159.33478404955451,152.2923048571626,0.0
0.11800000000000001,3.2442847326764963,-0.56842726889589,-0.9127223962273252,0.0,12.29211117398543,10.998740263662931,157.07636164515318,152.2923048571626,0.0
0.11900000000000001,3.0750051425965634,-0.539100865972509,0.16864823809343354,0.0,12.2163909055212,10.849948166488879,157.70283607999812,152.2923048571626,0.0
0.12,2.9448223901423325,-0.5599651471030844,-0.19869429155739038,0.0,12.13595178913958,10.66986917445017,158.0005537342447,152.2923048571626,0.0
0.121,2.836347904989288,-0.564895004814692,-0.4046356074515023,0.0,12.045882326729227,10.491404416367619,157.76158496078952,152.2923048571626,0.0
0.122,2.723259249824827,-0.590376793360921,-0.3398440217601797,0.0,11.949727032914618,10.342320682653838,157.6804729071911,152.2923048571626,0.0
0.123,2.6328997542034966,-0.6057444639535231,-0.3531696754612561,0.0,11.84971452098982,10.205224713132642,158.22468615301082,152.2923048571626,0.0
0.124,2.544597851497622,-0.6392206592242172,-0.6846001113295976,0.0,11.74952236807923,10.044322612304017,157.37698689742575,152.2923048571626,0.0
0.125,2.4587834795205024,-0.6546825454014968,-0.3115973039396942,0.0,11.644625265903633,9.942392681329187,158.32340543240707,152.2923048571626,0.0
0.126,2.3865017485206392,-0.6901903675159883,-0.8451175771827986,0.0,11.543776122418931,9.78484162179386,156.9376937710566,152.2923048571626,0.0
0.127,2.307271532072657,-0.7049191526699358,-0.1987156356464963,0.0,11.438521875474956,9.717392676664293,158.5368976521045,152.2923048571626,0.0
0.128,2.2503905445939596,-0.7424444243716211,-1.0607635041198717,0.0,11.341028650748063,9.550338522864026,156.28155289375925,152.2923048571626,0.0
0.129,2.1728127312306937,-0.75250277586376,0.02701639468678474,0.0,11.237310499060964,9.52648147911974,157.18924511474128,152.2923048571626,0.0
0.13,2.1351464569156535,-0.7872841675909864,-0.4757991183800161,0.0,11.14530382774321,9.431818331196776,156.53428375945472,152.2923048571626,0.0
0.131,2.0867077198959354,-0.8134381985774926,-0.1907382297596576,0.0,11.055560638256182,9.37875728214226,156.3082554459092,152.2923048571626,0.0
0.132,2.0506458288785043,-0.8385632778500532,-0.11788357887435996,0.0,10.971987881222516,9.330673842397395,156.85776515510892,152.2923048571626,0.0
0.133,2.0168517975017464,-0.867986301768068,-0.4382930364536859,0.0,10.894949337755993,9.246424608622338,155.8897603916281,152.2923048571626,0.0
0.134,1.9740269295881525,-0.8819283275942184,0.009734789942069222,0.0,10.818429117860312,9.219756394514189,156.19484197077443,152.2923048571626,0.0
0.135,1.9468320770781768,-0.9021625504248988,-0.181831370767215,0.0,10.748980442796494,9.165113608982267,156.28515038022303,152.2923048571626,0.0
0.136,1.914370880998653,-0.917771074369382,-0.2669140307221174,0.0,10.682526952091456,9.10484558655286,155.83398799743884,152.2923048571626,0.0
0.137,1.878385518368447,-0.9268907865541407,-0.0767496707327846,0.0,10.617539091314859,9.069361701422793,155.2193243288106,152.2923048571626,0.0
