timestamp,iq,id,iq_ref,id_ref,vq,vd,omega,omega_ref,r
0.0,0.0,0.0,0.0,0.0,0.0,0.0,0.0,233.48022222780517,0.0
0.001,0.0,0.0,10.0,0.0,0.0,1.0999999999999999,5.367463606250331,233.48022222780517,0.0
0.002,0.37459339595277535,-0.21755650510468127,10.0,0.0,0.13393121556151483,1.9487947264451941,11.613208208979145,233.48022222780517,0.0
0.003,0.7753126677466128,-0.44498932484199577,10.0,0.0,0.3621908273314554,2.6857699158642263,18.142059788379232,233.48022222780517,0.0
0.004,1.1283007643382748,-0.6434572316815411,10.0,0.0,0.660879138421282,3.3370520496112053,24.854498783258844,233.48022222780517,0.0
0.005,1.4204074003258715,-0.8065129332161001,10.0,0.0,1.0107782798772302,3.92447295209975,31.736877677339653,233.48022222780517,0.0
0.006,1.6580804799694273,-0.9381770168884861,10.0,0.0,1.3972820896250544,4.464918706084121,38.712529577920755,233.48022222780517,0.0
0.007,1.8522825723322691,-1.0447809675693138,10.0,0.0,1.809589887534701,4.970984766281357,45.765142477956395,233.48022222780517,0.0
0.008,2.013340117821466,-1.1323312876801592,10.0,0.0,2.239838007378492,5.451900691169654,52.85426842696463,233.48022222780517,0.0
0.009000000000000001,2.14966563277468,-1.2056514035138126,10.0,0.0,2.682342617267325,5.914364604363536,59.93302050119763,233.48022222780517,0.0
0.01,2.2677044577115737,-1.2683615237333254,10.0,0.0,3.1330080695524734,6.363211571633389,66.90992400835285,233.48022222780517,0.0
0.011,2.372166581629219,-1.3232327933455668,10.0,0.0,3.5889004117912444,6.8019299420231984,73.96077904584043,233.48022222780517,0.0
0.012,2.4667054373978843,-1.3718923544274508,10.0,0.0,4.0478791958680045,7.233011056702529,80.97656612821868,233.48022222780517,0.0
0.013000000000000001,2.553897253581676,-1.4156167917227156,10.0,0.0,4.508391305496682,7.658236227099071,87.92661334722095,233.48022222780517,0.0
0.014,2.635613749044564,-1.4552926904407317,10.0,0.0,4.969301825688171,8.078873195079746,94.79564409342969,233.48022222780517,0.0
0.015,2.7132755605447567,-1.4914322990968796,10.0,0.0,5.42976358862358,8.495811883971113,101.5429026087218,233.48022222780517,0.0
0.016,2.7879460030007284,-1.524346466821,10.0,0.0,5.889132206517672,8.909665749711724,108.24243827743625,233.48022222780517,0.0
0.017,2.8605581226965606,-1.5539967569539674,10.0,0.0,6.346881739433804,9.320830461925707,114.81886465976922,233.48022222780517,0.0
0.018000000000000002,2.9318398421192686,-1.5803035155729213,10.0,0.0,6.8025700308264785,9.72953878827036,121.2421032631473,233.48022222780517,0.0
0.019,3.002409611350672,-1.6031123185242309,10.0,0.0,7.255806226452801,10.135895253698594,127.49205118730157,233.48022222780517,0.0
0.02,3.0728397980031015,-1.6221796450965962,10.0,0.0,7.706223766952763,10.539898069307174,133.54893775303313,233.48022222780517,0.0
0.021,3.143676266761879,-1.6372071522202312,10.0,0.0,8.153462187481463,10.941454647707957,139.3918262038895,233.48022222780517,0.0
0.022,3.2154508328593687,-1.6478694290609937,10.0,0.0,8.59715499917862,11.340392572738399,145.0311131329115,233.48022222780517,0.0
0.023,3.2886930322963215,-1.6538283401496097,10.0,0.0,9.036921179660446,11.736467090158419,150.43376903858697,233.48022222780517,0.0
0.024,3.363924811318468,-1.6547648268228219,10.0,0.0,9.472361618259256,12.129367700186556,155.5792358187445,233.48022222780517,0.0
0.025,3.4416576823928917,-1.6503979424301212,10.0,0.0,9.903058351851074,12.51872399504379,160.4520528238986,233.48022222780517,0.0
0.026000000000000002,3.522393251645906,-1.6404902418841982,10.0,0.0,10.328574863353307,12.904110749867401,165.03554595484414,233.48022222780517,0.0
0.027,3.6066164171267556,-1.6248592587387178,10.0,0.0,10.748458068047132,13.285053287848505,169.61459923768325,233.48022222780517,0.0
0.028,3.694640626552497,-1.6036262986070016,10.0,0.0,11.16226789028665,13.661049461118857,173.75087377600627,233.48022222780517,0.0
0.029,3.786986284011861,-1.576591483307308,10.0,0.0,11.569534847547606,14.031549219059858,177.55309924456907,233.48022222780517,0.0
0.03,3.884028137504576,-1.5437940598229136,10.0,0.0,11.969787716446277,14.395974549623245,180.8877729260686,233.48022222780517,0.0
0.031,3.9864703803198793,-1.5047151926798372,10.0,0.0,12.362487130360527,14.753684405845407,184.23887380223164,233.48022222780517,0.0
0.032,4.093872766113241,-1.46068176815537,10.0,0.0,12.747234700479307,15.104103377827663,187.53088094964997,233.48022222780517,0.0
0.033,4.205455224889185,-1.413577674453521,10.0,0.0,13.12380829472248,15.446755163016153,190.3268524056289,233.48022222780517,0.0
0.034,4.322302593471308,-1.3621870892688104,10.0,0.0,13.491807784626879,15.781061743153831,192.73650014666242,233.48022222780517,0.0
0.035,4.44459843027306,-1.3066435229014326,10.0,0.0,13.850842097106042,16.10645354590581,194.8265352812017,233.48022222780517,0.0
0.036000000000000004,4.572361722075356,-1.2472800339042165,10.0,0.0,14.200537610486471,16.422378595900277,196.69956690484548,233.48022222780517,0.0
0.037,4.70569367109047,-1.1842075806564196,10.0,0.0,14.540511742561012,16.728291810759696,198.7933491448866,233.48022222780517,0.0
0.038,4.845171492760243,-1.116618831501688,10.0,0.0,14.870275745039505,17.02360187644711,200.80591938617565,233.48022222780517,0.0
0.039,4.984336313806789,-1.055478805440803,10.0,0.0,15.190544838463733,17.308443983715197,198.8389583457658,233.48022222780517,0.0
0.04,5.126496311520725,-0.9956297895862629,10.0,0.0,15.501299241788963,17.582582838060844,197.06272521042692,233.48022222780517,0.0
0.041,5.289029880361348,-0.9070735660810074,10.0,0.0,15.799249395789195,17.843926154709113,208.56938861339592,233.48022222780517,0.0
0.042,5.3761335310402485,-0.9480216386106939,10.0,0.0,16.09892871626755,18.100974089206307,215.2703110237191,233.48022222780517,0.0
0.043000000000000003,5.437590395599589,-1.0271194928568579,10.0,0.0,16.40263618138957,18.356395943706886,219.20163572320664,233.48022222780517,0.0
0.044,5.490380834908817,-1.1136254403899852,10.0,0.0,16.71023976113564,18.61145397959118,228.34545270299375,233.48022222780517,0.0
0.045,5.536757212021001,-1.2024599101250635,7.978142545412896,0.0,17.021495518691044,18.644788752767816,236.95962381634183,233.48022222780517,0.0
0.046,5.491704339833348,-1.2671568859830873,3.6362629728534905,0.0,17.311187500455617,18.253947025658444,242.20907208490414,233.48022222780517,0.0
0.047,5.256957508088618,-1.26811492967028,0.9242503400013486,0.0,17.532284526379797,17.701627698318347,244.01287887513917,233.48022222780517,0.0
0.048,4.914028273874937,-1.2127983867461805,-0.08297962158950689,0.0,17.66994551681903,17.178349584304282,246.27462135693148,233.48022222780517,0.0
0.049,4.5548129122945085,-1.1500878289587022,-1.3417948537769249,0.0,17.735167600885546,16.628852402242533,248.28750214883962,233.48022222780517,0.0
0.05,4.190406046290341,-1.0877872894033294,-2.4963080489413425,0.0,17.732691804566024,16.062911449292066,249.3962170374423,233.48022222780517,0.0
0.051000000000000004,3.8291935142815237,-1.026696056341374,-3.209825441339059,0.0,17.667772462342146,15.52246454065352,249.55983317534015,233.48022222780517,0.0
0.052000000000000005,3.4887282027254027,-0.9726238925878614,-3.4524296197633246,0.0,17.549963337794537,15.043858161904826,249.09348110682828,233.48022222780517,0.0
0.053,3.1864970269076602,-0.9330003315588107,-3.3753861742976223,0.0,17.392256617751162,14.642073105586109,248.2340627462099,233.48022222780517,0.0
0.054,2.932297356065306,-0.9109611267355618,-3.0932153991724807,0.0,17.208113987159965,14.319903885738505,247.1400998666688,233.48022222780517,0.0
0.055,2.728574772289123,-0.9062897505440156,-2.6828327357905692,0.0,17.009875238310308,14.073725197544261,245.9487596923381,233.48022222780517,0.0
0.056,2.5729450119257553,-0.9168138971951083,-2.211848023270539,0.0,16.80804686541973,13.895127042830076,244.68471953383985,233.48022222780517,0.0
0.057,2.4599042946695446,-0.9391184759757614,-1.6918729170817692,0.0,16.61088977654614,13.77757146214836,243.47462680163142,233.48022222780517,0.0
0.058,2.383918752958424,-0.9698982315797573,-1.1867705967158129,0.0,16.424855565820383,13.709645237241487,242.19241831782043,233.48022222780517,0.0
0.059000000000000004,2.338119517421529,-1.0051913424847445,-0.6327883157104703,0.0,16.254206598320014,13.690073301951594,241.29203606634024,233.48022222780517,0.0
0.06,2.3190810962057156,-1.0428830972883414,-0.2607153283557304,0.0,16.102458495960043,13.692418103218001,240.51759702063018,233.48022222780517,0.0
0.061,2.3161892245490208,-1.0769279280185258,0.05613044657105304,0.0,15.969487697794998,13.71061364116024,239.84802834331478,233.48022222780517,0.0
0.062,2.3241347812688278,-1.1037596146292141,0.32723672407365534,0.0,15.85424457046054,13.739442848312027,238.84471864846054,233.48022222780517,0.0
0.063,2.3392495297055182,-1.1223183759102346,0.7752466072942203,0.0,15.755181823449524,13.798851679633586,237.7415913963066,233.48022222780517,0.0
0.064,2.367558752052813,-1.1363961217798622,1.2841965416861751,0.0,15.673329198704613,13.890954880098963,236.79284727332674,233.48022222780517,0.0
0.065,2.4122185712221786,-1.147468396144078,1.72544235272089,0.0,15.609949329202099,14.004480550028052,235.79652639364397,233.48022222780517,0.0
0.066,2.4702260554677493,-1.1545229677368058,2.2004397509038873,0.0,15.564925293774305,14.142218696628447,234.75956937630215,233.48022222780517,0.0
0.067,2.5416058738073186,-1.1580685513444167,2.706124788089827,0.0,15.538496945030241,14.305284299959748,233.71912337356974,233.48022222780517,0.0
0.068,2.6268738551175015,-1.1587039903928866,3.2239587779983863,0.0,15.531052433952963,14.492639716840872,232.68824202588456,233.48022222780517,0.0
0.069,2.7260472006854553,-1.1564731441874616,3.7473192538601827,0.0,15.542836168198448,14.70285006517249,231.60677586747644,233.48022222780517,0.0
0.07,2.8391574804839537,-1.1506409851889494,4.306786796667529,0.0,15.573843334824758,14.938075179723528,230.39189415411377,233.48022222780517,0.0
0.07100000000000001,2.966141181081055,-1.1430937149484655,4.94511093408578,0.0,15.624500418107079,15.204662374902341,228.49913343608696,233.48022222780517,0.0
0.07200000000000001,3.111024679187086,-1.1327880074988659,5.941302181016365,0.0,15.695692357461994,15.538187006893983,227.7178232984987,233.48022222780517,0.0
0.073,3.2826957954582268,-1.1332803804592069,6.389581239103562,0.0,15.79327478418072,15.867392165733479,227.38210685586054,233.48022222780517,0.0
0.074,3.463488108559724,-1.1291603286538856,6.618420614142088,0.0,15.91356135468333,16.175954148755814,227.11344783661144,233.48022222780517,0.0
0.075,3.642012801569404,-1.1131148021611288,6.816417867678575,0.0,16.050951659041765,16.46735010156475,226.96143381844828,233.48022222780517,0.0
0.076,3.8158463312875934,-1.085303819525614,6.957612760853722,0.0,16.20084377542027,16.73956051390363,226.96371874507943,233.48022222780517,0.0
0.077,3.983505739711591,-1.047860798664769,7.021635332365406,0.0,16.35912709892647,16.988465430951557,226.79387247895994,233.48022222780517,0.0
0.078,4.143248360593104,-1.00279532101452,7.173421962913604,0.0,16.521889809453928,17.228469398077767,225.77280353179458,233.48022222780517,0.0
0.079,4.299858853394839,-0.9546520608526587,7.76103062345639,0.0,16.687531541799963,17.508238597898952,224.41109842351614,233.48022222780517,0.0
0.08,4.475519279358859,-0.9082297430533122,8.532574415638503,0.0,16.859960998537193,17.837832239579196,220.48072010462562,233.48022222780517,0.0
0.081,4.678688535871889,-0.8701867645870676,10.0,0.0,17.044386369315443,18.284818825166294,220.73393700633397,233.48022222780517,0.0
0.082,4.946326069374464,-0.8347163184634622,10.0,0.0,17.251546542285634,18.663466597308734,222.54413677022666,233.48022222780517,0.0
0.083,5.199393784208791,-0.8100800771451342,9.80799764186423,0.0,17.473500193089276,18.978684276842266,221.82335015486117,233.48022222780517,0.0
0.084,5.428103882761677,-0.7764048960558404,10.0,0.0,17.701322339259267,19.284988402786627,228.3385266361974,233.48022222780517,0.0
0.085,5.581100576857006,-0.8464676772587021,7.073089192118847,0.0,17.945036341149894,19.24502158294031,237.47512425283296,233.48022222780517,0.0
0.08600000000000001,5.5674634151666185,-0.913661609205276,2.464841363550791,0.0,18.167072965568934,18.758814746930913,238.38946273929255,233.48022222780517,0.0
0.08700000000000001,5.338020553277967,-0.9081859644096439,1.9585797152061177,0.0,18.317010983698136,18.35892829712297,240.62011505776448,233.48022222780517,0.0
0.088,5.077783268945142,-0.8878116532920028,0.771854627670562,0.0,18.409780137258647,17.914878823621002,243.92317312992728,233.48022222780517,0.0
0.089,4.792556098384782,-0.8695978380826219,-0.9841039174320585,0.0,18.44706765155105,17.37199563965766,246.683107619113,233.48022222780517,0.0
0.09,4.47066354029054,-0.8397849755489696,-2.4961000159379987,0.0,18.423240819291266,16.770925449820023,248.31855010748865,233.48022222780517,0.0
0.091,4.123097564971684,-0.8006744653752428,-3.4622045389226557,0.0,18.33768562377993,16.17144139090106,248.95130514113748,233.48022222780517,0.0
0.092,3.7756923191177965,-0.7620605529672541,-3.9332928848803963,0.0,18.196881116664688,15.615930462788082,248.97041312325257,233.48022222780517,0.0
0.093,3.451926901881632,-0.7334020165901932,-4.0977487848924135,0.0,18.011839667572282,15.120651054670587,248.380673870513,233.48022222780517,0.0
0.094,3.1653006594021025,-0.717574713121878,-3.9518836749497037,0.0,17.794320004559612,14.702376396049797,247.44099513659174,233.48022222780517,0.0
0.095,2.9241285369045995,-0.7180694803979252,-3.6216520370769416,0.0,17.556937539421178,14.362706737106326,246.3260289491576,233.48022222780517,0.0
0.096,2.7300066280950395,-0.7348289012217778,-3.192627010573399,0.0,17.311164943520115,14.096097922824098,245.16733267551706,233.48022222780517,0.0
0.097,2.5798745172446513,-0.7652904957672932,-2.7301499782302456,0.0,17.066491906972697,13.892728266778148,244.05126679870267,233.48022222780517,0.0
0.098,2.467810508145777,-0.8055612859763147,-2.2778274855320264,0.0,16.830074379452963,13.74118469644779,242.823346966602,233.48022222780517,0.0
0.099,2.3867380640166527,-0.8512856208384382,-1.7572988168696608,0.0,16.60677121658491,13.641685987787596,241.69130816585624,233.48022222780517,0.0
0.1,2.3334362649248876,-0.9006622029436295,-1.2733902758772913,0.0,16.400822679820592,13.58288395998795,240.60904354332627,233.48022222780517,0.0
0.101,2.302296070849051,-0.950599219299173,-0.8035461777675144,0.0,16.2145880999308,13.559103450031413,239.47873142283754,233.48022222780517,0.0
0.10200000000000001,2.2892451707193624,-0.9986661639062976,-0.2983752094734755,0.0,16.049386920777557,13.571072095686304,238.8114098953258,233.48022222780517,0.0
0.10300000000000001,2.2931778251191552,-1.0439418595188945,-0.01802632239280877,0.0,15.906402381176456,13.590547325771043,238.34473573131035,233.48022222780517,0.0
0.10400000000000001,2.3042618101283647,-1.0805993861571777,0.16666562457986123,0.0,15.783243389518017,13.61010929237637,237.45183309548048,233.48022222780517,0.0
0.105,2.3170027859283997,-1.1060051218312983,0.573400833818043,0.0,15.676784549343719,13.657002449213879,236.4650775981807,233.48022222780517,0.0
0.106,2.3395483547386826,-1.1249890597754666,1.036930028764179,0.0,15.587495084687722,13.733128662890774,235.5160014346625,233.48022222780517,0.0
0.107,2.375661439909858,-1.1397879566840814,1.491110318454698,0.0,15.516185227145526,13.834290864970145,234.63780339056422,233.48022222780517,0.0
0.108,2.4253846081253707,-1.1504787910990504,1.9186335288762568,0.0,15.463150578382042,13.955583193684832,233.6940950191597,233.48022222780517,0.0
0.109,2.487030992941354,-1.1566888174127063,2.388348986664967,0.0,15.42812482191673,14.10055242225664,232.7003000191598,233.48022222780517,0.0
0.11,2.5613038373768524,-1.1594351567928016,2.893045708751367,0.0,15.411338561023795,14.270788088136609,231.7155489342572,233.48022222780517,0.0
0.111,2.649277599163577,-1.1593193425531942,3.4030679841381453,0.0,15.413214289848007,14.464442659058784,230.73228296501028,233.48022222780517,0.0
0.112,2.751087869620473,-1.1558847313752385,3.9221803613895587,0.0,15.433891253794828,14.680602092382564,229.63221301886682,233.48022222780517,0.0
0.113,2.8659404717193486,-1.15006277590651,4.510695426550674,0.0,15.47351039568957,14.925143128637544,228.2934111618485,233.48022222780517,0.0
0.114,2.9966518198610093,-1.1418087310323015,5.231964465719404,0.0,15.532772001638852,15.209416696838854,226.77152549210368,233.48022222780517,0.0
0.115,3.1466868133131345,-1.135503490952351,6.059994267948828,0.0,15.613923767853288,15.539862920870194,226.15250467742214,233.48022222780517,0.0
0.116,3.3186305547591957,-1.1347144200418213,6.442781850793425,0.0,15.719981234450055,15.861792573585914,225.9568205361078,233.48022222780517,0.0
0.117,3.496374814426603,-1.127492886048669,6.615857938367564,0.0,15.846839441628575,16.15951307034549,225.70942390757563,233.48022222780517,0.0
0.11800000000000001,3.6698384467854943,-1.107278915928791,6.817264235835953,0.0,15.98863255639195,16.443267713029947,225.61705867191182,233.48022222780517,0.0
0.11900000000000001,3.839113661677262,-1.0762345246858531,6.942078489226789,0.0,16.1414090806119,16.707656070506083,225.66787603680737,233.48022222780517,0.0
0.12,4.0023470465587145,-1.036522729767673,6.9947932686889915,0.0,16.30128893462891,16.9491708076755,225.44554282530828,233.48022222780517,0.0
0.121,4.1579142506778055,-0.9900731562469767,7.186306668463507,0.0,16.464619941823063,17.187581324105967,224.18999530354247,233.48022222780517,0.0
0.122,4.3127619611009145,-0.9417273004883995,7.906982698589036,0.0,16.63060535154261,17.48036554282351,223.32918755636092,233.48022222780517,0.0
0.123,4.493047764911005,-0.8972388345224616,8.438896918894255,0.0,16.804860369463274,17.793490723258696,218.90463158797215,233.48022222780517,0.0
0.124,4.68981825991147,-0.8613433583199956,10.0,0.0,16.9894987859128,18.239289187749065,218.85066016706782,233.48022222780517,0.0
0.125,4.958450068753071,-0.8212738577216743,10.0,0.0,17.196204516862608,18.615778822601712,220.9200130526993,233.48022222780517,0.0
0.126,5.21039577825625,-0.7968425730558228,10.0,0.0,17.417601891895437,18.95026235710715,224.6281844597173,233.48022222780517,0.0
0.127,5.436084572429712,-0.7835374972134426,8.260026102920738,0.0,17.649088637379535,19.05973383672255,226.7118051082968,233.48022222780517,0.0
0.128,5.5062335891844985,-0.8463059923379073,7.285899949826066,0.0,17.87541144149887,19.086193201153907,232.83757511008778,233.48022222780517,0.0
0.129,5.50384928820191,-0.8980640279232683,4.229441420107749,0.0,18.086813600612565,18.807133496091634,241.13836176543737,233.48022222780517,0.0
0.13,5.3496419786544,-0.9272383093358891,0.002466697056635603,0.0,18.251861163908178,18.159656304248916,241.57674712432922,233.48022222780517,0.0
0.131,5.018763824001895,-0.8876559716188259,-0.29769123135453013,0.0,18.331010451726964,17.63753848694161,243.13841570055283,233.48022222780517,0.0
0.132,4.68648530746264,-0.8436548410253422,-1.175107454193812,0.0,18.345588728045023,17.115275030191498,245.2859998287147,233.48022222780517,0.0
0.133,4.35852697930371,-0.8102088066771892,-2.36695729428384,0.0,18.303243778583912,16.557119057498785,246.72611587469558,233.48022222780517,0.0
0.134,4.027210059736353,-0.7781896608575105,-3.2194742537431873,0.0,18.206130081102955,16.001851097860428,247.3548881298574,233.48022222780517,0.0
0.135,3.703389373396447,-0.7498519049199963,-3.6726070403446127,0.0,18.06040399571133,15.483386233807956,247.42984566514252,233.48022222780517,0.0
0.136,3.402171891411146,-0.7305838083582561,-3.8495820423605545,0.0,17.875567919391198,15.017155041420812,246.9239030458912,233.48022222780517,0.0
0.137,3.1339295464037473,-0.7220008006382638,-3.73104754091575,0.0,17.66184088158079,14.620366388950426,246.07506946982946,233.48022222780517,0.0
0.138,2.9063680787840434,-0.7272625123400713,-3.4325792253051253,0.0,17.43047230066879,14.295879405636853,245.04032320778717,233.48022222780517,0.0
0.139,2.721555198752546,-0.7465800353620559,-3.0308071040838,0.0,17.191864189932012,14.039968314868933,243.96321742468047,233.48022222780517,0.0
