timestamp,iq,id,iq_ref,id_ref,vq,vd,omega,omega_ref,r
0.0,0.0,0.0,0.0,0.0,0.0,0.0,0.0,268.3467718666191,0.0
0.001,0.0,0.0,10.0,0.0,0.0,1.0999999999999999,5.124931643548595,268.3467718666191,0.0
0.002,0.3672871484624292,-0.22121863309573842,10.0,0.0,0.13433404964053122,1.949598413669132,9.742145184512998,268.3467718666191,0.0
0.003,0.836660981359431,-0.4832521838739137,10.0,0.0,0.3668060399385644,2.679712140801359,13.859310521818546,268.3467718666191,0.0
0.004,1.2959691478772404,-0.7451893274044349,10.0,0.0,0.6752349542005927,3.314231534262177,18.49423911754375,268.3467718666191,0.0
0.005,1.703274334346276,-0.9782985127832106,10.0,0.0,1.0392955553388599,3.875931390956701,23.21243555221396,268.3467718666191,0.0
0.006,2.04711894041139,-1.1732366398602003,10.0,0.0,1.4422321841574337,4.384117467293125,27.903897652226032,268.3467718666191,0.0
0.007,2.3292392529924504,-1.33336527983674,10.0,0.0,1.8713585268544426,4.854183810554502,32.66000958258458,268.3467718666191,0.0
0.008,2.5592965572451454,-1.4631047170132614,10.0,0.0,2.317248921297539,5.297671053417454,37.39337033498669,268.3467718666191,0.0
0.009000000000000001,2.747847516954289,-1.56900853177159,10.0,0.0,2.7732510258342735,5.722958578912943,42.12742289363318,268.3467718666191,0.0
0.01,2.90484286218649,-1.6570141322754652,10.0,0.0,3.234803250374725,6.1359335839341025,46.85675396033469,268.3467718666191,0.0
0.011,3.038804815002059,-1.7317337152290044,10.0,0.0,3.6988368510830996,6.540600449549805,51.5628304382042,268.3467718666191,0.0
0.012,3.1563231296634435,-1.7968882667654722,10.0,0.0,4.163353583121682,6.939616593590176,56.24324691418447,268.3467718666191,0.0
0.013000000000000001,3.262326441492654,-1.8552091146004732,10.0,0.0,4.627084004106929,7.3346976152757675,60.894407308385645,268.3467718666191,0.0
0.014,3.3603893787944967,-1.908580377228497,10.0,0.0,5.089237115572943,7.726916686906418,65.51129575351149,268.3467718666191,0.0
0.015,3.4530214777604353,-1.9582577860291792,10.0,0.0,5.549327625397213,8.116920261007365,70.08977611664088,268.3467718666191,0.0
0.016,3.541954619504696,-2.005016181572839,10.0,0.0,6.0070560910709485,8.50507620407844,74.62525660194821,268.3467718666191,0.0
0.017,3.628374781430465,-2.0492757045837906,10.0,0.0,6.462228268060187,8.891572513015385,79.11238829707608,268.3467718666191,0.0
0.018000000000000002,3.7130966960223275,-2.0912058576264956,10.0,0.0,6.9147025798487824,9.276481199771712,83.5452212578436,268.3467718666191,0.0
0.019,3.7966941308743807,-2.13080010787757,10.0,0.0,7.364356395131345,9.659797950343464,87.91711342726934,268.3467718666191,0.0
0.02,3.8795925404285123,-2.1679296514200517,10.0,0.0,7.811064811229986,10.041465556683855,92.22069087916744,268.3467718666191,0.0
0.021,3.9621323889339974,-2.202382240743299,10.0,0.0,8.254687635742936,10.421386844760018,96.43236543532628,268.3467718666191,0.0
0.022,4.044752768151879,-2.233650538336667,10.0,0.0,8.695035293454243,10.799415443250943,100.54339445943991,268.3467718666191,0.0
0.023,4.127534283678223,-2.2617661727332705,10.0,0.0,9.131931082051208,11.175396184748188,104.57075014778627,268.3467718666191,0.0
0.024,4.210777870177145,-2.2863720165324777,10.0,0.0,9.565160852412143,11.549139451595785,108.49965041294061,268.3467718666191,0.0
0.025,4.294825758701197,-2.3070443594223695,10.0,0.0,9.994469871701645,11.92041853692206,112.31307343146928,268.3467718666191,0.0
0.026000000000000002,4.379965188599796,-2.3234708531091743,10.0,0.0,10.419576088471471,12.288975757241055,116.00195421570712,268.3467718666191,0.0
0.027,4.4665028580394734,-2.3353364203555276,10.0,0.0,10.840168353056448,12.65452012786575,119.55645028116615,268.3467718666191,0.0
0.028,4.554769478155596,-2.3423193471472077,10.0,0.0,11.255905294520016,13.0167253363681,122.96526848947579,268.3467718666191,0.0
0.029,4.64509749455299,-2.344129169995747,10.0,0.0,11.666418313932883,13.375230302564022,126.21771641627761,268.3467718666191,0.0
0.03,4.737817918482078,-2.3405109439219007,10.0,0.0,12.07131442492745,13.729640107613406,129.3037306868282,268.3467718666191,0.0
0.031,4.833257278070344,-2.33124738568497,10.0,0.0,12.470179096182173,14.079527417941893,132.2136937639222,268.3467718666191,0.0
0.032,4.931730214498636,-2.3161667152102523,10.0,0.0,12.86257979317442,14.424434834951768,134.938602694152,268.3467718666191,0.0
0.033,5.033532259205062,-2.2951490192162973,10.0,0.0,13.248070022313847,14.763878084406466,137.47021682414132,268.3467718666191,0.0
0.034,5.138933068638578,-2.2681308308196275,10.0,0.0,13.626193729721109,15.097349963239012,139.80113136128315,268.3467718666191,0.0
0.035,5.2481696495741,-2.2351088723611823,10.0,0.0,13.996490020724433,15.424325009120457,141.9248357017066,268.3467718666191,0.0
0.036000000000000004,5.3614396681059615,-2.196143037418037,10.0,0.0,14.358498164956409,15.74426484328494,143.835799246241,268.3467718666191,0.0
0.037,5.478894712474391,-2.1513590930952446,10.0,0.0,14.711762902655558,16.056624153760964,145.52968592560333,268.3467718666191,0.0
0.038,5.600632756660176,-2.1009526614045684,10.0,0.0,15.05584022958965,16.360857372542547,147.00397405699454,268.3467718666191,0.0
0.039,5.726687815522872,-2.045198189728316,10.0,0.0,15.390304218141004,16.656426326106338,148.25975280362974,268.3467718666191,0.0
0.04,5.857011902815259,-1.9844715263217516,10.0,0.0,15.714756314935649,16.94280968415535,149.31757825123296,268.3467718666191,0.0
0.041,5.9921137003518785,-1.9181847025385812,10.0,0.0,16.028717253873648,17.219441959222827,150.1119603117148,268.3467718666191,0.0
0.042,6.131605397445196,-1.8471580068699402,10.0,0.0,16.331795258138868,17.48581403197246,150.6587965287991,268.3467718666191,0.0
0.043000000000000003,6.275342177498169,-1.7717763727566056,10.0,0.0,16.62362095645676,17.741440569038758,150.97735653691043,268.3467718666191,0.0
0.044,6.423173102377797,-1.6923722010147615,10.0,0.0,16.903846096099016,17.985862988293977,151.08372144314225,268.3467718666191,0.0
0.045,6.57489558808446,-1.6092963478223101,10.0,0.0,17.172146661568817,18.218654515408968,150.98866378711864,268.3467718666191,0.0
0.046,6.730254236684882,-1.5229201454160046,10.0,0.0,17.428225699470367,18.43942471987046,150.4290300002652,268.3467718666191,0.0
0.047,6.88822964972111,-1.43483795823922,10.0,0.0,17.671948575462533,18.647902098727975,150.132955123849,268.3467718666191,0.0
0.048,7.0504621738367454,-1.342126137742305,10.0,0.0,17.902829423358337,18.843638203776596,150.22394507604446,268.3467718666191,0.0
0.049,7.215723496332756,-1.2465024100374187,10.0,0.0,18.120604305126857,19.026332362876534,149.92285286591022,268.3467718666191,0.0
0.05,7.382943304804506,-1.1494628254419421,10.0,0.0,18.325152997600064,19.1957930285364,152.81055883211954,268.3467718666191,0.0
0.051000000000000004,7.543834348399854,-1.0648651364086197,10.0,0.0,18.51785753744423,19.35273668016683,156.8361369604123,268.3467718666191,0.0
0.052000000000000005,7.632507792793433,-1.1014060632291285,10.0,0.0,18.711851467307607,19.505111252171286,160.503116673488,268.3467718666191,0.0
0.053,7.696785525442374,-1.1740842883667213,10.0,0.0,18.909312656882026,19.655463943814194,163.90495082047389,268.3467718666191,0.0
0.054,7.744043573606911,-1.2684253903540017,10.0,0.0,19.11171373563051,19.80597187727864,167.07131332731117,268.3467718666191,0.0
0.055,7.778374652764756,-1.3767870029312212,10.0,0.0,19.319901866214217,19.95836528704577,170.25924707066181,268.3467718666191,0.0
0.056,7.8015525936754155,-1.4962550268602475,10.0,0.0,19.534568391222685,20.114131906185964,173.97092222428142,268.3467718666191,0.0
0.057,7.814838265239414,-1.6251401971915804,10.0,0.0,19.756327614141487,20.27455887145006,178.0769524181821,268.3467718666191,0.0
0.058,7.820259427184506,-1.7604085194916008,10.0,0.0,19.985544275044504,20.440655591381297,182.9141504204059,268.3467718666191,0.0
0.059000000000000004,7.818714109196218,-1.9008341143452148,10.0,0.0,20.22254307406125,20.613288502007883,188.56402731290513,268.3467718666191,0.0
0.06,7.812506828760521,-2.042439280340046,10.0,0.0,20.46727759654986,20.793025349141523,194.63664978329825,268.3467718666191,0.0
0.061,7.801474754728163,-2.185375020087409,10.0,0.0,20.719819231215244,20.980413419149862,200.95584381311176,268.3467718666191,0.0
0.062,7.786561646265872,-2.3276829050075185,10.0,0.0,20.980070019358653,21.175846966814433,207.31476898823692,268.3467718666191,0.0
0.063,7.7689520659767375,-2.4667547006488135,10.0,0.0,21.247713902125522,21.37955016127407,211.3729097410429,268.3467718666191,0.0
0.064,7.748938407455718,-2.601458673807949,10.0,0.0,21.52239043515277,21.591672831198856,212.73678218144713,268.3467718666191,0.0
0.065,7.712541124882993,-2.7562961912772823,10.0,0.0,21.80649666905979,21.813854451931668,218.46719178489482,268.3467718666191,0.0
0.066,7.660309016647549,-2.930586845991924,10.0,0.0,22.10203403849332,22.047610093062083,226.66894225934533,268.3467718666191,0.0
0.067,7.615387536231247,-3.0823602582082588,10.0,0.0,22.406345403893184,22.291962948786246,233.21237771427118,268.3467718666191,0.0
0.068,7.573875736874408,-3.2169378930259014,10.0,0.0,22.71794672403326,22.546428738603066,236.1928200861537,268.3467718666191,0.0
0.069,7.5283570000158875,-3.347035424013061,10.0,0.0,23.03679944320141,22.811200024513084,240.2470877475098,268.3467718666191,0.0
0.07,7.463465559375487,-3.5002762993557677,10.0,0.0,23.36579954002158,23.088062324850775,247.48810949989826,268.3467718666191,0.0
0.07100000000000001,7.410435793221631,-3.6223924847606552,10.0,0.0,23.701486228834618,23.375322764707224,252.9965099914068,268.3467718666191,0.0
0.07200000000000001,7.360582003222158,-3.728021674661548,10.0,0.0,24.04272834178704,23.67237944869774,257.6049187057226,268.3467718666191,0.0
0.073,7.317143371969546,-3.812530884814655,10.0,0.0,24.38779163306111,23.978134387122246,259.57574566459624,268.3467718666191,0.0
0.074,7.266627593547067,-3.9008502259272064,10.0,0.0,24.737794124471066,24.292942510145643,266.3508340721036,268.3467718666191,0.0
0.075,7.233892945674825,-3.952638551222596,7.9301460746095165,0.0,25.08909070141374,24.38668179169648,268.35703677979666,268.3467718666191,0.0
0.076,7.154971481919812,-3.906434349785718,6.926942071631223,0.0,25.409031203406222,24.424876916247108,265.0986995637005,268.3467718666191,0.0
0.077,7.011584800552443,-3.84285738861473,8.588591402708484,0.0,25.694265743940072,24.699043365303073,270.31189432236783,268.3467718666191,0.0
0.078,6.935165987237352,-3.791157141959434,5.962342798817334,0.0,25.973342217805765,24.67578498641901,273.09646704633076,268.3467718666191,0.0
0.079,6.844032052418619,-3.6166673239967153,4.522559485038754,0.0,26.203508328887132,24.559906959030098,266.4679158967692,268.3467718666191,0.0
0.08,6.702586711090485,-3.403204725292073,7.855623619518019,0.0,26.377334038443582,24.874315881616624,264.08772934161254,268.3467718666191,0.0
0.081,6.670044354410902,-3.2927803569681973,9.088307322346427,0.0,26.555206014774463,25.27909625468795,269.8110483690156,268.3467718666191,0.0
0.082,6.792810440772639,-3.1564065920950064,6.2120050436209215,0.0,26.741871960326574,25.318636007330564,269.2238426334569,268.3467718666191,0.0
0.083,6.893673475876067,-2.920108581927258,6.4968372037319,0.0,26.88919624311803,25.423115666665822,259.89936018029425,268.3467718666191,0.0
0.084,6.968493659172972,-2.7286376439725486,10.0,0.0,27.013537240490518,25.907157784523463,255.6008924420493,268.3467718666191,0.0
0.085,7.1774650590615074,-2.620401035834454,10.0,0.0,27.163857032395875,26.297959510215133,258.26181655986466,268.3467718666191,0.0
0.08600000000000001,7.460215879249278,-2.4932440400684728,10.0,0.0,27.325320114226987,26.635700166306407,258.5496003027573,268.3467718666191,0.0
0.08700000000000001,7.775847068966555,-2.33782105919512,10.0,0.0,27.48858599554571,26.92392114230462,259.1320109105804,268.3467718666191,0.0
0.088,8.09735019286775,-2.1642221503474763,10.0,0.0,27.646805736167867,27.167437577102945,254.4004498607669,268.3467718666191,0.0
0.089,8.4160250689287,-1.9754334997872844,10.0,0.0,27.7945243837345,27.370585137355963,249.90735958681464,268.3467718666191,0.0
0.09,8.724965088063566,-1.7823308469200858,10.0,0.0,27.928432517259985,27.53739315299611,245.83359345317064,268.3467718666191,0.0
0.091,9.02700472542948,-1.584300432920473,10.0,0.0,28.045778319985644,27.67077622050589,242.28401083549355,268.3467718666191,0.0
0.092,9.323815225674103,-1.383339382842329,10.0,0.0,28.144602437821124,27.772926802884008,239.34515108951524,268.3467718666191,0.0
0.093,9.615562837178029,-1.1833385570132575,10.0,0.0,28.22376872177044,27.84562060654487,235.81530787274818,268.3467718666191,0.0
0.094,9.899351238615385,-0.9923391436971823,10.0,0.0,28.283277830484433,27.89066241019152,238.7251414475534,268.3467718666191,0.0
0.095,10.103200570970166,-0.933529823150806,10.0,0.0,28.336781177564767,27.91756540180025,244.3529877661282,268.3467718666191,0.0
0.096,10.176962995290372,-1.0747166977807485,10.0,0.0,28.403743138512684,27.94105305560446,249.6912528696047,268.3467718666191,0.0
0.097,10.201266112560882,-1.2744281389054404,10.0,0.0,28.48691405852366,27.966952421466488,255.21351324435463,268.3467718666191,0.0
0.098,10.19058171000408,-1.5042490849634076,10.0,0.0,28.58764101277486,27.999997258197364,260.7274975186963,268.3467718666191,0.0
0.099,10.152665229122642,-1.7501067324179758,10.0,0.0,28.706345887033446,28.043874275551666,265.7110670489515,268.3467718666191,0.0
0.1,10.091183504479831,-2.0065719659473396,9.07591447934941,0.0,28.843320574815298,27.999968496226728,270.10253306393804,268.3467718666191,0.0
0.101,9.973210036528444,-2.2538510669407943,6.862623859882963,0.0,28.986843264660447,27.752291914905886,273.83591005922904,268.3467718666191,0.0
0.10200000000000001,9.743255464984452,-2.4603586744793264,4.941043980311366,0.0,29.11148907320831,27.37860964833375,277.18539685536285,268.3467718666191,0.0
0.10300000000000001,9.40393809950217,-2.621749730069557,3.1779143323570196,0.0,29.20199001428372,26.915057091281973,280.29695164255463,268.3467718666191,0.0
0.10400000000000001,8.97485800924495,-2.738370013211734,1.5026351410017753,0.0,29.24829992613613,26.384066105746854,282.96991056936315,268.3467718666191,0.0
0.105,8.478756907745264,-2.8114656227075137,0.019924290570076053,0.0,29.243754062462916,25.814740128578944,284.83366627438176,268.3467718666191,0.0
0.106,7.940463694215307,-2.8465197690864543,-1.0768225060168524,0.0,29.18585518744696,25.250328366113557,285.7273539866929,268.3467718666191,0.0
0.107,7.390030996441454,-2.8540428196015193,-1.6974721833731579,0.0,29.077782017778915,24.73442856046961,285.87820143595985,268.3467718666191,0.0
0.108,6.8606775732515235,-2.8449332026116787,-1.9482102037000457,0.0,28.927848896139256,24.29066128253402,285.5013302611779,268.3467718666191,0.0
0.109,6.379177338957043,-2.8269637943199317,-1.9313202002546488,0.0,28.746646820127808,23.92831419235077,284.74347508811127,268.3467718666191,0.0
0.11,5.962513096240446,-2.805100755557479,-1.7163596459362616,0.0,28.545105002518227,23.64857642888115,284.0945049879669,268.3467718666191,0.0
0.111,5.61837883421455,-2.7832728272331932,-1.5493519270775558,0.0,28.33356114859459,23.42656762992449,282.7367363861255,268.3467718666191,0.0
0.112,5.34689869862185,-2.749354530890783,-1.0143672713519054,0.0,28.11745806685324,23.289205032707315,279.85181497259356,268.3467718666191,0.0
0.113,5.151727295902623,-2.7108191466784013,0.31304300435430665,0.0,27.90532932426436,23.30338772375133,277.5759354218791,268.3467718666191,0.0
0.114,5.048137356651813,-2.698249053309689,1.3586911441589464,0.0,27.714834368610344,23.4061296433439,278.67912945439076,268.3467718666191,0.0
0.115,5.033190395810379,-2.6943110863927533,0.7037705520253894,0.0,27.553355625053808,23.39765839517913,276.24714412550173,268.3467718666191,0.0
0.116,5.059435844118145,-2.615465027955761,1.8407594938810767,0.0,27.39854394427755,23.502467918078366,269.68994282366714,268.3467718666191,0.0
0.117,5.116686182731343,-2.567630808768651,5.105928435227894,0.0,27.265221080342624,23.92307893197527,269.3302211155934,268.3467718666191,0.0
0.11800000000000001,5.299812229315457,-2.5878590744640966,5.275954796775012,0.0,27.189995055609252,24.2547764067076,273.05438782737195,268.3467718666191,0.0
0.11900000000000001,5.559322052943515,-2.550641112737803,3.3667952812782147,0.0,27.15116512237561,24.30735890103998,266.7487375022355,268.3467718666191,0.0
0.12,5.761672590692664,-2.433116440197997,6.535600787490286,0.0,27.10892089753644,24.698796892537935,260.36653954956694,268.3467718666191,0.0
0.121,6.025771496573654,-2.377897431119581,9.806502086995081,0.0,27.105146050057776,25.347950376016172,259.61435806395565,268.3467718666191,0.0
0.122,6.414308534560733,-2.3918717398101577,10.0,0.0,27.16875339972153,25.880288698714434,261.8550922153977,268.3467718666191,0.0
0.123,6.858951230849181,-2.3616175657843934,9.209068349262006,0.0,27.275766144459,26.23179113718616,263.41837731558206,268.3467718666191,0.0
0.124,7.270424833153513,-2.272782088899908,8.476709744680191,0.0,27.397758497852863,26.445378806997255,258.0143120426176,268.3467718666191,0.0
0.125,7.62186496537974,-2.127085630093514,10.0,0.0,27.51377212718859,26.79014878077577,252.63630833152158,268.3467718666191,0.0
0.126,7.984674109210504,-1.9898538501640521,10.0,0.0,27.639022859764424,27.060415613057703,246.99407721353361,268.3467718666191,0.0
0.127,8.33846009757551,-1.8395524684952753,10.0,0.0,27.763614368126596,27.280892468087174,242.380343383386,268.3467718666191,0.0
0.128,8.67572994600532,-1.680107754863005,10.0,0.0,27.881758506472632,27.45821896500628,239.14777288319019,268.3467718666191,0.0
0.129,9.001338901552469,-1.5059469264636278,10.0,0.0,27.988257636688356,27.597182939442202,235.8728279930465,268.3467718666191,0.0
0.13,9.317849733249833,-1.3189094309897569,10.0,0.0,28.07917073510798,27.701340327524854,232.43716846851373,268.3467718666191,0.0
0.131,9.626426993610568,-1.1238300058468877,10.0,0.0,28.15181990068293,27.773394896318507,229.73399649557425,268.3467718666191,0.0
0.132,9.927857472165726,-0.9253016231318587,10.0,0.0,28.20452227873252,27.815437344752816,239.74603886672395,268.3467718666191,0.0
0.133,10.092619589870209,-0.9445721672711689,10.0,0.0,28.260263707503064,27.84343625798672,244.83927478656156,268.3467718666191,0.0
0.134,10.158113525310105,-1.104832120007385,10.0,0.0,28.330666774079525,27.868652711052945,250.19226436201913,268.3467718666191,0.0
0.135,10.177201559735657,-1.3136352137970766,10.0,0.0,28.41791692009447,27.896943081037787,255.65360556179806,268.3467718666191,0.0
0.136,10.162531723854425,-1.5476660427539706,10.0,0.0,28.522926448753765,27.93293399091683,260.9521143218674,268.3467718666191,0.0
0.137,10.12132410110564,-1.795149067933623,10.0,0.0,28.64591694001524,27.980212902817442,265.67640639081895,268.3467718666191,0.0
0.138,10.056291103566716,-2.053177809653157,8.24235817986397,0.0,28.78724460467796,27.848463925940976,269.77506231488707,268.3467718666191,0.0
0.139,9.903585008138625,-2.2852596878428617,6.178747313347236,0.0,28.924213324370445,27.55074917662465,273.3213017424275,268.3467718666191,0.0
0.14,9.6372395890821,-2.474465719962903,4.355882300818924,0.0,29.036205541913368,27.144394666638206,276.56432641739804,268.3467718666191,0.0
0.14100000000000001,9.268592634585039,-2.619757395733712,2.6521944178258785,0.0,29.110453110716918,26.658585523204835,279.53783282417425,268.3467718666191,0.0
0.14200000000000002,8.818969280727712,-2.7222472228953336,1.053530604862222,0.0,29.138515972526868,26.115738009778433,281.981578608224,268.3467718666191,0.0
0.14300000000000002,8.311330668586642,-2.784297090334848,-0.3046903545787174,0.0,29.115288383959893,25.547907880263736,283.5624774047435,268.3467718666191,0.0
0.14400000000000002,7.771185989125097,-2.812769846937644,-1.2472968082196996,0.0,29.04011204585007,24.99877303315708,284.2484201143741,268.3467718666191,0.0
0.145,7.229138040803484,-2.818197738224283,-1.7492846455125406,0.0,28.917852197316055,24.505465266905066,284.28283823182926,268.3467718666191,0.0
0.146,6.716106329106217,-2.810236460352793,-1.9258543678922297,0.0,28.757557537531532,24.0858725101395,283.832170959579,268.3467718666191,0.0
