timestamp,iq,id,iq_ref,id_ref,vq,vd,omega,omega_ref,r
0.0,0.0,0.0,0.0,0.0,0.0,0.0,0.0,416.8223833834923,0.0
0.001,0.0,0.0,10.0,0.0,0.0,1.0999999999999999,12.75957649372534,416.8223833834923,0.0
0.002,0.45831150890236994,-0.2481809417479173,10.0,0.0,0.13729990359227087,1.939585734020739,22.469171745639734,416.8223833834923,0.0
0.003,0.8938332210244629,-0.4912502862305814,10.0,0.0,0.3690842087030025,2.665618611754225,33.45157371998256,416.8223833834923,0.0
0.004,1.2561627322123345,-0.6885824892147518,10.0,0.0,0.6695692199594416,3.306725603115991,44.61186788628337,416.8223833834923,0.0
0.005,1.5461916948100227,-0.8453616315321699,10.0,0.0,1.0193888128514876,3.885490505693356,56.02944136057548,416.8223833834923,0.0
0.006,1.7789493391124735,-0.9690835381483789,10.0,0.0,1.4041445550166742,4.418657826054896,67.61959175507627,416.8223833834923,0.0
0.007,1.9682371184486052,-1.0682734755862677,10.0,0.0,1.8134151290535023,4.918489909312852,79.24594141365655,416.8223833834923,0.0
0.008,2.1255828022797423,-1.1487105420710049,10.0,0.0,2.239598031951386,5.393850694220633,90.87956495015479,416.8223833834923,0.0
0.009000000000000001,2.2592963496769625,-1.2152125234309572,10.0,0.0,2.677209570335006,5.851158657552039,102.4989984256096,416.8223833834923,0.0
0.01,2.37547886468916,-1.2712345170068948,10.0,0.0,3.1222881506931577,6.295054037211297,114.05676216504392,416.8223833834923,0.0
0.011,2.4787054572442666,-1.3190134091702563,10.0,0.0,3.5719438691836305,6.728874636909504,125.50733426674175,416.8223833834923,0.0
0.012,2.5723937516498157,-1.3599899487574278,10.0,0.0,4.024045706227833,7.155005302027879,136.80442324734946,416.8223833834923,0.0
0.013000000000000001,2.6591431335072313,-1.39502363344217,10.0,0.0,4.476994365998902,7.575127535278579,147.89918763177084,416.8223833834923,0.0
0.014,2.740993408130344,-1.4245381367788692,10.0,0.0,4.929556641638123,7.990396374791343,158.73941510848525,416.8223833834923,0.0
0.015,2.819609743581394,-1.448636866204227,10.0,0.0,5.380745288868121,8.401565263763374,169.26948908752541,416.8223833834923,0.0
0.016,2.8964145581387775,-1.4671941479359778,10.0,0.0,5.8297322739685615,8.809073762314394,179.43102922193734,416.8223833834923,0.0
0.017,2.972678098003912,-1.4799315540132727,10.0,0.0,6.275786952265245,9.21310916828077,189.164125838255,416.8223833834923,0.0
0.018000000000000002,3.0495770512531113,-1.486484275696681,10.0,0.0,6.718233128653298,9.613650252021412,198.40905767335587,416.8223833834923,0.0
0.019,3.1282278631625138,-1.4864605828123225,10.0,0.0,7.156420662342499,10.010499245249253,207.10838973535635,416.8223833834923,0.0
0.02,3.209699794785444,-1.4794957625452776,10.0,0.0,7.589708448685032,10.403306688163806,215.20967185469166,416.8223833834923,0.0
0.021,3.295010021558529,-1.4653037453200746,10.0,0.0,8.017456726992664,10.791592759792342,222.66856388030433,416.8223833834923,0.0
0.022,3.3851046817133987,-1.443725645124026,10.0,0.0,8.439027113783073,11.174767741739485,229.4442838684105,416.8223833834923,0.0
0.023,3.4809027080795545,-1.41465255953757,10.0,0.0,8.853775701676607,11.55214542787223,235.57726859097997,416.8223833834923,0.0
0.024,3.582842178148738,-1.3787564206838827,10.0,0.0,9.26112935497602,11.9230048427371,240.8678280039742,416.8223833834923,0.0
0.025,3.6926719916375847,-1.334492668739142,10.0,0.0,9.660323533106595,12.286451796662348,245.41226547517547,416.8223833834923,0.0
0.026000000000000002,3.8096400486836925,-1.284324198065918,10.0,0.0,10.050867094562033,12.641705284867939,249.2722259765511,416.8223833834923,0.0
0.027,3.9347288284122524,-1.2277988249681977,10.0,0.0,10.432165542358463,12.987897695198836,252.38843616040847,416.8223833834923,0.0
0.028,4.068067384837249,-1.1656383858346102,10.0,0.0,10.803680991834625,13.324184355866821,254.79385344855052,416.8223833834923,0.0
0.029,4.2096495365234805,-1.0986130167484247,10.0,0.0,11.164922376221826,13.649753244294391,256.5220089771133,416.8223833834923,0.0
0.03,4.359377621207878,-1.0274257989098947,10.0,0.0,11.515436170741685,13.963835114519497,257.60455506493014,416.8223833834923,0.0
0.031,4.517013785834737,-0.9527761357091948,10.0,0.0,11.854807182058376,14.265717479911974,258.0812906598166,416.8223833834923,0.0
0.032,4.682184705726598,-0.8753527307955571,10.0,0.0,12.18265925087416,14.554756270355037,271.60421080272073,416.8223833834923,0.0
0.033,4.784710355489808,-0.9076344744835478,10.0,0.0,12.51095521770748,14.838050276360333,284.5642162554313,416.8223833834923,0.0
0.034,4.854747040621639,-0.9839543692271555,10.0,0.0,12.842823359442917,15.119165699581567,298.1507475800427,416.8223833834923,0.0
0.035,4.90775765418865,-1.0777348723797624,10.0,0.0,13.179168885726284,15.400225594013172,312.5225923051807,416.8223833834923,0.0
0.036000000000000004,4.94764002074378,-1.181077959659915,10.0,0.0,13.520415783393766,15.682957097444548,327.4512058152419,416.8223833834923,0.0
0.037,4.974998330481348,-1.2913888031494198,10.0,0.0,13.866911903548681,15.968929549893959,342.8309348531927,416.8223833834923,0.0
0.038,4.988770489580455,-1.408649119657428,10.0,0.0,14.219151183314034,16.259713014710396,358.81684771225036,416.8223833834923,0.0
0.039,4.987647429988949,-1.5329985660390737,10.0,0.0,14.577750717521392,16.556903319167784,375.2697172060359,416.8223833834923,0.0
0.04,4.972519228830042,-1.6604349466823405,10.0,0.0,14.942983836160694,16.861887418131722,391.7655955379398,416.8223833834923,0.0
0.041,4.943618359150403,-1.78808856344522,10.0,0.0,15.314959586869952,17.17592423271638,408.1825561665158,416.8223833834923,0.0
0.042,4.902349755612787,-1.91159146207618,8.9280515966752,0.0,15.693450226648526,17.382091154240108,422.5324552979705,416.8223833834923,0.0
0.043000000000000003,4.8047112084266645,-1.9972323943717674,1.696001311803058,0.0,16.06289396816781,16.831011954441724,425.6251586267959,416.8223833834923,0.0
0.044,4.380719707834233,-1.896002908372094,0.06162189495732484,0.0,16.328293762772418,16.310186495364107,427.34018579981273,416.8223833834923,0.0
0.045,3.919195251523775,-1.735431629320599,-0.9010697157142973,0.0,16.49842048617313,15.824959053837517,425.5204002555253,416.8223833834923,0.0
0.046,3.496201368709683,-1.5571793991379153,-0.07815711229092148,0.0,16.58500976055154,15.547328413833394,423.23005566569105,416.8223833834923,0.0
0.047,3.2035968436990676,-1.4067418542796626,1.0029384598042226,0.0,16.620411435859104,15.444767711086783,419.47080707907116,416.8223833834923,0.0
0.048,3.045988899242817,-1.2870991288465623,2.8560785161583784,0.0,16.630360549012195,15.56344852526367,416.3438934139233,416.8223833834923,0.0
0.049,3.0335368538769316,-1.215032917724027,4.424320248428002,0.0,16.644451976298523,15.825025004869989,415.82112721872113,416.8223833834923,0.0
0.05,3.1424090744232336,-1.1567366923842222,4.695715907676798,0.0,16.677599986140688,16.06392361972522,407.7893392243395,416.8223833834923,0.0
0.051000000000000004,3.2781691219719074,-1.0981719518669515,8.801940346459126,0.0,16.725463897280665,16.717373022727827,409.52634216851715,416.8223833834923,0.0
0.052000000000000005,3.6030811081828276,-1.1161367574429952,8.00639928652007,0.0,16.836448133625442,17.147309397555333,404.8983906878827,416.8223833834923,0.0
0.053,3.905139691725238,-1.067376744969187,10.0,0.0,16.973784334390608,17.742624723289197,401.13415518636316,416.8223833834923,0.0
0.054,4.261701675768942,-1.056806613648762,10.0,0.0,17.156243333332142,18.236004896982003,397.8131368951901,416.8223833834923,0.0
0.055,4.619078134001143,-0.9944386284028552,10.0,0.0,17.363039672684952,18.66254716263459,392.2697065183022,416.8223833834923,0.0
0.056,4.957119792242383,-0.9071112256067493,10.0,0.0,17.58282827021262,19.03350401783297,385.62623065715337,416.8223833834923,0.0
0.057,5.283893303971741,-0.7975250005151979,10.0,0.0,17.80655248277527,19.356779377556467,375.9585110967636,416.8223833834923,0.0
0.058,5.5976843958179705,-0.683782809795116,10.0,0.0,18.028816031325697,19.638850337578084,385.46882793830304,416.8223833834923,0.0
0.059000000000000004,5.826672909902334,-0.6939110481580388,10.0,0.0,18.259311849150368,19.892889730821764,405.1492901927353,416.8223833834923,0.0
0.06,5.917563043536815,-0.8754525578665722,10.0,0.0,18.512030308201247,20.1368667369646,426.46222512030124,416.8223833834923,0.0
0.061,5.9620893516656395,-1.07669433199555,0.24898088885957748,0.0,18.78419580201843,19.305116793614964,433.7011674664503,416.8223833834923,0.0
0.062,5.526964405310416,-1.058565682473351,-3.5392781250445173,0.0,18.9419631829302,18.312869100744333,437.9217477864692,416.8223833834923,0.0
0.063,4.893289146733319,-0.9899103933559005,-5.860561929083756,0.0,18.977358261156027,17.28351731592659,440.5783790220627,416.8223833834923,0.0
0.064,4.2145783781134485,-0.8976357198721986,-7.426437503266193,0.0,18.896814991885464,16.27992817425594,440.0589206880301,416.8223833834923,0.0
0.065,3.555960321909306,-0.8018184714220189,-7.399073709295297,0.0,18.714349984780217,15.452973271400188,438.01177230429533,416.8223833834923,0.0
0.066,2.9996979190233857,-0.7312111505277656,-6.58739340663593,0.0,18.460627355286043,14.83408123722771,435.2493425760729,416.8223833834923,0.0
0.067,2.576418065934418,-0.6950474378015968,-5.390448134450507,0.0,18.16711585013311,14.416251480247793,431.66490366376433,416.8223833834923,0.0
0.068,2.2882432918672038,-0.6873649531438402,-3.7466538810989567,0.0,17.860689083612385,14.207167890213892,428.17778624100634,416.8223833834923,0.0
0.069,2.1331047696569887,-0.7083784956945534,-2.116649198295102,0.0,17.566384949267498,14.165396044808677,424.5450493645654,416.8223833834923,0.0
0.07,2.089793750929891,-0.7466244484552312,-0.37750741988535363,0.0,17.301330963194747,14.276589346144405,420.8892487683095,416.8223833834923,0.0
0.07100000000000001,2.1448102631491452,-0.7944804351306188,1.4097242243944037,0.0,17.078783404869526,14.522877055294568,417.39817738120865,416.8223833834923,0.0
0.07200000000000001,2.283855050219169,-0.8487411754126774,3.149501977967677,0.0,16.90860949485612,14.881039712691944,413.92061882366266,416.8223833834923,0.0
0.073,2.491751167312233,-0.9053616314953855,4.917298902338969,0.0,16.796954884350072,15.34195047248382,414.51184909458124,416.8223833834923,0.0
0.074,2.7611160847956313,-0.9610106679094416,4.6447891097687934,0.0,16.748112000318528,15.670399469067226,406.1844226291002,416.8223833834923,0.0
0.075,3.002959013549197,-0.9534507789892221,8.914881950053234,0.0,16.735610226203114,16.40964551495807,407.5451869239766,416.8223833834923,0.0
0.076,3.3955631407815403,-1.027231860452266,8.327271767210197,0.0,16.80647475193847,16.925610705624685,404.0724591484709,416.8223833834923,0.0
0.077,3.7569818844387886,-1.0207566554644207,10.0,0.0,16.920399260803652,17.551112016703513,401.4672062901467,416.8223833834923,0.0
0.078,4.144892070802122,-1.031669334902138,10.0,0.0,17.086746596678235,18.069672432169682,397.3913160885834,416.8223833834923,0.0
0.079,4.522685224682976,-0.981504829859166,10.0,0.0,17.28268801816286,18.515333394613425,392.37036353844934,416.8223833834923,0.0
0.08,4.8721600585435665,-0.9051332829527723,10.0,0.0,17.495702168634136,18.901358102775404,382.7714156514794,416.8223833834923,0.0
0.081,5.203162479131889,-0.8081816185481434,10.0,0.0,17.71611640725903,19.237166237242207,375.5739364563329,416.8223833834923,0.0
0.082,5.515511297755355,-0.7100960570430992,10.0,0.0,17.938250140346607,19.53038663628212,384.4269596411715,416.8223833834923,0.0
0.083,5.770532698457753,-0.688530036540772,10.0,0.0,18.16610113338921,19.791569502835767,403.78566032000765,416.8223833834923,0.0
0.084,5.891056160332093,-0.8353630221553643,10.0,0.0,18.413652602405552,20.03871181523916,421.7205297247717,416.8223833834923,0.0
0.085,5.9491463129268745,-1.0253815087119298,2.096254896774756,0.0,18.680596859425677,19.41129839978239,430.34621622533814,416.8223833834923,0.0
0.08600000000000001,5.5989523666383985,-1.0603112532087828,-2.3518266819269114,0.0,18.86004743622718,18.502171464566047,436.51187421191713,416.8223833834923,0.0
0.08700000000000001,5.023377010680569,-1.0151073927914447,-5.631550583500656,0.0,18.92531853973605,17.445424816857887,439.2298206987999,416.8223833834923,0.0
0.088,4.343954932182542,-0.9203595649407695,-7.214598200095129,0.0,18.868417645663797,16.428522620536974,439.1513643662988,416.8223833834923,0.0
0.089,3.6747250222675576,-0.8216799661257796,-7.398659843672641,0.0,18.705609343775546,15.570025319119006,437.4867105134219,416.8223833834923,0.0
0.09,3.0979233687142878,-0.7455232812891938,-6.772976188533468,0.0,18.465841702590446,14.908518618946808,434.80685760114574,416.8223833834923,0.0
0.091,2.647740705747732,-0.7016762726143209,-5.612894474571929,0.0,18.179838551400763,14.454290053048487,431.3434978708759,416.8223833834923,0.0
0.092,2.334483834830276,-0.6881325798165202,-4.026425754310858,0.0,17.875961522619207,14.209751199881389,427.93856645832875,416.8223833834923,0.0
0.093,2.1557882579145997,-0.704698152935916,-2.435121878785637,0.0,17.579975961370213,14.134981213009558,424.31761303185834,416.8223833834923,0.0
0.094,2.091043948999951,-0.7396322317521529,-0.699597462034093,0.0,17.30978905049753,14.218419233998878,420.67042117715584,416.8223833834923,0.0
0.095,2.127931061003327,-0.785607553348038,1.0855180873805206,0.0,17.079672577398426,14.440797202660578,417.2261764764854,416.8223833834923,0.0
0.096,2.251356277484864,-0.8395605630535921,2.8036025067858015,0.0,16.90028062632706,14.775855955093691,413.70782399589507,416.8223833834923,0.0
0.097,2.445577733911321,-0.8949563641440219,4.59392434095695,0.0,16.777887753629027,15.219094086699034,413.60091380594946,416.8223833834923,0.0
0.098,2.7018871331147367,-0.9537647900780567,4.679594131705183,0.0,16.717972950203176,15.571037757166524,406.7462656736039,416.8223833834923,0.0
0.099,2.948984146042454,-0.9560301646815342,8.207679374976854,0.0,16.698905101113695,16.24441068166707,407.38464682088545,416.8223833834923,0.0
0.1,3.3139961691813307,-1.02192567774915,7.982866166962141,0.0,16.75630718207462,16.75084887107827,403.81682867608,416.8223833834923,0.0
0.101,3.664431953824324,-1.0137006222281033,9.896830786439,0.0,16.85704916264259,17.390269873787723,400.79468168784575,416.8223833834923,0.0
0.10200000000000001,4.052690048507398,-1.032569671973257,10.0,0.0,17.01381689145188,17.928827909011247,397.4862968240024,416.8223833834923,0.0
0.10300000000000001,4.435039192480584,-0.9937766200448754,10.0,0.0,17.20430772469302,18.389999396567518,392.4336827496768,416.8223833834923,0.0
0.10400000000000001,4.787782861862661,-0.9270497717316792,10.0,0.0,17.414914600570505,18.789124506499988,386.37805042247095,416.8223833834923,0.0
0.105,5.12261530032657,-0.8338556130832673,10.0,0.0,17.634789210885298,19.13609366148974,377.4674254338525,416.8223833834923,0.0
0.106,5.445196191606439,-0.7241929927058406,10.0,0.0,17.856242329012552,19.438217788355853,379.6877637503524,416.8223833834923,0.0
0.107,5.737895419035601,-0.6427627929114346,10.0,0.0,18.077901852240075,19.703303708243666,395.74423811041197,416.8223833834923,0.0
0.108,5.8628213516309415,-0.797554022776541,10.0,0.0,18.321745352416748,19.95323212815427,416.4763162846165,416.8223833834923,0.0
0.109,5.927268299508595,-0.9920671697913255,4.40608489294158,0.0,18.58604587843978,19.58138148937445,429.0994740366091,416.8223833834923,0.0
0.11,5.7003174309923175,-1.061800624071255,-2.0282648895858912,0.0,18.792456836483172,18.646915707083053,433.8425639764503,416.8223833834923,0.0
0.111,5.14285703820738,-1.0187863337725314,-4.570011665436092,0.0,18.879351214017422,17.670340085828062,438.024010824554,416.8223833834923,0.0
0.112,4.497860215888636,-0.9429232524395659,-6.872751363898553,0.0,18.851983795629117,16.637602611906843,438.5272660232205,416.8223833834923,0.0
0.113,3.826173990734258,-0.8451467443249938,-7.341427789629067,0.0,18.71408258660824,15.744310650236976,437.3151742892966,416.8223833834923,0.0
0.114,3.2282962865959606,-0.7645287834378782,-6.940309831725161,0.0,18.492752091706024,15.034417188662411,434.6758482169592,416.8223833834923,0.0
0.115,2.7478955083861525,-0.7120066278940093,-5.799181443891138,0.0,18.21759404263563,14.54175827539948,431.6691989010105,416.8223833834923,0.0
0.116,2.4060055807030456,-0.6939798259994374,-4.44432494109196,0.0,17.91922818049301,14.24127626424842,428.1716265086898,416.8223833834923,0.0
0.117,2.1935443009529476,-0.7024220304944909,-2.8090311761836104,0.0,17.621759613962947,14.127291458605807,424.66121071003704,416.8223833834923,0.0
0.11800000000000001,2.101456136790528,-0.732983720586835,-1.1322115501226646,0.0,17.34591678738684,14.171060583352434,421.0264060276625,416.8223833834923,0.0
0.11900000000000001,2.1130596305619602,-0.7758030701279746,0.6431505646228945,0.0,17.10643966749161,14.359192883371712,417.4561726743064,416.8223833834923,0.0
0.12,2.2152049366684725,-0.8270229829830648,2.421929348392812,0.0,16.914929486506477,14.671356337732771,413.9801843864513,416.8223833834923,0.0
0.121,2.39355704788416,-0.8831755432695034,4.188345482290773,0.0,16.779451251558925,15.091073136277622,412.8763476256568,416.8223833834923,0.0
0.122,2.635008905626761,-0.9434159467294457,4.779724220266368,0.0,16.70555743873834,15.477881748072043,407.80133846933194,416.8223833834923,0.0
0.123,2.890430018679529,-0.9601320206512226,7.407439247570412,0.0,16.678970232476043,16.076073179170276,407.4866619844735,416.8223833834923,0.0
0.124,3.2261689528052564,-1.0151421556517917,7.658134703989806,0.0,16.720744844060654,16.57870902484224,403.95388854665447,416.8223833834923,0.0
0.125,3.565146870066341,-1.0097133131165332,9.553206371267713,0.0,16.80745830502511,17.20727949438439,401.00621129343466,416.8223833834923,0.0
0.126,3.944775828758899,-1.030477049985929,10.0,0.0,16.95069576632833,17.77349143927297,397.9545941890325,416.8223833834923,0.0
0.127,4.3331967175803605,-1.0029458462913379,10.0,0.0,17.13299460621498,18.25400799133226,393.2073908825827,416.8223833834923,0.0
0.128,4.69152151879322,-0.9465881909093689,10.0,0.0,17.339191187263825,18.669171252929075,387.8238935273571,416.8223833834923,0.0
0.129,5.0303229039792665,-0.8608330856179136,10.0,0.0,17.55741495133923,19.029752942112758,380.8655315866821,416.8223833834923,0.0
0.13,5.358664347028109,-0.7504325301120237,10.0,0.0,17.778587997872727,19.343369293902107,371.337095668629,416.8223833834923,0.0
0.131,5.67281403051809,-0.6376157305459054,10.0,0.0,17.997699532534593,19.616468264412465,391.6517305475235,416.8223833834923,0.0
0.132,5.832595878991159,-0.7521739746803097,10.0,0.0,18.235939385631756,19.869733984840835,411.4172861761081,416.8223833834923,0.0
0.133,5.912423684453005,-0.9358735659876223,6.7461082110769715,0.0,18.494743198064494,19.75638578163847,426.32925436793636,416.8223833834923,0.0
0.134,5.801928936385226,-1.0571164963621897,-0.804944594681587,0.0,18.727831535361858,18.895128589597483,432.03585340158173,416.8223833834923,0.0
0.135,5.305109120153286,-1.0372525161205233,-3.810378811685169,0.0,18.848087852595057,17.94176394698236,436.993944026605,416.8223833834923,0.0
0.136,4.68122683417562,-0.9699554559002735,-6.491139730627926,0.0,18.853778037021613,16.894590894733625,438.24217556353926,416.8223833834923,0.0
0.137,4.002550905654546,-0.872390353815355,-7.329453420895531,0.0,18.7441227071535,15.955712798689946,437.4628576891894,416.8223833834923,0.0
0.138,3.3777025295974252,-0.7843988821222068,-7.146199226777558,0.0,18.542841689802437,15.19024463960056,435.05105519276617,416.8223833834923,0.0
0.139,2.8617191274903218,-0.7223174509318696,-6.122584696658693,0.0,18.279192915563527,14.642469941528105,432.1356107792909,416.8223833834923,0.0
0.14,2.483383251549371,-0.6955667069607926,-4.817994763879051,0.0,17.984809781416356,14.292833695476016,428.78654443514074,416.8223833834923,0.0
0.14100000000000001,2.2377635341065276,-0.6977894998631614,-3.2631032023204485,0.0,17.68541335073766,14.129949743217365,425.2529515645047,416.8223833834923,0.0
0.14200000000000002,2.114563534833812,-0.7230088698842771,-1.580612448812559,0.0,17.402420070674275,14.13403541313256,421.59143674609584,416.8223833834923,0.0
