timestamp,iq,id,iq_ref,id_ref,vq,vd,omega,omega_ref,r
0.0,0.0,0.0,0.0,0.0,0.0,0.0,0.0,74.45596757431156,0.0
0.001,0.0,0.0,10.0,0.0,0.0,1.0999999999999999,7.989970430119199,74.45596757431156,0.0
0.002,0.6756699798483057,-0.38013888762660025,10.0,0.0,0.1518152776389261,1.9156763022166863,15.435087327879629,74.45596757431156,0.0
0.003,1.1991637282887715,-0.673722835854748,10.0,0.0,0.39850950316445827,2.6141388894456274,23.284456773169428,74.45596757431156,0.0
0.004,1.5999606404152342,-0.8961775725837049,10.0,0.0,0.7119147464182354,3.228571917654723,31.352529954033386,74.45596757431156,0.0
0.005,1.9111494052160873,-1.067108960284948,10.0,0.0,1.0720006734473908,3.782679372361456,39.644775851765864,74.45596757431156,0.0
0.006,2.1579267351593816,-1.2010101158145297,10.0,0.0,1.4645085664755464,4.293351055654679,47.86525212972278,74.45596757431156,0.0
0.007,2.3584996631231285,-1.308067987853997,10.0,0.0,1.879270192899254,4.772611111144815,56.22504745469332,74.45596757431156,0.0
0.008,2.5254339965463477,-1.3962107460179576,10.0,0.0,2.3091067869072455,5.229064276331393,64.65268116427995,74.45596757431156,0.0
0.009000000000000001,2.668175412396814,-1.4701788156276805,6.423574683794426,0.0,2.748860098108525,5.275416787208178,70.07941000284215,74.45596757431156,0.0
0.01,2.553844094105953,-1.3981207336324284,3.7539758402280214,0.0,3.140607259561781,5.117221617657664,73.75159697575353,74.45596757431156,0.0
0.011,2.3027145113561605,-1.248439920320431,1.9249260597579134,0.0,3.461615879270293,4.866002134711048,75.93482072576309,74.45596757431156,0.0
0.012,2.005528687729465,-1.071138969645267,0.818525653238618,0.0,3.707395392272144,4.598771059888962,76.27492587593171,74.45596757431156,0.0
0.013000000000000001,1.722455697891429,-0.8974494174187683,0.6302834951381038,0.0,3.8845410052534373,4.4013645811693225,76.31877950631245,74.45596757431156,0.0
0.014,1.5013935500447335,-0.7741755067250536,0.589728560627726,0.0,4.012408174410594,4.260320796769395,77.81113622261584,74.45596757431156,0.0
0.015,1.345951777391569,-0.675298027694466,-0.19000148400701233,0.0,4.103740464625615,4.075691325673842,76.28219133372852,74.45596757431156,0.0
0.016,1.1839332653805534,-0.5733173185332248,0.5562087228424799,0.0,4.157247475492147,4.024806072503817,76.67388154521963,74.45596757431156,0.0
0.017,1.1108074066941709,-0.5340002065289341,0.3381844773878444,0.0,4.197010184726165,3.9593389360043343,77.18219290306288,74.45596757431156,0.0
0.018000000000000002,1.050704565552093,-0.488309690016119,0.05676654517870383,0.0,4.221617123690466,3.8814991079285073,75.79309516559351,74.45596757431156,0.0
0.019,0.9871257224958665,-0.4460299089338993,0.7379441380005696,0.0,4.231785515196837,3.8980403154139545,76.28806495253095,74.45596757431156,0.0
0.02,0.9827148053932016,-0.4446875151510841,0.47213827074965975,0.0,4.242866322795829,3.8777432324264063,76.68817975671469,74.45596757431156,0.0
0.021,0.9686654954021767,-0.4246933315049568,0.24975874683375654,0.0,4.248623405072921,3.840281564467257,75.32273488132594,74.45596757431156,0.0
0.022,0.9420700135254775,-0.4030733626752477,0.923813511457986,0.0,4.2478803575915824,3.8862966007860833,75.85404822561016,74.45596757431156,0.0
0.023,0.9642260267446985,-0.4160869921905616,0.6441760328028929,0.0,4.253460817425243,3.887432042153711,76.43815338090369,74.45596757431156,0.0
0.024,0.9680546812056237,-0.40705597509081304,0.33230159709020746,0.0,4.257473227236173,3.8573025803675844,75.15476635537152,74.45596757431156,0.0
0.025,0.9505534265707997,-0.3868963893009705,0.96700712204569,0.0,4.255944205621512,3.905487082397836,75.3007168838843,74.45596757431156,0.0
0.026000000000000002,0.9755181181931236,-0.4012545774005551,0.8855843646935702,0.0,4.261167532920197,3.9304755448805038,76.20167319260541,74.45596757431156,0.0
0.027,0.9930189378071665,-0.4032983966874775,0.41764915415007864,0.0,4.268448611977845,3.901153405017188,75.40790416474238,74.45596757431156,0.0
0.028,0.9789182784312582,-0.3804379440216749,0.805014302177288,0.0,4.269534281157287,3.9245071861618883,74.37532610460494,74.45596757431156,0.0
0.029,0.9903004187101013,-0.3827510599454965,1.3221097469430738,0.0,4.273329808811536,3.9972479615295957,75.60693958826693,74.45596757431156,0.0
0.03,1.0339416604291034,-0.4035750577030096,0.6947932849725262,0.0,4.286287369831218,3.984231731675235,76.01461013403025,74.45596757431156,0.0
0.031,1.0315963423222478,-0.3862675357055624,0.4753715864936774,0.0,4.294535484366201,3.9566440561042566,74.77873187302818,74.45596757431156,0.0
0.032,1.015382518136294,-0.36359137683757603,1.090083074007547,0.0,4.296878717635084,4.004212507634574,74.49061491314887,74.45596757431156,0.0
0.033,1.0406648285113491,-0.37498354194038985,1.2337950805588256,0.0,4.3052243724801,4.053976450801136,75.25876488277571,74.45596757431156,0.0
0.034,1.0718834174159877,-0.3864516637364418,0.8416921226607674,0.0,4.318859427903808,4.051848898025484,75.71195983413189,74.45596757431156,0.0
0.035,1.0747476385946169,-0.3723152592548993,0.6025347243844734,0.0,4.32924853679665,4.028908443397754,74.91543701985324,74.45596757431156,0.0
0.036000000000000004,1.0627877199570295,-0.34957495370977376,0.9962014370683794,0.0,4.333944619772285,4.056340090761991,73.89313018895767,74.45596757431156,0.0
0.037,1.0786292069234673,-0.349580424151135,1.512983226369705,0.0,4.341142263990786,4.132545348630995,74.46949639512691,74.45596757431156,0.0
0.038,1.1249138597953248,-0.37056939214836926,1.2246648350769311,0.0,4.357549401349614,4.160034107253487,75.13732498819334,74.45596757431156,0.0
0.039,1.14472103954269,-0.37091298418301405,0.8839369644048976,0.0,4.3748926062786495,4.150101878645127,75.29215738008158,74.45596757431156,0.0
0.04,1.1410410490842882,-0.3522528417435011,0.79815887040308,0.0,4.387452216265253,4.137471752504923,74.86021240593786,74.45596757431156,0.0
0.041,1.1343813193808827,-0.3326331023204925,1.0100889091586762,0.0,4.395521282727038,4.1522264555433255,74.3775797115915,74.45596757431156,0.0
0.042,1.1451974631924517,-0.32415306820305156,1.252189134959059,0.0,4.4035223064877975,4.189567946258245,73.67015466104277,74.45596757431156,0.0
0.043000000000000003,1.1703708358621763,-0.32709300531115126,1.6137597893661075,0.0,4.414865570367038,4.258666250448967,73.85645217205303,74.45596757431156,0.0
0.044,1.2147020765148726,-0.3424294591475672,1.5266061878835666,0.0,4.433641948828352,4.30416174515629,74.12380888199085,74.45596757431156,0.0
0.045,1.2456155764414496,-0.34758390296770497,1.3962494198378592,0.0,4.4555038631961175,4.330560447183415,74.3272892873639,74.45596757431156,0.0
0.046,1.2632178757650696,-0.34334511337639495,1.2957960000208144,0.0,4.477301645036575,4.345132044018853,74.41498771770075,74.45596757431156,0.0
0.047,1.272644249477084,-0.3336716774136859,1.252356583418494,0.0,4.497355118316543,4.3557915796116236,74.39848001000142,74.45596757431156,0.0
0.048,1.279674726788899,-0.3224031677249583,1.2611853129112616,0.0,4.51532639612166,4.368116974616161,74.29315420024027,74.45596757431156,0.0
0.049,1.2884287736988922,-0.31199259638553967,1.3154763515325518,0.0,4.531700607896269,4.38599804446719,74.10750045498054,74.45596757431156,0.0
0.05,1.3015576842091081,-0.303914482421146,1.4117878953557261,0.0,4.547441018655833,4.412423148257889,73.86969217298395,74.45596757431156,0.0
0.051000000000000004,1.321008092704884,-0.29882512206878764,1.5365547903672985,0.0,4.563770850219395,4.448532769929082,73.72224144791406,74.45596757431156,0.0
0.052000000000000005,1.347651150426138,-0.29624737391551476,1.6176174141662174,0.0,4.581846002100383,4.487597399992898,73.61681256295562,74.45596757431156,0.0
0.053,1.3766459745644037,-0.29434159007404787,1.678723406758998,0.0,4.6018362430586235,4.527551115107652,73.65138321076107,74.45596757431156,0.0
0.054,1.406215686274117,-0.29204241280383575,1.6694839264917767,0.0,4.623588979771206,4.560918360004746,73.72693973571911,74.45596757431156,0.0
0.055,1.4314766669988601,-0.28709031121225453,1.6389959423986784,0.0,4.645981427899871,4.587379859873195,73.88792841288677,74.45596757431156,0.0
0.056,1.4519371183186593,-0.2796300751457133,1.5641819954291005,0.0,4.668009676251108,4.603511760404012,74.06423159523153,74.45596757431156,0.0
0.057,1.465500289118836,-0.2692881556104083,1.479947764047517,0.0,4.688385281032087,4.610428325459773,74.18815235648147,74.45596757431156,0.0
0.058,1.4731928096080453,-0.25647134084808376,1.4206655356008506,0.0,4.70610855141204,4.612301546126926,74.29775882276671,74.45596757431156,0.0
0.059000000000000004,1.47784129948391,-0.24314325282444815,1.3674443899736777,0.0,4.7209088952857385,4.610063859349383,74.04282745312483,74.45596757431156,0.0
0.06,1.479571153784784,-0.23132756586790293,1.4990414760064854,0.0,4.732838991409326,4.624394067482507,73.32236271317895,74.45596757431156,0.0
0.061,1.4932680279280417,-0.2243390863380751,1.8706098945907526,0.0,4.744358522855155,4.6765514619858735,72.66096804229738,74.45596757431156,0.0
0.062,1.5346036642908634,-0.2259278851390708,2.219257225351676,0.0,4.760186493270142,4.754870641122861,73.25086886278984,74.45596757431156,0.0
0.063,1.5942949330334852,-0.23538825038842315,1.9363578022206633,0.0,4.78328833674675,4.786182606337571,73.70001423327875,74.45596757431156,0.0
0.064,1.6224612848376327,-0.23273757704407794,1.719344650386538,0.0,4.806825014676797,4.793129720896997,73.82707550805995,74.45596757431156,0.0
0.065,1.630983892198271,-0.22270656408623246,1.662102933658455,0.0,4.827625831577861,4.796953511180108,72.78283912063057,74.45596757431156,0.0
0.066,1.6373171178154078,-0.21021812628487702,2.200952411909954,0.0,4.845455527788561,4.861709435155682,72.77695037981928,74.45596757431156,0.0
0.067,1.686825379854203,-0.21036265956393618,2.2206869542605205,0.0,4.868118629814456,4.913172464662718,73.60343076822073,74.45596757431156,0.0
0.068,1.727675121284427,-0.21315885576712124,1.8159721281207037,0.0,4.893967860838029,4.9130411361858215,73.11851384766469,74.45596757431156,0.0
0.069,1.7323988895129483,-0.2028952735813352,2.0718051256651955,0.0,4.916062079909082,4.947585524559425,72.39129297243456,74.45596757431156,0.0
0.07,1.7622280189698483,-0.192814160963802,2.456062309299031,0.0,4.938395029344322,5.017360889669078,73.60975681457583,74.45596757431156,0.0
0.07100000000000001,1.8141676952365515,-0.1988802401042592,1.8552924958257506,0.0,4.966240300178628,5.007049688798122,72.54883797307527,74.45596757431156,0.0
0.07200000000000001,1.8133525471620575,-0.1863245400061443,2.4048232125883966,0.0,4.98882813604021,5.0676192751271785,73.6084521472707,74.45596757431156,0.0
0.073,1.8532711214572604,-0.19475475325532787,1.8834912797610897,0.0,5.016267027406933,5.0571496719776405,74.63165852510754,74.45596757431156,0.0
0.074,1.8394229134599693,-0.20252591606591086,1.3701311813347083,0.0,5.0406855950987,5.001137115403752,73.90251130582035,74.45596757431156,0.0
0.075,1.7952038477003183,-0.1907009752399983,1.740239353663213,0.0,5.055682595244946,5.003738786350417,75.11944852929535,74.45596757431156,0.0
0.076,1.7899260453620194,-0.1928769638913057,1.125135932375875,0.0,5.069797670631138,4.936355899751766,75.6415044221698,74.45596757431156,0.0
0.077,1.7383421231700924,-0.18661321001022557,0.8522526174600684,0.0,5.075052177005411,4.858878132341462,74.965920324825,74.45596757431156,0.0
0.078,1.6816282298525562,-0.17183095890396483,1.1849451386273322,0.0,5.07047004591835,4.834721291830181,75.10849885266268,74.45596757431156,0.0
0.079,1.6622402080427163,-0.17289210077189587,1.1071305619249854,0.0,5.064194992005403,4.8022009370783,76.09712313551414,74.45596757431156,0.0
0.08,1.6415031296591853,-0.17453853367660055,0.5964068648872289,0.0,5.055465904209398,4.7189908499072715,75.9915954498742,74.45596757431156,0.0
0.081,1.5848998385915913,-0.16840309491701455,0.6338144289515735,0.0,5.038597353883292,4.658469922924802,75.49927686317181,74.45596757431156,0.0
0.082,1.5441670518536605,-0.16484856956929417,0.8695406294141617,0.0,5.017033922490897,4.6317846136487075,75.45327222498894,74.45596757431156,0.0
0.083,1.5282169751918928,-0.17268244036003777,0.8825699019988273,0.0,4.995855574350587,4.606034630706083,75.5416602262042,74.45596757431156,0.0
0.084,1.5147386845801933,-0.18289854936096406,0.8275189748722687,0.0,4.975265496012242,4.575879027734593,75.628341716603,74.45596757431156,0.0
0.085,1.4986502636310761,-0.19118979402095737,0.7724544882499529,0.0,4.954528741033173,4.542808336367513,75.75141133854987,74.45596757431156,0.0
0.08600000000000001,1.4802120344878427,-0.19832542195029335,0.6979652396341356,0.0,4.93326059904093,4.505195187153983,75.85319931252886,74.45596757431156,0.0
0.08700000000000001,1.4588201634688698,-0.2034899246958738,0.6330989352624696,0.0,4.910854695349276,4.464994861188509,75.91049589352424,74.45596757431156,0.0
0.088,1.4356990465969657,-0.2076045669237696,0.5899053615726504,0.0,4.887070315047857,4.424800751533976,75.92241131421004,74.45596757431156,0.0
0.089,1.4125964199337546,-0.21185343479090268,0.5692832138307677,0.0,4.86207119085423,4.386721192064279,75.90474835555192,74.45596757431156,0.0
0.09,1.3910416033866069,-0.2169156960062959,0.5636268853474249,0.0,4.836278383188018,4.351673705019995,75.87994789248076,74.45596757431156,0.0
0.091,1.3716963645953861,-0.22298527931809364,0.5617873137013123,0.0,4.810177139136143,4.31931832441884,75.85390434387648,74.45596757431156,0.0
0.092,1.3542766349326194,-0.22984412571543378,0.5608297203078021,0.0,4.7841442586999285,4.289224135790782,75.83108647816043,74.45596757431156,0.0
0.093,1.338371155124364,-0.23722213693557348,0.5584874641273383,0.0,4.758448240214776,4.260863411218272,75.80670131132632,74.45596757431156,0.0
0.094,1.3235172047313868,-0.24485850261624553,0.5571727101742447,0.0,4.733251971233554,4.234122836626606,75.77792573300805,74.45596757431156,0.0
0.095,1.3095363574299763,-0.252662597305081,0.5583409177464171,0.0,4.708683358450255,4.209067696667682,75.74487393341734,74.45596757431156,0.0
0.096,1.2964024657031135,-0.26063617733941036,0.5619777539507138,0.0,4.684865145806283,4.18575449895001,75.70970898862882,74.45596757431156,0.0
0.097,1.2841013188437582,-0.26879236740538914,0.5670228122018008,0.0,4.661914879761853,4.164131175022545,75.67534903400248,74.45596757431156,0.0
0.098,1.272556253959598,-0.27710602014989827,0.5720089749180612,0.0,4.639930247830358,4.144020129868326,75.64390414423643,74.45596757431156,0.0
0.099,1.261614203952432,-0.28550515550827127,0.5758520541018373,0.0,4.618973742938565,4.125182777971378,75.61587435079252,74.45596757431156,0.0
0.1,1.2510990905368855,-0.29387760145595243,0.5782678830589809,0.0,4.599066131046919,4.107408063144034,75.58882299299464,74.45596757431156,0.0
0.101,1.2408542912639848,-0.30214079924356096,0.5804650077710938,0.0,4.580197036158863,4.090659360824883,75.55388324617002,74.45596757431156,0.0
0.10200000000000001,1.230731755434324,-0.31048509990469614,0.5869557244648189,0.0,4.562375221622545,4.075401657786564,75.528931189085,74.45596757431156,0.0
0.10300000000000001,1.2209654002307806,-0.31916214145232313,0.5887021168595927,0.0,4.5456808497996555,4.060987813309026,75.53736812811619,74.45596757431156,0.0
0.10400000000000001,1.2113964105666577,-0.3275290493156319,0.5736696418059541,0.0,4.530048120160788,4.045629805228124,75.55611771208306,74.45596757431156,0.0
0.105,1.2009143784181404,-0.3349295325282571,0.553293348444799,0.0,4.5151732467524734,4.029210591111929,75.56537084066912,74.45596757431156,0.0
0.106,1.1893170955723091,-0.3415159964582611,0.5375727514881969,0.0,4.500794445473545,4.012591189126464,75.56931830244999,74.45596757431156,0.0
0.107,1.1772216715794481,-0.347635388232722,0.5244655133163789,0.0,4.486798852579855,3.996125780793078,75.57067306916997,74.45596757431156,0.0
0.108,1.1649649215976985,-0.35346454758379436,0.5126410750078025,0.0,4.473136291753067,3.9799650264294955,75.57020595992796,74.45596757431156,0.0
0.109,1.1527000233502387,-0.3590859602794993,0.5017322457726432,0.0,4.4597839753756165,3.9641989358942173,75.56730391583616,74.45596757431156,0.0
0.11,1.140509061642062,-0.36455110504257615,0.4920699044032959,0.0,4.446735233379365,3.9489388103218683,75.55978401358503,74.45596757431156,0.0
0.111,1.1284603852821715,-0.36993611382464153,0.48479169113612763,0.0,4.4340030525439,3.934399287843941,75.54489246260196,74.45596757431156,0.0
0.112,1.1166253769663959,-0.37544628867434143,0.48134821774475656,0.0,4.421642406689835,3.9209158637410164,75.66192281716145,74.45596757431156,0.0
0.113,1.1048874434127796,-0.38178253743622015,0.4107734880365128,0.0,4.409811368626195,3.9009887545367254,76.16018274687605,74.45596757431156,0.0
0.114,1.0909913230659365,-0.38201363211265804,0.14460137145357188,0.0,4.397132781375277,3.8547092608220743,75.69766849781699,74.45596757431156,0.0
0.115,1.05930610331537,-0.37517490849167867,0.3634414867480449,0.0,4.380339532932916,3.8418704045711123,75.53431542641681,74.45596757431156,0.0
0.116,1.0478724361132838,-0.3793620835604326,0.4343345439270827,0.0,4.364470700203465,3.8351867954324845,75.49094058496851,74.45596757431156,0.0
0.117,1.0420269488279181,-0.38681786887322367,0.445672234544662,0.0,4.350298654466816,3.828651546260285,75.37963127767883,74.45596757431156,0.0
0.11800000000000001,1.0361268893086482,-0.3944516134416997,0.49209025115583294,0.0,4.337655442436017,3.826935774026961,76.21094823618846,74.45596757431156,0.0
0.11900000000000001,1.0334794623009045,-0.40176011624093133,0.05888196528224798,0.0,4.326832572247198,3.7762423825773426,75.4922653778925,74.45596757431156,0.0
0.12,1.0013742327558761,-0.3897630326899914,0.4078604163944204,0.0,4.310629885713704,3.775760856714755,75.34686720398389,74.45596757431156,0.0
0.121,0.9965216441722895,-0.39782085806971823,0.47165050705199874,0.0,4.297005646874577,3.7774470726950327,75.43346395337787,74.45596757431156,0.0
0.122,0.9953399311249442,-0.4079241849982812,0.41857716856434746,0.0,4.285943241225736,3.7712077376025244,75.75114001627718,74.45596757431156,0.0
0.123,0.9914720664036027,-0.4100494136719209,0.24678741269503668,0.0,4.275495884517343,3.7465336036825088,75.51129826506147,74.45596757431156,0.0
0.124,0.9739813211438998,-0.4077297236864203,0.3561549813953909,0.0,4.263349431902647,3.7389157809307427,75.50582272258558,74.45596757431156,0.0
0.125,0.966323847186331,-0.41051312889543934,0.3483942011505968,0.0,4.25198521374709,3.729565148361487,75.45033073850662,74.45596757431156,0.0
0.126,0.9586603870485235,-0.4125869312584898,0.36619656154812386,0.0,4.241022638358008,3.7228154305553605,75.38470407760114,74.45596757431156,0.0
0.127,0.9526274270930641,-0.41496154245180294,0.38972252696796783,0.0,4.230721817934857,3.7186412505768685,75.33557146944321,74.45596757431156,0.0
0.128,0.9481621402716781,-0.4179446249968024,0.4054927920956177,0.0,4.221338054524188,3.7157847280145515,75.0120262426752,74.45596757431156,0.0
0.129,0.9443023904094835,-0.4212552961947794,0.5617048187959834,0.0,4.212941358204682,3.7296810212697897,75.80675495209282,74.45596757431156,0.0
0.13,0.9495862185022612,-0.43156826415685307,0.15083259030936502,0.0,4.2078752806064985,3.6939701315781956,75.24380434670782,74.45596757431156,0.0
0.131,0.9272432106810419,-0.41964614697831415,0.42442952527790134,0.0,4.198330159229716,3.6980386773686105,75.01756878571102,74.45596757431156,0.0
0.132,0.9250308677285912,-0.4245279702855422,0.531931293662306,0.0,4.190802626305231,3.70985500926146,75.6936157332713,74.45596757431156,0.0
0.133,0.9303069271266342,-0.4314445130725407,0.1815313382925683,0.0,4.185921481335977,3.6795154519347526,75.06509807559233,74.45596757431156,0.0
0.134,0.910928921858136,-0.4212782310611045,0.4896988621192453,0.0,4.177307038681851,3.6913085041919373,75.00920821546859,74.45596757431156,0.0
0.135,0.9135248611729996,-0.42853221942838704,0.5121113857695458,0.0,4.171632947059372,3.6999651759439387,75.63043633603353,74.45596757431156,0.0
0.136,0.9187299222077365,-0.4306623533781739,0.1897526378698582,0.0,4.167553706625143,3.6709585865323486,74.79000166092136,74.45596757431156,0.0
0.137,0.8989148943310217,-0.4218748533775247,0.606629634559842,0.0,4.159993804953611,3.695756492810178,75.19033104138478,74.45596757431156,0.0
