timestamp,iq,id,iq_ref,id_ref,vq,vd,omega,omega_ref,r
0.0,0.0,0.0,0.0,0.0,0.0,0.0,0.0,235.80279176899816,0.0
0.001,0.0,0.0,10.0,0.0,0.0,1.0999999999999999,7.191569064778725,235.80279176899816,0.0
0.002,0.6956401220066222,-0.3877002922856486,10.0,0.0,0.1526470321514213,1.9134795865792713,14.220542969664562,235.80279176899816,0.0
0.003,1.1739855881088972,-0.6574743910244364,10.0,0.0,0.3971754676840379,2.6152143176645737,21.551578876507865,235.80279176899816,0.0
0.004,1.5420646412722625,-0.8626254067989143,10.0,0.0,0.7072934035197278,3.23552317800766,29.058560158911824,235.80279176899816,0.0
0.005,1.8309204659845062,-1.02237851163913,10.0,0.0,1.063951763180836,3.796719595713294,36.754514595095856,235.80279176899816,0.0
0.006,2.0624845975895045,-1.148968262361944,10.0,0.0,1.453391270177504,4.314878711385046,44.5746332475662,235.80279176899816,0.0
0.007,2.2522544256870987,-1.2516257075611965,10.0,0.0,1.8657291595063703,4.801606826414607,52.35901887590903,235.80279176899816,0.0
0.008,2.411267440574378,-1.3371717087304997,10.0,0.0,2.293889557081937,5.265302185517472,60.22601391754783,235.80279176899816,0.0
0.009000000000000001,2.548056389703807,-1.4094817773462758,10.0,0.0,2.7327020983462766,5.711987394212245,68.11745928247788,235.80279176899816,0.0
0.01,2.668343987070517,-1.472049944531773,10.0,0.0,3.178461304057905,6.1460215899449295,75.99699016350935,235.80279176899816,0.0
0.011,2.776391419950783,-1.527133582548946,10.0,0.0,3.6284815272816733,6.570545945032345,83.69474690338586,235.80279176899816,0.0
0.012,2.874742199367355,-1.5772483683692715,10.0,0.0,4.080913953751871,6.987881775526378,91.3899478872661,235.80279176899816,0.0
0.013000000000000001,2.966735572440435,-1.6216339904022359,10.0,0.0,4.534217991189874,7.399591502374152,99.05162990215325,235.80279176899816,0.0
0.014,3.0537050096686302,-1.6615952558764269,10.0,0.0,4.987314480550688,7.806813955916578,106.65479151538302,235.80279176899816,0.0
0.015,3.1369811055442414,-1.6974777822084324,10.0,0.0,5.439371031571439,8.21033313686681,114.17167186541316,235.80279176899816,0.0
0.016,3.2176266416586103,-1.7294075779601827,10.0,0.0,5.889727297854512,8.61066780681027,121.57540777397976,235.80279176899816,0.0
0.017,3.296562841821131,-1.7572911980896226,10.0,0.0,6.337829304760345,9.008128109730954,128.83823543682433,235.80279176899816,0.0
0.018000000000000002,3.3745880237866785,-1.7809384143425866,10.0,0.0,6.783189498854193,9.402859175035571,135.9265313775436,235.80279176899816,0.0
0.019,3.452419422343656,-1.8001036591765216,10.0,0.0,7.225358484838321,9.794871951197496,142.7980173019747,235.80279176899816,0.0
0.02,3.530742359258209,-1.8144844036818661,10.0,0.0,7.663902079287478,10.18406313926661,149.3162686594101,235.80279176899816,0.0
0.021,3.610108523656885,-1.8239492536808561,10.0,0.0,8.09840775915347,10.570242519259024,155.5592986050958,235.80279176899816,0.0
0.022,3.6915811893295416,-1.8275002661638133,10.0,0.0,8.528376771905233,10.953086197658788,161.53988439005155,235.80279176899816,0.0
0.023,3.7757137317719445,-1.824997639624507,10.0,0.0,8.953322452177645,11.332202556481812,167.2115637459176,235.80279176899816,0.0
0.024,3.863146735440658,-1.8161828789593764,10.0,0.0,9.372740602897348,11.707125542470642,172.5528426690182,235.80279176899816,0.0
0.025,3.954491152210905,-1.800871373015192,10.0,0.0,9.786113119096754,12.077324489124521,177.5355534780816,235.80279176899816,0.0
0.026000000000000002,4.050324827852685,-1.778953301907154,10.0,0.0,10.192910405579168,12.44221253258006,182.13454458931585,235.80279176899816,0.0
0.027,4.151172125387865,-1.75041631987136,10.0,0.0,10.592596880446031,12.80115663436583,186.32676823060967,235.80279176899816,0.0
0.028,4.257490434889298,-1.7153510898496598,10.0,0.0,10.984637312522764,13.153488432389906,190.09587826931826,235.80279176899816,0.0
0.029,4.369636319373594,-1.6739873136262535,10.0,0.0,11.368507518109867,13.498518229620988,193.42970889236875,235.80279176899816,0.0
0.03,4.487885480062267,-1.6266400524294335,10.0,0.0,11.743699121891954,13.835546118856763,196.25399738182327,235.80279176899816,0.0
0.031,4.613136295619847,-1.5725206614785225,10.0,0.0,12.109594693826777,14.163795281442718,198.57972708575159,235.80279176899816,0.0
0.032,4.74555386211388,-1.5119491577918849,10.0,0.0,12.465603953330696,14.482495660804798,200.42104214971994,235.80279176899816,0.0
0.033,4.884699020912086,-1.4461427918104774,10.0,0.0,12.811249339599335,14.790945136378193,201.82186465090226,235.80279176899816,0.0
0.034,5.030812570519213,-1.3750575539094552,10.0,0.0,13.14601382228916,15.088433164152322,202.81356238807095,235.80279176899816,0.0
0.035,5.183925763362945,-1.2988397324293426,10.0,0.0,13.469377551503609,15.37426752170127,203.45501018058204,235.80279176899816,0.0
0.036000000000000004,5.343914542527143,-1.2177426454907307,10.0,0.0,13.780829842203058,15.647787182637147,203.82409703185417,235.80279176899816,0.0
0.037,5.510460560162504,-1.132187592069576,10.0,0.0,14.07988878491922,15.908379932401138,204.03247759327277,235.80279176899816,0.0
0.038,5.683054880045525,-1.0427636932071485,10.0,0.0,14.3661200299995,16.155499386449566,204.59003636983414,235.80279176899816,0.0
0.039,5.859656917204477,-0.9525611329569754,10.0,0.0,14.639412053337699,16.388829738712516,211.76659117455807,235.80279176899816,0.0
0.04,5.956293827130516,-0.9974290811618847,10.0,0.0,14.91454540947342,16.617292218362724,218.52649374154018,235.80279176899816,0.0
0.041,6.006628542383568,-1.0995551814740123,10.0,0.0,15.195796869512874,16.845851336082905,225.56913944224868,235.80279176899816,0.0
0.042,6.0452803408971185,-1.21030964051383,10.0,0.0,15.482940824811656,17.07593133735105,233.35901921215253,235.80279176899816,0.0
0.043000000000000003,6.073005223661036,-1.3291983374882923,6.475699350446415,0.0,15.776348596784173,16.92138144345248,239.94138667361568,235.80279176899816,0.0
0.044,5.842283803381475,-1.331307505082322,3.1431296706686647,0.0,16.024003723635172,16.50594426291939,246.8389401664736,235.80279176899816,0.0
0.045,5.453674056956158,-1.2433836380069079,-0.4160085597350518,0.0,16.19565690269353,15.839076662482054,247.64939313541774,235.80279176899816,0.0
0.046,4.9175346338105665,-1.0913190474063383,-0.9397010578713143,0.0,16.26761013750701,15.289135586585108,248.6181358512276,235.80279176899816,0.0
0.047,4.473397858829632,-1.00871839250665,-1.5522258565985423,0.0,16.269808515116484,14.782736789897019,249.5213308602247,235.80279176899816,0.0
0.048,4.078809656654833,-0.9550190556285942,-2.141008752009359,0.0,16.21606625478862,14.307520174620185,250.03908849868665,235.80279176899816,0.0
0.049,3.7222796220255567,-0.9171446242886896,-2.5422505385372167,0.0,16.11654736488724,13.871474649061767,249.893189946045,235.80279176899816,0.0
0.05,3.4064587887072246,-0.8929476797887981,-2.610205243986858,0.0,15.981092891838578,13.496794178653595,249.40488290183927,235.80279176899816,0.0
0.051000000000000004,3.1422873513904945,-0.8880566493717725,-2.5020726332124053,0.0,15.821419775153082,13.184511091992713,248.8716414166754,235.80279176899816,0.0
0.052000000000000005,2.928106648775402,-0.8987601046285846,-2.366140387107243,0.0,15.647711951852472,12.922278386207687,248.1747779322485,235.80279176899816,0.0
0.053,2.7533584418543304,-0.9180566306921254,-2.141428506526297,0.0,15.467167223617842,12.709337648809123,247.37797229294762,235.80279176899816,0.0
0.054,2.6154328261091164,-0.943826394535673,-1.8587774921153493,0.0,15.286024603228975,12.54190534076911,246.56346145820672,235.80279176899816,0.0
0.055,2.510419291275982,-0.9732695643178262,-1.5591287716369844,0.0,15.109234065112592,12.413409083276914,245.63164376176462,235.80279176899816,0.0
0.056,2.432605818955379,-1.0037508040013272,-1.1915084433436012,0.0,14.940331459725993,12.325034493236725,244.71311034320684,235.80279176899816,0.0
0.057,2.381946948376157,-1.034966206598349,-0.821344919806795,0.0,14.78261053776287,12.270443227008515,243.45604560528224,235.80279176899816,0.0
0.058,2.353590189554552,-1.0647404088943286,-0.26934508920733835,0.0,14.638165589599826,12.265169996101971,242.19154841770583,235.80279176899816,0.0
0.059000000000000004,2.3563984422733846,-1.0988655406942696,0.29901593809378957,0.0,14.511093835637464,12.30238683277962,241.17160255632214,235.80279176899816,0.0
0.06,2.3869465730554134,-1.1316892728616677,0.7553007609123945,0.0,14.403720299959526,12.364350318771471,239.9318871578839,235.80279176899816,0.0
0.061,2.4292134869239095,-1.1644096118227405,1.3338675062426621,0.0,14.316551466412598,12.464115717136767,239.2823868821071,235.80279176899816,0.0
0.062,2.502096935450896,-1.1828211092484453,1.6238216929999743,0.0,14.249774117384122,12.563702475201563,239.4393781990281,235.80279176899816,0.0
0.063,2.558194523285748,-1.2160120191017922,1.5089601702391633,0.0,14.203100064174578,12.625676613009203,236.65203184018935,235.80279176899816,0.0
0.064,2.6146026009652172,-1.183335004530813,2.8941409489466317,0.0,14.163364449365412,12.824660519934163,238.6837205381087,235.80279176899816,0.0
0.065,2.741505663251311,-1.2179758741597573,1.8494873122958513,0.0,14.151638052534551,12.857613510792376,234.1775469867557,235.80279176899816,0.0
0.066,2.7734868074496597,-1.1719142118874772,4.118826535794783,0.0,14.138966402926357,13.143923518594107,236.75880546768445,235.80279176899816,0.0
0.067,2.964295607893712,-1.20785144014422,2.818637158343537,0.0,14.160606630790122,13.213951980293361,232.02795878880212,235.80279176899816,0.0
0.068,3.0242601930055106,-1.155653287119557,5.221808827586662,0.0,14.180984512922151,13.551804379642466,234.92645188731422,235.80279176899816,0.0
0.069,3.246508362048487,-1.1987453512138488,3.781325677147456,0.0,14.23837195535651,13.651576811285512,230.65945781689405,235.80279176899816,0.0
0.07,3.338984286528486,-1.122551385497855,5.966256051878581,0.0,14.291185639842034,13.99390804673013,232.13377957778226,235.80279176899816,0.0
0.07100000000000001,3.558893129832524,-1.1678780143947587,5.265785293346632,0.0,14.378698948259288,14.185121226374369,231.74508163757508,235.80279176899816,0.0
0.07200000000000001,3.715435320237166,-1.1049539978643739,5.500711364764452,0.0,14.46920733569193,14.38379044182572,227.24474505575606,235.80279176899816,0.0
0.073,3.866078481799298,-1.0637397723995945,7.836460122806388,0.0,14.566627481290622,14.81122135127785,228.94359752997303,235.80279176899816,0.0
0.074,4.1542701584333885,-1.1117561550604615,7.05562582808815,0.0,14.702742647622003,15.06620727153108,228.94970091340303,235.80279176899816,0.0
0.075,4.351761807211315,-1.0652091993375459,7.1211050449291005,0.0,14.845144560389432,15.305475008592582,228.02710702265142,235.80279176899816,0.0
0.076,4.53963813126114,-1.013136641172722,7.660158837768375,0.0,14.991970543745374,15.575005809110884,226.66078699948164,235.80279176899816,0.0
0.077,4.75168124100032,-0.9713612689326632,8.43473889704843,0.0,15.146992443452792,15.890633417674556,224.74232782119554,235.80279176899816,0.0
0.078,4.9990228029294865,-0.9422874807896163,9.504573125669506,0.0,15.3152945510725,16.275049279193297,223.16789850912127,235.80279176899816,0.0
0.079,5.299435970067207,-0.9240541388155998,10.0,0.0,15.503493104346397,16.651080346446427,222.27491419212174,235.80279176899816,0.0
0.08,5.601359269517449,-0.8925449221312128,10.0,0.0,15.707191228602674,16.973166462290173,221.55194317712198,235.80279176899816,0.0
0.081,5.8736150423590345,-0.8378721969136098,10.0,0.0,15.91702924441061,17.256484876957106,225.97287082737066,235.80279176899816,0.0
0.082,6.073841079199591,-0.8574275350548315,9.334029233524241,0.0,16.136913114552154,17.43989616110176,233.23881863460716,235.80279176899816,0.0
0.083,6.119306157188165,-0.9749214964705364,5.7266950612499,0.0,16.36587850846833,17.233808754350342,239.26274040914532,235.80279176899816,0.0
0.084,5.90093288141397,-0.9709697767019514,2.6801346875793453,0.0,16.54972899352904,16.796654039399716,243.74558865540766,235.80279176899816,0.0
0.085,5.527849049819964,-0.9150708930452465,0.35928259558408193,0.0,16.665369598584057,16.23562720678504,245.99974983347093,235.80279176899816,0.0
0.08600000000000001,5.087551782620581,-0.8339054526082942,-0.8697675740922808,0.0,16.704974250260616,15.674981981268889,247.163310009751,235.80279176899816,0.0
0.08700000000000001,4.665700414613195,-0.7669643710688008,-1.5651528446398455,0.0,16.67800204965293,15.152160543217356,247.72478157223946,235.80279176899816,0.0
0.088,4.28447883012794,-0.7265362439485107,-1.9651085239164905,0.0,16.597667242133017,14.679598617508557,247.95963201051705,235.80279176899816,0.0
0.089,3.9501609455557665,-0.709778053288524,-2.2041021454704746,0.0,16.476670603092828,14.256932413498562,248.05378136500303,235.80279176899816,0.0
0.09,3.6576667457403405,-0.7148588333658441,-2.373686718673512,0.0,16.326233475270755,13.87699998228273,248.21615051724586,235.80279176899816,0.0
0.091,3.4002543269616874,-0.7339845479126917,-2.579004882277405,0.0,16.15489983790869,13.524518353209368,247.8866760242457,235.80279176899816,0.0
0.092,3.167869592367692,-0.7555634786949835,-2.535106478329799,0.0,15.967633826616082,13.220021725994965,247.36998866541597,235.80279176899816,0.0
0.093,2.9713290066289435,-0.7863243634607954,-2.392434767879114,0.0,15.771812661747706,12.961798681568169,246.7432919701755,235.80279176899816,0.0
0.094,2.8082138524969507,-0.8237509968679285,-2.1884914222706526,0.0,15.573560629750618,12.746800137106767,246.0555066809328,235.80279176899816,0.0
0.095,2.6750235564657805,-0.8653969126082213,-1.94712592676865,0.0,15.37784073090446,12.571006795963036,245.27169359752426,235.80279176899816,0.0
0.096,2.568148177864292,-0.9085731219776557,-1.649908403349638,0.0,15.188446411701777,12.433925460355994,244.3995599775804,235.80279176899816,0.0
0.097,2.486346272347466,-0.9525236184274575,-1.2998092754635273,0.0,15.008686183374436,12.3350810110435,243.77783134090348,235.80279176899816,0.0
0.098,2.4299506478625923,-0.9943033990750408,-1.0686953528441205,0.0,14.841173803855323,12.255452023676964,242.9842762792856,235.80279176899816,0.0
0.099,2.384847901903264,-1.0302748372376977,-0.7437326671380617,0.0,14.685988823942889,12.204866799107323,241.82123607798968,235.80279176899816,0.0
0.1,2.358070559876624,-1.0626869189097716,-0.22239700958001318,0.0,14.544469434167027,12.200413374641059,240.70887491978917,235.80279176899816,0.0
0.101,2.360592838903277,-1.0972819921627748,0.2847227380123343,0.0,14.42013797816324,12.232277945190217,239.68633171335614,235.80279176899816,0.0
0.10200000000000001,2.3853312035535064,-1.1311214198088946,0.757158941785268,0.0,14.31480251112329,12.292723700701924,238.54790244358054,235.80279176899816,0.0
0.10300000000000001,2.4256985364521686,-1.163630386916517,1.298922469927244,0.0,14.229282758443881,12.387267937044001,237.86023170837123,235.80279176899816,0.0
0.10400000000000001,2.492620649900589,-1.183767850777428,1.6221834381381681,0.0,14.16365943602024,12.48698908655537,238.49804243123623,235.80279176899816,0.0
0.105,2.5481618235065984,-1.2169554625152228,1.276325570083288,0.0,14.118019823442658,12.523458505742921,235.37963808026078,235.80279176899816,0.0
0.106,2.5852357613618357,-1.180454219377322,2.839759282458389,0.0,14.076244101179036,12.723630587367747,237.4507811764293,235.80279176899816,0.0
0.107,2.714556892907,-1.2129336931904895,1.7877078402998139,0.0,14.062600913855086,12.754393307751112,233.04640930140857,235.80279176899816,0.0
0.108,2.741409292404713,-1.1732650100301052,4.017457602486074,0.0,14.048709967416098,13.034847872996536,235.491662236537,235.80279176899816,0.0
0.109,2.929220371369599,-1.2061516213875851,2.7979424302464744,0.0,14.068267786226475,13.109033025814137,231.06693157105897,235.80279176899816,0.0
0.11,2.9878843534284116,-1.1617585397896415,5.057666364964878,0.0,14.088076233348223,13.433945302535612,233.92759375525867,235.80279176899816,0.0
0.111,3.202415208801929,-1.1989968067203733,3.6460872530024244,0.0,14.142935203608308,13.527464500363564,229.39506436215117,235.80279176899816,0.0
0.112,3.2872354421223307,-1.1263790611441427,5.976429223624642,0.0,14.193299861942487,13.880386166211286,231.40856399599213,235.80279176899816,0.0
0.113,3.51358622610767,-1.1748153902786453,5.013621684434226,0.0,14.279974394688574,14.049789498385307,230.41157574127965,235.80279176899816,0.0
0.114,3.656404030643051,-1.103310964071239,5.56602797206765,0.0,14.366571957203298,14.267866266989072,226.5707514104815,235.80279176899816,0.0
0.115,3.8086030790467715,-1.0850630788861493,7.578760541051888,0.0,14.465025217218638,14.673357917416812,228.6116064252649,235.80279176899816,0.0
0.116,4.0871574767703205,-1.1158952234797606,6.630244887097518,0.0,14.597756331032372,14.89456268791294,228.31826126813996,235.80279176899816,0.0
0.117,4.262288203950949,-1.0585199121978028,6.851762770668573,0.0,14.732715204827388,15.12429338046055,227.4503141185845,235.80279176899816,0.0
0.11800000000000001,4.445255598539308,-1.002476318225393,7.369261121950449,0.0,14.871560218273522,15.380881424805285,226.14264920134607,235.80279176899816,0.0
0.11900000000000001,4.654828025027398,-0.9491213133861103,8.119695006246175,0.0,15.016870920216915,15.681844616852059,222.2528459090724,235.80279176899816,0.0
0.12,4.892516853918436,-0.918931180600032,10.0,0.0,15.17495950661257,16.142521723445324,222.12688463796601,235.80279176899816,0.0
0.121,5.233848509297029,-0.9401080534370301,10.0,0.0,15.365938302367919,16.518967334278564,221.62918649780448,235.80279176899816,0.0
0.122,5.529395145588681,-0.9156325423666447,10.0,0.0,15.572559704684938,16.847769450165714,221.01996393457387,235.80279176899816,0.0
0.123,5.799600696757604,-0.8656961485186832,10.0,0.0,15.78615093014641,17.137586350430187,222.718767929477,235.80279176899816,0.0
0.124,6.031726235677752,-0.8333858761030721,10.0,0.0,16.00430995706094,17.39694892944483,230.4042818681373,235.80279176899816,0.0
0.125,6.137362038345712,-0.9620600308420559,6.6742807340542045,0.0,16.24106659893092,17.27706335109115,236.46465092435557,235.80279176899816,0.0
0.126,5.976594964620026,-0.9802496268597019,3.637477614391499,0.0,16.44287313279309,16.910791580392907,241.8252348834793,235.80279176899816,0.0
0.127,5.648745353421435,-0.9385877787517083,0.8969612036848154,0.0,16.58310713694716,16.364694652664177,244.58056340029853,235.80279176899816,0.0
0.128,5.2123010577832,-0.8578001716834662,-0.5684807710377981,0.0,16.646238029616526,15.798167741419537,246.05696639920015,235.80279176899816,0.0
0.129,4.78109606367043,-0.7831823469387891,-1.4092240167906276,0.0,16.63900305724327,15.259847379676728,246.75284599464285,235.80279176899816,0.0
0.13,4.385685813297141,-0.7321642394636174,-1.8666643567684273,0.0,16.57379373235822,14.771907629530777,246.99529128857128,235.80279176899816,0.0
0.131,4.037619357734219,-0.7079524267656222,-2.099811998928372,0.0,16.464158246625058,14.339502292281292,247.1843374987932,235.80279176899816,0.0
0.132,3.7361532636904133,-0.7087101363278409,-2.308150561337288,0.0,16.32257124191909,13.948468780529248,247.36323746077252,235.80279176899816,0.0
0.133,3.469563855831766,-0.7242985367911434,-2.513204999244687,0.0,16.157746733463846,13.588217490860101,247.1379296632788,235.80279176899816,0.0
0.134,3.2305563252741822,-0.7445075908991141,-2.5139024794406373,0.0,15.975446658834466,13.273107635152606,246.68344103942093,235.80279176899816,0.0
0.135,3.025995639551269,-0.7734919034085299,-2.395464660215923,0.0,15.782851789932225,13.004425492593551,246.11306302505827,235.80279176899816,0.0
0.136,2.8552036881435243,-0.8098520156712306,-2.2133783655951937,0.0,15.58635796288811,12.778938699413828,245.47115223222352,235.80279176899816,0.0
0.137,2.7146240939551496,-0.850832632400087,-1.989106573810072,0.0,15.391109105947978,12.592956072844473,244.7457152624253,235.80279176899816,0.0
0.138,2.600650246056799,-0.8940214006794376,-1.715817323845238,0.0,15.20112783038837,12.44499725014325,243.89379758452478,235.80279176899816,0.0
0.139,2.511487941900838,-0.9380003204240002,-1.3707685430502394,0.0,15.0197545936037,12.336726770522164,243.3002364870656,235.80279176899816,0.0
