timestamp,iq,id,iq_ref,id_ref,vq,vd,omega,omega_ref,r
0.0,0.0,0.0,0.0,0.0,0.0,0.0,0.0,189.45367675862173,0.0
0.001,0.0,0.0,10.0,0.0,0.0,1.0999999999999999,21.26822243975911,189.45367675862173,0.0
0.002,0.6135442080302708,-0.3370204012616003,10.0,0.0,0.14707224413877595,1.9225101371166697,41.6338643959201,189.45367675862173,0.0
0.003,1.2243712514303804,-0.6775061262474712,10.0,0.0,0.3957715033111713,2.616420952241841,63.002737098452265,189.45367675862173,0.0
0.004,1.7304018864519073,-0.9571930237305626,10.0,0.0,0.7163526195521254,3.2162555123533685,85.14774265152911,189.45367675862173,0.0
0.005,2.1248921503657225,-1.1730805321609732,10.0,0.0,1.085809837132651,3.749831105397534,107.64045875356834,189.45367675862173,0.0
0.006,2.4281345075097276,-1.3368101977093854,10.0,0.0,1.487530280385562,4.237583104248632,130.202886096722,189.45367675862173,0.0
0.007,2.6634488471895756,-1.4610991452913116,10.0,0.0,1.9098883667768194,4.693879793746569,152.8821760846914,189.45367675862173,0.0
0.008,2.850223783457404,-1.5562832327643075,10.0,0.0,2.344867673624955,5.128590523341176,175.18762633809695,189.45367675862173,0.0
0.009000000000000001,3.003056673004582,-1.6297413390112339,8.601037548371929,0.0,2.7869486735601687,5.394498372494536,194.21567935121595,189.45367675862173,0.0
0.01,3.049038124762265,-1.6390271577200042,-0.9606089841135159,0.0,3.2116992174126944,4.63670241187109,188.75247768961117,189.45367675862173,0.0
0.011,2.508371473605229,-1.3154064779094259,1.7780038373789822,0.0,3.48250397785137,4.4539581235291195,194.84520820030266,189.45367675862173,0.0
0.012,2.1431060258187227,-1.0805495438421486,-1.3222767323835751,0.0,3.685355777462687,3.9829242819213553,187.29271231549473,189.45367675862173,0.0
0.013000000000000001,1.7006746653630003,-0.803724820986087,2.4755808544516644,0.0,3.7927168627786023,4.073060939857265,194.44433262260375,189.45367675862173,0.0
0.014,1.5711423156422415,-0.70164399352643,-1.1501358577426695,0.0,3.8898948615645152,3.737936871186171,185.99637151932023,189.45367675862173,0.0
0.015,1.3183417083002817,-0.5302344790875062,3.1084177462921043,0.0,3.9260084152910424,3.9772538161369546,192.83043954039897,189.45367675862173,0.0
0.016,1.357321556364119,-0.5235207258674401,-0.3423838920650357,0.0,3.983417890430177,3.767260916345239,185.79606807774925,189.45367675862173,0.0
0.017,1.2448401466446521,-0.4272898824027372,3.211377926068547,0.0,4.003568872827309,4.022192823974652,191.93065296973978,189.45367675862173,0.0
0.018000000000000002,1.3450699346191228,-0.4544299238288446,0.1193157179621025,0.0,4.05114566073919,3.865832087233406,186.615204452286,189.45367675862173,0.0
0.019,1.2888818401674922,-0.38507517238650335,2.8054246997523467,0.0,4.070428273112839,4.063440701304887,189.26445156022137,189.45367675862173,0.0
0.02,1.3793729377092545,-0.4032787490212932,1.482693397768667,0.0,4.11023942660052,4.060339280496369,188.73529876600315,189.45367675862173,0.0
0.021,1.4085679169822136,-0.37777585695043925,1.7544535748039625,0.0,4.14277196876444,4.102343512866582,185.72786693074087,189.45367675862173,0.0
0.022,1.4422494688032907,-0.35836946995730123,3.2954275907139117,0.0,4.1743720063004535,4.30677709528832,189.55329405941768,189.45367675862173,0.0
0.023,1.5688683960171268,-0.3873458976612819,1.381717853367548,0.0,4.226636869242408,4.2544182454789725,188.4607211856675,189.45367675862173,0.0
0.024,1.5840170245864016,-0.3460224597794226,1.937933845972183,0.0,4.263604018465189,4.292442463634248,185.6739897899904,189.45367675862173,0.0
0.025,1.6144583201611744,-0.3173505667618882,3.3690964134970436,0.0,4.297936200728108,4.479029641170431,186.78813063762445,189.45367675862173,0.0
0.026000000000000002,1.7337441243815928,-0.33712363193866224,2.8386814508899927,0.0,4.349955638617974,4.564917022108762,187.04941825516482,189.45367675862173,0.0
0.027,1.824847413577824,-0.33631998168276345,2.7320802271543743,0.0,4.405075738632769,4.63216711998802,186.87786974147946,189.45367675862173,0.0
0.028,1.896634059683005,-0.32303872177479886,2.84361255416848,0.0,4.459955936346695,4.704553288110133,186.7449664512825,189.45367675862173,0.0
0.029,1.966556800549574,-0.30713615702384045,2.937151302340354,0.0,4.514970261577913,4.777389163185919,186.14959672602535,189.45367675862173,0.0
0.03,2.0389128253140614,-0.2883632674048503,3.2678769652948896,0.0,4.56986074958301,4.876627383405102,185.25016725694536,189.45367675862173,0.0
0.031,2.12759219081655,-0.27764585709864475,3.7596267948516484,0.0,4.62819482457202,5.013184885066946,190.22736222887886,189.45367675862173,0.0
0.032,2.232259608896105,-0.2979378013269022,1.2632924541823272,0.0,4.696690530196485,4.851779145958584,195.2471498539931,189.45367675862173,0.0
0.033,2.1532068996704377,-0.27210786654877894,-1.3045360893285105,0.0,4.739151879079792,4.465608227139628,191.78250349295473,189.45367675862173,0.0
0.034,1.894882191144939,-0.17130942036549623,0.4044988238473475,0.0,4.727920471460493,4.363597851820899,192.49295660527875,189.45367675862173,0.0
0.035,1.7524163439603662,-0.13801349197843582,0.018879469218768374,0.0,4.7049565994105045,4.22424489123626,191.99990257852585,189.45367675862173,0.0
0.036000000000000004,1.6292223923646532,-0.1190875803551521,0.23994422439617757,0.0,4.668604927512364,4.136830832324568,192.1092494496327,189.45367675862173,0.0
0.037,1.5450350601046605,-0.1213391657260453,0.1587150619326425,0.0,4.627583950419897,4.05140582372411,192.082167875304,189.45367675862173,0.0
0.038,1.4751759313081738,-0.13149582142371974,0.1459709379301648,0.0,4.583217286449667,3.976674287103827,192.13303865262174,189.45367675862173,0.0
0.039,1.4162632618462505,-0.1469841178307041,0.0937419303313014,0.0,4.537416281262222,3.9051432905055474,192.13939149564735,189.45367675862173,0.0
0.04,1.3625291553164034,-0.16416711098580428,0.06370836144824032,0.0,4.490777523216687,3.838725515570867,192.10811164652867,189.45367675862173,0.0
0.041,1.3129617660516248,-0.1823615629157358,0.052803937128508505,0.0,4.443990423262978,3.778301563092587,192.07246040987994,189.45367675862173,0.0
0.042,1.2676263282025249,-0.2013578353511093,0.044441718940292585,0.0,4.3977472835054,3.7229217203800107,192.02474723654623,189.45367675862173,0.0
0.043000000000000003,1.2258769805270755,-0.22063488025118239,0.04258760082789981,0.0,4.352520985666982,3.672474291018263,191.96530251603946,189.45367675862173,0.0
0.044,1.1873750248438903,-0.23986056305069925,0.04719370350711016,0.0,4.308694629335176,3.6268919089330818,191.89123077779507,189.45367675862173,0.0
0.045,1.1519383231143228,-0.2587961052623714,0.05985403243756915,0.0,4.266583323243322,3.5863447222122162,191.79874961024956,189.45367675862173,0.0
0.046,1.1195904874288076,-0.27732080003834714,0.08264388769404807,0.0,4.226476790091806,3.551225299251272,191.76035618946833,189.45367675862173,0.0
0.047,1.0905111405282069,-0.29550546885344486,0.07877380377619869,0.0,4.188684034581247,3.517828807289951,191.73711634950072,189.45367675862173,0.0
0.048,1.0626525321352334,-0.3122242608016987,0.06755932785120944,0.0,4.152988125851769,3.4855714509153577,191.59758793513365,189.45367675862173,0.0
0.049,1.0352962823290148,-0.3267281830475052,0.11588442326962922,0.0,4.119064315885336,3.461128745955306,191.44194449687222,189.45367675862173,0.0
0.05,1.0120447039693716,-0.340954612064959,0.17382346501783497,0.0,4.087508484389005,3.443912085254235,191.28486274966417,189.45367675862173,0.0
0.051000000000000004,0.993662695599862,-0.35521499981545146,0.2340524787114373,0.0,4.058812948334577,3.4330968136994997,191.16965699404778,189.45367675862173,0.0
0.052000000000000005,0.9798008454325454,-0.36936705354142385,0.27449555416536997,0.0,4.033319560762472,3.4256809472925025,191.4784080199586,189.45367675862173,0.0
0.053,0.9688384943042712,-0.38203936403728334,0.09987272859658969,0.0,4.010886358924162,3.3979116273243255,191.5139406515279,189.45367675862173,0.0
0.054,0.9469983518828142,-0.3860129670256489,0.06150377388288719,0.0,3.9882299184966272,3.3704943545613943,190.65941693140192,189.45367675862173,0.0
0.055,0.9224063131082472,-0.38579160443230137,0.47670823221806935,0.0,3.9650333089204004,3.3920960678369965,190.35326684599502,189.45367675862173,0.0
0.056,0.9249908359883682,-0.39733454448475636,0.6207873740477854,0.0,3.9475884686610594,3.420384391940775,191.16526645616986,189.45367675862173,0.0
0.057,0.9385367451298261,-0.413031943137255,0.19767167198488567,0.0,3.936328229289281,3.394651676186266,189.63291523892656,189.45367675862173,0.0
0.058,0.9257988247602987,-0.40920003755589357,0.9620548958034887,0.0,3.923042258678755,3.460216150042767,192.22772696081677,189.45367675862173,0.0
0.059000000000000004,0.955010359354297,-0.427374786245842,-0.3630914671635668,0.0,3.9196788739266406,3.3611449992789693,187.95180065913286,189.45367675862173,0.0
0.06,0.9060536022070944,-0.39847595131988167,1.789890444673277,0.0,3.903384093244602,3.5274014576801944,191.77277507449767,189.45367675862173,0.0
0.061,0.9818898464742476,-0.43580480742409367,-0.14378774616789025,0.0,3.909739598991613,3.43233681762134,188.10143285108168,189.45367675862173,0.0
0.062,0.9489327262857123,-0.410781763752676,1.7054058046155054,0.0,3.9028272667931385,3.574545910301064,191.2458463808614,189.45367675862173,0.0
0.063,1.015773682873223,-0.4375990944512027,0.1152773435032528,0.0,3.914027213896037,3.5007547178362763,187.78352991999557,189.45367675862173,0.0
0.064,0.9925162231439124,-0.4116776178706225,1.8631370423224252,0.0,3.913608511311318,3.6468552209455902,190.85283441440228,189.45367675862173,0.0
0.065,1.064355796432848,-0.43629367485187476,0.31449321856126544,0.0,3.9308087103297438,3.582339458224502,187.396639137096,189.45367675862173,0.0
0.066,1.0487735702281038,-0.40832421008784975,2.063161233429662,0.0,3.936514511480364,3.736267652165913,190.50439373977085,189.45367675862173,0.0
0.067,1.1272469699005225,-0.43208606501417135,0.49877676228074797,0.0,3.9599360505996,3.6770167386271684,186.9175154584495,189.45367675862173,0.0
0.068,1.1180988508156342,-0.4009264569091268,2.3175775159431513,0.0,3.9714251690122193,3.843536025064636,190.20737978608284,189.45367675862173,0.0
0.069,1.2052110818513202,-0.42593657528836404,0.6651083218518634,0.0,4.001480013330088,3.784918849208178,186.43107195591028,189.45367675862173,0.0
0.07,1.2017736944856918,-0.38915107378386216,2.583488284965256,0.0,4.01837114928124,3.9639645981731157,189.65676716235288,189.45367675862173,0.0
0.07100000000000001,1.2964717941691466,-0.41662160123893144,0.9686097777066469,0.0,4.0548673595688705,3.9195232855682574,187.66888935867925,189.45367675862173,0.0
0.07200000000000001,1.3042309397250509,-0.3818006800345947,1.980396553542885,0.0,4.0791648109602265,4.010714530652905,187.1954503346727,189.45367675862173,0.0
0.073,1.3551912704143216,-0.3809053823060995,2.2396983297856514,0.0,4.11040136818282,4.108093679076305,189.60841632944084,189.45367675862173,0.0
0.074,1.429194593142035,-0.38098931279629034,1.0316679366933887,0.0,4.1482703698566965,4.0557514451838905,186.02159809834941,189.45367675862173,0.0
0.075,1.4277572424925933,-0.33604822989269406,2.8593978388418257,0.0,4.17217388954965,4.226459069814075,186.38213188271658,189.45367675862173,0.0
0.076,1.5247745461735298,-0.3522461181157549,2.7098463954172956,0.0,4.212988998269898,4.337072049240954,187.8303769838291,189.45367675862173,0.0
0.077,1.6212820327238233,-0.36077240577576514,2.001956842608962,0.0,4.26155980682118,4.354687254738776,187.88269533441726,189.45367675862173,0.0
0.078,1.6662420708323873,-0.3364441459853553,1.9915074815569236,0.0,4.30427368361357,4.377346957027864,186.50125339978237,189.45367675862173,0.0
0.079,1.7001452870116913,-0.30403889916238613,2.7117526824627634,0.0,4.341660848403011,4.478063789078808,183.9424335333628,189.45367675862173,0.0
0.08,1.7741872760472044,-0.29672620219801493,4.046275047925144,0.0,4.384900635720747,4.704237075963289,185.78598726755354,189.45367675862173,0.0
0.081,1.9319707007320142,-0.3304582458787673,3.1611750757404518,0.0,4.4502174247696855,4.784795035471184,186.08866258591576,189.45367675862173,0.0
0.082,2.0326743759677885,-0.32883159824298946,3.043487558286402,0.0,4.516542079187777,4.850234680705997,185.72808963187595,189.45367675862173,0.0
0.083,2.107406408252214,-0.3110328806800688,3.2610299065737647,0.0,4.580836640231976,4.9336558735463605,185.20908634177803,189.45367675862173,0.0
0.084,2.1866529371222163,-0.29220648276530964,3.562977455791158,0.0,4.645150947860799,5.03823341228529,191.0730859342036,189.45367675862173,0.0
0.085,2.259368549481684,-0.3150196698085239,0.614783567822561,0.0,4.716189293154531,4.804257572673647,195.33112058587471,189.45367675862173,0.0
0.08600000000000001,2.1290492797219582,-0.2670492705149704,-1.5730081962855311,0.0,4.751221344165005,4.404670272177503,191.85388358732135,189.45367675862173,0.0
0.08700000000000001,1.8482657338526336,-0.1565329337579474,0.1416082347041554,0.0,4.73111436697448,4.288613629229997,191.9728947281015,189.45367675862173,0.0
0.088,1.6925104386410534,-0.118468645533916,0.05691048461928516,0.0,4.6983305148711825,4.170014283053535,191.58735036506926,189.45367675862173,0.0
0.089,1.5794190569125346,-0.10567830117939986,0.22834593007092896,0.0,4.655938818363812,4.090583861822941,191.63389378391196,189.45367675862173,0.0
0.09,1.5046922598664578,-0.11321996542741297,0.18327205039667538,0.0,4.610800735894946,4.015273865703767,191.65386457957493,189.45367675862173,0.0
0.091,1.444678981479828,-0.12863235380524898,0.1512847743556578,0.0,4.564265408140132,3.9457673920339245,191.7286970844759,189.45367675862173,0.0
0.092,1.3924874614966245,-0.14738858417866021,0.09111831864663222,0.0,4.517342027251111,3.877400530002287,191.72722256434528,189.45367675862173,0.0
0.093,1.342962053205918,-0.16638954524311964,0.06912012065470363,0.0,4.470176841661186,3.814285758575036,191.70256502517282,189.45367675862173,0.0
0.094,1.2966941091842568,-0.18583208818189115,0.058960007575425966,0.0,4.423365367600147,3.7564625350321927,191.67360628296652,189.45367675862173,0.0
0.095,1.2538345350816988,-0.20557217570473652,0.05124008343512765,0.0,4.377429702789053,3.703244769623952,191.63187432761032,189.45367675862173,0.0
0.096,1.213958520226421,-0.225237867337454,0.05032408542334066,0.0,4.332731653122616,3.6546894196285904,191.5778580804966,189.45367675862173,0.0
0.097,1.1769316343709195,-0.24461524495283737,0.05609039576144559,0.0,4.289582728044651,3.610837451078981,191.5078119948881,189.45367675862173,0.0
0.098,1.1427217844600739,-0.2635514423524281,0.07057208620303701,0.0,4.248252706557323,3.5719839243533684,191.41739705561284,189.45367675862173,0.0
0.099,1.1114856096218042,-0.28200068423722763,0.09614235287075723,0.0,4.2090103891794985,3.5386445413137197,191.4483367146531,189.45367675862173,0.0
0.1,1.0834757538301947,-0.3001816601201012,0.06072592379031505,0.0,4.17217378016376,3.503332077363421,191.35345781408918,189.45367675862173,0.0
0.101,1.054683655877929,-0.31564771152382376,0.0891675635175968,0.0,4.1370090415501455,3.4742369757842164,191.22551660405173,189.45367675862173,0.0
0.10200000000000001,1.028663414042206,-0.3302035228865572,0.135419770082021,0.0,4.103897745375836,3.4519125424487918,191.07605552073457,189.45367675862173,0.0
0.10300000000000001,1.0068756163443822,-0.3444923947805756,0.1939265241194743,0.0,4.073291353280128,3.436619099036359,190.9337415278071,189.45367675862173,0.0
0.10400000000000001,0.9898310097870638,-0.35879509787408687,0.25028287289136275,0.0,4.045646664674095,3.427065520324457,190.87115649224634,189.45367675862173,0.0
0.105,0.9768949403049056,-0.3727428949476678,0.2674005933354886,0.0,4.021202317704635,3.4182747379617426,191.34568534498953,189.45367675862173,0.0
0.106,0.965358355716496,-0.38419596961430236,0.011216081100214992,0.0,3.9994436874384425,3.3807067891979345,190.91219739652865,189.45367675862173,0.0
0.107,0.9377216022280203,-0.38452099812327234,0.21337484895158532,0.0,3.9760253477118104,3.3724437589077407,190.38729713588205,189.45367675862173,0.0
0.108,0.9224161949525312,-0.3883656122502037,0.46648877550228374,0.0,3.954542196197691,3.3898933691813844,189.71684625855488,189.45367675862173,0.0
0.109,0.9250324572599767,-0.3999390498423893,0.7990825191665372,0.0,3.9381869528562214,3.4370630328872394,192.20379205865825,189.45367675862173,0.0
0.11,0.9497993361784834,-0.4191224841328653,-0.4718915338855134,0.0,3.9301786436155144,3.3320489285580317,188.27345708206033,189.45367675862173,0.0
0.111,0.8950503901020717,-0.39361335849871604,1.50507815117906,0.0,3.9094719167032954,3.473181862482889,191.6391502627044,189.45367675862173,0.0
0.112,0.9556697145769368,-0.4268958607723774,-0.19962317418379572,0.0,3.9088653223812297,3.3836283725304797,188.15887957985646,189.45367675862173,0.0
0.113,0.9208161787301613,-0.40639810786158703,1.553460139027822,0.0,3.8967764606532054,3.517295832035905,191.294845952918,189.45367675862173,0.0
0.114,0.9825291898195049,-0.43511518508044417,-0.03293473944590841,0.0,3.902627087071709,3.437216423075464,187.8313076951557,189.45367675862173,0.0
0.115,0.9535630267230988,-0.411588231812831,1.7150580800699065,0.0,3.8970095743206907,3.57767658463589,190.93259597916426,189.45367675862173,0.0
0.116,1.0205119714763495,-0.4379668790180416,0.1496247458601936,0.0,3.909136749726067,3.506197338253126,187.5049196265319,189.45367675862173,0.0
0.117,0.9985571343598028,-0.41211499465893076,1.8829504934972792,0.0,3.9097957892010746,3.652483421161702,190.57953939200277,189.45367675862173,0.0
0.11800000000000001,1.0707661196288953,-0.436463244614332,0.33438198442802625,0.0,3.927954359358126,3.588368469502171,187.12474115782618,189.45367675862173,0.0
0.11900000000000001,1.0555418432654387,-0.4080375827330318,2.085070457524278,0.0,3.93451527202702,3.742939047408247,190.24566702620976,189.45367675862173,0.0
0.12,1.1343849745826504,-0.4316041645931753,0.516687620656608,0.0,3.9587537318430615,3.68385467479567,186.63639355431812,189.45367675862173,0.0
0.121,1.1255857960509639,-0.3998913006121218,2.349497188645464,0.0,3.9709358275597237,3.852151807225065,189.96529351871308,189.45367675862173,0.0
0.122,1.2136478102868498,-0.4252356158257544,0.6799310388470687,0.0,4.00183443026097,3.7930822504742108,186.28169393526977,189.45367675862173,0.0
0.123,1.2105172015816295,-0.38773235448653376,2.5534506588022436,0.0,4.019357415117554,3.96701731646155,189.2422123668327,189.45367675862173,0.0
0.124,1.302375809184236,-0.4135571248824733,1.0753060869386755,0.0,4.055737365444162,3.9338443223079333,187.67381281758608,189.45367675862173,0.0
0.125,1.3154403156831997,-0.38184017613572346,1.8773045009723353,0.0,4.081414909256643,4.010109384225816,186.89411123419563,189.45367675862173,0.0
0.126,1.360665860333046,-0.37580596917713144,2.29275094791182,0.0,4.111804611601687,4.114150654509673,188.76874435880936,189.45367675862173,0.0
0.127,1.4361064173526423,-0.37767524445434997,1.3622837096030822,0.0,4.149825433090694,4.096474701490636,186.76490691523986,189.45367675862173,0.0
0.128,1.4550640407271522,-0.3422388579257346,2.3910901298216483,0.0,4.1783598818579755,4.205510871528531,184.96793933628783,189.45367675862173,0.0
0.129,1.5233190275991102,-0.3432186756633394,3.3344312935210048,0.0,4.2154066465687405,4.392657860921939,188.1691962400109,189.45367675862173,0.0
0.13,1.6540650721364947,-0.3695285721400652,1.7466476468455743,0.0,4.270347724182836,4.367005700045399,187.85256904102397,189.45367675862173,0.0
0.131,1.685188675101701,-0.33635733667130463,1.9209723235150196,0.0,4.313317543081535,4.382350278037516,185.84798809742446,189.45367675862173,0.0
0.132,1.7103380174436413,-0.29941822606792545,2.9593196819267455,0.0,4.3497932480778925,4.510477151150927,183.27985761426214,189.45367675862173,0.0
0.133,1.796546763649613,-0.29987535292340917,4.305123114951502,0.0,4.395853744946091,4.7578623428419995,186.54164083669002,189.45367675862173,0.0
0.134,1.9708985391651392,-0.3394504728998652,2.703351862956879,0.0,4.466395403225433,4.777145585156482,185.92283056425316,189.45367675862173,0.0
0.135,2.041549133312579,-0.3212804096984334,3.048065461118995,0.0,4.529416761756365,4.849462829784164,185.2978821353481,189.45367675862173,0.0
