timestamp,iq,id,iq_ref,id_ref,vq,vd,omega,omega_ref,r
0.0,0.0,0.0,0.0,0.0,0.0,0.0,0.0,324.10917596882945,0.0
0.001,0.0,0.0,10.0,0.0,0.0,1.0999999999999999,8.800747531471472,324.10917596882945,0.0
0.002,0.6070600442335881,-0.34565783980038806,10.0,0.0,0.14802236237804267,1.9232233951343052,16.737396475548344,324.10917596882945,0.0
0.003,1.087593601960344,-0.6175075328699015,10.0,0.0,0.390011715871354,2.6321385960853756,25.146065459958013,324.10917596882945,0.0
0.004,1.4593939151262612,-0.8267523482192766,10.0,0.0,0.6989920868681777,3.2582685134196887,33.806881868761465,324.10917596882945,0.0
0.005,1.750479364176067,-0.9894478863150875,10.0,0.0,1.0554914735357956,3.8243820798564334,42.66565896363655,324.10917596882945,0.0
0.006,1.9825778999057275,-1.118658114564601,10.0,0.0,1.4455384479068147,4.3469142438765,51.60053892647063,324.10917596882945,0.0
0.007,2.172030430468365,-1.2230447690372686,10.0,0.0,1.8590243709522365,4.837679095927067,60.629958445837055,324.10917596882945,0.0
0.008,2.3301434286478164,-1.3096406779742769,10.0,0.0,2.288719870336517,5.305218150583007,69.63913280856069,324.10917596882945,0.0
0.009000000000000001,2.465476985136509,-1.3827465621458457,10.0,0.0,2.7293754134174666,5.755667288479824,78.7674032713022,324.10917596882945,0.0
0.01,2.583474748652095,-1.446658475759546,10.0,0.0,3.1773095676357936,6.193510648473221,87.8066202061283,324.10917596882945,0.0
0.011,2.6895097839940516,-1.5019519620105006,10.0,0.0,3.629677806783096,6.621879211636653,96.66008849919078,324.10917596882945,0.0
0.012,2.786382050944777,-1.5508635212688,10.0,0.0,4.084473414987916,7.043052143387311,105.69537682618551,324.10917596882945,0.0
0.013000000000000001,2.8758635564752026,-1.595433179333231,10.0,0.0,4.540320302341823,7.458713099844548,114.46034655821103,324.10917596882945,0.0
0.014,2.9609081930961145,-1.6342998367782897,10.0,0.0,4.995978232344375,7.869932554418454,122.96085104165557,324.10917596882945,0.0
0.015,3.0424258954526335,-1.6686099553247897,10.0,0.0,5.450577761269727,8.277479355642217,131.3781508977112,324.10917596882945,0.0
0.016,3.1215191439980843,-1.6985246804507013,10.0,0.0,5.903419536003304,8.681846349319708,139.72709953550097,324.10917596882945,0.0
0.017,3.1989879419623106,-1.7242625561503684,10.0,0.0,6.353945851706977,9.08333018581219,147.77726360222889,324.10917596882945,0.0
0.018000000000000002,3.276410181616624,-1.74444485380416,10.0,0.0,6.801530593474453,9.481976511843465,155.52958627489932,324.10917596882945,0.0
0.019,3.354420478737347,-1.7591099514495296,10.0,0.0,7.245632831432763,9.877709769161621,162.97113439999492,324.10917596882945,0.0
0.02,3.4339685792341714,-1.7676869702483367,10.0,0.0,7.685694992418469,10.270309736460352,170.0718390820836,324.10917596882945,0.0
0.021,3.515656351156746,-1.7701481670132022,10.0,0.0,8.121195895491628,10.659465749221262,176.55627541755894,324.10917596882945,0.0
0.022,3.6010100524277386,-1.7649311826535303,10.0,0.0,8.551463829286345,11.044684221592812,182.67567910322785,324.10917596882945,0.0
0.023,3.6896671441921947,-1.7536280216955076,10.0,0.0,8.976035639076963,11.4255088970253,188.36467417959142,324.10917596882945,0.0
0.024,3.7831547844850295,-1.7347369884666661,10.0,0.0,9.394267753386174,11.801311216379034,193.53078141559556,324.10917596882945,0.0
0.025,3.882275792985162,-1.7079452919830551,10.0,0.0,9.805498711918931,12.171388080696232,198.14795613430152,324.10917596882945,0.0
0.026000000000000002,3.98758996256519,-1.6733546907400947,10.0,0.0,10.209077211858244,12.534987005866185,202.23417671032203,324.10917596882945,0.0
0.027,4.099707553514086,-1.6309598225058741,10.0,0.0,10.60434022482728,12.891304095204495,205.41468957777872,324.10917596882945,0.0
0.028,4.218347508608869,-1.5821731191495274,10.0,0.0,10.99076605674639,13.239586557754935,208.78574065507206,324.10917596882945,0.0
0.029,4.345940754822921,-1.523846070554132,10.0,0.0,11.367449443416705,13.578834499709647,212.26446208358408,324.10917596882945,0.0
0.03,4.4813999619153035,-1.4584553391591166,10.0,0.0,11.73377957564796,13.908201405817898,214.5236696987128,324.10917596882945,0.0
0.031,4.62451895883169,-1.3869768532319442,10.0,0.0,12.089204659128878,14.226876136948572,217.99519338327912,324.10917596882945,0.0
0.032,4.77378686041247,-1.3123992927107997,10.0,0.0,12.433465960576711,14.534237624109547,221.3623413115632,324.10917596882945,0.0
0.033,4.926077665960985,-1.2402998412156658,10.0,0.0,12.766852116536615,14.83002978310468,223.80043599419952,324.10917596882945,0.0
0.034,5.088736110596087,-1.1585834532149075,10.0,0.0,13.088211064634905,15.113211820941915,226.5587898511203,324.10917596882945,0.0
0.035,5.249549237263716,-1.0876932748836852,10.0,0.0,13.398771565970655,15.38414869031816,223.07302990679202,324.10917596882945,0.0
0.036000000000000004,5.413235520578604,-1.0200107215521665,10.0,0.0,13.698633525027308,15.642650562992404,230.01096240444676,324.10917596882945,0.0
0.037,5.556707995940163,-0.9920206608880728,10.0,0.0,13.991957394305988,15.891143334848262,241.68836176191226,324.10917596882945,0.0
0.038,5.615880362387001,-1.0919463960055955,10.0,0.0,14.292069885311948,16.139044980890862,247.23418191079446,324.10917596882945,0.0
0.039,5.656943969927538,-1.2106237417734493,10.0,0.0,14.599016542504867,16.388242438264818,254.2036576677774,324.10917596882945,0.0
0.04,5.705470033180497,-1.3037778910335809,10.0,0.0,14.909248462676816,16.638287584738237,266.220587620459,324.10917596882945,0.0
0.041,5.734606515517855,-1.41785806162757,10.0,0.0,15.225078982751656,16.891631656156935,276.3874259256841,324.10917596882945,0.0
0.042,5.7501986610741325,-1.542792592473107,10.0,0.0,15.547262854647947,17.14980060125344,286.4315043479201,324.10917596882945,0.0
0.043000000000000003,5.751701812334865,-1.6782652048291031,10.0,0.0,15.876697875914969,17.414361613846793,297.1119399396864,324.10917596882945,0.0
0.044,5.738919733681746,-1.823058052979075,10.0,0.0,16.214217983487558,17.686831087471965,309.1561378100088,324.10917596882945,0.0
0.045,5.71319734146813,-1.9729603254728802,10.0,0.0,16.560274349158227,17.968507266848846,322.3928168097332,324.10917596882945,0.0
0.046,5.676670596026823,-2.12223464898827,6.009331859665545,0.0,16.91481384906126,17.821408687494724,333.96519054852945,324.10917596882945,0.0
0.047,5.390931610215888,-2.134006207018831,0.12458484447040963,0.0,17.218991669186803,17.148124446782997,337.4226180820763,324.10917596882945,0.0
0.048,4.802795316316745,-1.9595912532615267,-1.7372633434354974,0.0,17.406119922734998,16.488468184108083,337.6675400116013,324.10917596882945,0.0
0.049,4.211710505510092,-1.7937237784986795,-1.9953079486257126,0.0,17.49206845197455,15.962861914613354,338.4856628365474,324.10917596882945,0.0
0.05,3.7326858970364096,-1.6647555946883923,-2.5481342297759424,0.0,17.504333675869162,15.48696253894147,337.52361155226276,324.10917596882945,0.0
0.051000000000000004,3.3278700297554074,-1.5428912278757767,-2.2012529434679484,0.0,17.455667041295847,15.143304326847796,335.60796515874284,324.10917596882945,0.0
0.052000000000000005,3.034800862131152,-1.4488938946524361,-1.3584176386071212,0.0,17.368380185984048,14.946577792943621,332.87309480760376,324.10917596882945,0.0
0.053,2.859017458256892,-1.3883748062379846,-0.0786216514253244,0.0,17.264432236419655,14.909549915190002,330.7940964862809,324.10917596882945,0.0
0.054,2.7989072585693484,-1.3679744513007168,0.8940283040615817,0.0,17.16553744587739,14.964877853413938,328.03983474565456,324.10917596882945,0.0
0.055,2.815539568316398,-1.35854407828398,2.2318525866065118,0.0,17.08123159072927,15.139787034217271,329.0231492835838,324.10917596882945,0.0
0.056,2.9073278681340917,-1.3796865315365898,1.691055584494352,0.0,17.02526721276426,15.205978408485198,326.5942197551838,324.10917596882945,0.0
0.057,2.977619494318494,-1.3141061362871562,2.8806699108307967,0.0,16.974093142012578,15.389405557565855,319.9931097060011,324.10917596882945,0.0
0.058,3.104531942291616,-1.2886490279214737,6.222385598050427,0.0,16.944234715276394,15.891807713978874,320.6773141838461,324.10917596882945,0.0
0.059000000000000004,3.408464135923154,-1.3634664309437199,5.914601976977782,0.0,16.976086832271232,16.241547040067044,321.95979727814034,324.10917596882945,0.0
0.06,3.664258061841314,-1.3542152071886588,5.294854216737541,0.0,17.037961861532132,16.469305217915505,319.18365625772236,324.10917596882945,0.0
0.061,3.8583288281677284,-1.2791576408745857,6.732179924057602,0.0,17.10826138559478,16.825988541276093,315.6242882405137,324.10917596882945,0.0
0.062,4.124458072950639,-1.231830065626574,8.596712809945094,0.0,17.202743831973088,17.31742533581845,309.1027170927196,324.10917596882945,0.0
0.063,4.477704907630605,-1.2212100663478795,10.0,0.0,17.336226788999628,17.8686870982246,307.86321931284846,324.10917596882945,0.0
0.064,4.87497392484577,-1.2241565234357312,10.0,0.0,17.511917936836575,18.323970984645374,306.20534308357674,324.10917596882945,0.0
0.065,5.234320962306726,-1.179488422566835,10.0,0.0,17.710625402865453,18.715740113259216,305.6217041271489,324.10917596882945,0.0
0.066,5.563559022613383,-1.1041069595616515,10.0,0.0,17.92079375523094,19.055580359355435,305.538529374291,324.10917596882945,0.0
0.067,5.864612310884077,-1.021470522544267,10.0,0.0,18.135593103527647,19.35262993497187,300.3749196203696,324.10917596882945,0.0
0.068,6.145268687997882,-0.9381394029637431,10.0,0.0,18.350277415772638,19.61359281925652,294.33912441720486,324.10917596882945,0.0
0.069,6.442591252604353,-0.8037571943056466,10.0,0.0,18.555640853465007,19.840028928001633,310.7595712872919,324.10917596882945,0.0
0.07,6.547367366858134,-0.9583678791652113,10.0,0.0,18.781462555683788,20.055805622719618,317.936381087772,324.10917596882945,0.0
0.07100000000000001,6.590095121732664,-1.1598751047051101,8.31625578730949,0.0,19.026899445113276,20.083722662898065,326.8141429959424,324.10917596882945,0.0
0.07200000000000001,6.514417829128109,-1.2906258700657074,3.850325162953169,0.0,19.26295186155194,19.667728541184577,339.5095224187938,324.10917596882945,0.0
0.073,6.156788103873354,-1.3060424964864161,-2.6513680129721617,0.0,19.434187945428043,18.684994627030054,343.7435279160965,324.10917596882945,0.0
0.074,5.443397198922404,-1.1811110202581094,-4.964714281096207,0.0,19.476130400851776,17.70310325723626,344.9518847865261,324.10917596882945,0.0
0.075,4.725771127987954,-1.0428820483929533,-5.7773198044879495,0.0,19.401733601610868,16.82914708382565,344.55827111140337,324.10917596882945,0.0
0.076,4.096669134759166,-0.9429443284988944,-5.785003918352335,0.0,19.237770005483295,16.10445260908666,342.94777620750193,324.10917596882945,0.0
0.077,3.5832145116909753,-0.8936796676835851,-5.16814246878834,0.0,19.013313586003843,15.553951811404723,341.51291560132404,324.10917596882945,0.0
0.078,3.196819857121257,-0.8943591359932002,-4.6247495620243395,0.0,18.756820116826344,15.127028922563408,340.06281422753665,324.10917596882945,0.0
0.079,2.9062507430859554,-0.9194690962629948,-4.059235257717717,0.0,18.48603900662905,14.802020276092758,338.4279082579936,324.10917596882945,0.0
0.08,2.689889575950093,-0.9598445154888557,-3.384969595837823,0.0,18.214025339316564,14.571842500257754,336.40074330029694,324.10917596882945,0.0
0.081,2.5417463345647437,-1.0050969358008182,-2.494302790304177,0.0,17.95076927319388,14.442843972145933,334.9739323628194,324.10917596882945,0.0
0.082,2.458569481859172,-1.0622607252819953,-1.889544885505321,0.0,17.7067744535121,14.365704413089317,332.72086813629835,324.10917596882945,0.0
0.083,2.4173206454851863,-1.1056723724238964,-0.8491296939194717,0.0,17.48366880318363,14.38398302347073,329.80172670252216,324.10917596882945,0.0
0.084,2.4375734703631036,-1.1496766389291455,0.5535155156316955,0.0,17.28910793177031,14.519369729815612,327.9113445514483,324.10917596882945,0.0
0.085,2.5261887773062215,-1.2120240966640021,1.4606849053424469,0.0,17.133959995818582,14.697978703642377,325.56498243698167,324.10917596882945,0.0
0.08600000000000001,2.647101540231395,-1.2620130608349809,2.619307897894232,0.0,17.017063062326173,14.949174570922551,327.95866526055937,324.10917596882945,0.0
0.08700000000000001,2.8087179324982916,-1.313510770607917,1.3839715931880803,0.0,16.942140267344335,14.999519259162163,322.72295933240105,324.10917596882945,0.0
0.088,2.885096739817482,-1.2534811933696344,4.015686723631527,0.0,16.872625990090704,15.332393721593029,317.75114869177565,324.10917596882945,0.0
0.089,3.0931855915537048,-1.289189453180858,6.5651723167147615,0.0,16.847878791157125,15.857029588372365,320.3336387061651,324.10917596882945,0.0
0.09,3.4231786211095017,-1.3686251870214359,5.311682682146673,0.0,16.886450746919202,16.129130088113325,320.3733948381804,324.10917596882945,0.0
0.091,3.6425901936369733,-1.3296068293681893,5.329162427445528,0.0,16.9432891803989,16.371500059102477,316.67298031334826,324.10917596882945,0.0
0.092,3.840840884217806,-1.259176483903176,7.253731646416403,0.0,17.011323613204922,16.78723123273588,310.8682882372064,324.10917596882945,0.0
0.093,4.140405111555461,-1.230446498749853,10.0,0.0,17.111671725181473,17.420067000889702,308.1446325532899,324.10917596882945,0.0
0.094,4.564297282203217,-1.2749661842948794,10.0,0.0,17.27045306803723,17.92855882339208,307.10854378289076,324.10917596882945,0.0
0.095,4.942230164859509,-1.261366107495763,10.0,0.0,17.462264253554302,18.36474590254408,305.5195005521975,324.10917596882945,0.0
0.096,5.284709904605506,-1.2041875142200273,10.0,0.0,17.672359383942524,18.742601949787094,305.0293784513567,324.10917596882945,0.0
0.097,5.601505325122753,-1.1197722408169337,10.0,0.0,17.890516711874643,19.072259206485185,305.21808577729456,324.10917596882945,0.0
0.098,5.893200271841095,-1.0313156907742553,10.0,0.0,18.110937964912694,19.361847980372843,299.93501022539067,324.10917596882945,0.0
0.099,6.166982976327036,-0.9440739908811651,10.0,0.0,18.329563948547893,19.617320854149263,295.39808068548825,324.10917596882945,0.0
0.1,6.455256240364033,-0.8139120588554647,10.0,0.0,18.53842922567332,19.840136806912355,311.1901691695738,324.10917596882945,0.0
0.101,6.553257443708368,-0.9703064924565226,10.0,0.0,18.76719457737889,20.053660292384166,317.4701390548228,324.10917596882945,0.0
0.10200000000000001,6.593735006624329,-1.1687082327263116,7.964930178917241,0.0,19.01469598955475,20.041377764272937,326.62080138525636,324.10917596882945,0.0
0.10300000000000001,6.4943831105411185,-1.2871058845258365,3.3644827595362043,0.0,19.247258731997146,19.580708596467655,339.7163824356144,324.10917596882945,0.0
0.10400000000000001,6.106925933603703,-1.2939866824607738,-3.339379830310655,0.0,19.410071194669623,18.53956897950007,342.5738457721029,324.10917596882945,0.0
0.105,5.361872516689943,-1.1493335897048405,-4.9527581965876575,0.0,19.436507801195592,17.586472880195636,343.789271798095,324.10917596882945,0.0
0.106,4.6620177929792925,-1.0181818740555686,-5.757272167876357,0.0,19.352010979344666,16.728500783734283,343.2931306899109,324.10917596882945,0.0
0.107,4.047567200058178,-0.9244581083126087,-5.701041160995134,0.0,19.181168532957454,16.02269778318801,341.72771891487713,324.10917596882945,0.0
0.108,3.549092031048411,-0.8815820520204266,-5.094520702938714,0.0,18.953050902619633,15.485233541036909,340.31434812797806,324.10917596882945,0.0
0.109,3.1734800315943867,-0.8865161159028127,-4.549887031080667,0.0,18.694970118690463,15.068881027640794,338.9071010422224,324.10917596882945,0.0
0.11,2.891183237342864,-0.9146680893588353,-3.994242738936761,0.0,18.42410953825594,14.751326749981752,337.28940622507,324.10917596882945,0.0
0.111,2.680592012141866,-0.9568911364008892,-3.3171976329229826,0.0,18.15294260353903,14.527702427614836,335.3041826532886,324.10917596882945,0.0
0.112,2.5369868929373465,-1.0037573921819711,-2.436535913876858,0.0,17.891262987722627,14.403116832908342,333.9143003918967,324.10917596882945,0.0
0.113,2.456691710022396,-1.06197017591405,-1.8396460274115785,0.0,17.649227517669917,14.329069525340174,331.681801965264,324.10917596882945,0.0
0.114,2.417207841201207,-1.1060304774851426,-0.7991230740595872,0.0,17.428255369201175,14.3502523012688,328.8687942575331,324.10917596882945,0.0
0.115,2.4386181401983094,-1.1510539209944235,0.5597845969188207,0.0,17.236010688942468,14.4835442274539,326.98423360452256,324.10917596882945,0.0
0.116,2.525792460971665,-1.2124642233320642,1.473314347067173,0.0,17.082624568150194,14.66180661650606,324.6760362581306,324.10917596882945,0.0
0.117,2.645517298958305,-1.262781743284331,2.6217444173701505,0.0,16.967324122513737,14.91179817583482,327.17201440745373,324.10917596882945,0.0
0.11800000000000001,2.8061509744855155,-1.3134506896291138,1.3431269583223329,0.0,16.893623286272202,14.956655857540646,321.7861679696868,324.10917596882945,0.0
0.11900000000000001,2.8783741045714097,-1.2527771532211447,4.059280257197225,0.0,16.824597523357085,15.294882517364266,317.0208589062491,324.10917596882945,0.0
0.12,3.0879404406590494,-1.2912281077037406,6.512817959541883,0.0,16.801133343073005,15.812781483514406,319.70124585095135,324.10917596882945,0.0
0.121,3.414105136316868,-1.3685952051616175,5.216703788369533,0.0,16.839931348607884,16.075653746007227,319.61635480587427,324.10917596882945,0.0
0.122,3.6277300918598114,-1.3267534709531255,5.304077522537628,0.0,16.895760518101046,16.318453737121327,315.8159526626271,324.10917596882945,0.0
0.123,3.8249533542111136,-1.2573277382859658,7.287210827223221,0.0,16.963068356504994,16.74026926294385,309.46743488076754,324.10917596882945,0.0
0.124,4.126311286461727,-1.2326126564217645,10.0,0.0,17.06380256197242,17.374032356059057,307.77315756551656,324.10917596882945,0.0
0.125,4.549347827491123,-1.2793437066484623,10.0,0.0,17.223227222548196,17.883844228490986,306.51218368953863,324.10917596882945,0.0
0.126,4.926888757372486,-1.266469611369392,10.0,0.0,17.41580714332662,18.321318242860638,304.8981999495493,324.10917596882945,0.0
0.127,5.268838734880594,-1.2098253831169712,10.0,0.0,17.626774349309194,18.700463759644094,304.37822989140255,324.10917596882945,0.0
0.128,5.585229448714525,-1.1254631692316657,10.0,0.0,17.845845985127006,19.031407966600824,304.7856907795186,324.10917596882945,0.0
0.129,5.876980966009709,-1.0360821013675285,10.0,0.0,18.067116582732492,19.322236156679512,299.7987739573251,324.10917596882945,0.0
0.13,6.1496040869635955,-0.9498236940667577,10.0,0.0,18.286748325460863,19.579037559378914,292.6688266687073,324.10917596882945,0.0
0.131,6.441436933998286,-0.8125743125269809,10.0,0.0,18.49586218628997,19.80274661411693,309.62313471045104,324.10917596882945,0.0
0.132,6.545693748534157,-0.9601157384767918,10.0,0.0,18.72403761717984,20.016446228335457,317.4999995840253,324.10917596882945,0.0
0.133,6.585505201627873,-1.1609520644235003,7.618745202391879,0.0,18.971382047997214,19.966318704789288,325.3662733758504,324.10917596882945,0.0
0.134,6.464685227439235,-1.2706566022885806,3.6730373324091152,0.0,19.199038419283934,19.549411370649125,338.0051150285339,324.10917596882945,0.0
0.135,6.0966616453633025,-1.2981238423454684,-2.785342884529671,0.0,19.364162771055568,18.56527005617468,341.4026378439696,324.10917596882945,0.0
0.136,5.392503640850585,-1.1597500890055907,-4.657038910998926,0.0,19.39886477093463,17.628529692258244,343.1774397388252,324.10917596882945,0.0
0.137,4.705435142950344,-1.0309167150947753,-5.7351224961266905,0.0,19.32363460083736,16.75759728534591,342.8590338709311,324.10917596882945,0.0
0.138,4.083199532505322,-0.9318174242455615,-5.76341814120065,0.0,19.159221618804278,16.035478649178167,341.2177107778103,324.10917596882945,0.0
0.139,3.5732379730440975,-0.8828106359435941,-5.113841942730042,0.0,18.934638317553013,15.490740332142682,339.7985866141042,324.10917596882945,0.0
0.14,3.1914233962333256,-0.885077212701276,-4.561173967329739,0.0,18.67877890604968,15.069215219849522,338.41666191246384,324.10917596882945,0.0
0.14100000000000001,2.904956401700888,-0.9120891730632259,-4.013286475945911,0.0,18.40930157433961,14.746690845564022,336.81841577347814,324.10917596882945,0.0
