timestamp,iq,id,iq_ref,id_ref,vq,vd,omega,omega_ref,r
0.0,0.0,0.0,0.0,0.0,0.0,0.0,0.0,264.35677475605735,0.0
0.001,0.0,0.0,10.0,0.0,0.0,1.0999999999999999,4.480350653902888,264.35677475605735,0.0
0.002,0.3584294968180721,-0.19245935829972882,10.0,0.0,0.13117052941297017,1.9505727553500114,8.959685782945103,264.35677475605735,0.0
0.003,0.7850565251183517,-0.42369242223196313,10.0,0.0,0.3577923248691929,2.6858606099614692,13.654036357761331,264.35677475605735,0.0
0.004,1.1903739121543522,-0.6421193344406235,10.0,0.0,0.6569953559445695,3.3299632163664454,18.487092036755897,264.35677475605735,0.0
0.005,1.5424873677546755,-0.8294404605102557,10.0,0.0,1.0091093992984788,3.904896558992788,23.44260941425145,264.35677475605735,0.0
0.006,1.836308634566889,-0.9830923583407218,10.0,0.0,1.3985338700802867,4.428748766898545,28.450487671057367,264.35677475605735,0.0
0.007,2.0780755793309664,-1.1066565849239258,10.0,0.0,1.8134566605203375,4.915502049835983,33.488456349173354,264.35677475605735,0.0
0.008,2.277416693301844,-1.2057898551118715,10.0,0.0,2.245231517664968,5.375562430434524,38.540642828848945,264.35677475605735,0.0
0.009000000000000001,2.443939050376083,-1.2860812085097588,10.0,0.0,2.687675643326879,5.816470210549218,43.59117321180279,264.35677475605735,0.0
0.01,2.585841883229655,-1.3523411374641907,10.0,0.0,3.1364518130850763,6.243587537175481,48.62163178024564,264.35677475605735,0.0
0.011,2.7097066390567712,-1.408215204701128,10.0,0.0,3.5885456466365975,6.660664653302494,53.62095755982986,264.35677475605735,0.0
0.012,2.820482486607716,-1.456483125318272,10.0,0.0,4.041888539041186,7.070296745499624,58.496965747223285,264.35677475605735,0.0
0.013000000000000001,2.921817685134137,-1.4991206166707534,10.0,0.0,4.495067796267629,7.4742608043551,63.472139701456285,264.35677475605735,0.0
0.014,3.0162767638323986,-1.5376053621276724,10.0,0.0,4.947132480743712,7.873769236376131,68.41053105597011,264.35677475605735,0.0
0.015,3.1057550454210308,-1.5728087053282809,10.0,0.0,5.397429060271791,8.269635273454897,73.29211238611418,264.35677475605735,0.0
0.016,3.1915836331843472,-1.6053018931764846,10.0,0.0,5.845504802786231,8.66239800294052,78.114684363483,264.35677475605735,0.0
0.017,3.2747196925745894,-1.6354026079578492,10.0,0.0,6.291035390745258,9.052405353073732,82.87510829487948,264.35677475605735,0.0
0.018000000000000002,3.3558620326009105,-1.663252480293956,10.0,0.0,6.733776133730862,9.439870730180532,87.56797046017206,264.35677475605735,0.0
0.019,3.435538153940574,-1.6888672523141965,10.0,0.0,7.173528466327451,9.824910693928105,92.18880920523124,264.35677475605735,0.0
0.02,3.5141715217069613,-1.7121631654085683,10.0,0.0,7.610115964759318,10.207568985319682,96.73012512651191,264.35677475605735,0.0
0.021,3.5921202614017984,-1.732989966672323,10.0,0.0,8.043368531495222,10.587832169726516,101.19205902442445,264.35677475605735,0.0
0.022,3.6696394238532015,-1.7512628839231343,10.0,0.0,8.473123912883175,10.965646671893555,105.55127799550732,264.35677475605735,0.0
0.023,3.747030732342142,-1.7667583433540193,10.0,0.0,8.899206977713925,11.340917409673413,109.79222909420687,264.35677475605735,0.0
0.024,3.824649426159886,-1.779133785929982,10.0,0.0,9.32141515392863,11.713505236923297,113.9121740752231,264.35677475605735,0.0
0.025,3.9027955254761864,-1.78813140143392,10.0,0.0,9.739527278526527,12.083235215083047,117.90573109473426,264.35677475605735,0.0
0.026000000000000002,3.981769164883815,-1.793501453881526,10.0,0.0,10.153301918094808,12.449897768544936,121.76735346887736,264.35677475605735,0.0
0.027,4.061877190522404,-1.7950001222005598,10.0,0.0,10.562476502043067,12.813249384191296,125.49291753599984,264.35677475605735,0.0
0.028,4.14342735953122,-1.7924041658754017,10.0,0.0,10.966768247282182,13.173013858333267,129.0800343882056,264.35677475605735,0.0
0.029,4.226720942899563,-1.7855255079927956,10.0,0.0,11.365876572607743,13.528884267104512,132.52582207057054,264.35677475605735,0.0
0.03,4.3120568060033495,-1.7742046269322624,10.0,0.0,11.75948459594004,13.880524458423467,135.82323214907652,264.35677475605735,0.0
0.031,4.39976390757192,-1.7582548216048504,10.0,0.0,12.147254566295592,14.227567010402241,138.95753684275047,264.35677475605735,0.0
0.032,4.49020324686205,-1.7374544829671237,10.0,0.0,12.528823255616597,14.569611047912474,141.90453721928952,264.35677475605735,0.0
0.033,4.583507982465973,-1.7119709819407034,10.0,0.0,12.903844298029988,14.906248423080246,144.66597005899388,264.35677475605735,0.0
0.034,4.679800872108315,-1.6820018767679592,10.0,0.0,13.271985207160085,15.237064994467966,147.257367107791,264.35677475605735,0.0
0.035,4.779533352272654,-1.6472044928847485,10.0,0.0,13.63286566134051,15.56160635570827,149.66945349075405,264.35677475605735,0.0
0.036000000000000004,4.882543469154642,-1.6082318532991087,10.0,0.0,13.986173189711344,15.879447838187202,151.24389115978096,264.35677475605735,0.0
0.037,4.9853980860391935,-1.5711443759586223,10.0,0.0,14.332244217381385,16.190552018566855,153.22732878478106,264.35677475605735,0.0
0.038,5.095988002444387,-1.523428518365767,10.0,0.0,14.66994069076058,16.49401653903982,154.7414075990746,264.35677475605735,0.0
0.039,5.20948823550102,-1.473140064674676,10.0,0.0,14.999159397519058,16.78952512833123,156.26815266719134,264.35677475605735,0.0
0.04,5.327204699151203,-1.4185132171907182,10.0,0.0,15.319501023844513,17.07659092069839,157.52933498674733,264.35677475605735,0.0
0.041,5.448629405218815,-1.3606252847935671,10.0,0.0,15.630693662685283,17.354804743430442,158.64714498653012,264.35677475605735,0.0
0.042,5.573845870269135,-1.2995572004166334,10.0,0.0,15.932449809957692,17.623756883678503,159.61281423193003,264.35677475605735,0.0
0.043000000000000003,5.70274610037918,-1.2356371227028635,10.0,0.0,16.22450502882292,17.883062563967407,160.1032338143875,264.35677475605735,0.0
0.044,5.8350563897641745,-1.1694158836927855,10.0,0.0,16.50664015831655,18.132378068582693,160.58082801295046,264.35677475605735,0.0
0.045,5.970480385891369,-1.101433219716756,10.0,0.0,16.778677444675072,18.371401999005666,160.95598129876456,264.35677475605735,0.0
0.046,6.109528186551321,-1.030815061526178,10.0,0.0,17.04032522467885,18.599786246910877,161.07677187573296,264.35677475605735,0.0
0.047,6.250851155728448,-0.9597206212087608,10.0,0.0,17.291532444619754,18.81734179942306,161.12882913814354,264.35677475605735,0.0
0.048,6.395375825296134,-0.8864858781337541,10.0,0.0,17.532029620482707,19.023778034717434,160.72036061402022,264.35677475605735,0.0
0.049,6.541135889876728,-0.8142305340788925,10.0,0.0,17.76190496187352,19.219032003660484,165.4242240885338,264.35677475605735,0.0
0.05,6.643841934870499,-0.8166045712164034,10.0,0.0,17.98930186354523,19.4079080455448,169.18617901479584,264.35677475605735,0.0
0.051000000000000004,6.7129162120590244,-0.8715972378909616,10.0,0.0,18.218872132201028,19.594065063367058,173.71881148210852,264.35677475605735,0.0
0.052000000000000005,6.7693398942842515,-0.9421150618027863,10.0,0.0,18.45130810973703,19.779047543999773,177.960945572841,264.35677475605735,0.0
0.053,6.813960468877521,-1.0258105033678637,10.0,0.0,18.687500057915738,19.964431347939808,182.3432872701621,264.35677475605735,0.0
0.054,6.850733277953832,-1.1157438876733932,10.0,0.0,18.927666909528536,20.15129716305126,187.05651781393266,264.35677475605735,0.0
0.055,6.8799680697306,-1.2114246882297475,10.0,0.0,19.172129211709347,20.340644982808158,191.90538942396526,264.35677475605735,0.0
0.056,6.9028314177570875,-1.3109153511513214,10.0,0.0,19.42106723056358,20.533281630442303,196.6923976157314,264.35677475605735,0.0
0.057,6.919394427687132,-1.414071435789218,10.0,0.0,19.674727374976754,20.72995511758642,201.85657831972114,264.35677475605735,0.0
0.058,6.929093549061976,-1.5217667774764747,10.0,0.0,19.93350378040224,20.93142599720551,207.07208564172856,264.35677475605735,0.0
0.059000000000000004,6.932963966271647,-1.6318989953578145,10.0,0.0,20.197587223797157,21.138298674725917,212.50856229767385,264.35677475605735,0.0
0.06,6.9303242033801835,-1.7452305816507971,10.0,0.0,20.46731474291804,21.351221506923935,218.0157453120261,264.35677475605735,0.0
0.061,6.921653557241191,-1.8604022278593626,10.0,0.0,20.74289735856666,21.570752181260616,223.6590202810497,264.35677475605735,0.0
0.062,6.9068641213717195,-1.9769728679549945,10.0,0.0,21.024545834032505,21.797428181212744,229.3645199614246,264.35677475605735,0.0
0.063,6.886301573833112,-2.0937229148969023,10.0,0.0,21.31237386070964,22.031715414586795,235.1200504388507,264.35677475605735,0.0
0.064,6.860324529552557,-2.20943164772189,10.0,0.0,21.606408268197793,22.27400857668663,240.87223279582687,264.35677475605735,0.0
0.065,6.829537735093235,-2.322529843584661,10.0,0.0,21.90655226536378,22.524602640273013,246.81462041544378,264.35677475605735,0.0
0.066,6.79520529235297,-2.4304263346290327,10.0,0.0,22.212478901228042,22.783620397974197,252.32183448616476,264.35677475605735,0.0
0.067,6.757223319752235,-2.533159569160633,10.0,0.0,22.523936340164042,23.051163736050363,257.4981062763626,264.35677475605735,0.0
0.068,6.717527659562705,-2.6275433910813875,10.0,0.0,22.840357257080015,23.327085187107357,262.6520365707646,264.35677475605735,0.0
0.069,6.678197217026444,-2.7104428028038265,7.535054997389166,0.0,23.160903324480362,23.33984202654015,266.4426604485603,264.35677475605735,0.0
0.07,6.554805931324617,-2.7316523721960007,5.618884201566303,0.0,23.45217452759985,23.21042818825713,268.8359428721025,264.35677475605735,0.0
0.07100000000000001,6.350708160247298,-2.6947923492698247,4.377451308634728,0.0,23.6971105283633,23.026903785811594,270.09968760027834,264.35677475605735,0.0
0.07200000000000001,6.104547559020588,-2.611780133881535,3.6881498161046062,0.0,23.890437745342403,22.847853276862136,269.6694505146441,264.35677475605735,0.0
0.073,5.857253726276127,-2.497403829336993,3.850141601335862,0.0,24.034775918382632,22.755493367395893,269.7449084344902,264.35677475605735,0.0
0.074,5.653040243008357,-2.3773651040565884,3.75853130462849,0.0,24.143383786436818,22.69509676052219,269.0000555649428,264.35677475605735,0.0
0.075,5.49176402579176,-2.2581917988263287,4.084524931313337,0.0,24.223182530675672,22.704074252104817,268.05830292075734,264.35677475605735,0.0
0.076,5.387753916586121,-2.14424751411951,4.5183859717590575,0.0,24.284557011383473,22.77442699697571,265.9817122179826,264.35677475605735,0.0
0.077,5.344907354446261,-2.034107244365623,5.54043194852718,0.0,24.33585333168172,22.95564138321366,265.0026405202916,264.35677475605735,0.0
0.078,5.376655551869646,-1.9400196800606124,6.023509139730329,0.0,24.39089322919793,23.162861226784337,264.0504234542143,264.35677475605735,0.0
0.079,5.457134894918426,-1.8577673401097492,6.502681185787415,0.0,24.45304423956803,23.394205983142676,261.2206564989822,264.35677475605735,0.0
0.08,5.579279783470217,-1.774671723542323,7.948925845974225,0.0,24.523796630114056,23.75029541275196,260.1451756279454,264.35677475605735,0.0
0.081,5.770412643382427,-1.703341371842112,8.528782272773746,0.0,24.616067342045056,24.107369733096174,259.2316598217265,264.35677475605735,0.0
0.082,5.994798427995649,-1.6401596449021796,9.036791325226488,0.0,24.72858172837098,24.46527501639254,255.50063882488718,264.35677475605735,0.0
0.083,6.24293787966143,-1.5719683320935052,10.0,0.0,24.858765977254407,24.87446259185532,254.8459893636427,264.35677475605735,0.0
0.084,6.526783025956734,-1.501322346903331,10.0,0.0,25.009761413552926,25.217376176336604,253.12692237452075,264.35677475605735,0.0
0.085,6.8073840081169665,-1.4209871446079125,10.0,0.0,25.17181825226913,25.513070289424924,249.58922523956477,264.35677475605735,0.0
0.08600000000000001,7.079128551055305,-1.3235792516324905,10.0,0.0,25.337327302218203,25.76831478517444,247.80667855384263,264.35677475605735,0.0
0.08700000000000001,7.342214032929025,-1.208529828903509,10.0,0.0,25.500128539176888,25.98836377876718,244.4104272924438,264.35677475605735,0.0
0.088,7.593056309591282,-1.0877510349473654,10.0,0.0,25.656519378691097,26.1777262010824,241.66858334647299,264.35677475605735,0.0
0.089,7.844250707091679,-0.9479687900752639,10.0,0.0,25.80203911748903,26.338668504159095,237.27441123553737,264.35677475605735,0.0
0.09,8.081054589364898,-0.8198835857541964,10.0,0.0,25.936409562688244,26.474532067732866,235.2636334363045,264.35677475605735,0.0
0.091,8.324082957994122,-0.6747301455155353,10.0,0.0,26.056243293341875,26.585881237742708,235.38868879448805,264.35677475605735,0.0
0.092,8.522564125747584,-0.6008565846243913,10.0,0.0,26.16855401063549,26.67867621905033,242.36040089157794,264.35677475605735,0.0
0.093,8.612887075656866,-0.6933549692986828,10.0,0.0,26.28982671225358,26.765472061144063,247.2849158710899,264.35677475605735,0.0
0.094,8.658413813698992,-0.8388545438381252,10.0,0.0,26.42273169727183,26.851610877504694,253.05306609524666,264.35677475605735,0.0
0.095,8.67145063010686,-1.014756494915885,10.0,0.0,26.56885428429748,26.94144752830664,259.5028416768628,264.35677475605735,0.0
0.096,8.669377292341578,-1.1908676093005628,9.7210554994034,0.0,26.726961480772307,27.00658731298359,266.04446333130534,264.35677475605735,0.0
0.097,8.627684258821711,-1.3880132504991909,6.433367786429637,0.0,26.895696845455333,26.726733135728715,270.6632239040637,264.35677475605735,0.0
0.098,8.454786091460926,-1.5198018843406702,4.060923008570378,0.0,27.03209854925516,26.28224773230734,274.5525424673384,264.35677475605735,0.0
0.099,8.15627353716621,-1.6056895269809819,2.0143060498202257,0.0,27.118541296684867,25.725555021222966,277.8930301226749,264.35677475605735,0.0
0.1,7.765648867529142,-1.64739986888666,0.20869966848581978,0.0,27.144399759446408,25.09500891174785,280.4955211360878,264.35677475605735,0.0
0.101,7.311205898448373,-1.6574104054397085,-1.2539333020209495,0.0,27.10530182058605,24.433352176456516,281.997677242217,264.35677475605735,0.0
0.10200000000000001,6.824546672725315,-1.6445960540305025,-2.1814203799471352,0.0,27.002438318062058,23.79554215708019,282.57095232463035,264.35677475605735,0.0
0.10300000000000001,6.33903953121691,-1.622859061780811,-2.650199696839552,0.0,26.843817238219454,23.217475128618894,282.4946921806871,264.35677475605735,0.0
0.10400000000000001,5.8837724019563895,-1.6009112201703484,-2.7934487991142136,0.0,26.64105467086032,22.715507399741746,281.90224874317505,264.35677475605735,0.0
0.105,5.477403238636554,-1.583707119538592,-2.672681820229375,0.0,26.406698614696012,22.298324982389065,280.8989209390616,264.35677475605735,0.0
0.106,5.130625514464882,-1.5735258206075642,-2.336439380002698,0.0,26.15311202053676,21.96928605781698,279.5776656058909,264.35677475605735,0.0
0.107,4.848412902803553,-1.5707871158269777,-1.8280206219156785,0.0,25.891780748799675,21.727931615314517,278.0259409241459,264.35677475605735,0.0
0.108,4.631935698428964,-1.5743492684793443,-1.1888499427240715,0.0,25.632866383825622,21.5707944433834,276.25880954740956,264.35677475605735,0.0
0.109,4.479302904793469,-1.582723259264131,-0.42430460226941413,0.0,25.385015255615652,21.495812668062232,274.5657948821193,264.35677475605735,0.0
0.11,4.386985703803745,-1.5960995922382157,0.32011252911509835,0.0,25.15583871941387,21.486412952672453,272.7470277457116,264.35677475605735,0.0
0.111,4.3484525372018545,-1.6091837869919021,1.1455935674224058,0.0,24.949945363386455,21.54170977441774,270.9062837949754,264.35677475605735,0.0
0.112,4.358343988831951,-1.6219180535238324,2.00047045240131,0.0,24.771440952507284,21.65519583400504,268.76004104853814,264.35677475605735,0.0
0.113,4.411927791371645,-1.6328585089422116,3.0295591626951426,0.0,24.62321169610547,21.838338532065148,266.51332183070934,264.35677475605735,0.0
0.114,4.514109956990582,-1.6372585726328037,4.131353300863021,0.0,24.508494237601617,22.08854630258191,264.85206230890805,264.35677475605735,0.0
0.115,4.658714038474034,-1.6448535774075193,4.957030186235164,0.0,24.43106075188815,22.367183438898888,262.8376467121652,264.35677475605735,0.0
0.116,4.836589768301045,-1.6432291031807646,5.979429265045496,0.0,24.38897968616503,22.69630035336209,261.3074878484361,264.35677475605735,0.0
0.117,5.047442226076785,-1.63644502497818,6.775001565986273,0.0,24.383288414600525,23.044171419064977,260.5286356460261,264.35677475605735,0.0
0.11800000000000001,5.2807066737698065,-1.6222564841198301,7.202709058291589,0.0,24.41146047805037,23.372227787516834,257.96345717484047,264.35677475605735,0.0
0.11900000000000001,5.518299988959095,-1.5962985918249308,8.549231469696567,0.0,24.466907489256567,23.790333495606095,256.59282542058395,264.35677475605735,0.0
0.12,5.797108005729856,-1.5608958740088212,9.31218684017956,0.0,24.554985650114244,24.214340251953235,255.38177876077015,264.35677475605735,0.0
0.121,6.092318721019353,-1.5272572215476816,10.0,0.0,24.673310445928294,24.6430989441127,253.63802592966155,264.35677475605735,0.0
0.122,6.405271063859143,-1.4803990773111795,10.0,0.0,24.817860622035486,25.002463464479955,251.93193586250976,264.35677475605735,0.0
0.123,6.703315198817235,-1.4184792904297647,10.0,0.0,24.9775496374541,25.3106912190042,248.29621785741813,264.35677475605735,0.0
0.124,6.990428509134202,-1.326100872868711,10.0,0.0,25.14255009872037,25.575463076832605,246.80941378818676,264.35677475605735,0.0
0.125,7.255455129246232,-1.226543796262539,10.0,0.0,25.30750020539178,25.803975999895638,243.0983230873699,264.35677475605735,0.0
0.126,7.514705726983655,-1.1032699169838902,10.0,0.0,25.46624203774777,26.000265341769513,240.6567239404096,264.35677475605735,0.0
0.127,7.759326411302737,-0.9804480461183434,10.0,0.0,25.61646095405312,26.168484163393877,237.2137141049241,264.35677475605735,0.0
0.128,8.005123192434176,-0.8405416726954842,10.0,0.0,25.75431837852252,26.310311555405068,233.06091711849055,264.35677475605735,0.0
0.129,8.238478842817834,-0.7121190991884219,10.0,0.0,25.87984538039455,26.428530796931195,236.17190329269448,264.35677475605735,0.0
0.13,8.467156039699425,-0.5871435509574403,10.0,0.0,25.99217852166165,26.524659879338778,238.45070045267275,264.35677475605735,0.0
0.131,8.564579418471498,-0.6704763788407813,10.0,0.0,26.113307623592274,26.613979567936184,245.29596131395647,264.35677475605735,0.0
0.132,8.61607550672319,-0.8100330107135809,10.0,0.0,26.245773685416747,26.701789861946963,250.4421346960444,264.35677475605735,0.0
0.133,8.639445736356956,-0.9726807066899954,10.0,0.0,26.39026985069853,26.792009968361906,256.8400563400595,264.35677475605735,0.0
0.134,8.63355599558424,-1.160293041513854,10.0,0.0,26.54834928996449,26.888539254444872,263.02910254236065,264.35677475605735,0.0
0.135,8.616308474758421,-1.3426903700608608,7.186359600034022,0.0,26.718461296704085,26.68356144173299,268.1815427940166,264.35677475605735,0.0
0.136,8.472358736171024,-1.4942154143202284,4.571891793826456,0.0,26.8659081030816,26.272299552319446,272.4557249216722,264.35677475605735,0.0
0.137,8.204264356609725,-1.5841382912629633,2.3538112283425114,0.0,26.965860305901106,25.727115232709707,275.7319069666673,264.35677475605735,0.0
0.138,7.8282697697223655,-1.634041907972807,0.6019688837388646,0.0,27.005889025546345,25.114601173853345,278.3888432351304,264.35677475605735,0.0
0.139,7.387259030442443,-1.6478336599309449,-0.8668199352834378,0.0,26.981681523889726,24.46804428165263,280.1909056790389,264.35677475605735,0.0
0.14,6.91047067053811,-1.6393208889665334,-1.9261924664674943,0.0,26.89416476085301,23.82991585046297,280.9709989973438,264.35677475605735,0.0
0.14100000000000001,6.427864909222197,-1.61966414734663,-2.4823813680328195,0.0,26.749509717132476,23.244580282373985,281.0617633162591,264.35677475605735,0.0
0.14200000000000002,5.969525320418779,-1.5985155184039481,-2.6948134130924686,0.0,26.558656839207597,22.73109842793615,280.6199880862964,264.35677475605735,0.0
0.14300000000000002,5.55584043492458,-1.5813170763923026,-2.636557931413522,0.0,26.333860721299562,22.299333836101216,279.7511745515126,264.35677475605735,0.0
0.14400000000000002,5.198775809020398,-1.570753444337734,-2.356095161976155,0.0,26.087377740892947,21.953674701474803,278.54843270629925,264.35677475605735,0.0
