timestamp,iq,id,iq_ref,id_ref,vq,vd,omega,omega_ref,r
0.0,0.0,0.0,0.0,0.0,0.0,0.0,0.0,182.1184099699653,0.0
0.001,0.0,0.0,10.0,0.0,0.0,1.0999999999999999,5.965720697302944,182.1184099699653,0.0
0.002,0.5207002390355977,-0.29965086057770296,10.0,0.0,0.14296159466354735,1.9327229737060847,11.485784290928445,182.1184099699653,0.0
0.003,0.9054559780541238,-0.5187468731735739,10.0,0.0,0.37600338001111705,2.6593536806062326,17.301774290764584,182.1184099699653,0.0
0.004,1.2072014959017827,-0.6903685346845178,10.0,0.0,0.6750914801541897,3.3072810457780664,23.310342967235595,182.1184099699653,0.0
0.005,1.4485574883984857,-0.8271679139405096,10.0,0.0,1.0223952219031882,3.896792780450863,29.455048974706347,182.1184099699653,0.0
0.006,1.6451083103780133,-0.9382631287805901,10.0,0.0,1.4047722427844156,4.442876685338499,35.70972493378376,182.1184099699653,0.0
0.007,1.8081343785313064,-1.0306137987746637,10.0,0.0,1.8125675736172313,4.956622542548428,41.99740241198464,182.1184099699653,0.0
0.008,1.9465730107177626,-1.1082569430375682,10.0,0.0,2.238575196256738,5.446175358261667,48.3102421167775,182.1184099699653,0.0
0.009000000000000001,2.0664355234827827,-1.17515022155759,10.0,0.0,2.677519167398189,5.917573164585247,54.67895839162427,182.1184099699653,0.0
0.01,2.171841742745146,-1.234729853993901,10.0,0.0,3.1255933488406487,6.3753295283994,61.04968399891925,182.1184099699653,0.0
0.011,2.2671624267565926,-1.2872193014678752,10.0,0.0,3.5798137914180503,6.822686460927752,67.43911833612535,182.1184099699653,0.0
0.012,2.3541461194435906,-1.335306822364516,10.0,0.0,4.0381126158144385,7.262114745105554,73.70188905602993,182.1184099699653,0.0
0.013000000000000001,2.4353818063468573,-1.3787366478297625,10.0,0.0,4.4988207917811796,7.695363994672725,80.00699337626426,182.1184099699653,0.0
0.014,2.5113533187469925,-1.4197581363997915,10.0,0.0,4.9608611405960135,8.123814627384865,86.22379224325353,182.1184099699653,0.0
0.015,2.5841521580429387,-1.4570690591505377,10.0,0.0,5.42323650441746,8.548376074508726,92.49421622550162,182.1184099699653,0.0
0.016,2.6536736439516293,-1.4925339952831946,10.0,0.0,5.885358510316231,8.969799538245349,98.61946847758813,182.1184099699653,0.0
0.017,2.7218337100475822,-1.5241618369314562,10.0,0.0,6.34653507521877,9.388490463786724,104.66741748208402,182.1184099699653,0.0
0.018000000000000002,2.7883021151682352,-1.5534821367653298,10.0,0.0,6.806372030750437,9.804800029361894,110.61409981920347,182.1184099699653,0.0
0.019,2.8539416885815343,-1.5798003127947737,10.0,0.0,7.264458043651354,10.218906664908463,116.3993922494804,182.1184099699653,0.0
0.02,2.9193576748260774,-1.602717316720335,10.0,0.0,7.7204038074883545,10.630871875437698,121.98571651875427,182.1184099699653,0.0
0.021,2.9848549977706864,-1.622259581032898,10.0,0.0,8.173871995029703,11.040684595636254,127.37190929226976,182.1184099699653,0.0
0.022,3.0509902939797273,-1.6379837555759253,10.0,0.0,8.624508872393381,11.448242953215534,132.5580113373257,182.1184099699653,0.0
0.023,3.1181539826482982,-1.6497047755513456,10.0,0.0,9.071969968230487,11.853382509981802,137.53893899245696,182.1184099699653,0.0
0.024,3.186776747208707,-1.657171737132267,10.0,0.0,9.515903065734655,12.255877353440194,142.31008942527134,182.1184099699653,0.0
0.025,3.2571703181958958,-1.6603461239647972,10.0,0.0,9.955966850770013,12.65545895714018,146.82693886064766,182.1184099699653,0.0
0.026000000000000002,3.330024797309087,-1.6585789005026172,10.0,0.0,10.39175627922267,13.051778721981124,151.06186649425806,182.1184099699653,0.0
0.027,3.4058173249583508,-1.6516005550514152,10.0,0.0,10.822848795549143,13.44443681993295,155.00224339840446,182.1184099699653,0.0
0.028,3.4850364371352867,-1.6391470130822972,10.0,0.0,11.248797763876064,13.832982182659268,158.6352244980911,182.1184099699653,0.0
0.029,3.568137557202045,-1.6210253514851896,10.0,0.0,11.669137524286931,14.216918973860079,161.8817430457478,182.1184099699653,0.0
0.03,3.65530208836613,-1.5975047753918732,10.0,0.0,12.083430941022502,14.595738974754514,164.94229803900288,182.1184099699653,0.0
0.031,3.7473547282669677,-1.5677908649314887,10.0,0.0,12.491143691784242,14.968852172155605,168.29794565159702,182.1184099699653,0.0
0.032,3.844929430296961,-1.5313782474264022,10.0,0.0,12.89168823838897,15.335612634068468,172.18273217338046,182.1184099699653,0.0
0.033,3.9468608512050594,-1.4907126511658633,9.442743177933952,0.0,13.284745287110898,15.634216544743666,175.6104734108787,182.1184099699653,0.0
0.034,4.023561036621805,-1.4322805582684304,7.793951924775692,0.0,13.662336147772047,15.759053593410034,177.98074575151867,182.1184099699653,0.0
0.035,4.027137420502122,-1.3292176486582106,6.650192396640181,0.0,14.003899028105563,15.80021398733988,179.82575584969288,182.1184099699653,0.0
0.036000000000000004,3.997471124263056,-1.2159926370065517,5.750613888755797,0.0,14.303997537613132,15.787197645749266,179.88360991782076,182.1184099699653,0.0
0.037,3.9516857025182954,-1.103936497297228,5.744034855213302,0.0,14.561590636759377,15.818504614087178,174.76941539950968,182.1184099699653,0.0
0.038,3.9537335390337645,-0.9911363239091597,8.3746220600734,0.0,14.785267665149192,16.161187462141807,179.51907483850687,182.1184099699653,0.0
0.039,4.1204797771089465,-0.9595181925718852,6.025785691889391,0.0,15.01849528279227,16.188970247858002,176.203306444921,182.1184099699653,0.0
0.04,4.131351367644734,-0.8820948797218424,7.742820923932769,0.0,15.222978034142525,16.4501313433953,178.60965927959393,182.1184099699653,0.0
0.041,4.282063467503809,-0.8224056672940587,6.574732013500018,0.0,15.42733703967293,16.543494856966724,173.87146177756588,182.1184099699653,0.0
0.042,4.342681949605825,-0.7596008590914309,9.026300246438034,0.0,15.614284859229429,16.92415040242893,178.04189564781257,182.1184099699653,0.0
0.043000000000000003,4.554360582230722,-0.7542942443483129,6.98184845453622,0.0,15.820647771836775,17.013351331094263,178.51398026998572,182.1184099699653,0.0
0.044,4.626832529340402,-0.6890521843227848,6.781850440449437,0.0,16.00817092559455,17.106858066667453,179.13897503799777,182.1184099699653,0.0
0.045,4.623946168645893,-0.7492030089723285,6.4991474057630905,0.0,16.193561448845564,17.181711309531966,187.66826486703005,182.1184099699653,0.0
0.046,4.608233317268747,-0.8073917351303928,2.179003942276303,0.0,16.373697495688823,16.796929079842982,186.11957099303402,182.1184099699653,0.0
0.047,4.374551053264688,-0.7441025990747119,2.9133392690436315,0.0,16.489798022651158,16.618164918913173,192.30981104405953,182.1184099699653,0.0
0.048,4.224270790048783,-0.7670674381148583,-0.2836947672100667,0.0,16.579571104479246,16.124064135830707,190.02224498762038,182.1184099699653,0.0
0.049,3.9426493307266766,-0.6996522385717059,0.781049910832956,0.0,16.603311479476126,15.866918552079843,191.92962496587873,182.1184099699653,0.0
0.05,3.776018974589234,-0.7071364148016754,-0.2707522282553523,0.0,16.60046066997897,15.527029006705504,194.5842943257442,182.1184099699653,0.0
0.051000000000000004,3.576048509489999,-0.7081013935864824,-1.7227457517458742,0.0,16.563937292798112,15.091972516325347,194.53666045011624,182.1184099699653,0.0
0.052000000000000005,3.339537360700466,-0.6793684394257051,-1.8231113187334076,0.0,16.4843903295518,14.724265581847256,195.50616929010118,182.1184099699653,0.0
0.053,3.140504705999587,-0.6735257358823679,-2.4417433319272357,0.0,16.37567200133415,14.337857259240101,196.1229039830934,182.1184099699653,0.0
0.054,2.9401540164104008,-0.6658129063301939,-2.890155618554629,0.0,16.238394689462243,13.95612715398262,195.93825363092012,182.1184099699653,0.0
0.055,2.7497980905697528,-0.6565961184284226,-2.9360288790775306,0.0,16.0757353798781,13.61721603721903,195.68409793607765,182.1184099699653,0.0
0.056,2.5858106558138187,-0.6585357757631541,-2.9446079113174206,0.0,15.89575641976186,13.311580198796975,194.9903400891036,182.1184099699653,0.0
0.057,2.443148149904326,-0.6676444056965326,-2.7264482890217776,0.0,15.704194324534358,13.056646398282904,194.08879014331842,182.1184099699653,0.0
0.058,2.3288093206960845,-0.6868581331100465,-2.3953771178627203,0.0,15.50831748249435,12.853436647055842,193.1131326683597,182.1184099699653,0.0
0.059000000000000004,2.2414785624960825,-0.716294071788517,-2.017495607367303,0.0,15.314753165516137,12.697679436300309,192.3936109360869,182.1184099699653,0.0
0.06,2.178273712558152,-0.7523729649116616,-1.7604867508921211,0.0,15.128643878016954,12.568712899940996,191.59937157389456,182.1184099699653,0.0
0.061,2.1274189874740137,-0.7897720691366178,-1.4581766858352423,0.0,14.952001978165272,12.469678078319074,190.7775250670525,182.1184099699653,0.0
0.062,2.0891614868877637,-0.8292288538872141,-1.1338445833850819,0.0,14.787087041416877,12.399235757306778,190.17696036695182,182.1184099699653,0.0
0.063,2.0622890717224793,-0.8704294376663467,-0.9141477373046083,0.0,14.635756862610293,12.342842897427536,189.69658438720808,182.1184099699653,0.0
0.064,2.0403735446852265,-0.9077858005482262,-0.7497414916051661,0.0,14.497617609775656,12.294986008044138,189.26294054902468,182.1184099699653,0.0
0.065,2.0197966886948313,-0.9413835799417851,-0.6043648783040592,0.0,14.371828785390612,12.254492546210313,188.77393280206147,182.1184099699653,0.0
0.066,2.0031138484228164,-0.9661011579003664,-0.42641623314341537,0.0,14.25695245304221,12.225219476826046,188.05809503494106,182.1184099699653,0.0
0.067,1.9911917069685323,-0.9859721880238048,-0.12789420023297104,0.0,14.152575084524212,12.219588625471163,187.1805203792249,182.1184099699653,0.0
0.068,1.9881553892433148,-1.0083367839420427,0.26027202353251333,0.0,14.06033376297229,12.244010960220292,186.27167568943906,182.1184099699653,0.0
0.069,1.9981649166079338,-1.0329918558058773,0.6731617112306942,0.0,13.982247218996315,12.297171721561105,186.8399861968501,182.1184099699653,0.0
0.07,2.016026942229492,-1.0668512073212633,0.34179069525632544,0.0,13.920763383500073,12.294763316191347,187.8276550190514,182.1184099699653,0.0
0.07100000000000001,2.020824020189072,-1.0543678243322956,-0.2091361663351856,0.0,13.863475325372542,12.228810064874283,184.83236544900163,182.1184099699653,0.0
0.07200000000000001,1.98811198294876,-1.0327075828325991,1.2613690638993402,0.0,13.803062955190978,12.334634471693914,184.0293587335861,182.1184099699653,0.0
0.073,2.031231484248768,-1.0633403373891626,1.6437629339708995,0.0,13.762860468125757,12.44612320870355,186.5206197847453,182.1184099699653,0.0
0.074,2.084732787893159,-1.0805477788575326,0.3541103102435006,0.0,13.73941359448397,12.391303147607086,184.3624838645742,182.1184099699653,0.0
0.075,2.0689507216189424,-1.0312167509229433,1.410737531382964,0.0,13.70723091460923,12.471016966145314,181.54143581777726,182.1184099699653,0.0
0.076,2.1061864533615777,-1.0314569085475298,2.8270312963033106,0.0,13.686757612193833,12.680513425617654,182.22429630416383,182.1184099699653,0.0
0.077,2.2008309346500985,-1.0734692370297043,2.484542189768039,0.0,13.693900240524007,12.805137633908824,184.39995240614633,182.1184099699653,0.0
0.078,2.265117906299703,-1.0703376912847742,1.3738987144149801,0.0,13.712026433533522,12.793142670911847,183.2639328727565,182.1184099699653,0.0
0.079,2.2718007734985584,-1.012328265036435,1.930453252081982,0.0,13.72079078951251,12.85639501173704,180.58039192547412,182.1184099699653,0.0
0.08,2.3106787079212308,-0.9799943002073792,3.287603906168085,0.0,13.732027302107412,13.053709836535909,178.21259443659483,182.1184099699653,0.0
0.081,2.4101180063023793,-0.9921443436686228,4.510560805941434,0.0,13.763531490351737,13.342821039070884,178.38181758260984,182.1184099699653,0.0
0.082,2.5522666335998823,-1.0267721270607304,4.463315156807482,0.0,13.824483935763649,13.57410299375542,178.3657130228574,182.1184099699653,0.0
0.083,2.6681973858870047,-1.0353848929185896,4.508894406154787,0.0,13.903070458513259,13.782507274953616,178.1006721112832,182.1184099699653,0.0
0.084,2.7731589979974633,-1.0276957936047493,4.68159224052871,0.0,13.993706828524633,13.986084279785342,177.71158868358964,182.1184099699653,0.0
0.085,2.8782258373404623,-1.009855850390742,4.920202167239241,0.0,14.093751759257637,14.192379598522827,177.3312988477567,182.1184099699653,0.0
0.08600000000000001,2.987646606666648,-0.9859584923327922,5.158218196377797,0.0,14.201971418836854,14.400859926165543,177.6601557220313,182.1184099699653,0.0
0.08700000000000001,3.1007212648169302,-0.9583172608539529,5.038372301719834,0.0,14.317415583340328,14.572406973594886,178.72497666838578,182.1184099699653,0.0
0.088,3.196710784890014,-0.92202219844748,4.539896161558392,0.0,14.43475399158646,14.675281715633922,179.63897246917276,182.1184099699653,0.0
0.089,3.2592533936775627,-0.8730796247622234,4.107692636172829,0.0,14.545625300730583,14.73112540613697,178.7724838820607,182.1184099699653,0.0
0.09,3.2970717800002665,-0.8231215780847124,4.574396190607905,0.0,14.645987888612913,14.844596688338223,174.23855892932457,182.1184099699653,0.0
0.091,3.375782521463162,-0.7751791662723323,6.920157177382377,0.0,14.742887261094552,15.201843776410723,176.354820914482,182.1184099699653,0.0
0.092,3.5866729042043493,-0.771224026834256,5.919662075358499,0.0,14.865865763915217,15.377133187146875,176.3641804884738,182.1184099699653,0.0
0.093,3.69263728362921,-0.7575637289397623,5.972524583177506,0.0,14.992612276153409,15.553464156062475,172.8421986096319,182.1184099699653,0.0
0.094,3.8208607188433175,-0.7015853543523092,7.826277636201789,0.0,15.118296215833675,15.91517595598552,175.6725220078846,182.1184099699653,0.0
0.095,4.019697402661225,-0.7272474467977468,6.475574816696254,0.0,15.270965555453088,16.065580328340605,173.16374706257682,182.1184099699653,0.0
0.096,4.142166249272611,-0.6605587470832025,7.819508918424027,0.0,15.415816020453015,16.366067770518157,172.03113612257613,182.1184099699653,0.0
0.097,4.312555755837698,-0.6701751730512088,8.486687126898262,0.0,15.577954877024329,16.693423619636793,175.39985400470763,182.1184099699653,0.0
0.098,4.5076829398176335,-0.6714746210053252,6.8695137454850865,0.0,15.756662207865649,16.799936820288355,179.0454302402287,182.1184099699653,0.0
0.099,4.540809481336604,-0.7041036626931374,5.077455425021914,0.0,15.93172632579411,16.731022104794796,179.27657582679987,182.1184099699653,0.0
0.1,4.453944435601622,-0.7374396289987377,4.990300973167989,0.0,16.085733226257105,16.704725286590175,187.2793067382522,182.1184099699653,0.0
0.101,4.392853735937105,-0.7703289323261666,0.937326549758962,0.0,16.22499421855631,16.257354524701608,184.46841475710923,182.1184099699653,0.0
0.10200000000000001,4.12685521253512,-0.7097214593343426,2.3192724924590022,0.0,16.298596320374354,16.08983966674048,190.80378538976976,182.1184099699653,0.0
0.10300000000000001,4.000152832185564,-0.7216916973942546,-0.9352665780693066,0.0,16.350009527130986,15.5858950241766,188.8209352541006,182.1184099699653,0.0
0.10400000000000001,3.7103360149364297,-0.6775871394381349,-0.010866763076075703,0.0,16.340915745199798,15.30232836299321,189.63474678678804,182.1184099699653,0.0
0.105,3.5416718658542727,-0.6750080240724923,-0.49293589758802936,0.0,16.304532018232738,14.999592275015338,192.03356009268236,182.1184099699653,0.0
0.106,3.3672023648363423,-0.6862180944646269,-1.7914940517623608,0.0,16.24277195406138,14.602975721145647,192.0787455923912,182.1184099699653,0.0
0.107,3.1555026930331005,-0.6691927504660758,-1.9136901578410304,0.0,16.145541352376434,14.26093109500705,192.82031136708758,182.1184099699653,0.0
0.108,2.974483953361893,-0.6685887527728805,-2.391492059160452,0.0,16.02393316193985,13.909826687875274,193.13560288160048,182.1184099699653,0.0
0.109,2.7968221473033,-0.6647705101221085,-2.65930974553325,0.0,15.87896138311909,13.574722587194934,192.92227084354022,182.1184099699653,0.0
0.11,2.632098581724681,-0.6643548506180912,-2.66068233523887,0.0,15.714968831993446,13.277501884849727,192.39082232266492,182.1184099699653,0.0
0.111,2.4903600871172795,-0.6726996623888172,-2.4976821983282154,0.0,15.538575551635661,13.02549173733473,191.7279549492476,182.1184099699653,0.0
0.112,2.3743121269836847,-0.6905809920880907,-2.2623439614123746,0.0,15.356504082711371,12.816648371895708,191.14606381559642,182.1184099699653,0.0
0.113,2.2821215269696844,-0.7153887187779997,-2.0616749330431015,0.0,15.174305460774498,12.639182893259827,190.29795132662267,182.1184099699653,0.0
0.114,2.2056352916391653,-0.745105589446042,-1.7194141021227978,0.0,14.995600931674318,12.504377681297608,189.56148393517086,182.1184099699653,0.0
0.115,2.1497688780096276,-0.780673599145585,-1.425611146048948,0.0,14.824901646648206,12.399458697626454,188.83659244362246,182.1184099699653,0.0
0.116,2.1071705160487406,-0.8190191209169851,-1.1303472250113242,0.0,14.664642719055436,12.321629841252607,188.23853342560383,182.1184099699653,0.0
0.117,2.076153181037356,-0.857963815447862,-0.8925189505583937,0.0,14.516527259765247,12.261752371967958,187.7749439363848,182.1184099699653,0.0
0.11800000000000001,2.0514215321975513,-0.8958029259241375,-0.7172895456130726,0.0,14.381008454682696,12.212358363504471,187.39800431291292,182.1184099699653,0.0
0.11900000000000001,2.029614823776005,-0.9297664424044808,-0.5816156773066066,0.0,14.257459724970124,12.169675128281318,186.97536541674998,182.1184099699653,0.0
0.12,2.0101560317505633,-0.9570781921999005,-0.418865783692985,0.0,14.144662202019191,12.137373493262235,186.34569238567403,182.1184099699653,0.0
0.121,1.995970192894628,-0.9776288881220417,-0.14630209231209568,0.0,14.041901726914922,12.126742630919628,185.703926912865,182.1184099699653,0.0
0.122,1.989671818559025,-1.000310978403862,0.138725474663421,0.0,13.950643736058595,12.136077165542707,184.72092771224845,182.1184099699653,0.0
0.123,1.9928956222712224,-1.0206155503998369,0.6041998975488629,0.0,13.871451679766947,12.18328675631379,184.54458515163677,182.1184099699653,0.0
0.124,2.00784684061946,-1.0538617125436334,0.6681094260379918,0.0,13.808353820297434,12.21861909030237,186.75194851888804,182.1184099699653,0.0
0.125,2.025681319136945,-1.0606550434335642,-0.4819076430768734,0.0,13.755513784950189,12.11515515160417,183.69106763711653,182.1184099699653,0.0
0.126,1.975907210321388,-1.0279729513451732,1.0328062211373694,0.0,13.693948395829217,12.20052579575067,182.32333908277468,182.1184099699653,0.0
0.127,2.0086102386090054,-1.05334417971033,1.7146212071802016,0.0,13.650194266076051,12.3269602721932,184.6247044347256,182.1184099699653,0.0
0.128,2.0648127857133467,-1.082714995579214,0.5388755865571386,0.0,13.626436074404376,12.294370469988587,183.66661428418786,182.1184099699653,0.0
0.129,2.059151353520038,-1.0402526601749824,1.0024386186837846,0.0,13.59683015662625,12.32659800158974,180.63451336654109,182.1184099699653,0.0
0.13,2.0737984297534204,-1.0277046422830147,2.533328043541413,0.0,13.572451925171983,12.51473660195843,180.63122543098285,182.1184099699653,0.0
0.131,2.1559171485474784,-1.067374685735623,2.549843856710355,0.0,13.573814561858716,12.659244776039825,183.0027974607401,182.1184099699653,0.0
0.132,2.227400350525571,-1.0742305353818262,1.3552139669239769,0.0,13.58984919531147,12.650821985343907,182.19155934438444,182.1184099699653,0.0
0.133,2.2350643755146637,-1.0193293198776119,1.7601015313576194,0.0,13.597330394147436,12.701200657319403,179.3834184549195,182.1184099699653,0.0
0.134,2.2659453476965283,-0.9863171920723546,3.191521891240546,0.0,13.606019018393818,12.89737667923362,177.15378906382347,182.1184099699653,0.0
0.135,2.3614794114936335,-1.0027439434211154,4.355982795849984,0.0,13.635593446333392,13.178380519993397,177.78670604220844,182.1184099699653,0.0
0.136,2.4976894874262783,-1.0378767435669891,4.082841345935069,0.0,13.694011156057552,13.3785234832198,178.13211015782696,182.1184099699653,0.0
0.137,2.597179600015901,-1.0403960167861042,3.9500022862471917,0.0,13.766527183184575,13.543031227403924,177.97437012714403,182.1184099699653,0.0
0.138,2.679230044479307,-1.0249613215098745,4.07031270001687,0.0,13.846519372804737,13.704871688228815,177.18855524373512,182.1184099699653,0.0
