timestamp,iq,id,iq_ref,id_ref,vq,vd,omega,omega_ref,r
0.0,0.0,0.0,0.0,0.0,0.0,0.0,0.0,72.14185311446319,0.0
0.001,0.0,0.0,10.0,0.0,0.0,1.0999999999999999,6.64799495789195,72.14185311446319,0.0
0.002,0.49717600532326556,-0.27561391458649886,10.0,0.0,0.14031753060451482,1.9353106394144408,13.268620665556918,72.14185311446319,0.0
0.003,0.9286730439112814,-0.5246866622768621,10.0,0.0,0.37477623519009734,2.658629053756439,19.740378717899812,72.14185311446319,0.0
0.004,1.274281370089649,-0.7228244542723054,10.0,0.0,0.6774253403939166,3.299359551629056,26.472157240681163,72.14185311446319,0.0
0.005,1.5483626580026169,-0.8794438194010833,10.0,0.0,1.0291293371088264,3.8795890518261515,33.433761989913826,72.14185311446319,0.0
0.006,1.7682748155501962,-1.005104959509726,10.0,0.0,1.4159424159326177,4.415516477223922,40.44854781947246,72.14185311446319,0.0
0.007,1.9481112879543812,-1.1080629144043714,10.0,0.0,1.8277356930511321,4.918949577575311,47.59966527459309,72.14185311446319,0.0
0.008,2.0986214007395994,-1.194033729654738,10.0,0.0,2.2571201626215265,5.398460947921081,54.66481921999,72.14185311446319,0.0
0.009000000000000001,2.227193933919074,-1.2679817495132288,10.0,0.0,2.69879189630139,5.860321750667424,61.84264553296483,72.14185311446319,0.0
0.01,2.340083740861394,-1.3319796991193371,6.8414633760878605,0.0,3.1487828311459887,5.961592464444921,66.83995296318935,72.14185311446319,0.0
0.011,2.284984072081151,-1.302689256325559,4.395828662488341,0.0,3.5600398156804993,5.867490609707555,70.24863519651642,72.14185311446319,0.0
0.012,2.122423563324854,-1.207951851624361,2.7104197250042734,0.0,3.91063270619863,5.680316662185516,72.46566997264621,72.14185311446319,0.0
0.013000000000000001,1.913016404586704,-1.0870178401742303,1.5986641683575464,0.0,4.195093545700239,5.462889558984823,73.83537021860236,72.14185311446319,0.0
0.014,1.7005798881972867,-0.959848726200065,0.8968788743380782,0.0,4.416586328508964,5.250846368494145,74.85207572804485,72.14185311446319,0.0
0.015,1.501938311638518,-0.8503194473445679,0.36142389348101744,0.0,4.583948984453383,5.050000788636894,72.80319143463738,72.14185311446319,0.0
0.016,1.331523546404574,-0.7446903237676938,1.3792526569830095,0.0,4.703966906012735,5.020050954563745,75.6755908848826,72.14185311446319,0.0
0.017,1.2562111228139654,-0.6883443472110232,-0.09228444584379014,0.0,4.80384628582337,4.8396307460505055,75.06491638311024,72.14185311446319,0.0
0.018000000000000002,1.1275718218930686,-0.6234539940041416,0.1838221723559148,0.0,4.869121227714431,4.745724794265284,73.55032417984692,72.14185311446319,0.0
0.019,1.0488264717851752,-0.5633165830229319,0.927033563333737,0.0,4.912511868561997,4.754104714175911,76.04242808462142,72.14185311446319,0.0
0.02,1.024553539696388,-0.5440235806129878,-0.35802413875509287,0.0,4.950880581160588,4.61907981406937,74.0278257045324,72.14185311446319,0.0
0.021,0.9454345292646189,-0.5022822449724573,0.6304173253887229,0.0,4.967511315592307,4.63143377513666,74.26037865749478,72.14185311446319,0.0
0.022,0.9372855421095415,-0.4797682832194704,0.4929555934772172,0.0,4.981655250251158,4.619315406871427,75.49140870219078,72.14185311446319,0.0
0.023,0.9209567429072845,-0.474664098566089,-0.1560549847480579,0.0,4.992836633923262,4.541521400653636,72.83900945617496,72.14185311446319,0.0
0.024,0.8824427968858614,-0.44413658796353983,1.1631730748427334,0.0,4.991813494286627,4.628303371832407,74.99130701170394,72.14185311446319,0.0
0.025,0.9166225530277997,-0.4510639252215664,0.0585297581058386,0.0,5.000638147935941,4.567456873856845,73.47896175477003,72.14185311446319,0.0
0.026000000000000002,0.8889797457917443,-0.4394239873753121,0.8013313001697262,0.0,5.001146019887103,4.609714600195553,73.63644608858702,72.14185311446319,0.0
0.027,0.9094006265675494,-0.4317298402174469,0.7076432035199902,0.0,5.005098920468113,4.627540910085696,74.6538737352517,72.14185311446319,0.0
0.028,0.9147576702182925,-0.43908573899856707,0.17380917397976936,0.0,5.011325252317538,4.585809950768176,72.21452374754293,72.14185311446319,0.0
0.029,0.9006335715202558,-0.4169656014810972,1.3927574615033549,0.0,5.010249080935537,4.6899045937836386,74.93996243312854,72.14185311446319,0.0
0.03,0.9452672631865262,-0.4338696313281273,0.002057025523893641,0.0,5.021770635651631,4.613264677456107,72.05592690831706,72.14185311446319,0.0
0.031,0.9154722610732102,-0.4148647691513081,1.444934049991095,0.0,5.022216468125442,4.7217881724332535,74.58875121182696,72.14185311446319,0.0
0.032,0.9643249442901035,-0.4242525420197054,0.15405291726250847,0.0,5.034692770486878,4.657406461140258,72.20197103488086,72.14185311446319,0.0
0.033,0.9376905253712051,-0.41182320330125943,1.3468418265313837,0.0,5.038022166495157,4.748244455472816,74.21125866539998,72.14185311446319,0.0
0.034,0.9805704827470153,-0.41466199810263404,0.32150395576245305,0.0,5.050538983151199,4.700633395595145,72.09052588139295,72.14185311446319,0.0
0.035,0.95990105871511,-0.40613170263320514,1.3823836200966717,0.0,5.056076291704222,4.7886877013725675,74.14704631557137,72.14185311446319,0.0
0.036000000000000004,1.0026234451297826,-0.4082556877982134,0.33407147099637813,0.0,5.070184241302527,4.737661017637244,71.72868080352349,72.14185311446319,0.0
0.037,0.981162989618332,-0.3970058031043556,1.5473859501297174,0.0,5.076520000399494,4.839883385401357,74.30827170791375,72.14185311446319,0.0
0.038,1.0286575370625346,-0.4043727633415245,0.23592631200008252,0.0,5.093367284836206,4.770684382539187,71.2926769954108,72.14185311446319,0.0
0.039,1.0023816192184296,-0.3846140957183937,1.7522154294420793,0.0,5.0993628175021115,4.893361704144114,74.4212575245515,72.14185311446319,0.0
0.04,1.055043777937864,-0.4010480393357196,0.16513112077084324,0.0,5.119031849536057,4.808573085089306,71.05633593440315,72.14185311446319,0.0
0.041,1.0266113362984672,-0.37177843010745626,1.8584470876456214,0.0,5.1248711200098445,4.940020020753838,74.16425824868135,72.14185311446319,0.0
0.042,1.0789625426579041,-0.39540656882403535,0.28426187916434054,0.0,5.1461629483538145,4.862769700181676,71.37540533464036,72.14185311446319,0.0
0.043000000000000003,1.057827042138888,-0.3623610963251083,1.6863528139830624,0.0,5.153729278444121,4.968193866536684,73.27365000920925,72.14185311446319,0.0
0.044,1.09678873854888,-0.3836358639612817,0.7259125077511586,0.0,5.173752071325867,4.939665764621238,72.2285064884197,72.14185311446319,0.0
0.045,1.0980160400946082,-0.3581101585313698,1.2476177344063692,0.0,5.185899199454243,4.98323934397397,71.83919260567023,72.14185311446319,0.0
0.046,1.111316399345817,-0.36740840011500087,1.4453012808690302,0.0,5.202467036333552,5.038747649546434,73.71762837801015,72.14185311446319,0.0
0.047,1.1445638683660269,-0.3636964488614953,0.4903256420636042,0.0,5.222427623028456,4.979813534516646,70.82981273501753,72.14185311446319,0.0
0.048,1.1246442061868158,-0.33749602879434853,1.947353867354371,0.0,5.231653812856037,5.1011153883592835,72.70899518390326,72.14185311446319,0.0
0.049,1.172615545778827,-0.3616840135823229,1.0020912222171061,0.0,5.2550102516124735,5.087184458605495,72.84840682919865,72.14185311446319,0.0
0.05,1.1818672645740178,-0.34008398971591014,0.9253198624220533,0.0,5.272020071044702,5.077452066905092,70.57748689301782,72.14185311446319,0.0
0.051000000000000004,1.1772268235875203,-0.32858295850366853,2.076423492726923,0.0,5.285306556168987,5.198385974945909,72.64318608706135,72.14185311446319,0.0
0.052000000000000005,1.2295965211353963,-0.35135314477807117,1.0385605659791752,0.0,5.3119775143872285,5.177072111309635,72.87241491457986,72.14185311446319,0.0
0.053,1.2354078451032993,-0.32822349089392994,0.9166405342187527,0.0,5.3310780266300215,5.157408606971658,70.64007159289199,72.14185311446319,0.0
0.054,1.2279256472594415,-0.309968137158445,2.047830010278404,0.0,5.344525344842674,5.268152701978426,71.56580138807952,72.14185311446319,0.0
0.055,1.274393935725112,-0.3312179547737228,1.5907256299484727,0.0,5.370222374209774,5.3023874089992304,73.06229555522029,72.14185311446319,0.0
0.056,1.301474884385728,-0.32695058194173504,0.8332741219705182,0.0,5.396091262154574,5.254505504712377,71.95584395930872,72.14185311446319,0.0
0.057,1.2892124689322313,-0.2961024614091005,1.3883600114778454,0.0,5.411234451345937,5.284252317760767,70.31115761884615,72.14185311446319,0.0
0.058,1.3011837485815207,-0.2907839340978297,2.229010136665301,0.0,5.427561446124091,5.3980199583830455,71.04250127920292,72.14185311446319,0.0
0.059000000000000004,1.3540978190713577,-0.3127308094015827,1.8743318248395182,0.0,5.456099847043182,5.448921583910806,72.40823170176577,72.14185311446319,0.0
0.06,1.3884184407559312,-0.31477364983459566,1.1888028276850684,0.0,5.486879814117733,5.422479352728568,72.66586824322869,72.14185311446319,0.0
0.061,1.3862495691093333,-0.2902329456572287,1.054744405665956,0.0,5.509217655502765,5.394449987019424,71.67612930325944,72.14185311446319,0.0
0.062,1.3772996172708727,-0.26404839848258466,1.5542711137626148,0.0,5.523883883030944,5.428708670116284,70.39209285755409,72.14185311446319,0.0
0.063,1.3947961625850518,-0.25800559216692937,2.213786939184383,0.0,5.540106492893015,5.526545461868758,69.95533270898702,72.14185311446319,0.0
0.064,1.444106347762094,-0.27377686188325945,2.454032217522682,0.0,5.566285788676078,5.6308035028788535,70.5556241759672,72.14185311446319,0.0
0.065,1.5015096518679891,-0.2912394687845874,2.1697487734175516,0.0,5.6020361330438275,5.687758776131422,71.14314690304334,72.14185311446319,0.0
0.066,1.5380999376842177,-0.2940480447002899,1.8859744719936755,0.0,5.640041287581772,5.710770319381207,71.52606734098171,72.14185311446319,0.0
0.067,1.5553372963502698,-0.2850237811402946,1.700672110759307,0.0,5.675526326240146,5.716205500443163,71.71934210821047,72.14185311446319,0.0
0.068,1.5617785023133917,-0.2699926142329796,1.6082598372074552,0.0,5.706443193414671,5.715797181717117,71.7304165136912,72.14185311446319,0.0
0.069,1.565031880901138,-0.2529623292278106,1.6068370004748118,0.0,5.732504522317646,5.718995532691036,71.59391813157664,72.14185311446319,0.0
0.07,1.5705510076197875,-0.23758926912603495,1.6805655413609537,0.0,5.75475881966657,5.732029979169488,71.35159719048268,72.14185311446319,0.0
0.07100000000000001,1.581897468314486,-0.22595034862793617,1.8096285711477413,0.0,5.774964581274675,5.758253139193442,70.99285583191036,72.14185311446319,0.0
0.07200000000000001,1.6009351672943177,-0.21877352571377273,2.000489223259428,0.0,5.795099021408788,5.801597918529396,70.46765525482807,72.14185311446319,0.0
0.073,1.6296390634931663,-0.21625540166006396,2.279831490396923,0.0,5.817349270046318,5.868473655217096,69.86892746153654,72.14185311446319,0.0
0.074,1.6715942817613987,-0.21817513916889408,2.6019246435719543,0.0,5.844298419855372,5.959195632230141,69.81136314482032,72.14185311446319,0.0
0.075,1.7269542017609092,-0.22421712541799443,2.6540117016264952,0.0,5.87827027349714,6.040378932359773,70.8039539803513,72.14185311446319,0.0
0.076,1.7688727661038093,-0.2447977591998669,2.171095275202126,0.0,5.919166721641209,6.05914196747567,71.70606584043551,72.14185311446319,0.0
0.077,1.7765828314424064,-0.254410849812732,1.7243972179002935,0.0,5.958701462112057,6.035381800311607,72.47240756286682,72.14185311446319,0.0
0.078,1.7578852897743515,-0.2532614879739429,1.337920812200604,0.0,5.991684151111017,5.982039530093962,73.0338653766339,72.14185311446319,0.0
0.079,1.7217031436204306,-0.24484689851100516,1.0482717826953583,0.0,6.015120232965782,5.913126187269647,73.40970220959211,72.14185311446319,0.0
0.08,1.676975477928484,-0.23344342039725763,0.8476748752649621,0.0,6.028151135654759,5.8388368391555225,73.66753405977938,72.14185311446319,0.0
0.081,1.630272030360611,-0.22240474686071532,0.7035021407181636,0.0,6.03134979395554,5.764116586971412,73.82559580477894,72.14185311446319,0.0
0.082,1.5850334525437182,-0.2132970121580916,0.6076338413152276,0.0,6.0258650971259105,5.692593649331116,73.92904871357078,72.14185311446319,0.0
0.083,1.543257888402441,-0.20712318151889542,0.5380354309282329,0.0,6.013188532191931,5.625120319900718,73.96407633752351,72.14185311446319,0.0
0.084,1.50550944364235,-0.20372399317752488,0.5022993867212653,0.0,5.994720118397146,5.563626259443262,73.91267097994711,72.14185311446319,0.0
0.085,1.4724916369508922,-0.2031793368983189,0.5102938868546258,0.0,5.971923219628797,5.510925993397271,73.79471807942323,72.14185311446319,0.0
0.08600000000000001,1.445136667786226,-0.20616453811715407,0.5527416874669631,0.0,5.946469802829548,5.468484245686268,73.68082136418896,72.14185311446319,0.0
0.08700000000000001,1.423548845740114,-0.21348703049009732,0.5943003625868433,0.0,5.92009317508796,5.43398941805693,74.1543164830252,72.14185311446319,0.0
0.088,1.4058052798564493,-0.2252951500421052,0.33742816948310295,0.0,5.894130395584586,5.373370796450496,75.37389934143619,72.14185311446319,0.0
0.089,1.3802027701415032,-0.22494602839778433,-0.30468372199212057,0.0,5.864545547294513,5.250793013332942,74.5384008895913,72.14185311446319,0.0
0.09,1.325487271509429,-0.2075139225259125,0.08910002617904067,0.0,5.823747365092228,5.193014534664091,73.50959159485423,72.14185311446319,0.0
0.091,1.2949307674925032,-0.20872319434433872,0.5898272887436666,0.0,5.781558494202034,5.190890307497837,73.13500037344072,72.14185311446319,0.0
0.092,1.2940054478620953,-0.22835207312375183,0.7671914268606463,0.0,5.745523171631782,5.199058618645585,73.72254106650058,72.14185311446319,0.0
0.093,1.3014765618198996,-0.25348775772081855,0.4576142008103403,0.0,5.716476848951215,5.166148354443167,74.82239691273224,72.14185311446319,0.0
0.094,1.2947689519933478,-0.2595920263736131,-0.11911916028818137,0.0,5.687464244824299,5.0740921351531,73.39218801411174,72.14185311446319,0.0
0.095,1.2558836635364616,-0.25135915599367964,0.5834819400255862,0.0,5.651180620752747,5.075604037656838,72.96716429927312,72.14185311446319,0.0
0.096,1.2517992131931472,-0.27067847615998186,0.787740685596795,0.0,5.620884003260817,5.088839275165939,74.48544654670309,72.14185311446319,0.0
0.097,1.2604842317676748,-0.29288380202984593,0.005163627559413131,0.0,5.5971899639130145,5.008599066788481,73.7914307098191,72.14185311446319,0.0
0.098,1.2312820281013321,-0.28386933944989906,0.3356757700478501,0.0,5.56662766351975,4.981494674157135,72.86290716544538,72.14185311446319,0.0
0.099,1.214193230263258,-0.294576272929877,0.7927270017248871,0.0,5.537679061211277,5.0026027505347095,74.40737076825506,72.14185311446319,0.0
0.1,1.2228751755901996,-0.31716767019848346,-0.0021599762178743376,0.0,5.5161141111361545,4.925571177188862,73.54074675165273,72.14185311446319,0.0
0.101,1.1944882133168597,-0.30778710002019966,0.4171630957113952,0.0,5.487744722041662,4.911370059165071,73.00036497977531,72.14185311446319,0.0
0.10200000000000001,1.1816805073640047,-0.32243321386201357,0.6787688629969844,0.0,5.462497038278621,4.921460495748414,74.71931143603132,72.14185311446319,0.0
0.10300000000000001,1.1879679472998654,-0.3364978612526747,-0.2064789483467,0.0,5.442183816624776,4.827204107923982,72.83204531266061,72.14185311446319,0.0
0.10400000000000001,1.1473801609758894,-0.3263865795101904,0.7302521913566797,0.0,5.41322339088829,4.856762471092414,74.08023248781961,72.14185311446319,0.0
0.105,1.1528958480054974,-0.34993627935078536,0.08677481004361365,0.0,5.3928064238421864,4.799306528592386,73.37794840096971,72.14185311446319,0.0
0.106,1.1329213306717485,-0.3430927600661589,0.4255559006034988,0.0,5.3676972751309755,4.791507531189478,73.36888546535923,72.14185311446319,0.0
0.107,1.1226668279359107,-0.35980023919878856,0.4178170448997818,0.0,5.346225399448032,4.778666683750337,74.0386920514064,72.14185311446319,0.0
0.108,1.120304138276745,-0.3622900312250383,0.06394536250676319,0.0,5.3257234289210285,4.726271587815768,72.90350311812257,72.14185311446319,0.0
0.109,1.0927595963326686,-0.36686930898605774,0.6239233291120836,0.0,5.302510968486718,4.74520837028973,74.54180743152574,72.14185311446319,0.0
0.11,1.1001488767678853,-0.377999672100836,-0.21922837076012602,0.0,5.284691979508251,4.660495495553554,72.67433994077822,72.14185311446319,0.0
0.111,1.0607328146569326,-0.3722143137529635,0.7091805063504811,0.0,5.259435908904599,4.697438162510594,74.5882804959902,72.14185311446319,0.0
0.112,1.0729506142469272,-0.3885154596920958,-0.2722540450707789,0.0,5.2422506916937985,4.6091809477081105,72.59055322713984,72.14185311446319,0.0
0.113,1.033695943705573,-0.38041410128894027,0.7221225882276391,0.0,5.216904113840093,4.651666899597285,74.50170819013887,72.14185311446319,0.0
0.114,1.0482582894760952,-0.3975566460069434,-0.25705344402863517,0.0,5.200307482463686,4.567722063890822,72.57549582823914,72.14185311446319,0.0
0.115,1.0109202981650067,-0.3907546730781175,0.7017163097834699,0.0,5.176056388184923,4.610021284361188,74.34480111483111,72.14185311446319,0.0
0.116,1.0263397005423012,-0.40590970054026265,-0.20496581351619558,0.0,5.160195398131198,4.534273228080942,72.6651602864078,72.14185311446319,0.0
0.117,0.9916037612111732,-0.40220255389363085,0.6296215289760166,0.0,5.137786365049069,4.5693604546806865,74.0238590328171,72.14185311446319,0.0
0.11800000000000001,1.0050090924307091,-0.41320258299886525,-0.06854790341217387,0.0,5.122374032603169,4.511731598497158,72.93658366130352,72.14185311446319,0.0
0.11900000000000001,0.9768655412872558,-0.41479532486224735,0.4671424768762149,0.0,5.102805249097428,4.527461874780973,73.47020148824156,72.14185311446319,0.0
0.12,0.9827944426807083,-0.4197344331325681,0.18705007966941078,0.0,5.087293746061742,4.502561562925486,73.5104263944369,72.14185311446319,0.0
0.121,0.9679732305096103,-0.4282172409195457,0.15325189377199933,0.0,5.071727079917939,4.479372877828086,72.9148619219027,72.14185311446319,0.0
0.122,0.9566893290571441,-0.4256822595272165,0.44330404196470763,0.0,5.055034535847754,4.490283129824281,74.0463088391776,72.14185311446319,0.0
0.123,0.9581695358565762,-0.4360701735487197,-0.1414639739198864,0.0,5.0422702917404925,4.4309324372221415,72.88819960166414,72.14185311446319,0.0
0.124,0.9294008934649699,-0.43029473093967674,0.43012717996483274,0.0,5.024108224956535,4.448142449286724,73.3491366566322,72.14185311446319,0.0
0.125,0.9336279682190772,-0.4364626680466999,0.18758581705911448,0.0,5.010219593565295,4.428667127361113,73.3325129805889,72.14185311446319,0.0
0.126,0.9229018374303146,-0.44122454971450054,0.18399105641950497,0.0,4.996234420733003,4.413002609581941,73.16557914369145,72.14185311446319,0.0
0.127,0.913620000716153,-0.44204120534813585,0.25722071457595064,0.0,4.9821235267090485,4.406510977031734,73.21304189763674,72.14185311446319,0.0
0.128,0.9079748019277174,-0.4457324440395256,0.22277744977156666,0.0,4.969172428532182,4.39526451612369,73.10136217806371,72.14185311446319,0.0
0.129,0.9006886267667376,-0.44829232926445994,0.2690222189220779,0.0,4.956636469070028,4.390023976023189,72.97666040922863,72.14185311446319,0.0
0.13,0.8957526148660605,-0.45186771145544047,0.32302503039196384,0.0,4.9451977447327975,4.390001855114167,72.95300085709162,72.14185311446319,0.0
0.131,0.8944351660226716,-0.4547363964572686,0.326743329034182,0.0,4.93518048226668,4.388802617852038,73.90384920816821,72.14185311446319,0.0
0.132,0.8918652713755845,-0.4586917816750688,-0.1663008074411617,0.0,4.926451427844901,4.332719053993545,72.67097528038315,72.14185311446319,0.0
0.133,0.8625114972021325,-0.45136027880379426,0.444844934792171,0.0,4.912140903311432,4.356730630301751,72.70144254670916,72.14185311446319,0.0
0.134,0.8705278520938657,-0.4541157334446718,0.4240154073067045,0.0,4.902039003901339,4.367331954300233,73.82051212865659,72.14185311446319,0.0
0.135,0.873540573779849,-0.46348000739513934,-0.15230597380894373,0.0,4.895009942420246,4.312424663473448,72.38725487511661,72.14185311446319,0.0
0.136,0.846498149197616,-0.4550612575538947,0.5618686353545109,0.0,4.882173352782544,4.349632410321274,72.74179717228282,72.14185311446319,0.0
0.137,0.8612949087695108,-0.4591476513142993,0.37859804619321213,0.0,4.874874887605452,4.352636144822439,73.7543563709356,72.14185311446319,0.0
