timestamp,iq,id,iq_ref,id_ref,vq,vd,omega,omega_ref,r
0.0,0.0,0.0,0.0,0.0,0.0,0.0,0.0,374.52049639577115,0.0
0.001,0.0,0.0,10.0,0.0,0.0,1.0999999999999999,4.9878599022868455,374.52049639577115,0.0
0.002,0.3962424481741815,-0.22643701462654542,10.0,0.0,0.13490807160892002,1.9464133307008402,11.324864513797415,374.52049639577115,0.0
0.003,0.9035454391957578,-0.5156130692404922,10.0,0.0,0.37051166498830057,2.669835230961856,18.26934724338741,374.52049639577115,0.0
0.004,1.4099061080880806,-0.8037090885441655,10.0,0.0,0.6836958906331096,3.2938486568667695,25.574815037676885,374.52049639577115,0.0
0.005,1.8633206656148718,-1.0613572496187362,10.0,0.0,1.0534233738290948,3.841967168106648,33.111982816093004,374.52049639577115,0.0
0.006,2.2463580204154256,-1.2787292525070446,10.0,0.0,1.4623243985364378,4.334646613089344,40.75890645028435,374.52049639577115,0.0
0.007,2.559892021033684,-1.4561915316947034,10.0,0.0,1.8969503959530754,4.788289849524502,48.45737455240649,374.52049639577115,0.0
0.008,2.8130433849102827,-1.5989577785514375,10.0,0.0,2.3474077816339287,5.2153200520375655,56.16232180533651,374.52049639577115,0.0
0.009000000000000001,3.017619484584047,-1.7137173133732868,10.0,0.0,2.806718335359841,5.6247211155420604,63.834558538974846,374.52049639577115,0.0
0.01,3.1851724673695694,-1.8069243902640775,10.0,0.0,3.2701431231733777,6.022728060959024,71.44587309373894,374.52049639577115,0.0
0.011,3.3256584698023772,-1.8840606032047291,10.0,0.0,3.734579039401822,6.413498860175895,78.9609040374161,374.52049639577115,0.0
0.012,3.4469836497517483,-1.949491595778631,10.0,0.0,4.198074490982832,6.799695261323819,86.47607833963586,374.52049639577115,0.0
0.013000000000000001,3.5551954503759076,-2.0063102028233324,10.0,0.0,4.659435774369711,7.182931521245888,93.90738788004094,374.52049639577115,0.0
0.014,3.6547767626085843,-2.056501702324279,10.0,0.0,5.117937434284765,7.564108457175086,101.23076518361157,374.52049639577115,0.0
0.015,3.7489024516963116,-2.1013040015397357,10.0,0.0,5.573132959719926,7.943659852825544,108.43041559561969,374.52049639577115,0.0
0.016,3.8398154584207713,-2.14133134482252,10.0,0.0,6.024719056945569,8.321716487605658,115.49052744783873,374.52049639577115,0.0
0.017,3.9291103701448655,-2.1767405745892523,10.0,0.0,6.472446949768168,8.698212758407923,122.28807795814522,374.52049639577115,0.0
0.018000000000000002,4.018081198411045,-2.207157108379534,10.0,0.0,6.916043406808001,9.072938349420179,129.00757534872943,374.52049639577115,0.0
0.019,4.107421226540422,-2.2325518853563375,10.0,0.0,7.355242037374618,9.445613332223624,135.56386428849885,374.52049639577115,0.0
0.02,4.197953565252952,-2.2523047247381043,10.0,0.0,7.789707167727149,9.815875522826301,141.91964392763452,374.52049639577115,0.0
0.021,4.290382339913858,-2.265798982453968,10.0,0.0,8.21903884405962,10.183296165578392,148.04672415749133,374.52049639577115,0.0
0.022,4.385377482093453,-2.2724057078318416,10.0,0.0,8.642771214248462,10.547382733795374,153.90357879547324,374.52049639577115,0.0
0.023,4.483633233325139,-2.271462720020403,10.0,0.0,9.060369208327076,10.907575700995853,159.72795160699755,374.52049639577115,0.0
0.024,4.585208265387324,-2.2634076652039457,10.0,0.0,9.471350073566185,11.263318474869623,165.1497738064482,374.52049639577115,0.0
0.025,4.691340274844308,-2.2468161133640265,10.0,0.0,9.875062609514533,11.613926287160277,170.2456900089784,374.52049639577115,0.0
0.026000000000000002,4.802644869604065,-2.221331645992205,10.0,0.0,10.27082729720461,11.958662386487699,174.9990188589534,374.52049639577115,0.0
0.027,4.9195815329136465,-2.1869147317933972,10.0,0.0,10.657958110170272,12.29675135763493,179.4615602528684,374.52049639577115,0.0
0.028,5.0423738124063755,-2.1439536612909196,10.0,0.0,11.0358031903408,12.627406728852899,183.7038675515565,374.52049639577115,0.0
0.029,5.1714595254060205,-2.092531751665176,10.0,0.0,11.40370250026227,12.949809565331092,187.56150769835097,374.52049639577115,0.0
0.03,5.30634759393985,-2.0342229614857583,10.0,0.0,11.761152415015937,13.263215218744882,190.68542860872415,374.52049639577115,0.0
0.031,5.448258151387976,-1.9677900168584357,10.0,0.0,12.107473367628401,13.566764017658707,193.34701004218016,374.52049639577115,0.0
0.032,5.597770619663181,-1.892918160587066,10.0,0.0,12.441945530127422,13.859562766006606,195.85236883301903,374.52049639577115,0.0
0.033,5.754917780777162,-1.8100721526158454,10.0,0.0,12.763886008897215,14.140737792729835,199.21401355465005,374.52049639577115,0.0
0.034,5.927514775763837,-1.7065920308737341,10.0,0.0,13.071195589150431,14.408575166820322,199.5209342707563,374.52049639577115,0.0
0.035,6.082484743219766,-1.6374641763314823,10.0,0.0,13.367988686005143,14.665039035056791,194.09373398391548,374.52049639577115,0.0
0.036000000000000004,6.264184103338396,-1.5306198158465927,10.0,0.0,13.649687258890118,14.907098596216601,200.61187863024583,374.52049639577115,0.0
0.037,6.448845164125731,-1.4239356617124046,10.0,0.0,13.916755117252663,15.134626335463508,201.17040434079357,374.52049639577115,0.0
0.038,6.628779295894713,-1.3306178971437213,10.0,0.0,14.170670851142432,15.348161942735258,195.36915072223746,374.52049639577115,0.0
0.039,6.829780698384802,-1.2075077334147926,10.0,0.0,14.407939632005904,15.545424749712595,205.68569536778824,374.52049639577115,0.0
0.04,7.00557454703644,-1.1315740288676146,10.0,0.0,14.634086209617866,15.729360844751763,205.5340812423547,374.52049639577115,0.0
0.041,7.114118080610815,-1.1692868921580497,10.0,0.0,14.860919490979965,15.90733613784155,216.5267382516907,374.52049639577115,0.0
0.042,7.195719152009303,-1.246459763471167,10.0,0.0,15.090978860726368,16.082306547240474,223.78557833529115,374.52049639577115,0.0
0.043000000000000003,7.245171166879027,-1.3691221816768042,10.0,0.0,15.328250471727516,16.258162141752468,223.83893991326974,374.52049639577115,0.0
0.044,7.289158218247411,-1.48993821108661,10.0,0.0,15.57144362013277,16.435815282411554,236.70200280638718,374.52049639577115,0.0
0.045,7.321162185156881,-1.618394394881244,10.0,0.0,15.821004787686716,16.61694185799888,246.9320295252846,374.52049639577115,0.0
0.046,7.327188055826358,-1.7789983262080553,10.0,0.0,16.08010436665201,16.804569086678335,252.37958992925735,374.52049639577115,0.0
0.047,7.320986411893456,-1.948507340982605,10.0,0.0,16.34909666290065,17.000085989925687,256.7090517465339,374.52049639577115,0.0
0.048,7.311804374945538,-2.1096997922195357,10.0,0.0,16.62677749933747,17.203898440098108,267.4217056671024,374.52049639577115,0.0
0.049,7.292178070103013,-2.274499727746529,10.0,0.0,16.91358756554346,17.417164802060174,277.83201356582583,374.52049639577115,0.0
0.05,7.257941838331103,-2.4496944805850984,10.0,0.0,17.210666684782023,17.641355256893103,287.69805104378327,374.52049639577115,0.0
0.051000000000000004,7.211724569324699,-2.630062035105831,10.0,0.0,17.518545421048923,17.87757611543959,296.8816673711679,374.52049639577115,0.0
0.052000000000000005,7.155202105754848,-2.811669032352969,10.0,0.0,17.837431463695758,18.12671806006074,305.38865583527763,374.52049639577115,0.0
0.053,7.090803768955713,-2.989199665713757,10.0,0.0,18.16705539623724,18.389353006896663,313.78097694879307,374.52049639577115,0.0
0.054,7.020029160858357,-3.1592367560421057,10.0,0.0,18.50690920381067,18.665828075825853,322.3621808826946,374.52049639577115,0.0
0.055,6.944983546923853,-3.3178984155086284,10.0,0.0,18.856177549157724,18.956188290071303,330.00522438244025,374.52049639577115,0.0
0.056,6.872307922540168,-3.4542164608985635,10.0,0.0,19.21296344979283,19.25968317996976,336.6362293787762,374.52049639577115,0.0
0.057,6.806299558390007,-3.5622620149940825,10.0,0.0,19.574942079850885,19.575041334754566,342.8296321541637,374.52049639577115,0.0
0.058,6.751279012551285,-3.6375385106050846,10.0,0.0,19.939458621357872,19.900453713467456,348.17568176967677,374.52049639577115,0.0
0.059000000000000004,6.713277898020458,-3.674169488404544,10.0,0.0,20.30334138918729,20.233406425599764,352.420864971361,374.52049639577115,0.0
0.06,6.698561884710516,-3.667317982029201,10.0,0.0,20.663011175967696,20.570690893620565,355.4786033372629,374.52049639577115,0.0
0.061,6.7130303084172045,-3.614003825221854,10.0,0.0,21.014646388687094,20.908475206776487,357.36859384653366,374.52049639577115,0.0
0.062,6.761712394613393,-3.5135554815319696,10.0,0.0,21.354380335212333,21.242434264644245,357.9619114508332,374.52049639577115,0.0
0.063,6.8485651810105175,-3.367387243098544,10.0,0.0,21.678462770081044,21.567903825736032,357.6287410747468,374.52049639577115,0.0
0.064,6.975932115009595,-3.1792045381354077,10.0,0.0,21.983445502410454,21.88009283932958,356.4495005769023,374.52049639577115,0.0
0.065,7.145477529530815,-2.9527942329374897,10.0,0.0,22.266125556344132,22.17418489853938,357.22796466391554,374.52049639577115,0.0
0.066,7.347455535492601,-2.7092220222675056,10.0,0.0,22.52541797068371,22.446613630710974,354.2543322615874,374.52049639577115,0.0
0.067,7.579635856711077,-2.456087928754625,10.0,0.0,22.760614988626767,22.694208675824957,345.60804155585055,374.52049639577115,0.0
0.068,7.8458362540657065,-2.188850645505505,10.0,0.0,22.97018704906465,22.91360367772502,333.17371837227404,374.52049639577115,0.0
0.069,8.156400227882761,-1.889098720888976,10.0,0.0,23.150441064773418,23.10051635233254,333.681438689131,374.52049639577115,0.0
0.07,8.491005942724808,-1.5858970724255714,10.0,0.0,23.301006284287247,23.25306217215572,327.96229568700375,374.52049639577115,0.0
0.07100000000000001,8.819926070710231,-1.3252079677189588,10.0,0.0,23.42612577879893,23.37257477501799,313.5763322218276,374.52049639577115,0.0
0.07200000000000001,9.1895939674473,-1.0271391170846074,10.0,0.0,23.520503901622956,23.45527379968399,327.2963907035402,374.52049639577115,0.0
0.073,9.46723902659918,-0.9042535373402106,10.0,0.0,23.603177389365634,23.51229645662644,334.8937076111727,374.52049639577115,0.0
0.074,9.558637760905752,-1.0835822698917321,10.0,0.0,23.704240810406397,23.564606786466722,341.82292848076423,374.52049639577115,0.0
0.075,9.603956346439903,-1.3136690219271214,10.0,0.0,23.823945177725488,23.61772136836135,359.1262109211987,374.52049639577115,0.0
0.076,9.586765259552905,-1.6072227172420452,10.0,0.0,23.966980605466436,23.679839134211356,371.7804700991016,374.52049639577115,0.0
0.077,9.506505665888211,-1.9605730011026017,8.319843770232179,0.0,24.13785726128979,23.573888125410217,379.32897517112144,374.52049639577115,0.0
0.078,9.32781780803483,-2.282279471211843,4.4975064464687495,0.0,24.312905359524116,23.110817408182474,387.81734610742836,374.52049639577115,0.0
0.079,8.945836326570364,-2.5175766434457434,0.12035248119871689,0.0,24.446807200456867,22.308526093941417,394.6708310344295,374.52049639577115,0.0
0.08,8.322804089781306,-2.6309982359094426,-3.50789332868844,0.0,24.497213129320905,21.309232327015007,397.87227421353816,374.52049639577115,0.0
0.081,7.5046380273980855,-2.622471820958504,-5.342132696420435,0.0,24.440576967036655,20.33319260181026,397.9103985185034,374.52049639577115,0.0
0.082,6.6067729388612815,-2.532413825527657,-5.595093870130391,0.0,24.282179333112467,19.530193396581996,395.63252617220076,374.52049639577115,0.0
0.083,5.753854899208998,-2.4082075389095667,-4.667277994743351,0.0,24.0465594304842,18.981086039990203,391.79449459311314,374.52049639577115,0.0
0.084,5.043446713278473,-2.2920673553232325,-2.921002187172965,0.0,23.76805742513126,18.71575532892947,387.6573085200955,374.52049639577115,0.0
0.085,4.535929974599177,-2.2138323041200323,-0.9837772719073925,0.0,23.48342809541105,18.693462230438435,383.5752140433884,374.52049639577115,0.0
0.08600000000000001,4.245318877853903,-2.1800831881865697,0.9667227899699773,0.0,23.22210233657311,18.867010319733534,381.0585540217459,374.52049639577115,0.0
0.08700000000000001,4.156194846722573,-2.186300576384623,2.1596722245314828,0.0,23.00528536640959,19.11568799385531,378.3021101433113,374.52049639577115,0.0
0.088,4.21479616846065,-2.2033467141931484,3.5000780262733793,0.0,22.836830761951568,19.445993961692054,374.6927012580653,374.52049639577115,0.0
0.089,4.391864876034972,-2.2183046545082235,5.303060420273443,0.0,22.71972712677959,19.89245633300611,371.04703317882587,374.52049639577115,0.0
0.09,4.68256838515979,-2.232505302114866,7.160629092062617,0.0,22.66039258408979,20.438658134700386,369.64363485529844,374.52049639577115,0.0
0.091,5.071830770637295,-2.2540489733526776,7.9110968692310575,0.0,22.6638394731985,20.948370243415606,361.0210999283873,374.52049639577115,0.0
0.092,5.522234698074429,-2.231009383719673,10.0,0.0,22.71516309269585,21.58407868861977,355.07030633818607,374.52049639577115,0.0
0.093,6.05817411128913,-2.1911687915412967,10.0,0.0,22.820773125520592,22.086010323766324,352.67399215597555,374.52049639577115,0.0
0.094,6.599367846976922,-2.105828574061319,10.0,0.0,22.957026300576487,22.494137881887173,352.28994142127226,374.52049639577115,0.0
0.095,7.119198398299872,-1.9706701988829791,10.0,0.0,23.10645289484407,22.823308578412888,348.73788272509785,374.52049639577115,0.0
0.096,7.590492866940496,-1.8240436003659206,10.0,0.0,23.259076557252374,23.087860778675555,336.80969765012685,374.52049639577115,0.0
0.097,8.047105902861183,-1.6249842218944242,10.0,0.0,23.402462807799427,23.295705635887906,327.17421442173134,374.52049639577115,0.0
0.098,8.499886513430614,-1.3718921294540962,10.0,0.0,23.52644538262927,23.451864895630308,328.90468258148934,374.52049639577115,0.0
0.099,8.915218473346622,-1.1370978955529711,10.0,0.0,23.630349181145665,23.56364777739638,312.5344828854329,374.52049639577115,0.0
0.1,9.322146339106823,-0.8897219302688888,10.0,0.0,23.710177474144793,23.634034005203024,332.52452135722467,374.52049639577115,0.0
0.101,9.539216972478794,-0.9337645253764713,10.0,0.0,23.796380005739334,23.685555948515592,343.0817267844079,374.52049639577115,0.0
0.10200000000000001,9.614266389803962,-1.1704942241581908,10.0,0.0,23.904714319420595,23.734461221084317,349.18224029081597,374.52049639577115,0.0
0.10300000000000001,9.637550656655636,-1.4441075825061662,10.0,0.0,24.034835901421065,23.78749862258387,363.47399658896114,374.52049639577115,0.0
0.10400000000000001,9.605240996457772,-1.7548002081153307,10.0,0.0,24.188689120604966,23.852031347423793,381.0762940947305,374.52049639577115,0.0
0.105,9.51259330816265,-2.1109649725380595,3.1022877494530263,0.0,24.369681488184888,23.176615923248427,386.6007339838582,374.52049639577115,0.0
0.106,9.100750356746488,-2.3448365108964984,0.2192654290082885,0.0,24.487197298164475,22.383062193277965,391.0663227364893,374.52049639577115,0.0
0.107,8.47607784515376,-2.4627177360315327,-2.178987210714447,0.0,24.524234373530323,21.5102333968985,394.73790192701233,374.52049639577115,0.0
0.108,7.7077901741980135,-2.4943739270536502,-4.216950861288361,0.0,24.47258823048273,20.606462631216864,396.0803020470974,374.52049639577115,0.0
0.109,6.863136812235694,-2.456181924581063,-5.103748977844161,0.0,24.331211942989526,19.795965164589525,395.1904958019303,374.52049639577115,0.0
0.11,6.031452933319903,-2.3759286439173097,-4.865545849322198,0.0,24.114477596734613,19.170488834239695,392.19210949726636,374.52049639577115,0.0
0.111,5.297558944367402,-2.2847271091409294,-3.5430688280051807,0.0,23.84763941605145,18.80138864335462,388.67838833708436,374.52049639577115,0.0
0.112,4.731018931664813,-2.215608051318218,-1.9277871673273133,0.0,23.563883953335363,18.661951327458898,384.4995217063817,374.52049639577115,0.0
0.113,4.358259238518107,-2.1781684841071813,0.06185589491790999,0.0,23.291133143486327,18.74612828324044,381.39945962172953,374.52049639577115,0.0
0.114,4.1851627725156275,-2.1794821665140653,1.5430973049844088,0.0,23.05459401093721,18.9529656012726,379.18930231965237,374.52049639577115,0.0
0.115,4.1765348604832955,-2.2002101695980816,2.601487896784179,0.0,22.8646594669614,19.216293930907472,376.04780973496213,374.52049639577115,0.0
0.116,4.287167022767605,-2.2175163663279647,4.156961055737389,0.0,22.7217476119561,19.582558297776533,372.14823349531014,374.52049639577115,0.0
0.117,4.50787602957337,-2.2297935535705053,6.130471804567995,0.0,22.630930807767616,20.076264824114197,369.9505645423158,374.52049639577115,0.0
0.11800000000000001,4.839322771613013,-2.245958938813521,7.275005599599709,0.0,22.600221757136055,20.58343057580812,365.05464742670875,374.52049639577115,0.0
0.11900000000000001,5.242240984326566,-2.2476308179098563,9.817622647093863,0.0,22.62332243958521,21.264044848565455,357.11491793981764,374.52049639577115,0.0
0.12,5.763321390133813,-2.2391218208724224,10.0,0.0,22.711221772600105,21.820253438125036,351.8141935681611,374.52049639577115,0.0
0.121,6.3122932842713,-2.182694258664677,10.0,0.0,22.839830089396983,22.27263122420404,352.0011172095949,374.52049639577115,0.0
0.122,6.842483049572193,-2.0779611869056605,10.0,0.0,22.989858990850667,22.639800908113106,352.6440275574286,374.52049639577115,0.0
0.123,7.341804967308075,-1.9266052819814,10.0,0.0,23.14600015172581,22.935633000478703,344.68441972270546,374.52049639577115,0.0
0.124,7.794815128826152,-1.762835665823228,10.0,0.0,23.29960930702184,23.172658101105615,329.76818742446477,374.52049639577115,0.0
0.125,8.23898158494639,-1.5453292346204979,10.0,0.0,23.439272045580235,23.357013398641385,328.97017034648417,374.52049639577115,0.0
0.126,8.683589246783907,-1.2759719114113612,10.0,0.0,23.5559497987954,23.492434262038508,323.00612956418996,374.52049639577115,0.0
0.127,9.079432452900207,-1.0523112704882869,10.0,0.0,23.6525927657593,23.586884138363008,320.2808891801094,374.52049639577115,0.0
0.128,9.428227284302361,-0.8894740506011987,10.0,0.0,23.733340935880925,23.647144324358383,336.7528928833176,374.52049639577115,0.0
0.129,9.584193391205048,-1.0128702927217947,10.0,0.0,23.827242266422054,23.69578498532111,347.348928176798,374.52049639577115,0.0
0.13,9.628426527051301,-1.2783121715976646,10.0,0.0,23.944582174260486,23.745645729367602,353.7714591465229,374.52049639577115,0.0
0.131,9.624725222082375,-1.5733040869202943,10.0,0.0,24.08496885761646,23.803103864698357,367.1717385162343,374.52049639577115,0.0
0.132,9.571902692761373,-1.8947698418686296,9.818984927869682,0.0,24.249474000060985,23.854716662072896,384.62827424357016,374.52049639577115,0.0
0.133,9.458714587946883,-2.246050612107136,0.9896392857237686,0.0,24.43811613517527,22.960123290276073,390.88077674341827,374.52049639577115,0.0
0.134,8.945044544873305,-2.438729417411048,-2.3002147676767555,0.0,24.536116580479497,21.95563480340772,393.4939685045127,374.52049639577115,0.0
0.135,8.186075514579775,-2.4892972133254494,-3.796545369311378,0.0,24.52750380206401,21.00804727701237,395.1520164958909,374.52049639577115,0.0
0.136,7.323204017115279,-2.4616897594280336,-4.831884566001687,0.0,24.421451050962666,20.142759394213577,395.2211336199822,374.52049639577115,0.0
0.137,6.451278144357625,-2.3902119739646013,-5.073449500289444,0.0,24.231888304829592,19.424459404808484,393.06136043259045,374.52049639577115,0.0
0.138,5.650985431382855,-2.3003098721196196,-4.178971546961762,0.0,23.980277381020997,18.939154303639157,389.94139477860875,374.52049639577115,0.0
0.139,4.995925657786142,-2.2243233377446416,-2.7731977037992905,0.0,23.69783754171352,18.686962611386384,386.4406229137679,374.52049639577115,0.0
0.14,4.524433445156163,-2.177798862921164,-1.1420130365588443,0.0,23.41406469022469,18.642432225046303,382.48194190043756,374.52049639577115,0.0
0.14100000000000001,4.244984840247135,-2.1625365759479944,0.7577130150596725,0.0,23.153002478431922,18.79266003561067,380.0766665373246,374.52049639577115,0.0
0.14200000000000002,4.151731558068333,-2.17965641407856,1.9047889952006054,0.0,22.93510507393895,19.01640331622922,377.41993870208677,374.52049639577115,0.0
0.14300000000000002,4.196924968827376,-2.20244415683516,3.204158489756379,0.0,22.763707191279064,19.321538604931064,374.0251294347097,374.52049639577115,0.0
0.14400000000000002,4.355125648930643,-2.2202017370947016,4.906516793055529,0.0,22.641688082156328,19.73633615421031,370.17920923302523,374.52049639577115,0.0
