timestamp,iq,id,iq_ref,id_ref,vq,vd,omega,omega_ref,r
0.0,0.0,0.0,0.0,0.0,0.0,0.0,0.0,296.33662086496633,0.0
0.001,0.0,0.0,10.0,0.0,0.0,1.0999999999999999,5.210533917603162,296.33662086496633,0.0
0.002,0.6940069216334886,-0.3783043232513068,10.0,0.0,0.15161347555764368,1.9136592386203157,10.516336295173263,296.33662086496633,0.0
0.003,1.372029724572937,-0.7655867023125914,10.0,0.0,0.40824954588578294,2.59347146182736,15.631091783523402,296.33662086496633,0.0
0.004,1.9266562294011502,-1.080066472644828,10.0,0.0,0.7379231824477458,3.176737382244805,20.948151967556917,296.33662086496633,0.0
0.005,2.354064523575458,-1.3202795649537453,10.0,0.0,1.1162346898459152,3.6931754269658104,26.37008970912529,296.33662086496633,0.0
0.006,2.6796757786447865,-1.502294101511375,10.0,0.0,1.5259783190746188,4.164257662838648,31.873859891234964,296.33662086496633,0.0
0.007,2.931675611588544,-1.64199404884287,10.0,0.0,1.9554026578086237,4.604742168973954,37.360564210182766,296.33662086496633,0.0
0.008,3.1324300171080957,-1.7526879745686599,10.0,0.0,2.3967123456392807,5.024557672091414,42.824635652225716,296.33662086496633,0.0
0.009000000000000001,3.29852548145342,-1.8433301920034026,10.0,0.0,2.844736319659182,5.430259636657406,48.26640742528159,296.33662086496633,0.0
0.01,3.4410898566639307,-1.9205865617912734,10.0,0.0,3.29611987123601,5.826172675539086,53.74912413586254,296.33662086496633,0.0
0.011,3.567980008691006,-1.988235230594792,10.0,0.0,3.7486251614138313,6.215100492719406,59.19040474962141,296.33662086496633,0.0
0.012,3.683876672575663,-2.049628802062602,10.0,0.0,4.200849510465327,6.598906325692436,64.65142155225108,296.33662086496633,0.0
0.013000000000000001,3.7926295610822907,-2.10560522436654,10.0,0.0,4.651775478647731,6.978750159176429,69.92595929597745,296.33662086496633,0.0
0.014,3.8952977181749353,-2.1591754599375172,10.0,0.0,5.100926195050064,7.355496237735139,75.15620904301527,296.33662086496633,0.0
0.015,3.9948385407474585,-2.2084210012968715,10.0,0.0,5.54771775486185,7.729559971166159,80.3853017528558,296.33662086496633,0.0
0.016,4.091692703771392,-2.254613958250066,10.0,0.0,5.99182530188682,8.101237937528353,85.56959522607764,296.33662086496633,0.0
0.017,4.1866597562445005,-2.2977221815104363,10.0,0.0,6.432969865834621,8.470681027815017,90.60036390285588,296.33662086496633,0.0
0.018000000000000002,4.2798338271106005,-2.338464577408315,10.0,0.0,6.870994863732471,8.837994788197253,95.60555318258446,296.33662086496633,0.0
0.019,4.3727527985863714,-2.374847429489031,10.0,0.0,7.305543427648658,9.203090326177382,100.55579724688988,296.33662086496633,0.0
0.02,4.465143792676732,-2.4077692283132066,10.0,0.0,7.736404258321094,9.565897347115934,105.4086907556009,296.33662086496633,0.0
0.021,4.557630769503829,-2.4365377119695233,10.0,0.0,8.163295023234094,9.926260091517792,110.17275695897285,296.33662086496633,0.0
0.022,4.650660955371534,-2.4607122874591774,10.0,0.0,8.585904504563278,10.283967187293591,115.01743289551965,296.33662086496633,0.0
0.023,4.745520095686703,-2.4784376787437337,10.0,0.0,9.003731794623528,10.63866031804874,119.38996905096225,296.33662086496633,0.0
0.024,4.839191195586749,-2.495064531746553,10.0,0.0,9.416897368670732,10.990311635148542,123.84739016985512,296.33662086496633,0.0
0.025,4.938154866402014,-2.5001422588465205,10.0,0.0,9.824303798474167,11.338165085152408,127.90396583526984,296.33662086496633,0.0
0.026000000000000002,5.035163824528644,-2.506051999934289,10.0,0.0,10.226354224546295,11.682292484450452,131.69670440514852,296.33662086496633,0.0
0.027,5.138469189541445,-2.4995515405586968,10.0,0.0,10.621838199998827,12.02181868585576,135.5627426702837,296.33662086496633,0.0
0.028,5.24291724968648,-2.4895435988801577,10.0,0.0,11.010690529055752,12.356484431699975,138.9475993445604,296.33662086496633,0.0
0.029,5.351773997030306,-2.471131575104314,10.0,0.0,11.392198956592846,12.68563907425908,142.34763489221896,296.33662086496633,0.0
0.03,5.464579553087736,-2.4455241740527702,10.0,0.0,11.76583931175423,13.008709051623107,145.37388488543027,296.33662086496633,0.0
0.031,5.58151798453646,-2.412907836396032,10.0,0.0,12.131090906004154,13.325100894868088,148.24605090245126,296.33662086496633,0.0
0.032,5.70333133197991,-2.3725472412926067,10.0,0.0,12.487343023068775,13.63414862930927,150.84237509666877,296.33662086496633,0.0
0.033,5.829907137301393,-2.3250924126499823,10.0,0.0,12.8340582766714,13.935211596901864,153.21061311628821,296.33662086496633,0.0
0.034,5.961663122869384,-2.2703074009954882,10.0,0.0,13.170656498677449,14.227612392736198,155.3234482394888,296.33662086496633,0.0
0.035,6.0985605371244755,-2.208661287570116,10.0,0.0,13.496601755706084,14.510691775475326,157.17567776393804,296.33662086496633,0.0
0.036000000000000004,6.24066687076211,-2.140403914972064,10.0,0.0,13.811368575454228,14.783795023085814,158.77979440751935,296.33662086496633,0.0
0.037,6.387921279748142,-2.0659331681126716,10.0,0.0,14.114459829560062,15.046287706257983,160.2897510266533,296.33662086496633,0.0
0.038,6.541181906749093,-1.9840534648556865,10.0,0.0,14.405229166682851,15.29745412164327,161.44935624399855,296.33662086496633,0.0
0.039,6.698270702725587,-1.8984814275766055,10.0,0.0,14.683444084563764,15.536833667914907,162.29050802599917,296.33662086496633,0.0
0.04,6.860829616498923,-1.8065938175877538,10.0,0.0,14.948523548557766,15.763786158792165,163.11178254331338,296.33662086496633,0.0
0.041,7.023878173227633,-1.7166127426362436,10.0,0.0,15.200811273095313,15.978241594878673,161.60224460031267,296.33662086496633,0.0
0.042,7.20656557286973,-1.5964781254461538,10.0,0.0,15.437000771646362,16.178015131416938,160.68032977650924,296.33662086496633,0.0
0.043000000000000003,7.358116043145641,-1.5305827025029286,10.0,0.0,15.663501523644278,16.366586586422564,163.3618409772363,296.33662086496633,0.0
0.044,7.532965947434937,-1.4287866405624827,10.0,0.0,15.875670733358948,16.541232986358338,164.0894655244199,296.33662086496633,0.0
0.045,7.721256162765409,-1.30555703117368,10.0,0.0,16.07155036568237,16.700668242628566,160.84624365952385,296.33662086496633,0.0
0.046,7.906213819494579,-1.1888046158133094,10.0,0.0,16.25217509080472,16.845285496417194,158.73793953271382,296.33662086496633,0.0
0.047,8.073599374815867,-1.10314513887602,10.0,0.0,16.420944050484195,16.976940662821143,161.3514093410373,296.33662086496633,0.0
0.048,8.213809906510924,-1.0649356323926074,10.0,0.0,16.582655179892317,17.098557905619405,166.90480711121947,296.33662086496633,0.0
0.049,8.277135752119397,-1.1475103431127884,10.0,0.0,16.749822233883503,17.21862079937867,171.9059427120815,296.33662086496633,0.0
0.05,8.325018248435311,-1.242419451666295,10.0,0.0,16.921893126685184,17.338760293022467,173.83884437721636,296.33662086496633,0.0
0.051000000000000004,8.358592269531794,-1.3488283152614908,10.0,0.0,17.099526763481013,17.46087860922459,175.81398658474512,296.33662086496633,0.0
0.052000000000000005,8.35769111009314,-1.5048298052108446,10.0,0.0,17.287704943475948,17.588983325235308,183.57670934257476,296.33662086496633,0.0
0.053,8.36408886351738,-1.6395195012394868,10.0,0.0,17.48313162873612,17.722382623173395,187.24923612457428,296.33662086496633,0.0
0.054,8.381122870240274,-1.746443391948778,10.0,0.0,17.682770306281814,17.86017489663841,189.09778743852874,296.33662086496633,0.0
0.055,8.354479235956752,-1.9230403064675796,10.0,0.0,17.89458076510942,18.00725295034991,197.89490838060118,296.33662086496633,0.0
0.056,8.347388632660516,-2.058696309883951,10.0,0.0,18.113074174656028,18.161317774592774,198.99884952638521,296.33662086496633,0.0
0.057,8.332232311720226,-2.200458676226662,10.0,0.0,18.3393620259358,18.32342174663648,207.34704357843287,296.33662086496633,0.0
0.058,8.29329024309911,-2.3772884482400474,10.0,0.0,18.577265140550008,18.49607617094271,210.0473840404298,296.33662086496633,0.0
0.059000000000000004,8.276087715485378,-2.5071448421118814,10.0,0.0,18.821159291739185,18.676758321631038,217.92544542313883,296.33662086496633,0.0
0.06,8.217735719397634,-2.7013662832405587,10.0,0.0,19.07879803746371,18.870008366662965,221.08839990479552,296.33662086496633,0.0
0.061,8.18836135343302,-2.834733175210125,10.0,0.0,19.34272605682434,19.072344942059388,229.68544560541926,296.33662086496633,0.0
0.062,8.122354346115763,-3.022657206291709,10.0,0.0,19.619832906287836,19.287807688997475,231.6409734247079,296.33662086496633,0.0
0.063,8.073105286362033,-3.170344853346578,10.0,0.0,19.905141746364006,19.51419217268785,241.26453835287862,296.33662086496633,0.0
0.064,8.011441980617695,-3.3282935837499736,10.0,0.0,20.20045563467541,19.752759565051136,246.5804269363537,296.33662086496633,0.0
0.065,7.937843766299879,-3.4959257892863698,10.0,0.0,20.50695492869699,20.00448077752676,250.61755624567738,296.33662086496633,0.0
0.066,7.882663675271536,-3.619522226033636,10.0,0.0,20.819895700550802,20.26701362602691,257.21148533785356,296.33662086496633,0.0
0.067,7.817218481859428,-3.749450932439748,10.0,0.0,21.14085187340645,20.541234437227473,262.9586492979823,296.33662086496633,0.0
0.068,7.758695215512879,-3.8571920295752484,10.0,0.0,21.467686743717433,20.82591189195755,268.7905917275418,296.33662086496633,0.0
0.069,7.707390963074771,-3.943475914078132,10.0,0.0,21.798719688794282,21.11986332335044,274.130781568143,296.33662086496633,0.0
0.07,7.659994091265957,-4.016247876365592,10.0,0.0,22.133186559509333,21.42222351948632,276.7552834027557,296.33662086496633,0.0
0.07100000000000001,7.638958115684553,-4.039712913021318,10.0,0.0,22.466296197175723,21.72963437167598,282.6727334894025,296.33662086496633,0.0
0.07200000000000001,7.620730602124855,-4.057472479487142,10.0,0.0,22.79855485823912,22.041409769149062,285.3032616107068,296.33662086496633,0.0
0.073,7.622611520372887,-4.04458636983134,10.0,0.0,23.127170125216693,22.354844316838303,283.24438507642367,296.33662086496633,0.0
0.074,7.663214470148455,-3.973676541359191,10.0,0.0,23.44659610023005,22.66534942116354,289.54832267905687,296.33662086496633,0.0
0.075,7.732379518695301,-3.866089299882991,10.0,0.0,23.754004489896936,22.9695444867152,291.7785214710329,296.33662086496633,0.0
0.076,7.801311411650228,-3.774631878153428,9.235878056361715,0.0,24.052107103176805,23.18311661313858,284.1510701388211,296.33662086496633,0.0
0.077,7.885101249505065,-3.5661694135461093,10.0,0.0,24.319740370881526,23.488308858249738,291.5352295593931,296.33662086496633,0.0
0.078,8.04837704626311,-3.3635180950907397,9.463964247904219,0.0,24.57092251594286,23.706017614188486,284.6829593345913,296.33662086496633,0.0
0.079,8.177429317454315,-3.1824674300554157,10.0,0.0,24.800868262122616,23.978835007427534,286.0909353285141,296.33662086496633,0.0
0.08,8.432855463152102,-2.9028344989410653,10.0,0.0,25.006152057236065,24.215198525124855,281.0272446256902,296.33662086496633,0.0
0.081,8.64406446044365,-2.7293349446038584,10.0,0.0,25.198255202941965,24.427775342318704,280.6676016394934,296.33662086496633,0.0
0.082,8.95317453266912,-2.4199288599065336,10.0,0.0,25.36010604202331,24.606414774391855,272.1889468468553,296.33662086496633,0.0
0.083,9.210213621703982,-2.211256273440863,10.0,0.0,25.5037758167396,24.75819214809426,274.562585424804,296.33662086496633,0.0
0.084,9.522238473930152,-1.9315574962600555,10.0,0.0,25.61957621172926,24.87740641904352,264.99710261987934,296.33662086496633,0.0
0.085,9.843337745888222,-1.6500768922391829,10.0,0.0,25.7075521156444,24.964078631003694,259.8743272780432,296.33662086496633,0.0
0.08600000000000001,10.135336552182002,-1.4304043472271497,10.0,0.0,25.774048476452922,25.02197233618663,259.5322128877851,296.33662086496633,0.0
0.08700000000000001,10.458048509133098,-1.1716417126060246,10.0,0.0,25.81341740734068,25.048147979730427,253.32684327705434,296.33662086496633,0.0
0.088,10.792771767909041,-0.898249557114422,10.0,0.0,25.823981498736185,25.042050513112788,250.98286559856734,296.33662086496633,0.0
0.089,11.08432933119248,-0.7011966639825628,10.0,0.0,25.81393753764078,25.00889510292304,253.5522544433425,296.33662086496633,0.0
0.09,11.14009646698308,-0.8811508381670259,10.0,0.0,25.823347919727546,24.9748320283386,257.9088118276207,296.33662086496633,0.0
0.091,11.108559461687939,-1.16214543375223,10.0,0.0,25.85752081991973,24.94914304136165,266.1328001650809,296.33662086496633,0.0
0.092,11.032047825086321,-1.4747954465400357,10.0,0.0,25.917289086845805,24.937541153074847,272.2423327741488,296.33662086496633,0.0
0.093,10.961194496319196,-1.7352406475426823,10.0,0.0,25.995442810233,24.94010503010769,275.0445160598843,296.33662086496633,0.0
0.094,10.8326795487311,-2.0597667678795526,10.0,0.0,26.09913097021179,24.963656002723,286.3438401066206,296.33662086496633,0.0
0.095,10.696643802345646,-2.367415234723053,10.0,0.0,26.225401481603654,25.008899476701163,288.4058852283901,296.33662086496633,0.0
0.096,10.555742505566776,-2.6536375408392052,10.0,0.0,26.371977258258493,25.076384439602528,299.5642597252581,296.33662086496633,0.0
0.097,10.377043395680186,-2.9793008690637395,6.233011291699933,0.0,26.543604696581518,24.75565761508595,300.29128914582185,296.33662086496633,0.0
0.098,9.949909523833366,-3.1197072579279364,5.829949898609515,0.0,26.678184778113398,24.522697085500695,310.4087408451895,296.33662086496633,0.0
0.099,9.474705582218803,-3.264012396058196,0.6305028491234443,0.0,26.790480299839246,23.80658315037372,307.8454238807083,296.33662086496633,0.0
0.1,8.68873216976134,-3.2217895141248816,1.797073301206626,0.0,26.813847307485844,23.43533241711021,310.9961311516724,296.33662086496633,0.0
0.101,8.059658235205006,-3.205147388146927,0.07512456285753366,0.0,26.796344136003192,22.963801790875088,312.846385025786,296.33662086496633,0.0
0.10200000000000001,7.4155151098277265,-3.1787292745039424,-1.015100015807465,0.0,26.730698647804353,22.49953369829151,312.6484464290022,296.33662086496633,0.0
0.10300000000000001,6.816549316443106,-3.093111655847604,-1.0792489730559307,0.0,26.616037142251262,22.13841853265425,312.71390544584364,296.33662086496633,0.0
0.10400000000000001,6.31486097632083,-3.01712237115251,-1.2757513272854188,0.0,26.469227625559864,21.830171023112257,310.79878854977613,296.33662086496633,0.0
0.105,5.903266246379877,-2.9366293963327625,-0.4628145560997652,0.0,26.298179975200178,21.669713918120316,308.4593083925242,296.33662086496633,0.0
0.106,5.640917561715799,-2.8728439814509894,0.5856986472506343,0.0,26.12197991348848,21.640147251261933,306.0125879976059,296.33662086496633,0.0
0.107,5.5262263216080445,-2.833226692342033,1.712299173383367,0.0,25.956723143608926,21.719350720324517,303.2188456538475,296.33662086496633,0.0
0.108,5.547129951517832,-2.7998537774968604,3.0403480973737675,0.0,25.812637549881725,21.905481230179365,303.39404008403096,296.33662086496633,0.0
0.109,5.697553327930708,-2.763039013925596,2.882176690091388,0.0,25.697857671668334,22.01157325052872,302.00702428105944,296.33662086496633,0.0
0.11,5.807947572328191,-2.742915169233229,3.5189805574162154,0.0,25.603319508030765,22.15656908738075,294.7987575693505,296.33662086496633,0.0
0.111,5.99924578741205,-2.627185489096317,7.138492546226831,0.0,25.520205718074024,22.649450943064494,297.9045766216296,296.33662086496633,0.0
0.112,6.424977830490576,-2.6132877064392406,5.569903462520669,0.0,25.49432003339043,22.831075772500615,290.92627025048256,296.33662086496633,0.0
0.113,6.710628208959532,-2.5475590643844512,9.113160154239022,0.0,25.482094227319347,23.37022945625004,291.2286467895237,296.33662086496633,0.0
0.114,7.248738084817606,-2.468008939120705,9.013051625472887,0.0,25.51691314287185,23.751465103376248,287.62712057693045,296.33662086496633,0.0
0.115,7.691090465999588,-2.450541890893202,10.0,0.0,25.585247857529332,24.164346820659304,285.09708849869315,296.33662086496633,0.0
0.116,8.228873612468256,-2.2918068810455665,10.0,0.0,25.67075109184842,24.478171731634802,279.87922771120424,296.33662086496633,0.0
0.117,8.651200770365746,-2.2072641464795493,10.0,0.0,25.771374143129353,24.728086319040617,279.73907559531153,296.33662086496633,0.0
0.11800000000000001,9.10323263430545,-1.9732264047490813,10.0,0.0,25.862027623778072,24.91757151937954,269.7407983718683,296.33662086496633,0.0
0.11900000000000001,9.484326063141463,-1.7774511933253594,10.0,0.0,25.943369380556526,25.05977358921689,269.57002317732065,296.33662086496633,0.0
0.12,9.843114511338225,-1.5704635616417937,10.0,0.0,26.0099862812699,25.160233832735063,264.82420039126976,296.33662086496633,0.0
0.121,10.225419922103054,-1.292673615081835,10.0,0.0,26.051500498459006,25.218844031270592,256.533826161806,296.33662086496633,0.0
0.122,10.57059042185901,-1.055296757800047,10.0,0.0,26.07139075894734,25.24159893080597,250.36987921020625,296.33662086496633,0.0
0.123,10.898519240867486,-0.8352018182733216,10.0,0.0,26.069730808565268,25.231446901343276,251.54051989989054,296.33662086496633,0.0
0.124,11.142952602858376,-0.7474620619615688,10.0,0.0,26.05977122647611,25.19853569815973,260.9436811063452,296.33662086496633,0.0
0.125,11.186403827295305,-0.9545857775618067,10.0,0.0,26.07117748855665,25.165584356017455,264.2643171800916,296.33662086496633,0.0
0.126,11.169728262872674,-1.2083654529352983,10.0,0.0,26.103992517350008,25.139337598628344,267.25877777158854,296.33662086496633,0.0
0.127,11.086204395751492,-1.5277282927742548,10.0,0.0,26.163493483153644,25.128017889596574,275.67711737663245,296.33662086496633,0.0
0.128,10.970812014660016,-1.861223353552548,10.0,0.0,26.249403209760978,25.135638171297195,282.1943815227191,296.33662086496633,0.0
0.129,10.872046864500218,-2.1274810010378395,10.0,0.0,26.353437382493233,25.160797640195145,286.1986815549073,296.33662086496633,0.0
0.13,10.709210004442168,-2.472811893403283,10.0,0.0,26.48490790652741,25.210768982581328,297.12600791298644,296.33662086496633,0.0
0.131,10.566356098824585,-2.7538842024320718,6.963240669937716,0.0,26.6356931574663,24.9489322778428,298.29602583571335,296.33662086496633,0.0
0.132,10.169988625624255,-2.9716976473686603,6.358637658866789,0.0,26.766364968690183,24.734390913750694,306.0093996003854,296.33662086496633,0.0
0.133,9.756145089618672,-3.1046907979530234,2.4052229891765773,0.0,26.87496657449737,24.167100397863585,308.2767688546531,296.33662086496633,0.0
0.134,9.058596985868585,-3.176707081102265,1.1521368821458644,0.0,26.92257082777571,23.641685625121884,309.6182532282136,296.33662086496633,0.0
0.135,8.36618037936829,-3.1383932270372874,0.3485783717331472,0.0,26.907938491673406,23.16690252558463,312.5012026573602,296.33662086496633,0.0
0.136,7.691211366300342,-3.132344282139748,-1.2545421607640952,0.0,26.847008833829523,22.637149254292773,311.87460351890456,296.33662086496633,0.0
0.137,7.038077041618944,-3.0468448643403203,-1.0966224180756692,0.0,26.72985236813189,22.252775806950684,312.5539625413921,296.33662086496633,0.0
0.138,6.496701062597227,-2.98845308006623,-1.598475346083685,0.0,26.58040610217765,21.89136105271085,311.5217365678702,296.33662086496633,0.0
0.139,6.03305665369046,-2.915149072871026,-1.2342135163517938,0.0,26.402283464446125,21.64181760303969,309.28296506088583,296.33662086496633,0.0
0.14,5.688603739233492,-2.849884590057364,-0.24429120481879263,0.0,26.210572692483083,21.537918447035008,306.9339261790758,296.33662086496633,0.0
0.14100000000000001,5.496565649847213,-2.8058642723628027,0.8242551829451292,0.0,26.023453491997607,21.5505586696611,304.36178726251853,296.33662086496633,0.0
0.14200000000000002,5.442755200296199,-2.7786021513032155,2.0300729772482393,0.0,25.853751603683683,21.669176212028503,301.92557644011504,296.33662086496633,0.0
0.14300000000000002,5.515758830630367,-2.7566825754660242,3.1922888326985,0.0,25.710743126306397,21.866178873651986,301.66182438945464,296.33662086496633,0.0
0.14400000000000002,5.6947244046990155,-2.7233410901825543,3.270912822783817,0.0,25.59828739520637,22.00725072488608,300.52551573889895,296.33662086496633,0.0
0.145,5.842136417210091,-2.709806707213587,3.797178199322337,0.0,25.510029055066013,22.16564710376961,293.0532544701576,296.33662086496633,0.0
