timestamp,iq,id,iq_ref,id_ref,vq,vd,omega,omega_ref,r
0.0,0.0,0.0,0.0,0.0,0.0,0.0,0.0,341.6695727134221,0.0
0.001,0.0,0.0,10.0,0.0,0.0,1.0999999999999999,15.031456595025928,341.6695727134221,0.0
0.002,0.4545061076709121,-0.23458638214639355,10.0,0.0,0.13580450203610323,1.9400043281561994,30.735918699742253,341.6695727134221,0.0
0.003,1.056439373737311,-0.5730584912174935,10.0,0.0,0.37691505486057336,2.647921075509794,45.62262724173676,341.6695727134221,0.0
0.004,1.6832439735909948,-0.9248880596634422,10.0,0.0,0.7000227585762988,3.246228030087236,61.3598156890245,341.6695727134221,0.0
0.005,2.2625043919021395,-1.2484004380452987,10.0,0.0,1.0827184533157412,3.759564459562817,77.47292980336566,341.6695727134221,0.0
0.006,2.7603802831582547,-1.5263472042889692,10.0,0.0,1.5058172420317821,4.210863071709722,93.68179902171724,341.6695727134221,0.0
0.007,3.1689751472933287,-1.753594040508048,10.0,0.0,1.953953697412572,4.619375025371245,110.1195018669595,341.6695727134221,0.0
0.008,3.494553396091955,-1.9327242294857425,10.0,0.0,2.41555955504679,5.000121770478195,126.09685843326925,341.6695727134221,0.0
0.009000000000000001,3.7493624308168476,-2.0713385612563036,10.0,0.0,2.882535776033266,5.364181215506122,141.77782025467644,341.6695727134221,0.0
0.01,3.949033555439867,-2.1759291525849096,10.0,0.0,3.3493391411523294,5.71911660476862,157.17546434614871,341.6695727134221,0.0
0.011,4.107931950180717,-2.253691505268726,10.0,0.0,3.81246366156767,6.06975667944151,172.172191305663,341.6695727134221,0.0
0.012,4.238816577208031,-2.310140541742135,10.0,0.0,4.269771507894,6.418836873663049,186.70190948713406,341.6695727134221,0.0
0.013000000000000001,4.352173494961268,-2.34922734349389,10.0,0.0,4.719991646837813,6.767579418412485,200.65395438836765,341.6695727134221,0.0
0.014,4.456293586991567,-2.373370026834095,10.0,0.0,5.16232885351209,7.116150081635558,213.92321130521793,341.6695727134221,0.0
0.015,4.557605806833583,-2.3836494326136255,10.0,0.0,5.596178713643596,7.463994255941433,226.40383341088688,341.6695727134221,0.0
0.016,4.66102372216559,-2.3802000658319757,10.0,0.0,6.020945780788759,7.810076150341768,237.98847870868934,341.6695727134221,0.0
0.017,4.770325798264718,-2.3625379322282427,10.0,0.0,6.435935989630847,8.153037512799003,249.15904101804614,341.6695727134221,0.0
0.018000000000000002,4.888765586356059,-2.32938711272521,10.0,0.0,6.840253345025155,8.491266403965675,258.65970444514824,341.6695727134221,0.0
0.019,5.017683889370921,-2.2815344551798558,10.0,0.0,7.233029569861738,8.823107526104378,266.83026189448117,341.6695727134221,0.0
0.02,5.160009244944563,-2.2166649902775335,10.0,0.0,7.613055169864732,9.14667555242992,273.93996291266325,341.6695727134221,0.0
0.021,5.316386585304451,-2.13577335693743,10.0,0.0,7.979185627481591,9.46011108223936,279.5787329855345,341.6695727134221,0.0
0.022,5.488074339854895,-2.0386921586298623,10.0,0.0,8.330176576837282,9.761494225232589,284.0446117998488,341.6695727134221,0.0
0.023,5.675340898695759,-1.9266271019569732,10.0,0.0,8.664850401305777,10.048955704935075,287.149566821444,341.6695727134221,0.0
0.024,5.878338548529591,-1.8007142681822106,10.0,0.0,8.982073230149183,10.320681343220846,289.20693764551606,341.6695727134221,0.0
0.025,6.096507705153043,-1.6628791852180669,10.0,0.0,9.280843609148512,10.574988069832138,290.15768591190175,341.6695727134221,0.0
0.026000000000000002,6.329190521615809,-1.5147544843527552,10.0,0.0,9.560252256643496,10.810327743437568,290.2878728443861,341.6695727134221,0.0
0.027,6.574845045926281,-1.358884815329903,10.0,0.0,9.819589590165666,11.025379144922429,302.60063196828065,341.6695727134221,0.0
0.028,6.814986788433583,-1.2257819302137873,10.0,0.0,10.061415709811557,11.220900093178319,309.4184737767671,341.6695727134221,0.0
0.029,6.954680115429716,-1.263896620856014,10.0,0.0,10.30413495714026,11.40808671002871,329.55089893924185,341.6695727134221,0.0
0.03,7.059643039180309,-1.355363452064704,10.0,0.0,10.550981145947661,11.590677601584328,343.9475326620915,341.6695727134221,0.0
0.031,7.133646337328138,-1.484865734912014,2.785312143694524,0.0,10.804732387831002,10.97898762511277,347.0553520792206,341.6695727134221,0.0
0.032,6.8393557257883,-1.507340305090683,1.1775446414719783,0.0,10.973116687770034,10.382246224046133,350.99030216289395,341.6695727134221,0.0
0.033,6.339225072792901,-1.447780160685355,-0.883137694859419,0.0,11.058212056022127,9.703491476819929,352.73962066891636,341.6695727134221,0.0
0.034,5.675652241809603,-1.3417486568016148,-1.868497427425564,0.0,11.055854548743229,9.081330698800803,351.9602687207679,341.6695727134221,0.0
0.035,4.9529855476880975,-1.2096286224863206,-1.581728413424785,0.0,10.978043825654465,8.635406044764977,351.1305618422438,341.6695727134221,0.0
0.036000000000000004,4.27839215821483,-1.1010407750530407,-1.2614848654509703,0.0,10.852798246596485,8.325630489861817,350.02485443809485,341.6695727134221,0.0
0.037,3.7037348331947832,-1.030163315658371,-0.7921839806232116,0.0,10.70238902789491,8.139194966251965,348.6912330565402,341.6695727134221,0.0
0.038,3.2524194218248605,-1.0020190391152126,-0.19558989327708165,0.0,10.54599008287671,8.061192535893223,347.6541379886006,341.6695727134221,0.0
0.039,2.929970029070964,-1.014023534975852,0.2631119879409418,0.0,10.399032726634546,8.050797999218288,346.86303687861886,341.6695727134221,0.0
0.04,2.719456177564538,-1.0554519245498581,0.6067279012798505,0.0,10.270168730243649,8.079889941979902,345.7018315385845,341.6695727134221,0.0
0.041,2.597169416484924,-1.1118699952088866,1.147007983045412,0.0,10.162892031644752,8.160527345890777,344.95696410647645,341.6695727134221,0.0
0.042,2.5525328047544877,-1.1754566218317195,1.4865677851688877,0.0,10.080837091518752,8.25800927664615,344.07884365162045,341.6695727134221,0.0
0.043000000000000003,2.563259996883081,-1.2353565043795256,1.9015353032149052,0.0,10.022688959294925,8.378161992025769,342.48426546556095,341.6695727134221,0.0
0.044,2.618916157969002,-1.2847564992945852,2.6906774687232633,0.0,9.987205912446615,8.557125679872335,342.61487278285074,341.6695727134221,0.0
0.045,2.7298952524255973,-1.324201977080554,2.6159208093840833,0.0,9.977012541675107,8.686878901287656,341.0130435486801,341.6695727134221,0.0
0.046,2.85151256724662,-1.3451391418477125,3.423400718116814,0.0,9.982722463468802,8.879939706352536,338.81832513212873,341.6695727134221,0.0
0.047,3.0158218659714717,-1.3454437257344858,4.549272402205439,0.0,10.006991606169493,9.153178659541197,340.4325665277455,341.6695727134221,0.0
0.048,3.236975756106526,-1.3488575352184031,3.7545217662538177,0.0,10.056530203123346,9.28015550995789,334.54768815056656,341.6695727134221,0.0
0.049,3.43522656611455,-1.3200231455021378,6.768179800471849,0.0,10.11060670445985,9.719242374952264,337.6785828431701,341.6695727134221,0.0
0.05,3.762230935060703,-1.3086054080423954,5.242642352872601,0.0,10.202216634938729,9.887894531518757,333.04925385961735,341.6695727134221,0.0
0.051000000000000004,4.044447321927498,-1.2753306602305396,7.6435100331870185,0.0,10.297984743141669,10.300419525921182,334.3229860461186,341.6695727134221,0.0
0.052000000000000005,4.423321774917439,-1.2397822521961264,7.080109806609422,0.0,10.42185096255889,10.556432104016753,331.9946075473065,341.6695727134221,0.0
0.053,4.783776193085012,-1.196601898155031,8.341048707676642,0.0,10.55453746297977,10.907706086159127,329.8306622520109,341.6695727134221,0.0
0.054,5.19637336462469,-1.1331751299545623,9.541410459938557,0.0,10.702537570611153,11.314770579179799,330.6056321388414,341.6695727134221,0.0
0.055,5.651530445147502,-1.0938741066120217,9.26456492226912,0.0,10.872755271895798,11.607530699853175,325.81373045548065,341.6695727134221,0.0
0.056,6.111595434755935,-1.0115777519181512,10.0,0.0,11.046567626336412,11.92564731446307,324.21333843691997,341.6695727134221,0.0
0.057,6.5683353560564965,-0.9444437762388554,10.0,0.0,11.228248633016168,12.176338410831749,338.352776690682,341.6695727134221,0.0
0.058,6.9473410364933414,-0.9627533563685549,5.665750867093195,0.0,11.419516042235879,11.90623786797674,348.7879134333345,341.6695727134221,0.0
0.059000000000000004,6.994157960129459,-1.0365901069349077,0.3769990885678185,0.0,11.572585603009118,11.142494111224874,350.91875542965136,341.6695727134221,0.0
0.06,6.667515461404056,-0.9877219363533366,-0.780913736752904,0.0,11.62785996576021,10.432347637321648,353.24035492988713,341.6695727134221,0.0
0.061,6.119040738508344,-0.9075764034143003,-2.057421309035443,0.0,11.598264917928395,9.726972336917255,352.23741181706293,341.6695727134221,0.0
0.062,5.4504512329564365,-0.8017939259819313,-1.6616281436597524,0.0,11.490257227651151,9.213537484066027,352.37714904482135,341.6695727134221,0.0
0.063,4.794332425819688,-0.7258720308732993,-1.8385725208529529,0.0,11.334413237428882,8.782710708056712,351.3983798532467,341.6695727134221,0.0
0.064,4.190348981343333,-0.6827769589985893,-1.446475996463871,0.0,11.147089729672775,8.484159262901866,349.9285807220058,341.6695727134221,0.0
0.065,3.6826959056698474,-0.680141498369327,-0.7941665109292559,0.0,10.948784478226326,8.314365693531126,348.9880698996081,341.6695727134221,0.0
0.066,3.2933309677466722,-0.7218096010473294,-0.3970960715922667,0.0,10.757940240888317,8.216629221839352,348.73504871009794,341.6695727134221,0.0
0.067,3.0097208113848657,-0.7961712112798144,-0.34124023680394977,0.0,10.584169876213728,8.13905887883687,347.90931687225947,341.6695727134221,0.0
0.068,2.8009225921717684,-0.883342695216856,0.009228240526914178,0.0,10.428864760837097,8.10999321037551,347.29513575223956,341.6695727134221,0.0
0.069,2.659469036195436,-0.974363561079759,0.26006317014869307,0.0,10.295324170557542,8.105862663672978,346.40579793729256,341.6695727134221,0.0
0.07,2.569329083151495,-1.0605967051506475,0.6573698253834874,0.0,10.18330002182486,8.138487354667422,344.97677064606626,341.6695727134221,0.0
0.07100000000000001,2.5263923461748554,-1.1376941004516787,1.3388114916701985,0.0,10.093359139107296,8.231454319965332,344.3308298265071,341.6695727134221,0.0
0.07200000000000001,2.5381346791755695,-1.2077246832772937,1.63516933031892,0.0,10.028641431349083,8.330194422050342,342.80859830337545,341.6695727134221,0.0
0.073,2.5849259480979745,-1.264619662493356,2.38489483598522,0.0,9.985827646460706,8.487065354136377,341.9974139753483,341.6695727134221,0.0
0.074,2.6813803490021164,-1.3079040324013396,2.787208587379527,0.0,9.967174664167485,8.650583000711453,342.0215212773709,341.6695727134221,0.0
0.075,2.8096888043603494,-1.3377660365469768,2.7716354507287537,0.0,9.969590721518035,8.776998015773806,338.5369604364242,341.6695727134221,0.0
0.076,2.9441195855352635,-1.3430572790931814,4.545241993972082,0.0,9.984690091278393,9.072761284812593,339.2366302773253,341.6695727134221,0.0
0.077,3.162920384042008,-1.3445570961503084,4.2197364978825025,0.0,10.027967918417417,9.264192713897263,338.0647729659426,341.6695727134221,0.0
0.078,3.379442555127558,-1.338304155815255,4.841713151048632,0.0,10.085358284143574,9.490851838762188,333.25499576809506,341.6695727134221,0.0
0.079,3.6303116800302284,-1.2992236223891551,7.330747519425678,0.0,10.155439196510091,9.942727719674618,339.0481913717248,341.6695727134221,0.0
0.08,3.98496939295012,-1.2996979335927528,4.460363531027788,0.0,10.264142585297856,9.979287864152754,326.8875445199993,341.6695727134221,0.0
0.081,4.241327588003917,-1.2310214804802533,10.0,0.0,10.358072496700245,10.636473360206057,336.26720153437884,341.6695727134221,0.0
0.082,4.704993364609481,-1.2237599428726158,6.038932298648924,0.0,10.508215961962014,10.697779832479856,325.36810881323566,341.6695727134221,0.0
0.083,5.043501915944937,-1.1525583380246025,10.0,0.0,10.641716166767777,11.21069884533373,331.4608266032602,341.6695727134221,0.0
0.084,5.508469404703588,-1.1082149126547252,8.674191998347272,0.0,10.808992491636143,11.45246508193739,323.6069719227256,341.6695727134221,0.0
0.085,5.940501147800081,-1.0317750930581908,10.0,0.0,10.975752861776124,11.80300547071282,325.42594170226727,341.6695727134221,0.0
0.08600000000000001,6.400988459527912,-0.9598416341810534,10.0,0.0,11.153742951499128,12.075576490749079,339.5063031579022,341.6695727134221,0.0
0.08700000000000001,6.820783727390598,-0.9295630600013971,4.920932590470921,0.0,11.338579825682466,11.7384193963582,340.0955278275593,341.6695727134221,0.0
0.088,6.87554468970637,-0.948681253296435,4.642060704501007,0.0,11.47362309001263,11.471750712287236,351.99929742356454,341.6695727134221,0.0
0.089,6.746447387665769,-0.9927771471830842,-1.4131213406030416,0.0,11.57315452589727,10.596720229802258,349.59563072797806,341.6695727134221,0.0
0.09,6.264772809200148,-0.9133311544262157,-0.2905485729553612,0.0,11.56604975180282,10.054873994657342,353.71746234571674,341.6695727134221,0.0
0.091,5.696975110151387,-0.8496828976481003,-2.4719432781476467,0.0,11.499263983285303,9.372963761480552,351.13352642291517,341.6695727134221,0.0
0.092,5.030468126459989,-0.7623085164411201,-1.2746148538417907,0.0,11.36199106893687,8.973723839710818,352.1752159228817,341.6695727134221,0.0
0.093,4.430092318087042,-0.7163935967575666,-1.9005160359196558,0.0,11.194344556493185,8.579234473495706,349.98942473826116,341.6695727134221,0.0
0.094,3.878801306228645,-0.696904792434182,-0.8908189638577761,0.0,11.002329139393622,8.379393335626014,349.1706805965091,341.6695727134221,0.0
0.095,3.448407008545287,-0.7215495518977705,-0.5564579718126148,0.0,10.812436961801273,8.24884797086427,348.73835180473145,341.6695727134221,0.0
0.096,3.1232498482451665,-0.7825742066779889,-0.4109813668368836,0.0,10.634945729923174,8.156490086102524,347.95897836967725,341.6695727134221,0.0
0.097,2.88175218121687,-0.861639789226597,-0.08418870587233673,0.0,10.474054800289256,8.113424465055596,347.3485773549685,341.6695727134221,0.0
0.098,2.7134885152237396,-0.9491639619456467,0.1642217550665852,0.0,10.333783404687642,8.098727563832568,346.5844744865695,341.6695727134221,0.0
0.099,2.6020617080935575,-1.035380258061734,0.49712417153460775,0.0,10.214678009369472,8.116182686498162,345.19308914162224,341.6695727134221,0.0
0.1,2.539378129678364,-1.1138631999498758,1.1575816797262326,0.0,10.116999626496208,8.195083984656147,344.38905790118076,341.6695727134221,0.0
0.101,2.5327447823831246,-1.1864646911656167,1.5324024480693832,0.0,10.044180546340922,8.291055856565164,343.0855547802735,341.6695727134221,0.0
0.10200000000000001,2.567114686897975,-1.2479003645475604,2.1699941878544875,0.0,9.994272470551921,8.432688493991094,342.32881258193527,341.6695727134221,0.0
0.10300000000000001,2.6480559253715974,-1.2966426301901808,2.541772888338485,0.0,9.968265758571281,8.58112696256397,342.19485141244735,341.6695727134221,0.0
0.10400000000000001,2.7620134138008536,-1.3270605923879486,2.6035006860921914,0.0,9.962562117831325,8.703467272487082,339.5567033755524,341.6695727134221,0.0
0.105,2.8824849192576885,-1.3396789567776444,3.943703397918369,0.0,9.970746712618563,8.947695916951266,337.96002614797965,341.6695727134221,0.0
0.106,3.071357956648818,-1.337692550108977,4.779137477359164,0.0,10.002191023996042,9.227244559009526,340.351998472906,341.6695727134221,0.0
0.107,3.308232306836176,-1.3437573455097087,3.5963270573011394,0.0,10.059132760002365,9.31935183285222,332.02581688745056,341.6695727134221,0.0
0.108,3.504768525697668,-1.3050848861946793,7.855855408288584,0.0,10.115276431313672,9.869068535147587,337.7420613677132,341.6695727134221,0.0
0.109,3.876878328386823,-1.3082699761429424,5.037008281614365,0.0,10.221514490210836,9.977792750793313,331.4898367987643,341.6695727134221,0.0
0.11,4.163300429904253,-1.2698428901126573,8.264917925235373,0.0,10.323742334420047,10.441741549689214,334.6560049310827,341.6695727134221,0.0
0.111,4.567023327273189,-1.2388416949767116,6.75196953689958,0.0,10.459116413493275,10.62926953626789,328.4622282378285,341.6695727134221,0.0
0.112,4.916302273975864,-1.1822179885981037,9.980931328282598,0.0,10.593787287566762,11.147513957867904,332.1591097924725,341.6695727134221,0.0
0.113,5.389527485768092,-1.145084956163932,8.227595180170097,0.0,10.763297119888929,11.35368244667894,324.76954790604674,341.6695727134221,0.0
0.114,5.804474331698702,-1.0738664321589315,10.0,0.0,10.929010110543771,11.727771060569063,327.13531896382165,341.6695727134221,0.0
0.115,6.268531174749085,-0.9976044324833846,10.0,0.0,11.10788402879788,12.01640127966112,323.9693691457006,341.6695727134221,0.0
0.116,6.733406304783893,-0.9013836464298297,10.0,0.0,11.28791191066665,12.24756017279606,347.81362913383526,341.6695727134221,0.0
0.117,7.031357489127,-1.0259812929826957,0.7131372684432851,0.0,11.487720842643391,11.423925185355749,345.15519885652935,341.6695727134221,0.0
0.11800000000000001,6.843718441251248,-0.9811465910470281,2.0074961456651677,0.0,11.579007588999971,10.961502500776879,353.6361797664269,341.6695727134221,0.0
0.11900000000000001,6.4778088236909985,-0.95767485202414,-2.35266037981365,0.0,11.612789847989848,10.10026362016954,350.39017949857,341.6695727134221,0.0
0.12,5.856571482885858,-0.8468840772347224,-0.8168663137366714,0.0,11.545117725183395,9.605742777358138,353.30506024994014,341.6695727134221,0.0
0.121,5.2305375558608524,-0.7730082794568589,-2.3906615647869334,0.0,11.427742300368777,9.028082746835635,351.12133947225294,341.6695727134221,0.0
0.122,4.577438732363111,-0.7038081564430894,-1.3933188435316421,0.0,11.257465159429634,8.687477360047001,350.5237704200245,341.6695727134221,0.0
0.123,4.017673939390663,-0.6784990667833055,-1.183076294483448,0.0,11.068063195273101,8.43210119001806,349.55078676334506,341.6695727134221,0.0
0.124,3.555925957981132,-0.6953726534346842,-0.7753966066429547,0.0,10.87417299595758,8.271259410773656,348.4767560105762,341.6695727134221,0.0
0.125,3.1995912625773144,-0.747512228240832,-0.30645306323006416,0.0,10.689154256011332,8.189199119099479,348.2376920778965,341.6695727134221,0.0
0.126,2.9433737787809684,-0.8272205272726901,-0.2526022905349583,0.0,10.522677878037735,8.122697708423987,347.42571656100074,341.6695727134221,0.0
0.127,2.7558419932515816,-0.9159272731924857,0.09582402943713308,0.0,10.375159655854805,8.102053510058932,346.8243424279207,341.6695727134221,0.0
0.128,2.630749003187521,-1.0052649543291228,0.3449633988321543,0.0,10.249268913519497,8.104527887797571,345.68673933365767,341.6695727134221,0.0
0.129,2.5532405964847764,-1.0874688536775787,0.8735932797613271,0.0,10.144363735308549,8.15709864157374,344.3975654809727,341.6695727134221,0.0
0.13,2.5264239658993715,-1.1616235264930492,1.4909002784283194,0.0,10.062541125312524,8.258714018492636,343.5941929609126,341.6695727134221,0.0
0.131,2.551126334190477,-1.228454944971285,1.873340335983447,0.0,10.005672223312448,8.374895506246563,342.16839333751096,341.6695727134221,0.0
0.132,2.613862105848849,-1.2818865572130003,2.5812519414433805,0.0,9.971317523449576,8.541163919850623,341.90157120493774,341.6695727134221,0.0
0.133,2.723839381203853,-1.3218149524399374,2.712343022814837,0.0,9.960882942285947,8.68324078243178,340.86435197084984,341.6695727134221,0.0
0.134,2.8507060259077996,-1.3443198981930824,3.2390048472845097,0.0,9.967775765577372,8.853832832352527,337.38707290670135,341.6695727134221,0.0
0.135,3.00734562309571,-1.3439263533812413,5.020469377425962,0.0,9.990770172144888,9.18278775043757,341.13820105889795,341.6695727134221,0.0
0.136,3.250001231309526,-1.352255892614176,3.150219017872904,0.0,10.045280814627903,9.232478711586971,333.66388242707177,341.6695727134221,0.0
0.137,3.424934796067164,-1.3184833405185383,6.9674352366494965,0.0,10.095511212854706,9.704431792489483,336.91621972400355,341.6695727134221,0.0
0.138,3.754136581430045,-1.3058298014017853,5.388800118077789,0.0,10.186859715567193,9.887927719151437,333.2539991000818,341.6695727134221,0.0
0.139,4.042166270894558,-1.2772973343523597,7.304066166172078,0.0,10.284410924690363,10.260283271907065,333.16772663440776,341.6695727134221,0.0
0.14,4.4087309319379395,-1.235761691806563,7.432220859799235,0.0,10.405158972167227,10.56266093029736,331.58831311689914,341.6695727134221,0.0
