timestamp,iq,id,iq_ref,id_ref,vq,vd,omega,omega_ref,r
0.0,0.0,0.0,0.0,0.0,0.0,0.0,0.0,266.0282542392139,0.0
0.001,0.0,0.0,10.0,0.0,0.0,1.0999999999999999,13.72291595009633,266.0282542392139,0.0
0.002,1.084947653332457,-0.6184493793026782,10.0,0.0,0.17802943172329463,1.87065575813343,26.35672632743186,266.0282542392139,0.0
0.003,2.0319182951511867,-1.1495695613137882,10.0,0.0,0.467560222315798,2.4887315895591104,39.499777157694716,266.0282542392139,0.0
0.004,2.7256932970119907,-1.5365367190312937,10.0,0.0,0.8272007025204338,3.0071073731149713,52.97606448983556,266.0282542392139,0.0
0.005,3.21342736413221,-1.8037705496679788,10.0,0.0,1.2282407628530523,3.462896628971096,66.5001033658341,266.0282542392139,0.0
0.006,3.558836518881545,-1.990156838663476,10.0,0.0,1.6525858962211588,3.880093298923643,80.0292285435483,266.0282542392139,0.0
0.007,3.8127784399576696,-2.1245971188466335,10.0,0.0,2.089140751177902,4.273525295446865,93.53367239742991,266.0282542392139,0.0
0.008,4.010590646316771,-2.224442120275388,10.0,0.0,2.5310218676466247,4.652049654324701,106.89352770974926,266.0282542392139,0.0
0.009000000000000001,4.172786163559454,-2.303537188792639,10.0,0.0,2.9742693158788684,5.0210463041285225,120.08574369320355,266.0282542392139,0.0
0.01,4.313256185547947,-2.3679438914435047,10.0,0.0,3.4163854708746926,5.383638286528875,133.05384210407692,266.0282542392139,0.0
0.011,4.440331440621651,-2.4213398367753562,10.0,0.0,3.8557786955709656,5.7416091083505565,145.75640829061754,266.0282542392139,0.0
0.012,4.559434846079337,-2.465247241561139,10.0,0.0,4.291325535052897,6.095891548410088,158.10749415645037,266.0282542392139,0.0
0.013000000000000001,4.6753353247195895,-2.49816346251845,10.0,0.0,4.721927644850033,6.446742409816007,169.98975298666153,266.0282542392139,0.0
0.014,4.7892826204785335,-2.522200473949331,10.0,0.0,5.146869538855873,6.794193198313967,181.40279014543415,266.0282542392139,0.0
0.015,4.904268331642422,-2.5353148343988274,10.0,0.0,5.56526453184606,7.137884142092273,192.3599929539386,266.0282542392139,0.0
0.016,5.022343586536957,-2.5364181225699736,10.0,0.0,5.97617933800939,7.477207069865013,202.548022718221,266.0282542392139,0.0
0.017,5.1464799259581895,-2.522665540226614,10.0,0.0,6.378411139394179,7.811214940689419,211.92644390019368,266.0282542392139,0.0
0.018000000000000002,5.278035181182962,-2.4938645571531963,10.0,0.0,6.770789965408288,8.138815489889348,220.47203009396918,266.0282542392139,0.0
0.019,5.41861260011706,-2.449478888867949,10.0,0.0,7.152096550060337,8.458745903240196,228.14246446632345,266.0282542392139,0.0
0.02,5.569745975548555,-2.389098707730711,10.0,0.0,7.5210675543400205,8.76959503661304,234.87905510815852,266.0282542392139,0.0
0.021,5.733011101939228,-2.312220019347527,10.0,0.0,7.876373517618243,9.06980852692791,240.65796456322204,266.0282542392139,0.0
0.022,5.909499530931885,-2.219006558066874,10.0,0.0,8.216685539743091,9.357750188613824,245.50295532313805,266.0282542392139,0.0
0.023,6.099843982319586,-2.1101423905950085,10.0,0.0,8.540717602014945,9.631755880980915,249.48639853114776,266.0282542392139,0.0
0.024,6.304143402718893,-1.9868342085240391,10.0,0.0,8.847271768943239,9.890194718608441,252.90558222025743,266.0282542392139,0.0
0.025,6.521821034988905,-1.8509404753271856,10.0,0.0,9.135299174110507,10.131543543820328,255.6696002150227,266.0282542392139,0.0
0.026000000000000002,6.751496945765364,-1.705135924337846,8.820446441208802,0.0,9.40397915800538,10.22472176169801,256.1113240639116,266.0282542392139,0.0
0.027,6.865038826511299,-1.4844870762915332,8.698753818517389,0.0,9.632295637523331,10.323666655494986,257.3901679404322,266.0282542392139,0.0
0.028,6.982231371028078,-1.2746583685917057,8.145712743244893,0.0,9.826800289102671,10.364175354721608,257.9672097145051,266.0282542392139,0.0
0.029,7.073226661857981,-1.0532598379339762,7.93780230145554,0.0,9.983649794151383,10.393906354793277,252.40402086626116,266.0282542392139,0.0
0.03,7.164746829658101,-0.8630766359385156,10.0,0.0,10.10908128178947,10.65611279107072,258.6484547810321,266.0282542392139,0.0
0.031,7.442881479564935,-0.9289190684511213,7.790107315317231,0.0,10.25733476388783,10.611251950371928,269.54408108712954,266.0282542392139,0.0
0.032,7.375795933379694,-1.0108754045896302,2.3071358937893613,0.0,10.394633586356587,10.014835369011063,271.0204734218581,266.0282542392139,0.0
0.033,6.657570735270562,-0.8397631377336836,1.5190175345986248,0.0,10.438918955726844,9.538260939067602,271.97127820546075,266.0282542392139,0.0
0.034,5.941638325236337,-0.6779097883183431,0.984184903134846,0.0,10.415025599398602,9.13439239630908,273.1102201873764,266.0282542392139,0.0
0.035,5.327570162161796,-0.5782524426860949,0.34389425269539586,0.0,10.343790949901937,8.763825900797745,273.29019248046444,266.0282542392139,0.0
0.036000000000000004,4.792525414345065,-0.5233713052640145,0.18128872373886962,0.0,10.237582764143696,8.464423128836145,273.0029960752995,266.0282542392139,0.0
0.037,4.362836014513158,-0.521554570893149,0.2551395079604801,0.0,10.112404090358549,8.23600484355217,272.82402507463746,266.0282542392139,0.0
0.038,4.037307903291288,-0.5682111749282015,0.2766672999372668,0.0,9.982051849211079,8.051051266929388,272.6833549653818,266.0282542392139,0.0
0.039,3.781918850605689,-0.641272296567069,0.2804513473034205,0.0,9.853809631856008,7.896596305827848,272.5791657420929,266.0282542392139,0.0
0.04,3.571511259843456,-0.7252641536378563,0.2670368439190649,0.0,9.731454633187683,7.7638401277120055,272.5287176815143,266.0282542392139,0.0
0.041,3.38966789291055,-0.8095023087159374,0.22725623978536902,0.0,9.616485795062488,7.645781040575045,272.3998207196491,266.0282542392139,0.0
0.042,3.225474845205983,-0.8861999009596522,0.22798905591362884,0.0,9.508802285632148,7.544752195732883,272.09079715271355,266.0282542392139,0.0
0.043000000000000003,3.0787850401713754,-0.9554840480925045,0.3218754102464003,0.0,9.408638522922798,7.4678720033239845,271.74547435951786,266.0282542392139,0.0
0.044,2.9580274299170526,-1.0199265499133192,0.4373646056412066,0.0,9.31719895097246,7.412244840912774,271.3313378905734,266.0282542392139,0.0
0.045,2.8637509779854087,-1.0764551915286116,0.5914020035998284,0.0,9.234914345535504,7.377988492979088,270.8485627203302,266.0282542392139,0.0
0.046,2.792960961628743,-1.1310599437314002,0.7845865039102651,0.0,9.16287380217503,7.365483377629554,270.53161784794014,266.0282542392139,0.0
0.047,2.7488298162635223,-1.1794930817348546,0.8980253040180433,0.0,9.101568399274004,7.361717668314283,269.9407612969307,266.0282542392139,0.0
0.048,2.7226674331219622,-1.2089215676352538,1.1543285089455937,0.0,9.04876976780056,7.38169350487331,269.0441937650824,266.0282542392139,0.0
0.049,2.723968625621834,-1.2337337934786348,1.5724528796110535,0.0,9.00568364311413,7.437417788346613,267.8097391674926,266.0282542392139,0.0
0.05,2.7674084191666064,-1.2634177893358964,2.1718653291231824,0.0,8.97549567652954,7.540249791378695,267.4784165078268,266.0282542392139,0.0
0.051000000000000004,2.8628898418279003,-1.3119881653022187,2.3230250362699394,0.0,8.963655608304341,7.630344682182838,269.0646452832641,266.0282542392139,0.0
0.052000000000000005,2.9611047860329545,-1.3344488279840059,1.4995467381107912,0.0,8.96399400511741,7.60830303757913,267.83447189737785,266.0282542392139,0.0
0.053,2.9640942974401163,-1.2570611110589303,2.0965712544722748,0.0,8.953357142300222,7.663060180085717,264.3864241991006,266.0282542392139,0.0
0.054,3.0223319380271603,-1.2066698571519732,3.83701340401204,0.0,8.944490519254899,7.890380067995182,261.9011881143885,266.0282542392139,0.0
0.055,3.2609292849519846,-1.2632407141878959,5.120902107616336,0.0,8.965969254118079,8.192241308954383,264.76807511063413,266.0282542392139,0.0
0.056,3.617518407603452,-1.3572144683645464,3.700060400779321,0.0,9.025257643979929,8.260093994493454,265.459514480768,266.0282542392139,0.0
0.057,3.7694333205800863,-1.3109472724415818,3.36002811329684,0.0,9.07937333431621,8.290750366709187,263.8161790639182,266.0282542392139,0.0
0.058,3.8525199013002847,-1.1929253318013058,4.203816573474708,0.0,9.118623351329235,8.412349349481909,262.66071340669606,266.0282542392139,0.0
0.059000000000000004,4.01773699199983,-1.1168279179874143,4.815224810410949,0.0,9.158917768805102,8.56718744297012,259.97024763721856,266.0282542392139,0.0
0.06,4.246472116901786,-1.0657618318310946,6.221037761169651,0.0,9.205810258543156,8.835587818238972,256.87498362204167,266.0282542392139,0.0
0.061,4.603219217637357,-1.0839609885434391,7.86020247492982,0.0,9.2773661049342,9.211132564128883,255.69595304509085,266.0282542392139,0.0
0.062,5.104860744318337,-1.1460305030956826,8.553040775346462,0.0,9.38596649630876,9.564485889049584,256.73155420077074,266.0282542392139,0.0
0.063,5.6130367517387345,-1.1901040154592573,8.128207197890944,0.0,9.523269572252406,9.78882089854196,256.5174900367901,266.0282542392139,0.0
0.064,5.993346578753,-1.147765573993956,8.330346921905507,0.0,9.664177877866102,9.994184099198261,257.0828850779954,266.0282542392139,0.0
0.065,6.329370131501664,-1.073464907139141,8.137103092915039,0.0,9.803781984044683,10.136664099388993,256.80685580774775,266.0282542392139,0.0
0.066,6.5995887393177775,-0.9668220041905833,8.367331712353524,0.0,9.932685966968688,10.279750285274359,256.4406388599186,266.0282542392139,0.0
0.067,6.8727442776533,-0.8523907970046372,8.646316340061063,0.0,10.051487166427858,10.422459350578292,255.23624197023625,266.0282542392139,0.0
0.068,7.142774711005703,-0.7740316707506879,9.356434907592003,0.0,10.165203960655433,10.611129033163662,259.99174880242856,266.0282542392139,0.0
0.069,7.353779566698606,-0.9132778034599547,7.039046545863702,0.0,10.302516709579342,10.509779291655134,270.710420486146,266.0282542392139,0.0
0.07,7.222597607694026,-0.9814296404702634,1.632889041535658,0.0,10.422067450204048,9.877332421378485,272.1017921537368,266.0282542392139,0.0
0.07100000000000001,6.456883727841654,-0.797864487358257,0.87646782859502,0.0,10.445544744526199,9.373857261005494,272.4112601952831,266.0282542392139,0.0
0.07200000000000001,5.710142233422959,-0.6263268464218162,0.6579037482611936,0.0,10.399293304406948,8.981083934982237,273.0036405265927,266.0282542392139,0.0
0.073,5.109119692022739,-0.536185773527467,0.29195971973261337,0.0,10.31018953408828,8.643539659824413,273.1393391678881,266.0282542392139,0.0
0.074,4.618088738776115,-0.5054550777986913,0.1529995497981469,0.0,10.193762747484474,8.367216436186123,272.6888623733645,266.0282542392139,0.0
0.075,4.227307867629258,-0.52228869042406,0.3116318657184598,0.0,10.0635053215233,8.163797598995549,272.5610250300072,266.0282542392139,0.0
0.076,3.9387062058453024,-0.585047422687205,0.31022282948916224,0.0,9.932666878861873,7.993791959868257,272.43165142751263,266.0282542392139,0.0
0.077,3.7073423444533793,-0.6666314393671744,0.31087565885346535,0.0,9.80625837106603,7.850352950115189,272.4410761957067,266.0282542392139,0.0
0.078,3.5127678544010332,-0.7539254244825503,0.24203505519149004,0.0,9.686933311270355,7.720127551153222,272.2659434200444,266.0282542392139,0.0
0.079,3.33551416696441,-0.8356083851350162,0.26722455121435873,0.0,9.574630403378668,7.612003597424525,272.1911627336348,266.0282542392139,0.0
0.08,3.1809990483520556,-0.9118918909026869,0.2429858094749262,0.0,9.470319746931198,7.515767717900955,271.832556739177,266.0282542392139,0.0
0.081,3.0400024246018735,-0.9785266009133231,0.36424578170421107,0.0,9.373383551219613,7.446269822474008,271.51443625126154,266.0282542392139,0.0
0.082,2.9280499444180097,-1.0389815445846393,0.46844420554146016,0.0,9.285174882240227,7.395182130501125,270.9693085236596,266.0282542392139,0.0
0.083,2.8383560803404864,-1.0940884715624506,0.6915975264979708,0.0,9.206135523492343,7.372634022141127,270.6907649111998,266.0282542392139,0.0
0.084,2.779280231911127,-1.1502766163056726,0.7842442260080258,0.0,9.138374916435222,7.357997797165332,270.2022716162836,266.0282542392139,0.0
0.085,2.7373480000081907,-1.1889027080020855,0.9867506996954121,0.0,9.0796137362254,7.363420166116946,269.6477641137566,266.0282542392139,0.0
0.08600000000000001,2.7195035604544073,-1.2187355817026855,1.2278093522135007,0.0,9.030166266121833,7.388459133224421,268.6443945490954,266.0282542392139,0.0
0.08700000000000001,2.7295842578803677,-1.2389907264635247,1.7033327314452702,0.0,8.990097176926053,7.454659120688708,267.3986390125757,266.0282542392139,0.0
0.088,2.7839990565564867,-1.2720244404100296,2.312506651971507,0.0,8.964086152482786,7.56660127707245,267.4991256870512,266.0282542392139,0.0
0.089,2.891034027570922,-1.3219526127267531,2.247554600255374,0.0,8.957032207937592,7.640281951654619,269.15632576398923,266.0282542392139,0.0
0.09,2.9794966670166834,-1.3256124469292216,1.3876738465386147,0.0,8.957955025344242,7.603291261303487,266.50928064319777,266.0282542392139,0.0
0.091,2.966284171898412,-1.2352103614380427,2.706386142894506,0.0,8.945105664229061,7.7260870827219135,263.41981391334883,266.0282542392139,0.0
0.092,3.089499620588125,-1.2176458491435103,4.277203911077625,0.0,8.944792745869751,7.98123539311651,263.1070812135478,266.0282542392139,0.0
0.093,3.3700230521146137,-1.2919122361051898,4.462781991234794,0.0,8.97837089807456,8.185917568790158,264.14189708948686,266.0282542392139,0.0
0.094,3.6411933831494308,-1.3296385595549978,3.964237624762542,0.0,9.032466684336121,8.28977017890484,264.51233542144104,266.0282542392139,0.0
0.095,3.8107267630772776,-1.2897003172134138,3.794177646963182,0.0,9.086767683090915,8.358988984259286,263.19127246198553,266.0282542392139,0.0
0.096,3.937388439614267,-1.1946511378673808,4.483078944463218,0.0,9.13250443520103,8.491958300836975,261.89047655439964,266.0282542392139,0.0
0.097,4.122685903584921,-1.129795903322094,5.1748546751043065,0.0,9.180780859751382,8.666294574092023,259.57488364064864,266.0282542392139,0.0
0.098,4.373195582639093,-1.089391672880536,6.397184837965461,0.0,9.237867356169083,8.929860333028666,256.62854568982755,266.0282542392139,0.0
0.099,4.733370985694686,-1.0947657842187575,7.964350898869869,0.0,9.316596973390297,9.295828933238715,256.03965522927757,266.0282542392139,0.0
0.1,5.227172452442312,-1.1426081475920002,8.35868211924422,0.0,9.429259407768074,9.610062001470329,256.3106002709931,266.0282542392139,0.0
0.101,5.696476245859138,-1.160403294440575,8.320386138068653,0.0,9.563557948050848,9.849296733575136,256.50322569066526,266.0282542392139,0.0
0.10200000000000001,6.086216329868202,-1.120107514146909,8.31932371371807,0.0,9.703739620215028,10.040125568324097,257.09537213127743,266.0282542392139,0.0
0.10300000000000001,6.412744859411888,-1.0419443348464084,8.112579314491349,0.0,9.840791016717569,10.171137689733431,256.6535259941929,266.0282542392139,0.0
0.10400000000000001,6.675698537812363,-0.9267996015916182,8.427249665483837,0.0,9.96535419684577,10.31377530192491,255.84719402383234,266.0282542392139,0.0
0.105,6.945362324075411,-0.823318951281224,8.932226252817918,0.0,10.0814933959787,10.47997271230196,255.6218964295971,266.0282542392139,0.0
0.106,7.214581516590682,-0.8077532332392705,9.148938628031715,0.0,10.201960993754538,10.633035423640719,264.64421464347066,266.0282542392139,0.0
0.107,7.376655167329645,-0.952811875014163,4.6516199170523596,0.0,10.341800210662315,10.27083053200719,271.4207357542078,266.0282542392139,0.0
0.108,6.952959865032884,-0.9170932900395563,1.2094345465338594,0.0,10.426055385951017,9.67339006734058,271.2417724960015,266.0282542392139,0.0
0.109,6.172274207481871,-0.7195833253012969,1.2467809930691307,0.0,10.42077208697272,9.264287598801214,272.4682764171476,266.0282542392139,0.0
0.11,5.528713051788673,-0.6024944284952591,0.5691288107167414,0.0,10.364202192037038,8.88363671324458,272.9851686203985,266.0282542392139,0.0
0.111,4.970624993219022,-0.5342799157505234,0.24111356527944316,0.0,10.268891490605391,8.561042846461191,272.8989371223102,266.0282542392139,0.0
0.112,4.507657083974324,-0.5162907156207335,0.21552248549262742,0.0,10.149555805751746,8.306988019322018,272.58695831035897,266.0282542392139,0.0
0.113,4.1464432147472134,-0.5464637493049912,0.30592485075679443,0.0,10.020247132376118,8.111709123910863,272.46997931718454,266.0282542392139,0.0
0.114,3.872112584233303,-0.6133431765381006,0.29999709656430174,0.0,9.89139644345573,7.948035404753703,272.36474343949556,266.0282542392139,0.0
0.115,3.648882080882328,-0.6951913935819707,0.28925014340597643,0.0,9.767397961114167,7.808533150378198,272.38235410532326,266.0282542392139,0.0
0.116,3.458559054186572,-0.7801025578585876,0.21690381183103113,0.0,9.650370847469192,7.681433874167448,272.14660036641374,266.0282542392139,0.0
0.117,3.2840737519489025,-0.8582660317215868,0.27359722001379394,0.0,9.54008538804981,7.5795917054083155,272.0565059143819,266.0282542392139,0.0
0.11800000000000001,3.135557490957111,-0.9323876455207019,0.25836192927803836,0.0,9.438016000475718,7.489254327207117,271.64775709021546,266.0282542392139,0.0
0.11900000000000001,3.0011668106163603,-0.9969503368755692,0.40654131285123407,0.0,9.343480493749965,7.427493645396603,271.3325513678517,266.0282542392139,0.0
0.12,2.898144882630136,-1.0559917710128885,0.5111012027467412,0.0,9.258071400357293,7.382463780422417,270.7673427963111,266.0282542392139,0.0
0.121,2.8157298507979114,-1.1099686408022436,0.7463146029460734,0.0,9.182047271141919,7.366259301951037,270.5002716183412,266.0282542392139,0.0
0.122,2.7644576385583153,-1.1642768688599026,0.8351300181397558,0.0,9.117439243389398,7.356306213102601,270.0564238712636,266.0282542392139,0.0
0.123,2.729457449752643,-1.1991668841500287,1.0167721953580577,0.0,9.061591528928622,7.363317414352062,269.32068430166976,266.0282542392139,0.0
0.124,2.7155934649914477,-1.2234257081730677,1.3517176795304078,0.0,9.014349276528506,7.400245341952949,268.16131793619513,266.0282542392139,0.0
0.125,2.7382739993577916,-1.2457708986507336,1.910070225297908,0.0,8.9777394248408,7.484192078118528,266.97808720632247,266.0282542392139,0.0
0.126,2.8122992768269928,-1.2863672080948942,2.4921872605631528,0.0,8.957427374072502,7.606616528742331,267.9109161885108,266.0282542392139,0.0
0.127,2.9338255433438114,-1.3384706432327582,2.0069461499760277,0.0,8.95671438821414,7.6429420001675314,269.3623574223917,266.0282542392139,0.0
0.128,2.9929889446181286,-1.3102590908264262,1.2478845012037856,0.0,8.956080942968057,7.59162654413029,265.2842384208065,266.0282542392139,0.0
0.129,2.959750687880659,-1.205518287447788,3.294384160180463,0.0,8.939139923795272,7.78233271040119,261.9892816934431,266.0282542392139,0.0
0.13,3.143887575128544,-1.2278006564210517,4.98225224931987,0.0,8.946462091787701,8.096887211178647,264.2188108061005,266.0282542392139,0.0
0.131,3.498295018110564,-1.3356059172917374,3.8855821273222952,0.0,8.996143248064676,8.206062634510927,264.827182971815,266.0282542392139,0.0
0.132,3.6909288532002824,-1.3217685083866275,3.5934067571390558,0.0,9.04917366345891,8.270470394207448,264.61925074597673,266.0282542392139,0.0
0.133,3.811041264223077,-1.237134061845253,3.711462904990552,0.0,9.09417039825288,8.338362322577634,262.30865687912024,266.0282542392139,0.0
0.134,3.9300353515694617,-1.1352470998387025,4.903955812019735,0.0,9.131095431049161,8.522070164387012,261.640878484271,266.0282542392139,0.0
0.135,4.170625573890006,-1.0979298607873451,5.281718766993775,0.0,9.179612718071164,8.695453737690137,259.26278296021167,266.0282542392139,0.0
0.136,4.437733992481216,-1.0632691361311508,6.53842124181347,0.0,9.23717712639962,8.963834301223752,255.929102113256,266.0282542392139,0.0
0.137,4.805948207593822,-1.077996778739974,8.306253186550887,0.0,9.317789798182115,9.355195258933296,255.21094683343065,266.0282542392139,0.0
0.138,5.32938108544406,-1.1389822339849403,8.773503900521387,0.0,9.436038422208176,9.695305172727108,256.07945220700606,266.0282542392139,0.0
0.139,5.831902323175072,-1.1703860175185206,8.438739234055765,0.0,9.579317736847258,9.921689329721318,256.2886098701856,266.0282542392139,0.0
0.14,6.216011403624907,-1.1227382526576881,8.43155684615627,0.0,9.725352243751825,10.105093800003557,256.8797821934181,266.0282542392139,0.0
