timestamp,iq,id,iq_ref,id_ref,vq,vd,omega,omega_ref,r
0.0,0.0,0.0,0.0,0.0,0.0,0.0,0.0,14.34596801142024,0.0
0.001,0.0,0.0,7.316443685824322,0.0,0.0,0.8048088054406752,10.755912496824038,14.34596801142024,0.0
0.002,0.2922427257205597,-0.16006192613053924,1.9743879925582652,0.0,0.09808769241842688,0.8361994673905122,13.274981246479223,14.34596801142024,0.0
0.003,0.4348986089777242,-0.2405271068949025,0.725563485380083,0.0,0.19675623241276918,0.777539973629186,14.736525402634571,14.34596801142024,0.0
0.004,0.46804469383011255,-0.25860098015910404,-0.009114166609734464,0.0,0.2808754432829634,0.6640674760951374,15.116792540485386,14.34596801142024,0.0
0.005,0.4271010238817697,-0.2347084419908555,-0.20695598082579347,0.0,0.3424265653815839,0.5607735909004866,15.139986690981791,14.34596801142024,0.0
0.006,0.35577755189825644,-0.19356290860801406,-0.22649324286961137,0.0,0.3832061034604471,0.48122967097120656,15.038943758668955,14.34596801142024,0.0
0.007,0.28149165744461313,-0.15059753837709236,-0.18290153418568036,0.0,0.40763856034692303,0.42616677108847706,14.86947565148523,14.34596801142024,0.0
0.008,0.21773788482718748,-0.11384899342181262,-0.10340255699446768,0.0,0.4205087953137069,0.39363243333024267,14.717531139014485,14.34596801142024,0.0
0.009000000000000001,0.16997123299670416,-0.08639489524769839,-0.031145932035037488,0.0,0.42618610765838916,0.37740858579331393,14.618081474683061,14.34596801142024,0.0
0.01,0.13798517871440494,-0.06790724483339955,0.015857765498046072,0.0,0.4279142034510787,0.3708634941763394,14.574434398981433,14.34596801142024,0.0
0.011,0.11849176803503575,-0.056678600806346895,0.03539663947324817,0.0,0.42776470616396883,0.36864937509418017,14.549928808856187,14.34596801142024,0.0
0.012,0.10750178700910314,-0.05032810741640668,0.04560982656151169,0.0,0.42682247886473135,0.3685837438375419,14.513472201097963,14.34596801142024,0.0
0.013000000000000001,0.10187278834385591,-0.04711029818430302,0.06216308854384625,0.0,0.4256774570881216,0.37065846996673574,14.44425909929171,14.34596801142024,0.0
0.014,0.09989537768694166,-0.04593372716425113,0.09578672856825837,0.0,0.42475716538220754,0.3761055142738193,14.540757701669758,14.34596801142024,0.0
0.015,0.10090403151357955,-0.04664088541140843,0.045589530476739026,0.0,0.4245631603949812,0.37492717076179244,14.562330930382853,14.34596801142024,0.0
0.016,0.10103588245503788,-0.04673580282324147,0.03263928693056553,0.0,0.4242740908881048,0.3729202892277877,14.553341627842347,14.34596801142024,0.0
0.017,0.10044430837370194,-0.04633021522626504,0.03506020203659754,0.0,0.4237676763687299,0.37154738365198275,14.51787879135661,14.34596801142024,0.0
0.018000000000000002,0.09970276445294081,-0.04589517290978471,0.05107251248010211,0.0,0.42313081396486873,0.3720739262700163,14.479811623574609,14.34596801142024,0.0
0.019,0.09959796225757382,-0.04583845416255923,0.06876766024955916,0.0,0.42260840342416733,0.37427458433834826,14.440833226325553,14.34596801142024,0.0
0.02,0.1004162626937113,-0.0462859582084239,0.08730820672503362,0.0,0.4224080923768863,0.37797438311045584,14.51574330992912,14.34596801142024,0.0
0.021,0.10215363773615847,-0.04732430420940248,0.04815541193816186,0.0,0.42270753533119326,0.3766090297590059,14.539375705595548,14.34596801142024,0.0
0.022,0.10248050005103529,-0.04752417425464915,0.03440513716319449,0.0,0.42285210089989206,0.3742705726565422,14.536062205703072,14.34596801142024,0.0
0.023,0.1017737192620277,-0.0470687679092373,0.034160945166604284,0.0,0.4226962708030265,0.372372073959259,14.487239585270752,14.34596801142024,0.0
0.024,0.10072069401786529,-0.04644150028890562,0.05715953964425921,0.0,0.4223017284713372,0.3732888944034933,14.471717444391173,14.34596801142024,0.0
0.025,0.1005585939030384,-0.04630758427512931,0.06366311575433933,0.0,0.42202986433192785,0.3745672867576568,14.421902391278426,14.34596801142024,0.0
0.026000000000000002,0.10096764477100842,-0.04648946798680823,0.08781129851213088,0.0,0.42193437221029834,0.37823530120809434,14.47778477914635,14.34596801142024,0.0
0.027,0.10244229634010844,-0.047395023267292245,0.058551936900907334,0.0,0.42231302298961215,0.3779088322325915,14.496119016634614,14.34596801142024,0.0
0.028,0.10298607209635591,-0.0477319208667169,0.04788330810463204,0.0,0.422649164976576,0.37672685086359586,14.535348522566583,14.34596801142024,0.0
0.029,0.102767873110569,-0.04756214092112656,0.026374750027184132,0.0,0.42281144985793473,0.3734668663756387,14.510323747482992,14.34596801142024,0.0
0.03,0.101439875777967,-0.0467281334235066,0.03724358020835179,0.0,0.4225414647770796,0.3721036634420446,14.464303867740938,14.34596801142024,0.0
0.031,0.1002788974173181,-0.046025646766276136,0.0590701615161721,0.0,0.4220932244536313,0.3732564455821181,14.419681453110112,14.34596801142024,0.0
0.032,0.10014635244194782,-0.045924752117879074,0.0806442344146864,0.0,0.421801012831784,0.37640697784528215,14.450347247935488,14.34596801142024,0.0
0.033,0.10122051587979235,-0.04655328023494449,0.06426754463684586,0.0,0.42192322263779897,0.3770765756874808,14.486282035091158,14.34596801142024,0.0
0.034,0.10197527784305747,-0.04696367230003214,0.04489701082230185,0.0,0.42213902909342127,0.37565216072265906,14.53982966721139,14.34596801142024,0.0
0.035,0.10179866098330027,-0.046811132642629795,0.01618457820427449,0.0,0.42216993012403403,0.37145408112425005,14.446209718906216,14.34596801142024,0.0
0.036000000000000004,0.10017577088197636,-0.045826902653721434,0.06199213528200144,0.0,0.42167119318953855,0.37318160693602137,14.444417284967578,14.34596801142024,0.0
0.037,0.10004386317035752,-0.045658669864223546,0.06190385951584702,0.0,0.42138641922271414,0.37421700151537657,14.425346764185097,14.34596801142024,0.0
0.038,0.10036921434936816,-0.0458018557519829,0.0706453323794391,0.0,0.4212510948860563,0.37604571630596334,14.389099328624209,14.34596801142024,0.0
0.039,0.10119239306788899,-0.04624227622096914,0.0883377369878435,0.0,0.4213591888548338,0.37944948081486685,14.464663047006391,14.34596801142024,0.0
0.04,0.10277385635940414,-0.047156280372772794,0.049368927440890525,0.0,0.4218929861296323,0.3778944559986275,14.472149799225376,14.34596801142024,0.0
0.041,0.10288275726773781,-0.04726101152841994,0.044363733453347126,0.0,0.42222028158093033,0.37639126568133013,14.506605849240607,14.34596801142024,0.0
0.042,0.10232911576155615,-0.046899371882386784,0.02552933006752768,0.0,0.4223237007827487,0.37311138108309105,14.469042319185403,14.34596801142024,0.0
0.043000000000000003,0.10085998314017783,-0.045923653195921565,0.043080352017477924,0.0,0.4219850769455104,0.3724448514865001,14.443435092378214,14.34596801142024,0.0
0.044,0.09990826200987281,-0.04526880068718824,0.05490929461149266,0.0,0.4215513859432408,0.37302678392980615,14.395154858603586,14.34596801142024,0.0
0.045,0.09966663851733053,-0.04509576866848202,0.07855754302697329,0.0,0.42120677228855846,0.3760072333011942,14.387693079512657,14.34596801142024,0.0
0.046,0.10064463890436968,-0.04564001894648115,0.08187118189151399,0.0,0.4212562627872501,0.3786731978834201,14.430926424107117,14.34596801142024,0.0
0.047,0.1020679900122504,-0.04644317734253732,0.05940492546741502,0.0,0.42165030561508154,0.3784263018439997,14.439087366785108,14.34596801142024,0.0
0.048,0.1026201998005338,-0.04672710455487006,0.05439326057477087,0.0,0.42200345496558367,0.3778703695517224,14.48285432421447,14.34596801142024,0.0
0.049,0.10263447862751128,-0.04664735147064882,0.031140918732147457,0.0,0.4222540840404202,0.3749016558968761,14.465170708745777,14.34596801142024,0.0
0.05,0.10152302910588619,-0.04590177169787808,0.038790699493238476,0.0,0.42210156259812587,0.3734512780527928,14.434729902936663,14.34596801142024,0.0
0.051000000000000004,0.10044119399307651,-0.04518307145233892,0.05312348348263131,0.0,0.42174765428637107,0.37373868164730367,14.408610448850785,14.34596801142024,0.0
0.052000000000000005,0.10002314575239829,-0.04488492228371404,0.06555678615126476,0.0,0.42143226775914955,0.3752214564601903,14.370168111050589,14.34596801142024,0.0
0.053,0.100376880215635,-0.04503807493554599,0.08453595405505954,0.0,0.42131652564932637,0.37844469930843405,14.402548988619584,14.34596801142024,0.0
0.054,0.10168250549000715,-0.04581356205629479,0.06777970549856854,0.0,0.4216184540920741,0.37916098320507086,14.458586010238397,14.34596801142024,0.0
0.055,0.10257458331551869,-0.04622849483950637,0.038635014700980325,0.0,0.4219997058151565,0.3767124057460864,14.472897512315097,14.34596801142024,0.0
0.056,0.10207820272404522,-0.04583938279805674,0.030209968653682,0.0,0.4220510229676407,0.3739750256913987,14.42446285193361,14.34596801142024,0.0
0.057,0.10082813818141122,-0.0449999672242907,0.053642350439291636,0.0,0.4217350258067078,0.37431087110809347,14.375143678517675,14.34596801142024,0.0
0.058,0.10033221525270315,-0.04464418583372248,0.0780101804762846,0.0,0.42145347110631304,0.37706972062997,14.351488576953903,14.34596801142024,0.0
0.059000000000000004,0.10109082047698476,-0.045030442151060654,0.08978252560283409,0.0,0.42152200283695823,0.38048740358921196,14.41126799519643,14.34596801142024,0.0
0.06,0.10266595871629099,-0.04589952994681733,0.059239816643808424,0.0,0.4220171867848229,0.379927070834755,14.429567294435143,14.34596801142024,0.0
0.061,0.10317757384033106,-0.04612201766538426,0.049254174194303,0.0,0.4224226018335402,0.3786387698894235,14.474868562942866,14.34596801142024,0.0
0.062,0.10289756899750534,-0.045858281279870586,0.025314534425215265,0.0,0.42262740940326043,0.3750222532773435,14.426232229341611,14.34596801142024,0.0
0.063,0.10142266628006315,-0.04487471539122817,0.04883005904662914,0.0,0.4223445296709052,0.37477341243998047,14.40455044747228,14.34596801142024,0.0
0.064,0.10059937671489322,-0.04431132140691894,0.059085125620774295,0.0,0.4220129161486615,0.37548988261505417,14.402119274687331,14.34596801142024,0.0
0.065,0.10049577738211043,-0.044131335805448334,0.0597391993805777,0.0,0.42177194651983085,0.37607410489918747,14.357159669536879,14.34596801142024,0.0
0.066,0.10066422062070784,-0.04417895861462926,0.08210708537463773,0.0,0.4216205344473211,0.37901016996419934,14.361968777745805,14.34596801142024,0.0
0.067,0.10181047207823678,-0.044790728720641784,0.07954252360691905,0.0,0.42184468857213325,0.3810073034331273,14.389188586388942,14.34596801142024,0.0
0.068,0.10303838010057473,-0.045486259736688864,0.06550041353566353,0.0,0.42231653134206204,0.3811845451096011,14.43951014768982,14.34596801142024,0.0
0.069,0.10366953791469109,-0.04571793630717406,0.03940421152252871,0.0,0.4227774431152382,0.3786039374953582,14.456191843028417,14.34596801142024,0.0
0.07,0.10297721202826098,-0.045194242914425406,0.029961125537148164,0.0,0.42287427991076526,0.3756321718072455,14.405942753084648,14.34596801142024,0.0
0.07100000000000001,0.10154478424700515,-0.04421482657973817,0.05448592309238852,0.0,0.4225617575950403,0.3759100687555008,14.351710761162808,14.34596801142024,0.0
0.07200000000000001,0.1009357027741832,-0.04377154645065853,0.08154449155588303,0.0,0.42226931055486144,0.3789127930169878,14.339316757105514,14.34596801142024,0.0
0.073,0.10172859367153257,-0.044158237030408734,0.08780800612767709,0.0,0.42235334940991237,0.381911092253134,14.378982595972973,14.34596801142024,0.0
0.074,0.10316398188728994,-0.04494917875321366,0.06764494084842054,0.0,0.4228119509867839,0.38218742932997474,14.437002666559657,14.34596801142024,0.0
0.075,0.10393103268471589,-0.045272629062980296,0.03772455900368438,0.0,0.4232799962304988,0.37932235980113094,14.43677355008743,14.34596801142024,0.0
0.076,0.10321848663029871,-0.044721034172664785,0.03693106185312575,0.0,0.42335082005592517,0.37708857145538893,14.40610174512061,14.34596801142024,0.0
0.077,0.10206142715639513,-0.04385496253812091,0.05166562699953216,0.0,0.42310143073333817,0.3768341325459595,14.367049574218246,14.34596801142024,0.0
0.078,0.10138993940529084,-0.043362098778584816,0.07098089682273416,0.0,0.4228059821548633,0.3786198256821846,14.341706908053153,14.34596801142024,0.0
0.079,0.10173547924906508,-0.043444242064117074,0.08369484093895158,0.0,0.4227326121468625,0.38135806154116564,14.34934357992026,14.34596801142024,0.0
0.08,0.10286944959958809,-0.04405627912386175,0.07984274932039762,0.0,0.42300690536927643,0.3831429859541255,14.371950532672237,14.34596801142024,0.0
0.081,0.10401422750452607,-0.04468864465914192,0.06827944773188938,0.0,0.4234957015490284,0.38342881912344245,14.43151769556305,14.34596801142024,0.0
0.082,0.10463622311733428,-0.04491256642703383,0.03764036944505467,0.0,0.4239825091668522,0.38042331125977663,14.425489610413527,14.34596801142024,0.0
0.083,0.1037978709044929,-0.04427432577272588,0.03985919602988358,0.0,0.42404763954687413,0.37841593535099993,14.399732533637385,14.34596801142024,0.0
0.084,0.10267197206697712,-0.04338795046141957,0.05220008919578287,0.0,0.4238144004203155,0.378066585403502,14.333337283099254,14.34596801142024,0.0
0.085,0.10197318479416295,-0.04287650935076588,0.08552402174805804,0.0,0.4235221554426042,0.38133667779882385,14.330048340986577,14.34596801142024,0.0
0.08600000000000001,0.10280178230733293,-0.043305932323354786,0.08732768950873326,0.0,0.4236384951402876,0.38401756698581685,14.358616095490307,14.34596801142024,0.0
0.08700000000000001,0.10413842673285328,-0.0440483880280135,0.07291733141616782,0.0,0.4240886656846885,0.3847000802444147,14.42150520900616,14.34596801142024,0.0
0.088,0.1050167165126885,-0.044406996035159935,0.040717402682382164,0.0,0.42459409282424854,0.38187822522027515,14.42509525419058,14.34596801142024,0.0
0.089,0.10437246995586082,-0.043880070498980045,0.03813110766246845,0.0,0.42470524385838737,0.37950625526670245,14.395579581622268,14.34596801142024,0.0
0.09,0.10320153258107309,-0.0429866677120814,0.05239282824460423,0.0,0.424475077742558,0.37909961027179334,14.347436630934228,14.34596801142024,0.0
0.091,0.10246888309413259,-0.0424439320313976,0.07644961739348466,0.0,0.42417649684181447,0.3812831248351631,14.322436966286082,14.34596801142024,0.0
0.092,0.10293983229234253,-0.04256031645006504,0.08918476016889906,0.0,0.4241443551303426,0.38431959675925587,14.343760398945328,14.34596801142024,0.0
0.093,0.10423630680851616,-0.043249910106421485,0.07854511996402519,0.0,0.4244937662404396,0.38561359276470497,14.356676297446153,14.34596801142024,0.0
0.094,0.10528368648120985,-0.04380261202918759,0.07198008785335341,0.0,0.42499153711501264,0.3860951261316592,14.417630603748934,14.34596801142024,0.0
0.095,0.10592845023039522,-0.044018165861852934,0.04078630877867592,0.0,0.4255058681411892,0.383152167656584,14.412770599127194,14.34596801142024,0.0
0.096,0.10512372971591136,-0.043382878079235396,0.04254828521247647,0.0,0.4256024330228261,0.38115566022418385,14.360432977426644,14.34596801142024,0.0
0.097,0.10402303540041115,-0.042485768066378236,0.06857244640268755,0.0,0.4253973614494711,0.38232652715933285,14.31348652924999,14.34596801142024,0.0
0.098,0.10390112916633637,-0.04223344074918502,0.09237048531271667,0.0,0.42531109882220375,0.3857197456544257,14.3506569447234,14.34596801142024,0.0
0.099,0.1049917539404423,-0.04286815318390738,0.07373838824298004,0.0,0.42564512594816384,0.38635631718301877,14.396020863209097,14.34596801142024,0.0
0.1,0.10570267034530657,-0.043258402537391306,0.05055590048224326,0.0,0.42604598781892333,0.3845315870315711,14.40693735804712,14.34596801142024,0.0
0.101,0.1054076134195814,-0.04287109351616646,0.044487959596962987,0.0,0.4261777840015926,0.3825333328884488,14.36692288004877,14.34596801142024,0.0
0.10200000000000001,0.10452175970623143,-0.042175148768803405,0.06428564990985247,0.0,0.4260238943196849,0.3830810024603876,14.379808423183876,14.34596801142024,0.0
0.10300000000000001,0.10429227676266126,-0.04187545153210434,0.057504474224663316,0.0,0.4259141533145987,0.3826309944651015,14.360711697245035,14.34596801142024,0.0
0.10400000000000001,0.10406178160291794,-0.04154114067136282,0.06690540033583577,0.0,0.42573660838817784,0.38333998643605216,14.307562105138567,14.34596801142024,0.0
0.105,0.10421435459554103,-0.04150662932174377,0.09386425545188659,0.0,0.4256472640116434,0.38681270153813346,14.318040770217179,14.34596801142024,0.0
0.106,0.10552623207503198,-0.042192442901839024,0.08890419532461134,0.0,0.4259899101902773,0.3889712347343748,14.350690015548855,14.34596801142024,0.0
0.107,0.10694035544770407,-0.04284172985589951,0.0725323526174872,0.0,0.4265787084998176,0.38905444233614545,14.36580468509784,14.34596801142024,0.0
0.108,0.10759297368379166,-0.04305871865644749,0.06477665110621836,0.0,0.42713432363710074,0.38844115349728187,14.375104725638296,14.34596801142024,0.0
0.109,0.10760361086900086,-0.042916429629611855,0.059835263693809815,0.0,0.4275552266958116,0.38748411554776835,14.38490414808336,14.34596801142024,0.0
0.11,0.10717698145437085,-0.0425459652006234,0.05454619110464709,0.0,0.4277990074567797,0.38617952319585486,14.392536445609965,14.34596801142024,0.0
0.111,0.1064693243989987,-0.04195119817918881,0.05026435799944724,0.0,0.4278262311783918,0.38468523322149395,14.356849209154184,14.34596801142024,0.0
0.112,0.10558654337810044,-0.04123878990191002,0.06799916424999806,0.0,0.42762888629012014,0.385426770977088,14.364293034368053,14.34596801142024,0.0
0.113,0.105460677885756,-0.04094010050817863,0.06409400141358537,0.0,0.4274996979156976,0.3854725218877335,14.341727799157692,14.34596801142024,0.0
0.114,0.10542903006158628,-0.040774784502099704,0.07541902114139165,0.0,0.42737280560305035,0.3867878052740301,14.317660294946084,14.34596801142024,0.0
0.115,0.10593259034243174,-0.04088027331690254,0.08773585041193725,0.0,0.42740338778998654,0.38914476400377973,14.309937166028607,14.34596801142024,0.0
0.116,0.10702726465569778,-0.04136406405384935,0.09195772332459166,0.0,0.4277187697241203,0.39149494423528364,14.323321314275509,14.34596801142024,0.0
0.117,0.10834096443409172,-0.04205503720556288,0.08549211617258834,0.0,0.42830880062731,0.39275464888871287,14.377443993636302,14.34596801142024,0.0
0.11800000000000001,0.10939899865452402,-0.04247151362941518,0.058116016670031245,0.0,0.42900470158063037,0.39089742452689347,14.417030682829925,14.34596801142024,0.0
0.11900000000000001,0.10914088676119459,-0.042181807940072646,0.03761204535912292,0.0,0.4294092576123704,0.3873528094978843,14.368179482047807,14.34596801142024,0.0
0.12,0.10771963456620981,-0.041109247180430825,0.061815531043905816,0.0,0.4293038119113685,0.38722429133590014,14.354070617907688,14.34596801142024,0.0
0.121,0.10696044819383099,-0.04047485510897418,0.06878893704909117,0.0,0.4291370014440045,0.3876924182027486,14.356592720691552,14.34596801142024,0.0
0.122,0.1068122781807624,-0.04013400296439169,0.06742163856444607,0.0,0.42900253489487233,0.3878856212805267,14.310228499870256,14.34596801142024,0.0
0.123,0.1068166903511825,-0.039991568941733,0.09096114409059389,0.0,0.42888857608738445,0.39064710894945975,14.287572601630595,14.34596801142024,0.0
0.124,0.10784944656899298,-0.04040814659195387,0.10287304730832071,0.0,0.4291094098092897,0.3940824072071842,14.324293975693047,14.34596801142024,0.0
0.125,0.10954943622300253,-0.04127848179856439,0.08472910063436657,0.0,0.4297432610810017,0.3949046345452515,14.361668140795299,14.34596801142024,0.0
0.126,0.11064234549790802,-0.04170171495306019,0.06588501678949016,0.0,0.43043380225427763,0.393713394396787,14.37665274663347,14.34596801142024,0.0
0.127,0.11065100958795955,-0.0415385318904721,0.05808586651827244,0.0,0.4309139828269498,0.39205084273195445,14.46258642612907,14.34596801142024,0.0
0.128,0.10993425571487873,-0.041058101909008965,0.013952842623384115,0.0,0.43112867470853655,0.3859048527320865,14.328606135360507,14.34596801142024,0.0
0.129,0.10746365844672741,-0.039260817226051015,0.0811166067682626,0.0,0.43051440138666697,0.38848887337601534,14.316758828424657,14.34596801142024,0.0
0.13,0.10719343132706394,-0.03892531087240653,0.08733235206614365,0.0,0.430201024609306,0.39077017797516383,14.286062696677075,14.34596801142024,0.0
