timestamp,iq,id,iq_ref,id_ref,vq,vd,omega,omega_ref,r
0.0,0.0,0.0,0.0,0.0,0.0,0.0,0.0,441.0938372590089,0.0
0.001,0.0,0.0,10.0,0.0,0.0,1.0999999999999999,13.357910896873854,441.0938372590089,0.0
0.002,0.34207067744813496,-0.1982707676795132,10.0,0.0,0.1318097844447464,1.952372225480705,22.364234386869903,441.0938372590089,0.0
0.003,0.7458508494571082,-0.42306190840844715,10.0,0.0,0.3584201307964763,2.6916930947113085,32.98242667388946,441.0938372590089,0.0
0.004,1.1210367723889407,-0.6376756462637786,10.0,0.0,0.6576611291928907,3.3425102618516127,43.914587969532754,441.0938372590089,0.0
0.005,1.444223599120558,-0.8197314506838647,10.0,0.0,1.0099397455713497,3.926371120406368,54.92502832365392,441.0938372590089,0.0
0.006,1.7113770817899157,-0.9704036861455553,10.0,0.0,1.4001299740240243,4.460918739917181,66.17376417511889,441.0938372590089,0.0
0.007,1.929754197917878,-1.0932102739358807,10.0,0.0,1.8167579438848307,4.959680672374796,77.47460307134222,441.0938372590089,0.0
0.008,2.1088417440693608,-1.1934847205915355,10.0,0.0,2.2514014332595376,5.432713349657351,88.81044657918856,441.0938372590089,0.0
0.009000000000000001,2.2576451245772287,-1.276284919068036,10.0,0.0,2.6979891187908875,5.887329611754767,100.1298955743955,441.0938372590089,0.0
0.01,2.383776149963486,-1.345640327122051,10.0,0.0,3.152180754880021,6.328756637208168,111.39184101335978,441.0938372590089,0.0
0.011,2.493210802029439,-1.4046226039242231,10.0,0.0,3.6108904262732806,6.760683622251751,122.54796524852227,441.0938372590089,0.0
0.012,2.5905675306336216,-1.4553066174237466,10.0,0.0,4.071907247748498,7.185673982304499,133.6599179817781,441.0938372590089,0.0
0.013000000000000001,2.679271435517934,-1.49915267558619,10.0,0.0,4.5336376493443415,7.605483126248261,144.44411968508592,441.0938372590089,0.0
0.014,2.7621620454928237,-1.5366151542861286,10.0,0.0,4.994858337250344,8.021253467908837,154.97795519358385,441.0938372590089,0.0
0.015,2.841055009782552,-1.5684455870533174,10.0,0.0,5.454660713349198,8.433719524221834,165.2500547411012,441.0938372590089,0.0
0.016,2.9177522189171,-1.5944311284401718,10.0,0.0,5.9122695626943464,8.843271449151516,175.1609178303082,441.0938372590089,0.0
0.017,2.993658035068757,-1.6143591426979238,10.0,0.0,6.3670049457524325,9.250046398837409,184.6665537660057,441.0938372590089,0.0
0.018000000000000002,3.070019424129505,-1.6278684933820085,10.0,0.0,6.818231033905972,9.653976697225351,193.7114512028864,441.0938372590089,0.0
0.019,3.1480029501102975,-1.634494957908526,10.0,0.0,7.265321360674028,10.054822000622575,202.23842333034716,441.0938372590089,0.0
0.02,3.2286961038735,-1.633788307609227,10.0,0.0,7.707643188926813,10.45219539470274,210.19890864226954,441.0938372590089,0.0
0.021,3.3131305932458224,-1.6253508041670046,10.0,0.0,8.144549114886683,10.84558276990684,217.55108074079627,441.0938372590089,0.0
0.022,3.402279532674992,-1.6088833728872274,10.0,0.0,8.575376143364624,11.234359961743031,224.2625934492248,441.0938372590089,0.0
0.023,3.4970413404961715,-1.5842262062954942,10.0,0.0,8.999450574166097,11.617809827777362,230.31398883921284,441.0938372590089,0.0
0.024,3.5982202368380714,-1.5513836059771333,10.0,0.0,9.416096434121753,11.99514008976901,235.70090495055467,441.0938372590089,0.0
0.025,3.706505843750689,-1.5105344015085143,10.0,0.0,9.824645747792644,12.365502283760087,239.79244186579493,441.0938372590089,0.0
0.026000000000000002,3.823372850197373,-1.4605040907126678,10.0,0.0,10.224281507352694,12.72791067507914,243.54237145175466,441.0938372590089,0.0
0.027,3.9465685393218948,-1.4061524922033584,10.0,0.0,10.614716157360583,13.081658947483055,246.4671713331976,441.0938372590089,0.0
0.028,4.079940479367053,-1.3422983145172034,10.0,0.0,10.99500172604769,13.425636901133654,248.474834560024,441.0938372590089,0.0
0.029,4.221019308950812,-1.273750353657674,10.0,0.0,11.36475479931346,13.759060664434138,249.8477506732295,441.0938372590089,0.0
0.03,4.370314032662442,-1.200460560378973,10.0,0.0,11.723498543930637,14.081105727418713,250.7295340897205,441.0938372590089,0.0
0.031,4.528609576122021,-1.1215786908391978,10.0,0.0,12.070628312667967,14.39090109602311,250.8513726911194,441.0938372590089,0.0
0.032,4.695054160261739,-1.038688530363387,10.0,0.0,12.40569554243506,14.68770395582002,257.32583398837886,441.0938372590089,0.0
0.033,4.8400323595375045,-1.0017924262359768,10.0,0.0,12.73370666535588,14.974050096535013,271.0145682865684,441.0938372590089,0.0
0.034,4.931332238279694,-1.0550382877937599,10.0,0.0,13.063777295868748,15.25596953080171,284.774785712145,441.0938372590089,0.0
0.035,4.9986570447671355,-1.1432123962204188,10.0,0.0,13.398199500068353,15.53621135476682,300.1535867337006,441.0938372590089,0.0
0.036000000000000004,5.050384319132519,-1.2486671756412178,10.0,0.0,13.737921950896524,15.81685446464007,316.10774133474473,441.0938372590089,0.0
0.037,5.0883172054427686,-1.3655727292599944,10.0,0.0,14.083541530733067,16.099750163858335,332.2309059162578,441.0938372590089,0.0
0.038,5.1123887116985784,-1.4918073823672204,10.0,0.0,14.43560547881339,16.386649714313403,347.5160397125072,441.0938372590089,0.0
0.039,5.122963914815928,-1.6245334495892247,10.0,0.0,14.794490507994531,16.679143147250628,362.63327426793205,441.0938372590089,0.0
0.04,5.116601763083307,-1.7675765546450133,10.0,0.0,15.1611438584352,16.97908132853401,376.8295786336595,441.0938372590089,0.0
0.041,5.086500699216101,-1.9309326007556507,10.0,0.0,15.537664425981744,17.28893852224119,396.8358854431191,441.0938372590089,0.0
0.042,5.05390198147256,-2.0749106966491704,10.0,0.0,15.92172268623155,17.60874690164543,411.60911464405154,441.0938372590089,0.0
0.043000000000000003,5.010924724257283,-2.209858995216085,10.0,0.0,16.312760490280215,17.939381780250464,425.1906382273716,441.0938372590089,0.0
0.044,4.948330360500628,-2.351658168905887,10.0,0.0,16.712006427904722,18.282512558840942,442.4055086480752,441.0938372590089,0.0
0.045,4.890155650096055,-2.4598779332599032,3.993726405693174,0.0,17.116127031967878,17.976338032468007,442.80978657348606,441.0938372590089,0.0
0.046,4.639320287533139,-2.417063427047009,3.774427949842983,0.0,17.44342632966045,17.8041430677161,446.6322144071503,441.0938372590089,0.0
0.047,4.350570495541007,-2.3354029981064794,1.8078302615294586,0.0,17.71222169898727,17.497018891546176,445.2825381135406,441.0938372590089,0.0
0.048,4.055699608341409,-2.149366435989515,2.440781399788972,0.0,17.903777696220946,17.366325571689632,438.76394035959254,441.0938372590089,0.0
0.049,3.8146426888522287,-1.9775984868813155,5.723379245757179,0.0,18.046074652964855,17.646180987487824,442.8231276884373,441.0938372590089,0.0
0.05,3.7656670488236728,-1.8435689170336338,3.6764926770405166,0.0,18.189101882422037,17.657273807570334,432.260248308671,441.0938372590089,0.0
0.051000000000000004,3.7505239026037183,-1.6524800782532654,9.04626825642704,0.0,18.299256194374394,18.2938802376939,428.8650224742861,441.0938372590089,0.0
0.052000000000000005,3.9275631911874664,-1.5918052428731446,10.0,0.0,18.457292374639856,18.909428438793093,433.2678877574759,441.0938372590089,0.0
0.053,4.238093618551009,-1.5077779653428043,8.72567278845783,0.0,18.65244350481415,19.29712417297939,424.253807920661,441.0938372590089,0.0
0.054,4.5482110418477335,-1.369410883467531,10.0,0.0,18.85246898915868,19.787477099860546,409.61631747913304,441.0938372590089,0.0
0.055,4.87659390845938,-1.2671715910933639,10.0,0.0,19.071664566414466,20.20303306927831,403.77092650176456,441.0938372590089,0.0
0.056,5.2147115767253105,-1.152167326327448,10.0,0.0,19.298868106685937,20.565043884636736,399.62884910600394,441.0938372590089,0.0
0.057,5.5647237462923425,-1.0071119492366687,10.0,0.0,19.52474632563377,20.878453810516753,393.1895574274707,441.0938372590089,0.0
0.058,5.914280306194804,-0.8510174335792171,10.0,0.0,19.743657872323418,21.148159465809957,412.6508807282673,441.0938372590089,0.0
0.059000000000000004,6.1661088563213395,-0.8460372249552515,10.0,0.0,19.96866195208135,21.3885801353279,430.06397833050096,441.0938372590089,0.0
0.06,6.283647264492295,-1.0185119693796805,10.0,0.0,20.21422971478822,21.617048206472305,447.7037202661161,441.0938372590089,0.0
0.061,6.334928601132424,-1.250457691921793,2.0853835836797243,0.0,20.481876790374223,20.972152878029014,460.26335126196454,441.0938372590089,0.0
0.062,6.060211653558572,-1.3768619417751942,-4.3861270542740645,0.0,20.669854635815764,19.81652346157647,465.62184289956764,441.0938372590089,0.0
0.063,5.475778255681838,-1.377681310933131,-7.3106529294812,0.0,20.722297843176722,18.599812535710797,466.67142205707165,441.0938372590089,0.0
0.064,4.7434538325655655,-1.314260351545551,-8.091218356213833,0.0,20.64084113799081,17.528111437543288,466.23174585892764,441.0938372590089,0.0
0.065,4.010841087242658,-1.2343255851821593,-8.122759343141013,0.0,20.452201378800645,16.633035082133624,463.7336911034211,441.0938372590089,0.0
0.066,3.356117844299293,-1.156624540075499,-7.1001305038318705,0.0,20.18517019269043,15.98610039780974,460.1352146326979,441.0938372590089,0.0
0.067,2.83408416777796,-1.100284400515441,-5.491306042207161,0.0,19.874728251858294,15.594776937680747,455.8293442602259,441.0938372590089,0.0
0.068,2.47039888853394,-1.0693426949832714,-3.4857259259833375,0.0,19.55335797288354,15.450852241601453,451.5155775484825,441.0938372590089,0.0
0.069,2.267416296157698,-1.0677285632172402,-1.4330599730063605,0.0,19.249864114759404,15.51361167326679,447.00536708332766,441.0938372590089,0.0
0.07,2.2120767976169073,-1.086137730060325,0.762929961327873,0.0,18.9850367352846,15.764835528115897,442.26906617619017,441.0938372590089,0.0
0.07100000000000001,2.2870199813199275,-1.1226339208614662,3.1193281257248056,0.0,18.775644968561892,16.192901013080203,440.3393369736387,441.0938372590089,0.0
0.07200000000000001,2.476588511448745,-1.1783420072831112,4.091737729854243,0.0,18.635761854606244,16.62051874120892,436.4530496429741,441.0938372590089,0.0
0.073,2.734877318491728,-1.197121313353592,6.081289271346877,0.0,18.554137467662585,17.17399687517867,429.28044667891953,441.0938372590089,0.0
0.074,3.047730008438021,-1.2335523914823092,9.785724659175067,0.0,18.53984295834371,18.019726226479577,432.48086349887814,441.0938372590089,0.0
0.075,3.4906798326932877,-1.289436745985767,8.271645986797072,0.0,18.617333803300905,18.53026423011004,428.170143697049,441.0938372590089,0.0
0.076,3.9035943635169734,-1.2611323663598233,10.0,0.0,18.734457038821542,19.161766145901222,416.65117656371564,441.0938372590089,0.0
0.077,4.331783630705047,-1.231604163193348,10.0,0.0,18.90005308381718,19.681574979450865,411.08957827946205,441.0938372590089,0.0
0.078,4.741058201258905,-1.176769831825219,10.0,0.0,19.09533391324939,20.12522422405607,407.52992421138975,441.0938372590089,0.0
0.079,5.140386580090022,-1.0763551763926724,10.0,0.0,19.304954315414992,20.504203251178083,402.4616267484629,441.0938372590089,0.0
0.08,5.524825626577056,-0.9482768725128858,10.0,0.0,19.518426113203795,20.8279514044792,395.4217224168329,441.0938372590089,0.0
0.081,5.89783323039526,-0.8017653724887153,10.0,0.0,19.728090064579966,21.10348547627395,416.3810849703004,441.0938372590089,0.0
0.082,6.137708054303438,-0.8463069351481238,10.0,0.0,19.95070571489077,21.34977638143513,432.4238474848714,441.0938372590089,0.0
0.083,6.260232905015644,-1.0281646237178774,9.142819027440336,0.0,20.195247820802688,21.48833086879044,448.72835018170457,441.0938372590089,0.0
0.084,6.283914088838606,-1.2512133042400355,0.914222549796782,0.0,20.45190794283069,20.739530633472825,459.11680823569014,441.0938372590089,0.0
0.085,5.964902399058408,-1.3571846163457333,-4.460236186962817,0.0,20.617448386650537,19.617700035336693,463.8127697314339,441.0938372590089,0.0
0.08600000000000001,5.373155584339647,-1.356344254931299,-7.035406259558939,0.0,20.653099573398144,18.45698445349944,465.2940218483222,441.0938372590089,0.0
0.08700000000000001,4.658356228772427,-1.3000371430240614,-8.018034163896221,0.0,20.562928704591595,17.406278640734744,464.7233539990955,441.0938372590089,0.0
0.088,3.9429939831130527,-1.2238584116879894,-7.9689954066837325,0.0,20.368887752061354,16.538388718169468,462.08907204105736,441.0938372590089,0.0
0.089,3.306053031996461,-1.1506706794188855,-6.861806775485159,0.0,20.100173039291363,15.922093936633647,458.62955059351236,441.0938372590089,0.0
0.09,2.802959569249779,-1.0990493282060556,-5.307403185057693,0.0,19.79175384833407,15.549440542000413,454.30385148981406,441.0938372590089,0.0
0.091,2.454377651327182,-1.070991479865732,-3.2766537755165954,0.0,19.474341087203868,15.424362043224034,450.1217828361526,441.0938372590089,0.0
0.092,2.2642028762226096,-1.0720398733766525,-1.2758989044572946,0.0,19.176557654078668,15.497259066015665,445.184370166313,441.0938372590089,0.0
0.093,2.2184676139691444,-1.0902527622710012,1.151902101389466,0.0,18.917835200388406,15.783267736245001,440.98512120239707,441.0938372590089,0.0
0.094,2.30603425508885,-1.1344881440369043,3.2526137439135443,0.0,18.718269622195418,16.21151388155586,441.7083409010611,441.0938372590089,0.0
0.095,2.5074293448786356,-1.1804910162231066,2.88485885816101,0.0,18.58610317847563,16.494240907192626,430.6736487214798,441.0938372590089,0.0
0.096,2.7188606070611323,-1.1819100058798055,8.506406833326936,0.0,18.49512214183188,17.33628292407734,432.5614486282242,441.0938372590089,0.0
0.097,3.097189751249603,-1.2645071975530806,7.647830766262603,0.0,18.50651491172847,17.894861895241565,432.3672171394001,441.0938372590089,0.0
0.098,3.4951651105755936,-1.2654949371939095,7.832212711870727,0.0,18.571908981195577,18.38759602288259,420.5808749253829,441.0938372590089,0.0
0.099,3.872742113639265,-1.229351436813044,10.0,0.0,18.676051394041778,19.03665521020062,412.83853368703825,441.0938372590089,0.0
0.1,4.283110205785952,-1.2179932016706578,10.0,0.0,18.8337975134733,19.56818012708467,412.8429953488873,441.0938372590089,0.0
0.101,4.703719877852907,-1.152803740832497,10.0,0.0,19.021864254309307,20.02016378121757,409.0244605852829,441.0938372590089,0.0
0.10200000000000001,5.111261148657908,-1.050660642874038,10.0,0.0,19.225738840307955,20.405132300952907,401.94771347291413,441.0938372590089,0.0
0.10300000000000001,5.503571899923969,-0.9209858660097279,10.0,0.0,19.434480025204774,20.732912657383352,391.90581027403465,441.0938372590089,0.0
0.10400000000000001,5.878792088007406,-0.7799426833042578,10.0,0.0,19.640907124926006,21.01143798348392,413.51166003227485,441.0938372590089,0.0
0.105,6.112659189648422,-0.8412344700415453,10.0,0.0,19.86269657565332,21.260780307646872,429.96262959247514,441.0938372590089,0.0
0.106,6.236003119573206,-1.0268440232981888,9.964436480729395,0.0,20.10704544671506,21.492226196071186,446.9192196387302,441.0938372590089,0.0
0.107,6.289390840812694,-1.2651910461720983,1.4278876338046382,0.0,20.374466096496622,20.78165843475312,458.41838203885135,441.0938372590089,0.0
0.108,5.994344971786527,-1.381978481266581,-4.4949390140543475,0.0,20.554551052799876,19.635732994555063,463.3389227386797,441.0938372590089,0.0
0.109,5.404173846229,-1.3787759473024934,-7.177660218765222,0.0,20.600514816366,18.448505893088583,464.4913639714582,441.0938372590089,0.0
0.11,4.679851960914263,-1.3155645451155402,-7.98785610227898,0.0,20.51623826452795,17.39607723911502,463.9519198390214,441.0938372590089,0.0
0.111,3.958330068597507,-1.2352685021238645,-7.946714861860698,0.0,20.326946051769124,16.525215479937835,461.3798833703582,441.0938372590089,0.0
0.112,3.317105761123887,-1.1584878270148469,-6.863557088642583,0.0,20.061853970536383,15.904566072951232,457.86006765384,441.0938372590089,0.0
0.113,2.8101493995473414,-1.103912598645594,-5.2713115343318115,0.0,19.755970688358737,15.533140788480706,453.59542983427673,441.0938372590089,0.0
0.114,2.4597822781004632,-1.0744245377219368,-3.2640085503028438,0.0,19.440835271533885,15.406621396682937,449.43342237265244,441.0938372590089,0.0
0.115,2.2680188264703607,-1.074362971938902,-1.266400670627137,0.0,19.14484956558485,15.478494547771339,444.52216077541675,441.0938372590089,0.0
0.116,2.2209396731676683,-1.0918550357887746,1.154946892826632,0.0,18.887574488020874,15.763215038686155,440.35452788948993,441.0938372590089,0.0
0.117,2.3071686261789157,-1.135679334395591,3.2461564294852323,0.0,18.68914471951303,16.18959956978673,441.07390644222005,441.0938372590089,0.0
0.11800000000000001,2.5071337380883003,-1.1812704416880928,2.8866664612880606,0.0,18.55777315978213,16.47191280627827,430.1113555366904,441.0938372590089,0.0
0.11900000000000001,2.717339723002605,-1.1828915163270433,8.47776673127608,0.0,18.46749248681084,17.310350485306742,432.0394983885916,441.0938372590089,0.0
0.12,3.093814865833982,-1.2650224825629752,7.604238694029647,0.0,18.479101844579088,17.864607036475938,431.75962615313665,441.0938372590089,0.0
0.121,3.489231297461989,-1.2655128223069387,7.837516922815842,0.0,18.544208549396906,18.359263697793224,420.06953555060284,441.0938372590089,0.0
0.122,3.865653634703196,-1.2302638918638817,10.0,0.0,18.648387964118488,19.009053426882694,412.55433607430115,441.0938372590089,0.0
0.123,4.275475025146177,-1.2194903315185095,10.0,0.0,18.806295807943314,19.54134116418723,412.5648051278124,441.0938372590089,0.0
0.124,4.695691518730878,-1.154756123728042,10.0,0.0,18.994628613862606,19.994065311753904,408.7562803245578,441.0938372590089,0.0
0.125,5.102813516974836,-1.0530152113410685,10.0,0.0,19.198856395661974,20.37976907028484,401.55919071196195,441.0938372590089,0.0
0.126,5.494571837593535,-0.9237994710039694,10.0,0.0,19.40803545282128,20.708303035857025,391.1495789014645,441.0938372590089,0.0
0.127,5.8686671635334715,-0.7840433581986923,10.0,0.0,19.61506898581667,20.987668607940694,412.4683876186847,441.0938372590089,0.0
0.128,6.107418178305855,-0.8370993663678862,10.0,0.0,19.83656944474755,21.23727931774999,428.5706019077695,441.0938372590089,0.0
0.129,6.231063470352048,-1.0224108479409058,10.0,0.0,20.080734631657613,21.47286553049408,445.619232253793,441.0938372590089,0.0
0.13,6.28649055191839,-1.2607184465550918,1.8367069495222719,0.0,20.348402642182915,20.806486879050382,457.8569693474132,441.0938372590089,0.0
0.131,6.006640600299725,-1.3841849912973019,-4.449792918171891,0.0,20.533864230446813,19.654968604355716,463.024600492371,441.0938372590089,0.0
0.132,5.421502375243695,-1.3818421136562635,-7.252916122984409,0.0,20.58413545042692,18.45323646734445,464.0007626485497,441.0938372590089,0.0
0.133,4.694359055975646,-1.316489529394462,-7.970066454969168,0.0,20.5020409792155,17.399983744431054,463.50333605380115,441.0938372590089,0.0
0.134,3.9707789176579444,-1.2356534779871136,-7.9454481455428105,0.0,20.314592243021693,16.52604874606686,461.01330436862696,441.0938372590089,0.0
0.135,3.3274518467766745,-1.158304323522377,-6.8996269740518965,0.0,20.050794834133804,15.899086696103211,457.47724879157323,441.0938372590089,0.0
0.136,2.8172374628964207,-1.1029818031222305,-5.295433300850675,0.0,19.745368975438957,15.524134514102375,453.26123088185386,441.0938372590089,0.0
0.137,2.464009065382069,-1.0732718829468157,-3.3090982822194395,0.0,19.430275618398234,15.392342859637344,449.10469446640894,441.0938372590089,0.0
0.138,2.2690812385028147,-1.0729113685303817,-1.310938646570981,0.0,19.133769874231014,15.460065021631326,444.55992134736135,441.0938372590089,0.0
0.139,2.218712767750972,-1.0909321680681623,0.9267870720692906,0.0,18.875672813773242,15.721123879217046,439.9746905901393,441.0938372590089,0.0
0.14,2.2974605190386717,-1.1293670416521837,3.230593917369019,0.0,18.673538973218687,16.152142703445822,439.59143567706616,441.0938372590089,0.0
0.14100000000000001,2.4892238754514877,-1.1850359023458021,3.4372453897250117,0.0,18.54045962508291,16.499233363009893,432.256826194366,441.0938372590089,0.0
0.14200000000000002,2.7255404865277173,-1.1859504204689504,7.19292024172152,0.0,18.454941186103735,17.185287547145773,428.42312251579847,441.0938372590089,0.0
0.14300000000000002,3.0605000660004844,-1.251420717599458,9.23647922843739,0.0,18.45377259693919,17.946936821357696,432.343127728545,441.0938372590089,0.0
