timestamp,iq,id,iq_ref,id_ref,vq,vd,omega,omega_ref,r
0.0,0.0,0.0,0.0,0.0,0.0,0.0,0.0,209.30333672941043,0.0
0.001,0.0,0.0,10.0,0.0,0.0,1.0999999999999999,7.789019919406565,209.30333672941043,0.0
0.002,0.5202095988448561,-0.2861344120983291,10.0,0.0,0.14147478533081612,1.9327769441270655,15.025706981536862,209.30333672941043,0.0
0.003,1.0061640388798332,-0.5586220456796661,10.0,0.0,0.3791920821142212,2.6481707799591083,22.577867862251182,209.30333672941043,0.0
0.004,1.4032507607611353,-0.778562743223906,10.0,0.0,0.6861456331965429,3.2769769668796926,30.378962516236488,209.30333672941043,0.0
0.005,1.717617401772276,-0.9509001282211864,10.0,0.0,1.0420421532369493,3.8429884269240375,38.38682025146936,209.30333672941043,0.0
0.006,1.967494977872495,-1.086169070687215,10.0,0.0,1.4321063770990399,4.363645526007079,46.46289316251838,209.30333672941043,0.0
0.007,2.169550151305707,-1.1941297772471953,10.0,0.0,1.8457528767801632,4.85151604425137,54.55701818948706,209.30333672941043,0.0
0.008,2.336831928413068,-1.2820588048757529,10.0,0.0,2.275414364291145,5.315583716891869,62.703660466288966,209.30333672941043,0.0
0.009000000000000001,2.4788734227975104,-1.3553390366676896,10.0,0.0,2.7156980055359052,5.762259024408201,70.80693020313956,209.30333672941043,0.0
0.01,2.6024377331528346,-1.4179834511466842,10.0,0.0,3.1627788966825943,6.196123506102134,78.98576902817572,209.30333672941043,0.0
0.011,2.7125547903569944,-1.4724970250199703,10.0,0.0,3.6139081958652777,6.620432395552438,87.20712800468547,209.30333672941043,0.0
0.012,2.812880164213068,-1.5205243520051217,10.0,0.0,4.067093324304358,7.037488705423856,95.14718808215028,209.30333672941043,0.0
0.013000000000000001,2.9056778131329137,-1.5638085366138559,10.0,0.0,4.5209465579237795,7.448953409509415,103.06190757809581,209.30333672941043,0.0
0.014,2.9932759456608933,-1.6023858641556663,10.0,0.0,4.974371602773327,7.855949148459482,110.81777470232821,209.30333672941043,0.0
0.015,3.076972331342966,-1.6369145327233903,10.0,0.0,5.426566097299961,8.25925719689975,118.48733436963076,209.30333672941043,0.0
0.016,3.158043025613747,-1.6673202292519436,10.0,0.0,5.876871287150419,8.659373077435687,126.04187699257324,209.30333672941043,0.0
0.017,3.2373860063427906,-1.693637881639355,10.0,0.0,6.324748430866755,9.05659086796559,133.45518874517737,209.30333672941043,0.0
0.018000000000000002,3.3158266601953272,-1.7156787749673499,10.0,0.0,6.769720961006653,9.45103955169765,140.69924919096334,209.30333672941043,0.0
0.019,3.394113417082939,-1.7331638294367364,10.0,0.0,7.211344053564119,9.842713483351377,147.7454589340577,209.30333672941043,0.0
0.02,3.4729594619756217,-1.7457458078869525,10.0,0.0,7.649181397116044,10.231492133726162,154.2784642682058,209.30333672941043,0.0
0.021,3.5529485250420625,-1.7532290428229644,10.0,0.0,8.082810207408714,10.617166316930284,160.73231500217898,209.30333672941043,0.0
0.022,3.63499527151748,-1.7548583115505614,10.0,0.0,8.511747942203202,10.999410711361623,166.89626767632228,209.30333672941043,0.0
0.023,3.7195811488117965,-1.7505931968656698,10.0,0.0,8.93553088765876,11.377840460791655,172.74389774005272,209.30333672941043,0.0
0.024,3.8074096896524505,-1.7400611818231182,10.0,0.0,9.353662643003936,11.751990249104713,178.73646376432058,209.30333672941043,0.0
0.025,3.899106135011876,-1.7230454801022934,10.0,0.0,9.765629794607037,12.121329910539853,184.1237483019251,209.30333672941043,0.0
0.026000000000000002,3.995276926696712,-1.6993718273877239,10.0,0.0,10.170900252411943,12.485270498360055,188.75256407983574,209.30333672941043,0.0
0.027,4.096482631172548,-1.6689771819108374,10.0,0.0,10.568931048743071,12.843173153603226,193.03074218463973,209.30333672941043,0.0
0.028,4.203024016768374,-1.632217765642765,10.0,0.0,10.95920944163068,13.194381127584414,196.90007398584194,209.30333672941043,0.0
0.029,4.31554376498846,-1.5888546384827515,10.0,0.0,11.341178442802729,13.538184385007993,200.46674732853938,209.30333672941043,0.0
0.03,4.434238060097463,-1.5393300451478513,8.529681715625259,0.0,11.714316795604693,13.712138030545407,201.9688326538721,209.30333672941043,0.0
0.031,4.4873744634614,-1.4387965521833266,7.851984093714278,0.0,12.056973239387448,13.841508529823876,201.82623065743093,209.30333672941043,0.0
0.032,4.5109895869372885,-1.3274325833456317,7.998056152654666,0.0,12.36705638707728,14.012986226706614,202.5921238755396,209.30333672941043,0.0
0.033,4.561536160539935,-1.227560904205976,7.682221672139031,0.0,12.653406744669413,14.156797983362404,204.42670491077538,209.30333672941043,0.0
0.034,4.619361226228575,-1.1248317823586054,6.813697472707496,0.0,12.915201755556096,14.216628991489793,204.12908003579267,209.30333672941043,0.0
0.035,4.65621625033686,-0.9969762213700857,7.014252477135032,0.0,13.14376354567659,14.323926890379436,203.73302649124983,209.30333672941043,0.0
0.036000000000000004,4.721754146270495,-0.8833189444127816,7.267982351788057,0.0,13.348975201818577,14.462415296248102,200.79362935795902,209.30333672941043,0.0
0.037,4.8158461110949915,-0.7927296898154708,8.822777992147977,0.0,13.538686287697104,14.766371511665797,198.4560322028227,209.30333672941043,0.0
0.038,5.002643361304505,-0.7539793596364044,10.0,0.0,13.736465242755823,15.153242900714908,201.4745750002027,209.30333672941043,0.0
0.039,5.2416013476898335,-0.7707708344988862,8.667064841284455,0.0,13.95538800675025,15.338392552827456,207.83356273826237,209.30333672941043,0.0
0.04,5.3350267658952,-0.8465911255023917,5.502268712166095,0.0,14.179105776818245,15.184234077373588,213.81880131722062,209.30333672941043,0.0
0.041,5.224972738021888,-0.856809287085031,2.4644947768088707,0.0,14.365401717198104,14.778396252121912,219.77051317289002,209.30333672941043,0.0
0.042,4.9515605181978035,-0.7931398029264822,-0.6160329154606261,0.0,14.485378456141545,14.152266300539228,219.33191710436665,209.30333672941043,0.0
0.043000000000000003,4.540954271716899,-0.6754838475041476,-0.49702068494850504,0.0,14.518439065777503,13.687076205202851,219.6773192980282,209.30333672941043,0.0
0.044,4.18701057095155,-0.6043650962418459,-0.7734616074654612,0.0,14.495028101831604,13.2749403012011,220.1433931230245,209.30333672941043,0.0
0.045,3.883775937726991,-0.5669684656943281,-1.1148990838997523,0.0,14.42934220203251,12.896699550669378,220.53823812552838,209.30333672941043,0.0
0.046,3.618253886215893,-0.550060680986254,-1.4246705991128668,0.0,14.330914927147742,12.545228872635796,220.63137191451776,209.30333672941043,0.0
0.047,3.3810556164405545,-0.5470958336889689,-1.5845178454586284,0.0,14.207026256592474,12.228013642131371,220.51901210200643,209.30333672941043,0.0
0.048,3.1718587513491228,-0.5564727010346562,-1.640494692928924,0.0,14.064866033923282,11.946211759325884,220.28485102366605,209.30333672941043,0.0
0.049,2.9898176885525904,-0.5761776145424515,-1.6332292967012911,0.0,13.910815417052866,11.697665552850477,219.95444684207663,209.30333672941043,0.0
0.05,2.8324797333721055,-0.603678410323196,-1.574538307033246,0.0,13.750143279622757,11.480439024678667,219.54601342166706,209.30333672941043,0.0
0.051000000000000004,2.6973224942682967,-0.6367177236939117,-1.4727483637510228,0.0,13.587175019631445,11.292771836195005,219.07632676921833,209.30333672941043,0.0
0.052000000000000005,2.5821121718349667,-0.6733979410710402,-1.3356349379247372,0.0,13.425441297568671,11.132960681045274,218.5588742739407,209.30333672941043,0.0
0.053,2.484887928157923,-0.7121510155574623,-1.1694640657312205,0.0,13.267795868216945,10.999407494467402,218.00752832490053,209.30333672941043,0.0
0.054,2.403951351487658,-0.7517082993237629,-0.9808330071660447,0.0,13.116523433612027,10.89046357232934,217.4414869166303,209.30333672941043,0.0
0.055,2.3377761196156444,-0.7910014076895403,-0.779193804903132,0.0,12.973410519336367,10.804050710347083,216.9057360669515,209.30333672941043,0.0
0.056,2.284799736054829,-0.8290033444039926,-0.5873423734391396,0.0,12.839754892244983,10.736220758446864,216.4796136889284,209.30333672941043,0.0
0.057,2.2427039016686425,-0.8642988871274969,-0.44604395402276475,0.0,12.716184323005157,10.679533328795557,216.05930737051685,209.30333672941043,0.0
0.058,2.207532277169114,-0.8945850113399448,-0.3034505012280544,0.0,12.602280585960317,10.633877801149746,215.37772115493607,209.30333672941043,0.0
0.059000000000000004,2.178698125737896,-0.9192922606727252,-0.023401237692921573,0.0,12.497616606039857,10.613596977437384,214.49969561898294,209.30333672941043,0.0
0.06,2.1631904885796267,-0.9420627863276705,0.3636479413879177,0.0,12.403648627068929,10.626070253740853,213.52265587380188,209.30333672941043,0.0
0.061,2.1653712095738338,-0.9668003578811776,0.8099746225345328,0.0,12.322818201239773,10.672729891971255,212.86415160862487,209.30333672941043,0.0
0.062,2.188081604524017,-0.9919164351708519,1.1036186063308961,0.0,12.257252174602904,10.732001758967254,213.09679098688795,209.30333672941043,0.0
0.063,2.2180994258552693,-1.017212759755937,0.9493643746245772,0.0,12.206701372260781,10.755810574877376,211.5034431488409,209.30333672941043,0.0
0.064,2.23783026685191,-1.0172380711756486,1.7240372294538058,0.0,12.163336352754204,10.857069771014231,213.4190445365556,209.30333672941043,0.0
0.065,2.2845757474831485,-1.0378440464300258,0.7250794575250032,0.0,12.136700158975756,10.821289767666816,209.8347558059147,209.30333672941043,0.0
0.066,2.281383711008256,-1.0087861532494626,2.5119096320803997,0.0,12.105747156238,10.993783621015227,212.3953668801948,209.30333672941043,0.0
0.067,2.3615884737058073,-1.0255794395564177,1.2006837934325039,0.0,12.097276679534431,10.974975200496718,207.98705180710715,209.30333672941043,0.0
0.068,2.3743108977345386,-0.994385461842966,3.4180041791993685,0.0,12.084173138037821,11.213620656164352,210.60639900020522,209.30333672941043,0.0
0.069,2.492193848980768,-1.0168222074550666,2.095299959942388,0.0,12.099024478052103,11.24658064374283,206.73077341096905,209.30333672941043,0.0
0.07,2.5405351116873893,-0.9887225348380877,4.058838387744885,0.0,12.112371351378815,11.502807326430464,209.296929899483,209.30333672941043,0.0
0.07100000000000001,2.674099740850659,-1.0092031206031093,2.7758242117871887,0.0,12.152540066801944,11.559770387967742,205.34154559047226,209.30333672941043,0.0
0.07200000000000001,2.7426071651825907,-0.9704114059013101,4.793134277681933,0.0,12.189916322361636,11.843588093516725,207.29737427242134,209.30333672941043,0.0
0.073,2.8910520366550294,-0.9932683779769533,3.8352795612772876,0.0,12.254838906995595,11.96158067298467,206.2617546002066,209.30333672941043,0.0
0.074,2.9970595100270288,-0.955226827624077,4.383505218676701,0.0,12.320655350853379,12.133973249091003,203.9614782328404,209.30333672941043,0.0
0.075,3.1011003824134997,-0.9463025544525666,5.587061987325499,0.0,12.39652815339068,12.412232778721064,207.0416591297541,209.30333672941043,0.0
0.076,3.271215517432863,-0.9420016291136684,4.069588314865211,0.0,12.492255769581698,12.473623707856463,203.49537391245258,209.30333672941043,0.0
0.077,3.357523196314213,-0.8780601406137438,5.900810551685548,0.0,12.577559162585553,12.74726479514551,202.23873458076343,209.30333672941043,0.0
0.078,3.511297396992263,-0.879918771414383,6.59977623901659,0.0,12.682540189290993,13.044594030958475,204.4652335560539,209.30333672941043,0.0
0.079,3.7072937507039305,-0.8758958062201325,5.534907783104921,0.0,12.806294924427807,13.178541401935593,203.9649697443401,209.30333672941043,0.0
0.08,3.8395417737115265,-0.8218371512577252,5.838423358812529,0.0,12.925162700754733,13.342917588221912,200.77450812294367,209.30333672941043,0.0
0.081,3.9706733487193726,-0.7704728730720638,7.518942455575408,0.0,13.043471834026802,13.67146288537835,199.5924935372787,209.30333672941043,0.0
0.082,4.175756305598062,-0.7717358302884101,8.207058180329211,0.0,13.183457151762962,14.016624295395061,200.1051008898135,209.30333672941043,0.0
0.083,4.412801427103051,-0.7758056050973832,8.042736862457772,0.0,13.344395124384,14.29228746017356,200.05512555624063,209.30333672941043,0.0
0.084,4.626249347812567,-0.7564875784075525,8.160206640975915,0.0,13.514639935536811,14.549934174489024,199.3952493179506,209.30333672941043,0.0
0.085,4.827738360614219,-0.7243733786853747,8.589225634235525,0.0,13.690285555303346,14.824828777760514,198.2691011637258,209.30333672941043,0.0
0.08600000000000001,5.0381716728560075,-0.6912601850284685,9.262642067004776,0.0,13.872534764115345,15.138451326134954,205.63042476743857,209.30333672941043,0.0
0.08700000000000001,5.209234185383718,-0.7695219622316013,5.618709384768106,0.0,14.0768612343125,15.014657237923785,211.19700947072332,209.30333672941043,0.0
0.088,5.1375885191529544,-0.7936979120750917,2.816480305712604,0.0,14.250252385379564,14.66146098209037,216.02719889882349,209.30333672941043,0.0
0.089,4.905108056473622,-0.7457348731332797,0.3341469699683888,0.0,14.365467101974556,14.140745485038119,217.07621490113388,209.30333672941043,0.0
0.09,4.559353548471359,-0.6555314260097047,-0.26808981290404343,0.0,14.40764604841065,13.677908487845524,217.28115946248286,209.30333672941043,0.0
0.091,4.22274723223979,-0.5892427503930948,-0.450340320909258,0.0,14.392933680637274,13.285117046669393,217.82690590892182,209.30333672941043,0.0
0.092,3.9326877174638737,-0.555784854865319,-0.8084492359238489,0.0,14.33739592377174,12.921104520725018,218.37408118838724,209.30333672941043,0.0
0.093,3.676383236465497,-0.5414599507823131,-1.1727443202463275,0.0,14.249769529504473,12.57674099932527,218.62140199502807,209.30333672941043,0.0
0.094,3.443732276388796,-0.5391899727720654,-1.3895853762229184,0.0,14.136362973983656,12.26087018612302,218.63399120614727,209.30333672941043,0.0
0.095,3.2350158507023785,-0.5478685141991334,-1.48918652654989,0.0,14.003687332031774,11.977090379937449,218.5071680533943,209.30333672941043,0.0
0.096,3.0508970199236853,-0.5662461254571677,-1.517813263413248,0.0,13.857836025480637,11.724433967752343,218.2729310318311,209.30333672941043,0.0
0.097,2.889956503611539,-0.5922686875546288,-1.490390695655846,0.0,13.703982914084248,11.501623084439132,217.95204458034726,209.30333672941043,0.0
0.098,2.750275330256759,-0.6239342235913181,-1.4164345484232994,0.0,13.54645700883923,11.307324452741508,217.56257922430848,209.30333672941043,0.0
0.099,2.6299787609267185,-0.6594738045591034,-1.3042942953528884,0.0,13.388846529495048,11.140134770947325,217.11892673499952,209.30333672941043,0.0
0.1,2.527330719053532,-0.6973759730661259,-1.160623950754299,0.0,13.234091972631955,10.99867366368603,216.63406635435098,209.30333672941043,0.0
0.101,2.440777628891286,-0.7363876371888282,-0.9915010566794336,0.0,13.084579022097476,10.881544385865924,216.1220998850672,209.30333672941043,0.0
0.10200000000000001,2.368926855634281,-0.7754612880307699,-0.8037054535941128,0.0,12.942212423785815,10.787181082329663,215.6131160736851,209.30333672941043,0.0
0.10300000000000001,2.3104598920793835,-0.8136664530272028,-0.612311341345805,0.0,12.808457986592881,10.71290570389079,215.17794932209756,209.30333672941043,0.0
0.10400000000000001,2.263668729484002,-0.8498950376443715,-0.45347409147891105,0.0,12.684254547933282,10.652802934189333,214.85756270328818,209.30333672941043,0.0
0.105,2.225363985555651,-0.8822668754410918,-0.3488230418129987,0.0,12.569659792480962,10.599958950762804,214.419126259697,209.30333672941043,0.0
0.106,2.1917904335449525,-0.9085533491293594,-0.1807627153202782,0.0,12.463807907958966,10.561690058833129,213.5189212393084,209.30333672941043,0.0
0.107,2.166018448496869,-0.9301628913884579,0.22718394977504053,0.0,12.36682850760782,10.562355580374966,212.74878484312748,209.30333672941043,0.0
0.108,2.16047242407951,-0.9537078997468348,0.5777976667283351,0.0,12.281987454942803,10.58809699477684,211.6652562986786,209.30333672941043,0.0
0.109,2.169807407491766,-0.9792267237675987,1.0959427432600943,0.0,12.210776269543175,10.655187675301466,211.70301604643564,209.30333672941043,0.0
0.11,2.204386449783691,-1.0032023271069375,1.0530660762113242,0.0,12.15577739886309,10.694839940274992,211.3272360886997,209.30333672941043,0.0
0.111,2.224127128132519,-1.0242530558909129,1.2207170614864036,0.0,12.11231946588121,10.742071782538451,210.54334347869911,209.30333672941043,0.0
0.112,2.255202856221053,-1.020407922560012,1.6002632989938057,0.0,12.077297038469627,10.817087300244193,210.63388738195866,209.30333672941043,0.0
0.113,2.288167243227871,-1.0366710285211918,1.5416858408385514,0.0,12.055105798558813,10.867544715376185,208.9810472601672,209.30333672941043,0.0
0.114,2.326628113244998,-1.018250068749034,2.371328796426712,0.0,12.037990487517732,10.998682712868328,210.01818179990602,209.30333672941043,0.0
0.115,2.3888143477207695,-1.0355619988262845,1.8456130758523486,0.0,12.037789029236192,11.042414343595924,207.13203297487047,209.30333672941043,0.0
0.116,2.433534959241568,-1.0039622676725406,3.3104005259155223,0.0,12.038331790127879,11.243839037212767,209.2308088064851,209.30333672941043,0.0
0.117,2.5319573862805695,-1.0267904408697328,2.26173788933746,0.0,12.061789840655317,11.284795512173798,205.72337304636724,209.30333672941043,0.0
0.11800000000000001,2.5863785555400924,-0.9850393973338011,4.0512554062268205,0.0,12.082176837105182,11.526333593566921,207.62884819549777,209.30333672941043,0.0
0.11900000000000001,2.707458194749008,-1.0074226110071878,3.1152627170006855,0.0,12.127558605988812,11.612127646861568,205.4803813942606,209.30333672941043,0.0
0.12,2.7913352050545908,-0.9665193423636917,4.227725670970765,0.0,12.172258411626016,11.817595648802552,205.39447586919385,209.30333672941043,0.0
0.121,2.9016293583323076,-0.9761224483542891,4.309767042106306,0.0,12.234500411239008,11.993593165640878,206.12632952535375,209.30333672941043,0.0
0.122,3.030045613108239,-0.9445025724900871,3.9756102860669227,0.0,12.304543745169564,12.107614627388406,202.47449109927732,209.30333672941043,0.0
0.123,3.1182831960993753,-0.913069687235267,5.869817955406473,0.0,12.375843473262425,12.420520715960718,204.27159057443964,209.30333672941043,0.0
0.124,3.2953097345936104,-0.9250441795090178,5.0215856793750175,0.0,12.472935360405893,12.578427998023768,204.306883366263,209.30333672941043,0.0
0.125,3.4293546291395614,-0.8888568377814487,5.053903817094809,0.0,12.572008434528549,12.729316385489243,200.50868366486637,209.30333672941043,0.0
0.126,3.5466771689508816,-0.8472500531865934,7.040950198438569,0.0,12.67204816709733,13.081710131757266,201.73256401771872,209.30333672941043,0.0
0.127,3.752054897934882,-0.8621983283262629,6.504717749129313,0.0,12.79938367914735,13.308594118627786,202.7628271718403,209.30333672941043,0.0
0.128,3.9258138963821008,-0.8432343330448044,6.0549912676442155,0.0,12.934438516447056,13.46435595700663,203.01131562125667,209.30333672941043,0.0
0.129,4.064068777216474,-0.7902726687325259,5.9936672540175735,0.0,13.065927910733144,13.602328271686174,200.59238521262472,209.30333672941043,0.0
0.13,4.188618131164136,-0.7270690746137962,7.290241973501407,0.0,13.19164281834864,13.87057087347996,196.85550261949265,209.30333672941043,0.0
0.131,4.370334793859923,-0.7045262290174024,9.283161611166618,0.0,13.329762818307547,14.31207277944719,197.5848646261778,209.30333672941043,0.0
0.132,4.652435362983333,-0.7274219568787348,9.035665328856375,0.0,13.500964967387993,14.646868811406193,197.5462400672052,209.30333672941043,0.0
0.133,4.909484767170971,-0.7239062813730477,9.172548574964729,0.0,13.687910823172064,14.957383146202957,199.99371206370327,209.30333672941043,0.0
0.134,5.134273942574348,-0.730525700667235,8.04190882337276,0.0,13.887976819734817,15.107645112709754,206.27500237409382,209.30333672941043,0.0
0.135,5.213439126491925,-0.7964075287928312,4.931547011730653,0.0,14.090243220192852,14.925593801980536,212.22899019553196,209.30333672941043,0.0
0.136,5.090902848818993,-0.80251507800851,1.9252965663503638,0.0,14.25409086166463,14.496660973877836,215.98936301567878,209.30333672941043,0.0
0.137,4.811113411748546,-0.7321304972139504,-0.021750106585726403,0.0,14.3508570767994,13.972445038464434,216.89338170444947,209.30333672941043,0.0
