timestamp,iq,id,iq_ref,id_ref,vq,vd,omega,omega_ref,r
0.0,0.0,0.0,0.0,0.0,0.0,0.0,0.0,290.3000052170006,0.0
0.001,0.0,0.0,10.0,0.0,0.0,1.0999999999999999,11.992952012818504,290.3000052170006,0.0
0.002,0.5502174761498264,-0.2928132635869891,10.0,0.0,0.14220945899456874,1.929476077623519,20.721679499168502,290.3000052170006,0.0
0.003,1.183927677858416,-0.6583632576882454,10.0,0.0,0.39042794656730084,2.6260195459576954,30.406742849086967,290.3000052170006,0.0
0.004,1.7740219369288388,-0.9860441083239726,10.0,0.0,0.7158683258450945,3.2191572497350687,40.54911110927199,290.3000052170006,0.0
0.005,2.2641400698185974,-1.2612872111238882,10.0,0.0,1.09507837037448,3.7375131690353145,50.656125973340906,290.3000052170006,0.0
0.006,2.653365203695747,-1.4775946584675694,10.0,0.0,1.5092443905607575,4.204040917460884,60.963521654793055,290.3000052170006,0.0
0.007,2.955872133452371,-1.6444325697200386,10.0,0.0,1.9448356793352986,4.635948982128067,71.16691560752417,290.3000052170006,0.0
0.008,3.1913090188837643,-1.7727589722590622,10.0,0.0,2.3925061708658717,5.045352381106101,81.37654700943138,290.3000052170006,0.0
0.009000000000000001,3.3779909629176834,-1.8727948702751052,10.0,0.0,2.8460706378975646,5.440401844349968,91.51087098226537,290.3000052170006,0.0
0.01,3.5306861137926067,-1.9528560945623343,10.0,0.0,3.3015899802419115,5.82637316081672,101.5515948342667,290.3000052170006,0.0
0.011,3.6606072442859845,-2.0187361249466607,10.0,0.0,3.756600711097901,6.206534907025706,111.47213656939495,290.3000052170006,0.0
0.012,3.7756850313505526,-2.0744027664726294,10.0,0.0,4.209591073753205,6.582822206427226,121.24415066887272,290.3000052170006,0.0
0.013000000000000001,3.881434095538516,-2.122206882953401,10.0,0.0,4.659612916480754,6.956298192964091,130.83752994159715,290.3000052170006,0.0
0.014,3.981616306746788,-2.1633669951617094,10.0,0.0,5.1060297447673415,7.327466212528996,140.217971906405,290.3000052170006,0.0
0.015,4.078836586684561,-2.1982840522309766,10.0,0.0,5.548350967337296,7.696466704284996,149.3479055865953,290.3000052170006,0.0
0.016,4.174972729815278,-2.2268121338158346,10.0,0.0,5.986129035229498,8.06319649617739,158.18616084147754,290.3000052170006,0.0
0.017,4.271479114439917,-2.2484543297760253,10.0,0.0,6.418897636261493,8.427376774792366,166.6888330543492,290.3000052170006,0.0
0.018000000000000002,4.369583631190858,-2.262510674976216,10.0,0.0,6.846137181064204,8.78858945265268,174.81015600966745,290.3000052170006,0.0
0.019,4.47040538568117,-2.268190448370727,10.0,0.0,7.267258250794068,9.146295469380815,182.47579743429645,290.3000052170006,0.0
0.02,4.5750347994322045,-2.2646680196778006,10.0,0.0,7.681593550333592,9.499841973441407,189.65026025061894,290.3000052170006,0.0
0.021,4.684522259469594,-2.251206263586299,10.0,0.0,8.088404401442087,9.848470030583291,196.32793183179942,290.3000052170006,0.0
0.022,4.799830281437011,-2.227282953445269,10.0,0.0,8.486900026599324,10.191327359305799,202.44723480175355,290.3000052170006,0.0
0.023,4.921927747557397,-2.192445474698931,10.0,0.0,8.8762389325524,10.527470876618207,208.30480219207482,290.3000052170006,0.0
0.024,5.05183819891271,-2.1462218489189446,10.0,0.0,9.255522075593078,10.855864757806799,213.09671280786145,290.3000052170006,0.0
0.025,5.190008033850662,-2.0890703747051367,10.0,0.0,9.623891866542825,11.175447987850983,217.41961097479196,290.3000052170006,0.0
0.026000000000000002,5.336910418652275,-2.021435247204685,10.0,0.0,9.980514652119105,11.485132310006925,221.05428723295927,290.3000052170006,0.0
0.027,5.493393471841572,-1.9430447449388497,10.0,0.0,10.324496987379115,11.783766366502093,224.0952955565183,290.3000052170006,0.0
0.028,5.6591591672954635,-1.8553597573363796,10.0,0.0,10.655083051149024,12.070265854905704,226.51940659190387,290.3000052170006,0.0
0.029,5.834540182337712,-1.758649025755652,10.0,0.0,10.971499126784451,12.343539746145844,228.34908544148593,290.3000052170006,0.0
0.03,6.019005114648759,-1.654355907028254,10.0,0.0,11.273095848236139,12.602590523421721,229.62145418107147,290.3000052170006,0.0
0.031,6.212225972830448,-1.543353398238803,10.0,0.0,11.559270630490683,12.846486250038303,230.35595768148463,290.3000052170006,0.0
0.032,6.4134870653648495,-1.4268712926964429,10.0,0.0,11.829514500659664,13.074403370621706,230.59771619030096,290.3000052170006,0.0
0.033,6.621965264474356,-1.3060465948988607,10.0,0.0,12.083399800167781,13.285633175186971,230.39776684166895,290.3000052170006,0.0
0.034,6.8367504874393585,-1.1818885908279877,10.0,0.0,12.320570416711787,13.479586936711463,236.4051899928767,290.3000052170006,0.0
0.035,7.020372037486762,-1.1172167038943686,10.0,0.0,12.547547020231853,13.659811865462347,245.29456670089218,290.3000052170006,0.0
0.036000000000000004,7.1328972590392805,-1.1670126367901656,10.0,0.0,12.775972727762879,13.834170402819845,250.2413742510923,290.3000052170006,0.0
0.037,7.203368624853033,-1.2753220281720625,10.0,0.0,13.010407791999604,14.00730905917071,261.67745019707974,290.3000052170006,0.0
0.038,7.240960454253182,-1.4247399283547884,10.0,0.0,13.254066090554018,14.183146968734274,272.9963357041099,290.3000052170006,0.0
0.039,7.275980775388156,-1.5611491087557812,10.0,0.0,13.504453181051636,14.362290600166089,280.1371905580392,290.3000052170006,0.0
0.04,7.282399993970104,-1.7286461737905032,10.0,0.0,13.764776510992476,14.548202666671816,294.1501257225705,290.3000052170006,0.0
0.041,7.274049330803583,-1.9041830716110613,2.967371062182953,0.0,14.035292802699725,13.968949441495313,293.9276563652657,290.3000052170006,0.0
0.042,6.87112640573106,-1.8779793992722955,3.0423292293527116,0.0,14.216194369783121,13.597482870900343,300.8920331118091,290.3000052170006,0.0
0.043000000000000003,6.37499871936771,-1.8553065458344564,-0.5457794228670707,0.0,14.339627145943915,12.936356396906582,300.5347459173948,290.3000052170006,0.0
0.044,5.728010326050935,-1.7156285515276046,-0.4694832326638574,0.0,14.369466146249868,12.46416696177403,302.3321777782389,290.3000052170006,0.0
0.045,5.1013730908166774,-1.614418214027981,-1.4885208886982824,0.0,14.339365945830092,11.991783478062118,301.6195285605796,290.3000052170006,0.0
0.046,4.517937411281184,-1.5026857621376637,-1.2453915133044484,0.0,14.253758950748153,11.658474482929641,301.4601068598312,290.3000052170006,0.0
0.047,4.032754204038054,-1.4344288823761675,-1.2772816793585564,0.0,14.136990823406304,11.391532271783724,300.333548947259,290.3000052170006,0.0
0.048,3.6451824314398618,-1.388859925613991,-0.8143381603750139,0.0,14.000875271237826,11.228631220680313,299.5436190059862,290.3000052170006,0.0
0.049,3.3637713741927895,-1.3759797241408591,-0.511809327628491,0.0,13.861120036581426,11.12413695445387,298.3324962222096,290.3000052170006,0.0
0.05,3.169574032575163,-1.3811105681360742,0.013427154207720449,0.0,13.72558409362223,11.089414913064422,297.58633263302113,290.3000052170006,0.0
0.051000000000000004,3.0559213526366666,-1.401283509044457,0.31364567464175686,0.0,13.602297255879977,11.082942975324436,295.62682716227135,290.3000052170006,0.0
0.052000000000000005,2.9974750277995725,-1.423207212648372,1.2401301905639373,0.0,13.4929017861253,11.168993228064016,294.69372819707263,290.3000052170006,0.0
0.053,3.014411621992457,-1.4555665226865766,1.6627424433625788,0.0,13.40639117568821,11.270273922593217,293.29456414030955,290.3000052170006,0.0
0.054,3.0731410346724872,-1.4874139269202522,2.332378882511031,0.0,13.341839317113072,11.415918502951254,292.6116306567552,290.3000052170006,0.0
0.055,3.1812967860840455,-1.5062840104420763,2.6507293698906533,0.0,13.300064337576314,11.557555790107779,291.669313558868,290.3000052170006,0.0
0.056,3.2992297842468363,-1.5273627243015946,3.1081948354155857,0.0,13.278760542398214,11.716098474645129,288.735099599478,290.3000052170006,0.0
0.057,3.452107920374087,-1.5096541622022077,4.590950871285801,0.0,13.273282666222132,11.999547755509035,291.20977096574035,290.3000052170006,0.0
0.058,3.664323563565623,-1.5313841050357846,3.3445175306672397,0.0,13.299264885082739,12.080354153452408,283.53784043620743,290.3000052170006,0.0
0.059000000000000004,3.825787896975231,-1.477495102487048,7.248104443241629,0.0,13.324584432142917,12.58189810703373,289.98173906512613,290.3000052170006,0.0
0.06,4.159977407234489,-1.514337455815808,4.029337790301022,0.0,13.40211796874687,12.6075732162193,279.912010778966,290.3000052170006,0.0
0.061,4.356069270597246,-1.4365444062814041,9.168081877761423,0.0,13.465540003626913,13.21765547442945,288.4672460795267,290.3000052170006,0.0
0.062,4.762654389059694,-1.480493867948823,4.908791818855816,0.0,13.58924043211872,13.210398918555128,278.0574263662192,290.3000052170006,0.0
0.063,4.995108020031987,-1.3631091929762487,10.0,0.0,13.686493353310262,13.797359813410008,283.2970499469197,290.3000052170006,0.0
0.064,5.403353590658305,-1.3914747377725742,7.681622677087607,0.0,13.83701112854546,13.986833847107578,279.94637518372895,290.3000052170006,0.0
0.065,5.751318940939116,-1.2944544894202465,9.460496359015693,0.0,13.980468646860169,14.357078400375496,276.47270160138874,290.3000052170006,0.0
0.066,6.1182243243739185,-1.262778012984692,10.0,0.0,14.144090658745814,14.709320975162067,278.62090413957463,290.3000052170006,0.0
0.067,6.527429626536214,-1.1937519505275038,10.0,0.0,14.319298624815625,14.995962927845198,274.639442158678,290.3000052170006,0.0
0.068,6.924754163350435,-1.096014478553288,10.0,0.0,14.495589128254169,15.231847835839057,268.7541600382303,290.3000052170006,0.0
0.069,7.277640987792917,-1.0085306597766799,10.0,0.0,14.669193226802555,15.426928998056852,278.2955295598462,290.3000052170006,0.0
0.07,7.584092312285794,-0.9419392359445907,10.0,0.0,14.838494813284123,15.589681676457916,286.47529950209207,290.3000052170006,0.0
0.07100000000000001,7.759950431140193,-1.0319726621338114,6.769119408886948,0.0,15.01771110007678,15.381412500815538,289.135903612457,290.3000052170006,0.0
0.07200000000000001,7.670218146424567,-1.121259059957242,5.450458369749913,0.0,15.167100010124612,15.110777095529986,296.49756060412653,290.3000052170006,0.0
0.073,7.424034214724039,-1.1961615479947225,1.7076543200438934,0.0,15.281832898344993,14.509805196341379,300.46322159944543,290.3000052170006,0.0
0.074,6.955603322264227,-1.1560680634549123,-0.37680834144000386,0.0,15.319835999644724,13.837606482481073,300.26554352170535,290.3000052170006,0.0
0.075,6.332013037549085,-1.0930679321522714,-0.377624685617012,0.0,15.28028983983056,13.321093401286214,302.73587408834396,290.3000052170006,0.0
0.076,5.737887335302538,-1.0453939342861287,-1.7371486576497501,0.0,15.188432849426079,12.761855463147555,302.5142620706548,290.3000052170006,0.0
0.077,5.144909458120496,-0.999059189006184,-1.748485217341715,0.0,15.045217682246044,12.320990147404087,303.0600655960994,290.3000052170006,0.0
0.078,4.621992000545795,-0.9843068549424958,-2.1489875838549874,0.0,14.871078090915463,11.917539093358819,302.0981125574269,290.3000052170006,0.0
0.079,4.161422815248078,-0.9851151252939208,-1.7859921379229977,0.0,14.6742437863927,11.626387144109673,301.62508660623354,290.3000052170006,0.0
0.08,3.7930173468805486,-1.0150441227788383,-1.6627299762186594,0.0,14.471261824417134,11.390514752328777,300.60523290291167,290.3000052170006,0.0
0.081,3.500155703831072,-1.0617590030777218,-1.2558554014168344,0.0,14.26983016631906,11.229985711191336,299.77579653461635,290.3000052170006,0.0
0.082,3.2833992496288147,-1.1228518053578695,-0.9358951304453322,0.0,14.078741829364876,11.117407885948431,298.7018687765181,290.3000052170006,0.0
0.083,3.1271488926278814,-1.1897105408158724,-0.48294988699138175,0.0,13.902248076459397,11.058623358332696,297.47968619943674,290.3000052170006,0.0
0.084,3.0266974033149894,-1.2581951562302796,0.05634459172493411,0.0,13.744389966423903,11.052348008666652,297.0181917535826,290.3000052170006,0.0
0.085,2.9782319697985846,-1.326256034548845,0.21990994928619312,0.0,13.608491982886248,11.047840310301918,295.549998307243,290.3000052170006,0.0
0.08600000000000001,2.954304779060332,-1.3800598877281174,0.9015067415535536,0.0,13.490970842932414,11.105680913639723,294.1561101360168,290.3000052170006,0.0
0.08700000000000001,2.9744507378985885,-1.427013464054348,1.5598897779764886,0.0,13.395612732171845,11.20913618135263,293.1021333249121,290.3000052170006,0.0
0.088,3.036310912379364,-1.471720645054154,2.058856902449747,0.0,13.324584213405334,11.334409504941519,292.0064484428467,290.3000052170006,0.0
0.089,3.1329455846949985,-1.500400615548388,2.589634911223971,0.0,13.275893603818735,11.483437341805384,291.95118499919624,290.3000052170006,0.0
0.09,3.252192943310444,-1.5257423430219788,2.600754835227245,0.0,13.249475629194333,11.596457882852274,287.98666722400685,290.3000052170006,0.0
0.091,3.3740256475661523,-1.5151935524803601,4.606147102751879,0.0,13.235587721902743,11.903807398637742,292.19426565297107,290.3000052170006,0.0
0.092,3.592489838185834,-1.533343553358264,2.483405283910065,0.0,13.255925544920851,11.902664915442049,283.00293151844875,290.3000052170006,0.0
0.093,3.7024388690702894,-1.4807618063657535,7.152043088156745,0.0,13.268149845139622,12.428538288032197,290.0293899255702,290.3000052170006,0.0
0.094,4.034357490818513,-1.511422837507772,3.6415200375103365,0.0,13.33563758349107,12.434791281688176,279.92794740510203,290.3000052170006,0.0
0.095,4.209322995390057,-1.444733776813913,8.795961875863393,0.0,13.38935944038524,13.033334563253616,287.89855152071783,290.3000052170006,0.0
0.096,4.60689142162448,-1.4817160250984245,4.83467435501832,0.0,13.502298377664761,13.048126784835365,278.0759914434425,290.3000052170006,0.0
0.097,4.835386673991938,-1.3846896780055975,9.868194531391573,0.0,13.59437992271145,13.644874979098326,283.9850163018537,290.3000052170006,0.0
0.098,5.2515841485211325,-1.4150954772120279,6.976831991337434,0.0,13.741243034063412,13.779274657595439,278.6579630379285,290.3000052170006,0.0
0.099,5.570036222069583,-1.3116849540100273,9.756779045090767,0.0,13.875180586585595,14.218760727346398,277.8041483482551,290.3000052170006,0.0
0.1,5.949964724077721,-1.304338897077681,10.0,0.0,14.03989902980012,14.588039165391557,279.85868558186905,290.3000052170006,0.0
0.101,6.377625137869224,-1.2381488803477296,9.379616638986953,0.0,14.217866031226738,14.822943864196139,272.07289348921176,290.3000052170006,0.0
0.10200000000000001,6.748281630158265,-1.1366749755907257,10.0,0.0,14.39102657303518,15.090105186570613,270.209382516691,290.3000052170006,0.0
0.10300000000000001,7.093606793193171,-1.0667767115263413,10.0,0.0,14.566913122900711,15.307383394267402,271.40000271708874,290.3000052170006,0.0
0.10400000000000001,7.4439903083482255,-0.9440953062073936,10.0,0.0,14.73414286660493,15.48543350114436,282.8297002627064,290.3000052170006,0.0
0.105,7.677135979509572,-0.9681010987094987,8.301093589187165,0.0,14.906322097854845,15.453379677838434,285.57951967422844,290.3000052170006,0.0
0.106,7.704627449632756,-1.0730758936538836,6.973388738853872,0.0,15.069385193168038,15.311998085557626,293.5237326812905,290.3000052170006,0.0
0.107,7.576356138316363,-1.191294162872023,2.96904496067995,0.0,15.21395808138638,14.788244953886451,299.44510808203177,290.3000052170006,0.0
0.108,7.204710230677476,-1.1787976357028178,-0.08309376834100313,0.0,15.28914156693498,14.075230938520775,298.57106749942125,290.3000052170006,0.0
0.109,6.600431894280946,-1.1153619329723872,0.27121590014004937,0.0,15.278652340363486,13.573286281996882,301.85240481312474,290.3000052170006,0.0
0.11,6.016035887421838,-1.071583590419256,-1.484976752672936,0.0,15.214836310143223,12.982003657364523,302.096406591299,290.3000052170006,0.0
0.111,5.407940531043297,-1.014636963023226,-1.7249416555030521,0.0,15.092447274893717,12.495680008523241,302.41555052256035,290.3000052170006,0.0
0.112,4.849442912562432,-0.9856666666014294,-2.005669074189326,0.0,14.931047511952587,12.07262323848306,301.94963457871165,290.3000052170006,0.0
0.113,4.358852287453333,-0.9772798592088959,-1.889207395882086,0.0,14.7428492024526,11.73973022053063,301.39120085051667,290.3000052170006,0.0
0.114,3.9522753231286396,-0.996711005988004,-1.720902488119755,0.0,14.542402716326999,11.47847315631886,300.565358320297,290.3000052170006,0.0
0.115,3.62713765829576,-1.0368174231160978,-1.4106347540428748,0.0,14.340092566809075,11.28744292507491,299.66923382752003,290.3000052170006,0.0
0.116,3.378740377115954,-1.092996308956389,-1.0562647937595946,0.0,14.144689022389699,11.1552350445754,298.81490250264847,290.3000052170006,0.0
0.117,3.197210524216724,-1.1590284469561962,-0.7142481041802902,0.0,13.962306790683888,11.068270044941912,297.6611507441251,290.3000052170006,0.0
0.11800000000000001,3.070498499652045,-1.2265924381124576,-0.21098368018985747,0.0,13.796237999832499,11.035825266017468,296.6785019625787,290.3000052170006,0.0
0.11900000000000001,2.996497735825324,-1.2946602744303752,0.21655574312756265,0.0,13.650343432257209,11.03888774200064,296.0071514989136,290.3000052170006,0.0
0.12,2.964684529191046,-1.3569544456650582,0.49515951214099996,0.0,13.525516249510408,11.056184979077768,294.30259187271196,290.3000052170006,0.0
0.121,2.959443189534527,-1.4058071195151376,1.3074134586846942,0.0,13.419652361157155,11.146090085898054,293.3405165459965,290.3000052170006,0.0
0.122,3.0041244826469264,-1.4515611339014327,1.7580460087524745,0.0,13.337909787165255,11.252897978604071,291.98920473992604,290.3000052170006,0.0
0.123,3.078633329691412,-1.4900736826326868,2.416809916558441,0.0,13.278801100059717,11.401059368754506,291.618295206475,290.3000052170006,0.0
0.124,3.195475365664489,-1.510550149364981,2.5890817833892097,0.0,13.242286706533012,11.528748481966076,290.15981098646694,290.3000052170006,0.0
0.125,3.309347631264232,-1.5286263601636807,3.319725835698584,0.0,13.223976282200676,11.707307842733302,288.25596155840157,290.3000052170006,0.0
0.126,3.470443365886034,-1.5126645502960385,4.29209098631726,0.0,13.223416275184867,11.94925214288313,289.32716426300186,290.3000052170006,0.0
0.127,3.6633462254264484,-1.5273363936092303,3.7662180435570995,0.0,13.248880219748749,12.079767979903362,283.330198256639,290.3000052170006,0.0
0.128,3.843491642412769,-1.4774071160583755,6.83439911634215,0.0,13.279210414594537,12.524650307838826,288.42785284663864,290.3000052170006,0.0
0.129,4.154749691591986,-1.5065665444333094,4.304293345045944,0.0,13.354702652646044,12.58664704565504,279.1684486213662,290.3000052170006,0.0
0.13,4.361549580375606,-1.4293995783447226,9.045311023638497,0.0,13.420065380120533,13.177170928578514,286.7211528118494,290.3000052170006,0.0
0.131,4.7607144917482636,-1.4731844334553177,5.304747452448432,0.0,13.543532226862968,13.214466384977108,277.7591080075193,290.3000052170006,0.0
0.132,5.012394337481487,-1.3659671817723205,9.911178826708298,0.0,13.646150188334783,13.780798933373635,282.18358721885244,290.3000052170006,0.0
0.133,5.418175521314134,-1.394191417715279,7.780103401023197,0.0,13.799316446969623,13.978158280745483,279.4069243347098,290.3000052170006,0.0
0.134,5.7677004880030465,-1.299549548656771,9.277365651917425,0.0,13.946209166522305,14.32271798660139,275.49910377985685,290.3000052170006,0.0
0.135,6.124266610631607,-1.2582760388091452,10.0,0.0,14.10927491731265,14.676301125784855,277.5644889500324,290.3000052170006,0.0
0.136,6.52576570117166,-1.1907092503475716,10.0,0.0,14.284372795310013,14.963006943915072,274.1040109997783,290.3000052170006,0.0
0.137,6.919532850802059,-1.093765110847226,10.0,0.0,14.46064327986024,15.19925257247806,268.4018002508502,290.3000052170006,0.0
0.138,7.273199234171177,-1.0028648797553532,10.0,0.0,14.633881694786636,15.394535055965463,277.92962525434956,290.3000052170006,0.0
0.139,7.571693213529952,-0.9488779187491572,10.0,0.0,14.804294953169368,15.558315458701,286.49924865656277,290.3000052170006,0.0
0.14,7.747720100659823,-1.038060258431344,6.346935714760478,0.0,14.98439485296249,15.304544057834207,288.5157183288209,290.3000052170006,0.0
0.14100000000000001,7.636137853571336,-1.1128042270670657,5.356543747513197,0.0,15.128437635842724,15.035781629539635,295.2060779341349,290.3000052170006,0.0
