timestamp,iq,id,iq_ref,id_ref,vq,vd,omega,omega_ref,r
0.0,0.0,0.0,0.0,0.0,0.0,0.0,0.0,363.05526241949764,0.0
0.001,0.0,0.0,10.0,0.0,0.0,1.0999999999999999,13.895189473087363,363.05526241949764,0.0
0.002,1.1724331431737962,-0.6695082723129128,10.0,0.0,0.18364590995442046,1.8610323542508822,29.564813652254248,363.05526241949764,0.0
0.003,2.2323969961104213,-1.271704424332092,10.0,0.0,0.48457695833746767,2.4594543716808275,45.99275860525671,363.05526241949764,0.0
0.004,3.0100329440728166,-1.710991658364378,10.0,0.0,0.8575567378485643,2.953186976459586,62.85454738686204,363.05526241949764,0.0
0.005,3.5417717551763284,-2.009153709527818,10.0,0.0,1.2710167531740824,3.384129388969815,79.82276657636207,363.05526241949764,0.0
0.006,3.9028166426439017,-2.20898551101454,10.0,0.0,1.7052248858699768,3.7789260122511763,96.68865483831338,363.05526241949764,0.0
0.007,4.156652363960981,-2.3466941568182658,10.0,0.0,2.14864150064796,4.153352306003788,113.55993220572158,363.05526241949764,0.0
0.008,4.346955550290903,-2.4462846867307473,10.0,0.0,2.594736955155743,4.516282638575816,130.05707811286257,363.05526241949764,0.0
0.009000000000000001,4.501114406308097,-2.521696047266109,10.0,0.0,3.039815241829715,4.872475041042825,146.33547327009086,363.05526241949764,0.0
0.01,4.635108009961825,-2.580859061364693,10.0,0.0,3.481758758028481,5.2243583240887945,162.3786297251064,363.05526241949764,0.0
0.011,4.7587485715894555,-2.6267765263821143,10.0,0.0,3.9191555419228976,5.572987104707542,177.56277762823376,363.05526241949764,0.0
0.012,4.878501465521542,-2.6594344614991328,10.0,0.0,4.350808723702446,5.918556272937601,192.67303005009362,363.05526241949764,0.0
0.013000000000000001,4.998215905036849,-2.6786616408952124,10.0,0.0,4.775641914509444,6.260762783115246,207.1370034499608,363.05526241949764,0.0
0.014,5.121289185358474,-2.6828585011961827,10.0,0.0,5.1924818200926515,6.598891044915602,220.8143531766994,363.05526241949764,0.0
0.015,5.250935062122997,-2.6698278126565573,10.0,0.0,5.599975216955206,6.931860157453363,233.29467301756685,363.05526241949764,0.0
0.016,5.391163532378467,-2.6358176800287962,10.0,0.0,5.996405377681623,7.258153025463145,245.5224167627479,363.05526241949764,0.0
0.017,5.541653306396218,-2.5842417910727757,10.0,0.0,6.380488562677494,7.576308032305192,256.5342767986654,363.05526241949764,0.0
0.018000000000000002,5.70579612109363,-2.512584548961838,10.0,0.0,6.750612392115337,7.884505045086086,265.97038260574243,363.05526241949764,0.0
0.019,5.887083916776527,-2.418055588546957,10.0,0.0,7.10486192666296,8.180594510154531,274.763097178468,363.05526241949764,0.0
0.02,6.0821992677433805,-2.3088780120948593,10.0,0.0,7.442231210457082,8.462850171521364,281.73955249893214,363.05526241949764,0.0
0.021,6.297748073072647,-2.176765915197698,10.0,0.0,7.76064857711431,8.728857980054379,287.19236567410843,363.05526241949764,0.0
0.022,6.528001626820871,-2.0327426392330104,10.0,0.0,8.05930354857197,8.976934341540804,292.3607559622844,363.05526241949764,0.0
0.023,6.781035447501184,-1.8646589748414248,10.0,0.0,8.335851688709079,9.204537379287004,292.3901719992372,363.05526241949764,0.0
0.024,7.035345426867483,-1.7080506904058153,10.0,0.0,8.591959243963098,9.411591167748796,293.5230894207353,363.05526241949764,0.0
0.025,7.326248527553236,-1.5039267727659755,10.0,0.0,8.822273874441866,9.594094091608044,289.7597542351459,363.05526241949764,0.0
0.026000000000000002,7.596900732568045,-1.3443214307511262,10.0,0.0,9.032291985813446,9.754515474584473,296.56155419557837,363.05526241949764,0.0
0.027,7.898638588920056,-1.14245641153349,10.0,0.0,9.216741325651725,9.889411888251843,297.9738679748124,363.05526241949764,0.0
0.028,8.017566721381668,-1.2367755766513557,10.0,0.0,9.40862913122805,10.019198878529048,321.6460407756806,363.05526241949764,0.0
0.029,8.065504005390011,-1.410608126414723,10.0,0.0,9.612485244097254,10.151112130419866,328.77714495165856,363.05526241949764,0.0
0.03,8.081371068833482,-1.5989046175984645,10.0,0.0,9.8281213594012,10.288953664269824,351.3305075588143,363.05526241949764,0.0
0.031,8.053159536213116,-1.8278390090382954,9.849983181368035,0.0,10.059277834706291,10.421334745438335,362.30148488353296,363.05526241949764,0.0
0.032,7.976263908954852,-2.069897253280307,4.372032294368352,0.0,10.304893833549944,9.970695340309067,368.6238443785066,363.05526241949764,0.0
0.033,7.239130431397517,-1.9747163970794834,1.1551667272914496,0.0,10.467993815371795,9.37092149832735,374.63871106656484,363.05526241949764,0.0
0.034,6.165824496539051,-1.733462779846882,-1.9681011032083462,0.0,10.529220325479713,8.646736551100643,374.00193102734363,363.05526241949764,0.0
0.035,4.919135408036046,-1.3859128176463866,-1.759177769676202,0.0,10.47608773018444,8.18170973498768,372.8588236876066,363.05526241949764,0.0
0.036000000000000004,3.9697668786336977,-1.1633956393988927,-1.2856597124887852,0.0,10.36076432282218,7.899833741261003,371.4346408660085,363.05526241949764,0.0
0.037,3.3485233519844773,-1.0790688320797424,-0.6573620861548468,0.0,10.221734879800843,7.757833667133019,370.192269263148,363.05526241949764,0.0
0.038,2.9962760600062763,-1.0988262190042726,-0.10754635316107786,0.0,10.085424954303734,7.702862177332785,369.1895609841708,363.05526241949764,0.0
0.039,2.824672555109179,-1.1710934526101964,0.33246480068078865,0.0,9.965000694203718,7.698013826174432,367.7346975745594,363.05526241949764,0.0
0.04,2.7615753268907137,-1.2535803735843964,1.0131021539358667,0.0,9.864484913968973,7.757302541496612,367.2623122995944,363.05526241949764,0.0
0.041,2.797301014289316,-1.3434348352418624,1.2072242926174024,0.0,9.789008704862496,7.810597071089486,366.36941790732715,363.05526241949764,0.0
0.042,2.855169096093918,-1.396639403875468,1.6205299338727266,0.0,9.731363527559077,7.888528693839172,364.9875498895247,363.05526241949764,0.0
0.043000000000000003,2.9502005434930427,-1.4221100409647554,2.292141068073679,0.0,9.689545754654457,8.012772026537245,362.89286234450924,363.05526241949764,0.0
0.044,3.111753417651375,-1.4391761046217237,3.3411088413312937,0.0,9.66595665294148,8.212259090707951,359.783528604448,363.05526241949764,0.0
0.045,3.377945119060003,-1.4724423656846968,4.928493049512406,0.0,9.668163795897225,8.52589556504427,354.4610940026438,363.05526241949764,0.0
0.046,3.801567133105674,-1.5422045482294622,7.675652034583053,0.0,9.708855049460322,9.050766247987552,358.1821661181177,363.05526241949764,0.0
0.047,4.497102908074818,-1.6967904155927556,5.863846939859887,0.0,9.814271069545951,9.228176122616414,358.94073701177626,363.05526241949764,0.0
0.048,4.8913355125679905,-1.6466723463844144,5.525706747107829,0.0,9.919827628799357,9.342899012790896,359.29963794491084,363.05526241949764,0.0
0.049,5.142220033144049,-1.5034982565273787,5.383812525286409,0.0,10.011052851952678,9.420823336182007,352.57328246439016,363.05526241949764,0.0
0.05,5.337528078767399,-1.3211588927231372,8.851810065097823,0.0,10.08232239600988,9.864001381333999,348.04254468710883,363.05526241949764,0.0
0.051000000000000004,5.9647009293374715,-1.2814984388983184,10.0,0.0,10.188243533893877,10.294573560711157,352.6448544467898,363.05526241949764,0.0
0.052000000000000005,6.681456662946955,-1.3101592417281487,9.044909208327727,0.0,10.330179068776719,10.50356734731469,341.46055178220263,363.05526241949764,0.0
0.053,7.205625813651957,-1.2029980653870949,10.0,0.0,10.466746091405813,10.769975154505367,344.5883041843091,363.05526241949764,0.0
0.054,7.759362941281891,-1.083196275884315,10.0,0.0,10.604190607409173,10.958178582790925,334.24523129585816,363.05526241949764,0.0
0.055,8.263639806792694,-0.9110322890200852,10.0,0.0,10.728970993980711,11.091373035918375,345.657494687501,363.05526241949764,0.0
0.056,8.525056740345695,-1.0207619890297552,10.0,0.0,10.868384694077553,11.20001298835451,366.48186822134625,363.05526241949764,0.0
0.057,8.626184648456348,-1.251677202556186,2.5536328748283044,0.0,11.02902439589613,10.484120031231184,363.1201011655079,363.05526241949764,0.0
0.058,7.739083695785665,-1.1084527854957544,4.2338680152873795,0.0,11.083946993808608,10.213762260579147,372.377326123182,363.05526241949764,0.0
0.059000000000000004,7.081685237582311,-1.118360064448706,-0.48796510058651954,0.0,11.108863599720065,9.503171353508508,373.5486483289709,363.05526241949764,0.0
0.06,6.022710944393797,-0.9393922454604964,-1.1785600625757002,0.0,11.040443921455074,8.947297270744706,374.9139610418861,363.05526241949764,0.0
0.061,5.053442566912912,-0.803585261579552,-1.979803405257199,0.0,10.910129712703183,8.454967588946726,373.9506083745262,363.05526241949764,0.0
0.062,4.210467650156228,-0.7177811431326404,-1.6070805311275276,0.0,10.735533573456332,8.130885961102859,372.8023991524232,363.05526241949764,0.0
0.063,3.612482138267046,-0.7287135663585116,-1.1304472874052878,0.0,10.548049493089096,7.927803967327088,371.92906938213537,363.05526241949764,0.0
0.064,3.2281580635912275,-0.8121375086325516,-0.7825204718877385,0.0,10.36807293079889,7.796083175257326,370.86337792580633,363.05526241949764,0.0
0.065,2.983795699111907,-0.9258175162636297,-0.3277558987863083,0.0,10.204592506947407,7.729118260397467,369.8904377608555,363.05526241949764,0.0
0.066,2.844800690803634,-1.0524847489812434,0.0903624302755337,0.0,10.063560229517709,7.706792992373353,369.212482144585,363.05526241949764,0.0
0.067,2.7777136254814603,-1.173489092113497,0.36776804115990025,0.0,9.946442458445954,7.704920084417699,367.62822596493515,363.05526241949764,0.0
0.068,2.7502009649902237,-1.2656179351990238,1.114166495530453,0.0,9.849773302993885,7.773207986023165,367.5885292012337,363.05526241949764,0.0
0.069,2.8066188803236365,-1.3565931881468583,1.0886822095638138,0.0,9.778685842640975,7.8082518286312546,365.9322075007159,363.05526241949764,0.0
0.07,2.852319634162862,-1.392522153306592,1.8880736090105419,0.0,9.721253946222259,7.916407533973068,364.7449419532747,363.05526241949764,0.0
0.07100000000000001,2.9782639114844818,-1.4259730223057803,2.464809587393371,0.0,9.683701115917907,8.05005465979949,362.3592126347783,363.05526241949764,0.0
0.07200000000000001,3.16019169391034,-1.4450775301998924,3.664634744488751,0.0,9.665035268404997,8.274042584215866,359.239458910272,363.05526241949764,0.0
0.073,3.4581445136450832,-1.488650549621976,5.26266964183417,0.0,9.675236785142504,8.606595186229796,354.9080726416382,363.05526241949764,0.0
0.074,3.9145718511589083,-1.558502783065263,7.509834673929646,0.0,9.724921425892193,9.090893005343958,358.30019124975655,363.05526241949764,0.0
0.075,4.574339279631828,-1.6871161112957762,5.861326081567896,0.0,9.831516328249247,9.25991176738404,359.19468063647946,363.05526241949764,0.0
0.076,4.951588257374855,-1.6239247396800336,5.452687206036622,0.0,9.936116432414575,9.359323239803997,359.14614671873636,363.05526241949764,0.0
0.077,5.187244387873341,-1.4665156055610615,5.516045321915785,0.0,10.023514582368437,9.448159672323106,349.4871030286542,363.05526241949764,0.0
0.078,5.397327548295456,-1.2851178918277202,10.0,0.0,10.09267690340934,10.008701123674712,350.01356715493534,363.05526241949764,0.0
0.079,6.15793346094698,-1.3106248580454696,10.0,0.0,10.215596880902602,10.393699296426963,353.1286307356099,363.05526241949764,0.0
0.08,6.860050280760509,-1.3298215643564397,8.873767028151596,0.0,10.366581245953789,10.558977231697014,339.71551384761005,363.05526241949764,0.0
0.081,7.341155391854288,-1.1780703540328044,10.0,0.0,10.502110367828157,10.812073372544809,343.0535174526718,363.05526241949764,0.0
0.082,7.861448971801547,-1.056562613836832,10.0,0.0,10.637547852281545,10.989729239093517,336.65012933769185,363.05526241949764,0.0
0.083,8.356898995508862,-0.8680862986621856,10.0,0.0,10.757689857677217,11.11386670062436,350.28481511070095,363.05526241949764,0.0
0.084,8.550221624938665,-1.0628670266651672,10.0,0.0,10.901542051918476,11.221293627541485,369.4096146575185,363.05526241949764,0.0
0.085,8.633429963770114,-1.3021780495219106,1.1265095563549972,0.0,11.066128124661537,10.349059441412908,364.6555322797311,363.05526241949764,0.0
0.08600000000000001,7.558702009177081,-1.0886458608353313,3.4875480466463475,0.0,11.101150520533341,10.048008577933539,372.36125334715643,363.05526241949764,0.0
0.08700000000000001,6.8253344792380455,-1.056272522601149,-0.4583723963428987,0.0,11.101139845151133,9.392826555504922,374.5397285283108,363.05526241949764,0.0
0.088,5.81049803828799,-0.908961336998794,-1.6624546480082003,0.0,11.019731538030364,8.81447015773277,374.7247851951278,363.05526241949764,0.0
0.089,4.838119689191876,-0.7688624717284681,-1.8716782091730249,0.0,10.874690658520752,8.371648053805353,373.62129408236325,363.05526241949764,0.0
0.09,4.055422866861048,-0.7094589310039574,-1.425592969419395,0.0,10.69473825574236,8.086138551269695,372.6901669054153,363.05526241949764,0.0
0.091,3.5207140222942295,-0.7455701573137455,-1.0563784258046023,0.0,10.508796413289566,7.898328510788891,371.7826915897067,363.05526241949764,0.0
0.092,3.1717215666478804,-0.8381986758098098,-0.6899150596523884,0.0,10.332495775805443,7.780366196626916,370.7089430366839,363.05526241949764,0.0
0.093,2.951407313761771,-0.9548854648375742,-0.2295775893128389,0.0,10.173938232261623,7.724287181469566,369.82676357712,363.05526241949764,0.0
0.094,2.8290245968300485,-1.0816798292422987,0.14379712889287344,0.0,10.038409053750696,7.705687114106428,369.079426884366,363.05526241949764,0.0
0.095,2.7695170002427565,-1.1965134600343985,0.45722383062119176,0.0,9.92593654209763,7.711459334091852,367.4375129630571,363.05526241949764,0.0
0.096,2.751929019159455,-1.2833754084201328,1.2343582858400537,0.0,9.833694981622923,7.789097205923512,367.2940992219669,363.05526241949764,0.0
0.097,2.820987072024078,-1.3713053887129727,1.2636767883604465,0.0,9.767245042727206,7.837428559623647,365.90796460604525,363.05526241949764,0.0
0.098,2.8848638998770877,-1.4068830073304126,1.9282170744558016,0.0,9.715307471336068,7.9407521599742985,364.4251375419563,363.05526241949764,0.0
0.099,3.0115475298203145,-1.4304461488548128,2.6559318552756905,0.0,9.681132186500614,8.088656435164777,361.716430935099,363.05526241949764,0.0
0.1,3.2103475179340886,-1.4491502206187206,4.023673473548315,0.0,9.666986674146544,8.340926022161376,358.0923083821234,363.05526241949764,0.0
0.101,3.5432355194075313,-1.5046671166723011,5.885364290409868,0.0,9.68540248957579,8.723032992614005,355.9729284696162,363.05526241949764,0.0
0.10200000000000001,4.0652103733372975,-1.5924163964998452,7.015877586162289,0.0,9.749284672327875,9.12042204801091,358.14797710829384,363.05526241949764,0.0
0.10300000000000001,4.648802397288994,-1.6707123643294435,5.977426119935501,0.0,9.854252606007414,9.29995024780547,359.49636023068945,363.05526241949764,0.0
0.10400000000000001,5.017122849975488,-1.6006534309671834,5.338823580625781,0.0,9.958187123950315,9.377481326770733,358.93428408005036,363.05526241949764,0.0
0.105,5.232540304689703,-1.4282790314361102,5.661071439339797,0.0,10.041220703380658,9.479473323993698,346.6341050867361,363.05526241949764,0.0
0.106,5.461058474367512,-1.2453268454332334,10.0,0.0,10.107749128125256,10.03064631840547,349.5196419487412,363.05526241949764,0.0
0.107,6.222023017431407,-1.2690126024162698,10.0,0.0,10.227176964964737,10.408544652203666,350.6845775579878,363.05526241949764,0.0
0.108,6.921621338939257,-1.288698970958062,10.0,0.0,10.374380494469852,10.691249766370767,340.82211528712054,363.05526241949764,0.0
0.109,7.542860206514374,-1.1859284941477428,10.0,0.0,10.523632566306617,10.89906442985349,340.3576869205862,363.05526241949764,0.0
0.11,8.040879870430727,-1.0712010057969277,10.0,0.0,10.667148578357487,11.052453059816566,343.9167235841284,363.05526241949764,0.0
0.111,8.466318711675564,-0.9321026459302604,10.0,0.0,10.797498307497753,11.163036352090653,352.7170873699578,363.05526241949764,0.0
0.112,8.6244378495764,-1.1106067942349278,9.58325257325377,0.0,10.94689783286358,11.216615354352628,371.65840906043024,363.05526241949764,0.0
0.113,8.599501209268858,-1.3700385359139489,0.02656026160823366,0.0,11.113467756020672,10.237031950724282,366.1229517460075,363.05526241949764,0.0
0.114,7.3929549196047635,-1.0668306402060885,2.7636120255545,0.0,11.129475160554561,9.901177222384995,373.9102411840551,363.05526241949764,0.0
0.115,6.578885560376954,-1.011629859988246,-1.2385824811148725,0.0,11.107256344934253,9.210378960578359,374.41766325541226,363.05526241949764,0.0
0.116,5.5164229660067505,-0.8352920064815619,-1.605917525152596,0.0,10.999334428611753,8.694783925401333,374.5214216884769,363.05526241949764,0.0
0.117,4.610361289410157,-0.7281108870419204,-1.7724583343747016,0.0,10.840618655800505,8.294352222017634,373.4105035810316,363.05526241949764,0.0
0.11800000000000001,3.901745023556713,-0.7010310964901842,-1.320551692267398,0.0,10.655824324165717,8.038354422893118,372.529927292129,363.05526241949764,0.0
0.11900000000000001,3.424428341160032,-0.7590480540925171,-0.9750101965424105,0.0,10.47056230902373,7.868386141031351,371.67674036324996,363.05526241949764,0.0
0.12,3.1120317788681544,-0.8620764410555464,-0.6346315115404138,0.0,10.29758262019968,7.760465181262671,370.5066884290285,363.05526241949764,0.0
0.121,2.9125556449311283,-0.9800550171713328,-0.12411980452498428,0.0,10.143056163784271,7.717609258620286,369.8174999153134,363.05526241949764,0.0
0.122,2.8092022372571464,-1.107645274928521,0.1528520773743911,0.0,10.012551903338291,7.69832218604414,368.7007236246184,363.05526241949764,0.0
0.123,2.754079750059942,-1.2136706769931638,0.6547856106707055,0.0,9.90355625332884,7.725386304039567,367.30299469758603,363.05526241949764,0.0
0.124,2.7604325126833604,-1.3031695095852862,1.3111727514059948,0.0,9.816951197684363,7.804777666621877,367.0599201597718,363.05526241949764,0.0
0.125,2.838041052143356,-1.385295978914537,1.3926634429103575,0.0,9.755084707162865,7.8614960803252725,365.7242187867545,363.05526241949764,0.0
0.126,2.9139540367293946,-1.4168265352025593,2.033824565746461,0.0,9.707723803562239,7.968494477293238,364.0010756440681,363.05526241949764,0.0
0.127,3.0490600926215032,-1.4348026617172578,2.8859380048439327,0.0,9.677460898372212,8.133275274974435,360.9952184669342,363.05526241949764,0.0
0.128,3.2696595639693133,-1.4556902642448468,4.409467032936527,0.0,9.668820238482192,8.414703879778381,356.53063574702367,363.05526241949764,0.0
0.129,3.641175559686806,-1.5210953276070462,6.707004659616535,0.0,9.696172186006137,8.865958641951355,357.09795487842274,363.05526241949764,0.0
0.13,4.247355332743328,-1.640849536653679,6.482918169327746,0.0,9.778433327356495,9.164233617381827,358.46673746480667,363.05526241949764,0.0
0.131,4.74615990322628,-1.6632467955063888,5.844412125682692,0.0,9.883562008498192,9.324105704483651,359.50488560317024,363.05526241949764,0.0
0.132,5.070400783456837,-1.5672292160976975,5.360841824664183,0.0,9.98337912391242,9.401017327193351,358.4336130687532,363.05526241949764,0.0
0.133,5.2781119557761125,-1.3894067535553676,5.942694585380158,0.0,10.06230539497063,9.52945318570963,343.8664420793538,363.05526241949764,0.0
0.134,5.546998895878254,-1.2083039055350877,10.0,0.0,10.12803953611784,10.065922701793081,349.51693107686884,363.05526241949764,0.0
0.135,6.304371428331441,-1.2340376684217809,10.0,0.0,10.245488957156406,10.43412351706788,348.18630815358296,363.05526241949764,0.0
0.136,6.999555336238739,-1.248961679628156,10.0,0.0,10.38939782122243,10.708352688373786,342.3083115490115,363.05526241949764,0.0
0.137,7.619373614941574,-1.1380017010459327,10.0,0.0,10.533983878256336,10.908321657377467,335.99115609227505,363.05526241949764,0.0
0.138,8.113906286883378,-1.0216694530991628,10.0,0.0,10.672421278998897,11.054551924057597,348.8460708877617,363.05526241949764,0.0
0.139,8.48940789457712,-0.9607225759043105,10.0,0.0,10.806097132323247,11.163643054017072,355.0081822984816,363.05526241949764,0.0
0.14,8.62576447770737,-1.157159078933486,8.441954455609258,0.0,10.959531997416274,11.092563438362674,371.0720216112082,363.05526241949764,0.0
0.14100000000000001,8.44778814961476,-1.3642491001042014,0.329867207328852,0.0,11.111330951733038,10.188127090837567,367.6618772851031,363.05526241949764,0.0
