timestamp,iq,id,iq_ref,id_ref,vq,vd,omega,omega_ref,r
0.0,0.0,0.0,0.0,0.0,0.0,0.0,0.0,437.931599572279,0.0
0.001,0.0,0.0,10.0,0.0,0.0,1.0999999999999999,19.697145852424313,437.931599572279,0.0
0.002,0.426892177031738,-0.22807421386249918,10.0,0.0,0.13508816352487496,1.9430418605265085,39.21679714086323,437.931599572279,0.0
0.003,0.8650057092156987,-0.43940416715004393,10.0,0.0,0.36193724947291794,2.671364784582936,58.75782011051915,437.931599572279,0.0
0.004,1.2386728815586823,-0.6133173368108878,10.0,0.0,0.6559508683616172,3.312818071192636,78.89093439544126,437.931599572279,0.0
0.005,1.5433474778113039,-0.7473533424172547,10.0,0.0,0.997713282942508,3.8897498571658766,99.39980712362325,437.931599572279,0.0
0.006,1.7904334889140932,-0.8476706245397155,10.0,0.0,1.3726871756400412,4.419031990741103,120.06196890699285,437.931599572279,0.0
0.007,1.992772078300946,-0.9218974274926379,10.0,0.0,1.7702536679289405,4.913096915507034,140.71598315964195,437.931599572279,0.0
0.008,2.16130830666662,-0.976346244137257,10.0,0.0,2.1827171052669216,5.380996397798907,161.21543853001765,437.931599572279,0.0
0.009000000000000001,2.3046132406115944,-1.0156489072297394,10.0,0.0,2.6045029518740193,5.829274095145099,181.41299901316907,437.931599572279,0.0
0.01,2.429229415755055,-1.0429968509510856,10.0,0.0,3.0315532307334485,6.2626278774910515,201.15496378182982,437.931599572279,0.0
0.011,2.5401815415104028,-1.0604492920610797,10.0,0.0,3.4608801490264174,6.684392737406695,220.32662772767802,437.931599572279,0.0
0.012,2.641396228450369,-1.0692747332692232,10.0,0.0,3.890247135603448,7.0968897088542295,238.70856252303176,437.931599572279,0.0
0.013000000000000001,2.736192496291021,-1.0699589870909425,10.0,0.0,4.317914134175837,7.501658239221643,256.11677545903916,437.931599572279,0.0
0.014,2.827348181283571,-1.062719870146636,10.0,0.0,4.742488140525639,7.89963745373878,272.3792568332961,437.931599572279,0.0
0.015,2.9173682800696437,-1.0475128703149346,10.0,0.0,5.162802288880128,8.291285493422638,287.3357771906371,437.931599572279,0.0
0.016,3.0085614393930618,-1.0242065266440616,10.0,0.0,5.577838198562076,8.676669097435846,300.848932414131,437.931599572279,0.0
0.017,3.1030669209947375,-0.9927198710947841,10.0,0.0,5.986678409003439,9.055534260632978,312.81425758152255,437.931599572279,0.0
0.018000000000000002,3.2028431771734533,-0.953121012405622,10.0,0.0,6.388480106820063,9.427366595190893,323.1674475393608,437.931599572279,0.0
0.019,3.3096294944243603,-0.9056884910865876,10.0,0.0,6.782463279552616,9.791447133738865,331.8879461898331,437.931599572279,0.0
0.02,3.424897043747513,-0.8509321653383157,10.0,0.0,7.167907318247588,10.146906368452258,338.99859628034795,437.931599572279,0.0
0.021,3.549803979525318,-0.7895751076156234,10.0,0.0,7.544151163452391,10.492776996121478,344.5617479681327,437.931599572279,0.0
0.022,3.6851649180875232,-0.7225044363761604,10.0,0.0,7.910593483644522,10.828044311660197,348.67271792939584,437.931599572279,0.0
0.023,3.831439810930081,-0.6507038434196382,10.0,0.0,8.266690944858489,11.151692498837196,351.45195148475966,437.931599572279,0.0
0.024,3.988741733442917,-0.575183184487148,10.0,0.0,8.611954212115748,11.462745150869905,373.7613315824356,437.931599572279,0.0
0.025,4.1184341731780645,-0.5543774567007667,10.0,0.0,8.952262994383377,11.764525715279335,397.40424619970696,437.931599572279,0.0
0.026000000000000002,4.207122690751157,-0.5887121659116663,10.0,0.0,9.292703830156247,12.061700288938887,422.69257896071855,437.931599572279,0.0
0.027,4.2746376220762325,-0.6435903486354098,10.0,0.0,9.634511292725291,12.35666173153975,449.4710004427737,437.931599572279,0.0
0.028,4.324465589555669,-0.7091917234498071,-2.474122256054684,0.0,9.978301522699857,11.279348400861927,454.33417827485414,437.931599572279,0.0
0.029,3.820254187503456,-0.5344066696994509,-5.069736959120662,0.0,10.160099026948506,10.239330565373171,451.51114561979665,437.931599572279,0.0
0.03,3.1845425739054853,-0.3227895986488438,-3.7940160920670936,0.0,10.198184969945354,9.55266586973996,449.19624325948575,437.931599572279,0.0
0.031,2.674553916962591,-0.17884195419053306,-2.749211348783713,0.0,10.150077778899282,9.090389187188135,447.2373849675198,437.931599572279,0.0
0.032,2.309535089295025,-0.09772245876670338,-1.8628400567531447,0.0,10.053069970650599,8.791634432951412,445.1942168876697,437.931599572279,0.0
0.033,2.064118489283124,-0.06199578113749871,-0.9138821899820062,0.0,9.932768728218138,8.631921663462649,443.23533333047084,437.931599572279,0.0
0.034,1.9164784525529583,-0.058422040373354744,0.012522251035512966,0.0,9.808490488372286,8.582351194563932,441.36624277178595,437.931599572279,0.0
0.035,1.8457412930700086,-0.0748970277297234,0.912721098382888,0.0,9.693531011637981,8.621372464544356,439.5021059901097,437.931599572279,0.0
0.036000000000000004,1.8353902277339151,-0.10219203187130788,1.829084425042692,0.0,9.59680731015717,8.73722488290456,437.8010459779771,437.931599572279,0.0
0.037,1.8746731124900653,-0.13500252392634948,2.680919967052033,0.0,9.52467742474509,8.911933337658546,436.0497356491677,437.931599572279,0.0
0.038,1.9532591705216311,-0.16768245063809883,3.575393770687837,0.0,9.480498060367362,9.143580083839865,434.45389036038637,437.931599572279,0.0
0.039,2.067257875315771,-0.1987307110952221,4.408093507197431,0.0,9.466989816428706,9.418542454997937,432.4768027517608,437.931599572279,0.0
0.04,2.211675557880183,-0.22322898884847991,5.451185279715411,0.0,9.484712961948011,9.75632490422407,430.72102271993066,437.931599572279,0.0
0.041,2.3897760724614434,-0.25097992257119495,6.401181064153952,0.0,9.537249657769962,10.138023161864288,429.541706404473,437.931599572279,0.0
0.042,2.599013380450568,-0.27438409041156203,7.074738153560832,0.0,9.624999458898955,10.530161486580056,427.9033358255229,437.931599572279,0.0
0.043000000000000003,2.825608033799302,-0.28748019732784086,7.994206080503451,0.0,9.744394642469018,10.963433821218302,426.3475869005194,437.931599572279,0.0
0.044,3.0781318718954775,-0.29616413397729646,8.887920669722805,0.0,9.896001813108164,11.428920690637337,424.82002150758024,437.931599572279,0.0
0.045,3.3569161630383952,-0.30034255374471797,9.782819146839369,0.0,10.07936974043323,11.924380243124254,423.30514106676816,437.931599572279,0.0
0.046,3.662181499222613,-0.29989885755351975,10.0,0.0,10.293856239495774,12.372780198102658,420.8375940663889,437.931599572279,0.0
0.047,3.9650926776254427,-0.2815268707599936,10.0,0.0,10.52971760256452,12.765349422695396,440.0507972613733,437.931599572279,0.0
0.048,4.2261532263357475,-0.285539812203776,2.4081633135498306,0.0,10.781874895212427,12.281458277052113,453.3455110938795,437.931599572279,0.0
0.049,4.058068546554478,-0.23726557661468534,-4.393332717919277,0.0,10.955077048701972,11.22002569890389,455.3194503197125,437.931599572279,0.0
0.05,3.5439785886717767,-0.07854823950182094,-5.554180838310093,0.0,10.98783956430122,10.277247309560428,452.9042988476077,437.931599572279,0.0
0.051000000000000004,2.9893674310333855,0.07014675135360782,-4.496332095011003,0.0,10.90827871378322,9.615861181439445,450.69562792598504,437.931599572279,0.0
0.052000000000000005,2.5491119190177653,0.15283746457043318,-3.519636917736721,0.0,10.762926306959635,9.152397557891277,448.93753481161895,437.931599572279,0.0
0.053,2.2313599116165777,0.1790845411115506,-2.750649712947075,0.0,10.583702507176234,8.826116862463651,447.2552733307024,437.931599572279,0.0
0.054,2.009358169133001,0.16842658678984868,-2.0027557100730258,0.0,10.391207863569207,8.610362996467884,445.6106834793779,437.931599572279,0.0
0.055,1.8614159947329292,0.13506465982775012,-1.257251623481766,0.0,10.19995053014592,8.485515183966461,443.95756108434443,437.931599572279,0.0
0.056,1.771627414584751,0.08940941690886628,-0.4909500410856955,0.0,10.020022606266279,8.439261874642803,442.2763167136787,437.931599572279,0.0
0.057,1.7295373303392325,0.03833083106451607,0.30622497283318406,0.0,9.858624235855919,8.46339936303619,440.5770176787725,437.931599572279,0.0
0.058,1.7284916989915344,-0.013827534851387435,1.1294203092213366,0.0,9.721006085718246,8.551257121018498,438.84584174218753,437.931599572279,0.0
0.059000000000000004,1.763963504893879,-0.06419592701569499,1.985865855814739,0.0,9.610954465871481,8.69863198998747,437.23554325287677,437.931599572279,0.0
0.06,1.8330717961579246,-0.11147545592303132,2.797975663664144,0.0,9.531342559164456,8.893784639492349,435.4718648940519,437.931599572279,0.0
0.061,1.9310635060101633,-0.1530398428615518,3.704412189858839,0.0,9.483306395352786,9.14295974800785,433.95546999724604,437.931599572279,0.0
0.062,2.0593297240049244,-0.19028221613948737,4.502370934012108,0.0,9.468672375965019,9.427995459004649,432.1168028034972,437.931599572279,0.0
0.063,2.211112221169796,-0.2213859943231249,5.479852498574349,0.0,9.487054321483134,9.767194169115115,430.2330023999907,437.931599572279,0.0
0.064,2.3951775761147958,-0.24737942119135115,6.498738672050475,0.0,9.540066182634147,10.157884502130793,429.0374320172242,437.931599572279,0.0
0.065,2.610235310006027,-0.27186820717043525,7.185465538984276,0.0,9.629279723160648,10.55834238440938,427.4535628956481,437.931599572279,0.0
0.066,2.8423832883323783,-0.2864636953531636,8.082180466538649,0.0,9.750978313702666,10.996061505597416,425.9256314937437,437.931599572279,0.0
0.067,3.098887308691613,-0.29578967457482097,8.966205848276186,0.0,9.905158860141837,11.46456025398018,424.4128874210939,437.931599572279,0.0
0.068,3.3806240924953084,-0.30005603523539115,9.857765006112942,0.0,10.091147266655819,11.962432429698442,422.9091602553522,437.931599572279,0.0
0.069,3.6883486271113943,-0.29942046490047325,10.0,0.0,10.308211473746777,12.404814155275746,420.3560473133734,437.931599572279,0.0
0.07,3.9903193445763336,-0.2793449115901947,10.0,0.0,10.545605477525594,12.793102245490573,441.887158202357,437.931599572279,0.0
0.07100000000000001,4.24056553365978,-0.29581748017439446,1.3479175269741064,0.0,10.800101628025374,12.190064481404411,453.8251007691508,437.931599572279,0.0
0.07200000000000001,4.022761475043675,-0.227217557014473,-4.779988768391522,0.0,10.96113366983312,11.111692149355495,454.8912131713325,437.931599572279,0.0
0.073,3.488066119120176,-0.06172523784867834,-5.4826411054728865,0.0,10.980707118378568,10.197886009132372,452.3819328840081,437.931599572279,0.0
0.074,2.940400323281425,0.08189265133584189,-4.372504294927991,0.0,10.892799563428518,9.561455684299887,450.26734877379016,437.931599572279,0.0
0.075,2.513417939491357,0.15804721047274117,-3.4385697318341286,0.0,10.743098908877013,9.11300047454904,448.52926788922343,437.931599572279,0.0
0.076,2.206312619425863,0.17990240097421262,-2.675505972720209,0.0,10.56188027344178,8.798530149559022,446.86320191001846,437.931599572279,0.0
0.077,1.992478648485327,0.16640215507230954,-1.9317890064951166,0.0,10.369040048005292,8.59201390582091,445.2287158944493,437.931599572279,0.0
0.078,1.850721552566713,0.1314154328083763,-1.1875171619322362,0.0,10.178545757728655,8.474752937994268,443.581687253004,437.931599572279,0.0
0.079,1.7657470320892688,0.0849615187652398,-0.42050371801684916,0.0,10.000134863019126,8.435027024601023,441.906003380432,437.931599572279,0.0
0.08,1.7275845517169546,0.033605997760001546,0.3775941801876179,0.0,9.84077703461137,8.464901375075666,440.2137255567191,437.931599572279,0.0
0.081,1.7298728815785562,-0.018501525511012116,1.2009118321996741,0.0,9.705560696441605,8.557803129312852,438.4816759596342,437.931599572279,0.0
0.082,1.7682518743057754,-0.06858176430126267,2.0614358668685915,0.0,9.598143918546759,8.710118735701426,436.84555827019125,437.931599572279,0.0
0.083,1.8401088946040913,-0.11554806470136797,2.8903551246109327,0.0,9.521365869736366,8.911516499361086,435.19252033269544,437.931599572279,0.0
0.084,1.9412666539748489,-0.15717120635327492,3.7442648857546734,0.0,9.476514284750685,9.160328779594327,433.60364820443385,437.931599572279,0.0
0.085,2.070432045077372,-0.19315043080976624,4.581980463563918,0.0,9.464570569560593,9.450187673825683,431.5861220921414,437.931599572279,0.0
0.08600000000000001,2.224749073512734,-0.2239273990424852,5.654198294511516,0.0,9.485832789573676,9.80374989352417,430.1692292696948,437.931599572279,0.0
0.08700000000000001,2.414839492463763,-0.2517055854193041,6.44026840876065,0.0,9.543072840374426,10.180460871711794,428.67937134722916,437.931599572279,0.0
0.088,2.62658357424021,-0.2727405769518326,7.277719652243978,0.0,9.63429605111867,10.5880927479955,427.1569215629422,437.931599572279,0.0
0.089,2.8607872852349727,-0.2872110654070047,8.14669132448082,0.0,9.758541532231607,11.027651161844826,425.63429966360155,437.931599572279,0.0
0.09,3.1190911370791983,-0.29609415728427924,9.030975273237926,0.0,9.91515074184013,11.498188413468505,424.1231759510077,437.931599572279,0.0
0.091,3.4026624922396347,-0.29996816035278995,9.924621365747576,0.0,10.103490065068932,11.998181281029956,422.62498210796906,437.931599572279,0.0
0.092,3.712339928730194,-0.2989932771625272,10.0,0.0,10.32284876554938,12.435135178538449,419.99216022434473,437.931599572279,0.0
0.093,4.013395129310834,-0.2773260683735741,10.0,0.0,10.561593341597758,12.819556472302654,443.4888567826938,437.931599572279,0.0
0.094,4.25363272285675,-0.3051352368504683,0.4560121745253447,0.0,10.818181270038064,12.116155850208818,454.3970902745307,437.931599572279,0.0
0.095,3.993829963033593,-0.21932789491854354,-5.162759478415612,0.0,10.96905344412767,11.017109759115641,454.61476122423414,437.931599572279,0.0
0.096,3.439182756113039,-0.04692209849043949,-5.438426569786894,0.0,10.976827227511231,10.127332996182345,451.99043984266154,437.931599572279,0.0
0.097,2.8965146719766235,0.09271288505781494,-4.266854281704419,0.0,10.881210166037079,9.513087927669318,449.95148969445995,437.931599572279,0.0
0.098,2.4810288967893204,0.16315813720771177,-3.367578108825432,0.0,10.727377675958033,9.07818707042528,448.22815112888503,437.931599572279,0.0
0.099,2.1834358751804714,0.18105925563278014,-2.6088743416040323,0.0,10.544173678657229,8.774438077188409,446.57371242746325,437.931599572279,0.0
0.1,1.9770104753410718,0.16494757087184053,-1.8680761194449835,0.0,10.35086647827077,8.576375214076668,444.946458417701,437.931599572279,0.0
0.101,1.8409264633345943,0.12842808898338087,-1.124597703018091,0.0,10.160939737771908,8.466067548145146,443.3032898872322,437.931599572279,0.0
0.10200000000000001,1.7603931815688316,0.0811920190947445,-0.3567303409332161,0.0,9.983805677598644,8.432326421296123,441.63097002096345,437.931599572279,0.0
0.10300000000000001,1.7258634496560528,0.02953700090828515,0.4424358877143222,0.0,9.826220602059427,8.467468550337806,439.94345620697806,437.931599572279,0.0
0.10400000000000001,1.7312413437142637,-0.02256308443134214,1.266074228360027,0.0,9.693122706183797,8.56500964844042,438.21090761659934,437.931599572279,0.0
0.105,1.7723178450629689,-0.0724143154173087,2.12955544310618,0.0,9.588051344261046,8.721768761153053,436.6856052874992,437.931599572279,0.0
0.106,1.8466576597496536,-0.1191476817349244,2.904666550504057,0.0,9.513805187786918,8.921205621466404,434.83567958908986,437.931599572279,0.0
0.107,1.9479557420543674,-0.15916062614855042,3.86058859954061,0.0,9.470861423213856,9.1802751035144,433.3538333077046,437.931599572279,0.0
0.108,2.081241022196291,-0.19582704099215875,4.647289402878998,0.0,9.461752159491564,9.472472728784581,431.2958648566637,437.931599572279,0.0
0.109,2.2379686694119645,-0.2261225782414955,5.742630975555597,0.0,9.48573942961751,9.831253041724251,429.97949536299564,437.931599572279,0.0
0.11,2.4306579642113593,-0.2542394106113102,6.480336764482456,0.0,9.545995900213008,10.20711972548196,428.44958935526716,437.931599572279,0.0
0.111,2.643109270696206,-0.2742667535244754,7.340109870516811,0.0,9.639735231521485,10.61718062093262,426.93226301845584,437.931599572279,0.0
0.112,2.8787537033742208,-0.28819982693417323,8.208766404460704,0.0,9.766439083890111,11.058767473112812,425.4131418636633,437.931599572279,0.0
0.113,3.1386592997238054,-0.29662709147721034,9.093511558943117,0.0,9.925418904605536,11.531268255693801,423.9053613717568,437.931599572279,0.0
0.114,3.4239298548283847,-0.3000991234418521,9.987664186901611,0.0,10.116048472378194,12.033145574520834,422.4110542046979,437.931599572279,0.0
0.115,3.735382962044099,-0.2987450646454091,10.0,0.0,10.337619148469035,12.464906395160986,419.70219253841975,437.931599572279,0.0
0.116,4.035515440812775,-0.27552918789983855,10.0,0.0,10.577668633160757,12.84562480162283,444.9550388931137,437.931599572279,0.0
0.117,4.26628147090468,-0.3135499382530972,-0.3358888607149648,0.0,10.836199451335803,12.052945602706588,455.0180616981301,437.931599572279,0.0
0.11800000000000001,3.968835668987938,-0.21277673176343664,-5.53826488448169,0.0,10.978144007584334,10.931511630004048,454.4415851445464,437.931599572279,0.0
0.11900000000000001,3.394791132448007,-0.03351802589814007,-5.41512646341252,0.0,10.975039985357466,10.062154937752112,451.68754500591325,437.931599572279,0.0
0.12,2.855743663096569,0.10290149493429102,-4.175665848432276,0.0,10.872097135895176,9.468087572203084,449.70724278165005,437.931599572279,0.0
0.121,2.450488600864161,0.16823639486022957,-3.303271168394388,0.0,10.714219191040682,9.04588904906914,447.99345743121114,437.931599572279,0.0
0.122,2.1616819290947324,0.18247088867114125,-2.5469970717642534,0.0,10.528996743038308,8.75230497086439,446.34754511651465,437.931599572279,0.0
0.123,1.9622429720762848,0.16387652197323754,-1.8082003698583655,0.0,10.33512585729057,8.562312170477563,444.7256825991256,437.931599572279,0.0
0.124,1.8315761498350267,0.1258634080925286,-1.0652099414323075,0.0,10.145638278938826,8.458651502538801,443.08495186871374,437.931599572279,0.0
0.125,1.7553097739554784,0.07784104820857352,-0.29637809919072433,0.0,9.969635720076806,8.430632375045397,441.4146523330708,437.931599572279,0.0
0.126,1.7242788384398287,0.02586275963572393,0.5039411410228203,0.0,9.813668892495818,8.470812441564126,439.73058864837776,437.931599572279,0.0
0.127,1.7326353831079615,-0.026262157403740494,1.3279830926083616,0.0,9.68253071231342,8.57278971167651,438.00485209635355,437.931599572279,0.0
0.128,1.7762947296967726,-0.0759515256973955,2.1901188433797243,0.0,9.579648658502403,8.733330987150323,436.4067068325515,437.931599572279,0.0
0.129,1.8528786942262283,-0.12235081813630777,3.0044404026780263,0.0,9.50771596610522,8.940496301078403,434.7205994817912,437.931599572279,0.0
0.13,1.957806290162481,-0.16284376392265043,3.8796040789630375,0.0,9.467683305452667,9.197100407264628,433.1367171587088,437.931599572279,0.0
0.131,2.091333654163691,-0.1980603347533344,4.7194940646399575,0.0,9.460783214817502,9.494038364347816,431.0857839019242,437.931599572279,0.0
0.132,2.25025485441647,-0.22783836644870004,5.813418849735815,0.0,9.487190346732357,9.856379284775148,429.80160988440934,437.931599572279,0.0
0.133,2.4449744878393513,-0.2559545740144622,6.536805755371926,0.0,9.549985860013738,10.233930190446257,428.2694163105611,437.931599572279,0.0
0.134,2.658964552091478,-0.27549265205344664,7.399524374913228,0.0,9.646124939042725,10.64607902523807,426.7514402782454,437.931599572279,0.0
0.135,2.8961976098793683,-0.28898147138672226,8.270313984011407,0.0,9.775153382994263,11.089830819544842,425.23511859449513,437.931599572279,0.0
0.136,3.1578079723121295,-0.2970381000665847,9.155439635664386,0.0,9.93640550294278,11.564361395117214,423.73024025221133,437.931599572279,0.0
0.137,3.4448390770843345,-0.30016157305080404,10.0,0.0,10.129248484195145,12.06265719078697,422.16446829379385,437.931599572279,0.0
0.138,3.7559775864317375,-0.29748455256602613,10.0,0.0,10.352311039906082,12.490607176391142,419.4035222376787,437.931599572279,0.0
0.139,4.055208678201335,-0.2727910725716174,10.0,0.0,10.593172826011807,12.868264384004807,446.242093680666,437.931599572279,0.0
0.14,4.277657737334234,-0.319510912790012,-1.017682386224021,0.0,10.853100271492291,11.99881990139611,455.644536179444,437.931599572279,0.0
