timestamp,iq,id,iq_ref,id_ref,vq,vd,omega,omega_ref,r
0.0,0.0,0.0,0.0,0.0,0.0,0.0,0.0,414.0014109648407,0.0
0.001,0.0,0.0,10.0,0.0,0.0,1.0999999999999999,4.568857223181787,414.0014109648407,0.0
0.002,0.6268163283653965,-0.3673113600196713,10.0,0.0,0.15040424960216392,1.9210502038798063,10.419075505665612,414.0014109648407,0.0
0.003,1.3329476929500594,-0.7761494112315145,10.0,0.0,0.40917216666519773,2.6036295255111894,16.714242909438347,414.0014109648407,0.0
0.004,1.9598421082393516,-1.1372339029065854,10.0,0.0,0.7459521377572061,3.1819306346497616,23.20007798070006,414.0014109648407,0.0
0.005,2.464495526727704,-1.42710912305145,10.0,0.0,1.1351596519530556,3.686836698102853,29.668435887206666,414.0014109648407,0.0
0.006,2.853292766989114,-1.6501346250373254,10.0,0.0,1.5575710740916262,4.142451744386348,36.244934767407536,414.0014109648407,0.0
0.007,3.1492302700974566,-1.819829039905046,10.0,0.0,1.999738989260281,4.566081275316046,42.8838483484988,414.0014109648407,0.0
0.008,3.3772068200284786,-1.9503479367117036,10.0,0.0,2.4527132005050936,4.969446599208312,49.4882402008955,414.0014109648407,0.0
0.009000000000000001,3.558155993115333,-2.0537088795044465,10.0,0.0,2.910791037753788,5.360148168295589,56.02311773444595,414.0014109648407,0.0
0.01,3.7078215846392544,-2.138900340918467,10.0,0.0,3.370468699513955,5.742933640862241,62.46514523904642,414.0014109648407,0.0
0.011,3.837226837132091,-2.212168967388469,10.0,0.0,3.829664776652331,6.120670410489277,68.90452947577232,414.0014109648407,0.0
0.012,3.9539167100642643,-2.2772527685374997,10.0,0.0,4.287141454901265,6.495011277369833,75.252497866601,414.0014109648407,0.0
0.013000000000000001,4.062560353321479,-2.3367427637118756,10.0,0.0,4.742197613471052,6.8668818233582565,81.57157465257207,414.0014109648407,0.0
0.014,4.1663358166287745,-2.391677831609934,10.0,0.0,5.194383168299747,7.2367420660735835,87.76090867196837,414.0014109648407,0.0
0.015,4.267061273009827,-2.442781267375265,10.0,0.0,5.643408219172311,7.604792794431409,93.97113670475338,414.0014109648407,0.0
0.016,4.366244632481946,-2.489683905055824,10.0,0.0,6.088984093580608,7.971038040062582,99.98623691599416,414.0014109648407,0.0
0.017,4.464498597728461,-2.5325816548282396,10.0,0.0,6.530876631209357,8.335400245989074,105.834069585605,414.0014109648407,0.0
0.018000000000000002,4.562492171462005,-2.571052737138887,10.0,0.0,6.968818977224322,8.697718731627564,111.3421312730939,414.0014109648407,0.0
0.019,4.660650540345387,-2.604822170798363,10.0,0.0,7.402528864081077,9.05778211846387,116.6586295739512,414.0014109648407,0.0
0.02,4.759695357807344,-2.633003935292765,10.0,0.0,7.831636400693577,9.415296809070234,122.00603156935638,414.0014109648407,0.0
0.021,4.860630596827707,-2.6542158845657013,10.0,0.0,8.25563614948054,9.769858356159595,127.26037529498491,414.0014109648407,0.0
0.022,4.963818487357481,-2.668181115419062,10.0,0.0,8.674016133998887,10.121022407850644,132.32447587158342,414.0014109648407,0.0
0.023,5.069866630325783,-2.674270949232021,10.0,0.0,9.086204754645392,10.468274636003208,137.19336047093427,414.0014109648407,0.0
0.024,5.179293521475642,-2.6720684013858707,10.0,0.0,9.491596557441301,10.811044026808364,141.89501149482436,414.0014109648407,0.0
0.025,5.292733834606464,-2.6610253797252943,10.0,0.0,9.889533412133929,11.1486914932797,146.44513709959006,414.0014109648407,0.0
0.026000000000000002,5.410764906642706,-2.6407435513560333,10.0,0.0,10.279320757100418,11.48051888378049,150.7842312204598,414.0014109648407,0.0
0.027,5.534029938789299,-2.6107621618144767,10.0,0.0,10.66021697205446,11.805763426912089,154.87019333446744,414.0014109648407,0.0
0.028,5.6632017261232015,-2.5706024044495663,10.0,0.0,11.031430260411529,12.123596890940666,159.19961341660644,414.0014109648407,0.0
0.029,5.7976442827602925,-2.5219452121974086,10.0,0.0,11.392354872761661,12.433271374045354,163.49405737743666,414.0014109648407,0.0
0.03,5.937160308330101,-2.465783837233281,10.0,0.0,11.742463292863718,12.734068532828271,167.35842693643875,414.0014109648407,0.0
0.031,6.0827910769291105,-2.401045662652055,10.0,0.0,12.081081001379566,13.025172593452918,170.90938605133536,414.0014109648407,0.0
0.032,6.233819235874528,-2.329474345499383,10.0,0.0,12.407721881965312,13.305871229068673,173.9736089344689,414.0014109648407,0.0
0.033,6.3922026021683465,-2.248372024422215,10.0,0.0,12.7215629959071,13.575252200478566,176.69599225116403,414.0014109648407,0.0
0.034,6.5543333160578285,-2.164065359246435,10.0,0.0,13.022495385637129,13.832828641276738,178.6959582804483,414.0014109648407,0.0
0.035,6.729083287495111,-2.062278893322556,10.0,0.0,13.308738735874108,14.077139487248896,180.36915943628802,414.0014109648407,0.0
0.036000000000000004,6.895886128192729,-1.977028837229629,10.0,0.0,13.58242919417362,14.309042770885167,175.42348263044093,414.0014109648407,0.0
0.037,7.078632647157204,-1.8694398385818976,10.0,0.0,13.840958645716487,14.526690683308647,179.8090451415958,414.0014109648407,0.0
0.038,7.278676161534734,-1.7363201853322576,10.0,0.0,14.081832671476434,14.72824942825218,181.35762362926835,414.0014109648407,0.0
0.039,7.456456999586644,-1.6431134511572543,10.0,0.0,14.309853624927982,14.91618424423542,175.7673919326675,414.0014109648407,0.0
0.04,7.663702661838724,-1.5043454505533567,10.0,0.0,14.51953355190802,15.087108459498284,182.00929265856618,414.0014109648407,0.0
0.041,7.854969866543936,-1.394232558863349,10.0,0.0,14.714613169636483,15.242941310037814,174.3459605183557,414.0014109648407,0.0
0.042,8.061021049952789,-1.2613709559755186,10.0,0.0,14.892254463245287,15.381945879168313,180.05769677017088,414.0014109648407,0.0
0.043000000000000003,8.25407107971263,-1.151543986864613,10.0,0.0,15.055279733832943,15.505639129307154,179.139622060988,414.0014109648407,0.0
0.044,8.384872894368787,-1.1459761376589226,10.0,0.0,15.214857608654203,15.620807882176296,188.46900998975352,414.0014109648407,0.0
0.045,8.436072381583728,-1.26307720827494,10.0,0.0,15.382931367540063,15.73609362179356,188.19380957665547,414.0014109648407,0.0
0.046,8.485193845102303,-1.369144135884441,10.0,0.0,15.556222675829952,15.851766797222798,198.8965724067926,414.0014109648407,0.0
0.047,8.498891835572575,-1.5212514106546728,10.0,0.0,15.739423301782407,15.972186221621548,197.87404132019716,414.0014109648407,0.0
0.048,8.500296415618362,-1.6818921372749385,10.0,0.0,15.932495214760017,16.098866242275342,205.75369549239633,414.0014109648407,0.0
0.049,8.51236799269853,-1.8116376852115152,10.0,0.0,16.131593541512068,16.23087162448315,215.75375872908785,414.0014109648407,0.0
0.05,8.488397002306268,-1.9936292388470154,10.0,0.0,16.342704189230233,16.372343825859343,217.63531195194295,414.0014109648407,0.0
0.051000000000000004,8.453921685375027,-2.1855461472374724,10.0,0.0,16.566141936700795,16.52433244682824,219.3654136759792,414.0014109648407,0.0
0.052000000000000005,8.433632234507373,-2.3428587743480733,10.0,0.0,16.797819991419452,16.685353066873432,228.11698426799114,414.0014109648407,0.0
0.053,8.402799986294026,-2.5081486505840394,10.0,0.0,17.03904106278561,16.85662808318076,237.27191500674698,414.0014109648407,0.0
0.054,8.35608945303162,-2.691321875402757,10.0,0.0,17.291763684613596,17.03972754117071,245.23717420356914,414.0014109648407,0.0
0.055,8.297424996584347,-2.885196066771965,10.0,0.0,17.557018418860196,17.235775300421047,251.97475423883614,414.0014109648407,0.0
0.056,8.233226532092923,-3.077346048616106,10.0,0.0,17.83455021169633,17.445218943700574,257.9260420527515,414.0014109648407,0.0
0.057,8.164439355727946,-3.2648117478009215,10.0,0.0,18.12397291666869,17.668396006691008,263.4131951913442,414.0014109648407,0.0
0.058,8.088232006557776,-3.4517719640705598,10.0,0.0,18.425462024240677,17.905892570524696,269.072376884114,414.0014109648407,0.0
0.059000000000000004,8.00613957756313,-3.635156536725284,10.0,0.0,18.738854578268146,18.158056482429927,275.8475900042337,414.0014109648407,0.0
0.06,7.921201776460741,-3.8094872654160827,10.0,0.0,19.063466802512846,18.4248654923787,283.5532291502901,414.0014109648407,0.0
0.061,7.8388959792857715,-3.965489168624286,10.0,0.0,19.39771560739394,18.705659083435286,289.4291463420802,414.0014109648407,0.0
0.062,7.76255903654059,-4.098353950008074,10.0,0.0,19.739673997812723,18.999372201604547,295.5829875045068,414.0014109648407,0.0
0.063,7.696016519832468,-4.203531371945818,10.0,0.0,20.087048729605872,19.304466154409205,301.6053084071729,414.0014109648407,0.0
0.064,7.644812500519247,-4.274537880374516,10.0,0.0,20.43695432520794,19.618755202070076,307.03391983023465,414.0014109648407,0.0
0.065,7.614223931737339,-4.3064267606321165,10.0,0.0,20.78609597775994,19.939458606897947,311.4636140300717,414.0014109648407,0.0
0.066,7.610463373294394,-4.293695993700613,10.0,0.0,21.130674532374485,20.26311361223913,314.4912810856772,414.0014109648407,0.0
0.067,7.636613912717065,-4.2370061096219125,10.0,0.0,21.46705215248235,20.585946807586737,316.13955789992144,414.0014109648407,0.0
0.068,7.697346517680872,-4.134931391210198,10.0,0.0,21.791414009929692,20.903715364258574,316.41133582800353,414.0014109648407,0.0
0.069,7.796371170652188,-3.9876587944487514,10.0,0.0,22.09993729883984,21.21185786523075,315.4024548399021,414.0014109648407,0.0
0.07,7.936223336116653,-3.796902417466554,10.0,0.0,22.388912033455764,21.50564495332535,313.28734673732527,414.0014109648407,0.0
0.07100000000000001,8.117902405471263,-3.5660279477113606,10.0,0.0,22.65487937551631,21.78036463009772,311.6889036384295,414.0014109648407,0.0
0.07200000000000001,8.34128999545883,-3.2989351809715544,10.0,0.0,22.894650491404203,22.031453229193822,310.6559564003884,414.0014109648407,0.0
0.073,8.602574225771141,-3.003994057528628,10.0,0.0,23.105780759701602,22.254902690534617,313.07668396059785,414.0014109648407,0.0
0.074,8.885832981142727,-2.7078565987325476,10.0,0.0,23.2885172380702,22.44857461178333,311.4948955203516,414.0014109648407,0.0
0.075,9.178695573831183,-2.430690875616533,10.0,0.0,23.444820405772003,22.611770691102013,299.427331641481,414.0014109648407,0.0
0.076,9.503825547963018,-2.1334661212885324,10.0,0.0,23.571889798890584,22.741441808031393,292.09354129597824,414.0014109648407,0.0
0.077,9.877889218181155,-1.7826764211461752,10.0,0.0,23.66360474491786,22.83295704859701,295.4401417734747,414.0014109648407,0.0
0.078,10.226232001133532,-1.495129923383844,10.0,0.0,23.727177502646526,22.889915190286224,277.97293940486935,414.0014109648407,0.0
0.079,10.595274424413862,-1.1922061305171694,10.0,0.0,23.759642646533546,22.910423554848062,282.3775784301152,414.0014109648407,0.0
0.08,10.965118528352415,-0.8993566220145358,10.0,0.0,23.76172790448143,22.89513517014199,274.7968321762442,414.0014109648407,0.0
0.081,11.207449818715238,-0.8257577285952509,10.0,0.0,23.75690841497281,22.858626148800777,292.23406112299256,414.0014109648407,0.0
0.082,11.242578183673523,-1.0641576632802168,10.0,0.0,23.775879954030483,22.82384527340104,289.34099244187024,414.0014109648407,0.0
0.083,11.212306672761816,-1.3636678479843702,10.0,0.0,23.820038372613016,22.798120789296927,303.4463225897489,414.0014109648407,0.0
0.084,11.141164093026742,-1.6784045523358408,10.0,0.0,23.888834436558508,22.78690756412322,311.98118205045705,414.0014109648407,0.0
0.085,10.99588870408655,-2.070651724813576,10.0,0.0,23.98962939352111,22.79896413484749,314.0068085102762,414.0014109648407,0.0
0.08600000000000001,10.843493290556092,-2.430554980190079,10.0,0.0,24.117217398226522,22.835205285794544,321.03592017386194,414.0014109648407,0.0
0.08700000000000001,10.67635915097485,-2.7727869770762994,10.0,0.0,24.269717204659813,22.897441923336068,331.53166692286436,414.0014109648407,0.0
0.088,10.485754582119746,-3.1161766645972193,10.0,0.0,24.447541239862367,22.98800003894502,343.1862377355098,414.0014109648407,0.0
0.089,10.272731000439085,-3.4622057288516737,10.0,0.0,24.651267983298347,23.10881129480966,353.6062729493425,414.0014109648407,0.0
0.09,10.045219044920831,-3.798830891328281,10.0,0.0,24.88027165520707,23.26081017872162,362.4658809515269,414.0014109648407,0.0
0.091,9.812100641169085,-4.111522031172653,10.0,0.0,25.13260462207424,23.443877446290777,369.72787751458543,414.0014109648407,0.0
0.092,9.57951253953975,-4.391222113565072,10.0,0.0,25.405651116676324,23.65712479093145,376.46405849251084,414.0014109648407,0.0
0.093,9.350888232569204,-4.635586837863447,10.0,0.0,25.696800815131155,23.89917484331871,381.3909591411511,414.0014109648407,0.0
0.094,9.143488013635015,-4.820634430065283,10.0,0.0,26.00095213687846,24.166662641325797,385.6094768456119,414.0014109648407,0.0
0.095,8.964139550567293,-4.942938546969314,10.0,0.0,26.313040083189172,24.455471120455012,391.1807375051268,414.0014109648407,0.0
0.096,8.83044146733902,-4.98396207818922,10.0,0.0,26.62608963004688,24.75952085082681,395.6684817709096,414.0014109648407,0.0
0.097,8.755573092687907,-4.934976641939308,10.0,0.0,26.932440561956295,25.071369103226527,397.96199212798786,414.0014109648407,0.0
0.098,8.748141116271533,-4.7969557875677955,10.0,0.0,27.224648786296388,25.38273645723652,397.37908028111417,414.0014109648407,0.0
0.099,8.815274336235456,-4.5738234313348265,10.0,0.0,27.495608572961554,25.684728924319327,394.0271665010849,414.0014109648407,0.0
0.1,8.957570147032197,-4.279000134311353,10.0,0.0,27.739472388558234,25.96863691637237,387.81529777029436,414.0014109648407,0.0
0.101,9.177698037514102,-3.9195796864026047,10.0,0.0,27.950752605500817,26.225749380934726,379.6603456677975,414.0014109648407,0.0
0.10200000000000001,9.474525734771907,-3.5043832394224665,10.0,0.0,28.12453864251665,26.44782885294156,371.8229367958559,414.0014109648407,0.0
0.10300000000000001,9.840611008339959,-3.0476724869261207,10.0,0.0,28.257067804726795,26.627777878329393,370.166741677527,414.0014109648407,0.0
0.10400000000000001,10.259339521372898,-2.5741482080349924,10.0,0.0,28.346818390101642,26.76058563370152,368.1138653507137,414.0014109648407,0.0
0.105,10.68114538945675,-2.1596617778361127,10.0,0.0,28.40001642794325,26.846876311715018,346.4535717834954,414.0014109648407,0.0
0.106,11.152697395818489,-1.7213386051956983,10.0,0.0,28.412453045113594,26.882205063692375,342.9266209755426,414.0014109648407,0.0
0.107,11.673164662800362,-1.2443556672133589,10.0,0.0,28.379093984312995,26.862708722884637,329.4833429988515,414.0014109648407,0.0
0.108,12.14371231479948,-0.8788587735732181,10.0,0.0,28.31168636659108,26.795270541027534,330.58287502353636,414.0014109648407,0.0
0.109,12.584096046902378,-0.5860032547197784,10.0,0.0,28.215716554318156,26.684098681572614,339.3154275725586,414.0014109648407,0.0
0.11,12.632509701677723,-0.9088676581735262,10.0,0.0,28.156670176895496,26.57352536213164,345.2492942216742,414.0014109648407,0.0
0.111,12.603191896953756,-1.2865453442922967,10.0,0.0,28.130787006709532,26.471813831959892,362.43042807692626,414.0014109648407,0.0
0.112,12.455246783006796,-1.7764126026235196,10.0,0.0,28.147429622080235,26.393665922273644,365.8954062601532,414.0014109648407,0.0
0.113,12.24631480190538,-2.2859611091369283,10.0,0.0,28.2057448480784,26.346500131874777,373.1582036675264,414.0014109648407,0.0
0.114,12.004350999225387,-2.7717582312783176,10.0,0.0,28.30185417080728,26.334409141599405,383.5999325598459,414.0014109648407,0.0
0.115,11.72248522576894,-3.2517907888618756,10.0,0.0,28.435089072348525,26.361723779677856,394.0125855521369,414.0014109648407,0.0
0.116,11.409191919059587,-3.7184880174774895,10.0,0.0,28.604268317115356,26.431274050106055,404.71516624191446,414.0014109648407,0.0
0.117,11.075679814121433,-4.157942803889913,10.0,0.0,28.807157718667547,26.544340616444224,414.7280484482373,414.0014109648407,0.0
0.11800000000000001,10.731640967788127,-4.55852192237995,7.686657019474497,0.0,29.040733991868105,26.446430890493275,422.4563815700427,414.0014109648407,0.0
0.11900000000000001,10.248526141205787,-4.821457229373216,3.7379407525197745,0.0,29.266078757737876,26.020146647358423,428.9673730994993,414.0014109648407,0.0
0.12,9.53281322005919,-4.852132336522311,0.3327853664448934,0.0,29.42700553142365,25.397842648385655,432.83223401225723,414.0014109648407,0.0
0.121,8.654288847716654,-4.645191513594543,-1.7879533204082385,0.0,29.486538986250032,24.74411257673186,430.3236115020114,414.0014109648407,0.0
0.122,7.750516571804071,-4.275705151263637,-0.6968640706570168,0.0,29.436171996801267,24.393565768694206,425.1341378780048,414.0014109648407,0.0
0.123,7.0812167934295385,-3.8907852762482817,1.786545472214618,0.0,29.317140702865235,24.39988635259589,419.41360997614436,414.0014109648407,0.0
0.124,6.781432961890173,-3.5760319196439454,4.592687433031814,0.0,29.179870926236653,24.70379649266055,413.9216952507239,414.0014109648407,0.0
0.125,6.861205172481457,-3.3522436378097984,7.339441952883225,0.0,29.06524996384168,25.225897437150934,409.14861477629216,414.0014109648407,0.0
0.126,7.269401857308227,-3.1991136093928967,9.774510151984565,0.0,28.999694771827723,25.880612234430384,405.06115896615586,414.0014109648407,0.0
0.127,7.9248119051394195,-3.0841209789758834,10.0,0.0,28.995048689681408,26.395740095658017,399.91594903174246,414.0014109648407,0.0
0.128,8.629302562882273,-2.922876616603945,10.0,0.0,29.02579304831574,26.7856957921947,391.08179262287797,414.0014109648407,0.0
0.129,9.311253671792432,-2.690822508747396,10.0,0.0,29.068545032499813,27.071760639538464,374.51834531986674,414.0014109648407,0.0
0.13,9.969867890111662,-2.371599188308068,10.0,0.0,29.102834278830084,27.267866147640234,362.8405015088102,414.0014109648407,0.0
0.131,10.628416184135462,-1.9496165954060203,10.0,0.0,29.110079299322692,27.38193585940545,364.9578619768122,414.0014109648407,0.0
0.132,11.228264497172447,-1.5511448235723941,10.0,0.0,29.088394719969862,27.42592527054955,343.7684250666129,414.0014109648407,0.0
0.133,11.794033156589007,-1.166830617552658,10.0,0.0,29.0349876947229,27.407111213238505,340.51156905418503,414.0014109648407,0.0
0.134,12.377494114732768,-0.7264558712087306,10.0,0.0,28.940441886231902,27.32631484033223,338.4847978109244,414.0014109648407,0.0
0.135,12.745613745658353,-0.6253816914579131,10.0,0.0,28.840556608990216,27.209484974047115,348.16004394845004,414.0014109648407,0.0
0.136,12.83903206708016,-0.9070211548292457,10.0,0.0,28.770967955612544,27.087754747619194,359.2358926781098,414.0014109648407,0.0
0.137,12.75079942966314,-1.3955191259945057,10.0,0.0,28.747083527124307,26.98187845182638,363.5099367776116,414.0014109648407,0.0
0.138,12.604455370070072,-1.8826398484775737,10.0,0.0,28.7636982116671,26.89941686294509,374.1272090561132,414.0014109648407,0.0
0.139,12.392047787810196,-2.3851857417932747,10.0,0.0,28.82081410990738,26.848764294858864,390.5713080534636,414.0014109648407,0.0
0.14,12.126809531268812,-2.8909215335043985,10.0,0.0,28.917758639670083,26.835940705802255,405.09711933283603,414.0014109648407,0.0
0.14100000000000001,11.804262808379399,-3.4180054993136784,10.0,0.0,29.05664823587276,26.86692168557999,415.556043942396,414.0014109648407,0.0
0.14200000000000002,11.459006234789054,-3.9139763802804572,7.134930481860151,0.0,29.2340329276812,26.628288635870877,424.7019954522339,414.0014109648407,0.0
0.14300000000000002,10.923649907793216,-4.265185301992027,2.454948882067262,0.0,29.403489117916482,26.000546709751344,430.4309664187796,414.0014109648407,0.0
0.14400000000000002,10.080305639627126,-4.378754347115198,-0.5738321557449568,0.0,29.502206002262724,25.253572803334187,431.5780793862359,414.0014109648407,0.0
0.145,9.061816592798799,-4.299344084019392,-1.323155323687077,0.0,29.506482988140853,24.64263059036731,428.3410814599211,414.0014109648407,0.0
0.146,8.089416079365405,-4.131055720431116,0.15194693451952634,0.0,29.43152043677073,24.359743943376483,426.61645108025226,414.0014109648407,0.0
0.147,7.377303006989742,-3.973376010306505,0.8881117231998292,0.0,29.320103591360706,24.23248524294747,423.86944590234185,414.0014109648407,0.0
0.148,6.917287232208453,-3.8113042131650983,2.1629339627800235,0.0,29.19085145986448,24.283160130989565,419.8279313943789,414.0014109648407,0.0
