timestamp,iq,id,iq_ref,id_ref,vq,vd,omega,omega_ref,r
0.0,0.0,0.0,0.0,0.0,0.0,0.0,0.0,342.2438011349923,0.0
0.001,0.0,0.0,10.0,0.0,0.0,1.0999999999999999,3.7726296583873005,342.2438011349923,0.0
0.002,0.5941487424814951,-0.33593794434428087,10.0,0.0,0.14695317387787085,1.924643638327035,8.317200045060504,342.2438011349923,0.0
0.003,1.1924139581807742,-0.6761723542176794,10.0,0.0,0.39574179984328905,2.621650543907049,13.15867516690173,342.2438011349923,0.0
0.004,1.6914845461755779,-0.9599039647474983,10.0,0.0,0.7171603868297133,3.2249205090031663,18.16613410851502,342.2438011349923,0.0
0.005,2.083799087874743,-1.182432504713477,10.0,0.0,1.0884049349180658,3.7618414425813542,23.280402751564854,342.2438011349923,0.0
0.006,2.388348866765453,-1.3550508071008927,10.0,0.0,1.4929798494183582,4.252617407349573,28.442517103382762,342.2438011349923,0.0
0.007,2.627804163505555,-1.4901008392265638,10.0,0.0,1.9193041894553926,4.711478682238495,33.62238467065941,342.2438011349923,0.0
0.008,2.8210575861158596,-1.5980337701546277,10.0,0.0,2.3594043450584463,5.148222940122497,38.84604800831089,342.2438011349923,0.0
0.009000000000000001,2.9815835251307825,-1.687764696015035,10.0,0.0,2.80795998342496,5.569577468712863,44.05770125690815,342.2438011349923,0.0
0.01,3.1195775327670394,-1.764520851710079,10.0,0.0,3.2613413786817076,5.9800780268310065,49.270180557940456,342.2438011349923,0.0
0.011,3.2418448532776862,-1.8323182164017182,10.0,0.0,3.717124838783726,6.382797203483201,54.44280520451442,342.2438011349923,0.0
0.012,3.3534037625514523,-1.893221331171021,10.0,0.0,4.173623239518468,6.7797740016653725,59.594443367559236,342.2438011349923,0.0
0.013000000000000001,3.457358460980285,-1.949101566283865,10.0,0.0,4.629707274712675,7.172383532368365,64.71366273000358,342.2438011349923,0.0
0.014,3.5557554027026055,-2.001276540428611,10.0,0.0,5.084624304262552,7.561556396915311,69.82735766173613,342.2438011349923,0.0
0.015,3.6499208758700785,-2.050700350609108,10.0,0.0,5.537881786690543,7.9479294453313525,74.89612009753573,342.2438011349923,0.0
0.016,3.741175410977143,-2.0972733349022383,10.0,0.0,5.98907961588778,8.331894593018488,79.90283134486856,342.2438011349923,0.0
0.017,3.8304393278393345,-2.14087396181054,10.0,0.0,6.437884516050988,8.71367652335286,84.7751067219648,342.2438011349923,0.0
0.018000000000000002,3.9191055381403843,-2.180119056223225,10.0,0.0,6.8838680733476245,9.093300106705627,89.74477616390118,342.2438011349923,0.0
0.019,4.006255671774295,-2.2172379644520013,10.0,0.0,7.326906262210912,9.470859834856057,94.6561735002904,342.2438011349923,0.0
0.02,4.092253611227684,-2.252114331611252,10.0,0.0,7.766861816308145,9.846379137074239,99.41552501828201,342.2438011349923,0.0
0.021,4.178262572682831,-2.283162216082612,10.0,0.0,8.20344024883773,10.219741058114796,104.09406246466465,342.2438011349923,0.0
0.022,4.264631742808658,-2.3101034802259304,10.0,0.0,8.636350090429465,10.590784111204965,108.69077812243668,342.2438011349923,0.0
0.023,4.3516811197358605,-2.332692002113929,10.0,0.0,9.065288577937288,10.959302103384562,113.19376443067243,342.2438011349923,0.0
0.024,4.439689630526309,-2.3507491862601073,10.0,0.0,9.489945420949486,11.325051702679293,117.48079237630536,342.2438011349923,0.0
0.025,4.5295148809054355,-2.363139297341646,10.0,0.0,9.909893879967445,11.687691333911978,121.82563066212903,342.2438011349923,0.0
0.026000000000000002,4.620163224843909,-2.371837433171088,10.0,0.0,10.324944350037304,12.04698878259375,125.90062947378381,342.2438011349923,0.0
0.027,4.712972416377827,-2.3749779809629277,10.0,0.0,10.734677996867156,12.402559005784983,129.78908155724753,342.2438011349923,0.0
0.028,4.808914868486513,-2.3713104356057384,10.0,0.0,11.138560465865941,12.753919993523464,133.62033561496642,342.2438011349923,0.0
0.029,4.908735168018751,-2.3599931957089355,10.0,0.0,11.535982565803621,13.100512320960513,137.30080722993577,342.2438011349923,0.0
0.03,5.0093836104471405,-2.3464997809981334,10.0,0.0,11.92695058527201,13.442114499975823,140.60650926196655,342.2438011349923,0.0
0.031,5.115815785555991,-2.323136470770825,10.0,0.0,12.310546990717201,13.777952208198755,144.01777920652796,342.2438011349923,0.0
0.032,5.226114787565551,-2.2934504850398563,10.0,0.0,12.686335701112036,14.107497217673947,147.2018469610339,342.2438011349923,0.0
0.033,5.3393617436585625,-2.259446735723241,10.0,0.0,13.05405648884738,14.430312422090967,149.30997627112237,342.2438011349923,0.0
0.034,5.4561825644370865,-2.2205847251963036,10.0,0.0,13.4133519345861,14.74590036411512,151.43134969176754,342.2438011349923,0.0
0.035,5.583733102271623,-2.1654765844270822,10.0,0.0,13.762603354574019,15.052996705556707,154.84409858515244,342.2438011349923,0.0
0.036000000000000004,5.70770683166107,-2.1179770203330035,10.0,0.0,14.102965396064647,15.351946949998437,155.86234794411988,342.2438011349923,0.0
0.037,5.84344181174126,-2.053427692879186,10.0,0.0,14.432560827471406,15.641347263630133,157.4360708081785,342.2438011349923,0.0
0.038,5.978790126902984,-1.9919228429724227,10.0,0.0,14.752016706885453,15.921236124172344,157.31184917762522,342.2438011349923,0.0
0.039,6.129288202437562,-1.9081965054858723,10.0,0.0,15.058921035787865,16.189880381444546,159.6634710462754,342.2438011349923,0.0
0.04,6.26503702398598,-1.8516509528324259,10.0,0.0,15.35661661011024,16.4489232562648,159.17895345467238,342.2438011349923,0.0
0.041,6.4345034476363665,-1.7426347228187558,10.0,0.0,15.639020584707435,16.694547582649207,159.72129147633598,342.2438011349923,0.0
0.042,6.570607025358304,-1.691557193095249,10.0,0.0,15.913218228513902,16.93057314454198,162.84305781646108,342.2438011349923,0.0
0.043000000000000003,6.744332828567373,-1.5817472836652549,10.0,0.0,16.172030349388933,17.152667112050334,157.91296916010393,342.2438011349923,0.0
0.044,6.900030700800789,-1.5042502912709286,10.0,0.0,16.41974408485822,17.363043386981783,162.1294083226025,342.2438011349923,0.0
0.045,7.063756013867592,-1.4166947416372877,10.0,0.0,16.654867933737968,17.560700602252,162.58840817127478,342.2438011349923,0.0
0.046,7.244156261160203,-1.3033579059128675,10.0,0.0,16.874653622823416,17.74389770681165,157.7625412022816,342.2438011349923,0.0
0.047,7.413443691294457,-1.210573204966372,10.0,0.0,17.08170750470941,17.91393605498204,158.48412251224556,342.2438011349923,0.0
0.048,7.5749946319949135,-1.1333290688191142,10.0,0.0,17.27749082525711,18.071598227348282,163.95744541909374,342.2438011349923,0.0
0.049,7.7061401137770105,-1.109362541884808,10.0,0.0,17.467598154385367,18.220262020943647,168.98505076744686,342.2438011349923,0.0
0.05,7.78146906654288,-1.1705405666059718,10.0,0.0,17.660530377949,18.36609543810587,168.16793838430246,342.2438011349923,0.0
0.051000000000000004,7.82641700816901,-1.2721517122625463,10.0,0.0,17.859318166647505,18.512447751857014,173.50662940091505,342.2438011349923,0.0
0.052000000000000005,7.840576682193611,-1.4169270663436069,10.0,0.0,18.067771585343632,18.66293552837646,180.94358146894754,342.2438011349923,0.0
0.053,7.873437654711484,-1.5196027446651978,10.0,0.0,18.280275010896645,18.81574675887685,179.23688329533584,342.2438011349923,0.0
0.054,7.8840155683107564,-1.6519392056381323,10.0,0.0,18.500339470868212,18.97369224811176,189.87206911482315,342.2438011349923,0.0
0.055,7.885939115338828,-1.7921681568329566,10.0,0.0,18.728293853787804,19.137743823383243,189.44964961428101,342.2438011349923,0.0
0.056,7.895006293024138,-1.9120591969168288,10.0,0.0,18.96164368083987,19.307207525344428,199.54593412640855,342.2438011349923,0.0
0.057,7.877481637368349,-2.0715745561447356,10.0,0.0,19.20495267449708,19.4850782237137,198.84726934524582,342.2438011349923,0.0
0.058,7.8679325242901745,-2.2095760570592655,10.0,0.0,19.455302850133812,19.6703679074938,209.7096714076307,342.2438011349923,0.0
0.059000000000000004,7.849439739352494,-2.355021511628962,10.0,0.0,19.713765961578403,19.864102355671925,213.5338726646931,342.2438011349923,0.0
0.06,7.806026085392011,-2.5364672172370706,10.0,0.0,19.984260779767542,20.06890024426298,215.9592593968716,342.2438011349923,0.0
0.061,7.788335272947432,-2.662788196075136,10.0,0.0,20.260266755612985,20.28177967864314,226.19009954192015,342.2438011349923,0.0
0.062,7.748315938801666,-2.8178997419662273,10.0,0.0,20.545759137571523,20.505196985801412,232.3770945996593,342.2438011349923,0.0
0.063,7.690189332513757,-2.9950368829436598,10.0,0.0,20.842977982098652,20.740815533789927,234.19492497600575,342.2438011349923,0.0
0.064,7.634738294019995,-3.156424362530278,10.0,0.0,21.150018048316678,20.988112459603734,239.73104263832175,342.2438011349923,0.0
0.065,7.591732143899073,-3.2832302401034266,10.0,0.0,21.463418572231454,21.24555986558633,247.8586654569656,342.2438011349923,0.0
0.066,7.533267543093317,-3.424625745780706,10.0,0.0,21.785509231201786,21.514603627949565,253.73846762425498,342.2438011349923,0.0
0.067,7.467454756446589,-3.567337538438564,10.0,0.0,22.116579542647,21.7956068404966,258.7053897171478,342.2438011349923,0.0
0.068,7.408183485900345,-3.6871659550040126,10.0,0.0,22.454397152098018,22.087478474827062,263.59388903908757,342.2438011349923,0.0
0.069,7.355259018479354,-3.784982598092358,10.0,0.0,22.797181710611035,22.389173685380435,268.8052355705754,342.2438011349923,0.0
0.07,7.308206732026293,-3.8633176856559106,10.0,0.0,23.143496027529206,22.699624337565396,273.78002259852235,342.2438011349923,0.0
0.07100000000000001,7.270110227591752,-3.9192599521523634,10.0,0.0,23.49159427641302,23.01738144884695,278.3501310990903,342.2438011349923,0.0
0.07200000000000001,7.2444491480326505,-3.949780405488056,10.0,0.0,23.839456238738578,23.340614427595877,282.29710866604466,342.2438011349923,0.0
0.073,7.236096728257835,-3.9500626228158358,10.0,0.0,24.18458114207916,23.666972460082114,285.72515083135744,342.2438011349923,0.0
0.074,7.246977836030926,-3.920831288921879,10.0,0.0,24.52461108943271,23.993926733600997,288.6681918975862,342.2438011349923,0.0
0.075,7.283960600692293,-3.8549092060741774,10.0,0.0,24.856374353628482,24.318229281468334,291.74793261077855,342.2438011349923,0.0
0.076,7.343223889806397,-3.763128655220716,10.0,0.0,25.177954906426002,24.63712876681256,294.08395452881587,342.2438011349923,0.0
0.077,7.425379086807325,-3.6490836521383883,10.0,0.0,25.487640207647672,24.947851920123167,292.5144540992463,342.2438011349923,0.0
0.078,7.527404892063598,-3.5218456172526964,10.0,0.0,25.78457356027164,25.248070001616696,285.3121367405803,342.2438011349923,0.0
0.079,7.680689585906619,-3.3329924837799667,10.0,0.0,26.062333921449405,25.532118551953097,285.7482939156832,342.2438011349923,0.0
0.08,7.87958496970776,-3.0931002562804424,10.0,0.0,26.316223487852824,25.795192638093933,289.4586704939273,342.2438011349923,0.0
0.081,8.06810106526465,-2.8959554661196,10.0,0.0,26.55174450158728,26.03860045558779,280.0660824324527,342.2438011349923,0.0
0.082,8.279358016936213,-2.6904591428226654,10.0,0.0,26.76742104803663,26.2598664889774,279.42025463941377,342.2438011349923,0.0
0.083,8.559634404367083,-2.398652834888216,10.0,0.0,26.953612812540193,26.45185574057231,277.12003036296477,342.2438011349923,0.0
0.084,8.799542912685228,-2.1965181390036825,10.0,0.0,27.121067572284925,26.619678071417397,270.4173085112937,342.2438011349923,0.0
0.085,9.111868972821407,-1.9006308778373013,10.0,0.0,27.258032837370237,26.75550686362065,266.4372407745332,342.2438011349923,0.0
0.08600000000000001,9.378916693545648,-1.6983592351956651,10.0,0.0,27.375593447088427,26.8651973144338,265.75759412018164,342.2438011349923,0.0
0.08700000000000001,9.705064856484526,-1.4175849508807319,10.0,0.0,27.463504586067888,26.94246896042142,254.53423525513824,342.2438011349923,0.0
0.088,10.011256166201992,-1.1819896032702508,10.0,0.0,27.527244030354165,26.990384993268698,250.05108363642645,342.2438011349923,0.0
0.089,10.303690736303704,-0.981450773416394,10.0,0.0,27.569697815688716,27.01077747764586,256.8604141838609,342.2438011349923,0.0
0.09,10.529881350969927,-0.9008548996279937,10.0,0.0,27.60308531310935,27.011419470206487,261.920005697845,342.2438011349923,0.0
0.091,10.591717817517152,-1.065579786107511,10.0,0.0,27.65212395629461,27.01079590807959,262.2880274137056,342.2438011349923,0.0
0.092,10.565906288944426,-1.3369975826040243,10.0,0.0,27.724405087698468,27.018596199292375,272.56046106089735,342.2438011349923,0.0
0.093,10.492565881028616,-1.6507424801532964,10.0,0.0,27.822035895848682,27.040653904109288,277.2985181899249,342.2438011349923,0.0
0.094,10.431347790562045,-1.9046852622311723,10.0,0.0,27.936905650718632,27.076269505131684,284.6026514923214,342.2438011349923,0.0
0.095,10.302373773338063,-2.2417572624806557,10.0,0.0,28.078388482410507,27.133385482528812,289.8788522455411,342.2438011349923,0.0
0.096,10.199081857764105,-2.5022484277814128,10.0,0.0,28.236717936853477,27.20901051589631,302.41700850808,342.2438011349923,0.0
0.097,10.04129136213924,-2.827090892775492,10.0,0.0,28.419904708685248,27.309230026734355,303.3876820615593,342.2438011349923,0.0
0.098,9.882473407741735,-3.1249723453340112,10.0,0.0,28.624313289549143,27.433638333699246,312.7395014049362,342.2438011349923,0.0
0.099,9.732034657361694,-3.377027464451943,10.0,0.0,28.84546909160053,27.581006751051852,325.1122870600361,342.2438011349923,0.0
0.1,9.543734666043449,-3.665496830280527,10.0,0.0,29.08845723423201,27.75496251841556,330.8992645117215,342.2438011349923,0.0
0.101,9.344977039577222,-3.944708473570157,10.0,0.0,29.35237072644027,27.955801862304142,334.84284501913555,342.2438011349923,0.0
0.10200000000000001,9.160315237353654,-4.171494143217367,10.0,0.0,29.632131111044863,28.181273843004625,342.1374986681729,342.2438011349923,0.0
0.10300000000000001,8.986859352423341,-4.352519069386759,7.806932796178859,0.0,29.924107540441213,28.188170800995294,346.0560235374611,342.2438011349923,0.0
0.10400000000000001,8.691677705917403,-4.43013159253302,5.809548137510068,0.0,30.194303150981387,28.05652948797753,350.16114645331277,342.2438011349923,0.0
0.105,8.307544929346262,-4.382551343865222,3.67781322640103,0.0,30.41830511658084,27.789857662638,355.2275411802017,342.2438011349923,0.0
0.106,7.845215453148695,-4.235026651124942,1.014778462504478,0.0,30.577487789371638,27.347651656090875,354.1080023985252,342.2438011349923,0.0
0.107,7.302890243546813,-3.9831612940681786,1.4559058407074037,0.0,30.65030165187981,27.09577135501306,349.8097338245213,342.2438011349923,0.0
0.108,6.9001393061630125,-3.713932969110356,3.5293808008140566,0.0,30.6635496358546,27.138910793139747,344.5254065703902,342.2438011349923,0.0
0.109,6.751992092921469,-3.4965526062561705,6.1487283735256195,0.0,30.65856720858019,27.458723253331186,339.01414350248587,342.2438011349923,0.0
0.11,6.875178014843254,-3.3438211553446058,8.936656483802853,0.0,30.671437614080638,28.011502917635596,336.1325364197734,342.2438011349923,0.0
0.111,7.244309742984304,-3.2381753988931146,10.0,0.0,30.728205226760927,28.560007530862233,339.55473370347397,342.2438011349923,0.0
0.112,7.698941046970963,-3.1354853862937313,8.745593251329947,0.0,30.82390709567444,28.86440214036143,338.0030555708804,342.2438011349923,0.0
0.113,8.039158882471789,-2.9957438125813325,9.563839773267848,0.0,30.926133565664152,29.217601011836706,325.029320031557,342.2438011349923,0.0
0.114,8.431572382315327,-2.7885338821072607,10.0,0.0,31.032061599187386,29.545734496256806,324.70366613327457,342.2438011349923,0.0
0.115,8.881395324507347,-2.5018411542603,10.0,0.0,31.130746077041888,29.801729444677207,320.3427854144669,342.2438011349923,0.0
0.116,9.267751348695288,-2.287684352530381,10.0,0.0,31.224471281041154,30.003992412802273,310.35882071664383,342.2438011349923,0.0
0.117,9.712707908738142,-1.955123737748059,10.0,0.0,31.294610161844265,30.15031994315192,306.3981065527369,342.2438011349923,0.0
0.11800000000000001,10.09567715268588,-1.7075235728895195,10.0,0.0,31.34845749561539,30.251351557313086,301.50480149054596,342.2438011349923,0.0
0.11900000000000001,10.53306777538774,-1.3654740588908827,10.0,0.0,31.37187381253426,30.303381467377527,288.79416122646643,342.2438011349923,0.0
0.12,10.928288571321191,-1.088855866407811,10.0,0.0,31.371143982734537,30.313449636801746,283.3568515166659,342.2438011349923,0.0
0.121,11.312581673119553,-0.8321487242898336,10.0,0.0,31.34602234914906,30.28411797306508,293.94936839141565,342.2438011349923,0.0
0.122,11.538622748370045,-0.8364160201900246,10.0,0.0,31.32351618651866,30.234185725083968,296.7070664196268,342.2438011349923,0.0
0.123,11.573475527759836,-1.098081231886678,10.0,0.0,31.32700791568083,30.185422690657553,299.6482450346505,342.2438011349923,0.0
0.124,11.50198959918208,-1.4758447699355486,10.0,0.0,31.364211505552547,30.150097112527455,314.7384848463866,342.2438011349923,0.0
0.125,11.39892281590771,-1.8469109072727181,10.0,0.0,31.431201818350683,30.132646938071936,314.47750999593035,342.2438011349923,0.0
0.126,11.262685305934555,-2.2174906756326407,10.0,0.0,31.526801195569668,30.13759627060609,330.7432847924946,342.2438011349923,0.0
0.127,11.093046751609226,-2.5942936491180815,10.0,0.0,31.651078097719967,30.16890847348478,332.30187229493936,342.2438011349923,0.0
0.128,10.888646673006072,-2.9841062210036062,10.0,0.0,31.80516988311567,30.230304769393722,341.18673025935493,342.2438011349923,0.0
0.129,10.691695579522372,-3.314416232205712,8.56572442677622,0.0,31.982428095076067,30.162820920693896,355.09758647279756,342.2438011349923,0.0
0.13,10.364218651777646,-3.6339703476732748,1.4817584666768528,0.0,32.16705995355985,29.388970729298485,356.0366055426917,342.2438011349923,0.0
0.131,9.601752146169042,-3.715158302261565,0.8743208876527948,0.0,32.26157874090574,28.79558681513885,357.70741496400274,342.2438011349923,0.0
0.132,8.834699127800741,-3.71655025723867,-0.11571996129283324,0.0,32.2866484936027,28.244914220500398,360.3523058233012,342.2438011349923,0.0
0.133,8.108275582712425,-3.6840524359021654,-1.6192504378251584,0.0,32.25055533166932,27.668563976442435,361.8301226339278,342.2438011349923,0.0
0.134,7.413696768481866,-3.5937538045851203,-2.554022058127795,0.0,32.15082859029198,27.12758930124344,361.6936977510095,342.2438011349923,0.0
0.135,6.780470444252271,-3.4672062522270917,-2.680308582828829,0.0,31.993959811086246,26.688904725435467,359.75401079089045,342.2438011349923,0.0
0.136,6.261821391393958,-3.323384627583505,-1.8855671993282863,0.0,31.79435454903308,26.41780527929191,356.37205760399075,342.2438011349923,0.0
0.137,5.9110334285908275,-3.1847901175448983,-0.3358731705684246,0.0,31.573792688713066,26.34977436626573,352.14461110362447,342.2438011349923,0.0
0.138,5.757924648145687,-3.0725852725406377,1.6788419799283956,0.0,31.35752733527236,26.485946170998155,347.2270403099892,342.2438011349923,0.0
0.139,5.80814130993284,-2.9904143372340246,4.087794984996059,0.0,31.16858894321527,26.824657018364693,341.9172137022317,342.2438011349923,0.0
0.14,6.054604409860875,-2.940907335543727,6.7459741632024075,0.0,31.027791414267682,27.352304346966697,336.33054941658804,342.2438011349923,0.0
0.14100000000000001,6.486206687788596,-2.9127097791710823,9.59843882320829,0.0,30.95123170989097,28.05528489105955,337.45998068039347,342.2438011349923,0.0
0.14200000000000002,7.08747506543709,-2.897453587077546,9.081561395851562,0.0,30.95122982479464,28.533106747934088,340.62632824540196,342.2438011349923,0.0
0.14300000000000002,7.597555731999071,-2.8472144842708627,7.51456234224322,0.0,30.99363657450761,28.74584891944285,329.7490893335383,342.2438011349923,0.0
0.14400000000000002,7.961228795762719,-2.6802065359277436,10.0,0.0,31.035208383110472,29.195722451312978,321.71169041888106,342.2438011349923,0.0
0.145,8.479596185743048,-2.453902882677441,10.0,0.0,31.094387041665957,29.526527752018616,325.38137902760485,342.2438011349923,0.0
0.146,8.950065810801478,-2.260518460670158,10.0,0.0,31.16171911454817,29.78360240365262,309.7355899732273,342.2438011349923,0.0
0.147,9.416812288057809,-2.0122344681186,10.0,0.0,31.22264805034495,29.97506538116383,312.59512059447707,342.2438011349923,0.0
0.148,9.865846919516354,-1.7421163451543347,10.0,0.0,31.26940023671263,30.108748609815716,297.843432662912,342.2438011349923,0.0
