timestamp,iq,id,iq_ref,id_ref,vq,vd,omega,omega_ref,r
0.0,0.0,0.0,0.0,0.0,0.0,0.0,0.0,370.0359466300277,0.0
0.001,0.0,0.0,10.0,0.0,0.0,1.0999999999999999,2.858586790525666,370.0359466300277,0.0
0.002,0.3982771960391477,-0.2209523550514487,10.0,0.0,0.1343047590556594,1.9461895084356937,6.9823437214997925,370.0359466300277,0.0
0.003,0.8607920281102772,-0.477365870298376,10.0,0.0,0.3657939561759696,2.6742966823659517,11.805932027058777,370.0359466300277,0.0
0.004,1.2900536845967219,-0.7144825030687744,10.0,0.0,0.6704636454295493,3.310148424722416,17.03355569931023,370.0359466300277,0.0
0.005,1.6552230932577692,-0.9149575082729412,10.0,0.0,1.0279326242381719,3.877005943380742,22.49953358602498,370.0359466300277,0.0
0.006,1.954486925198302,-1.0780701958638077,10.0,0.0,1.4222781026147184,4.393657280627248,28.107344292804925,370.0359466300277,0.0
0.007,2.1972274834404373,-1.20884361747175,10.0,0.0,1.8416081163792257,4.874369208899531,33.794578451343135,370.0359466300277,0.0
0.008,2.395430624606079,-1.3137579935276584,10.0,0.0,2.277309168744581,5.329568005775237,39.52892561060501,370.0359466300277,0.0
0.009000000000000001,2.559688554710533,-1.3997228215702722,10.0,0.0,2.7233669828851,5.766730687300071,45.277323261835036,370.0359466300277,0.0
0.01,2.699143896327079,-1.4715691783526599,10.0,0.0,3.1755787347296875,6.1910853738097,51.022441376789814,370.0359466300277,0.0
0.011,2.8207373719973847,-1.533089528483253,10.0,0.0,3.63105355498732,6.606245037945257,56.75174736228205,370.0359466300277,0.0
0.012,2.929576262424928,-1.5870487002638776,10.0,0.0,4.087817165027307,7.014679874502697,62.45514283661247,370.0359466300277,0.0
0.013000000000000001,3.0293345533575393,-1.6353726278309595,10.0,0.0,4.544523938033613,7.418062565310078,68.1237976709419,370.0359466300277,0.0
0.014,3.1226218633804956,-1.6793429225996621,10.0,0.0,5.000251795968912,7.817513643144151,73.7494606835979,370.0359466300277,0.0
0.015,3.2112854445470878,-1.7197632045434281,10.0,0.0,5.454358503960215,8.213772278160253,79.32400591023493,370.0359466300277,0.0
0.016,3.296642001590759,-1.757089590868305,10.0,0.0,5.906382104330298,8.607313135010735,84.83995097373655,370.0359466300277,0.0
0.017,3.379634083400783,-1.791553057651258,10.0,0.0,6.3559751478312965,8.998426702784514,90.28823042251372,370.0359466300277,0.0
0.018000000000000002,3.460983072696329,-1.8231793345082448,10.0,0.0,6.8028544995460125,9.3872697501266,95.65929607649844,370.0359466300277,0.0
0.019,3.5412617309823706,-1.8518631365671108,10.0,0.0,7.246769176281372,9.773899265387445,100.94334943749976,370.0359466300277,0.0
0.02,3.620947615972322,-1.877415496843035,10.0,0.0,7.6874792584790415,10.158294636029709,106.13015697615485,370.0359466300277,0.0
0.021,3.7004638491618334,-1.8995901650260503,10.0,0.0,8.124741559418544,10.540371551026563,111.20902224610013,370.0359466300277,0.0
0.022,3.7802055554009213,-1.918104394041396,10.0,0.0,8.55830014027364,10.919990579263276,116.16884775422132,370.0359466300277,0.0
0.023,3.8605557872993534,-1.932656670308108,10.0,0.0,8.987880373966078,11.296962454315395,120.99818551148793,370.0359466300277,0.0
0.024,3.9418952204758537,-1.9429403848796638,10.0,0.0,9.413185457634693,11.671051329901115,125.68537239077924,370.0359466300277,0.0
0.025,4.024605184623963,-1.9486583745871398,10.0,0.0,9.833895062217124,12.041977124570595,130.21872001680183,370.0359466300277,0.0
0.026000000000000002,4.109063341292359,-1.949542307421852,10.0,0.0,10.249666338523005,12.40941800263933,134.58627476065615,370.0359466300277,0.0
0.027,4.195644957470196,-1.9453571405344132,10.0,0.0,10.660135367319203,12.773012524318897,138.7758819301566,370.0359466300277,0.0
0.028,4.284717912937774,-1.9359115726653426,10.0,0.0,11.064919784607014,13.13236228777047,142.77516089986506,370.0359466300277,0.0
0.029,4.376637121387521,-1.9210660052818596,10.0,0.0,11.46362217977771,13.487035133230876,146.571457235519,370.0359466300277,0.0
0.03,4.471738929389204,-1.9007376681260366,10.0,0.0,11.855833958564075,13.836568926866622,150.15183632251498,370.0359466300277,0.0
0.031,4.570335971430603,-1.874902610001057,10.0,0.0,12.241139365813183,14.180475862472894,153.50319250537203,370.0359466300277,0.0
0.032,4.672712762946107,-1.8435945364240642,10.0,0.0,12.61911938838579,14.518247168597156,156.6125491930059,370.0359466300277,0.0
0.033,4.77912215639175,-1.8069007240233859,10.0,0.0,12.989355300685261,14.849358081002395,159.46760970551185,370.0359466300277,0.0
0.034,4.889781951758196,-1.764956624354837,10.0,0.0,13.351431800155769,15.173273009841196,162.05752304790093,370.0359466300277,0.0
0.035,5.004870718683362,-1.7179411941233766,10.0,0.0,13.704939886234335,15.489450929335057,164.37374941177157,370.0359466300277,0.0
0.036000000000000004,5.124523906502714,-1.6660716990498015,10.0,0.0,14.049479465498653,15.797350902496522,166.41093486339597,370.0359466300277,0.0
0.037,5.248828277007117,-1.6096017189555925,10.0,0.0,14.384662081293055,16.096437887390977,168.16751879118374,370.0359466300277,0.0
0.038,5.3778158007583,-1.5488210520443109,10.0,0.0,14.710113960438166,16.38618885146784,169.64592412610165,370.0359466300277,0.0
0.039,5.511458243909326,-1.4840559768489023,10.0,0.0,15.025479396474072,16.666099113542433,170.85231175151617,370.0359466300277,0.0
0.04,5.6496638551047305,-1.4156679063160449,10.0,0.0,15.330424278107188,16.935688700213177,171.79068624428814,370.0359466300277,0.0
0.041,5.792156374566153,-1.34425089053683,10.0,0.0,15.624661639213677,17.194521695351348,172.42493919064307,370.0359466300277,0.0
0.042,5.938271915251503,-1.2709799424592507,10.0,0.0,15.908012929592587,17.442247342805572,172.7105566241512,370.0359466300277,0.0
0.043000000000000003,6.088431084591204,-1.1951563557064695,10.0,0.0,16.18019377061701,17.678479201331758,172.7742483660833,370.0359466300277,0.0
0.044,6.243023432691151,-1.115993611819103,10.0,0.0,16.44083004743151,17.902802391510164,172.75388743676146,370.0359466300277,0.0
0.045,6.401058781345779,-1.0349284561276715,10.0,0.0,16.689709475895235,18.114918925481174,172.601364160538,370.0359466300277,0.0
0.046,6.561611609781766,-0.9532821355105572,10.0,0.0,16.92674217119871,18.314631291260042,178.32476322851113,370.0359466300277,0.0
0.047,6.662738174741298,-0.9729886918692188,10.0,0.0,17.16302701795535,18.50855729613019,183.94110077554842,370.0359466300277,0.0
0.048,6.726372111009626,-1.0506107855437778,10.0,0.0,17.40341734526396,18.700730717849055,188.28878493801085,370.0359466300277,0.0
0.049,6.775772026431893,-1.1452380576240433,10.0,0.0,17.648618761005675,18.89292817879313,192.7737859775169,370.0359466300277,0.0
0.05,6.820268591823144,-1.2396865443465521,10.0,0.0,17.8979628420863,19.086025412178163,198.6381652893481,370.0359466300277,0.0
0.051000000000000004,6.853581819152061,-1.3445398301220206,10.0,0.0,18.152271614965443,19.281527840980488,204.42267436313097,370.0359466300277,0.0
0.052000000000000005,6.875407893100515,-1.4607830133608197,10.0,0.0,18.41243797073542,19.480843168329443,210.02338474552653,370.0359466300277,0.0
0.053,6.8901690312228006,-1.5808876340390743,10.0,0.0,18.678568300105507,19.684838134066535,215.83414753830024,370.0359466300277,0.0
0.054,6.898383449737503,-1.7036811249044974,10.0,0.0,18.95079133090072,19.894290661511544,221.96979055388843,370.0359466300277,0.0
0.055,6.8988402789010745,-1.8309164170407377,10.0,0.0,19.22950525858724,20.110052132268713,228.30788612795368,370.0359466300277,0.0
0.056,6.891321413903878,-1.9625078382724852,10.0,0.0,19.515126643994943,20.33294049216014,234.78434685460937,370.0359466300277,0.0
0.057,6.876081912361716,-2.0973641970007804,10.0,0.0,19.807993012098827,20.563703311122875,241.38063892189138,370.0359466300277,0.0
0.058,6.853388265338387,-2.234241128488571,10.0,0.0,20.108356924164962,20.803020391156867,248.0740567715495,370.0359466300277,0.0
0.059000000000000004,6.82356340163627,-2.3717478533612555,10.0,0.0,20.416373123449002,21.051495952931067,254.8235800834219,370.0359466300277,0.0
0.06,6.7871470001449,-2.5081493120393645,10.0,0.0,20.732064352187926,21.309633133983287,261.57005494793157,370.0359466300277,0.0
0.061,6.745013086558909,-2.641246504873324,10.0,0.0,21.055276852783138,21.577796286283714,268.22340477745905,370.0359466300277,0.0
0.062,6.69850390515096,-2.7682402270363053,10.0,0.0,21.385622756058453,21.856159044232648,274.80570480058975,370.0359466300277,0.0
0.063,6.648133437426042,-2.8881607606442348,10.0,0.0,21.722691666276383,22.144795776349874,281.12321060438546,370.0359466300277,0.0
0.064,6.597010684910774,-2.9959677458841716,10.0,0.0,22.065576921724542,22.443395524376598,286.83618364672213,370.0359466300277,0.0
0.065,6.549977499893802,-3.0840890396952867,10.0,0.0,22.412648898897384,22.751086245972182,292.3851259819088,370.0359466300277,0.0
0.066,6.507177551558756,-3.153866095455852,10.0,0.0,22.76257701370806,23.066952755592183,297.3343168428865,370.0359466300277,0.0
0.067,6.472543501753853,-3.200968640075476,10.0,0.0,23.113582477350214,23.389607171726425,301.6058221440597,370.0359466300277,0.0
0.068,6.449862000425268,-3.222066596102242,10.0,0.0,23.463602585958327,23.71724531725956,305.12933535965226,370.0359466300277,0.0
0.069,6.442867120686173,-3.2146462109791307,10.0,0.0,23.810357276335125,24.047664280858214,307.8533820766833,370.0359466300277,0.0
0.07,6.455070024114728,-3.177187081109894,10.0,0.0,24.151432093599738,24.37830454896014,309.74974577649925,370.0359466300277,0.0
0.07100000000000001,6.48955410264787,-3.109302199388969,10.0,0.0,24.48437071025746,24.706317052373983,310.81583452318534,370.0359466300277,0.0
0.07200000000000001,6.548763877482574,-3.0118181148057994,10.0,0.0,24.80677231510386,25.028653932665733,311.0725270855689,370.0359466300277,0.0
0.073,6.634331575805015,-2.8867553122074074,10.0,0.0,25.1163853800548,25.342176936345822,310.55709136640576,370.0359466300277,0.0
0.074,6.746974572238459,-2.737192553839414,10.0,0.0,25.411188163484155,25.64377389352854,309.3124015777029,370.0359466300277,0.0
0.075,6.886488790268115,-2.5670119533299673,10.0,0.0,25.689446125816502,25.93047129931699,307.3768625925488,370.0359466300277,0.0
0.076,7.051853729891972,-2.380528738716724,10.0,0.0,25.94973668489208,26.199529759581505,304.78677324467185,370.0359466300277,0.0
0.077,7.241435055189937,-2.182043637317492,10.0,0.0,26.190935505078794,26.44851113334059,301.61375744512236,370.0359466300277,0.0
0.078,7.453088438595195,-1.9756407445492514,10.0,0.0,26.412193113432206,26.675328192820828,297.8188998396412,370.0359466300277,0.0
0.079,7.682723253945045,-1.7676201992402654,10.0,0.0,26.613188435842005,26.878446011333974,292.8970183114325,370.0359466300277,0.0
0.08,7.929078089333004,-1.5588389482282623,10.0,0.0,26.793510275703913,27.056548896497592,287.32353380930186,370.0359466300277,0.0
0.081,8.193325548765735,-1.3451528515219584,10.0,0.0,26.952192561968417,27.208270004947334,281.80841114554386,370.0359466300277,0.0
0.082,8.471149137643465,-1.1305869898149863,10.0,0.0,27.088713346630733,27.332769110996317,276.5470052601096,370.0359466300277,0.0
0.083,8.756243764257992,-0.9224380447561772,10.0,0.0,27.20328123809232,27.42988821186781,276.7560183699181,370.0359466300277,0.0
0.084,9.03512208942971,-0.7403213553196516,10.0,0.0,27.298152904107464,27.500926522295572,285.59850767965344,370.0359466300277,0.0
0.085,9.127000060709365,-0.8682778522902855,10.0,0.0,27.40653761612501,27.56703037469303,291.6631243658554,370.0359466300277,0.0
0.08600000000000001,9.15910841279332,-1.073163253129388,10.0,0.0,27.531952071303138,27.634749174036067,298.9019705676366,370.0359466300277,0.0
0.08700000000000001,9.15794988400746,-1.301808011418987,10.0,0.0,27.674699030301227,27.708686060649878,307.5428055052991,370.0359466300277,0.0
0.088,9.121316846750636,-1.554920952419565,10.0,0.0,27.836120957988054,27.79352200331252,316.6977477852272,370.0359466300277,0.0
0.089,9.055445572903803,-1.8219857274192353,10.0,0.0,28.016730283012414,27.89289605422816,325.77298041523215,370.0359466300277,0.0
0.09,8.966926350899552,-2.0919316934401797,10.0,0.0,28.216239489138225,28.009472034236666,335.02472418385355,370.0359466300277,0.0
0.091,8.857639483855195,-2.3615857646012444,10.0,0.0,28.4344178608198,28.145477700011753,344.38092895571054,370.0359466300277,0.0
0.092,8.729961898171418,-2.626815837607601,10.0,0.0,28.670857729229816,28.30265230213226,353.690129897948,370.0359466300277,0.0
0.093,8.58680581295946,-2.8825233466919014,10.0,0.0,28.924846596280098,28.482223824398176,362.75094262469065,370.0359466300277,0.0
0.094,8.432011343597857,-3.122309784139239,10.0,0.0,29.195213161880297,28.68483291192021,371.328121132367,370.0359466300277,0.0
0.095,8.270662635507403,-3.338428550078047,6.75933751140133,0.0,29.48017917955148,28.553945286700532,378.10568886048486,370.0359466300277,0.0
0.096,7.98116297394615,-3.4549227394324653,3.289856225037835,0.0,29.734213006103182,28.14563818484676,382.0746125438041,370.0359466300277,0.0
0.097,7.546254160419956,-3.443515478498751,1.1850077242404478,0.0,29.91959299921808,27.651671626481743,383.414363822262,370.0359466300277,0.0
0.098,7.039022211877187,-3.332797816974515,0.3813479130891704,0.0,30.02497346702665,27.209732055250484,382.6696685138024,370.0359466300277,0.0
0.099,6.550207612721334,-3.1625143449812696,0.6273583484812226,0.0,30.057997925627223,26.906319520349566,380.0090138163803,370.0359466300277,0.0
0.1,6.1548136200225425,-2.967289427445962,1.8579550253287476,0.0,30.037606778668714,26.80806140810343,376.214576884715,370.0359466300277,0.0
0.101,5.906947829228814,-2.779929771923113,3.693387188614527,0.0,29.99077162224926,26.93049286063932,371.8429056856203,370.0359466300277,0.0
0.10200000000000001,5.831642946622951,-2.6196909352022075,5.861153197605947,0.0,29.945110451241288,27.261902470814587,367.0136311971351,370.0359466300277,0.0
0.10300000000000001,5.93297119062866,-2.489517573413587,8.306013596177458,0.0,29.924439676922088,27.790962830957792,362.42867161638344,370.0359466300277,0.0
0.10400000000000001,6.201567255169307,-2.392243736952278,10.0,0.0,29.94934362765627,28.39840769343011,357.79276827248555,370.0359466300277,0.0
0.105,6.587388232016478,-2.3058933543254723,10.0,0.0,30.023975865839926,28.890904253882614,352.8778045137453,370.0359466300277,0.0
0.106,7.000151574802473,-2.183769656351999,10.0,0.0,30.127824433299654,29.30006862417023,347.68167865863063,370.0359466300277,0.0
0.107,7.410816819641955,-2.0205955800665074,10.0,0.0,30.24547666963052,29.637655870670585,342.69993508724554,370.0359466300277,0.0
0.108,7.810690808662404,-1.8244291809266349,10.0,0.0,30.3651758438358,29.913370129810133,337.20363162268336,370.0359466300277,0.0
0.109,8.193903839569785,-1.6158349623593629,10.0,0.0,30.479492826483483,30.13532818694665,329.7729333713989,370.0359466300277,0.0
0.11,8.570995407984835,-1.3922822145431053,10.0,0.0,30.582069056505954,30.308874194417697,321.5552689656577,370.0359466300277,0.0
0.111,8.950499811728243,-1.15131932062291,10.0,0.0,30.667471873420215,30.43734865541627,313.8642633063223,370.0359466300277,0.0
0.112,9.33067865812369,-0.9033202219146612,10.0,0.0,30.73231158282421,30.52349132294035,306.6888764405031,370.0359466300277,0.0
0.113,9.704269278002425,-0.6651677450484721,10.0,0.0,30.775564806572,30.570210514929705,316.7306005109844,370.0359466300277,0.0
0.114,9.884749794052917,-0.7381830691060194,10.0,0.0,30.82957783755895,30.60046615952814,329.05986083727777,370.0359466300277,0.0
0.115,9.93114946881136,-0.99023440227315,10.0,0.0,30.908210623314858,30.629798383702493,337.7424971663025,370.0359466300277,0.0
0.116,9.907896275580988,-1.309284827907899,10.0,0.0,31.014488386400757,30.667082512037933,346.2786438502649,370.0359466300277,0.0
0.117,9.850082985963757,-1.6320239669306442,10.0,0.0,31.14617758704776,30.717392933774008,356.3129521262746,370.0359466300277,0.0
0.11800000000000001,9.756342120949201,-1.9593726944987704,10.0,0.0,31.30250987844595,30.785574595656612,367.1940648712783,370.0359466300277,0.0
0.11900000000000001,9.627077654844683,-2.2921836985340853,8.995071929807564,0.0,31.48336283006078,30.765310915390952,377.79841682573596,370.0359466300277,0.0
0.12,9.427289831574136,-2.6029445181282944,3.615271250621639,0.0,31.67495969860256,30.204114120203535,386.30467181184207,370.0359466300277,0.0
0.121,8.98022391673622,-2.7940451271412488,-0.8005434942495615,0.0,31.80919065956692,29.33343444864452,391.6570124465052,370.0359466300277,0.0
0.122,8.315775182177786,-2.8506876822062415,-3.6929244697458907,0.0,31.847250232245955,28.35786078213502,394.18344091981254,370.0359466300277,0.0
0.123,7.534658892578038,-2.8045765318930598,-5.19761364929742,0.0,31.77830782892104,27.426336744059046,394.244806382114,370.0359466300277,0.0
0.124,6.745387131021988,-2.6950967502656242,-5.470384977969016,0.0,31.611525597645123,26.64512164597498,392.249780850566,370.0359466300277,0.0
0.125,6.039209671315855,-2.557796845096734,-4.69501055440041,0.0,31.369291887936093,26.08315553740312,388.88357723357024,370.0359466300277,0.0
0.126,5.479425476179008,-2.4243267052797237,-3.20038505193794,0.0,31.081776222012596,25.764332216620712,384.60267497330136,370.0359466300277,0.0
0.127,5.097431464162221,-2.3167134988766254,-1.2056012052362393,0.0,30.780627039297034,25.689541128807246,379.8986571711537,370.0359466300277,0.0
0.128,4.905096321263802,-2.240746022488388,1.0477805904263455,0.0,30.49483337573301,25.83737531615808,375.1849627782857,370.0359466300277,0.0
0.129,4.893689851164488,-2.196881149350103,3.3531376253777543,0.0,30.248337035979144,26.172233534587413,370.36415633544794,370.0359466300277,0.0
0.13,5.044021386048744,-2.1755115406102687,5.760258749742427,0.0,30.058064143813596,26.674035516990752,365.479345628976,370.0359466300277,0.0
0.131,5.337368708523399,-2.168469389415509,8.248230112988928,0.0,29.93643779856092,27.325470760527313,360.88317221351986,370.0359466300277,0.0
0.132,5.756866841540854,-2.1693963677142074,10.0,0.0,29.892290001311963,28.024203497716517,356.4015762160383,370.0359466300277,0.0
0.133,6.2556353583148105,-2.1598793986132963,10.0,0.0,29.92137412112273,28.58046092707683,351.65128135720056,370.0359466300277,0.0
0.134,6.748618318440009,-2.0957355983160006,10.0,0.0,29.996214923546777,29.03476058503618,346.6265325099674,370.0359466300277,0.0
0.135,7.214389723048013,-1.9748004991719605,10.0,0.0,30.09634018862147,29.404809332536352,341.77666386882635,370.0359466300277,0.0
0.136,7.650825368451773,-1.8088137532621849,10.0,0.0,30.20640861088007,29.704515524845654,336.50676998780636,370.0359466300277,0.0
0.137,8.058178248196656,-1.6201824155968763,10.0,0.0,30.31635123045966,29.94481347983198,329.33476332803775,370.0359466300277,0.0
0.138,8.449553284055797,-1.411287783808627,10.0,0.0,30.41823728745988,30.133098176130577,321.3048197140364,370.0359466300277,0.0
0.139,8.8369310666051,-1.1809427626416151,10.0,0.0,30.505514202379445,30.274045202777504,313.6704763847702,370.0359466300277,0.0
0.14,9.221291790614572,-0.9399597473914505,10.0,0.0,30.573953447005895,30.371219316436157,306.54749899948973,370.0359466300277,0.0
0.14100000000000001,9.597418738018536,-0.7052013531450614,10.0,0.0,30.62185258532096,30.427989586217233,313.4532009911516,370.0359466300277,0.0
0.14200000000000002,9.809982135077188,-0.7360703044435652,10.0,0.0,30.676382005367923,30.464252038649292,323.1653911844317,370.0359466300277,0.0
0.14300000000000002,9.891343310413744,-0.9401918123841471,10.0,0.0,30.75122940501388,30.49551709252641,334.1521524692092,370.0359466300277,0.0
0.14400000000000002,9.887684064939323,-1.2355049205576902,10.0,0.0,30.85216179690264,30.53235650973597,343.64985036190586,370.0359466300277,0.0
0.145,9.83198357318432,-1.564933850650621,10.0,0.0,30.97996894255196,30.581695686051756,352.9985161482609,370.0359466300277,0.0
0.146,9.743655301436014,-1.8946782464301837,10.0,0.0,31.132906885502756,30.648040764275663,363.32140206202325,370.0359466300277,0.0
0.147,9.623798872316518,-2.223171297122428,10.0,0.0,31.31002233359921,30.735346053457906,374.16157830189496,370.0359466300277,0.0
0.148,9.473262867606426,-2.5504681825077156,4.887564554118706,0.0,31.51087449268971,30.284624855711556,383.3149164406789,370.0359466300277,0.0
