timestamp,iq,id,iq_ref,id_ref,vq,vd,omega,omega_ref,r
0.0,0.0,0.0,0.0,0.0,0.0,0.0,0.0,435.15898401724274,0.0
0.001,0.0,0.0,10.0,0.0,0.0,1.0999999999999999,19.017400926041365,435.15898401724274,0.0
0.002,0.46220787667830504,-0.26605739865518446,10.0,0.0,0.13926631385207022,1.9391571335653863,39.81924284122425,435.15898401724274,0.0
0.003,0.8771480129903876,-0.501876922764232,10.0,0.0,0.37180128334091556,2.667303848931895,61.549602704662774,435.15898401724274,0.0
0.004,1.2115256636567346,-0.6911804231626879,10.0,0.0,0.6723626172202668,3.3132572495004595,84.30434980084206,435.15898401724274,0.0
0.005,1.4764725859427767,-0.8408103310237172,10.0,0.0,1.0220294126292682,3.898871058455302,107.52617992742194,435.15898401724274,0.0
0.006,1.6879208386649556,-0.9597907487509562,10.0,0.0,1.4068824562642392,4.440280327478981,130.8253238305037,435.15898401724274,0.0
0.007,1.8592448712094731,-1.0554647645014248,10.0,0.0,1.8167254599933602,4.949302812911116,154.3537885707937,435.15898401724274,0.0
0.008,2.0008118834698143,-1.132941805548218,10.0,0.0,2.2440521462504264,5.434548219149756,177.6906345214704,435.15898401724274,0.0
0.009000000000000001,2.120404502909329,-1.1957907691195622,10.0,0.0,2.683309320088029,5.902262235374493,200.4802579076536,435.15898401724274,0.0
0.01,2.22412465023927,-1.246076676433611,10.0,0.0,3.130315138333177,6.3569172773486216,223.08453375590867,435.15898401724274,0.0
0.011,2.3170707800614103,-1.2845108291255154,10.0,0.0,3.5818107766741916,6.801620524142713,243.95496918022215,435.15898401724274,0.0
0.012,2.4032421341548154,-1.3115992368515048,10.0,0.0,4.035222559183454,7.238453622439446,264.4826215241114,435.15898401724274,0.0
0.013000000000000001,2.486459144859776,-1.32684871842808,10.0,0.0,4.4883830321676275,7.668652431520819,283.70673049586776,435.15898401724274,0.0
0.014,2.569998941759591,-1.3298903201414167,10.0,0.0,4.939429420134221,8.092790199440541,301.8267933555322,435.15898401724274,0.0
0.015,2.6567731532605388,-1.3205494221932823,10.0,0.0,5.3867270313047,8.510909064068844,318.3166289370602,435.15898401724274,0.0
0.016,2.7497579775299905,-1.2983197521876995,10.0,0.0,5.828754913099829,8.922585214796737,333.5157894900972,435.15898401724274,0.0
0.017,2.8512151542943847,-1.2636823367849874,10.0,0.0,6.2641598027939915,9.327066097429965,347.3656447591833,435.15898401724274,0.0
0.018000000000000002,2.9623291291863136,-1.2186745552243181,10.0,0.0,6.691867809964411,9.723431415298815,358.9286493344517,435.15898401724274,0.0
0.019,3.0848089254267723,-1.1641787500529328,10.0,0.0,7.110897087451432,10.110569364260293,367.79061858566337,435.15898401724274,0.0
0.02,3.2199614441597384,-1.101211509429628,10.0,0.0,7.520355793669047,10.487254466976104,375.4643652477077,435.15898401724274,0.0
0.021,3.369769127812589,-1.0289802567872972,10.0,0.0,7.919221374152061,10.85208961002761,383.21000395060133,435.15898401724274,0.0
0.022,3.5329837049926063,-0.9512291499259464,10.0,0.0,8.306853601663594,11.203872270168993,395.1966453940123,435.15898401724274,0.0
0.023,3.6790982996453234,-0.9194883537598397,10.0,0.0,8.688186895928457,11.544799427407394,429.555868276214,435.15898401724274,0.0
0.024,3.757276252647923,-0.9922823714267957,5.854190348836891,0.0,9.073804326395699,11.426589707836738,440.7451697785794,435.15898401724274,0.0
0.025,3.6102299713239785,-1.0068743470304797,0.20367774004084094,0.0,9.40991621899889,10.795621283289602,453.37463891636884,435.15898401724274,0.0
0.026000000000000002,3.204294541334654,-0.908274345879265,-6.293213377845141,0.0,9.638328160004377,9.646390428063583,456.1340992923151,435.15898401724274,0.0
0.027,2.539171640601945,-0.697549143000495,-7.882694718569002,0.0,9.706782049081557,8.594153980940657,452.57568623131885,435.15898401724274,0.0
0.028,1.8985567764357953,-0.49551489579514685,-6.277655210211634,0.0,9.64305038937493,7.9102521328152395,448.7494312123274,435.15898401724274,0.0
0.029,1.4512974599854496,-0.37858495131205294,-4.500432172666757,0.0,9.506459759405335,7.510603818745941,445.4756623971624,435.15898401724274,0.0
0.03,1.181364294259322,-0.3390467178208904,-2.9667145488834548,0.0,9.340383454786572,7.3134180363926955,442.99029688898065,435.15898401724274,0.0
0.031,1.0414282514902673,-0.35123996062803564,-1.802344923509955,0.0,9.172932841438058,7.244780317413486,441.3704088505659,435.15898401724274,0.0
0.032,0.985095040644363,-0.38916764850386515,-1.0545151526358225,0.0,9.019413630764745,7.2416761803051255,438.8818087269039,435.15898401724274,0.0
0.033,0.9742403518311686,-0.4309150410376644,0.15255666209857832,0.0,8.885148863747888,7.349460821413303,438.35144135306024,435.15898401724274,0.0
0.034,1.0192919637938673,-0.4824029911598527,0.3858157756622336,0.0,8.780335238131638,7.4415640818496085,436.73766942066385,435.15898401724274,0.0
0.035,1.0694750379338527,-0.5143722875306749,1.1769148878262172,0.0,8.69821504422021,7.593594342847288,435.0508972789803,435.15898401724274,0.0
0.036000000000000004,1.1478614855410811,-0.5407599970333891,2.0213818260506153,0.0,8.642092850881285,7.799069251941706,432.60453274072404,435.15898401724274,0.0
0.037,1.2562342887433515,-0.5641701675644715,3.2701086079439334,0.0,8.614441609449086,8.096162583542633,430.72173887704344,435.15898401724274,0.0
0.038,1.4111846678744304,-0.5934392014039361,4.255877991186228,0.0,8.622250317337226,8.440768008505568,422.6166377173839,435.15898401724274,0.0
0.039,1.59851028989685,-0.6177673767583325,8.433852034014572,0.0,8.666122105883439,9.182356898008567,429.20160113045165,435.15898401724274,0.0
0.04,1.9543586694563624,-0.7188957337701922,5.200944156348621,0.0,8.79064644204309,9.419504404913022,428.6350529987711,435.15898401724274,0.0
0.041,2.1347811669044563,-0.69900974552338,5.5494575323736255,0.0,8.923234352999948,9.699767153958717,427.9653418990766,435.15898401724274,0.0
0.042,2.3044153834319787,-0.663492062992042,5.956249503402535,0.0,9.06688166256972,9.989668863404912,428.05391527191426,435.15898401724274,0.0
0.043000000000000003,2.489433746210431,-0.6169321168504549,5.983013504436977,0.0,9.220387994876871,10.245165575526606,414.40097394859436,435.15898401724274,0.0
0.044,2.6645027690850847,-0.5727820578815321,10.0,0.0,9.379702458140306,10.914656715280007,420.90552652699995,435.15898401724274,0.0
0.045,3.0388464793822387,-0.5859605008573952,9.846981267147378,0.0,9.591925718369774,11.436701143911055,425.0647985965569,435.15898401724274,0.0
0.046,3.3588836711758967,-0.627766719157595,7.868287086575762,0.0,9.839597995022663,11.680176629173262,457.121656630474,435.15898401724274,0.0
0.047,3.470460364659861,-0.7263757324612204,-8.37976865651509,0.0,10.09727952181688,10.147499539274955,443.5633369623657,435.15898401724274,0.0
0.048,2.7558689438359862,-0.4961222933309633,-1.6846523519121934,0.0,10.149611218504482,9.772522485208599,454.18746337546185,435.15898401724274,0.0
0.049,2.413161335381403,-0.45103514409800094,-7.187000352042445,0.0,10.156554988092367,8.798618785879041,454.5933904539493,435.15898401724274,0.0
0.05,1.8896444299171238,-0.32966292454210233,-7.584307955653251,0.0,10.052513938129684,7.988279260561875,450.24210190291814,435.15898401724274,0.0
0.051000000000000004,1.4257307113537623,-0.2245317824343736,-5.559494858994411,0.0,9.86749233719526,7.5210674394360595,446.9295376074614,435.15898401724274,0.0
0.052000000000000005,1.1362283679339225,-0.1967249312897545,-4.02091824716822,0.0,9.652244272036874,7.258276057254226,444.0916681678639,435.15898401724274,0.0
0.053,0.9764815732487724,-0.21919058634175326,-2.691310368875676,0.0,9.434991165743304,7.145787231249823,441.7166043916501,435.15898401724274,0.0
0.054,0.9082334219482529,-0.27134218155515893,-1.5693546845128603,0.0,9.233726506401604,7.138850852409693,440.3464356090899,435.15898401724274,0.0
0.055,0.90096343881257,-0.33763942661877155,-0.9361448091512323,0.0,9.058665856114924,7.171032391597477,438.40666813647834,435.15898401724274,0.0
0.056,0.9201550335074653,-0.3976048540035905,0.0012620859621867986,0.0,8.910262649337387,7.277088596298878,437.627688876058,435.15898401724274,0.0
0.057,0.9744066081630782,-0.4550151948794891,0.3660646675841981,0.0,8.793020866930245,7.382677317614505,435.9167341327815,435.15898401724274,0.0
0.058,1.0345711979817611,-0.4945791482071246,1.2139645380670545,0.0,8.70184006635266,7.54952835936125,434.4147348448304,435.15898401724274,0.0
0.059000000000000004,1.122769729321265,-0.5284216268793089,1.9724066737667534,0.0,8.639789483128173,7.756425660548541,432.0612946525168,435.15898401724274,0.0
0.06,1.2345638067002982,-0.5555459933167841,3.1801036635708124,0.0,8.60727894386626,8.050275057617805,430.0830901021186,435.15898401724274,0.0
0.061,1.38924311163091,-0.586621211772878,4.219964877921141,0.0,8.610551428603266,8.39789944196587,422.3975180611415,435.15898401724274,0.0
0.062,1.577517870441083,-0.6142759503000522,8.1903655579707,0.0,8.6509903723548,9.118270668594967,428.27170854313465,435.15898401724274,0.0
0.063,1.9250584540909412,-0.7122442594234493,5.322143071715211,0.0,8.769922511012396,9.379093470034324,427.7009512162809,435.15898401724274,0.0
0.064,2.1138568065817696,-0.6981470674472241,5.682102063151713,0.0,8.90051334173955,9.676712506178584,427.9450122500491,435.15898401724274,0.0
0.065,2.291491910605278,-0.6685136095392334,5.632211263939539,0.0,9.044688284558296,9.930889266035749,428.08110182384377,435.15898401724274,0.0
0.066,2.4599397193800643,-0.6192599380971544,5.634945298976197,0.0,9.194741839801337,10.158112588110235,411.07564657996096,435.15898401724274,0.0
0.067,2.6213626103578775,-0.5663500845703006,10.0,0.0,9.347184824553988,10.841675570344018,420.19519276103057,435.15898401724274,0.0
0.068,2.9983563784722147,-0.5830125329980811,9.880800991411927,0.0,9.555101776917077,11.375509029291965,426.72673740468343,435.15898401724274,0.0
0.069,3.3285798056488556,-0.620384159257965,6.699351135711089,0.0,9.799554634342961,11.49542870423192,446.63967141760463,435.15898401724274,0.0
0.07,3.398330766346621,-0.6824088877694415,-3.3719227447531295,0.0,10.038003177393914,10.547405697721429,448.89703808535916,435.15898401724274,0.0
0.07100000000000001,2.927774456897785,-0.5699182837145909,-4.637986619311556,0.0,10.14481035175758,9.731934262416651,452.68404963790164,435.15898401724274,0.0
0.07200000000000001,2.4344692300463526,-0.45155120554308026,-6.706743051789385,0.0,10.147494192596078,8.843346131110902,453.17330981224546,435.15898401724274,0.0
0.073,1.9195833626479188,-0.33153514297313036,-7.1315163969113256,0.0,10.049032740119173,8.069552086526263,450.2130024752769,435.15898401724274,0.0
0.074,1.4715417674856304,-0.2354026858688032,-5.801902913007376,0.0,9.87366361877572,7.5579322346269135,446.7198763733444,435.15898401724274,0.0
0.075,1.1643581634599403,-0.19966713080319626,-4.170948785602148,0.0,9.661699837890502,7.275356055449896,443.8611843364418,435.15898401724274,0.0
0.076,0.9917557425716786,-0.2172126237519399,-2.8286247703428398,0.0,9.444962176951126,7.14710164676398,441.4297257956645,435.15898401724274,0.0
0.077,0.9140271653414787,-0.2661695313384128,-1.675602917738422,0.0,9.242282646142117,7.130232195773051,440.05444345273014,435.15898401724274,0.0
0.078,0.9008081276006917,-0.3311480674828097,-1.036916340626104,0.0,9.064842193214933,7.154183850135809,438.0969068851387,435.15898401724274,0.0
0.079,0.9155239885711747,-0.3908150672722889,-0.08752728550934741,0.0,8.913454535632146,7.254291288977131,436.95068815138154,435.15898401724274,0.0
0.08,0.9662747729140653,-0.44921669115670343,0.4676650400278479,0.0,8.793043896321157,7.375391055765957,435.89620092996114,435.15898401724274,0.0
0.081,1.0322378016697533,-0.4941513330213484,0.9875364816108652,0.0,8.701143091986417,7.517225291943859,434.0146962850913,435.15898401724274,0.0
0.082,1.1106575271571313,-0.5247655838377933,1.9397316813672973,0.0,8.635534012874109,7.727262242111823,431.8466388782926,435.15898401724274,0.0
0.083,1.2215893161297362,-0.5536400828537259,3.0568838361561532,0.0,8.600359589073408,8.011681074848854,429.91204951450527,435.15898401724274,0.0
0.084,1.3717314500356814,-0.5844771939826763,4.0766478630771905,0.0,8.60024782816051,8.349736786505614,425.0218818711274,435.15898401724274,0.0
0.085,1.555803334797444,-0.6097325466671758,6.623102706227284,0.0,8.63642253218858,8.90514165739797,425.139552267618,435.15898401724274,0.0
0.08600000000000001,1.8346764865708265,-0.672958800731959,6.664461825478226,0.0,8.731222587323362,9.358873138442545,427.4710366411082,435.15898401724274,0.0
0.08700000000000001,2.0909158192212223,-0.7019163227576704,5.57559911249448,0.0,8.864468849931308,9.631125392201609,427.4482220581256,435.15898401724274,0.0
0.088,2.2702521556700357,-0.6748854504078866,5.664114023576932,0.0,9.008352740475626,9.892937710511607,427.40641014972704,435.15898401724274,0.0
0.089,2.441134428549682,-0.6271863062677966,5.762545716451382,0.0,9.159052876664607,10.135895836498127,414.05506514997904,435.15898401724274,0.0
0.09,2.606165915050595,-0.5805185842148858,10.0,0.0,9.314322353848917,10.818319176980191,420.19153046279183,435.15898401724274,0.0
0.091,2.982912541679365,-0.5947245572866147,9.67771413603617,0.0,9.524336551621424,11.330409329196819,421.2003058431011,435.15898401724274,0.0
0.092,3.313039103491783,-0.6073247975932334,9.312913227622957,0.0,9.765802311541352,11.742840189150142,454.70449125348335,435.15898401724274,0.0
0.093,3.507170543081204,-0.7281331655245302,-7.63463454993058,0.0,10.037527499533999,10.259539099916656,439.9087351250914,435.15898401724274,0.0
0.094,2.831024458140992,-0.5074981903291911,-0.28425399681310237,0.0,10.108272128853226,10.006075360763555,454.03142869643176,435.15898401724274,0.0
0.095,2.54610105104464,-0.4859875216161984,-7.53432522927516,0.0,10.146436097518752,8.938600931286889,453.7457255510791,435.15898401724274,0.0
0.096,1.987146228870633,-0.3494095486547256,-7.577341071937189,0.0,10.059227756031422,8.108095107624411,449.61870125995836,435.15898401724274,0.0
0.097,1.5044656963292304,-0.23647873916238316,-5.658426098803978,0.0,9.886633057012036,7.6109351480085365,446.6663768399882,435.15898401724274,0.0
0.098,1.1959561960856153,-0.20140284437279182,-4.297337817046341,0.0,9.678852791601068,7.305871515415704,443.8883695767844,435.15898401724274,0.0
0.099,1.0125339331025058,-0.21537878897094637,-2.995628041039863,0.0,9.46323230232561,7.157204766009901,441.4245132780907,435.15898401724274,0.0
0.1,0.9235575385479273,-0.2607187948384744,-1.8263551843015144,0.0,9.25915482823656,7.125398739869455,439.81713834793067,435.15898401724274,0.0
0.101,0.9018501308586516,-0.3235140304909384,-1.0692492625283623,0.0,9.078758574805466,7.149452542662087,438.1917100145076,435.15898401724274,0.0
0.10200000000000001,0.9149988968711487,-0.3850565035546579,-0.2868623557894667,0.0,8.924949046677234,7.229889402017626,436.52050156353926,435.15898401724274,0.0
0.10300000000000001,0.9571884407543754,-0.4414773206322263,0.5351266942317292,0.0,8.800155022445272,7.364987186892704,436.0133220602178,435.15898401724274,0.0
0.10400000000000001,1.027246674138642,-0.4916059349246704,0.7801730654627195,0.0,8.706300118525405,7.485546490958834,433.83828675344404,435.15898401724274,0.0
0.105,1.097170349444761,-0.5202938185659088,1.8808976914875748,0.0,8.636541016461752,7.696302597426962,431.87828855619125,435.15898401724274,0.0
0.106,1.2064753965590296,-0.5509356800656342,2.8937037447244833,0.0,8.597917161179836,7.968084284208213,429.86789623788434,435.15898401724274,0.0
0.107,1.3505743109573196,-0.581182537536293,3.951810781671524,0.0,8.59335459581101,8.300331300202284,426.3059505566048,435.15898401724274,0.0
0.108,1.530676309029494,-0.6068622630773821,5.82131395691768,0.0,8.624995289813283,8.775591406323713,424.9600697502101,435.15898401724274,0.0
0.109,1.7754387399199565,-0.6545864254765537,6.5962435027853505,0.0,8.705990785635972,9.24791394210898,425.74336691554396,435.15898401724274,0.0
0.11,2.0340091897056323,-0.6877887476271614,6.298751091135407,0.0,8.829293999267499,9.614635187990302,427.2080592515991,435.15898401724274,0.0
0.111,2.2541310424006014,-0.6828416524083041,5.645914170764282,0.0,8.976062812428417,9.866549794223728,426.4110998176592,435.15898401724274,0.0
0.112,2.4239693950230827,-0.6418884515949831,6.131872729730063,0.0,9.128890823759315,10.151452631578326,415.7209034418462,435.15898401724274,0.0
0.113,2.60784192262966,-0.5987908760528826,10.0,0.0,9.290595116391083,10.825254805960098,421.36328260631217,435.15898401724274,0.0
0.114,2.9775121050161406,-0.6172654030377327,8.954692120799034,0.0,9.505972370921608,11.25535705796561,417.0561856684137,435.15898401724274,0.0
0.115,3.2734651401784483,-0.605045753753927,10.0,0.0,9.741293218508558,11.76056562368375,449.6733374773745,435.15898401724274,0.0
0.116,3.514832788397628,-0.7209579004952575,-5.19023623730989,0.0,10.01647537054302,10.533815441740188,442.9087473155544,435.15898401724274,0.0
0.117,2.95756821391879,-0.551734615167669,-1.8854387893829663,0.0,10.12169060632623,10.036401354514357,452.6703057136858,435.15898401724274,0.0
0.11800000000000001,2.5835086890830525,-0.4901376778776675,-6.941331205413096,0.0,10.161559479559907,9.045627961333981,453.40848327427375,435.15898401724274,0.0
0.11900000000000001,2.041954541103831,-0.35781577604625486,-7.492914978277371,0.0,10.084424686323626,8.203633864969605,450.3330691762834,435.15898401724274,0.0
0.12,1.5551363075353346,-0.24483292610862983,-6.106948780872603,0.0,9.91969906829971,7.644232282573947,446.9821182836993,435.15898401724274,0.0
0.121,1.2177028026367638,-0.19704045808655263,-4.5497046772451295,0.0,9.71137851085557,7.313984989243595,444.09975855503137,435.15898401724274,0.0
0.122,1.0178766137437978,-0.2048401082207842,-3.1979325582890405,0.0,9.49220116601779,7.147659407279997,441.3377761187018,435.15898401724274,0.0
0.123,0.9190369626452382,-0.24709536546956595,-1.8787292611388509,0.0,9.28287907926346,7.116517390257859,439.71862184666435,435.15898401724274,0.0
0.124,0.8966397274208779,-0.3119045005676546,-1.1147485034143356,0.0,9.098081451770645,7.139878516004385,438.3089845846968,435.15898401724274,0.0
0.125,0.9098925447954779,-0.37625181136800695,-0.44142987810511025,0.0,8.940529812438822,7.2071672253702985,436.45486505939874,435.15898401724274,0.0
0.126,0.9469468877157905,-0.43251026924537544,0.472671074122367,0.0,8.811007165235278,7.341846368810881,435.99164095140935,435.15898401724274,0.0
0.127,1.0160082274557676,-0.4850123020092176,0.695956558775396,0.0,8.713117336121403,7.458299523034413,433.8009330375547,435.15898401724274,0.0
0.128,1.0839342510823584,-0.5155117391462766,1.8048910254995878,0.0,8.6394917230987,7.666287066215812,432.00968514778793,435.15898401724274,0.0
0.129,1.1914628658935706,-0.5478841033401043,2.732007959077533,0.0,8.59728339138636,7.925857924410164,429.91059263042484,435.15898401724274,0.0
0.13,1.3297133572169388,-0.5776591406648635,3.834038131627257,0.0,8.588204509128476,8.253070745361079,427.3937207078967,435.15898401724274,0.0
0.131,1.5059821209540498,-0.6044003708271661,5.170126725984787,0.0,8.615398582136075,8.664596780547095,424.26197303756805,435.15898401724274,0.0
0.132,1.7244403108672703,-0.6385600811498164,6.844970670945859,0.0,8.684516007195384,9.186293854264331,425.5397115999188,435.15898401724274,0.0
0.133,1.9979841285383442,-0.6844500380787341,6.302294113943724,0.0,8.80359769527944,9.558384864351243,426.8028456721565,435.15898401724274,0.0
0.134,2.222804500431293,-0.6844146156589974,5.754288461275749,0.0,8.947517519528322,9.8283262832829,426.222925197617,435.15898401724274,0.0
0.135,2.4002340351290075,-0.6486497063691445,6.133609286741759,0.0,9.1001057174478,10.1156018449764,419.6416576844121,435.15898401724274,0.0
0.136,2.584147394182634,-0.6085588438017442,9.579416306672497,0.0,9.262110305955158,10.746198060081298,419.7740055710603,435.15898401724274,0.0
0.137,2.9345123013387187,-0.6175814268709636,9.667092147810234,0.0,9.472367449885564,11.268420378655652,421.9995230936028,435.15898401724274,0.0
0.138,3.2637979926519955,-0.6246008137483207,8.685927995775367,0.0,9.714503018006171,11.617923587657497,439.1399260785074,435.15898401724274,0.0
