timestamp,iq,id,iq_ref,id_ref,vq,vd,omega,omega_ref,r
0.0,0.0,0.0,0.0,0.0,0.0,0.0,0.0,353.5209795308057,0.0
0.001,0.0,0.0,10.0,0.0,0.0,1.0999999999999999,4.577892485975784,353.5209795308057,0.0
0.002,0.6690856637701043,-0.3690039240110771,10.0,0.0,0.15059043164121852,1.9164005769852888,9.610354151367853,353.5209795308057,0.0
0.003,1.17444370120755,-0.6453211092230481,10.0,0.0,0.39446672895005,2.6173216119557514,14.885146005849789,353.5209795308057,0.0
0.004,1.5629026621525919,-0.8535145598654265,10.0,0.0,0.7041856077435866,3.234861267830472,20.323385432824555,353.5209795308057,0.0
0.005,1.8667099706929182,-1.0137579582743965,10.0,0.0,1.0602314035638043,3.792084631667089,25.856635704203615,353.5209795308057,0.0
0.006,2.110126237856957,-1.1384670650004138,10.0,0.0,1.4485105239414344,4.305452522399424,31.460041356303684,353.5209795308057,0.0
0.007,2.3096558388055235,-1.2380085470414404,10.0,0.0,1.8590009933117877,4.786797442663587,37.09962789994433,353.5209795308057,0.0
0.008,2.4774164974806703,-1.3192540952955054,10.0,0.0,2.284518503259059,5.2445985413935885,42.75286005845163,353.5209795308057,0.0
0.009000000000000001,2.622063557845095,-1.387135645409665,10.0,0.0,2.71991888711462,5.6849377111919805,48.40573168091215,353.5209795308057,0.0
0.01,2.749691483497698,-1.4453396871303166,10.0,0.0,3.161536778652595,6.1121904011779495,54.04775911769995,353.5209795308057,0.0
0.011,2.864490085836073,-1.496785411570534,10.0,0.0,3.606795139306585,6.529528044318421,59.65906541556839,353.5209795308057,0.0
0.012,2.97006668625796,-1.5425053002423155,10.0,0.0,4.053776158718717,6.939192319187223,65.23691157197591,353.5209795308057,0.0
0.013000000000000001,3.0687448319770168,-1.583678046923153,10.0,0.0,4.5010973069246925,7.342789438485479,70.7753849435763,353.5209795308057,0.0
0.014,3.162193962112242,-1.6211345679431246,10.0,0.0,4.947754542085282,7.741466337816825,76.26714505369247,353.5209795308057,0.0
0.015,3.2516561638169263,-1.6553918768916893,10.0,0.0,5.393007482437091,8.13603491984493,81.70428472601665,353.5209795308057,0.0
0.016,3.3380735953178546,-1.6867400547476945,10.0,0.0,5.836297713431205,8.527060642257354,87.07841908134064,353.5209795308057,0.0
0.017,3.4221853488839695,-1.7152962714367046,10.0,0.0,6.277189195624381,8.914924696950681,92.38076634576792,353.5209795308057,0.0
0.018000000000000002,3.5045929640272844,-1.7410511328253715,10.0,0.0,6.7153254076534346,9.299867774263886,97.60212165606586,353.5209795308057,0.0
0.019,3.5858070615952746,-1.763903345295023,10.0,0.0,7.150398500968677,9.682020690467633,102.73284909522451,353.5209795308057,0.0
0.02,3.666281980145346,-1.78368333628275,10.0,0.0,7.582126853456726,10.061425524317706,107.76293187448177,353.5209795308057,0.0
0.021,3.7464392589577726,-1.800173127650361,10.0,0.0,8.010238931221535,10.438050158547703,112.68204178622901,353.5209795308057,0.0
0.022,3.8266886207532584,-1.8131140169961606,10.0,0.0,8.434460864547226,10.811797680121805,117.48011512655744,353.5209795308057,0.0
0.023,3.90742827261785,-1.822236967276957,10.0,0.0,8.854509472335186,11.18251377478392,122.14343440634835,353.5209795308057,0.0
0.024,3.988274604563204,-1.828574412008869,10.0,0.0,9.270230718228264,11.550077420763268,126.6333462916377,353.5209795308057,0.0
0.025,4.070485577389725,-1.8304206604880804,10.0,0.0,9.681275917015368,11.914222083042533,130.95947998069008,353.5209795308057,0.0
0.026000000000000002,4.154486352707361,-1.8274762765606862,10.0,0.0,10.087288717434877,12.274638823415902,135.11501256018224,353.5209795308057,0.0
0.027,4.240541094158631,-1.8197386379833684,10.0,0.0,10.487920215445547,12.630989155987429,139.0873145644073,353.5209795308057,0.0
0.028,4.32897021467336,-1.807132162751774,10.0,0.0,10.882814261022592,12.982900949260753,142.85988156080217,353.5209795308057,0.0
0.029,4.420105261585707,-1.7895805516111278,10.0,0.0,11.271605468896116,13.329970403809245,146.42396035294746,353.5209795308057,0.0
0.03,4.5142843497949565,-1.7670109496250208,10.0,0.0,11.65391736133007,13.671763684456339,149.76920013423424,353.5209795308057,0.0
0.031,4.611805681455621,-1.7394257388695005,10.0,0.0,12.029368715422091,14.007823270681543,152.88571521443225,353.5209795308057,0.0
0.032,4.712942085224709,-1.7068707337892353,10.0,0.0,12.39757569427616,14.337672242595438,155.76487340214229,353.5209795308057,0.0
0.033,4.817935452316198,-1.6694346132927305,10.0,0.0,12.758154449232393,14.660819108860975,158.39981827798152,353.5209795308057,0.0
0.034,4.926990102439108,-1.6272496449205462,10.0,0.0,13.110724030003585,14.976763086152976,160.78584804557215,353.5209795308057,0.0
0.035,5.040264546373516,-1.580494814018066,10.0,0.0,13.454909868711304,15.284999981461336,162.9205014144954,353.5209795308057,0.0
0.036000000000000004,5.157864623276115,-1.5293969673196948,10.0,0.0,13.790347598251293,15.585028507089696,164.8034954746255,353.5209795308057,0.0
0.037,5.279840027932398,-1.474227120488829,10.0,0.0,14.11668670271571,15.876356659366053,166.43686900973802,353.5209795308057,0.0
0.038,5.4061845315339765,-1.4152918132542933,10.0,0.0,14.433593526633828,16.158507765511608,167.82522224298623,353.5209795308057,0.0
0.039,5.536837124942762,-1.3529243903143677,10.0,0.0,14.740753715323642,16.431026103195464,168.97444569102475,353.5209795308057,0.0
0.04,5.671677867307488,-1.2874868400462507,10.0,0.0,15.037875262612765,16.69348267025389,169.89222010335362,353.5209795308057,0.0
0.041,5.810543184680249,-1.2193411685563063,10.0,0.0,15.324688663517612,16.945478957848017,170.5875807004541,353.5209795308057,0.0
0.042,5.9532304109480645,-1.1488399368752846,10.0,0.0,15.60094667432137,17.1866500150575,171.0681809476328,353.5209795308057,0.0
0.043000000000000003,6.0995273550956774,-1.0762761440368434,10.0,0.0,15.866418984870286,17.41666397603284,171.33779469255862,353.5209795308057,0.0
0.044,6.249306107061798,-1.0017234120992775,10.0,0.0,16.12087029787709,17.635211078690737,171.38735063530493,353.5209795308057,0.0
0.045,6.40325792224317,-0.9237717891455732,10.0,0.0,16.36390203864348,17.841911690233246,171.368683600265,353.5209795308057,0.0
0.046,6.556483043513451,-0.8505151187574338,10.0,0.0,16.59602194897431,18.036930169510217,174.28602240586054,353.5209795308057,0.0
0.047,6.673425884085691,-0.8403969511798293,10.0,0.0,16.824051284470112,18.22432733064234,178.2068920566923,353.5209795308057,0.0
0.048,6.71585750971357,-0.9433638831698095,10.0,0.0,17.059444946724213,18.412289658797476,183.42729162038594,353.5209795308057,0.0
0.049,6.769780826429997,-1.015753170218482,10.0,0.0,17.297028627823877,18.599487871779985,188.59726178945473,353.5209795308057,0.0
0.05,6.799133148176166,-1.1218191663472141,10.0,0.0,17.540517128815488,18.789035109349296,192.9138795086423,353.5209795308057,0.0
0.051000000000000004,6.841350045575545,-1.197206694383632,10.0,0.0,17.785843471587604,18.979626137764363,198.55667471545712,353.5209795308057,0.0
0.052000000000000005,6.850172823616056,-1.3235735317098478,10.0,0.0,18.038842759749524,19.175142361004685,203.75966464434376,353.5209795308057,0.0
0.053,6.879304352572843,-1.406068635103304,10.0,0.0,18.2939045344193,19.37329065033231,209.80309004667083,353.5209795308057,0.0
0.054,6.876441531689032,-1.536856963372287,10.0,0.0,18.556836725630518,19.57773651378094,214.7239313096386,353.5209795308057,0.0
0.055,6.889910979312329,-1.6298247577664657,10.0,0.0,18.82283885816615,19.78652074255843,221.70542721938364,353.5209795308057,0.0
0.056,6.8780812827955575,-1.758253321581687,10.0,0.0,19.0963166644017,20.00246272280482,227.1776894048115,353.5209795308057,0.0
0.057,6.870876581845977,-1.8682415995383757,10.0,0.0,19.37485531297542,20.224832505789408,234.06602260583438,353.5209795308057,0.0
0.058,6.848818321887075,-1.9937174916442522,10.0,0.0,19.660479540342298,20.455173536918885,240.06020413043973,353.5209795308057,0.0
0.059000000000000004,6.822751815649519,-2.114606135813285,10.0,0.0,19.95261844002298,20.693689620758654,246.48080343386124,353.5209795308057,0.0
0.06,6.79129935193556,-2.2326302762908874,10.0,0.0,20.251168827130407,20.94076709212867,252.9908778563956,353.5209795308057,0.0
0.061,6.754079142137959,-2.3479495718987846,10.0,0.0,20.55607680377619,21.196771553513024,259.4214629774221,353.5209795308057,0.0
0.062,6.713050847952649,-2.4568377048418206,10.0,0.0,20.866918930563486,21.461807276685924,265.70188166842155,353.5209795308057,0.0
0.063,6.663074940778842,-2.5685740163908686,10.0,0.0,21.184382529930314,21.736510707067538,271.83307493818586,353.5209795308057,0.0
0.064,6.614952235825326,-2.6645207598473517,10.0,0.0,21.507006891063334,22.020283892820817,277.8018075448116,353.5209795308057,0.0
0.065,6.570131018188195,-2.743019109034845,10.0,0.0,21.83342148563444,22.312391303002617,283.4856978235368,353.5209795308057,0.0
0.066,6.529127448238479,-2.805011158870001,10.0,0.0,22.162439503756605,22.611991612141452,288.5864378617096,353.5209795308057,0.0
0.067,6.497749523670451,-2.842842828617862,10.0,0.0,22.49205731415435,22.917575228181594,293.3739691264106,353.5209795308057,0.0
0.068,6.474740708627564,-2.8618229013905117,10.0,0.0,22.820981196423855,23.22777945406655,297.63387170713344,353.5209795308057,0.0
0.069,6.461941650545174,-2.8625359025401673,10.0,0.0,23.147921742453633,23.541033453828586,300.9604931091057,353.5209795308057,0.0
0.07,6.466726217254662,-2.8365092628145887,10.0,0.0,23.47062357347533,23.85500181529853,303.5249081354061,353.5209795308057,0.0
0.07100000000000001,6.492500754714033,-2.7824317081144296,10.0,0.0,23.786763792922095,24.167056170270207,305.37735044190333,353.5209795308057,0.0
0.07200000000000001,6.540723707175616,-2.7024867873337093,10.0,0.0,24.09424226018247,24.47447233229322,306.4786698168266,353.5209795308057,0.0
0.073,6.613402913664591,-2.5977616644172867,10.0,0.0,24.390994182606114,24.774382241650798,306.9186474281629,353.5209795308057,0.0
0.074,6.711216291446659,-2.4710692889583545,10.0,0.0,24.675172993651827,25.063943672823832,306.3534046057356,353.5209795308057,0.0
0.075,6.829956621221609,-2.3326643868561434,10.0,0.0,24.94593245123362,25.34088353948673,305.45894681426563,353.5209795308057,0.0
0.076,6.980199891947591,-2.167484469484138,10.0,0.0,25.200524207833624,25.601866008759405,302.59363139435237,353.5209795308057,0.0
0.077,7.1339224864668145,-2.022970092098117,10.0,0.0,25.44151025336215,25.846802354074956,297.74251629842354,353.5209795308057,0.0
0.078,7.343053741714813,-1.8145342082836318,10.0,0.0,25.661408525423646,26.0698764572797,297.0445525459262,353.5209795308057,0.0
0.079,7.5568890171545915,-1.6239801835920151,10.0,0.0,25.86274779672153,26.271202409624244,290.66322208570773,353.5209795308057,0.0
0.08,7.77001061917738,-1.4601647358527827,10.0,0.0,26.04797157711969,26.451224670396005,287.89156284410507,353.5209795308057,0.0
0.081,8.03900964341081,-1.2276103196386356,10.0,0.0,26.20873237424905,26.604308406484964,282.15766263685407,353.5209795308057,0.0
0.082,8.269246174473277,-1.079075333296031,10.0,0.0,26.354712160938814,26.735523820503413,278.13060025180545,353.5209795308057,0.0
0.083,8.55517160788247,-0.8568092075676828,10.0,0.0,26.476251586394763,26.839066239424614,271.63371352937105,353.5209795308057,0.0
0.084,8.80719977922692,-0.7051829685321691,10.0,0.0,26.581535086160606,26.919544514485487,269.3038372561518,353.5209795308057,0.0
0.085,9.097384498827195,-0.5014894579965645,10.0,0.0,26.663448039687395,26.973103274574278,274.6239138117551,353.5209795308057,0.0
0.08600000000000001,9.136344483305502,-0.70194609935567,10.0,0.0,26.76661273952524,27.028113702910254,281.6933473872114,353.5209795308057,0.0
0.08700000000000001,9.137788201420301,-0.9101029773467153,10.0,0.0,26.885854702378328,27.088170349248575,289.2204432850599,353.5209795308057,0.0
0.088,9.085029816713444,-1.1738863517120386,10.0,0.0,27.02611273598021,27.15996338673728,296.8730751445965,353.5209795308057,0.0
0.089,9.052170727678595,-1.368592726831732,10.0,0.0,27.178304137490283,27.241689839784055,304.94559809983724,353.5209795308057,0.0
0.09,8.957944333880171,-1.638714697105679,10.0,0.0,27.351215397132975,27.340499100104655,312.524475709147,353.5209795308057,0.0
0.091,8.88556433839703,-1.8387583778769687,10.0,0.0,27.536020042025545,27.45373809592261,323.29053761485034,353.5209795308057,0.0
0.092,8.766689626755197,-2.0888077164763303,10.0,0.0,27.73917311244888,27.586486074973802,329.39682008855414,353.5209795308057,0.0
0.093,8.63886607773916,-2.323166324878235,10.0,0.0,27.95856462727322,27.739146406437555,337.7176538977944,353.5209795308057,0.0
0.094,8.517141308988156,-2.5137591442384464,10.0,0.0,28.189904647807097,27.910591345309818,348.06737708776245,353.5209795308057,0.0
0.095,8.367993059847361,-2.7206755985249873,10.0,0.0,28.436110041952738,28.103214852066216,356.02260043221395,353.5209795308057,0.0
0.096,8.206331077278028,-2.9198935309059517,6.272906952058632,0.0,28.69680205537849,27.907507647879207,361.53025435765096,353.5209795308057,0.0
0.097,7.810067703281122,-2.94172816304036,3.438987241071673,0.0,28.912263777253948,27.524952479038287,365.1240416937237,353.5209795308057,0.0
0.098,7.298926164126845,-2.8615982855851576,1.5260629514061161,0.0,29.058891177216346,27.072379460082672,366.5556250134808,353.5209795308057,0.0
0.099,6.770783735651847,-2.725491781732626,0.6799248367008328,0.0,29.131428118637707,26.658764785038635,366.30229820080086,353.5209795308057,0.0
0.1,6.310119077992493,-2.5701806361910235,0.6787750563408377,0.0,29.139626737441482,26.347491865006358,364.6172268445814,353.5209795308057,0.0
0.101,5.968201232347133,-2.4117822254635253,1.4103482613128069,0.0,29.100007488637047,26.18165496565262,362.1140334994404,353.5209795308057,0.0
0.10200000000000001,5.767676679020489,-2.2742662330526797,2.5760143941969735,0.0,29.034223699719774,26.167985896330816,358.9280194073574,353.5209795308057,0.0
0.10300000000000001,5.709165458627912,-2.161481319716485,4.114951041472949,0.0,28.962620202219163,26.311162713630903,354.94637117520557,353.5209795308057,0.0
0.10400000000000001,5.796510689381186,-2.0634944998126206,6.091521241104863,0.0,28.90284403514256,26.624701767350885,351.09263113312954,353.5209795308057,0.0
0.105,6.029130011061465,-1.9891640266055073,8.042674746119637,0.0,28.873202906291873,27.07105580946922,347.01988643802946,353.5209795308057,0.0
0.106,6.378111275758751,-1.9281240602315388,10.0,0.0,28.885190202969017,27.629542831467436,345.07375565115797,353.5209795308057,0.0
0.107,6.830616118035614,-1.8641793565214035,10.0,0.0,28.9454039544339,28.06752090839127,342.4770589965549,353.5209795308057,0.0
0.108,7.208592456143376,-1.7868245022280473,10.0,0.0,29.03552455150951,28.43067020400012,334.8512819075733,353.5209795308057,0.0
0.109,7.574658089882888,-1.644289877854201,10.0,0.0,29.138042758300248,28.730029173425365,330.36780453207734,353.5209795308057,0.0
0.11,7.950772704503171,-1.4332982171905484,10.0,0.0,29.23846130492517,28.97199211531633,324.9299228493142,353.5209795308057,0.0
0.111,8.270009547489309,-1.286744135192874,10.0,0.0,29.33902325866361,29.168445711098425,317.4914296286838,353.5209795308057,0.0
0.112,8.63897448433337,-1.0450800468086126,10.0,0.0,29.424056867704106,29.31791636805317,310.9227422638948,353.5209795308057,0.0
0.113,8.960512612765491,-0.8752628723337801,10.0,0.0,29.499270933227645,29.42926377545739,304.7096555165821,353.5209795308057,0.0
0.114,9.326041550639106,-0.6315117055870467,10.0,0.0,29.552983876341848,29.50000504679176,296.30848626390286,353.5209795308057,0.0
0.115,9.656832918229487,-0.44524566606832927,10.0,0.0,29.59034789959849,29.536311724247916,302.6231007406805,353.5209795308057,0.0
0.116,9.800951182799528,-0.5562381858612118,10.0,0.0,29.641678025847483,29.560179040857328,310.2043604133153,353.5209795308057,0.0
0.117,9.788587637552912,-0.8414480051602644,10.0,0.0,29.720525026057484,29.58959381105351,318.4222044818678,353.5209795308057,0.0
0.11800000000000001,9.747379208384324,-1.1168998491064692,10.0,0.0,29.821876407907194,29.628361096007165,327.1402255032125,353.5209795308057,0.0
0.11900000000000001,9.659091285485884,-1.422743347577081,10.0,0.0,29.94785764645961,29.682686377877562,336.0275271668112,353.5209795308057,0.0
0.12,9.571198564142604,-1.6794390223085491,10.0,0.0,30.091851378579577,29.752962575534937,346.4828110662391,353.5209795308057,0.0
0.121,9.428201656798862,-1.9872561188099758,10.0,0.0,30.25976628112112,29.84546125923295,354.5363602246082,353.5209795308057,0.0
0.122,9.285354048762603,-2.250059376861079,7.105819413798,0.0,30.44596974919893,29.641424968143653,363.20740029938185,353.5209795308057,0.0
0.123,8.91948425586479,-2.422275567628586,2.67343516872541,0.0,30.60946498976392,29.056609393013492,369.1560075886808,353.5209795308057,0.0
0.124,8.296789672924,-2.4443561879346203,-0.4572187565028081,0.0,30.69883585508539,28.31141451632298,372.80507837540625,353.5209795308057,0.0
0.125,7.573897640514884,-2.382192930612647,-2.4745951383115514,0.0,30.69769138169721,27.53236252882258,374.54303052346495,353.5209795308057,0.0
0.126,6.851984233174319,-2.284992236970969,-3.5537917222674924,0.0,30.608685713170434,26.804744986799715,374.3821946128701,353.5209795308057,0.0
0.127,6.207161402847527,-2.164548457442775,-3.6819859177907013,0.0,30.443542048482346,26.201390613720992,372.9152538486088,353.5209795308057,0.0
0.128,5.685950536862852,-2.0528031591558653,-3.1424582788380997,0.0,30.223489767938936,25.753372260676404,370.40819379548606,353.5209795308057,0.0
0.129,5.306761809666175,-1.9631126347259045,-2.0578003949235253,0.0,29.971892375440966,25.478566257054794,367.1318349163143,353.5209795308057,0.0
0.13,5.0818198318307894,-1.892697437547748,-0.5557295091927283,0.0,29.711125355385345,25.38141406342672,363.24628072850567,353.5209795308057,0.0
0.131,5.010886441808012,-1.8392297565504967,1.289794572734583,0.0,29.461542525034556,25.461440580434743,359.3709121155472,353.5209795308057,0.0
0.132,5.082773422503588,-1.8111349075229375,3.168979553366409,0.0,29.2423648728366,25.68814436798037,355.30673337434075,353.5209795308057,0.0
0.133,5.271465345621986,-1.8015321484940947,5.183211385534275,0.0,29.06700000961009,26.052996421547718,350.76639573222184,353.5209795308057,0.0
0.134,5.580614073861493,-1.7828244218664087,7.48092604457957,0.0,28.943695015724213,26.564313636733825,346.31953199272726,353.5209795308057,0.0
0.135,5.995866098137931,-1.7847981352352282,9.77637238970764,0.0,28.88425642848239,27.19910434699835,344.18482505865364,353.5209795308057,0.0
0.136,6.520117220525596,-1.768156433061499,10.0,0.0,28.892390446618396,27.712601597973237,342.19014247858803,353.5209795308057,0.0
0.137,6.963894801573426,-1.727680419769881,10.0,0.0,28.94677484359795,28.129753226869926,335.23289925052654,353.5209795308057,0.0
0.138,7.361805970123202,-1.633208780346258,10.0,0.0,29.027448843565537,28.471295679844914,329.786541802305,353.5209795308057,0.0
0.139,7.765776265607823,-1.445568838144705,10.0,0.0,29.11451401158592,28.74629366670134,325.9853829466021,353.5209795308057,0.0
0.14,8.110313416641096,-1.303868287938744,10.0,0.0,29.206661800389284,28.968638988015357,317.33542318044226,353.5209795308057,0.0
0.14100000000000001,8.481166585395647,-1.0900210301974833,10.0,0.0,29.28972314959423,29.14061607902564,313.0584337838058,353.5209795308057,0.0
0.14200000000000002,8.824248363924045,-0.905005360956173,10.0,0.0,29.363462821940573,29.269671131904815,304.119883434449,353.5209795308057,0.0
0.14300000000000002,9.181604611056239,-0.6878132830246666,10.0,0.0,29.420693060460145,29.35731627733144,297.3326339534349,353.5209795308057,0.0
0.14400000000000002,9.507481926250268,-0.5193191302064837,10.0,0.0,29.464602353639748,29.409646989867348,300.93616583910875,353.5209795308057,0.0
0.145,9.757602320391538,-0.470819810284568,10.0,0.0,29.505703805091745,29.436881090264016,306.72338072058517,353.5209795308057,0.0
0.146,9.763396542272389,-0.7518698807589814,10.0,0.0,29.576819022389614,29.46736576530074,314.7517777410949,353.5209795308057,0.0
0.147,9.725315055414578,-1.042490284714157,10.0,0.0,29.673028929191695,29.50616040033676,323.07331111884497,353.5209795308057,0.0
0.148,9.666219306885987,-1.3144939857973368,10.0,0.0,29.790511511896764,29.556816280018932,332.58175507988693,353.5209795308057,0.0
