timestamp,iq,id,iq_ref,id_ref,vq,vd,omega,omega_ref,r
0.0,0.0,0.0,0.0,0.0,0.0,0.0,0.0,287.4627340090397,0.0
0.001,0.0,0.0,10.0,0.0,0.0,1.0999999999999999,13.581046416616097,287.4627340090397,0.0
0.002,0.5310296738012887,-0.2894207328550609,10.0,0.0,0.1418362806140567,1.931586735881858,27.773056709909405,287.4627340090397,0.0
0.003,0.911919861903522,-0.4913884654306103,10.0,0.0,0.3719698500096533,2.657610802283703,42.643080791091776,287.4627340090397,0.0
0.004,1.2125570584407286,-0.6463208321588201,10.0,0.0,0.6667153521202226,3.3047846292468526,57.995723716819924,287.4627340090397,0.0
0.005,1.4540534093156903,-0.7668796448996202,10.0,0.0,1.0084158324502555,3.89315739709387,73.6844722283423,287.4627340090397,0.0
0.006,1.6512703228739873,-0.8617525246879243,10.0,0.0,1.384013970181292,4.437584039206527,89.58124298090918,287.4627340090397,0.0
0.007,1.81520286481823,-0.9372470332531437,10.0,0.0,1.7838506254947823,4.949067420402739,105.58234833146673,287.4627340090397,0.0
0.008,1.9539946867759366,-0.9979675627619559,10.0,0.0,2.200776266556862,5.435758354014769,121.61581848468447,287.4627340090397,0.0
0.009000000000000001,2.073510028480774,-1.0475788753387936,10.0,0.0,2.6295284759623008,5.9037139890038555,137.5560535991139,287.4627340090397,0.0
0.01,2.178767942863914,-1.0876498880555596,10.0,0.0,3.0661127261991794,6.357366064269478,153.3270415503241,287.4627340090397,0.0
0.011,2.273344641835042,-1.119648291718238,10.0,0.0,3.507522873214659,6.799960499289233,168.8414151934124,287.4627340090397,0.0
0.012,2.360082995507708,-1.1444570505276923,10.0,0.0,3.951460428462981,7.233841053594279,184.0032282395862,287.4627340090397,0.0
0.013000000000000001,2.4413411713018145,-1.1624970885917243,10.0,0.0,4.396128600215922,7.660656292193023,198.71076809365917,287.4627340090397,0.0
0.014,2.5191576130566484,-1.1738606612091924,10.0,0.0,4.840081071260727,8.0815095972721,212.85944180114686,287.4627340090397,0.0
0.015,2.595363913651019,-1.178428613441209,10.0,0.0,5.282112464728305,8.497068290299918,226.3451105356791,287.4627340090397,0.0
0.016,2.671652775854044,-1.175979331328214,10.0,0.0,5.721181487597158,8.907644541535324,239.0680770510684,287.4627340090397,0.0
0.017,2.7496149877880853,-1.1662795821994247,10.0,0.0,6.15635875371963,9.31325711524336,250.93769556874318,287.4627340090397,0.0
0.018000000000000002,2.8307450865096646,-1.149167578486718,10.0,0.0,6.586794227683548,9.713681469452801,261.8776600171109,287.4627340090397,0.0
0.019,2.9164296361192696,-1.1246135654656078,10.0,0.0,7.011698768276823,10.108492936167853,271.7794595028663,287.4627340090397,0.0
0.02,3.007479127912986,-1.093492704756162,10.0,0.0,7.4304162469344455,10.49715511166951,280.5490197635385,287.4627340090397,0.0
0.021,3.105392110783834,-1.055472711930964,6.398960029307506,0.0,7.842257204672798,10.482848487512738,283.4786165664365,287.4627340090397,0.0
0.022,3.0235719060437027,-0.916115095907393,4.9740028022845655,0.0,8.196534266387296,10.400401078630004,284.059966449224,287.4627340090397,0.0
0.023,2.9265513983239884,-0.7680818957371504,4.717355536488947,0.0,8.492248805183577,10.357498543641467,282.8533140616038,287.4627340090397,0.0
0.024,2.8716237888673417,-0.6394580903924825,5.366775929773426,0.0,8.741433350015168,10.4275322639137,282.4757546450011,287.4627340090397,0.0
0.025,2.889752744099153,-0.55034553068201,5.605425431715166,0.0,8.96418666887612,10.532694846752548,281.40955725255617,287.4627340090397,0.0
0.026000000000000002,2.9412244606473315,-0.475712341116864,6.199055895502454,0.0,9.167862388879797,10.707048759922811,280.33962909860065,287.4627340090397,0.0
0.027,3.0384035133034244,-0.4225288424049791,6.805251021584603,0.0,9.363502075237475,10.934905034380886,283.97535004251375,287.4627340090397,0.0
0.028,3.15874999740602,-0.40622732897308844,5.022264389293312,0.0,9.561102088914806,10.945082846491331,293.6178585490008,287.4627340090397,0.0
0.029,3.126795310575699,-0.41229432409770417,0.1394588906501779,0.0,9.740790267033475,10.459442620623001,296.2911666389252,287.4627340090397,0.0
0.03,2.8335341009579995,-0.331073604775056,-1.2854794806108645,0.0,9.844950655676707,9.96435925549073,299.0980915562468,287.4627340090397,0.0
0.031,2.5452149559685235,-0.25451807099566537,-2.8052955147437473,0.0,9.881577767419884,9.405052379546666,299.7606993973204,287.4627340090397,0.0
0.032,2.2370249755903115,-0.17768753170461626,-3.2595790891633656,0.0,9.85092567641011,8.901583575918204,299.51069552289033,287.4627340090397,0.0
0.033,1.9697664277834916,-0.12287548404067161,-3.255056767086826,0.0,9.767730894288345,8.476753275179195,298.6371132573879,287.4627340090397,0.0
0.034,1.7527542046793485,-0.09335865622149164,-2.930009426819097,0.0,9.647673829721391,8.142995269573984,297.6719961880305,287.4627340090397,0.0
0.035,1.589350100941112,-0.08780499617244253,-2.549543513930303,0.0,9.5059309367234,7.885012464267852,296.65170500102136,287.4627340090397,0.0
0.036000000000000004,1.4686519021033602,-0.0995751875205465,-2.1312876303455446,0.0,9.353914310143384,7.692499899092744,295.70239372004085,287.4627340090397,0.0
0.037,1.3829448504790967,-0.12345053016374008,-1.739028586965301,0.0,9.200356675481125,7.551223657403414,294.81327154349106,287.4627340090397,0.0
0.038,1.3230084013563854,-0.15456281700137986,-1.3679728740349195,0.0,9.051210778241867,7.451348753292585,293.97619208233635,287.4627340090397,0.0
0.039,1.2826499733391152,-0.1893026623306765,-1.0145677241905355,0.0,8.9105022404333,7.385550821813162,293.19924154271655,287.4627340090397,0.0
0.04,1.2576313792186036,-0.22484773215708653,-0.6834575297174021,0.0,8.780847322485258,7.347498360667512,292.44726075795296,287.4627340090397,0.0
0.041,1.2445587430290284,-0.2590531441504189,-0.35731240482474025,0.0,8.66375979483846,7.3340383196747325,291.70984750472854,287.4627340090397,0.0
0.042,1.2418421648108318,-0.29089175651001536,-0.03107691316941974,0.0,8.560195209096685,7.343008080091815,290.9794863760963,287.4627340090397,0.0
0.043000000000000003,1.2484837803353037,-0.31988805243472124,0.29893612747613396,0.0,8.470755264398917,7.373005741957597,290.27366034707285,287.4627340090397,0.0
0.044,1.263502993907658,-0.3466415404530232,0.6237398786075303,0.0,8.39591200108027,7.421902228047305,289.5517598760423,287.4627340090397,0.0
0.045,1.286615119374988,-0.3698791338703661,0.96379985545278,0.0,8.335731313098181,7.490191157472161,288.8734689162526,287.4627340090397,0.0
0.046,1.318201063023965,-0.390209588053509,1.2888379862755042,0.0,8.290401560882763,7.574743387231653,288.2871862460739,287.4627340090397,0.0
0.047,1.357028713847927,-0.40717856145701503,1.5737347989945216,0.0,8.259723289397387,7.670440504730374,287.2894778726951,287.4627340090397,0.0
0.048,1.4021684946385784,-0.41789084393462045,2.074321547047353,0.0,8.242691218148924,7.801138558110576,286.42072423105895,287.4627340090397,0.0
0.049,1.4634010253385252,-0.43203553516536264,2.519118465645234,0.0,8.241880952573933,7.954701212024062,285.53250186696835,287.4627340090397,0.0
0.05,1.539438735534091,-0.439030352988556,2.982531969111252,0.0,8.257135961996031,8.13160226736947,285.8400446902882,287.4627340090397,0.0
0.051000000000000004,1.6255579859515876,-0.44757290033249325,2.8449874506388353,0.0,8.289425308040064,8.263861945611952,285.5136649490743,287.4627340090397,0.0
0.052000000000000005,1.6922663584829563,-0.4370520961691685,3.0276680118454316,0.0,8.330468973372538,8.401118169077762,284.2673713970301,287.4627340090397,0.0
0.053,1.7578938920504612,-0.4321688932424765,3.682768413987638,0.0,8.380701950238041,8.592435430386704,282.6115437002811,287.4627340090397,0.0
0.054,1.85962863132758,-0.4237804752219846,4.559194165449718,0.0,8.444169461594901,8.8489655459059,283.2348663702068,287.4627340090397,0.0
0.055,1.9919670319006313,-0.4315156972995139,4.289811506875196,0.0,8.527877991976725,9.034253174380783,282.1172480477026,287.4627340090397,0.0
0.056,2.0898518076592203,-0.4199766113584988,4.902075527740667,0.0,8.620397780493573,9.26998182059959,281.719774732392,287.4627340090397,0.0
0.057,2.217838397236271,-0.4105222883000518,5.158241778162448,0.0,8.726313870103594,9.500345551290055,281.2312026356659,287.4627340090397,0.0
0.058,2.3437668683382182,-0.40063617521518696,5.464843140259236,0.0,8.843681794612912,9.736856739273458,280.4878223234871,287.4627340090397,0.0
0.059000000000000004,2.477830112303192,-0.3854068537904916,5.906282413204178,0.0,8.971387681243767,9.993458235187301,279.74436478036637,287.4627340090397,0.0
0.06,2.624050481773104,-0.37397436233008663,6.355194877051266,0.0,9.110877847956527,10.267392540264533,279.0784711703321,287.4627340090397,0.0
0.061,2.7835867296888224,-0.361672758483329,6.771984310455487,0.0,9.262573576997193,10.553153360965286,278.3820724843023,287.4627340090397,0.0
0.062,2.9523176743265447,-0.3497467040303527,7.210990268717758,0.0,9.426486965252508,10.852665392143848,285.89492316172795,287.4627340090397,0.0
0.063,3.105266305022818,-0.38068488970481645,3.470243038478046,0.0,9.607482678768868,10.707608264190874,291.63777900232054,287.4627340090397,0.0
0.064,2.994073683147495,-0.3672556306310697,0.5570646682489393,0.0,9.754086507783438,10.325874946675277,296.67627201468247,287.4627340090397,0.0
0.065,2.758820343705307,-0.3118527234641249,-2.054317217988451,0.0,9.841896594947364,9.763621061148765,298.39282438433065,287.4627340090397,0.0
0.066,2.4418146584860905,-0.2246015924858925,-3.0218943065654527,0.0,9.855656689506313,9.218572003989895,298.60390963445604,287.4627340090397,0.0
0.067,2.144758408975539,-0.1541484687583478,-3.2388486878823124,0.0,9.806658536593229,8.744720781537687,298.2313218070486,287.4627340090397,0.0
0.068,1.8966446731573026,-0.10833157756972517,-3.1602406521586652,0.0,9.710839749932763,8.348493242227068,297.3049888700955,287.4627340090397,0.0
0.069,1.6970519266348725,-0.08672643558592252,-2.7954967322926794,0.0,9.583061691300946,8.041116393768766,296.3302365194036,287.4627340090397,0.0
0.07,1.5488355668291043,-0.0874975471537266,-2.3967955820503892,0.0,9.437624627378781,7.806216983734514,295.35386961635953,287.4627340090397,0.0
0.07100000000000001,1.4407380721702907,-0.10398242933595991,-1.9875234866015399,0.0,9.28504695476977,7.631705288122836,294.4656461967884,287.4627340090397,0.0
0.07200000000000001,1.3643640548043856,-0.13076121113352057,-1.613440898693453,0.0,9.133056697036404,7.503763525490483,293.63181541956163,287.4627340090397,0.0
0.073,1.3106217841793317,-0.16381225179986408,-1.2582163241852964,0.0,8.986839115468465,7.413898700259946,292.82568787427897,287.4627340090397,0.0
0.074,1.2750139018960935,-0.1985225858165497,-0.9087820901963575,0.0,8.84974443586943,7.356663563734274,292.0966178692908,287.4627340090397,0.0
0.075,1.253657731328674,-0.233999199153404,-0.5905859263047888,0.0,8.724191034704624,7.324942808529033,291.3749800714454,287.4627340090397,0.0
0.076,1.2431138722338133,-0.26753916538802314,-0.2688894880061441,0.0,8.611355528288213,7.316989698096531,290.6637161351371,287.4627340090397,0.0
0.077,1.242512257802896,-0.2985727305518137,0.0547326588870245,0.0,8.512086553975866,7.330890558837355,289.96951807684434,287.4627340090397,0.0
0.078,1.2509133887658996,-0.32690706125593344,0.37676384735537005,0.0,8.426941003894651,7.3647315047852056,289.2941711369884,287.4627340090397,0.0
0.079,1.2672652661166,-0.3527437621386331,0.6961229460038614,0.0,8.356252797206395,7.416868294897854,288.58160461787656,287.4627340090397,0.0
0.08,1.291618916698261,-0.3748155942854963,1.0412174994714014,0.0,8.300016624725558,7.48897401243488,287.94006280230695,287.4627340090397,0.0
0.081,1.3245469010744881,-0.39470847311030294,1.3572151193235338,0.0,8.25858213959577,7.576175791843611,287.34419011742625,287.4627340090397,0.0
0.082,1.364674427261673,-0.41030087771881474,1.65633690068002,0.0,8.231527516638518,7.676172616512352,286.3532669758863,287.4627340090397,0.0
0.083,1.4117973994539716,-0.4204881359155508,2.16289314178153,0.0,8.218142712799425,7.811412013446819,284.99622995053556,287.4627340090397,0.0
0.084,1.473798099120697,-0.43656948350838065,2.8660766950419387,0.0,8.221287404690933,7.997724771510143,285.3946391666352,287.4627340090397,0.0
0.085,1.5669506507256434,-0.447255406258656,2.6875530354161583,0.0,8.24376354122622,8.129424511184965,285.395403347446,287.4627340090397,0.0
0.08600000000000001,1.6312622845492388,-0.4426976157539201,2.7078442516267,0.0,8.276553821892437,8.248076406720704,284.48232716339476,287.4627340090397,0.0
0.08700000000000001,1.6859851724489405,-0.4374583248535031,3.194186412108774,0.0,8.317399519951609,8.406060464929684,281.8007992233942,287.4627340090397,0.0
0.088,1.7695737872793007,-0.42519188889406534,4.591569729965497,0.0,8.368662138979229,8.69253191173076,283.1766980173098,287.4627340090397,0.0
0.089,1.915325296197485,-0.4424425815914401,3.9464806929250194,0.0,8.445465881340501,8.855352068668774,282.3313514301532,287.4627340090397,0.0
0.09,1.9998068046070756,-0.4291047748230238,4.420467812292184,0.0,8.529231599487947,9.060324606814032,281.386758580429,287.4627340090397,0.0
0.091,2.1094496919115606,-0.4165674745932859,4.953523991440385,0.0,8.623872274677584,9.295856868952745,281.3380613903264,287.4627340090397,0.0
0.092,2.237014437620335,-0.408233260406626,5.039119312678811,0.0,8.7318107180039,9.508449202786371,280.07897500669657,287.4627340090397,0.0
0.093,2.3543305294325156,-0.39465434420691714,5.74250009451716,0.0,8.848804211740841,9.775462957716853,279.81763524731826,287.4627340090397,0.0
0.094,2.504922685941877,-0.3846502776694669,5.949620961823526,0.0,8.979835073440011,10.027832197815382,279.15569226813176,287.4627340090397,0.0
0.095,2.64882805345502,-0.37317715201225377,6.363662868825859,0.0,9.121837769822205,10.29721733230982,278.48234105507646,287.4627340090397,0.0
0.096,2.806930345807818,-0.35845804259488445,6.790142404893141,0.0,9.27507433923628,10.580684354406737,277.76314444173545,287.4627340090397,0.0
0.097,2.9748754051110557,-0.34597111372280165,7.246736607236689,0.0,9.440107582836887,10.880195964532657,287.03144412128876,287.4627340090397,0.0
0.098,3.1148138996952768,-0.39763019061741955,2.616899666337544,0.0,9.62439603083715,10.638697948672473,292.41235996802186,287.4627340090397,0.0
0.099,2.956174766634924,-0.3582836321089684,-0.12305451661882927,0.0,9.761261120246497,10.203531678064607,296.56877764320313,287.4627340090397,0.0
0.1,2.6945077456832536,-0.2923048860123528,-2.2923237905511002,0.0,9.834058877168575,9.641545446129552,297.8891419420749,287.4627340090397,0.0
0.101,2.379644755017053,-0.20788313145599457,-3.0567700193173355,0.0,9.834751629664705,9.112659479419015,297.9448553989808,287.4627340090397,0.0
0.10200000000000001,2.0933829246115288,-0.14316044229233116,-3.189447961669692,0.0,9.776211231977733,8.658121444695995,297.5340316602808,287.4627340090397,0.0
0.10300000000000001,1.8572230913948629,-0.10281990195459811,-3.0847490688321013,0.0,9.674280838041643,8.279141794662014,296.6021427873868,287.4627340090397,0.0
0.10400000000000001,1.6677339678986558,-0.08563100731902895,-2.7101987201685835,0.0,9.54315814548923,7.986502824914851,295.63571048898916,287.4627340090397,0.0
0.105,1.5277190169290176,-0.08963034954365756,-2.308712335769253,0.0,9.396495641808404,7.763940235056149,294.69199341769433,287.4627340090397,0.0
0.106,1.4261564393570645,-0.10827535243433667,-1.9091463942083862,0.0,9.244254086405514,7.598676777566157,293.8266737683024,287.4627340090397,0.0
0.107,1.3543539839484426,-0.13629748579684978,-1.540125967105038,0.0,9.093606325434891,7.4781947421698645,293.0247827942653,287.4627340090397,0.0
0.108,1.3040160403926169,-0.1700485772572562,-1.194800967938762,0.0,8.949407535748717,7.39381082909045,292.23023852846285,287.4627340090397,0.0
0.109,1.2708227841991189,-0.20465783186798578,-0.8452038802317574,0.0,8.814659740815799,7.341595736752195,291.5240070256877,287.4627340090397,0.0
0.11,1.2515548544410722,-0.23995347002530515,-0.5327008590106606,0.0,8.691701643793541,7.313794275323174,290.8177053103916,287.4627340090397,0.0
0.111,1.2425593096094953,-0.27301994048136213,-0.2130997143761333,0.0,8.581543565699203,7.309305076666307,290.1198111992698,287.4627340090397,0.0
0.112,1.2432782251251073,-0.3035290832541524,0.10927656928246465,0.0,8.484977716549054,7.326345333666762,289.44175700466457,287.4627340090397,0.0
0.113,1.2528397206685853,-0.33136898302182105,0.428513436628835,0.0,8.402529775560685,7.362872697269044,288.78260841476407,287.4627340090397,0.0
0.114,1.2701669346751974,-0.3566659110172834,0.7448889875218396,0.0,8.334483628113203,7.417301093751735,288.0788993031348,287.4627340090397,0.0
0.115,1.2954225493380653,-0.37804837803748964,1.0905818903955289,0.0,8.280784037151006,7.4917396541757375,287.46208912268224,287.4627340090397,0.0
0.116,1.3291224826044057,-0.39768939588472996,1.3989934294853765,0.0,8.241844948620425,7.580378303219595,286.7849331901618,287.4627340090397,0.0
0.117,1.370125257691125,-0.41205950479685644,1.7443494039343874,0.0,8.21704793564915,7.686990914377627,285.88220116090497,287.4627340090397,0.0
0.11800000000000001,1.4203005934720523,-0.4229790652285786,2.21152074704414,0.0,8.206449335649172,7.823288591935277,284.93261313337115,287.4627340090397,0.0
0.11900000000000001,1.484072423682333,-0.43606555200310626,2.711615969567736,0.0,8.211870681345836,7.988722254818338,284.72386964083825,287.4627340090397,0.0
0.12,1.5664630264389854,-0.44228179685239877,2.8433763595162023,0.0,8.23384618082682,8.139222128650731,284.72777747785295,287.4627340090397,0.0
0.121,1.639352223619054,-0.44326863338361894,2.8687720063207154,0.0,8.268720507312883,8.271151576634747,284.283792147924,287.4627340090397,0.0
0.122,1.7037071940266704,-0.43574590169927796,3.122554089896362,0.0,8.312462977098154,8.414687430421209,281.92093560087875,287.4627340090397,0.0
0.123,1.773267421541856,-0.4311908916194372,4.359400347500585,0.0,8.365758961491608,8.674751137985668,282.01807291222025,287.4627340090397,0.0
0.124,1.9114563958142057,-0.43327456734614744,4.36527830279803,0.0,8.440006472632893,8.887911000844895,282.12417224431283,287.4627340090397,0.0
0.125,2.0209672914372083,-0.4317004235228207,4.3656142543990075,0.0,8.52795122636814,9.076493494879653,280.94648960457494,287.4627340090397,0.0
0.126,2.122227263065248,-0.4161614519750526,5.0196180183126025,0.0,8.624266208701322,9.316905781476095,280.8984859616506,287.4627340090397,0.0
0.127,2.2526496110561123,-0.4075150681731461,5.109262320248672,0.0,8.734195208958095,9.532895314657326,279.7950671020196,287.4627340090397,0.0
0.128,2.3714440209662646,-0.3948545473936418,5.737648419134377,0.0,8.853424069059587,9.79474166079397,279.4322183548901,287.4627340090397,0.0
0.129,2.5198675862455433,-0.3828759871433234,5.9993779492406105,0.0,8.985723641344855,10.049693997568305,278.76018060994636,287.4627340090397,0.0
0.13,2.6652105891487134,-0.3717880449764256,6.422422355703413,0.0,9.129188602043174,10.32179515263703,278.1050321596856,287.4627340090397,0.0
0.131,2.8250008791677352,-0.357350338399544,6.84357359932733,0.0,9.284039913876741,10.60700537912965,277.4050615976902,287.4627340090397,0.0
0.132,2.9941515067600823,-0.3448826098114983,7.29413560443854,0.0,9.450700044097303,10.907521356147392,288.8252529783445,287.4627340090397,0.0
0.133,3.1290619090261584,-0.4039738407935878,1.5704147244183266,0.0,9.63737047169149,10.547388193658737,292.3464260246476,287.4627340090397,0.0
0.134,2.9073433745890176,-0.34341014287636584,-0.23900871888929753,0.0,9.762107621196684,10.125874163025474,296.4199385744342,287.4627340090397,0.0
0.135,2.653761094722606,-0.28084733865451117,-2.365337039436535,0.0,9.82594338120279,9.568860235019873,297.61398826478444,287.4627340090397,0.0
0.136,2.3431832199472025,-0.19953751704857314,-3.0638744271691096,0.0,9.819375720073298,9.049983189796961,297.59238055448895,287.4627340090397,0.0
0.137,2.0634289160325716,-0.13821360260753168,-3.1543670374758603,0.0,9.755644588162008,8.607035464409835,297.1616833333222,287.4627340090397,0.0
0.138,1.8342580975176723,-0.10098757903953604,-3.0360079201352943,0.0,9.650510173455062,8.23834507437831,296.22906878524566,287.4627340090397,0.0
