timestamp,iq,id,iq_ref,id_ref,vq,vd,omega,omega_ref,r
0.0,0.0,0.0,0.0,0.0,0.0,0.0,0.0,105.21423350701615,0.0
0.001,0.0,0.0,10.0,0.0,0.0,1.0999999999999999,5.552481233660256,105.21423350701615,0.0
0.002,0.600500274474307,-0.3442698685231662,10.0,0.0,0.14786968553754837,1.9239449698078261,11.949736047562132,105.21423350701615,0.0
0.003,1.431304736645739,-0.81998660763408,10.0,0.0,0.4122330421190932,2.5948989230945094,18.709005934153375,105.21423350701615,0.0
0.004,2.3052449488249085,-1.3204827014701237,10.0,0.0,0.7675528613020076,3.1373684379926865,25.736024497705912,105.21423350701615,0.0
0.005,3.1104218733438986,-1.781854803617657,10.0,0.0,1.1873336203543168,3.581292923744038,32.868921381196344,105.21423350701615,0.0
0.006,3.791908876753274,-2.1724076853611836,10.0,0.0,1.6478758480468423,3.955891235695645,40.03082374586114,105.21423350701615,0.0
0.007,4.333887410461333,-2.483026689071041,10.0,0.0,2.130086245755926,4.28628117054755,47.09342120887221,105.21423350701615,0.0
0.008,4.744827038150945,-2.7183759883237317,10.0,0.0,2.619896830059988,4.592069577976396,54.12186215414844,105.21423350701615,0.0
0.009000000000000001,5.045882969639218,-2.890354544865575,10.0,0.0,3.1078693449036052,4.8872534469059525,60.99055312392251,105.21423350701615,0.0
0.01,5.262731909850875,-3.0134216272770615,10.0,0.0,3.588380588655661,5.1808733563185125,67.87029038775097,105.21423350701615,0.0
0.011,5.420348410652871,-3.101652463317183,10.0,0.0,4.058677420114065,5.478013073478921,74.60824766200022,105.21423350701615,0.0
0.012,5.540293903192317,-3.166842983765292,10.0,0.0,4.5179471890315615,5.78085066289781,81.07763864605435,105.21423350701615,0.0
0.013000000000000001,5.639439973036051,-3.2180231529795553,10.0,0.0,4.966551653408285,6.089624857509142,87.43055125760863,105.21423350701615,0.0
0.014,5.729876645078408,-3.2614715998201653,10.0,0.0,5.405440618268793,6.40342550587079,93.8056935236461,105.21423350701615,0.0
0.015,5.819564683177967,-3.3009194434824116,8.135272116016578,0.0,5.835725529813857,6.5156536011736215,99.01685121062376,105.21423350701615,0.0
0.016,5.802851256887601,-3.2739948641508985,5.5916670954916725,0.0,6.2308485775716065,6.401273461955707,102.34031790300017,105.21423350701615,0.0
0.017,5.600091082613346,-3.1337304064771185,3.958672905343626,0.0,6.559861462080992,6.205786815631588,104.2402686806794,105.21423350701615,0.0
0.018000000000000002,5.243413963492463,-2.89806122206838,3.0184371647673744,0.0,6.811903427798801,6.012861014189466,105.48923931339638,105.21423350701615,0.0
0.019,4.804049705188085,-2.608842265526948,2.391201790345084,0.0,6.9899912234251484,5.849601752904919,104.40397905918107,105.21423350701615,0.0
0.02,4.346176509486944,-2.304408003814577,2.9419344619310914,0.0,7.103348734137457,5.833302553874228,106.30186998578581,105.21423350701615,0.0
0.021,3.9764084928328636,-2.045408451184155,1.9821126338410222,0.0,7.178294965703247,5.7549770478870075,106.4060684718756,105.21423350701615,0.0
0.022,3.6487181738913343,-1.807156261148398,1.9180950411475344,0.0,7.214296278136104,5.726883253656732,106.29774037000861,105.21423350701615,0.0
0.023,3.391491897447162,-1.6060260531249078,1.9614240234511038,0.0,7.224146278920425,5.73562332129254,106.63247244259436,105.21423350701615,0.0
0.024,3.212296810550912,-1.4492381319442038,1.7798755978024459,0.0,7.218649917140248,5.7412099623929596,106.82620411568587,105.21423350701615,0.0
0.025,3.091280496155536,-1.3279965651454448,1.666890055169996,0.0,7.202493162512077,5.746595221486764,106.95653032138038,105.21423350701615,0.0
0.026000000000000002,3.017070491623704,-1.2316118249356882,1.5843039841790953,0.0,7.179100703501016,5.748824604180243,105.72655724275792,105.21423350701615,0.0
0.027,2.97643508671308,-1.1549190731430377,2.19416728613291,0.0,7.150798073365316,5.820130421122948,104.50369202155203,105.21423350701615,0.0
0.028,3.000358763505075,-1.1120214863910225,2.8127053115904976,0.0,7.128504480912661,5.9403779846423825,103.1129532886015,105.21423350701615,0.0
0.029,3.0966306784731645,-1.1043337996089977,3.529087480249906,0.0,7.120048334378713,6.1086374169839965,103.37728932541057,105.21423350701615,0.0
0.03,3.266961918561167,-1.1322078417016557,3.415288903661427,0.0,7.132406767230335,6.2217699090667296,104.43301551332867,105.21423350701615,0.0
0.031,3.451813480510209,-1.1680692221185445,2.895237989639253,0.0,7.1585086174299954,6.250127021036282,105.51151615271398,105.21423350701615,0.0
0.032,3.5976337903253657,-1.1807720053991986,2.3530148434896194,0.0,7.18587468616335,6.209622851432432,104.85576794673389,105.21423350701615,0.0
0.033,3.676095524486432,-1.1602398390156303,2.684473602082486,0.0,7.204068164927987,6.210615812909447,103.20175139338956,105.21423350701615,0.0
0.034,3.7371889559297657,-1.1228087918142202,3.531606699890919,0.0,7.216629498435539,6.297263219171067,102.19140311338386,105.21423350701615,0.0
0.035,3.8373506892341864,-1.0955010259709494,4.067009143830092,0.0,7.233969895447755,6.416518099663452,103.6479635814192,105.21423350701615,0.0
0.036000000000000004,3.9782369829420463,-1.090174700753941,3.3543916090683874,0.0,7.261188922692547,6.42734370356982,104.41135897534387,105.21423350701615,0.0
0.037,4.083095954076305,-1.0723439808913866,2.980722657422776,0.0,7.284860491670788,6.395705616588939,102.15061920497253,105.21423350701615,0.0
0.038,4.144331853954592,-1.0284561193341564,4.141728685628884,0.0,7.298351737480447,6.495358488547832,101.52222917516049,105.21423350701615,0.0
0.039,4.25636396881454,-0.9958318874346728,4.49284374385346,0.0,7.317309359011658,6.601696620378633,103.52270974649312,105.21423350701615,0.0
0.04,4.3986062394519685,-0.9857666080399514,3.509518695792375,0.0,7.344224093158404,6.5730934666889915,101.88023534762102,105.21423350701615,0.0
0.041,4.485067988523799,-0.9538206404163148,4.3640958768223745,0.0,7.362173634876857,6.645790472485372,100.37613656265253,105.21423350701615,0.0
0.042,4.60181351093302,-0.9192642770364032,5.1645262387502555,0.0,7.382116182707548,6.780536909901428,103.24285014537965,105.21423350701615,0.0
0.043000000000000003,4.764593717049037,-0.9157911517526993,3.7508832810030635,0.0,7.413502639349371,6.72355956193881,100.27570998342537,105.21423350701615,0.0
0.044,4.851316889078285,-0.8782156699565571,5.283838597216109,0.0,7.431954143786008,6.850268361935487,101.10738850716157,105.21423350701615,0.0
0.045,5.000169777797304,-0.8541681715220477,4.909067785346554,0.0,7.458961907768815,6.894090503869578,101.93403246780107,105.21423350701615,0.0
0.046,5.130955533820462,-0.8383500944425026,4.528547815418954,0.0,7.486151596052348,6.8852238151598435,98.74602419052476,105.21423350701615,0.0
0.047,5.234807577274216,-0.7897328091887887,6.187234047222024,0.0,7.504545926029438,7.0561075821273676,101.46404335164917,105.21423350701615,0.0
0.048,5.411756156357244,-0.7876113343243965,4.865726368213492,0.0,7.538442010323028,7.031363875122287,97.38575499496265,105.21423350701615,0.0
0.049,5.531521304514365,-0.7549635701434996,6.983155331677283,0.0,7.562904076175493,7.247211729511716,101.43978375217847,105.21423350701615,0.0
0.05,5.750863033213381,-0.7646928955585146,4.993885450617752,0.0,7.6079014243191185,7.180997089820946,97.93383375920693,105.21423350701615,0.0
0.051000000000000004,5.874653924188488,-0.7280271146397457,6.819664444581612,0.0,7.637647044524089,7.335208456339965,100.67144553997801,105.21423350701615,0.0
0.052000000000000005,6.059541736069667,-0.7213703462023648,5.496286433866455,0.0,7.679473652641537,7.294044126712091,97.62938762768928,105.21423350701615,0.0
0.053,6.179718767270964,-0.6728369792998863,7.093163848804087,0.0,7.707729064309558,7.438698591295713,99.68586188184435,105.21423350701615,0.0
0.054,6.352738117986218,-0.6652604336934638,6.120210437978273,0.0,7.7472762949214555,7.430889142980892,98.70967564752854,105.21423350701615,0.0
0.055,6.49020158388374,-0.6172240460782064,6.673349133731051,0.0,7.7768796204590664,7.484999365458231,96.94927239569051,105.21423350701615,0.0
0.056,6.624397182880213,-0.5870666424655817,7.636200370763322,0.0,7.806096685169416,7.623654266126984,101.41217619714857,105.21423350701615,0.0
0.057,6.798584468829822,-0.6036211072235385,5.442769043132971,0.0,7.848380098635103,7.482640779325741,99.41853724637636,105.21423350701615,0.0
0.058,6.820409544106996,-0.6072027122859129,6.4975454811254725,0.0,7.872562253983384,7.497257818585679,101.09614888537061,105.21423350701615,0.0
0.059000000000000004,6.828628236316501,-0.6451539220526699,5.699920507844803,0.0,7.899926714746549,7.413859052623377,102.2714549074547,105.21423350701615,0.0
0.06,6.787150267075049,-0.6517675943927785,5.141695282798374,0.0,7.916562844696909,7.292752847849975,101.16370732876167,105.21423350701615,0.0
0.061,6.675744011046243,-0.6554732426240171,5.73607433392743,0.0,7.919766225756929,7.2682247328943665,104.52679186030603,105.21423350701615,0.0
0.062,6.586501316558657,-0.6626129584919784,4.061406484622351,0.0,7.920944769478549,7.065015147438817,101.6012674435816,105.21423350701615,0.0
0.063,6.396833191242486,-0.649903247939648,5.560298353618911,0.0,7.90021503496302,7.083840225823561,104.61676148537364,105.21423350701615,0.0
0.064,6.2833637988882405,-0.6606799772084404,4.058526052939317,0.0,7.884753319062606,6.929110903059362,102.34834538205303,105.21423350701615,0.0
0.065,6.107354999156225,-0.6677490488763715,5.221392985849257,0.0,7.856034673066597,6.949467700655408,104.27852441610088,105.21423350701615,0.0
0.066,6.00627495089477,-0.693505527630879,4.265660559734483,0.0,7.834986093376111,6.8575164350019655,104.0159685702795,105.21423350701615,0.0
0.067,5.876200018539171,-0.7275349629922179,4.408921132012541,0.0,7.810332918191532,6.8112688672330535,103.5372291893172,105.21423350701615,0.0
0.068,5.765768704815595,-0.7563260582015716,4.665060865670678,0.0,7.786347029867932,6.804770198888224,106.24051703045036,105.21423350701615,0.0
0.069,5.6814882937307765,-0.8088388898039844,3.303154109869755,0.0,7.769598364066385,6.652318200152932,104.25526616365764,105.21423350701615,0.0
0.07,5.533561314499951,-0.830577832797212,4.305369216699702,0.0,7.741145520384695,6.6527284276248615,104.71820289294833,105.21423350701615,0.0
0.07100000000000001,5.434422568788783,-0.866912397610565,4.0788611581950365,0.0,7.719358396517901,6.624740302713536,107.07456585974509,105.21423350701615,0.0
0.07200000000000001,5.3437300075848455,-0.9176959895231791,2.8820763512693643,0.0,7.702174022008908,6.4769758240052075,105.40559919284127,105.21423350701615,0.0
0.073,5.192835281290929,-0.9379587297227956,3.7146460278630267,0.0,7.673652702582814,6.461511362491665,105.28292298376279,105.21423350701615,0.0
0.074,5.080512673899223,-0.968975041572997,3.775297237634799,0.0,7.6496462358495,6.453933691045968,106.8389288701549,105.21423350701615,0.0
0.075,4.995591579844403,-1.0133181315204594,2.981047340807354,0.0,7.631850225420665,6.36495723359489,107.60592670480341,105.21423350701615,0.0
0.076,4.877263786873025,-1.0508374556439852,2.5736314915052283,0.0,7.610619865043724,6.258392422677382,106.41314984318562,105.21423350701615,0.0
0.077,4.732254688541355,-1.0674007810738348,3.1580307589524272,0.0,7.582302832168771,6.243486857612911,106.32437831963978,105.21423350701615,0.0
0.078,4.621434838804328,-1.0964608057324103,3.1913150725991133,0.0,7.55835791553301,6.235797520081814,106.67841429634717,105.21423350701615,0.0
0.079,4.536125786840176,-1.1372684482881756,2.9996552763521063,0.0,7.5402367972422635,6.213343001135295,108.05506935284873,105.21423350701615,0.0
0.08,4.459001266476579,-1.1797817947304527,2.282919389642999,0.0,7.525950730569035,6.12202807939918,108.84216884837168,105.21423350701615,0.0
0.081,4.343786598569623,-1.2090982588310162,1.8530902884679676,0.0,7.506761455976157,6.010204569173321,108.20483090250498,105.21423350701615,0.0
0.082,4.195068462812092,-1.2165641627488974,2.1418532874464313,0.0,7.478836842609944,5.958913551664397,107.795676499912,105.21423350701615,0.0
0.083,4.059809151085606,-1.2254326677379785,2.32061605881396,0.0,7.449476465339076,5.940126792362725,107.90934730539954,105.21423350701615,0.0
0.084,3.9512798738103028,-1.2467136814178659,2.2368295180863615,0.0,7.4234256763200275,5.919864151453446,108.08467593658062,105.21423350701615,0.0
0.085,3.859946680528562,-1.2748143853783849,2.1204607782001728,0.0,7.400831969410815,5.896021358241221,108.27006254593229,105.21423350701615,0.0
0.08600000000000001,3.7778117969073435,-1.305107665657676,1.9972091831351775,0.0,7.381164607662415,5.868030990866524,108.46682900507561,105.21423350701615,0.0
0.08700000000000001,3.6989629773832986,-1.3343766644077508,1.8662999985829236,0.0,7.363581602411099,5.8355574510157915,108.66680339567439,105.21423350701615,0.0
0.088,3.619355646024129,-1.360263471754294,1.73178710439695,0.0,7.347064402520466,5.799053956364339,108.86258670166754,105.21423350701615,0.0
0.089,3.5367195858447222,-1.38138249990842,1.597411919453863,0.0,7.3306127981772375,5.759406843093229,109.03759740697357,105.21423350701615,0.0
0.09,3.4502982777255298,-1.3971462348794899,1.4716729278012708,0.0,7.3133644635064945,5.718271726773869,109.174209961352,105.21423350701615,0.0
0.091,3.3607722560446573,-1.4077895968362104,1.3637668860686967,0.0,7.294740583136423,5.677896663249019,109.26002292205179,105.21423350701615,0.0
0.092,3.270065705168108,-1.414296188364546,1.2804025115684485,0.0,7.274550875899419,5.640688157641556,109.2942597231519,105.21423350701615,0.0
0.093,3.180986687278338,-1.4181008519219682,1.2224838488570375,0.0,7.253012735901404,5.608535749176995,109.28678344031036,105.21423350701615,0.0
0.094,3.0965581780283324,-1.42072561613004,1.1854964909448644,0.0,7.230663846484047,5.582351690654469,109.24252040559534,105.21423350701615,0.0
0.095,3.0192776412058806,-1.423462810411631,1.1673451393165801,0.0,7.208206283885067,5.562580947900436,109.13957261407546,105.21423350701615,0.0
0.096,2.9510000387004642,-1.427191754190359,1.1795656440059274,0.0,7.186400215143429,5.550805023101394,108.94031300272334,105.21423350701615,0.0
0.097,2.8937021562225027,-1.4328723522281144,1.2419346547249148,0.0,7.166184737142414,5.550384461087808,108.61063843785179,105.21423350701615,0.0
0.098,2.850336657378906,-1.4420717099090161,1.3728078878523347,0.0,7.148903874104665,5.565953999060321,108.9056963044605,105.21423350701615,0.0
0.099,2.824492111610994,-1.458183356189794,1.1883643265735335,0.0,7.136588338682016,5.559050217905901,109.24714909964415,105.21423350701615,0.0
0.1,2.797886162482891,-1.4700201372148023,0.977308773055432,0.0,7.125954908136138,5.532901794996868,109.36449771886367,105.21423350701615,0.0
0.101,2.7601800837362847,-1.4715348418068868,0.8771318213271933,0.0,7.113818228048819,5.503277571340069,109.29941331743278,105.21423350701615,0.0
0.10200000000000001,2.71372383602024,-1.4638003390808567,0.8688222239384742,0.0,7.099066851258768,5.480222942306039,109.13709747267558,105.21423350701615,0.0
0.10300000000000001,2.665945764176588,-1.4510797087145657,0.910751506660481,0.0,7.08216322493129,5.4674849809953585,108.9661542842597,105.21423350701615,0.0
0.10400000000000001,2.6240320047237358,-1.4375217400432423,0.9587038930959833,0.0,7.064311994855307,5.463318655685059,108.78070246803489,105.21423350701615,0.0
0.105,2.591742435074886,-1.4253978650785852,1.0157651115982023,0.0,7.046631208696495,5.466713765135927,108.61196753436073,105.21423350701615,0.0
0.106,2.570864868546215,-1.4158110427329678,1.0661552381618362,0.0,7.030124700390278,5.47494722338447,108.43425970406823,105.21423350701615,0.0
0.107,2.560849474441563,-1.4085910743027026,1.1228088913375678,0.0,7.015393860435664,5.4873276032474525,108.27819299240068,105.21423350701615,0.0
0.108,2.5607783893061296,-1.403252871955843,1.170202652317497,0.0,7.002859139888959,5.501551303728567,108.10901621979606,105.21423350701615,0.0
0.109,2.5686101545253552,-1.3987025329634575,1.2258432114920055,0.0,6.992553106179341,5.517883480980822,107.96019910454976,105.21423350701615,0.0
0.11,2.5830448684363505,-1.3942374771445243,1.2727921131398205,0.0,6.98446524081575,5.534650309848388,107.78556312852996,105.21423350701615,0.0
0.111,2.602218070950754,-1.3889425696875246,1.334396804934583,0.0,6.978325055613199,5.5532739912363125,107.63115162858561,105.21423350701615,0.0
0.112,2.625706719679613,-1.3826128603959005,1.387433373691061,0.0,6.9740179381221825,5.572247242275422,107.47043378076351,105.21423350701615,0.0
0.113,2.652486512246229,-1.3746059415823046,1.4452302948646367,0.0,6.971221393507601,5.592008861408008,106.71587344086333,105.21423350701615,0.0
0.114,2.6816954871040393,-1.3654989806263926,1.8074940654762552,0.0,6.969758968750722,5.645840520412726,107.06182684270776,105.21423350701615,0.0
0.115,2.731553027778131,-1.3646100084683404,1.616041431197126,0.0,6.973819235042177,5.664268103838894,106.06975415998357,105.21423350701615,0.0
0.116,2.7759804441226192,-1.3567921827791163,2.1035225660295445,0.0,6.978465161942867,5.732407966334793,107.1263269683943,105.21423350701615,0.0
0.117,2.8417523421077915,-1.3619802631128222,1.5561152272104026,0.0,6.990109349496679,5.722318182037819,105.40025795062336,105.21423350701615,0.0
0.11800000000000001,2.8835371219111434,-1.34286290460298,2.4172894916598002,0.0,6.997425349625991,5.81066643060503,104.46455413499237,105.21423350701615,0.0
0.11900000000000001,2.960732188511345,-1.3411442897663732,2.8926381931955314,0.0,7.012846700552166,5.926514459324901,104.25712433639883,105.21423350701615,0.0
0.12,3.0769890504103126,-1.356322757875663,3.0059241841984736,0.0,7.039997536898101,6.028011488117485,104.2372554054323,105.21423350701615,0.0
0.121,3.2096055461887567,-1.3771350364903994,3.0256284306975814,0.0,7.076720558455228,6.109683258953635,105.44884814806217,105.21423350701615,0.0
0.122,3.340199716234813,-1.3943517900453832,2.4174859129721833,0.0,7.119624175045154,6.106728241699816,105.90966204252477,105.21423350701615,0.0
0.123,3.4232286899322513,-1.3802578085473816,2.1801246803857954,0.0,7.156219422750376,6.080503532016866,106.4983180700482,105.21423350701615,0.0
0.124,3.4608187029940436,-1.3406359075428096,1.8729558209937611,0.0,7.182315205421261,6.025841244165651,106.42502290611674,105.21423350701615,0.0
0.125,3.4550556951302687,-1.2757228740551074,1.8974955089684866,0.0,7.193590966366335,5.986035648633419,104.99000239857156,105.21423350701615,0.0
0.126,3.432354602834523,-1.199382020270571,2.6172480738255204,0.0,7.192010228082253,6.032705064077335,103.07686440297083,105.21423350701615,0.0
0.127,3.450282296932696,-1.1413895904130396,3.5951907626663413,0.0,7.189638746424491,6.172726576998619,102.60915015371006,105.21423350701615,0.0
0.128,3.551946707900423,-1.1186375921119815,3.8550987208297847,0.0,7.19958376871009,6.3063154307061,104.07877199121037,105.21423350701615,0.0
0.129,3.701292928882522,-1.1246040639510462,3.1316424172376864,0.0,7.222777006023185,6.329949188096275,105.09563140129909,105.21423350701615,0.0
0.13,3.819833138294486,-1.1180748884668765,2.6243987332505,0.0,7.245236421322341,6.293430690450576,103.82649792858903,105.21423350701615,0.0
0.131,3.8855369850793946,-1.0836144382298358,3.272842825389797,0.0,7.258072687555781,6.333169250022337,101.36746854545014,105.21423350701615,0.0
0.132,3.9634029044638517,-1.046074837760713,4.540825166574907,0.0,7.269814431573813,6.495302984204794,102.8401686416352,105.21423350701615,0.0
0.133,4.11849182143256,-1.0406264017250124,3.828215767136183,0.0,7.296371442649056,6.535049540347983,104.45640294231653,105.21423350701615,0.0
0.134,4.250717320312188,-1.030615286217907,3.0276769224425157,0.0,7.323200669885669,6.479550047355389,102.1158611877492,105.21423350701615,0.0
0.135,4.315896391868695,-0.9886590998133788,4.228931522918849,0.0,7.337281955749934,6.566579378002631,100.99433958728282,105.21423350701615,0.0
0.136,4.425366521621254,-0.9524065503419367,4.831891262349371,0.0,7.355089827514683,6.689237005946952,103.27384099696044,105.21423350701615,0.0
0.137,4.575772939742987,-0.9452010645718772,3.7115444826111177,0.0,7.382952596957397,6.656691910411938,101.05604210364034,105.21423350701615,0.0
