timestamp,iq,id,iq_ref,id_ref,vq,vd,omega,omega_ref,r
0.0,0.0,0.0,0.0,0.0,0.0,0.0,0.0,173.7371764186554,0.0
0.001,0.0,0.0,10.0,0.0,0.0,1.0999999999999999,4.762927519418212,173.7371764186554,0.0
0.002,0.5100156537681348,-0.29502002626714535,10.0,0.0,0.14245220288938595,1.933898278085505,9.0088212583998,173.7371764186554,0.0
0.003,0.8867607066697568,-0.5092540218786645,10.0,0.0,0.3746645525529796,2.662310149369901,13.502716529204973,173.7371764186554,0.0
0.004,1.182823419731264,-0.6775403491924881,10.0,0.0,0.6728660104270584,3.3123026205844672,18.147973171667385,173.7371764186554,0.0
0.005,1.420074714669107,-0.8121969248991876,10.0,0.0,1.019375929689785,3.9039789751524365,22.890232389504284,173.7371764186554,0.0
0.006,1.613972009498859,-0.9214345401768476,10.0,0.0,1.401072064406512,4.452182496707988,27.701122396337826,173.7371764186554,0.0
0.007,1.7751744440795816,-1.0125219749271097,10.0,0.0,1.8083461794768732,4.9679419847240744,32.56509900319069,173.7371764186554,0.0
0.008,1.9124758568821922,-1.089221311408091,10.0,0.0,2.233994884507212,5.459361804383108,37.447835976897004,173.7371764186554,0.0
0.009000000000000001,2.0315807965872565,-1.155668214509905,10.0,0.0,2.6727628669768104,5.932475983339744,42.37554937367312,173.7371764186554,0.0
0.01,2.136715297763752,-1.2148817492345927,10.0,0.0,3.1208144888838096,6.391781796915311,47.30868606563321,173.7371764186554,0.0
0.011,2.2316966587356153,-1.2678806210938771,10.0,0.0,3.57522927051494,6.840565586628879,52.23949744347354,173.7371764186554,0.0
0.012,2.319141897245134,-1.3157588279454202,10.0,0.0,4.03381756698939,7.281243312907875,57.12115859034326,173.7371764186554,0.0
0.013000000000000001,2.40048467480905,-1.3601719858643357,10.0,0.0,4.495021471746862,7.715638843059482,61.993215634307866,173.7371764186554,0.0
0.014,2.477249672925883,-1.4015348963005367,10.0,0.0,4.957650327612539,8.145084488654462,66.84598362416723,173.7371764186554,0.0
0.015,2.5503968904121304,-1.4404333024650637,10.0,0.0,5.4208260580248835,8.570569911334198,71.67218284836618,173.7371764186554,0.0
0.016,2.6207324999962687,-1.4771336599873819,10.0,0.0,5.8838808129297755,8.992818919907796,76.46594848548797,173.7371764186554,0.0
0.017,2.688891635558599,-1.5117695058567489,10.0,0.0,6.3462979326719475,9.412354354298513,81.21905842042108,173.7371764186554,0.0
0.018000000000000002,2.755349997334327,-1.5444385263059985,10.0,0.0,6.807674117669695,9.829549128784663,85.92942166245187,173.7371764186554,0.0
0.019,2.8204435765272,-1.5752554941247379,10.0,0.0,7.267695337871852,10.244666334228516,90.58671849682388,173.7371764186554,0.0
0.02,2.8846710829324147,-1.6039031280231553,10.0,0.0,7.72606922664882,10.657859851235555,95.15097747179396,173.7371764186554,0.0
0.021,2.948711618182876,-1.6296536005172242,10.0,0.0,8.182471153884155,11.069169221606094,99.62718545705519,173.7371764186554,0.0
0.022,3.012423552997199,-1.6530978007231591,10.0,0.0,8.636685182730725,11.478619940186034,104.02178050684512,173.7371764186554,0.0
0.023,3.07611228934663,-1.6740279399124884,10.0,0.0,9.088490753859396,11.886178348142346,108.321126538499,173.7371764186554,0.0
0.024,3.140115748968809,-1.6921566665885963,10.0,0.0,9.537656467213314,12.29175797922095,112.50685327003403,173.7371764186554,0.0
0.025,3.204672774611936,-1.7073576837553028,10.0,0.0,9.983954396961273,12.695234980302564,116.56962157721466,173.7371764186554,0.0
0.026000000000000002,3.270169960589174,-1.7192625968263182,10.0,0.0,10.427127764108745,13.096434954049743,120.49036086021466,173.7371764186554,0.0
0.027,3.3369034814248266,-1.7276667527181346,10.0,0.0,10.866909199933575,13.495146551704801,124.26338643253264,173.7371764186554,0.0
0.028,3.4051380232408834,-1.7324370198777461,10.0,0.0,11.303024339770067,13.891126668785432,127.851026150721,173.7371764186554,0.0
0.029,3.475281087921216,-1.7332186542172885,10.0,0.0,11.73516425443673,14.284086896444967,131.25521035261337,173.7371764186554,0.0
0.03,3.5475611067571435,-1.7299797313480854,10.0,0.0,12.16302210254367,14.673715721380066,134.45910545589868,173.7371764186554,0.0
0.031,3.6222833545550044,-1.7225771444651325,10.0,0.0,12.58627515300499,15.059670801562948,137.4374387215413,173.7371764186554,0.0
0.032,3.6996084494642494,-1.7111236680014292,10.0,0.0,13.00461254989629,15.441597140811638,140.19897619128776,173.7371764186554,0.0
0.033,3.7799590791930857,-1.6953102184569935,10.0,0.0,13.41768389633808,15.819099267503502,142.80855252059442,173.7371764186554,0.0
0.034,3.8645928312466187,-1.6734484406956298,10.0,0.0,13.82495165974657,16.191652109741767,145.16192836452757,173.7371764186554,0.0
0.035,3.95306944113513,-1.6466531191514682,10.0,0.0,14.2260190634458,16.558790354529854,147.33846155272147,173.7371764186554,0.0
0.036000000000000004,4.045747735830558,-1.6147221576602229,10.0,0.0,14.620449098705313,16.920011668891433,149.3453682456246,173.7371764186554,0.0
0.037,4.142775256903787,-1.5777704149435225,10.0,0.0,15.007812879791109,17.274807610971713,151.2534001904693,173.7371764186554,0.0
0.038,4.244246494921621,-1.5359775264298299,10.0,0.0,15.387692176667018,17.62266877598131,153.11581198372826,173.7371764186554,0.0
0.039,4.350063378373051,-1.489809164414434,10.0,0.0,15.759709069419731,17.963106609378055,155.01289984583488,173.7371764186554,0.0
0.04,4.460254419568224,-1.4394846662503296,10.0,0.0,16.123494045058962,18.295639503013454,157.04317479060998,173.7371764186554,0.0
0.041,4.573194597434036,-1.3879361403908244,10.0,0.0,16.478986719634896,18.619976095695943,159.11939287473402,173.7371764186554,0.0
0.042,4.688117444810366,-1.3366639576819794,10.0,0.0,16.82623933118211,18.93591618513504,160.9186733211724,173.7371764186554,0.0
0.043000000000000003,4.805888254683475,-1.2844143270742499,10.0,0.0,17.165125952978748,19.243181966172667,162.56714435489542,173.7371764186554,0.0
0.044,4.927089204204659,-1.2303342585151071,10.0,0.0,17.495424179464063,19.541455434937596,164.08202192594032,173.7371764186554,0.0
0.045,5.04854327600116,-1.179859153609509,10.0,0.0,17.817508469323307,19.83078344107216,164.62468384141596,173.7371764186554,0.0
0.046,5.17215021516045,-1.1299374257659414,10.0,0.0,18.13133049179635,20.111004852989634,161.86665265838133,173.7371764186554,0.0
0.047,5.29922153736229,-1.0783541450381973,10.0,0.0,18.436617509612223,20.38184454991206,164.26245396206943,173.7371764186554,0.0
0.048,5.450170836330347,-0.9900888410671818,10.0,0.0,18.729266444709214,20.64079526925936,164.2990700023366,173.7371764186554,0.0
0.049,5.5710945722223535,-0.9569029324599287,10.0,0.0,19.015777761324145,20.89132369222319,166.35785118752412,173.7371764186554,0.0
0.05,5.681513311183168,-0.9433592914817313,9.680088571661955,0.0,19.29753284715244,21.099323323508173,172.7245734514204,173.7371764186554,0.0
0.051000000000000004,5.7006318439119825,-1.0375942519850616,6.506853469386159,0.0,19.582413669591553,20.96784290206997,172.70748753091766,173.7371764186554,0.0
0.052000000000000005,5.564528935955302,-1.033841858922449,6.525693318514911,0.0,19.824303254801016,20.92696584464895,178.33760418176814,173.7371764186554,0.0
0.053,5.480733349909682,-1.0381249902006666,3.664630715458543,0.0,20.03842484411866,20.607316652048937,181.91931637028975,173.7371764186554,0.0
0.054,5.241157873555803,-1.034549648573388,1.7919532216813963,0.0,20.198733236352748,20.18917598589423,182.07197735011368,173.7371764186554,0.0
0.055,4.970743033603084,-0.9927354517235942,1.632274722454845,0.0,20.296632914510756,19.857392243232525,183.55455125872052,173.7371764186554,0.0
0.056,4.753198707519724,-0.9778232960413675,0.7928140197507751,0.0,20.35034205543025,19.49905867781724,185.70665552800799,173.7371764186554,0.0
0.057,4.5313770655206875,-0.9684088532490613,-0.402932905986483,0.0,20.36196045856594,19.081016765590448,187.66302086396516,173.7371764186554,0.0
0.058,4.28746962876182,-0.9520738809696567,-1.5203740184181669,0.0,20.32891012764255,18.619591433413262,188.5676633968695,173.7371764186554,0.0
0.059000000000000004,4.033857356048394,-0.9234984441343312,-2.1210001546524815,0.0,20.250042348264707,18.1715674131309,189.08254737884627,173.7371764186554,0.0
0.06,3.7943890425728286,-0.9036066917113945,-2.531895855242773,0.0,20.132356606398236,17.74507214299157,189.27344538884452,173.7371764186554,0.0
0.061,3.5737492862247504,-0.8920876667287967,-2.7827075499437894,0.0,19.98272173648062,17.347853186331854,188.96287849534545,173.7371764186554,0.0
0.062,3.3744632804534502,-0.889266894297879,-2.7796811239611543,0.0,19.808133363171226,16.99794872522281,188.2998213552264,173.7371764186554,0.0
0.063,3.203053742188546,-0.89943980478343,-2.593779003267346,0.0,19.617160608959583,16.70285703106165,187.76467748319502,173.7371764186554,0.0
0.064,3.062450161877763,-0.9214069166689514,-2.4664820778970435,0.0,19.418090613955535,16.444073169930775,187.18685442434912,173.7371764186554,0.0
0.065,2.942817478203767,-0.9479361239667404,-2.3120673285310342,0.0,19.21574777402271,16.218726907990167,186.52119401639615,173.7371764186554,0.0
0.066,2.8401787126901956,-0.9791616905927416,-2.107077300531957,0.0,19.014274112144992,16.026779681206335,185.8614524466916,173.7371764186554,0.0
0.067,2.754100198538777,-1.013356205952291,-1.8984492759600435,0.0,18.817202234799947,15.863221242237552,185.2952309993125,173.7371764186554,0.0
0.068,2.68055197306881,-1.0503902766897584,-1.7309190980770683,0.0,18.627213503920053,15.71988301841273,184.76239194669276,173.7371764186554,0.0
0.069,2.616970690078807,-1.0843826590895467,-1.5747517270475675,0.0,18.445258645102278,15.593641311791021,184.1293046752638,173.7371764186554,0.0
0.07,2.561082930630432,-1.1153516055425292,-1.3621293738991702,0.0,18.27194176178994,15.489166915795156,183.66142929460182,173.7371764186554,0.0
0.07100000000000001,2.513837160523728,-1.1466384776406682,-1.227434212327645,0.0,18.108640993675504,15.395136672426279,183.06856062433874,173.7371764186554,0.0
0.07200000000000001,2.4723771504956336,-1.1710092810427066,-1.024313719252942,0.0,17.954635197688877,15.319263822607372,182.4119532386549,173.7371764186554,0.0
0.073,2.440450788402573,-1.190485258978384,-0.7827577946110091,0.0,17.810341345857918,15.263214924681515,181.59057350537725,173.7371764186554,0.0
0.074,2.4182586576688734,-1.2072223367721835,-0.45060189883940893,0.0,17.676518308195433,15.234584991413382,180.6603325825028,173.7371764186554,0.0
0.075,2.4085485551338586,-1.2246599890862886,-0.054712999040659405,0.0,17.55496535194899,15.236508157697465,180.0138293384445,173.7371764186554,0.0
0.076,2.4108191247858937,-1.246696007376081,0.20577209379059624,0.0,17.44800959344435,15.250431319254883,179.0384402074753,173.7371764186554,0.0
0.077,2.420076402871335,-1.2614570117286135,0.6404540213869998,0.0,17.354545077241788,15.296481155020508,178.98540050633383,173.7371764186554,0.0
0.078,2.437446496429236,-1.288144159982293,0.6144916310809516,0.0,17.277819972500424,15.319558735869165,179.80512581055135,173.7371764186554,0.0
0.079,2.4605484141098164,-1.2727077584775455,0.14394948505323502,0.0,17.209110260670002,15.278788525989551,176.91161880959137,173.7371764186554,0.0
0.08,2.4442366347248052,-1.2527369374114607,1.5589585616238608,0.0,17.14115207273245,15.397606100707062,176.66734897925878,173.7371764186554,0.0
0.081,2.4919526120187734,-1.2874204579733814,1.6517917511841258,0.0,17.095886356532866,15.488395783948794,178.35821537874548,173.7371764186554,0.0
0.082,2.5451656444673834,-1.2801628194781376,0.7601481618398704,0.0,17.063081004837326,15.461194526726525,175.63869348029473,173.7371764186554,0.0
0.083,2.547547315645337,-1.230137696216946,2.1008939404488527,0.0,17.025405875415323,15.590101478092265,173.88669162501046,173.7371764186554,0.0
0.084,2.605962306591945,-1.2455878784538437,2.9753997160274404,0.0,17.00658872535077,15.778736566614437,175.019012510814,173.7371764186554,0.0
0.085,2.6943972447354816,-1.2715688714462463,2.3964209122040785,0.0,17.01122020655168,15.865050011815264,175.52973573514623,173.7371764186554,0.0
0.08600000000000001,2.753025911625482,-1.234816398012599,2.123133706873058,0.0,17.01971730214496,15.913358652091455,173.3107286493157,173.7371764186554,0.0
0.08700000000000001,2.793715220284334,-1.1847997855749441,3.236901727481718,0.0,17.02706124957273,16.079043954936044,171.01508039192663,173.7371764186554,0.0
0.088,2.878231361488983,-1.1837896781008688,4.4119468164435425,0.0,17.05062838684441,16.33812251937273,170.67871290308332,173.7371764186554,0.0
0.089,3.001787081905243,-1.2131131101322596,4.610715196020918,0.0,17.100982345430776,16.57101804412308,171.59957610743737,173.7371764186554,0.0
0.09,3.1210969246030964,-1.2155285517052443,4.171659596956074,0.0,17.169562924886257,16.723487087071515,171.88275411629473,173.7371764186554,0.0
0.091,3.2048800810672256,-1.1869391083802787,4.048614815550999,0.0,17.24336335750956,16.850399864922682,171.65760936168272,173.7371764186554,0.0
0.092,3.279488613623315,-1.1449312813077654,4.181982863426734,0.0,17.318140058110927,16.980533234314905,171.13252561981597,173.7371764186554,0.0
0.093,3.3586388106087792,-1.1019804397909903,4.4705712423485044,0.0,17.39414791129526,17.127581541687846,170.36358908053123,173.7371764186554,0.0
0.094,3.44848832076807,-1.063572952994905,4.888775385372115,0.0,17.473464494766045,17.301550431437636,169.39798240731488,173.7371764186554,0.0
0.095,3.552721361987722,-1.0333374137590456,5.414970662093691,0.0,17.55930447441675,17.50918639013609,168.03246303172853,173.7371764186554,0.0
0.096,3.674154945762934,-1.0120258798166777,6.154777483756139,0.0,17.65528213863092,17.768444184742343,166.00832166950792,173.7371764186554,0.0
0.097,3.824969832830709,-0.9957130368608711,7.244136712357916,0.0,17.766006518498603,18.10843011149927,164.7937772960712,173.7371764186554,0.0
0.098,4.022799369060605,-0.9825771172940538,7.94084289030212,0.0,17.8983752303324,18.470980870740497,165.78319587445145,173.7371764186554,0.0
0.099,4.229230127267363,-0.9747862258727341,7.5256734065540325,0.0,18.053036508046272,18.7371486322088,166.84223943159256,173.7371764186554,0.0
0.1,4.384163035660068,-0.9484919505511032,7.065100997854106,0.0,18.21603397276442,18.930676162841024,167.3444256752861,173.7371764186554,0.0
0.101,4.497898554484847,-0.9132110460584373,6.877935383441034,0.0,18.378466487332993,19.094206615396608,164.8805985676234,173.7371764186554,0.0
0.10200000000000001,4.597059727782648,-0.8750065280725937,8.198414715782702,0.0,18.53715910776676,19.39498128298069,163.33801557175013,173.7371764186554,0.0
0.10300000000000001,4.791869491185251,-0.8244285699466747,9.073697822188386,0.0,18.70487840270156,19.74418663198964,165.72734648480892,173.7371764186554,0.0
0.10400000000000001,4.992601897157757,-0.8226614529681944,7.959130664997458,0.0,18.891057699757397,19.923755690213167,162.3521132737047,173.7371764186554,0.0
0.105,5.110926440409263,-0.7842629976867386,9.760597901999073,0.0,19.072369814018835,20.302284464264073,164.70233200279256,173.7371764186554,0.0
0.106,5.349785538517072,-0.7484198178600289,8.675836981613774,0.0,19.269844829031097,20.498661943364286,167.68084576137593,173.7371764186554,0.0
0.107,5.400435740700345,-0.8460293051234695,7.24714340889488,0.0,19.478305565849396,20.545657561001406,170.04796800475222,173.7371764186554,0.0
0.108,5.388777378790906,-0.869399710694738,6.1004743713457685,0.0,19.672214440489785,20.498741953985284,175.85453354926887,173.7371764186554,0.0
0.109,5.30097099013177,-0.920358862413417,3.1760180277813115,0.0,19.84741266959786,20.17522740685164,175.54313293538033,173.7371764186554,0.0
0.11,5.0833860708963705,-0.9046082616753205,3.313658769558331,0.0,19.970497463483394,19.969025459602584,177.03341657490452,173.7371764186554,0.0
0.111,4.936562874769144,-0.9015710928303854,2.535554548233743,0.0,20.0604770006899,19.72275901708515,180.4715749721452,173.7371764186554,0.0
0.112,4.777342064631714,-0.898385254062325,0.7491313640785098,0.0,20.11651186934798,19.337437721650126,183.6640727016936,173.7371764186554,0.0
0.113,4.538373032522891,-0.899529129740605,-0.9463864635260828,0.0,20.128568806309033,18.85230369886006,183.86500836337743,173.7371764186554,0.0
0.114,4.2625817693694685,-0.8712371070877774,-1.1481326138152106,0.0,20.087783086046386,18.439599222415133,184.46565573781393,173.7371764186554,0.0
0.115,4.034254689549189,-0.8576586145035865,-1.5557410942250485,0.0,20.008594776207772,18.04362521639494,185.11443857964963,173.7371764186554,0.0
0.116,3.823616253283032,-0.8523281870935604,-1.993905136752839,0.0,19.897277334661744,17.656094777310017,185.52489595050812,173.7371764186554,0.0
0.117,3.623961726795432,-0.8512951262159967,-2.3170110175006142,0.0,19.7582782609394,17.284881245072985,185.55820226321356,173.7371764186554,0.0
0.11800000000000001,3.438203726310674,-0.8545340109178764,-2.4518744322989137,0.0,19.596424349291564,16.94372207665553,185.27132788768523,173.7371764186554,0.0
0.11900000000000001,3.2716114120843565,-0.8651912846943091,-2.4237787592250486,0.0,19.417779823235158,16.641400166661196,184.70018004940894,173.7371764186554,0.0
0.12,3.126770151220032,-0.8854852232972975,-2.247834876394439,0.0,19.228893319293515,16.38478548099409,184.20727300266654,173.7371764186554,0.0
0.121,3.0064309358036168,-0.9146306518446602,-2.1060823188633493,0.0,19.036237054933512,16.16056585708681,183.725217635974,173.7371764186554,0.0
0.122,2.9033998835892607,-0.947469963538432,-1.9649350476902612,0.0,18.843745324619626,15.963741266977404,183.23163982335345,173.7371764186554,0.0
0.123,2.8147682153191704,-0.9807509147900351,-1.8130907754269696,0.0,18.65415281984692,15.791360533072348,182.67604069410828,173.7371764186554,0.0
0.124,2.73602382422062,-1.01764391418049,-1.6246798535589155,0.0,18.470006912581415,15.644240947101517,182.15768020794164,173.7371764186554,0.0
0.125,2.6702142825553707,-1.0522177201610325,-1.4497046483684568,0.0,18.292997826109335,15.517233498025675,181.64985327333744,173.7371764186554,0.0
0.126,2.6119916103210237,-1.087744510639446,-1.274917949613179,0.0,18.124551112269696,15.408449068550516,181.29671426417954,173.7371764186554,0.0
0.127,2.561113687944828,-1.1219023815022278,-1.1739438234894708,0.0,17.965472724756637,15.308072042264007,180.88713548576146,173.7371764186554,0.0
0.128,2.514043236085059,-1.150160422233058,-1.0406540249514915,0.0,17.815031279137987,15.220145986913586,180.3580516476791,173.7371764186554,0.0
0.129,2.4730465113193514,-1.1732888736471137,-0.8423208582005501,0.0,17.673102921794396,15.150491078099204,179.79176541550706,173.7371764186554,0.0
0.13,2.4417094257068648,-1.1920730024615618,-0.6197236320830433,0.0,17.540236878959178,15.099148299807036,179.13147630695295,173.7371764186554,0.0
0.131,2.4188475544913364,-1.2091487622394577,-0.34352207668896373,0.0,17.417213654865687,15.070010828870316,178.2852852816776,173.7371764186554,0.0
0.132,2.4070205489582044,-1.2242078849272282,0.03409234731848709,0.0,17.30506475198575,15.071332705601282,177.63681451638956,173.7371764186554,0.0
0.133,2.4067974702621413,-1.2449746845396517,0.3193313489851648,0.0,17.206396683797394,15.08881391891566,176.71879408092713,173.7371764186554,0.0
0.134,2.4149844187823617,-1.2610551421522764,0.7485253900936661,0.0,17.120904726100576,15.138136363460847,177.21679287726465,173.7371764186554,0.0
0.135,2.4318399219380105,-1.2881685877806874,0.4647298273388105,0.0,17.05171588307095,15.136695679605795,177.134355999444,173.7371764186554,0.0
0.136,2.4427909344611995,-1.2641852912505422,0.4719764704412448,0.0,16.986392558884187,15.131079209856109,174.91511679854074,173.7371764186554,0.0
0.137,2.4382651295838,-1.2579328577185431,1.5698166670940283,0.0,16.926591985417915,15.240789358525241,174.95083452002046,173.7371764186554,0.0
0.138,2.480866028458426,-1.2892859021404255,1.5398212253405141,0.0,16.887253843386915,15.314539177496437,176.29029363151434,173.7371764186554,0.0
0.139,2.5272701185063875,-1.2721728566189805,0.8445604974649843,0.0,16.857028532004545,15.296123033802104,173.48135075318694,173.7371764186554,0.0
0.14,2.5292204678986687,-1.22954760987652,2.251590193283369,0.0,16.823466490704526,15.438501349625081,172.1905777525157,173.7371764186554,0.0
