timestamp,iq,id,iq_ref,id_ref,vq,vd,omega,omega_ref,r
0.0,0.0,0.0,0.0,0.0,0.0,0.0,0.0,218.5507241972392,0.0
0.001,0.0,0.0,10.0,0.0,0.0,1.0999999999999999,32.70647044645643,218.5507241972392,0.0
0.002,0.41472361548182846,-0.21857693527873281,10.0,0.0,0.13404346288066069,1.9443804022969988,43.36769648691876,218.5507241972392,0.0
0.003,0.9802046595220262,-0.5291554522487197,10.0,0.0,0.3710984872168664,2.65967143196276,70.43237119386957,218.5507241972392,0.0
0.004,1.5784754130640768,-0.8609171044082262,10.0,0.0,0.6893651086538732,3.2669838886463416,88.13297323188715,218.5507241972392,0.0
0.005,2.143353832287216,-1.1689859521683463,10.0,0.0,1.067106270347556,3.7892378432261418,112.72013678894061,218.5507241972392,0.0
0.006,2.6357593397352828,-1.4421308774615982,10.0,0.0,1.4862639646345068,4.248524696890275,133.2134792816804,218.5507241972392,0.0
0.007,3.049228951461858,-1.6651398426599404,10.0,0.0,1.931234111778061,4.6632410324012445,156.25806970148932,218.5507241972392,0.0
0.008,3.381874122707718,-1.8461679291197661,10.0,0.0,2.3908618776169543,5.048526476355697,177.24434852690857,218.5507241972392,0.0
0.009000000000000001,3.6472754617432113,-1.9834267918955562,10.0,0.0,2.8563436053081426,5.415378456917147,198.74891772576456,218.5507241972392,0.0
0.01,3.8557289540218145,-2.0873022257041027,10.0,0.0,3.3220160673775387,5.771817541431278,218.83160789809912,218.5507241972392,0.0
0.011,4.023150076404385,-2.159441817929387,1.4781123029150742,0.0,3.783661792498104,5.185440528482299,208.28823848084522,218.5507241972392,0.0
0.012,3.815573669838482,-2.0236524940674228,6.852421868705964,0.0,4.124847022264645,5.404766334494195,236.31259364725486,218.5507241972392,0.0
0.013000000000000001,3.6832476188348915,-1.9094854861724397,-7.33737440899901,0.0,4.442645832025896,4.034137498220836,187.00979433200303,218.5507241972392,0.0
0.014,3.0265759921982895,-1.4952018599741612,10.0,0.0,4.547172348380822,4.95227119273787,247.87938442483164,218.5507241972392,0.0
0.015,2.8888340624313247,-1.3783300567504555,-10.0,0.0,4.724346520459336,3.424255321356701,166.24313418728704,218.5507241972392,0.0
0.016,2.2293616752033576,-0.9095527985219092,10.0,0.0,4.680604907818978,4.53792299761891,244.3238661317498,218.5507241972392,0.0
0.017,2.1518792300946985,-0.8870043026489516,-10.0,0.0,4.754811662105137,3.1377780900805328,154.40332738191142,218.5507241972392,0.0
0.018000000000000002,1.660583772474341,-0.4331048705994479,10.0,0.0,4.631879797642125,4.338336024611763,232.26398777146625,218.5507241972392,0.0
0.019,1.6848829797706668,-0.5521779621427028,-5.424315795346769,0.0,4.6589339474687925,3.5022843743766243,162.47982846316515,218.5507241972392,0.0
0.02,1.5391298434422243,-0.22073273979669167,10.0,0.0,4.562027811915784,4.619737036658369,220.7888853872991,218.5507241972392,0.0
0.021,1.720401713867957,-0.4725994648631593,0.45099328585405374,0.0,4.617577348127023,4.389722485537004,186.21420782975267,218.5507241972392,0.0
0.022,1.9209588744242214,-0.3124626577473003,10.0,0.0,4.6244367595715925,5.313896579889479,217.48746525449056,218.5507241972392,0.0
0.023,2.255688705208135,-0.6112860907000364,2.274467160794635,0.0,4.757499585002913,5.16622581671645,205.94839257985242,218.5507241972392,0.0
0.024,2.5486065479263105,-0.5331339539054265,8.17002681428757,0.0,4.8509040821968625,5.7435216382889696,216.3612572212794,218.5507241972392,0.0
0.025,2.851282835948182,-0.7286367511157742,2.985489163333679,0.0,5.014984540889754,5.61280837602855,216.36454191306754,218.5507241972392,0.0
0.026000000000000002,3.0733283082806135,-0.6617545788389687,3.005708640281326,0.0,5.140273560564761,5.544245765760895,207.244627507805,218.5507241972392,0.0
0.027,3.14365748353023,-0.6423382649032299,7.6787268098069354,0.0,5.2447104444353405,6.003382367811711,224.38550755866657,218.5507241972392,0.0
0.028,3.3760095573709874,-0.6586126087746724,-0.950061049238123,0.0,5.386601641089159,5.406296715484304,202.01801776123307,218.5507241972392,0.0
0.029,3.331500379142511,-0.46956940914372125,10.0,0.0,5.433637657446736,6.181122872405203,224.51261994442646,218.5507241972392,0.0
0.03,3.544375622429291,-0.5626114983230144,-0.9158893535066515,0.0,5.5655777496666765,5.549060207347829,218.67946764414822,218.5507241972392,0.0
0.031,3.471576673130071,-0.4302710784332391,1.9993993621633797,0.0,5.605629699079219,5.433375107132737,219.16681155030358,218.5507241972392,0.0
0.032,3.311684796101654,-0.43112971892944674,1.749566535555056,0.0,5.631525798182477,5.293489330776928,227.71246331095165,218.5507241972392,0.0
0.033,3.1739614804475123,-0.37279235036381775,-2.614876735906104,0.0,5.634418012792649,4.70614195632405,212.41290378309415,218.5507241972392,0.0
0.034,2.8443941752724546,-0.26138818876131453,5.096281232164095,0.0,5.566615184405894,5.104565520392526,233.60193885026135,218.5507241972392,0.0
0.035,2.7628300204939027,-0.32467832753968673,-5.648748447949725,0.0,5.553510952146311,4.202977984696148,205.50457919405318,218.5507241972392,0.0
0.036000000000000004,2.39868145913695,-0.15954094871921187,8.53039283018622,0.0,5.432760376485009,5.0966353169410175,242.4817810600059,218.5507241972392,0.0
0.037,2.4547739153744548,-0.34847362864870224,-10.0,0.0,5.435884560194776,3.6989055784937355,192.40574853811563,218.5507241972392,0.0
0.038,2.022238180543627,-0.11437085720450346,10.0,0.0,5.271282720030681,4.874705015957786,248.0048830342801,218.5507241972392,0.0
0.039,2.11859330270459,-0.3646497568278051,-10.0,0.0,5.2705927143024045,3.501539904873005,185.2016714645622,218.5507241972392,0.0
0.04,1.748494609806642,-0.12694662230990783,10.0,0.0,5.1040050642452774,4.70729671176426,250.30220082667228,218.5507241972392,0.0
0.041,1.8812030421014647,-0.4089925588683724,-10.0,0.0,5.108053944249596,3.3575201584792684,179.55412667539656,218.5507241972392,0.0
0.042,1.5504386844055738,-0.18005151582303447,10.0,0.0,4.948716306824412,4.580837312192701,252.24949022723564,218.5507241972392,0.0
0.043000000000000003,1.7171636739591802,-0.463062801816453,-10.0,0.0,4.961064800402823,3.2442415943644196,174.1327137476179,218.5507241972392,0.0
0.044,1.403534782921625,-0.24929316057883466,10.0,0.0,4.812174099444491,4.478706725586474,254.02918978865733,218.5507241972392,0.0
0.045,1.5982202678266262,-0.5144000283865304,-10.0,0.0,4.832918433575417,3.1502845813405607,168.89210814490664,218.5507241972392,0.0
0.046,1.2879792154545133,-0.3169698828586339,10.0,0.0,4.694377735182517,4.392852455542317,255.26893114718683,218.5507241972392,0.0
0.047,1.5056440088637997,-0.554840412581419,-10.0,0.0,4.722087953773866,3.0702639346858636,163.86904478362436,218.5507241972392,0.0
0.048,1.1923121183123928,-0.3726325620222197,10.0,0.0,4.592346729561695,4.319348443668939,255.59070726980957,218.5507241972392,0.0
0.049,1.429347271814302,-0.5810544904080981,-10.0,0.0,4.62523656929709,3.001343193541765,159.08948062794306,218.5507241972392,0.0
0.05,1.1120158146628394,-0.4104623213420725,10.0,0.0,4.502187542165103,4.255704264222529,254.81852828103916,218.5507241972392,0.0
0.051000000000000004,1.3650816602153077,-0.5924805243729973,-10.0,0.0,4.538607448838455,2.9413137675397305,154.3428770196598,218.5507241972392,0.0
0.052000000000000005,1.0460234615776633,-0.4283254857745906,10.0,0.0,4.420069078900058,4.199631371498213,252.9403317780311,218.5507241972392,0.0
0.053,1.3113561666648246,-0.5904494635903796,-10.0,0.0,4.458691494297069,2.8878861985210436,149.50827746588826,218.5507241972392,0.0
0.054,0.9949913069769619,-0.42556812129245714,10.0,0.0,4.342518963425733,4.148631245997828,249.85062039784125,218.5507241972392,0.0
0.055,1.2673545707555576,-0.5775764424707508,-10.0,0.0,4.3824079191418,2.8385609280272766,144.53486298077246,218.5507241972392,0.0
0.056,0.9594377704727503,-0.403071095686308,10.0,0.0,4.266585276131135,4.100081018094281,245.6013493160092,218.5507241972392,0.0
0.057,1.2328499456088138,-0.5558313389716619,-10.0,0.0,4.30704558665747,2.790712327585724,139.44742890447384,218.5507241972392,0.0
0.058,0.9390204326700567,-0.36298641691148076,10.0,0.0,4.1897824532208405,4.0513819053552815,240.11739383964206,218.5507241972392,0.0
0.059000000000000004,1.2072034573234787,-0.5273558154226181,-9.719337382631217,0.0,4.230321673961658,2.7726926720735214,135.37443804835246,218.5507241972392,0.0
0.06,0.943755228828638,-0.31452152402113764,10.0,0.0,4.113882583260944,4.0239079054907325,233.56917204677853,218.5507241972392,0.0
0.061,1.205093372389158,-0.5023241164767915,-6.433326170696026,0.0,4.156995553056157,3.1021167758166692,142.40845906435797,218.5507241972392,0.0
0.062,1.0975186895411275,-0.33019583275861675,10.0,0.0,4.082805975770888,4.263261793121945,229.10002409879948,218.5507241972392,0.0
0.063,1.393063933769012,-0.569226458794888,-4.140991603830152,0.0,4.1601645096458455,3.547445289146343,154.75522118406045,218.5507241972392,0.0
0.064,1.4068830589178187,-0.42239892289355585,10.0,0.0,4.1396642045262375,4.609300630091324,227.38934373976622,218.5507241972392,0.0
0.065,1.7138293953060988,-0.6876812352976475,-3.2094698872804273,0.0,4.258048793736551,3.934842897039476,166.9585266385748,218.5507241972392,0.0
0.066,1.7647564630775194,-0.5269651615532805,10.0,0.0,4.276817559484728,4.922273268596521,226.8807899857217,218.5507241972392,0.0
0.067,2.047144470633747,-0.7847272751017726,-2.873008905334383,0.0,4.422413479041571,4.2341583909596245,177.3610813954119,218.5507241972392,0.0
0.068,2.0867201669578836,-0.5895714286024758,10.0,0.0,4.4605935546286295,5.17264621516213,225.90210424694402,218.5507241972392,0.0
0.069,2.3322742968570815,-0.8238533185914425,-2.291258244781099,0.0,4.616526971441013,4.513719571198161,187.14220467522358,218.5507241972392,0.0
0.07,2.3652394512964436,-0.6045178203052824,10.0,0.0,4.664504658464394,5.410059296996218,224.0715342131966,218.5507241972392,0.0
0.07100000000000001,2.5897282272629614,-0.8139200237545816,-1.265151667572792,0.0,4.822546146727528,4.8351194392240675,197.16849682073885,218.5507241972392,0.0
0.07200000000000001,2.639250788797762,-0.5966290654305177,10.0,0.0,4.881293472936992,5.682093322155018,222.3120389573372,218.5507241972392,0.0
0.073,2.8682027711815623,-0.7788137511226718,-0.2571986995274873,0.0,5.041076679827984,5.184611683343197,206.02680256250065,218.5507241972392,0.0
0.074,2.936433653084659,-0.5816753261501587,8.01065871423817,0.0,5.111626328544797,5.759676954425652,216.2229725199953,218.5507241972392,0.0
0.075,3.1028749750277362,-0.6848902752916619,2.9358512522632862,0.0,5.245952568153464,5.6257570317219425,215.94091235410338,218.5507241972392,0.0
0.076,3.2373797107525046,-0.5624664706393664,3.1029794536406046,0.0,5.3389554235277235,5.57466279431043,205.11642864009815,218.5507241972392,0.0
0.077,3.2663908229662484,-0.5104066697718542,8.649564266214627,0.0,5.413046229574504,6.144585138560599,223.6519284567569,218.5507241972392,0.0
0.078,3.515224967394516,-0.5409443198702196,-0.6691976847099277,0.0,5.540599928961119,5.557313021498019,215.72041713686068,218.5507241972392,0.0
0.079,3.453222014263864,-0.42672951777377177,3.3248610458419727,0.0,5.583802041971224,5.583366232238966,222.20408482581675,218.5507241972392,0.0
0.08,3.361346390127951,-0.453309518294044,0.04649359507815998,0.0,5.629355212832604,5.220059615440932,222.976638374794,218.5507241972392,0.0
0.081,3.18770859959139,-0.35727322459043265,-0.38404232118600934,0.0,5.623192612615443,4.901245101845085,217.02299852409993,218.5507241972392,0.0
0.082,2.920948918480468,-0.30038092740240746,2.608054860892413,0.0,5.580467031306769,4.9747390157952065,227.76921484797435,218.5507241972392,0.0
0.083,2.7768773182847393,-0.2969848303784104,-2.857238207552149,0.0,5.549558751823214,4.418688050080188,211.9749270645687,218.5507241972392,0.0
0.084,2.47881577181423,-0.19992980460824122,5.105663655477381,0.0,5.455494111852033,4.877069542715804,233.29763937160817,218.5507241972392,0.0
0.085,2.438198451249625,-0.29936898253897304,-5.7031616497860425,0.0,5.428582944971614,4.013093909678872,203.85041784177585,218.5507241972392,0.0
0.08600000000000001,2.1170925513209653,-0.16554007652665015,9.167452178684751,0.0,5.302249760034883,5.011595973228522,245.7031067087741,218.5507241972392,0.0
0.08700000000000001,2.2488682781776936,-0.38411716296727355,-10.0,0.0,5.313781868515379,3.622782245035971,190.27291832180148,218.5507241972392,0.0
0.088,1.8593219978975357,-0.18269064993592293,10.0,0.0,5.160936706030718,4.809845470396961,252.3139718386271,218.5507241972392,0.0
0.089,1.997718028596954,-0.43370879534569295,-10.0,0.0,5.171708643456007,3.4437988307936465,182.79812769952724,218.5507241972392,0.0
0.09,1.6420809982791789,-0.21718910669569785,10.0,0.0,5.018471375972841,4.655938082535143,255.24506405958093,218.5507241972392,0.0
0.091,1.799863816206819,-0.48231147358560034,-10.0,0.0,5.033100417656533,3.310627202078954,177.13712613083814,218.5507241972392,0.0
0.092,1.4677584625767364,-0.2696856470292611,10.0,0.0,4.885695402536134,4.539419730915339,257.1038079964572,218.5507241972392,0.0
0.093,1.6518319543568432,-0.526652187987291,-10.0,0.0,4.906302719582366,3.207023367723932,171.95162920019726,218.5507241972392,0.0
0.094,1.330344177225479,-0.32743939801255606,10.0,0.0,4.767126596298029,4.447131762958541,258.2980637422417,218.5507241972392,0.0
0.095,1.5401901099853856,-0.5625464098520019,-10.0,0.0,4.793732824067676,3.1230137759663545,166.96599802478877,218.5507241972392,0.0
0.096,1.220804328906322,-0.3789137863725734,10.0,0.0,4.662715971660007,4.371199105696645,258.5965807264309,218.5507241972392,0.0
0.097,1.4531757470858904,-0.5869830065105803,-10.0,0.0,4.69434327791611,3.0527095034025953,162.18210469035597,218.5507241972392,0.0
0.098,1.132876213004643,-0.41585874749364465,10.0,0.0,4.570054532623954,4.306788254894297,257.8170681066184,218.5507241972392,0.0
0.099,1.3835352252037758,-0.5982476478960204,-10.0,0.0,4.605376558644611,2.992254770024892,157.38836247412968,218.5507241972392,0.0
0.1,1.0629947038213563,-0.43430191796919965,10.0,0.0,4.485855114280291,4.250472883718553,255.9172328831692,218.5507241972392,0.0
0.101,1.3272927486831354,-0.5966379396159922,-10.0,0.0,4.523604045402186,2.938638851457796,152.49310783704502,218.5507241972392,0.0
0.10200000000000001,1.0101656005253545,-0.43214149965927984,10.0,0.0,4.406676711574107,4.199290082281276,252.79495987165913,218.5507241972392,0.0
0.10300000000000001,1.2822339055692307,-0.5839099187916269,-10.0,0.0,4.4458467247153095,2.8890846716031984,147.42177172997063,218.5507241972392,0.0
0.10400000000000001,0.9738088428168579,-0.4098214552224626,10.0,0.0,4.329411780290653,4.150464243260247,248.47622603502924,218.5507241972392,0.0
0.105,1.2473015892656663,-0.5619162615634943,-10.0,0.0,4.369229600807373,2.8408939105722335,142.2185060093155,218.5507241972392,0.0
0.106,0.9532290383373758,-0.3691553364687646,10.0,0.0,4.251383956179788,4.101345301271292,242.88115339269805,218.5507241972392,0.0
0.107,1.2215686675760962,-0.5327546483815447,-10.0,0.0,4.291291548646221,2.791508903712145,137.07147320309667,218.5507241972392,0.0
0.108,0.9468875995849955,-0.3133250804124865,10.0,0.0,4.170451496514373,4.049545218926966,235.8786312573697,218.5507241972392,0.0
0.109,1.2040560834948255,-0.49831828574649395,-7.679842082519065,0.0,4.21004262938362,2.993875924420027,140.02441128517893,218.5507241972392,0.0
0.11,1.0460334949735328,-0.29701776984696565,10.0,0.0,4.116114730712962,4.189267892129437,229.73575130621006,218.5507241972392,0.0
0.111,1.3229733444347607,-0.5278263711769297,-4.555639869562288,0.0,4.178520769985604,3.4457654573978496,151.97174675349206,218.5507241972392,0.0
0.112,1.3202169787050184,-0.3672731135049332,10.0,0.0,4.1403670175006,4.532603253139042,226.55727799224675,218.5507241972392,0.0
0.113,1.6247326462965923,-0.6377426001717479,-2.8805220197179215,0.0,4.2460695959482875,3.911003786100652,166.10512052234432,218.5507241972392,0.0
0.114,1.7004977443370803,-0.4858411721954603,10.0,0.0,4.259628117903308,4.902508161868481,225.73840810934337,218.5507241972392,0.0
0.115,1.9984302076833529,-0.7577431020486705,-2.375908135677967,0.0,4.402409451803225,4.274047917145591,178.24401371833684,218.5507241972392,0.0
0.116,2.0734106320594337,-0.5806408477119612,10.0,0.0,4.445866360565289,5.20255228451843,225.3747013350478,218.5507241972392,0.0
0.117,2.33773456333238,-0.8252714847819395,-2.0947145384115338,0.0,4.606508407809499,4.5600483972518795,188.18490218621693,218.5507241972392,0.0
0.11800000000000001,2.387408997087677,-0.6173152494784893,10.0,0.0,4.661514369348551,5.446403899645435,224.2442649406076,218.5507241972392,0.0
0.11900000000000001,2.620482196823266,-0.8275751876369691,-1.418850393637173,0.0,4.824863440523519,4.847462451635973,197.29512764099474,218.5507241972392,0.0
0.12,2.663568414695174,-0.6092001227698932,10.0,0.0,4.885859603263083,5.692603350812863,222.606982583897,218.5507241972392,0.0
0.121,2.8887862607052535,-0.7871384973238247,-0.47358131802064785,0.0,5.047027211495983,5.16870422654499,205.53812315214716,218.5507241972392,0.0
0.122,2.9439080174517755,-0.5826583603668644,8.190974408305193,0.0,5.1154159476680015,5.7673375038212225,216.61990687950242,218.5507241972392,0.0
0.123,3.1098541356787655,-0.6870978971581718,2.669390717804932,0.0,5.250362288367052,5.601223708331244,215.2848748228319,218.5507241972392,0.0
0.124,3.2340831300017845,-0.5557641516892522,3.3695652398842615,0.0,5.339711508077707,5.5854452326006365,205.34731388706928,218.5507241972392,0.0
0.125,3.2666963269744946,-0.5104690798201807,8.470379810867277,0.0,5.414878837793329,6.131922222277726,223.57181347535837,218.5507241972392,0.0
0.126,3.512816520600667,-0.5347806812929314,-0.6920808760584605,0.0,5.540304360385788,5.545642335357853,215.2599564244159,218.5507241972392,0.0
0.127,3.4448729545163648,-0.424893109831153,3.496755327141012,0.0,5.582228593151493,5.59286457281595,222.92782283759584,218.5507241972392,0.0
0.128,3.3600524738224884,-0.45389426900910324,-0.38094886585252996,0.0,5.628971629610629,5.179772003759006,221.76752450849375,218.5507241972392,0.0
0.129,3.172604389609041,-0.34907344207424207,0.16703229558596955,0.0,5.61791080296354,4.93148904939838,218.16809546757764,218.5507241972392,0.0
0.13,2.920663531740839,-0.3060841061716586,1.9705731033406384,0.0,5.579447144865167,4.925676998571104,226.39476016837563,218.5507241972392,0.0
0.131,2.761444179626122,-0.2867723604302427,-2.2211996067697175,0.0,5.542554248821368,4.452464100980971,213.19437387147386,218.5507241972392,0.0
0.132,2.478865026011574,-0.20707644990311258,4.43255704493882,0.0,5.453455919922369,4.826205675710967,231.51658149078193,218.5507241972392,0.0
0.133,2.4228582073874074,-0.28910244775990135,-4.858205337650644,0.0,5.420461400255789,4.068476789988649,205.9161032591278,218.5507241972392,0.0
0.134,2.125395696257467,-0.1773027058518991,8.068379987557538,0.0,5.301875212395183,4.93021415850875,242.53472382235643,218.5507241972392,0.0
0.135,2.227648044931527,-0.3700062130964752,-10.0,0.0,5.303636763388635,3.5629091360419247,189.9857586763531,218.5507241972392,0.0
0.136,1.819773041554513,-0.17111373577609107,10.0,0.0,5.144686449458368,4.759083344654914,250.49795019370097,218.5507241972392,0.0
0.137,1.9589856380305257,-0.4114532457433249,-10.0,0.0,5.149674858652027,3.4003529653674476,181.50131006833826,218.5507241972392,0.0
0.138,1.6011266386785177,-0.20155416333684967,10.0,0.0,4.992799094833189,4.618751080821573,253.73970519595252,218.5507241972392,0.0
0.139,1.765517147424572,-0.46432082793716567,-10.0,0.0,5.004454042871747,3.2779602623928175,175.61854489104607,218.5507241972392,0.0
0.14,1.437250209617612,-0.25650394000079413,10.0,0.0,4.855376889944571,4.510167288857019,255.6040797369479,218.5507241972392,0.0
0.14100000000000001,1.627536262547087,-0.5144459928454982,-10.0,0.0,4.874879949648811,3.1800317621817697,170.43054373925162,218.5507241972392,0.0
0.14200000000000002,1.3104851273135725,-0.3179819019675687,10.0,0.0,4.735228680190085,4.421638579549452,256.7771183626405,218.5507241972392,0.0
0.14300000000000002,1.5245412772058011,-0.5546822380000512,-10.0,0.0,4.761704897286352,3.098402900394013,165.48850775543613,218.5507241972392,0.0
