timestamp,iq,id,iq_ref,id_ref,vq,vd,omega,omega_ref,r
0.0,0.0,0.0,0.0,0.0,0.0,0.0,0.0,280.2353391535941,0.0
0.001,0.0,0.0,10.0,0.0,0.0,1.0999999999999999,19.55764231954562,280.2353391535941,0.0
0.002,0.6474138600298729,-0.34341872137946516,10.0,0.0,0.1477760593517412,1.9187844753967138,38.393136769279835,280.2353391535941,0.0
0.003,1.5468309280030617,-0.8002708126721338,10.0,0.0,0.40947250313637834,2.578006370312178,56.75824117393167,280.2353391535941,0.0
0.004,2.482434961956918,-1.2816660601842027,10.0,0.0,0.7593064483474994,3.103553447059368,75.71622926697492,280.2353391535941,0.0
0.005,3.336015501177247,-1.717499180056345,10.0,0.0,1.1698393974230423,3.526991391678253,94.85656911170439,280.2353391535941,0.0
0.006,4.050635572405521,-2.073805372160428,10.0,0.0,1.6164981959856466,3.8790664342998977,113.78514527612911,280.2353391535941,0.0
0.007,4.611015664270766,-2.342351088250813,10.0,0.0,2.079675585803057,4.186104243122743,132.29551642055765,280.2353391535941,0.0
0.008,5.02827401869433,-2.5291626899496653,10.0,0.0,2.5451028365469806,4.468461391977105,150.25127664824365,280.2353391535941,0.0
0.009000000000000001,5.327235561086858,-2.6472030577243353,10.0,0.0,3.003339401540173,4.740412364901482,167.54386850835832,280.2353391535941,0.0
0.01,5.537398619513211,-2.7114448328065257,10.0,0.0,3.448833598907779,5.010863576029767,184.08323570199622,280.2353391535941,0.0
0.011,5.687285878349164,-2.735740424069297,10.0,0.0,3.8788535949395344,5.2844331178942925,199.78478778596167,280.2353391535941,0.0
0.012,5.801431047697699,-2.7311659985938723,10.0,0.0,4.292482402839643,5.562590609135561,214.55967535146038,280.2353391535941,0.0
0.013000000000000001,5.899230252818344,-2.7054621501130782,10.0,0.0,4.689782399995735,5.8446787711729264,228.31135458629893,280.2353391535941,0.0
0.014,5.994987529608444,-2.663189581315293,10.0,0.0,5.071168269557004,6.128732808326463,240.937564815713,280.2353391535941,0.0
0.015,6.098607937786703,-2.6062974853097858,10.0,0.0,5.436985551004875,6.412079356589065,252.33597168720524,280.2353391535941,0.0
0.016,6.216536734420064,-2.5348805965296517,10.0,0.0,5.787268822328459,6.691737014622306,262.4118501942314,280.2353391535941,0.0
0.017,6.352682957074492,-2.4479664995847594,10.0,0.0,6.121643150546869,6.964660437458926,271.08953482224297,280.2353391535941,0.0
0.018000000000000002,6.509186084078694,-2.3442240446371834,7.19585761989236,0.0,6.439329859152318,6.919419407277969,273.23786281533216,280.2353391535941,0.0
0.019,6.509722016941873,-2.1317599730116195,6.191668386730381,0.0,6.698390170549789,6.829557837784005,272.40909931377956,280.2353391535941,0.0
0.02,6.398130343220445,-1.843126097453413,6.6843125359048265,0.0,6.892933208262971,6.8511016485579805,271.5453371070277,280.2353391535941,0.0
0.021,6.299400464168844,-1.546159008244381,7.203093659746419,0.0,7.040396282224817,6.951829234115167,270.74311967685253,280.2353391535941,0.0
0.022,6.276761402547241,-1.2769889708628006,7.699124569601423,0.0,7.156546774126317,7.108108955346315,269.8677939746581,280.2353391535941,0.0
0.023,6.3555355435368845,-1.0516783069567355,8.240462872487985,0.0,7.2546177163049315,7.306071111738394,268.9856640777132,280.2353391535941,0.0
0.024,6.541597343923697,-0.8740329232366846,8.794024571719266,0.0,7.345389894334746,7.5298434939630505,268.1152004425566,280.2353391535941,0.0
0.025,6.8268322480180625,-0.7389302105454183,9.350457776407925,0.0,7.436377248225204,7.7664726698451485,267.2335534170197,280.2353391535941,0.0
0.026000000000000002,7.195821626401575,-0.6368003458162499,9.921299146542115,0.0,7.532045526321532,8.008029399614713,272.90467666085675,280.2353391535941,0.0
0.027,7.626030546585228,-0.5666411259193533,7.159044149550974,0.0,7.635606434043817,7.881807733410222,282.0787665898091,280.2353391535941,0.0
0.028,7.767597751392895,-0.6008336485416597,2.5535649107126464,0.0,7.720651854060846,7.288313854969096,283.5271839497292,280.2353391535941,0.0
0.029,7.482314123701822,-0.5021134222840953,1.7964377827912523,0.0,7.726642194117506,6.758241585784911,281.8783891147385,280.2353391535941,0.0
0.03,6.950141589531583,-0.3520899148178551,2.604404700675142,0.0,7.663510889691368,6.4339093522530675,280.668480483393,280.2353391535941,0.0
0.031,6.385173493276273,-0.23680213203222067,3.20502760304991,0.0,7.563078071322903,6.250510826960564,280.51564616222953,280.2353391535941,0.0
0.032,5.891985331421859,-0.18857395815737998,3.278641693545297,0.0,7.4501964609636575,6.126101210132639,280.83297244136713,280.2353391535941,0.0
0.033,5.487458928529678,-0.20205345045431944,3.1140022210987652,0.0,7.3381270758489565,6.023563933777104,281.2440356231358,280.2353391535941,0.0
0.034,5.156811003671992,-0.26054244072854615,2.898383665519014,0.0,7.233309895617369,5.930327807861771,281.654507507818,280.2353391535941,0.0
0.035,4.880220450148542,-0.34695032316080576,2.678956039635685,0.0,7.1385707979822115,5.8410712048624465,282.0301473785073,280.2353391535941,0.0
0.036000000000000004,4.639936067546129,-0.44661600208744057,2.47318802204189,0.0,7.0544790956682455,5.754491523274085,282.33123022722805,280.2353391535941,0.0
0.037,4.422777418153956,-0.5483831158147081,2.301687686945181,0.0,6.980336321147572,5.672837890535579,282.5356834169605,280.2353391535941,0.0
0.038,4.2213468057185555,-0.6449474398180699,2.176457649445279,0.0,6.915046865308213,5.599860823718805,282.64164712242115,280.2353391535941,0.0
0.039,4.033401020606987,-0.7322826074829136,2.0994127170266967,0.0,6.857629873574212,5.539089606046647,282.6547377831727,280.2353391535941,0.0
0.04,3.860181933745992,-0.80866430856316,2.068673400355124,0.0,6.807406094688574,5.493217577162213,282.5818589033597,280.2353391535941,0.0
0.041,3.704784770821426,-0.8737841814784912,2.08164764276397,0.0,6.76401685981294,5.464006430162435,282.42769412239994,280.2353391535941,0.0
0.042,3.570931760754475,-0.9280893160859285,2.136806483555799,0.0,6.727367799802558,5.452485063916207,282.19049298282533,280.2353391535941,0.0
0.043000000000000003,3.4622283327029164,-0.9723916883165875,2.2358555150507913,0.0,6.697561718767888,5.459413580335095,281.86303005618197,280.2353391535941,0.0
0.044,3.3819221796663643,-1.0077462982620637,2.383310069346594,0.0,6.674875080850267,5.485644790219721,281.46364260781746,280.2353391535941,0.0
0.045,3.3330186034658973,-1.0353483715777894,2.570720758986614,0.0,6.65976290967815,5.530701177493251,281.2086942025919,280.2353391535941,0.0
0.046,3.3178207661534755,-1.0555298707722929,2.68846141110941,0.0,6.652611538528833,5.582000800101688,280.65583053352725,280.2353391535941,0.0
0.047,3.3304408039631133,-1.06559734875521,2.96068833184241,0.0,6.652210874341469,5.654682695561565,280.05657535027416,280.2353391535941,0.0
0.048,3.3767370914841215,-1.067830547517568,3.2621035615021556,0.0,6.659263443202859,5.745523349862745,279.0154114763106,280.2353391535941,0.0
0.049,3.455637373443174,-1.0686272050737662,3.7948847752567754,0.0,6.674760120951786,5.875360908696072,279.1584507653337,280.2353391535941,0.0
0.05,3.584273690506167,-1.06902742265182,3.734134014627811,0.0,6.701726944167181,5.9683929915568905,278.32452965527216,280.2353391535941,0.0
0.051000000000000004,3.7263960598423234,-1.0530130431057534,4.170202664641814,0.0,6.733534709421264,6.0890465101046445,277.43511991580675,280.2353391535941,0.0
0.052000000000000005,3.896311295493775,-1.0298492048719012,4.642909726752391,0.0,6.771839171594452,6.231183091426761,276.6513407462708,280.2353391535941,0.0
0.053,4.100593177601891,-1.0036307202227215,5.07063929559359,0.0,6.8178744507534645,6.384487788110031,275.83632382995773,280.2353391535941,0.0
0.054,4.337583878466855,-0.9744508909938389,5.522137906986496,0.0,6.871689075296214,6.548426936331616,275.11805778151563,280.2353391535941,0.0
0.055,4.6061889973592685,-0.9421558653624909,5.932443744928333,0.0,6.933255497679692,6.714795632175477,274.2768076294797,280.2353391535941,0.0
0.056,4.900965405959985,-0.9047225393103036,6.412654136187433,0.0,7.001507431799779,6.8896648315752245,273.3752221191975,280.2353391535941,0.0
0.057,5.222020862699297,-0.863121244006708,6.932048061672523,0.0,7.076219283224958,7.073835196182461,272.45066149305825,280.2353391535941,0.0
0.058,5.570198238300286,-0.8184474446581378,7.472175151347494,0.0,7.1573788809930345,7.266190793332171,271.5006153800693,280.2353391535941,0.0
0.059000000000000004,5.9456287720530385,-0.7713174930622123,8.034545445577221,0.0,7.244920522017211,7.466070667055445,270.5250901256149,280.2353391535941,0.0
0.06,6.348215217739327,-0.7221224769327677,8.61941056308421,0.0,7.338755834053017,7.672897973804318,269.5266916631642,280.2353391535941,0.0
0.061,6.777763413574387,-0.6710693317308494,9.225696269213872,0.0,7.438766449749212,7.8860444204960825,268.5075581562251,280.2353391535941,0.0
0.062,7.233987273430614,-0.6181900383268462,9.85254083265709,0.0,7.544784457722543,8.104878186379915,276.33847881346844,280.2353391535941,0.0
0.063,7.703746334032409,-0.5843702293164269,5.976049107436683,0.0,7.65889265542982,7.832636582996379,283.00908923793224,280.2353391535941,0.0
0.064,7.785325435607073,-0.5982497342465118,2.6130063943614013,0.0,7.7362308166604254,7.263584067968656,284.0194573863101,280.2353391535941,0.0
0.065,7.473742938158945,-0.49502256128507516,2.0699811378453234,0.0,7.737436126190142,6.768158135215794,282.6752495314062,280.2353391535941,0.0
0.066,6.9450477016899645,-0.3524663027379755,2.717685961519131,0.0,7.674329394781036,6.45411376089757,281.69324337137317,280.2353391535941,0.0
0.067,6.388654635169095,-0.24505070308909283,3.194109999357866,0.0,7.575738745705109,6.267009031748392,281.5729421453529,280.2353391535941,0.0
0.068,5.8984907114772245,-0.2009572468529658,3.2408845824504153,0.0,7.46452056443237,6.137490775309226,281.85811887571714,280.2353391535941,0.0
0.069,5.4921967259930815,-0.2156343416031703,3.082068420047064,0.0,7.353527790627876,6.031655701857747,282.24095942235334,280.2353391535941,0.0
0.07,5.157698591998432,-0.2737493484681812,2.8705919440413705,0.0,7.249296666666333,5.936362462518942,282.62644647239136,280.2353391535941,0.0
0.07100000000000001,4.876725963850671,-0.35900150054821833,2.653937345834386,0.0,7.154755917827214,5.846020201431461,282.9745066114266,280.2353391535941,0.0
0.07200000000000001,4.632415154454411,-0.45723409408989,2.4525156017384484,0.0,7.070588081532046,5.759332708452444,283.24802032371105,280.2353391535941,0.0
0.073,4.412187737758826,-0.5576310596369667,2.2856319338950515,0.0,6.99622961984325,5.6783361028625485,283.4263766223572,280.2353391535941,0.0
0.074,4.208912413760438,-0.6530358974872723,2.164543409884331,0.0,6.930697906272411,5.606510422172885,283.506867799245,280.2353391535941,0.0
0.075,4.020341285171239,-0.7394314726025621,2.091582534983927,0.0,6.873086260873867,5.5472093981009944,283.4945557003023,280.2353391535941,0.0
0.076,3.8475866652151938,-0.815043200988028,2.065146418988188,0.0,6.8227590119792385,5.503016244795186,283.3960509143467,280.2353391535941,0.0
0.077,3.6935744720445967,-0.8794956110148908,2.0827916943584825,0.0,6.7793788204625915,5.475628818430389,283.2155537570423,280.2353391535941,0.0
0.078,3.5618625196311315,-0.9331773444046345,2.143238126976194,0.0,6.74285837203373,5.466062963218423,282.95057836458403,280.2353391535941,0.0
0.079,3.4559273923373093,-0.9768696529626404,2.248573431095429,0.0,6.713302719534045,5.475119812289899,282.5943450092625,280.2353391535941,0.0
0.08,3.378946633996698,-1.0116317966269852,2.4031000501995123,0.0,6.690995229908973,5.503668518409041,282.1732644550132,280.2353391535941,0.0
0.081,3.333898269436171,-1.0386481348047472,2.5942610743099577,0.0,6.6763975356212315,5.550799563933122,281.90176039152027,280.2353391535941,0.0
0.082,3.3228103237734508,-1.0581247233363187,2.7133488936771735,0.0,6.669844976671365,5.603714975742604,281.32082188966075,280.2353391535941,0.0
0.083,3.339496344143446,-1.06723286907017,2.9929633172462675,0.0,6.670046344942847,5.678303957177757,280.6512952010577,280.2353391535941,0.0
0.084,3.390071988437745,-1.0683928978234611,3.3235671010731673,0.0,6.677722996236216,5.773627988613131,279.6779608314698,280.2353391535941,0.0
0.085,3.4747325489215886,-1.0691546488408235,3.81580806908834,0.0,6.694236577868163,5.902220845467429,279.7241705495741,280.2353391535941,0.0
0.08600000000000001,3.6070277925692853,-1.0681073180674785,3.7978148960763862,0.0,6.721835263127106,5.998998244891616,278.87954686028485,280.2353391535941,0.0
0.08700000000000001,3.7543232909641153,-1.051358773691484,4.2336846636541186,0.0,6.754519953228945,6.122103826675994,277.97746685021457,280.2353391535941,0.0
0.088,3.9296945792161124,-1.0275757999019566,4.707303391723054,0.0,6.793798090825948,6.266088794980151,277.1684087332762,280.2353391535941,0.0
0.089,4.139296410996389,-1.0006691669750554,5.142501754395426,0.0,6.840825011609606,6.421436224213556,276.3305254444166,280.2353391535941,0.0
0.09,4.381676742467008,-0.9708332242130304,5.600491535916994,0.0,6.895671095863685,6.587412676798671,275.61146830364174,280.2353391535941,0.0
0.091,4.65579392051279,-0.9378719189028761,6.006258814803943,0.0,6.958302832794371,6.754601509142699,274.734155070985,280.2353391535941,0.0
0.092,4.955478496626688,-0.8994865125170319,6.499927271958393,0.0,7.027497497617048,6.931356357851443,273.80927394844775,280.2353391535941,0.0
0.093,5.28171646171305,-0.8571172731048664,7.0266284852784935,0.0,7.103171418556855,7.117466306666886,272.8661487062174,280.2353391535941,0.0
0.094,5.63535965047416,-0.8118288731504548,7.571883010867429,0.0,7.1853309106833585,7.311605267263488,271.89719204462426,280.2353391535941,0.0
0.095,6.016408405685109,-0.7641607630669807,8.139742812753704,0.0,7.273897741547233,7.5131793827790885,270.90293601790046,280.2353391535941,0.0
0.096,6.424715811589019,-0.7144672454173797,8.730194857472544,0.0,7.36877569503566,7.721620569632402,269.88636650890044,280.2353391535941,0.0
0.097,6.86006137555488,-0.6629262940999476,9.34196933841949,0.0,7.469837402392155,7.936291167628999,268.84961679015356,280.2353391535941,0.0
0.098,7.322137139097601,-0.6095437780634327,9.974201421427335,0.0,7.576903331561817,8.156553782532937,281.628783691394,280.2353391535941,0.0
0.099,7.77899904972477,-0.6060829753818453,3.5706835254291125,0.0,7.695442066170296,7.609153386940007,282.95151353803936,280.2353391535941,0.0
0.1,7.694821906239127,-0.5504575018112989,2.8821568582619808,0.0,7.741302693692694,7.1304722548285095,283.11286281815916,280.2353391535941,0.0
0.101,7.326153767439317,-0.4353581189362514,2.772706981556434,0.0,7.722604467871149,6.738802802747579,282.58044693526415,280.2353391535941,0.0
0.10200000000000001,6.825194691233781,-0.31692548604926474,3.015463845187238,0.0,7.6547325236348485,6.463647044053646,282.1866631356839,280.2353391535941,0.0
0.10300000000000001,6.313323409896266,-0.23716805469544244,3.192842505156471,0.0,7.558543206832734,6.277600000950854,282.1879443455419,280.2353391535941,0.0
0.10400000000000001,5.854211892946741,-0.21179732519103922,3.17267584830799,0.0,7.451374911468605,6.141930165676178,282.4502620810368,280.2353391535941,0.0
0.105,5.464455426156472,-0.23668469146160231,3.0193677512861186,0.0,7.34434777969823,6.030730356466069,282.80897944308975,280.2353391535941,0.0
0.106,5.13683200644001,-0.29900064066176335,2.8142726673646763,0.0,7.243509260933192,5.931061448239703,283.16839942352146,280.2353391535941,0.0
0.107,4.856761103133005,-0.3844386494374329,2.605232074449548,0.0,7.151562724695343,5.837863629744625,283.48256485673255,280.2353391535941,0.0
0.108,4.610337794512118,-0.4805549692422496,2.41567710081262,0.0,7.069209475322545,5.750336153219587,283.72278393084207,280.2353391535941,0.0
0.109,4.387377525592804,-0.5778947115639466,2.260693115985381,0.0,6.996085011691859,5.67023480731006,283.87229395093027,280.2353391535941,0.0
0.11,4.182226777230606,-0.6701389435311429,2.1495685579679193,0.0,6.931436327926467,5.600494267725418,283.9274973009393,280.2353391535941,0.0
0.111,3.9932858684624355,-0.7536721972127434,2.0850453014899486,0.0,6.874544674164451,5.544008593571176,283.8923696313986,280.2353391535941,0.0
0.112,3.8217896495277817,-0.8268480331971697,2.0660388314822606,0.0,6.824907627784685,5.503012017315221,283.7723131736041,280.2353391535941,0.0
0.113,3.6704982913079953,-0.8892662006329086,2.0906973201793986,0.0,6.782268868475385,5.478980979718474,283.56999004178994,280.2353391535941,0.0
0.114,3.5426904782676942,-0.9412322035576945,2.1585123772045316,0.0,6.746582959984711,5.4728481871885055,283.2812719046955,280.2353391535941,0.0
0.115,3.4415748221081293,-0.9834554242837519,2.2724121182407493,0.0,6.717977257340727,5.485455548053346,282.9009436807938,280.2353391535941,0.0
0.116,3.3701517873941027,-1.016963407256876,2.435920184919602,0.0,6.696756506967407,5.517633869748561,282.47411391046967,280.2353391535941,0.0
0.117,3.331274936223347,-1.0428529500565848,2.626947322512899,0.0,6.683388433679179,5.567412411987041,282.1860287187295,280.2353391535941,0.0
0.11800000000000001,3.326247676684864,-1.060983752236568,2.751483022731621,0.0,6.678070514755423,5.6228291783585025,281.5824807244099,280.2353391535941,0.0
0.11900000000000001,3.3488930906471226,-1.0685908083156974,3.039785604183276,0.0,6.679481532508091,5.700099135026705,280.7763519291529,280.2353391535941,0.0
0.12,3.4055531081280286,-1.0682068628393515,3.437439874056186,0.0,6.688360139589123,5.804635993891579,280.0291912783897,280.2353391535941,0.0
0.121,3.4999530671545385,-1.069816896496148,3.813081678189826,0.0,6.706985515005552,5.927133688015935,279.89479976000774,280.2353391535941,0.0
0.122,3.6357513150162313,-1.0661824350629896,3.88368283131667,0.0,6.735582231198556,6.029260051397589,279.052048948961,280.2353391535941,0.0
0.123,3.7891463694618213,-1.0481818379932997,4.316891138886379,0.0,6.769588191047093,6.155464878851383,278.1490235952485,280.2353391535941,0.0
0.124,3.9710677371486898,-1.0234507386359066,4.789266971326089,0.0,6.810273622697539,6.301601678136224,277.31911975765354,280.2353391535941,0.0
0.125,4.18698664957921,-0.9956126939430465,5.233381084082966,0.0,6.858689317188782,6.459390268045992,276.49057263767133,280.2353391535941,0.0
0.126,4.435784361097096,-0.9649353166898771,5.6851023092332955,0.0,6.914946170170959,6.626281202910215,275.73674540217087,280.2353391535941,0.0
0.127,4.715525128174461,-0.9308398837063536,6.107001864497761,0.0,6.978822707485685,6.7957169611504895,274.843643149904,280.2353391535941,0.0
0.128,5.021134993809333,-0.8916073662457407,6.607469950668104,0.0,7.049280544302133,6.9746096136752405,273.9070173079763,280.2353391535941,0.0
0.129,5.353501259989769,-0.8485832846584989,7.139066090088137,0.0,7.126241538889421,7.162625488480163,272.9508069946469,280.2353391535941,0.0
0.13,5.7133209377446,-0.8027403747797723,7.690016568342306,0.0,7.209695542227687,7.358567964585853,271.96921321970996,280.2353391535941,0.0
0.131,6.100566849262707,-0.7545847885742636,8.26347471514961,0.0,7.299559707458872,7.561833631291617,270.96302173279304,280.2353391535941,0.0
0.132,6.515070437480836,-0.704435138368551,8.85929363281608,0.0,7.395729117176947,7.771841711736353,269.9349918124204,280.2353391535941,0.0
0.133,6.956590550919254,-0.6524359102716772,9.476312066414147,0.0,7.498063975379085,7.987957587031497,268.88724791224996,280.2353391535941,0.0
0.134,7.424808810816168,-0.5985672345443076,10.0,0.0,7.606371373241484,8.197042041521529,283.79705039448567,280.2353391535941,0.0
0.135,7.849482038755015,-0.6414777336083723,2.6208732768077736,0.0,7.730015318420968,7.537076098987489,284.6574638585556,280.2353391535941,0.0
0.136,7.693414996445984,-0.5540867167080878,2.146445297723184,0.0,7.765256157979423,6.9984894416908,283.31477550670905,280.2353391535941,0.0
0.137,7.2371631031216825,-0.40829561974581585,2.786995110115315,0.0,7.727951137355518,6.641117331076189,282.41979021248716,280.2353391535941,0.0
0.138,6.698911218744572,-0.283460635186747,3.2126432466373336,0.0,7.64636547040067,6.410812914702389,282.2583524012732,280.2353391535941,0.0
0.139,6.191438460598626,-0.2140196743031506,3.2731320197675142,0.0,7.543517772652323,6.24821714150187,282.44173953462,280.2353391535941,0.0
