timestamp,iq,id,iq_ref,id_ref,vq,vd,omega,omega_ref,r
0.0,0.0,0.0,0.0,0.0,0.0,0.0,0.0,242.92289422063874,0.0
0.001,0.0,0.0,10.0,0.0,0.0,1.0999999999999999,9.151122091722458,242.92289422063874,0.0
0.002,0.4976880728016706,-0.27842027909670214,10.0,0.0,0.1406262307006372,1.9352543119918162,18.214958512684287,242.92289422063874,0.0
0.003,0.8432166099532762,-0.4689357471184425,10.0,0.0,0.3688877682218168,2.6680145574958543,27.7040343681272,242.92289422063874,0.0
0.004,1.1182483348105183,-0.6185450399193746,10.0,0.0,0.6621510440691674,3.3235267278388263,37.26515551259027,242.92289422063874,0.0
0.005,1.3403582980547795,-0.7376484748798806,10.0,0.0,1.0032444942837262,3.92113223002394,47.50466762451572,242.92289422063874,0.0
0.006,1.5227558719551366,-0.8337256385429169,10.0,0.0,1.3793666033486696,4.475243893515401,57.32360344279068,242.92289422063874,0.0
0.007,1.6752315373465643,-0.9123893860159143,10.0,0.0,1.780979908441664,4.996608254110158,67.96967518354772,242.92289422063874,0.0
0.008,1.8049093588510092,-0.978079113553994,10.0,0.0,2.201007551639294,5.493257705443162,78.20102579164868,242.92289422063874,0.0
0.009000000000000001,1.9173626701639805,-1.033609538049916,10.0,0.0,2.6341488250696314,5.971171889933247,88.2222001751108,242.92289422063874,0.0
0.01,2.0169725559304728,-1.08067228534678,10.0,0.0,3.076388987563639,6.4347762289961725,98.5281650868514,242.92289422063874,0.0
0.011,2.106259215209056,-1.121796875473041,10.0,0.0,3.524818645155459,6.887418716739228,108.67662055760835,242.92289422063874,0.0
0.012,2.188110290546166,-1.1571459786271663,10.0,0.0,3.9771467412080943,7.331529169772864,119.1584569507266,242.92289422063874,0.0
0.013000000000000001,2.2637702183186463,-1.1884282310470728,10.0,0.0,4.4317406296934765,7.768957305806796,129.4668435560507,242.92289422063874,0.0
0.014,2.334952707427135,-1.2156273631225467,10.0,0.0,4.887297024937818,8.201028542561664,139.46206461613548,242.92289422063874,0.0
0.015,2.4030506308966744,-1.238627826660876,10.0,0.0,5.342762964001674,8.628669348474919,149.04106946774652,242.92289422063874,0.0
0.016,2.4698937985099394,-1.2561288674537034,10.0,0.0,5.797141499602298,9.052420898500468,158.54604350141207,242.92289422063874,0.0
0.017,2.535436220840957,-1.269694266542513,10.0,0.0,6.249774520137252,9.472693912303242,167.64340703224912,242.92289422063874,0.0
0.018000000000000002,2.60172256389783,-1.27717830414769,10.0,0.0,6.699859130144672,9.889566853266292,176.61890419539367,242.92289422063874,0.0
0.019,2.668416008024062,-1.2803221234150914,10.0,0.0,7.146893552991018,10.303087545710463,185.3421740210355,242.92289422063874,0.0
0.02,2.736338833485388,-1.2788735722826103,10.0,0.0,7.5903858239799,10.713155034835367,193.6969913788161,242.92289422063874,0.0
0.021,2.8056652142772665,-1.2736426585133154,10.0,0.0,8.029974701779084,11.119618328514173,201.3645801268362,242.92289422063874,0.0
0.022,2.8773221001812193,-1.2641985291047266,10.0,0.0,8.465264476068981,11.522205186963502,208.41396569057926,242.92289422063874,0.0
0.023,2.953548544855597,-1.2479542784789155,10.0,0.0,8.895591532500065,11.920393996941746,214.95167811481738,242.92289422063874,0.0
0.024,3.034545342998203,-1.2257103652178334,10.0,0.0,9.320420376333406,12.31364924821633,220.95601271966893,242.92289422063874,0.0
0.025,3.120687728484631,-1.1979787041783565,10.0,0.0,9.739263817329139,12.701396164324713,226.29808613140284,242.92289422063874,0.0
0.026000000000000002,3.2124079194767656,-1.1651329942333073,10.0,0.0,10.151661894352577,13.083024935767556,230.81903638566473,242.92289422063874,0.0
0.027,3.3102955266367946,-1.1272231116857647,9.801717027159782,0.0,10.557141410837175,13.436069075878354,234.46126839151125,242.92289422063874,0.0
0.028,3.40486883577285,-1.079748188401586,8.065217282527797,0.0,10.952534246948609,13.595900423512049,236.24260067955322,242.92289422063874,0.0
0.029,3.4236633658965285,-0.9859865859780976,7.241354073917668,0.0,11.31453190717853,13.70490629927048,236.47807139973776,242.92289422063874,0.0
0.03,3.435723313715217,-0.883525029263903,7.188066942034409,0.0,11.640897233746973,13.840449752096184,235.8950891207688,242.92289422063874,0.0
0.031,3.4761715535402,-0.7919753062517798,7.549836132517587,0.0,11.93913451897695,14.031074167665587,235.55131548167063,242.92289422063874,0.0
0.032,3.55720780744241,-0.714939405798888,7.795438739456355,0.0,12.219052065421172,14.247348959528482,235.45082816389785,242.92289422063874,0.0
0.033,3.6617322933791687,-0.6463942605004394,7.920403058910151,0.0,12.485835729428963,14.47059074500602,237.1473438405636,242.92289422063874,0.0
0.034,3.777424276059313,-0.5853219415286153,7.129900724378032,0.0,12.742232701949813,14.598300945108061,245.83053473072857,242.92289422063874,0.0
0.035,3.782864741237022,-0.6220166179726132,2.759228874194644,0.0,12.990408134827337,14.266569410934386,251.95748177320223,242.92289422063874,0.0
0.036000000000000004,3.5630896495968427,-0.5742986020601468,-0.394590522567821,0.0,13.174976942484934,13.713844823055993,254.98037584734178,242.92289422063874,0.0
0.037,3.252124751692606,-0.48825125014095816,-2.026612375904623,0.0,13.276828382036944,13.118873752684838,256.1031258084185,242.92289422063874,0.0
0.038,2.937493676571263,-0.4062846688730406,-2.719789672320781,0.0,13.300841720176358,12.565155418517898,256.4511455914379,242.92289422063874,0.0
0.039,2.6554999373059056,-0.34837064509057036,-3.029082077538485,0.0,13.261531014281744,12.069992860539779,256.45161407282643,242.92289422063874,0.0
0.04,2.41208901613816,-0.3133453752981934,-3.164603516754616,0.0,13.173361483739445,11.632556317444212,255.80898428755955,242.92289422063874,0.0
0.041,2.204366503517874,-0.29664720494973174,-2.9721495247903857,0.0,13.048778705901407,11.272986996288756,255.56514087885847,242.92289422063874,0.0
0.042,2.0380867907874354,-0.30163930524959603,-2.976650287022042,0.0,12.901413386468107,10.950710248974065,255.34056877601404,242.92289422063874,0.0
0.043000000000000003,1.8939843962350025,-0.3123191455393869,-2.9885409811535784,0.0,12.737681785675537,10.658850141988818,254.84210578403147,242.92289422063874,0.0
0.044,1.766346052823231,-0.3279893930053648,-2.858501600796224,0.0,12.562754263082061,10.406825318233238,254.11983409405033,242.92289422063874,0.0
0.045,1.6596761547235404,-0.347956641780673,-2.609335154539769,0.0,12.382156705262998,10.19907544523535,253.20930698928524,242.92289422063874,0.0
0.046,1.5755956759270222,-0.3713626952088124,-2.2569357298436867,0.0,12.201218909315395,10.038495229695968,252.39070234817888,242.92289422063874,0.0
0.047,1.5143460494505196,-0.39829468233079723,-1.9423114905659071,0.0,12.025045329457758,9.912860582313812,251.49592007167402,242.92289422063874,0.0
0.048,1.4680967097314763,-0.4275693979318697,-1.5806506108238327,0.0,11.856876541692554,9.823283427167283,250.94159186445603,242.92289422063874,0.0
0.049,1.4363651062952427,-0.4598668645207105,-1.3836734836530096,0.0,11.699826891357988,9.746925966931059,249.55913688836563,242.92289422063874,0.0
0.05,1.4111580075513745,-0.48446897263444366,-0.7588084222850782,0.0,11.553229717259876,9.731720137991227,248.57412880966294,242.92289422063874,0.0
0.051000000000000004,1.412575924288781,-0.5163814765630979,-0.32281672882397494,0.0,11.423036032028607,9.744677568374053,248.476446962534,242.92289422063874,0.0
0.052000000000000005,1.4239609824746449,-0.548163021375764,-0.3295113326784578,0.0,11.310334303248855,9.736985386603791,247.3198363285592,242.92289422063874,0.0
0.053,1.4238889451585945,-0.5671617544800946,0.2048245632297343,0.0,11.209905574363397,9.777757919407652,246.77070986060048,242.92289422063874,0.0
0.054,1.4448605482573647,-0.5908630138543611,0.4409096408094815,0.0,11.126014122847003,9.822728728903247,245.5662453432539,242.92289422063874,0.0
0.055,1.4673369873859248,-0.6067200754491636,1.0167083882566121,0.0,11.056516161613493,9.913527631467877,244.50888420386156,242.92289422063874,0.0
0.056,1.5101768937859228,-0.6258021352441168,1.5295290581205618,0.0,11.004988342721289,10.034461508550544,243.9044584801642,242.92289422063874,0.0
0.057,1.563769881127588,-0.647380567980885,1.8219262773739802,0.0,10.972889500429677,10.159717873911376,242.4566520337194,242.92289422063874,0.0
0.058,1.6206620800940286,-0.6580202531392325,2.5504919224655813,0.0,10.95748075994335,10.340734755261611,242.0921188368941,242.92289422063874,0.0
0.059000000000000004,1.705759767039416,-0.6685043257649158,2.741066274715681,0.0,10.962761432777924,10.506994773150458,243.33464849001848,242.92289422063874,0.0
0.06,1.7800799118925998,-0.6734774019138865,2.115683905459687,0.0,10.984582237768052,10.579134813328821,242.18784448676715,242.92289422063874,0.0
0.061,1.806027135942093,-0.6612425348815981,2.696436404424069,0.0,11.01003940014197,10.714268535370092,239.07899305769595,242.92289422063874,0.0
0.062,1.8715995622937889,-0.6465361422829488,4.289301130589094,0.0,11.04496886396709,11.000888701674947,241.20073177920602,242.92289422063874,0.0
0.063,2.0074875768468865,-0.6617782558539231,3.2456533942483863,0.0,11.106891094458977,11.117317942135372,240.02393551102037,242.92289422063874,0.0
0.064,2.057251293830996,-0.6448193345526265,3.8630411154373974,0.0,11.172246123468867,11.30253047957042,238.2134138064184,242.92289422063874,0.0
0.065,2.154600818619737,-0.6188199082680982,4.815396771880584,0.0,11.246896555642987,11.564131700602895,238.8808165714273,242.92289422063874,0.0
0.066,2.275220911755174,-0.6293889644125398,4.522116165868255,0.0,11.341664657141676,11.752958704526733,238.00000415541513,242.92289422063874,0.0
0.067,2.3753186195141933,-0.5988605110369458,5.011751274526572,0.0,11.442374828450118,11.979367939298458,236.39904695284966,242.92289422063874,0.0
0.068,2.484265233042549,-0.5931854767027537,5.877468348487197,0.0,11.555335936861887,12.272556644362412,237.0767691522827,242.92289422063874,0.0
0.069,2.633173418576116,-0.5867664961213512,5.597068499454233,0.0,11.685670467418262,12.492931001354506,236.32570530775496,242.92289422063874,0.0
0.07,2.74969516234796,-0.5611347154486418,6.038572310846946,0.0,11.822253674550021,12.744342483486992,234.93704720502856,242.92289422063874,0.0
0.07100000000000001,2.8828314945390328,-0.5422670176703308,6.812759832366245,0.0,11.968500580232968,13.051536948269298,233.069660502198,242.92289422063874,0.0
0.07200000000000001,3.0450926340422138,-0.5325116024353138,7.844985520965939,0.0,12.129957823127782,13.431922245649,232.7299266009281,242.92289422063874,0.0
0.073,3.2465600002638713,-0.5292685116354695,8.116782147797986,0.0,12.313048685635456,13.789451310756398,232.75026416669058,242.92289422063874,0.0
0.074,3.4390716722663206,-0.5154568710091798,8.20833966545623,0.0,12.512096518842199,14.117728306019849,235.47738997508017,242.92289422063874,0.0
0.075,3.611314586864808,-0.507163767047513,6.919231803717022,0.0,12.723293143225103,14.273343341223933,243.7316732401995,242.92289422063874,0.0
0.076,3.636830702982375,-0.5634256572706355,2.7840023809617436,0.0,12.93520334765428,13.991448033833258,249.82417246209832,242.92289422063874,0.0
0.077,3.448898769400173,-0.5324560615594667,-0.33126001240225467,0.0,13.093763726471009,13.478534382437303,252.71571093698515,242.92289422063874,0.0
0.078,3.162376726140326,-0.45943195185338775,-1.8749574170091337,0.0,13.177453746155917,12.92375214891225,253.82167437606833,242.92289422063874,0.0
0.079,2.870416202800523,-0.38908062421131256,-2.5369269381050215,0.0,13.19028813557626,12.404687904568505,254.23397667464633,242.92289422063874,0.0
0.08,2.607120810556462,-0.3398748880967977,-2.856188911934096,0.0,13.145223543924022,11.936357289604377,254.25236905426044,242.92289422063874,0.0
0.081,2.3778070994696803,-0.31035336108175676,-2.9786798500773695,0.0,13.055077039330083,11.52266344781107,253.8709455346046,242.92289422063874,0.0
0.082,2.181597943417708,-0.29834602435794944,-2.8974486033891083,0.0,12.931550209246735,11.17077455630969,253.47743999150677,242.92289422063874,0.0
0.083,2.0190019958224643,-0.3035102534038075,-2.806241289548873,0.0,12.78587531158387,10.866865825680616,253.37304318513955,242.92289422063874,0.0
0.084,1.8835115945942167,-0.3164559953410514,-2.858544376010271,0.0,12.625749419947017,10.585393050358164,252.6404114717352,242.92289422063874,0.0
0.085,1.759955526516638,-0.3332156275217693,-2.5894036918190633,0.0,12.455202942062122,10.358419733006166,252.25110096425334,242.92289422063874,0.0
0.08600000000000001,1.6652861205574738,-0.35508849703360396,-2.488030505514276,0.0,12.281252199555,10.154726817227221,251.66711588732124,242.92289422063874,0.0
0.08700000000000001,1.580748404200824,-0.37949686765810137,-2.283480183715054,0.0,12.10679343179428,9.983847377049974,250.70983426360365,242.92289422063874,0.0
0.088,1.5133767650163499,-0.40263993569838863,-1.8827087722859073,0.0,11.93499425057009,9.861214859300313,249.83719734464094,242.92289422063874,0.0
0.089,1.4678766436652337,-0.4310988224356084,-1.5155333440445733,0.0,11.77101078255405,9.774378555152238,249.28375160015256,242.92289422063874,0.0
0.09,1.4368139925707755,-0.4627606947014748,-1.3024190455955185,0.0,11.617940248006672,9.702560243571224,248.01895273747053,242.92289422063874,0.0
0.091,1.4128885009760936,-0.4876914696489421,-0.7209801994228224,0.0,11.475420702277496,9.686765017352549,247.08105949787557,242.92289422063874,0.0
0.092,1.4133299945173181,-0.5186128287786324,-0.2936152323977126,0.0,11.348725630254162,9.69920529788838,246.8875417255812,242.92289422063874,0.0
0.093,1.4238766519232995,-0.5495863454764103,-0.23650282129995204,0.0,11.239041966732202,9.698585041339555,245.84535107573782,242.92289422063874,0.0
0.094,1.4263720803190933,-0.5698707383905461,0.2553679350707456,0.0,11.142186191961132,9.74042407263373,245.2908373488708,242.92289422063874,0.0
0.095,1.4472042581061833,-0.5931242610612022,0.5089453672219322,0.0,11.06155494136122,9.789101848021687,244.2263053803013,242.92289422063874,0.0
0.096,1.4705323132841217,-0.609585827583444,1.028177239910055,0.0,10.995432830450834,9.877070688193335,243.37778873303773,242.92289422063874,0.0
0.097,1.5107277898147866,-0.6286038490803983,1.447886618417855,0.0,10.946647181348094,9.986417924299165,242.5597680658032,242.92289422063874,0.0
0.098,1.5587409120683726,-0.6467206149435657,1.8605282135834704,0.0,10.915477484796186,10.116265864884687,241.21860255007016,242.92289422063874,0.0
0.099,1.6178176594183182,-0.6577991363657212,2.5481538881556824,0.0,10.901447021655832,10.295506139021793,241.10698762469704,242.92289422063874,0.0
0.1,1.7015346642750602,-0.6682163345369634,2.6221204168016587,0.0,10.907778738827831,10.448061297775748,242.3557330465271,242.92289422063874,0.0
0.101,1.7687477232513185,-0.6711347992293382,2.0034193176277495,0.0,10.928949659292485,10.5106410597371,240.76003950299918,242.92289422063874,0.0
0.10200000000000001,1.790493638543113,-0.6569640543866195,2.8228946365681025,0.0,10.952673497327181,10.663689313531622,237.97255755673703,242.92289422063874,0.0
0.10300000000000001,1.8650882810032323,-0.6456460311577279,4.266138976338193,0.0,10.988226501831106,10.946379298417773,240.23658243400993,242.92289422063874,0.0
0.10400000000000001,1.9975891326506845,-0.6622685231636029,3.16098965556803,0.0,11.050434858726195,11.054527569326666,238.79160193083223,242.92289422063874,0.0
0.105,2.0432099684655958,-0.6436858222991038,3.924792830054947,0.0,11.115026885007511,11.249458407812277,237.46478727810444,242.92289422063874,0.0
0.106,2.1446148970705066,-0.6204013016771924,4.642781225844185,0.0,11.190277322249484,11.491997723081006,237.89385530542958,242.92289422063874,0.0
0.107,2.2560849274085135,-0.6268650163320173,4.478537601333705,0.0,11.283200501112388,11.681313813841891,236.86890512544312,242.92289422063874,0.0
0.108,2.3563371868560328,-0.596951996712972,5.051552582278892,0.0,11.382407901860445,11.915751649326202,235.51275060904675,242.92289422063874,0.0
0.109,2.4679171218444194,-0.5948884178655454,5.803731276592998,0.0,11.495210482605101,12.202404677647744,236.20188186810256,242.92289422063874,0.0
0.11,2.613709830414284,-0.5865910758524607,5.5263757705904535,0.0,11.624506036274482,12.418720370015373,235.4831736125262,242.92289422063874,0.0
0.111,2.7276458108391304,-0.5608975178837905,5.960127104459758,0.0,11.759760285857258,12.665745219537788,234.16725543344094,242.92289422063874,0.0
0.112,2.8581572072556334,-0.5417974532011933,6.705642581874366,0.0,11.904347523898608,12.96604530444159,232.3188140463544,242.92289422063874,0.0
0.113,3.016843280143882,-0.5309975656833168,7.735904077160486,0.0,12.063509059646057,13.340497360312927,231.76984594620222,242.92289422063874,0.0
0.114,3.2144747680165664,-0.5283232030587195,8.121918609980934,0.0,12.244013466392369,13.705426744892153,231.85293481877815,242.92289422063874,0.0
0.115,3.4096817477654096,-0.517314493843265,8.191073767711575,0.0,12.44177615653452,14.03616410081661,233.8206196009086,242.92289422063874,0.0
0.116,3.587601707354371,-0.5010267775185941,7.298254122843652,0.0,12.651154751551342,14.23708315189276,242.11632412982618,242.92289422063874,0.0
0.117,3.6379917364255956,-0.5627098933631982,3.158467559292986,0.0,12.866635412080257,13.988636128219142,248.669566576176,242.92289422063874,0.0
0.11800000000000001,3.4653027019366442,-0.5377992577963739,-0.17562038743730035,0.0,13.032366303118112,13.480729758545444,251.50776246132764,242.92289422063874,0.0
0.11900000000000001,3.179911228570144,-0.4642905523617876,-1.6805670124200063,0.0,13.122896616842674,12.937650037387531,252.76687303306795,242.92289422063874,0.0
0.12,2.892593484921184,-0.3943557054371999,-2.4085620864144524,0.0,13.143108180971634,12.42165236489603,253.24215172198305,242.92289422063874,0.0
0.121,2.6296576605329123,-0.3440467324721501,-2.749394005885444,0.0,13.104864182881643,11.955113818910926,253.3694068316529,242.92289422063874,0.0
0.122,2.4000415528554284,-0.31366382768817047,-2.9174866868305083,0.0,13.020951700205543,11.53895126560673,253.09266456859584,242.92289422063874,0.0
0.123,2.2017933155497156,-0.2998627478621316,-2.88081325878155,0.0,12.902599920733614,11.18123986828703,252.60617121616093,242.92289422063874,0.0
0.124,2.035792733058938,-0.30282282221982887,-2.734399352519319,0.0,12.760775798454517,10.879480809861388,252.3211041386044,242.92289422063874,0.0
0.125,1.9003476165920723,-0.3165829368483893,-2.6858479129207087,0.0,12.60444219442633,10.61083072133008,252.22517085323494,242.92289422063874,0.0
0.126,1.7830075422324891,-0.3343613348340607,-2.7309040365619435,0.0,12.438694964579968,10.359523550267447,251.70788942139248,242.92289422063874,0.0
0.127,1.6747217132010546,-0.3531753123379159,-2.560113272648249,0.0,12.266283494157543,10.14674795904322,250.94480806640306,242.92289422063874,0.0
0.128,1.586385911548039,-0.37470659993800204,-2.2587917336111802,0.0,12.092015913515912,9.978080321445631,250.00746297265084,242.92289422063874,0.0
0.129,1.5202320753077256,-0.3987118547671785,-1.8609648742551945,0.0,11.920733592333894,9.85599399265233,249.21542082158282,242.92289422063874,0.0
0.13,1.474870144501946,-0.42802311700117107,-1.527869064730627,0.0,11.757355056688194,9.76597860910053,248.5893559307454,242.92289422063874,0.0
0.131,1.442303231314325,-0.4594124694140159,-1.2715012364129803,0.0,11.604472552394956,9.696625154501621,247.7976277241512,242.92289422063874,0.0
0.132,1.4186080601115667,-0.48696976268835407,-0.9243844681510045,0.0,11.462660361807202,9.656818760859341,246.43798633231768,242.92289422063874,0.0
0.133,1.4084402799480098,-0.5119415302171871,-0.27971469335103394,0.0,11.333520072409424,9.67513579917386,245.96913668390812,242.92289422063874,0.0
0.134,1.4217200956025005,-0.5459700675241561,-0.07575229377894788,0.0,11.222618937211353,9.69313381339845,245.3771264800645,242.92289422063874,0.0
0.135,1.4326517405678896,-0.5716439360517904,0.1957104855486016,0.0,11.127091557120515,9.724993511621433,244.94917693106092,242.92289422063874,0.0
0.136,1.4483294131789806,-0.5931306562906233,0.3894224329461726,0.0,11.04640968540206,9.761092960895922,243.91662330029683,242.92289422063874,0.0
