timestamp,iq,id,iq_ref,id_ref,vq,vd,omega,omega_ref,r
0.0,0.0,0.0,0.0,0.0,0.0,0.0,0.0,267.2131701508645,0.0
0.001,0.0,0.0,10.0,0.0,0.0,1.0999999999999999,6.7796601391693105,267.2131701508645,0.0
0.002,0.4630876465617608,-0.2522851353566514,10.0,0.0,0.13775136488923173,1.939060358878206,14.911362661227876,267.2131701508645,0.0
0.003,0.8778942773679794,-0.48495046324230356,10.0,0.0,0.36870396389121596,2.6669919654344483,23.265299896100476,267.2131701508645,0.0
0.004,1.2132301553242746,-0.6741479467148096,10.0,0.0,0.6678395335517453,3.3124867909681344,31.771929889743404,267.2131701508645,0.0
0.005,1.4805584906588687,-0.8246018795701576,10.0,0.0,1.0162689865789531,3.8972929328072623,40.47660434691467,267.2131701508645,0.0
0.006,1.6957973319930155,-0.9450440874091314,10.0,0.0,1.4000802120210871,4.437458416571786,49.34427671968339,267.2131701508645,0.0
0.007,1.8721572450169375,-1.0431790670921077,10.0,0.0,1.809117288982198,4.9447412724847855,58.29261558711397,267.2131701508645,0.0
0.008,2.019581559923291,-1.1249753395701154,10.0,0.0,2.2359951840142482,5.427746474993133,67.2932809158294,267.2131701508645,0.0
0.009000000000000001,2.145745783721365,-1.1942207919323924,10.0,0.0,2.675284846828998,5.892735125285127,76.33363247937545,267.2131701508645,0.0
0.01,2.25594024439146,-1.254211951801921,10.0,0.0,3.123050981453499,6.344294128393668,85.37614549556767,267.2131701508645,0.0
0.011,2.3542347158282446,-1.3069754160285603,10.0,0.0,3.5764004723926384,6.78576339740246,94.37999713238013,267.2131701508645,0.0
0.012,2.443620335487632,-1.3539344333508807,10.0,0.0,4.03319979840193,7.219571215156121,103.34445577508284,267.2131701508645,0.0
0.013000000000000001,2.5264750609949336,-1.3957952260909359,10.0,0.0,4.491835070613844,7.647458020126132,112.17574668985712,267.2131701508645,0.0
0.014,2.6040595299425213,-1.4338948012572956,10.0,0.0,4.951167841442465,8.070713927491177,120.87109358852788,267.2131701508645,0.0
0.015,2.678282692014287,-1.4675770112208282,10.0,0.0,5.410216973269055,8.490188818064157,129.46399437320323,267.2131701508645,0.0
0.016,2.7502099749469218,-1.4969734901207037,10.0,0.0,5.868205471549633,8.906451363260627,137.9281281046397,267.2131701508645,0.0
0.017,2.8207377414797583,-1.5220751100664578,10.0,0.0,6.324488587926836,9.319847722276224,146.22846375536574,267.2131701508645,0.0
0.018000000000000002,2.8907150476370314,-1.5426679528816867,10.0,0.0,6.7784972250780955,9.73054053101601,154.3308156337507,267.2131701508645,0.0
0.019,2.9609248236906085,-1.5584711953482528,10.0,0.0,7.2297067076313795,10.138541620292623,162.19581282166155,267.2131701508645,0.0
0.02,3.0320476138684045,-1.5692763268452263,10.0,0.0,7.677625882896995,10.543742139737876,169.7653965274475,267.2131701508645,0.0
0.021,3.1046760351994833,-1.57497899552601,10.0,0.0,8.121792434820494,10.945936626320533,176.99135578988898,267.2131701508645,0.0
0.022,3.179738087106688,-1.5749148171918068,10.0,0.0,8.56169769390634,11.344797777940784,183.77472326186924,267.2131701508645,0.0
0.023,3.2576559198533097,-1.5692687315458398,10.0,0.0,8.996878114607902,11.739942999224542,189.94027816332405,267.2131701508645,0.0
0.024,3.339152237113715,-1.557764945551504,10.0,0.0,9.426846059764776,12.130906323878907,195.68030982430645,267.2131701508645,0.0
0.025,3.4256529059985357,-1.5389864448239226,10.0,0.0,9.850962945651304,12.517070000178787,201.03100558977613,267.2131701508645,0.0
0.026000000000000002,3.517059698897992,-1.5140200401952328,10.0,0.0,10.26872599107729,12.897839256907249,205.83710954823277,267.2131701508645,0.0
0.027,3.614068206026321,-1.4826759804265874,10.0,0.0,10.679591475105255,13.272551024650335,210.15809334751307,267.2131701508645,0.0
0.028,3.717187210848779,-1.445027416041928,10.0,0.0,11.08301368602011,13.640505158562721,213.96956552334646,267.2131701508645,0.0
0.029,3.826673192435497,-1.401510289005568,10.0,0.0,11.478478690904566,14.00099383224904,217.26925757381684,267.2131701508645,0.0
0.03,3.9428420467711383,-1.3523921284388591,10.0,0.0,11.86547823627723,14.353296424894127,220.07122674789838,267.2131701508645,0.0
0.031,4.06578052643706,-1.2982157894904855,10.0,0.0,12.243539870698486,14.696707168592066,222.41032246010414,267.2131701508645,0.0
0.032,4.195606442521282,-1.2393577043582373,10.0,0.0,12.612203790072346,15.030531535389741,224.28498732465064,267.2131701508645,0.0
0.033,4.33218129862189,-1.176481246244018,10.0,0.0,12.971055924647345,15.354114882434809,225.73385482596484,267.2131701508645,0.0
0.034,4.4753883038380655,-1.1100742956898089,10.0,0.0,13.319705180489532,15.666838086220098,226.77621654382392,267.2131701508645,0.0
0.035,4.624992939925574,-1.0406667727619057,10.0,0.0,13.657791073109498,15.968129455293603,227.45650466907307,267.2131701508645,0.0
0.036000000000000004,4.780717277296421,-0.9687125372540688,10.0,0.0,13.984976622698237,16.25746664597184,234.57693142475568,267.2131701508645,0.0
0.037,4.908821622638163,-0.9505816277699068,10.0,0.0,14.307102478707748,16.53805443792725,238.0334525070372,267.2131701508645,0.0
0.038,4.978168146050038,-1.0240946345183566,10.0,0.0,14.633342268149017,16.816448962166177,252.94213518694318,267.2131701508645,0.0
0.039,5.026008539099952,-1.1250273115273486,10.0,0.0,14.965164995473557,17.095059034923967,261.98164960682607,267.2131701508645,0.0
0.04,5.079546883975199,-1.2053483928376345,7.543809912777961,0.0,15.299492449515462,17.103398649538224,268.99268856346504,267.2131701508645,0.0
0.041,4.981279137865009,-1.2827177094893627,4.020495250332472,0.0,15.60892853363319,16.792679171619334,275.5331157623128,267.2131701508645,0.0
0.042,4.748622827329905,-1.2393511035918294,0.667082194794121,0.0,15.850805041732018,16.234942477117116,279.35574694103786,267.2131701508645,0.0
0.043000000000000003,4.356594397140048,-1.1908604122617663,-1.3656591624701573,0.0,16.007819919583405,15.607896248346847,280.7947349468672,267.2131701508645,0.0
0.044,3.943866721852273,-1.0889930401030428,-2.2209688133448564,0.0,16.075708182748464,15.026979242194914,284.2378452859374,267.2131701508645,0.0
0.045,3.544369046253965,-1.0271784836731652,-4.112770734230679,0.0,16.072934991496126,14.351215115748927,283.56586560264327,267.2131701508645,0.0
0.046,3.1316894627656238,-0.9397426530683226,-3.940307847101404,0.0,15.99386291092219,13.82203879704312,283.83170462528113,267.2131701508645,0.0
0.047,2.7920970939145158,-0.8863104720240137,-4.239412703164501,0.0,15.864777224926238,13.336475103851008,283.0345432566434,267.2131701508645,0.0
0.048,2.497723071105727,-0.8483707445087129,-3.9990457499034315,0.0,15.696404689994438,12.944975843618318,281.87999619211456,267.2131701508645,0.0
0.049,2.26439555943037,-0.8273411450031792,-3.568440478051504,0.0,15.503785623862086,12.643474452343014,280.4991827157902,267.2131701508645,0.0
0.05,2.088654436096639,-0.824349030528636,-3.0108938655385793,0.0,15.300159488618293,12.42688361668986,278.9453224170445,267.2131701508645,0.0
0.051000000000000004,1.9661161735764638,-0.835040131817803,-2.351285238827534,0.0,15.096442825620123,12.290292531534622,277.4869119144574,267.2131701508645,0.0
0.052000000000000005,1.8917507487381149,-0.8559981562543577,-1.7248174051698983,0.0,14.901637192081372,12.216259078137327,275.96875358182,267.2131701508645,0.0
0.053,1.8546256472161593,-0.8832197107613029,-1.0532940731607687,0.0,14.721693567308169,12.201091401829352,274.2992416742684,267.2131701508645,0.0
0.054,1.8497458385693843,-0.9148024992581624,-0.2893988346189955,0.0,14.561429428571074,12.246924901530281,272.6565517880886,267.2131701508645,0.0
0.055,1.8766289038332036,-0.9496356688976638,0.477512292098647,0.0,14.425290874453154,12.345863973675439,271.1316604710005,267.2131701508645,0.0
0.056,1.9304370880728254,-0.9866120746597978,1.2007730474413543,0.0,14.31637915589898,12.487534785401095,269.34515253976684,267.2131701508645,0.0
0.057,2.008187966760627,-1.0183645429705517,2.0727071891691526,0.0,14.235648697829358,12.684812977322137,268.0892022236457,267.2131701508645,0.0
0.058,2.1144322969349454,-1.0466277226020244,2.6919220265019055,0.0,14.185510529835152,12.90277522740114,268.92955026195494,267.2131701508645,0.0
0.059000000000000004,2.2345361597475075,-1.0656228060313746,2.254584206236386,0.0,14.163989231029182,13.027479145462648,270.18807165883015,267.2131701508645,0.0
0.06,2.305832883330425,-1.0726344889915704,1.5955744927191247,0.0,14.157671788201288,13.062801250587167,264.6739878147865,267.2131701508645,0.0
0.061,2.3397628858033532,-1.039070182022323,4.378008238101717,0.0,14.15175610957241,13.40359787700751,262.74817776638656,267.2131701508645,0.0
0.062,2.511319307758238,-1.0368893032125466,5.385563186146481,0.0,14.180607407849084,13.774198073363724,266.23351090728005,267.2131701508645,0.0
0.063,2.7064046683442498,-1.0637098658156017,3.652693208135581,0.0,14.246605666608131,13.890188307405428,262.8565961053667,267.2131701508645,0.0
0.064,2.7941030840793455,-1.0412907474584332,5.384716349547238,0.0,14.314868814250133,14.201334617129248,259.3515025145978,267.2131701508645,0.0
0.065,2.971653558039904,-1.005391768405215,7.2158798212943385,0.0,14.403695581588034,14.653646793144647,263.9895460785452,267.2131701508645,0.0
0.066,3.204515370196463,-1.0293828592569507,4.9290942800438575,0.0,14.531868899577912,14.775913089439655,257.16619639753884,267.2131701508645,0.0
0.067,3.315102883629677,-0.980064898629329,8.441238858080283,0.0,14.653786628820738,15.298137838544573,261.35818846576143,267.2131701508645,0.0
0.068,3.5899508189764773,-0.9737701280070596,6.4037926408200185,0.0,14.815535814887609,15.491963958230478,255.96883060620874,267.2131701508645,0.0
0.069,3.7359502456792337,-0.9399084946842855,9.210914966042921,0.0,14.976830862357094,15.99842884491776,259.52269792653505,267.2131701508645,0.0
0.07,4.019808298971112,-0.92081477569137,7.510886028123064,0.0,15.170881200992369,16.22553794966477,252.86137958514863,267.2131701508645,0.0
0.07100000000000001,4.194726622893093,-0.8744107389802251,10.0,0.0,15.363323909390516,16.723741568987773,257.5067757798118,267.2131701508645,0.0
0.07200000000000001,4.479094601750007,-0.8612793559599731,8.739727688762908,0.0,15.585362297116038,16.99831670882839,252.6070137693042,267.2131701508645,0.0
0.073,4.702871504329869,-0.7868404355897624,10.0,0.0,15.804597392642552,17.39709907131075,252.07682179950484,267.2131701508645,0.0
0.074,4.946443666027444,-0.773000185819779,10.0,0.0,16.04100917659365,17.740768815224204,265.9681949136958,267.2131701508645,0.0
0.075,5.097029516283962,-0.8805107281666561,4.75767118994336,0.0,16.30011131869684,17.482927872123952,269.288752460929,267.2131701508645,0.0
0.076,4.96595552285265,-0.8768298445876693,3.0766365932261186,0.0,16.506039149662527,17.160214717785735,273.6697013923205,267.2131701508645,0.0
0.077,4.72641855056386,-0.8942767348276959,0.8215968151158011,0.0,16.661058848860012,16.684159959370394,279.2087321278462,267.2131701508645,0.0
0.078,4.430007998082069,-0.8484472827927859,-2.067874172416851,0.0,16.747755393669983,16.00613102691895,280.3469744553944,267.2131701508645,0.0
0.079,4.021402419351795,-0.7975701140509582,-2.768333379236249,0.0,16.752841196712552,15.398401347454362,282.01630818147635,267.2131701508645,0.0
0.08,3.648124129964366,-0.7428445778911942,-3.7510316225833464,0.0,16.69113441421426,14.787835557585812,283.23826822705826,267.2131701508645,0.0
0.081,3.2831280601407067,-0.7072478205128367,-4.522262626136238,0.0,16.57117334302891,14.193564025283663,283.01980957104684,267.2131701508645,0.0
0.082,2.941387558973971,-0.6737226048377053,-4.571099692332351,0.0,16.400449419581406,13.68300526627727,282.7004942877914,267.2131701508645,0.0
0.083,2.648651956740707,-0.6598554595450971,-4.566315292073902,0.0,16.194551878752574,13.236228156751137,281.74320899186307,267.2131701508645,0.0
0.084,2.4006372876121214,-0.6597595181007709,-4.232973032519722,0.0,15.964694498948061,12.874513066224928,280.60547379518334,267.2131701508645,0.0
0.085,2.204105995535028,-0.6739745950823403,-3.7980284706230467,0.0,15.723215965953802,12.58963252142117,279.2721666647658,267.2131701508645,0.0
0.08600000000000001,2.054176252653488,-0.7001237663342346,-3.2519648705532833,0.0,15.480131489846482,12.379336686983265,277.80291344936984,267.2131701508645,0.0
0.08700000000000001,1.9473243044509378,-0.7355649703713845,-2.6232356958403606,0.0,15.243962918637667,12.239715978469613,276.41624203214946,267.2131701508645,0.0
0.088,1.8800308371573005,-0.7772563921562107,-2.021930706043018,0.0,15.021680778054332,12.156630502737297,275.17787819534067,267.2131701508645,0.0
0.089,1.8442545673159563,-0.8210618992146397,-1.4823958680833855,0.0,14.817719995514679,12.11622359780708,273.96664673816184,267.2131701508645,0.0
0.09,1.8316234310094437,-0.8632550490165679,-0.9443149053669453,0.0,14.634317792143596,12.114286524930428,272.476929150233,267.2131701508645,0.0
0.091,1.837782064640469,-0.9034733371146259,-0.2520937013962046,0.0,14.47306418201472,12.164162700751476,270.94209668251847,267.2131701508645,0.0
0.092,1.8682770213843911,-0.9431912214525572,0.47803326714451755,0.0,14.336890334877031,12.263024793571779,269.54419631028975,267.2131701508645,0.0
0.093,1.922205297122063,-0.9828788663449263,1.153673191664625,0.0,14.228188543829923,12.399775253644385,267.8790330421894,267.2131701508645,0.0
0.094,1.9966821213735928,-1.016483553525833,1.9795961968015479,0.0,14.14733161703576,12.588422452014584,266.64442616809265,267.2131701508645,0.0
0.095,2.097405502735511,-1.0455174669991925,2.602587073677644,0.0,14.096282786368299,12.80005420056606,267.31698722862785,267.2131701508645,0.0
0.096,2.2126144605974227,-1.0654537923587597,2.26526837263241,0.0,14.073404670277545,12.930417173760711,268.95935406921416,267.2131701508645,0.0
0.097,2.28556942675171,-1.0734808331625438,1.4266231131557614,0.0,14.066534274350158,12.949705289796494,263.6390025460118,267.2131701508645,0.0
0.098,2.3104117144266465,-1.0406315591664308,4.1225405508054696,0.0,14.058586039071473,13.269311823389486,261.12019993359684,267.2131701508645,0.0
0.099,2.4696905033384082,-1.0367275531806865,5.442871559185626,0.0,14.083292332761483,13.65716787273709,264.89059745126286,267.2131701508645,0.0
0.1,2.6702775598366904,-1.0662086224296106,3.580898527348629,0.0,14.147595559694494,13.770216814607373,262.3887629735766,267.2131701508645,0.0
0.101,2.755015133552115,-1.0475239590442769,4.880059837964638,0.0,14.214423234456358,14.032603396926342,257.2744679373468,267.2131701508645,0.0
0.10200000000000001,2.9083193551323334,-1.0064474783831971,7.536594378214718,0.0,14.296475233735064,14.53864518617428,263.3242101794293,267.2131701508645,0.0
0.10300000000000001,3.162712683704745,-1.0349940120476837,4.550612856887812,0.0,14.4244770955204,14.620814459749672,256.667177876172,267.2131701508645,0.0
0.10400000000000001,3.2537909585958187,-0.9874959377150805,7.9845889312634,0.0,14.542385444971504,15.10768949858835,259.67348357395537,267.2131701508645,0.0
0.105,3.511802331297634,-0.970358228171903,6.556832948140804,0.0,14.69578029605495,15.338804481352737,256.1533818550598,267.2131701508645,0.0
0.106,3.6662483923285065,-0.9491229423878333,8.427481690546625,0.0,14.854782655965671,15.767787419458521,257.60198741342174,267.2131701508645,0.0
0.107,3.921188699805945,-0.9115713832024737,7.799290738740092,0.0,15.036864755043357,16.055465834409816,253.18794492481965,267.2131701508645,0.0
0.108,4.107844106421788,-0.889076453928892,10.0,0.0,15.227407559080149,16.562961854377427,256.75666584019194,267.2131701508645,0.0
0.109,4.404919696666901,-0.8694102535321462,8.463837536016134,0.0,15.44770735195913,16.816965828240335,249.61094236567158,267.2131701508645,0.0
0.11,4.609044044122242,-0.8087392137270082,10.0,0.0,15.664900410561891,17.23245595736527,252.3055750057629,267.2131701508645,0.0
0.111,4.860279017519766,-0.7901358195087933,10.0,0.0,15.900483513250933,17.587160151198983,262.15974829095137,267.2131701508645,0.0
0.112,5.057071081779395,-0.8327746682253112,6.074269792485712,0.0,16.152855032355433,17.478987135757073,264.23606119578017,267.2131701508645,0.0
0.113,4.987519310201163,-0.871203001100288,5.065884429622157,0.0,16.372972826134376,17.344822101446155,274.7871361790746,267.2131701508645,0.0
0.114,4.843682371422394,-0.927186083519874,-0.2853927223071575,0.0,16.563436192841735,16.682655262410513,275.33703371743957,267.2131701508645,0.0
0.115,4.484615484389927,-0.8403229798218355,-0.6415801271553945,0.0,16.658521766743817,16.158142589120935,278.9091926609084,267.2131701508645,0.0
0.116,4.126786074978882,-0.8138715470004556,-2.544619823990244,0.0,16.689606489353363,15.52558781411208,280.28499835143566,267.2131701508645,0.0
0.117,3.7518139961050316,-0.7516062855075701,-3.3632409512595913,0.0,16.64774259776506,14.926047696415793,281.8775141708649,267.2131701508645,0.0
0.11800000000000001,3.3866930390856624,-0.7173631710852327,-4.306142301174221,0.0,16.546966993594435,14.323155848595777,281.79148559891877,267.2131701508645,0.0
0.11900000000000001,3.0386542947352786,-0.6801341794153763,-4.408911169681691,0.0,16.392227007119413,13.803233115412372,281.7776730003693,267.2131701508645,0.0
0.12,2.7377217340794995,-0.6634175984966271,-4.547649898902007,0.0,16.19950221198918,13.335217279599282,280.9668588590497,267.2131701508645,0.0
0.121,2.4763031474020245,-0.6590625333750355,-4.279779715324054,0.0,15.97893642143648,12.951330374268217,279.94478308284124,267.2131701508645,0.0
0.122,2.265609255125014,-0.6691061179038391,-3.896057956539594,0.0,15.743186864355323,12.643868414329196,278.6974571344094,267.2131701508645,0.0
0.123,2.1017417149144975,-0.6916934572698616,-3.3872378521591098,0.0,15.50265023847336,12.411629179070358,277.28787276388937,267.2131701508645,0.0
0.124,1.9818062975520774,-0.7243308672942128,-2.7831926930293545,0.0,15.266307593362724,12.25147119171744,275.92335852826756,267.2131701508645,0.0
0.125,1.9025638040186728,-0.7642232807129591,-2.1880374589924787,0.0,15.041645205403675,12.150638682856554,274.65789799952563,267.2131701508645,0.0
0.126,1.8565013762293403,-0.8074907118588166,-1.629754473108127,0.0,14.833726298646305,12.097157204314255,273.55410778808965,267.2131701508645,0.0
0.127,1.8364762220603812,-0.8499164051752004,-1.1412687437623892,0.0,14.645485286663783,12.078124726000329,272.1115998995044,267.2131701508645,0.0
0.128,1.8339244690407617,-0.890171763641293,-0.46899909695617525,0.0,14.478168960546226,12.11131663946524,270.5873568632406,267.2131701508645,0.0
0.129,1.8555642103429795,-0.9303806846498491,0.25938055405198446,0.0,14.3349238861132,12.195450905041296,269.2220920709589,267.2131701508645,0.0
0.13,1.9021952764523133,-0.9699705103089536,0.9219237309918724,0.0,14.218369537293496,12.317530169710748,267.7006179534916,267.2131701508645,0.0
0.131,1.9679797899529046,-1.0064112670420908,1.6777863116992695,0.0,14.12929113480676,12.485495539315728,266.12767909815625,267.2131701508645,0.0
0.132,2.057932162268793,-1.0363047817917654,2.475110649894021,0.0,14.06884098858433,12.698666667286142,266.0580407288579,267.2131701508645,0.0
0.133,2.172369389361055,-1.0596912473063484,2.521481128763253,0.0,14.038026545840292,12.86991460587395,268.40020847105137,267.2131701508645,0.0
0.134,2.266084576809213,-1.0735646495438116,1.3385268744646577,0.0,14.028710550820415,12.88120333521866,264.7044740718977,267.2131701508645,0.0
0.135,2.284782650498594,-1.0513908383532407,3.2114810348311513,0.0,14.018877174983658,13.107166456078861,260.007812349912,267.2131701508645,0.0
0.136,2.3985203845438305,-1.037751302096235,5.631865473833536,0.0,14.031344837940233,13.544738503947885,263.6404817886629,267.2131701508645,0.0
0.137,2.6180275433731337,-1.0672354836904674,3.8512576380801047,0.0,14.089702594725988,13.696720996871989,264.2217706902189,267.2131701508645,0.0
0.138,2.720678971875687,-1.0604683250995603,3.590527181908572,0.0,14.156383595864632,13.819370158813934,257.3571984458538,267.2131701508645,0.0
0.139,2.807519921465148,-1.0094121028823253,7.121373021141226,0.0,14.223112900225624,14.31889686138305,260.98232826930155,267.2131701508645,0.0
0.14,3.0581745841527814,-1.0187213375768787,5.371116528232973,0.0,14.334656522446004,14.520603548119372,259.58851085903314,267.2131701508645,0.0
