timestamp,iq,id,iq_ref,id_ref,vq,vd,omega,omega_ref,r
0.0,0.0,0.0,0.0,0.0,0.0,0.0,0.0,62.47197012076222,0.0
0.001,0.0,0.0,10.0,0.0,0.0,1.0999999999999999,10.800104641140374,62.47197012076222,0.0
0.002,0.4183651028807125,-0.24910840647130014,10.0,0.0,0.13740192471184295,1.9439798386831213,18.258735057664666,62.47197012076222,0.0
0.003,0.9586213845917976,-0.5485818796809352,10.0,0.0,0.3759126388091606,2.6620573460097026,26.178521618718086,62.47197012076222,0.0
0.004,1.487057244969337,-0.8545688077221892,10.0,0.0,0.6930438595818462,3.27945279218894,35.1263561677763,62.47197012076222,0.0
0.005,1.9575935180440271,-1.1224409114023797,10.0,0.0,1.0666075650195954,3.820347184393082,43.64177581030599,62.47197012076222,0.0
0.006,2.350986367651513,-1.346578319855765,10.0,0.0,1.4788807330270546,4.3059406571945065,52.44882285589806,62.47197012076222,0.0
0.007,2.669419771560584,-1.528506238031974,6.208135603729387,0.0,1.9162566284287592,4.336003269992845,57.129899169061346,62.47197012076222,0.0
0.008,2.7664863418677665,-1.5792058699082228,3.9210181566647515,0.0,2.3166588758947526,4.185639947142416,60.46101492191709,62.47197012076222,0.0
0.009000000000000001,2.6723772685469505,-1.524940259927291,2.275569832225331,0.0,2.655508352912438,3.9435477038743025,62.71439649013999,62.47197012076222,0.0
0.01,2.449866713207364,-1.3935074739967832,1.1464547844201036,0.0,2.922348707548999,3.6753365309747323,63.57788851304763,62.47197012076222,0.0
0.011,2.159571459881209,-1.2217054372946299,0.703649589043428,0.0,3.118100013254013,3.4529204621278757,64.6586981465187,62.47197012076222,0.0
0.012,1.8608167158380877,-1.0511185559129137,0.14137749205032835,0.0,3.2549880449188735,3.2448593213322146,63.300662728104214,62.47197012076222,0.0
0.013000000000000001,1.5847557986233554,-0.8770554477661743,0.8121082751841526,0.0,3.339940086255358,3.178075358350445,63.74006302109533,62.47197012076222,0.0
0.014,1.3715261533020937,-0.7655343761975636,0.5797271996852631,0.0,3.3991918403689363,3.114890421477477,65.40920057117079,62.47197012076222,0.0
0.015,1.2179186356708573,-0.6663341671584813,-0.2842138798565499,0.0,3.436403113105249,2.9860039761947768,63.14731642858997,62.47197012076222,0.0
0.016,1.0713815520936387,-0.5747827151039577,0.8399747283555818,0.0,3.447925956404051,3.020610464429911,64.09172081638422,62.47197012076222,0.0
0.017,0.9917833329346855,-0.5356276253673116,0.3515750275022329,0.0,3.4583656188460026,2.9952331682671374,64.64515448394529,62.47197012076222,0.0
0.018000000000000002,0.9402782685765401,-0.49292244940731683,0.05312635008986932,0.0,3.460917566969248,2.9503617853458137,62.7944298555293,62.47197012076222,0.0
0.019,0.8900425606508702,-0.46055885629128934,0.9752640669501931,0.0,3.4555942385048724,3.01966324838595,64.15044263104419,62.47197012076222,0.0
0.02,0.8853512013224216,-0.46087694351502456,0.2804729540899311,0.0,3.458092014716721,2.995867525139275,64.24672742988213,62.47197012076222,0.0
0.021,0.8791473331600469,-0.44260985299264793,0.21458298157976108,0.0,3.4559478801530172,2.975036677895512,62.45526079614511,62.47197012076222,0.0
0.022,0.8630657587662166,-0.4337995829730179,1.1104833916944403,0.0,3.451148615524372,3.0569893812591706,64.30980848188479,62.47197012076222,0.0
0.023,0.8848170618895259,-0.4468383320494568,0.16483116521337715,0.0,3.456546912793561,3.0147326797220315,63.854616615379875,62.47197012076222,0.0
0.024,0.8863783577494473,-0.4312656521217196,0.37860063351965634,0.0,3.455336327899303,3.010258412330669,62.17365728593764,62.47197012076222,0.0
0.025,0.8796680058052209,-0.42943413132864916,1.2220634265890213,0.0,3.4537536342673736,3.0975074774160483,64.39373797686613,62.47197012076222,0.0
0.026000000000000002,0.9095718438910698,-0.4448327882852626,0.09280540256373326,0.0,3.462766283980333,3.039863830347336,63.63879647448851,62.47197012076222,0.0
0.027,0.909183007277268,-0.4269873960400273,0.4586078902152837,0.0,3.462996324298584,3.04075847724709,62.06848774151679,62.47197012076222,0.0
0.028,0.9029695464834846,-0.4251589814500324,1.247797080493597,0.0,3.4632701535925374,3.1254190418639722,64.2571270931582,62.47197012076222,0.0
0.029,0.9322575588118154,-0.4390676586998147,0.13562583494893055,0.0,3.4735308950621597,3.06812638807181,63.631372305678816,62.47197012076222,0.0
0.03,0.9317482910265461,-0.41992699351906904,0.4369092068394582,0.0,3.474791737063224,3.0622008567488943,61.85842045212126,62.47197012076222,0.0
0.031,0.9230960434028062,-0.41518295751375256,1.3295206303046467,0.0,3.475003504423113,3.1531150401814,63.97148508016692,62.47197012076222,0.0
0.032,0.9527923261567213,-0.42993773292221593,0.25799316668776817,0.0,3.4859559790452477,3.104811733194968,63.798080787062055,62.47197012076222,0.0
0.033,0.9560944808285899,-0.41291565826348064,0.3314342065772031,0.0,3.488962899539981,3.0811615192070336,61.89274990546276,62.47197012076222,0.0
0.034,0.9445115588400081,-0.4022233169278563,1.2898918495298466,0.0,3.488298169786115,3.166180091958724,63.31167923315447,62.47197012076222,0.0
0.035,0.9689083401787453,-0.41524023295237433,0.572030094560067,0.0,3.497740554458859,3.15128148981651,64.18131585324932,62.47197012076222,0.0
0.036000000000000004,0.982021181791359,-0.4052524969773562,0.12011832718777371,0.0,3.503520020332609,3.0950868647305376,61.80104253045962,62.47197012076222,0.0
0.037,0.9663112463959165,-0.38614332409121926,1.3169642644856485,0.0,3.501099945452663,3.1831210408266504,62.41795091902714,62.47197012076222,0.0
0.038,0.9872001725952062,-0.39988724405544723,1.0090502622192377,0.0,3.5094282185952492,3.213815910966998,63.93836918213859,62.47197012076222,0.0
0.039,1.01509603530172,-0.40188915532156927,0.23417714004975154,0.0,3.520075922477241,3.1572575623558654,62.58477917251109,62.47197012076222,0.0
0.04,1.0104124228569458,-0.3829711197562595,0.9098440543460107,0.0,3.5219020180850764,3.1902860667843194,61.369321570197485,62.47197012076222,0.0
0.041,1.0161816666518801,-0.3839844295015824,1.5285993410084608,0.0,3.5271489990026126,3.280819289778729,63.508823904488054,62.47197012076222,0.0
0.042,1.0546889210955699,-0.3990779489842729,0.4484796360259181,0.0,3.542574758173478,3.2336450625998894,63.63978084440529,62.47197012076222,0.0
0.043000000000000003,1.0622936153577598,-0.3832509789965143,0.3713230588308708,0.0,3.5498486168158925,3.1945933637899877,61.57094978446513,62.47197012076222,0.0
0.044,1.0496077251957006,-0.3649858212574084,1.4147487921639212,0.0,3.5506390220616524,3.2771941120243526,61.94987169766713,62.47197012076222,0.0
0.045,1.0708450411995287,-0.37594171361867823,1.2305088197938725,0.0,3.560998261343403,3.318450208003777,63.487211993832055,62.47197012076222,0.0
0.046,1.1017012917334261,-0.38038485842638564,0.4516862529807103,0.0,3.574826373300155,3.2696067212889965,63.00354256942243,62.47197012076222,0.0
0.047,1.1029939594689007,-0.36148189936472613,0.6882052406989215,0.0,3.5802635684448956,3.261002077812942,61.44023683787004,62.47197012076222,0.0
0.048,1.0982396048372838,-0.34940543088544923,1.4801754393040385,0.0,3.583157197785453,3.33908905585518,61.9468594438461,62.47197012076222,0.0
0.049,1.124009962196817,-0.3595360072046847,1.2321152430851683,0.0,3.594805290076084,3.3715680926012577,63.148166424482966,62.47197012076222,0.0
0.05,1.153234467861531,-0.36291534389327146,0.6246997897295284,0.0,3.6088068980848167,3.3346719449453377,63.05989422546148,62.47197012076222,0.0
0.051000000000000004,1.1584671340241355,-0.34580647618152033,0.6629566481932805,0.0,3.6158029617119034,3.312864633599212,61.30390964748343,62.47197012076222,0.0
0.052000000000000005,1.1520370409319296,-0.3298455375760425,1.552629541915092,0.0,3.618334073272183,3.3921787463769366,61.27634314684601,62.47197012076222,0.0
0.053,1.1768539530000748,-0.33944289094192376,1.578369061972964,0.0,3.6297588032105095,3.4549550160436473,62.72525895608323,62.47197012076222,0.0
0.054,1.2164747269160014,-0.3505694652781691,0.8513782690011436,0.0,3.6474466367650016,3.4282596332999704,63.39539532764411,62.47197012076222,0.0
0.055,1.2309978252915381,-0.3396332437894425,0.507075831151885,0.0,3.6593818985825557,3.37419787887026,62.01789486609089,62.47197012076222,0.0
0.056,1.219352845001241,-0.3154741664316712,1.2003668144752075,0.0,3.6621693224809144,3.407867037425022,60.78943129355988,62.47197012076222,0.0
0.057,1.225373011977075,-0.30843210494265877,1.831423989012737,0.0,3.6675118838547016,3.500152733709795,61.406774292066004,62.47197012076222,0.0
0.058,1.2638339900550624,-0.32259743925980067,1.533404448046637,0.0,3.683177366109362,3.540480889333001,62.515564609271635,62.47197012076222,0.0
0.059000000000000004,1.3022876479103653,-0.33081707914000963,0.978573344558727,0.0,3.702071622744529,3.5164462590620413,63.133832949580835,62.47197012076222,0.0
0.06,1.3164652227425084,-0.3199589094016339,0.662820546115941,0.0,3.71539639561906,3.466345024034884,62.14527632281476,62.47197012076222,0.0
0.061,1.306696697072673,-0.2956983282766132,1.1603657974784538,0.0,3.7198184854770533,3.4816902090042037,60.99482676943528,62.47197012076222,0.0
0.062,1.308034387454439,-0.28253627479964016,1.7503620076814637,0.0,3.7241276647749637,3.5556223838724055,60.66514647866621,62.47197012076222,0.0
0.063,1.3373483544176472,-0.2896744925002983,1.9332703894869583,0.0,3.736315968111744,3.633601059618014,61.42911313659046,62.47197012076222,0.0
0.064,1.3847272389905299,-0.30470161027912007,1.561715630366551,0.0,3.75666490946807,3.6573820531680563,62.277293754425116,62.47197012076222,0.0
0.065,1.4213594797886253,-0.3094131511412022,1.1395720851125932,0.0,3.7777250543608103,3.6345438414699336,62.803540130632754,62.47197012076222,0.0
0.066,1.4341157400507438,-0.29790602903342395,0.8731331969100689,0.0,3.7930824647539865,3.5899717569603067,62.283913851696184,62.47197012076222,0.0
0.067,1.42582185802396,-0.2739297805801508,1.1348268990690145,0.0,3.7999246095481007,3.5838832076860383,61.48579016793781,62.47197012076222,0.0
0.068,1.420748390674178,-0.2544746506922533,1.5437505404764469,0.0,3.8035733831322416,3.6219275339400427,60.630939240887294,62.47197012076222,0.0
0.069,1.4351041634532555,-0.24760643841897395,1.9895863128004532,0.0,3.810100759932185,3.6998551337894305,60.41234137953077,62.47197012076222,0.0
0.07,1.4745479229110143,-0.2573383877292781,2.119481530891028,0.0,3.824907355583943,3.776277571788036,60.71150129014441,62.47197012076222,0.0
0.07100000000000001,1.5272945641788473,-0.273109040386077,1.9875062638903866,0.0,3.847512987769526,3.825314501056096,61.280185363690975,62.47197012076222,0.0
0.07200000000000001,1.5762574965216414,-0.28427960892507187,1.7150820746878173,0.0,3.8738328056760807,3.838202936328602,61.76333145059868,62.47197012076222,0.0
0.073,1.608527954196128,-0.2845350898598974,1.4805954179356018,0.0,3.898725882536671,3.8263050984930307,62.09081875687985,62.47197012076222,0.0
0.074,1.6221521682820945,-0.2734319826284902,1.3206632784338401,0.0,3.9187159713228423,3.801662724376692,62.32066996230695,62.47197012076222,0.0
0.075,1.6210938979988145,-0.2542457520321202,1.2072506773048413,0.0,3.932243359525475,3.770860183693452,62.145099957444124,62.47197012076222,0.0
0.076,1.6107787648656944,-0.22998095543861619,1.298304381369436,0.0,3.9388604895201986,3.7567647512990052,61.815519591538596,62.47197012076222,0.0
0.077,1.6027109979681007,-0.2080819846252745,1.4696590696144363,0.0,3.9412401244524746,3.7634633568371845,61.43039218519895,62.47197012076222,0.0
0.078,1.604834544737925,-0.19271861079339403,1.6726385521398934,0.0,3.9425806750319654,3.790029993696467,61.06852151675073,62.47197012076222,0.0
0.079,1.620841124480013,-0.1853264637240012,1.867608372404118,0.0,3.9457843318001222,3.8317514190276474,60.75399078743194,62.47197012076222,0.0
0.08,1.6506613735518758,-0.18489295368317915,2.0420535303968155,0.0,3.9528660007907837,3.8837401750785983,60.299087175668824,62.47197012076222,0.0
0.081,1.691929295028211,-0.1895383041969112,2.291234165729307,0.0,3.9649537021443932,3.952662371858487,59.9592943153444,62.47197012076222,0.0
0.082,1.7448132367879232,-0.20082997326481988,2.4862573539456965,0.0,3.983920483132964,4.029457309067422,59.99056446829181,62.47197012076222,0.0
0.083,1.8064039348982535,-0.21600696755159965,2.4954363339966967,0.0,4.0102266324244376,4.093282749203228,60.09673569625896,62.47197012076222,0.0
0.084,1.866967063586495,-0.22888615466384765,2.4661030642581534,0.0,4.041549651439825,4.143991773608246,60.636509864430465,62.47197012076222,0.0
0.085,1.9175989070638566,-0.24268561965547364,2.2145705827357185,0.0,4.07620042027213,4.160423085708594,61.436310730177254,62.47197012076222,0.0
0.08600000000000001,1.944797500037005,-0.2558067161305341,1.8250267437681738,0.0,4.11033456939358,4.135856319218657,62.036224718622066,62.47197012076222,0.0
0.08700000000000001,1.9437252449028284,-0.2583676428295565,1.5294272035671699,0.0,4.138749117926033,4.088929067251914,62.52651730588098,62.47197012076222,0.0
0.088,1.918616271471655,-0.2515594784190516,1.2837354380865253,0.0,4.158854979056421,4.028217161060317,62.9374458585634,62.47197012076222,0.0
0.089,1.8756598849941293,-0.23839458896571109,1.073616404367303,0.0,4.169499007258849,3.9594049683248285,63.37098534036255,62.47197012076222,0.0
0.09,1.8210417352099413,-0.22160014902626746,0.847856511271724,0.0,4.17048167386868,3.8813844323912954,64.43639811500113,62.47197012076222,0.0
0.091,1.7582381460215606,-0.20193762081679278,0.295505844010048,0.0,4.161569086520525,3.7591254555571503,64.36016979125922,62.47197012076222,0.0
0.092,1.676477352285282,-0.17100546103112124,0.31473800917602857,0.0,4.138115947929443,3.664205813931585,63.852319043873116,62.47197012076222,0.0
0.093,1.5963791696756147,-0.1432097491817661,0.5548598936379736,0.0,4.10476795232934,3.610647100398323,63.21476293812829,62.47197012076222,0.0
0.094,1.5352349507905871,-0.12744874895602687,0.866210018336727,0.0,4.067943132029584,3.5968816357818754,62.72946813857306,62.47197012076222,0.0
0.095,1.5013270965954089,-0.12705185152234844,1.106282437936232,0.0,4.033538198582711,3.6072231222786755,62.457554107076035,62.47197012076222,0.0
0.096,1.4921656944601007,-0.139611975779956,1.242383613821607,0.0,4.00499348977288,3.6263290476254375,62.329619835550126,62.47197012076222,0.0
0.097,1.4995429359881618,-0.16016761981453653,1.3077742524366822,0.0,3.983349363979934,3.645598757455905,62.26839424328478,62.47197012076222,0.0
0.098,1.5147861383907788,-0.1846109191422628,1.3404228073441289,0.0,3.9682798282350347,3.6621115385286904,62.22349422304602,62.47197012076222,0.0
0.099,1.5321050742002091,-0.20957432639649332,1.365357576440673,0.0,3.9588700659765914,3.676129776056242,62.29798460616626,62.47197012076222,0.0
0.1,1.5479734047074785,-0.23420443131568103,1.3298522400265114,0.0,3.954262781165317,3.6820779519109674,62.74035074129962,62.47197012076222,0.0
0.101,1.558691748122805,-0.256397996768137,1.1059853662544563,0.0,3.952906033571219,3.661679944477693,63.66720888904645,62.47197012076222,0.0
0.10200000000000001,1.556215953053321,-0.2696961399288378,0.6306039046982004,0.0,3.950886020086357,3.593512291886665,64.16243504849426,62.47197012076222,0.0
0.10300000000000001,1.528812025144429,-0.2655800206195843,0.3660861756969749,0.0,3.941665488135256,3.510605941750967,63.67847881363191,62.47197012076222,0.0
0.10400000000000001,1.4814764815409696,-0.25157294629810856,0.5959992061994517,0.0,3.9235767573834206,3.4679366545963006,62.86313929579547,62.47197012076222,0.0
0.105,1.4390548660067104,-0.24368483844836708,0.9997572733673403,0.0,3.9023023498710483,3.474032702438098,62.43720566967216,62.47197012076222,0.0
0.106,1.4190857051898744,-0.25014271117335485,1.213071730939896,0.0,3.8845542349723385,3.4985911059402888,62.4951225158606,62.47197012076222,0.0
0.107,1.4188387656362222,-0.2674926406878255,1.1838817838946918,0.0,3.8728806854330604,3.513402290594425,63.181100403744615,62.47197012076222,0.0
0.108,1.4252023060877395,-0.28735643981907744,0.8338015371228606,0.0,3.8658671279224173,3.486645615309567,64.14507999674164,62.47197012076222,0.0
0.109,1.4195934550776685,-0.29637266761303227,0.33508064186455266,0.0,3.8576724057003764,3.411185364807058,63.6956098056315,62.47197012076222,0.0
0.11,1.3879618070848823,-0.2893793314452331,0.5475793405709322,0.0,3.8418917013938882,3.3742371257119865,62.85398279399544,62.47197012076222,0.0
0.111,1.355721763910899,-0.2864417362677336,0.964572719656628,0.0,3.823741041500697,3.3863800130773463,62.530940233619994,62.47197012076222,0.0
0.112,1.3427916312937587,-0.2965717472745797,1.1255042987157746,0.0,3.809763413495889,3.4101259997786464,63.07978118097028,62.47197012076222,0.0
0.113,1.3451030638499781,-0.3150868829098068,0.8450057144385512,0.0,3.801493511771497,3.397251906040893,64.21146985392079,62.47197012076222,0.0
0.114,1.3426173494659914,-0.32610430852856986,0.26176638063171054,0.0,3.7937899563074824,3.323783433536297,63.740204311645236,62.47197012076222,0.0
0.115,1.3138529419072664,-0.31907640031493467,0.4847168098606569,0.0,3.778626664979719,3.2903876209766305,62.80275674857004,62.47197012076222,0.0
0.116,1.2839214285683536,-0.31708174765062136,0.9501327251201768,0.0,3.761490988817829,3.3107861293181067,62.69847304588259,62.47197012076222,0.0
0.117,1.2747947987969024,-0.32960693169481453,1.0000095472127,0.0,3.7495064478777813,3.328968124628298,63.727591837576,62.47197012076222,0.0
0.11800000000000001,1.27702501087217,-0.34671146651525525,0.4728939341978555,0.0,3.7422948075525624,3.2853153910349144,64.18907632903029,62.47197012076222,0.0
0.11900000000000001,1.2637117343955722,-0.34676635632107883,0.22498062638803207,0.0,3.731274050430963,3.224794221572593,63.05857308638048,62.47197012076222,0.0
0.12,1.2319191502245532,-0.34053248240093315,0.7843662180567539,0.0,3.714616977046019,3.2365986930000474,62.69971702705767,62.47197012076222,0.0
0.121,1.2174403493424069,-0.3496244077745969,0.9615167786552012,0.0,3.7018685086726175,3.2607244579507295,63.64117270871251,62.47197012076222,0.0
0.122,1.2190056877704998,-0.3657160276098151,0.47909691194827975,0.0,3.694486622559762,3.226008133389345,64.15538761905427,62.47197012076222,0.0
0.123,1.2085517125865608,-0.3670958996847745,0.20515528179448106,0.0,3.6843621623319467,3.1698814626774805,62.98733156647159,62.47197012076222,0.0
0.124,1.1797581005982654,-0.36222085071099586,0.7840296936287263,0.0,3.669087426947863,3.1878333721842,62.83000143305713,62.47197012076222,0.0
0.125,1.1688277399231746,-0.37321127413456395,0.8591144472130081,0.0,3.658393053119188,3.2058475995321425,64.06299777880778,62.47197012076222,0.0
0.126,1.1702260910160769,-0.38717015636676505,0.22670599775722433,0.0,3.651995112219482,3.1504120675594747,63.848805119900774,62.47197012076222,0.0
0.127,1.1514860486046719,-0.3820384540701213,0.32003397721934346,0.0,3.6399893361375266,3.118545845105678,62.76109341386674,62.47197012076222,0.0
0.128,1.1263458562081694,-0.3810335578900107,0.860998597305316,0.0,3.6259382938615414,3.1498165164434018,63.297525969198404,62.47197012076222,0.0
0.129,1.122968435755677,-0.39553663082567847,0.5845267611551218,0.0,3.6180248099316525,3.140853582568183,64.35910090528803,62.47197012076222,0.0
0.13,1.119718734107702,-0.40100951199200596,0.03486798526504997,0.0,3.610463367206169,3.0746215396778442,63.094207747891836,62.47197012076222,0.0
0.131,1.0917687469076598,-0.393016429790409,0.6610921876918512,0.0,3.596100896610361,3.0916798084053627,62.86112348529123,62.47197012076222,0.0
0.132,1.079998317510507,-0.40245704926105885,0.7737427853468641,0.0,3.5859988989106744,3.112740574280021,64.19975378293344,62.47197012076222,0.0
0.133,1.0823377675257098,-0.4146412922245844,0.08714979990404625,0.0,3.580259038099702,3.053658285626339,63.52785392823745,62.47197012076222,0.0
0.134,1.0623602184207086,-0.40728274655965757,0.4125408891772909,0.0,3.5682536520516828,3.044790114333116,62.72151717204347,62.47197012076222,0.0
0.135,1.0445241102347278,-0.41091218675364044,0.8132137967614677,0.0,3.5570348113571293,3.0781905269153484,63.86581893486425,62.47197012076222,0.0
0.136,1.046937269522309,-0.424924912355538,0.22712442721005677,0.0,3.551783001404523,3.038208645839911,63.811877000828325,62.47197012076222,0.0
