timestamp,iq,id,iq_ref,id_ref,vq,vd,omega,omega_ref,r
0.0,0.0,0.0,0.0,0.0,0.0,0.0,0.0,237.65056929463196,0.0
0.001,0.0,0.0,10.0,0.0,0.0,1.0999999999999999,8.61225896164801,237.65056929463196,0.0
0.002,0.5909327014906666,-0.3236256791538766,10.0,0.0,0.14559882470692637,1.9249974028360262,17.3024321655244,237.65056929463196,0.0
0.003,1.1908968594734535,-0.6638466077467948,10.0,0.0,0.393325552580445,2.621968217495943,25.967455981392117,237.65056929463196,0.0
0.004,1.6963244727242917,-0.9487320998569395,10.0,0.0,0.71391188397879,3.224417227599456,34.94372658478303,237.65056929463196,0.0
0.005,2.095302339286258,-1.1720776566163684,10.0,0.0,1.0844036395700876,3.7598466806431428,44.12686980463658,237.65056929463196,0.0
0.006,2.4050280630294747,-1.34431550106244,10.0,0.0,1.4881018722280983,4.248702312995458,53.44100182317651,237.65056929463196,0.0
0.007,2.6475205559798796,-1.4780333455430974,10.0,0.0,1.9133024293039504,4.705465288391229,62.731680854961056,237.65056929463196,0.0
0.008,2.8416227676305534,-1.5841858340177393,10.0,0.0,2.351998823499199,5.140145703602939,72.04599305954903,237.65056929463196,0.0
0.009000000000000001,3.0018974883634577,-1.6705667230216568,10.0,0.0,2.798733992701777,5.55953851954889,81.28916716362684,237.65056929463196,0.0
0.01,3.13845041880813,-1.7432453879752852,10.0,0.0,3.249865770833553,5.968247495678917,90.58630100706742,237.65056929463196,0.0
0.011,3.2588448479087404,-1.8054553393501205,10.0,0.0,3.7028715767668503,6.3693208941125015,99.9566928354965,237.65056929463196,0.0
0.012,3.368233418268938,-1.859385568144434,10.0,0.0,4.155994367603801,6.764758734847442,108.87849003176613,237.65056929463196,0.0
0.013000000000000001,3.468774182444956,-1.9087588991610183,10.0,0.0,4.608240427554432,7.1559994722368225,117.71314247841629,237.65056929463196,0.0
0.014,3.564679342368441,-1.9514282647053562,10.0,0.0,5.058585852148651,7.543796581932504,126.4797264738772,237.65056929463196,0.0
0.015,3.657106538600484,-1.9888047302120646,10.0,0.0,5.50636116280331,7.928640583131747,135.09816184417988,237.65056929463196,0.0
0.016,3.747572244735703,-2.0206909539736317,10.0,0.0,5.950977062471133,8.310750759563982,143.38357122991405,237.65056929463196,0.0
0.017,3.8369321111533834,-2.0473533081985127,10.0,0.0,6.3919563865425175,8.690186580075181,151.50906785665953,237.65056929463196,0.0
0.018000000000000002,3.926875369310084,-2.0672854201420265,10.0,0.0,6.828707269029423,9.06677659120934,159.3750291649898,237.65056929463196,0.0
0.019,4.017978864014552,-2.080618800449976,10.0,0.0,7.26070941509549,9.440260737642848,166.92295889554723,237.65056929463196,0.0
0.02,4.111306778102607,-2.0865952489280115,10.0,0.0,7.687383836727808,9.810241648436971,174.13527011294067,237.65056929463196,0.0
0.021,4.2077856661182915,-2.0846590047325186,10.0,0.0,8.108116155930022,10.176212511774068,181.0083743267033,237.65056929463196,0.0
0.022,4.3083503532200496,-2.0742626923520824,10.0,0.0,8.522248097625832,10.537562193996644,187.970870031603,237.65056929463196,0.0
0.023,4.414573868794729,-2.0538404070759606,10.0,0.0,8.928959325117743,10.893511162324337,193.55299723513818,237.65056929463196,0.0
0.024,4.524524109050517,-2.027631185340882,10.0,0.0,9.327915535155142,11.24350406529607,199.0375800760601,237.65056929463196,0.0
0.025,4.643109479612472,-1.9887291223016732,10.0,0.0,9.717958279769011,11.586448410615109,203.51098389889341,237.65056929463196,0.0
0.026000000000000002,4.766787587430722,-1.9439457760819074,10.0,0.0,10.098754036999612,11.921683857709244,208.0871607346674,237.65056929463196,0.0
0.027,4.899982315126094,-1.8871742527065511,10.0,0.0,10.46919672910748,12.248060696848718,211.31952723317764,237.65056929463196,0.0
0.028,5.039681790710772,-1.824244236248608,10.0,0.0,10.828878249341884,12.564809126247674,215.25564925165173,237.65056929463196,0.0
0.029,5.188775704368418,-1.7513829240814627,10.0,0.0,11.176881016318937,12.870847528983674,217.01985848103814,237.65056929463196,0.0
0.03,5.346122751644415,-1.671109541222564,10.0,0.0,11.51258588787908,13.165265132080002,219.87743947390894,237.65056929463196,0.0
0.031,5.509317482834859,-1.588044169014513,10.0,0.0,11.835827575478541,13.447433512064512,222.47702075276928,237.65056929463196,0.0
0.032,5.687553227540249,-1.487305729676358,10.0,0.0,12.144711357711394,13.715735238204834,218.77474871000823,237.65056929463196,0.0
0.033,5.862043070071021,-1.4000515904939008,10.0,0.0,12.440946363418302,13.97068364472308,221.7986196195108,237.65056929463196,0.0
0.034,6.047064943053874,-1.3032214321388969,10.0,0.0,12.72327393317912,14.211153203557389,222.53870980569596,237.65056929463196,0.0
0.035,6.243198161902656,-1.1948010324251905,10.0,0.0,12.990457759462327,14.436084128140807,224.52642026782493,237.65056929463196,0.0
0.036000000000000004,6.439931161212932,-1.0920035980775893,10.0,0.0,13.24319278179446,14.645561045158566,232.43145798835016,237.65056929463196,0.0
0.037,6.571758603148922,-1.1018640879496657,7.3974078647052774,0.0,13.493714621824557,14.560544949205482,235.60875966128364,237.65056929463196,0.0
0.038,6.495015686400828,-1.1122239124235849,5.8291751245720205,0.0,13.711723644049744,14.372362962050655,237.88669574052477,237.65056929463196,0.0
0.039,6.285556337686502,-1.1207773843601707,4.6878458204925275,0.0,13.889950849005219,14.137209278977517,246.11383541947782,237.65056929463196,0.0
0.04,6.014151009996057,-1.1207923818083136,0.48964331976754316,0.0,14.026756080157762,13.520764695227092,247.59282926603237,237.65056929463196,0.0
0.041,5.535411801673106,-0.9974193073583226,-0.34927620322373354,0.0,14.074665141656027,12.97929323008379,246.94078193244533,237.65056929463196,0.0
0.042,5.024662485297744,-0.9042694205316013,-0.1161546628083503,0.0,14.054623393683698,12.582187414998318,248.50593742365518,237.65056929463196,0.0
0.043000000000000003,4.606549084468261,-0.855143056040157,-1.0072860897035074,0.0,13.992402837774263,12.163317315189023,249.26515385642566,237.65056929463196,0.0
0.044,4.216186328210193,-0.82198314993788,-1.5030401517066805,0.0,13.891361001448498,11.773249306398403,249.4486297770051,237.65056929463196,0.0
0.045,3.859741749769927,-0.8042595327497597,-1.7127587168201313,0.0,13.759798549046584,11.429277689377674,249.23812310061186,237.65056929463196,0.0
0.046,3.5475059734664827,-0.803252489693008,-1.723380916683312,0.0,13.607061641618424,11.138257222093987,248.86288578234903,237.65056929463196,0.0
0.047,3.284624647700241,-0.8190744629067017,-1.6478854224290655,0.0,13.442246865688785,10.895270425233708,248.31043035169995,237.65056929463196,0.0
0.048,3.067932168247942,-0.8487167450190052,-1.478256317675208,0.0,13.272717318966302,10.699212436528963,247.71642592979123,237.65056929463196,0.0
0.049,2.894309185407611,-0.8888665314495292,-1.2819126730724397,0.0,13.104654981731828,10.542640405199123,246.9105483587205,237.65056929463196,0.0
0.05,2.7568544376368274,-0.9358692223407253,-0.9715736781779558,0.0,12.942510473221539,10.430476988697565,246.2487456388308,237.65056929463196,0.0
0.051000000000000004,2.655880664870814,-0.98736158807116,-0.7266540816750982,0.0,12.79055820723357,10.346885796188063,245.54899464203928,237.65056929463196,0.0
0.052000000000000005,2.580873713518899,-1.0395286940872972,-0.45576283675341056,0.0,12.650665506597903,10.291048364228114,244.99419587082065,237.65056929463196,0.0
0.053,2.528693184960744,-1.0886669171894199,-0.25179971690598313,0.0,12.52406186631089,10.25152222476248,244.69268319585845,237.65056929463196,0.0
0.054,2.491817200515794,-1.1307597372396037,-0.1714645184371495,0.0,12.41030480408051,10.213620128851161,243.53945944061962,237.65056929463196,0.0
0.055,2.4591781320232604,-1.1626033361651227,0.3462584577223873,0.0,12.307215106163346,10.22750024939053,242.30065720080083,237.65056929463196,0.0
0.056,2.456128914879151,-1.1955745711112635,0.9191586985700964,0.0,12.219130789946652,10.287534208016828,241.16159299897018,237.65056929463196,0.0
0.057,2.4880308033303,-1.2304406897225695,1.4535805624420388,0.0,12.149363861912038,10.382274041875192,240.79761563215584,237.65056929463196,0.0
0.058,2.5503056694247386,-1.2630560472147092,1.6040987824739696,0.0,12.099286638204742,10.46524476872317,243.16509500709583,237.65056929463196,0.0
0.059000000000000004,2.6114945844981095,-1.287470134088025,0.36521383787933637,0.0,12.064873605534123,10.39102014241277,238.36902812468213,237.65056929463196,0.0
0.06,2.587266323018519,-1.2586926750914122,2.7560626907856833,0.0,12.023069752141165,10.599435896645486,238.61547915433633,237.65056929463196,0.0
0.061,2.7035077424703737,-1.2645159364820868,2.6231880773615415,0.0,12.00721619285371,10.731276155355408,240.69099179888377,237.65056929463196,0.0
0.062,2.803027064164684,-1.287557295733455,1.5550275300453014,0.0,12.008608332269734,10.722393407003194,234.48154005786432,237.65056929463196,0.0
0.063,2.841781982326015,-1.2375275733725093,4.691443692922703,0.0,12.003239299856727,11.06695768303668,238.121680703772,237.65056929463196,0.0
0.064,3.048412242160983,-1.265966495677711,2.8666622558774635,0.0,12.036492176965544,11.122096729121527,234.1526080775255,237.65056929463196,0.0
0.065,3.1443942344357727,-1.2461527467397522,4.886178181171771,0.0,12.069469769365735,11.406950007909725,235.99862278962678,237.65056929463196,0.0
0.066,3.348971759304604,-1.2371444949992871,3.97969029017119,0.0,12.12684216020266,11.525163182983288,233.64035079111247,237.65056929463196,0.0
0.067,3.473166257461945,-1.224230872470311,5.198928474463541,0.0,12.188968213502463,11.768857739266736,233.5356551062044,237.65056929463196,0.0
0.068,3.6769222150803507,-1.1814149085049397,5.292425458801857,0.0,12.264670497289732,11.971316521329658,232.32181656798096,237.65056929463196,0.0
0.069,3.848360094905967,-1.1765379766698643,5.952632255180081,0.0,12.35294012804236,12.215966824118606,232.71468780575634,237.65056929463196,0.0
0.07,4.073560674836798,-1.126852758843223,5.805555451181146,0.0,12.45143122135604,12.399140858306117,228.20948538373335,237.65056929463196,0.0
0.07100000000000001,4.250051939149149,-1.1021025205818646,8.152567501301627,0.0,12.556164934726617,12.816326658684439,232.609384189054,237.65056929463196,0.0
0.07200000000000001,4.566290700574607,-1.1021837476556666,6.003029949697083,0.0,12.692400294158706,12.909326648070602,227.24382167628966,237.65056929463196,0.0
0.073,4.750186532699308,-1.0232968123938453,8.789878682262678,0.0,12.81563374143666,13.317632756640156,228.18509095991976,237.65056929463196,0.0
0.074,5.049246009586847,-1.0323671163768948,8.413898823794746,0.0,12.96916105763453,13.597147743187044,230.21073011027838,237.65056929463196,0.0
0.075,5.33811249338133,-0.9965781662529897,7.4754776404589744,0.0,13.131259653313842,13.73581271266825,227.3655322239105,237.65056929463196,0.0
0.076,5.551887101030142,-0.9039104115984035,9.000926954350131,0.0,13.281179322862581,14.033378139127233,221.34063205070248,237.65056929463196,0.0
0.077,5.817264008805598,-0.8657047792436585,10.0,0.0,13.442587626089864,14.383768817998956,223.2165773470524,237.65056929463196,0.0
0.078,6.1406095443499815,-0.8453768683174516,10.0,0.0,13.621040153003257,14.672356289017602,234.13470416267074,237.65056929463196,0.0
0.079,6.36088772114511,-0.960321523037322,5.888623116808311,0.0,13.823353365455617,14.47668166438262,242.12221497724676,237.65056929463196,0.0
0.08,6.276344785908132,-0.9797141068351507,1.8501512526941575,0.0,13.986851531869812,13.929190191879751,241.20336826132214,237.65056929463196,0.0
0.081,5.89249437346797,-0.894725465339127,2.274046620989564,0.0,14.069708057989759,13.581189008438274,242.67775167698431,237.65056929463196,0.0
0.082,5.522163168147858,-0.8588307882538276,1.4865830893349532,0.0,14.106380285089141,13.22231158224879,245.17281815058624,237.65056929463196,0.0
0.083,5.1664787240167325,-0.8333053106254642,0.16382736397444875,0.0,14.10104869109137,12.800782603716298,246.90915277967017,237.65056929463196,0.0
0.084,4.788315944204805,-0.8022674535212874,-0.7969257854178968,0.0,14.05093844913495,12.366459135795733,247.74933502335097,237.65056929463196,0.0
0.085,4.402652541996166,-0.7739433822613342,-1.318004564545487,0.0,13.959601615314565,11.961487202706298,248.10800124097713,237.65056929463196,0.0
0.08600000000000001,4.040005722110182,-0.7560458908276266,-1.6019119928220218,0.0,13.835215788222158,11.597894266389998,248.03949013270085,237.65056929463196,0.0
0.08700000000000001,3.714850797990369,-0.7537875846527952,-1.6715456470645687,0.0,13.686839811442479,11.285541986766496,247.7659995983087,237.65056929463196,0.0
0.088,3.4361315192017714,-0.7683864192521289,-1.6359546829052598,0.0,13.523694659246086,11.02160625145287,247.4148697296102,237.65056929463196,0.0
0.089,3.20306030122746,-0.7977665219838843,-1.5580327529057882,0.0,13.35355627169247,10.798815718298602,246.8378033056191,237.65056929463196,0.0
0.09,3.0098746225899173,-0.8371190413645936,-1.3613718810201179,0.0,13.182187645683346,10.621063588782219,246.2627519124606,237.65056929463196,0.0
0.091,2.8554185333550786,-0.8847323692358575,-1.1599680106191528,0.0,13.015024610195534,10.479195939671268,245.5289153863671,237.65056929463196,0.0
0.092,2.7328801892458925,-0.936982719115866,-0.8718332084897478,0.0,12.855662518553494,10.376414198412515,244.89018498128908,237.65056929463196,0.0
0.093,2.6417497697308248,-0.9915047762086918,-0.6248641628173148,0.0,12.707433384731193,10.301058631823677,244.24536158720912,237.65056929463196,0.0
0.094,2.5740453163567536,-1.0453178185255847,-0.3684003887031042,0.0,12.571865821716168,10.250693218883322,243.78476475841777,237.65056929463196,0.0
0.095,2.526573169220904,-1.0948961141097953,-0.19944392894528606,0.0,12.449733955799704,10.212373055418922,243.48473264263853,237.65056929463196,0.0
0.096,2.4910617445198637,-1.1360612886348944,-0.10776950453573608,0.0,12.34001564637037,10.177497879042551,242.2388595740307,237.65056929463196,0.0
0.097,2.459150308362018,-1.1681907404278922,0.46928412697419475,0.0,12.240904238198306,10.200852688313228,241.0173633817492,237.65056929463196,0.0
0.098,2.461583620737108,-1.2011399270143623,1.0463642822437755,0.0,12.157342567777096,10.269082377881343,240.211265924747,237.65056929463196,0.0
0.099,2.499063960524605,-1.236584487429411,1.4238060444437157,0.0,12.092529443134616,10.353782219486959,239.91917742631043,237.65056929463196,0.0
0.1,2.556338229360832,-1.2661529676773302,1.5471642123452236,0.0,12.045565702340063,10.42740037914082,242.13826789569933,237.65056929463196,0.0
0.101,2.6085044453678288,-1.2890610138207865,0.39274199164009893,0.0,12.012884351863653,10.355574781720845,237.14159512308163,237.65056929463196,0.0
0.10200000000000001,2.584975806687425,-1.2554203088171598,2.896168119664452,0.0,11.97235901868105,10.577694517699877,238.17662442421386,237.65056929463196,0.0
0.10300000000000001,2.7070815186419344,-1.2656575388506326,2.37339291780252,0.0,11.959560694768332,10.677343298575888,238.82660828434686,237.65056929463196,0.0
0.10400000000000001,2.7901757468204123,-1.2820191441827964,2.036640597838868,0.0,11.959704485620689,10.726013057815555,233.33746613925337,237.65056929463196,0.0
0.105,2.857002542659797,-1.2415238137850673,4.824342701939402,0.0,11.960082770914703,11.073324969606642,237.84959574270428,237.65056929463196,0.0
0.106,3.0702239934947166,-1.2779157881234138,2.5662876357332207,0.0,11.999562489339626,11.08689434879089,233.0293994124428,237.65056929463196,0.0
0.107,3.146981560601666,-1.2445641925709714,5.022597499685846,0.0,12.032418578586322,11.389518279722632,235.61009664234635,237.65056929463196,0.0
0.108,3.3519507519022724,-1.2398819693618806,3.7526536112569344,0.0,12.092069923404052,11.479129464747176,231.81410759938342,237.65056929463196,0.0
0.109,3.4646783058070976,-1.2135544061817258,5.709012749690885,0.0,12.15186804252474,11.783293270846535,234.2638772386982,237.65056929463196,0.0
0.11,3.692091433627788,-1.1915566223616243,4.5179948505928325,0.0,12.233946249754878,11.888556779441672,229.2965268971698,237.65056929463196,0.0
0.111,3.823250874116915,-1.1583603662324649,7.085210445331655,0.0,12.314911376785513,12.273652245136963,233.6184179076262,237.65056929463196,0.0
0.112,4.102837353304583,-1.1522184696620055,4.964586453973514,0.0,12.425945891621152,12.339950963663249,226.95805739115133,237.65056929463196,0.0
0.113,4.247315426315479,-1.084102429083425,8.401691831245753,0.0,12.525075481327919,12.796914369994683,231.61712701675623,237.65056929463196,0.0
0.114,4.558799232707138,-1.1075559091888418,6.1324914412220615,0.0,12.663249495914533,12.901292860015346,228.55061491128438,237.65056929463196,0.0
0.115,4.757709758309185,-1.0215741436305095,7.75674703779146,0.0,12.788351429032076,13.19164570226316,225.03480631559327,237.65056929463196,0.0
0.116,4.993124097801902,-1.0043997238712004,9.640808965427402,0.0,12.928949084544715,13.632571237584035,228.93413122938932,237.65056929463196,0.0
0.117,5.346889239745382,-1.0108178316578804,7.778310889181803,0.0,13.100457264092299,13.78318855504185,229.15135986945845,237.65056929463196,0.0
0.11800000000000001,5.587637415671791,-0.9331060618602589,7.7546886633989764,0.0,13.261263881675305,13.928976846702524,223.99023829867826,237.65056929463196,0.0
0.11900000000000001,5.788229004877788,-0.8387780114856751,10.0,0.0,13.410969698822852,14.303829847185979,221.52779621564426,237.65056929463196,0.0
0.12,6.098420765072316,-0.8187736411422777,10.0,0.0,13.581933034069953,14.601599838240482,232.12301493898664,237.65056929463196,0.0
0.121,6.316809185402571,-0.9453101442552883,6.575433368248164,0.0,13.77969609394367,14.489066025587173,241.54246468233026,237.65056929463196,0.0
0.122,6.276603371344003,-0.9944278203425476,1.826789542699371,0.0,13.95056704590315,13.926063269443455,241.46932718435156,237.65056929463196,0.0
0.123,5.903448755627285,-0.9039860294809603,1.8251707127915284,0.0,14.037610853296654,13.524401200663934,242.0522675247692,237.65056929463196,0.0
0.124,5.505540228263633,-0.8519268752215894,1.4896835602813305,0.0,14.070961984012948,13.174760712877513,244.25617532822105,237.65056929463196,0.0
0.125,5.1447198799861855,-0.826290608360885,0.32167359821951935,0.0,14.063714555066891,12.774004315676546,246.1933769609573,237.65056929463196,0.0
0.126,4.777960041607932,-0.7988249332062798,-0.7323552948118572,0.0,14.014351367696936,12.345071115427075,247.09372013549952,237.65056929463196,0.0
0.127,4.398748469211877,-0.7734533258630446,-1.2769583904916475,0.0,13.924514958982822,11.94277453945087,247.47776060068924,237.65056929463196,0.0
0.128,4.039816419129271,-0.75628931494505,-1.5672505361470765,0.0,13.801798208414954,11.580928284920702,247.4271130729889,237.65056929463196,0.0
0.129,3.716528653893335,-0.7543463752961646,-1.6396922100804785,0.0,13.65512642419865,11.269901651785771,247.18509658394314,237.65056929463196,0.0
0.13,3.438924189526292,-0.7688252077386628,-1.6140292384507067,0.0,13.493631256055654,11.006161460589325,246.82595311881084,237.65056929463196,0.0
0.131,3.206038958857565,-0.7978014900035728,-1.5262113441263496,0.0,13.324954188332027,10.784890441087498,246.27817066829024,237.65056929463196,0.0
0.132,3.0134961199789916,-0.8370813040852421,-1.3385961326026323,0.0,13.155048742156918,10.60748917105781,245.72920672114,237.65056929463196,0.0
0.133,2.859158897475693,-0.8845303602197294,-1.1449005332925921,0.0,12.989220311630321,10.465319513309025,245.01141756427913,237.65056929463196,0.0
0.134,2.736257251912903,-0.9364180625309215,-0.8596144375586263,0.0,12.8309909150744,10.36220430160697,244.38453268770428,237.65056929463196,0.0
0.135,2.6445648827945734,-0.990676489671663,-0.6135116332019255,0.0,12.683722486966232,10.28665326308881,243.75221681585597,237.65056929463196,0.0
0.136,2.576358215725053,-1.0443275619455334,-0.35837017249001235,0.0,12.548984831495778,10.23612082793286,243.29993940549997,237.65056929463196,0.0
0.137,2.528401908500196,-1.0939016798341599,-0.18872516842069054,0.0,12.427584340301793,10.197870533710006,243.04852407328656,237.65056929463196,0.0
0.138,2.492588578920815,-1.1351476304934796,-0.11699705010053041,0.0,12.318540182198554,10.160958765946045,241.80553897816708,237.65056929463196,0.0
