timestamp,iq,id,iq_ref,id_ref,vq,vd,omega,omega_ref,r
0.0,0.0,0.0,0.0,0.0,0.0,0.0,0.0,129.8642227816515,0.0
0.001,0.0,0.0,10.0,0.0,0.0,1.0999999999999999,4.2721544677347545,129.8642227816515,0.0
0.002,0.7164953362844833,-0.4092103645007701,10.0,0.0,0.15501314009508477,1.9111855130087068,8.385552311178238,129.8642227816515,0.0
0.003,1.5007259525654986,-0.8556916811884301,10.0,0.0,0.4206643586721666,2.5776533742979835,12.693541759287747,129.8642227816515,0.0
0.004,2.178375384143705,-1.2407144585583127,10.0,0.0,0.7642849338642783,3.13734044000525,17.091473832221116,129.8642227816515,0.0
0.005,2.7100673654585647,-1.5420334215116436,10.0,0.0,1.1588070162590733,3.6237112330321475,21.579526109725293,129.8642227816515,0.0
0.006,3.110911652929234,-1.7673629112511844,10.0,0.0,1.5842870239588944,4.06212120318721,26.07586947528817,129.8642227816515,0.0
0.007,3.4108629142311155,-1.9348346531407743,10.0,0.0,2.0272286246146995,4.470251981228248,30.54271564599945,129.8642227816515,0.0
0.008,3.639534515879069,-2.0619122266556906,10.0,0.0,2.4789929586767725,4.859709477962507,35.04750103192967,129.8642227816515,0.0
0.009000000000000001,3.8212943204027456,-2.161279396459545,10.0,0.0,2.934186221949339,5.237690795948421,39.51389205376055,129.8642227816515,0.0
0.01,3.9728393623078637,-2.2434004724814978,10.0,0.0,3.389697937357617,5.608540951898676,43.89262721391838,129.8642227816515,0.0
0.011,4.105111417943011,-2.315671862497499,10.0,0.0,3.8438721389616326,5.974822788093918,48.316696438499264,129.8642227816515,0.0
0.012,4.226639005766626,-2.380051197155205,10.0,0.0,4.2956161169369595,6.337848546725791,52.66835769485684,129.8642227816515,0.0
0.013000000000000001,4.341049635220731,-2.4403702745700215,10.0,0.0,4.744479578146991,6.698376233930292,57.001411403772714,129.8642227816515,0.0
0.014,4.451216292386192,-2.4975354929785625,10.0,0.0,5.190194445207262,7.056763272541687,61.312348151663194,129.8642227816515,0.0
0.015,4.558545042552693,-2.5523705358572086,10.0,0.0,5.632636731955213,7.413178598051309,65.57741817946435,129.8642227816515,0.0
0.016,4.663845839777764,-2.6051963290901052,10.0,0.0,6.071738809406162,7.767686819491674,69.76915959142212,129.8642227816515,0.0
0.017,4.768224389365608,-2.654976215178849,10.0,0.0,6.507329030793484,8.12022579405068,73.8909997493043,129.8642227816515,0.0
0.018000000000000002,4.871523984984817,-2.702370433228745,10.0,0.0,6.939329692622577,8.470750723270289,77.94413674840646,129.8642227816515,0.0
0.019,4.973856219737075,-2.7473625392257306,10.0,0.0,7.36765797066989,8.819199675884287,81.91442800743917,129.8642227816515,0.0
0.02,5.075113322607801,-2.790212654897899,10.0,0.0,7.79226190783784,9.165521602073358,85.88382048515076,129.8642227816515,0.0
0.021,5.176667741408438,-2.828647028299306,10.0,0.0,8.212836923825336,9.509513314320955,89.71734825372691,129.8642227816515,0.0
0.022,5.278283694706526,-2.863117457118422,10.0,0.0,8.629161012874935,9.851001146267764,93.46195744733252,129.8642227816515,0.0
0.023,5.380175840466496,-2.8933495689826447,10.0,0.0,9.040982304231123,10.189780627424229,97.1156945244478,129.8642227816515,0.0
0.024,5.482685351145255,-2.9188829121102935,10.0,0.0,9.44800576119274,10.52560716488361,100.73578370765685,129.8642227816515,0.0
0.025,5.587309992985665,-2.9373424886890853,10.0,0.0,9.849684746196525,10.85806977879755,104.12382180014657,129.8642227816515,0.0
0.026000000000000002,5.692714649135407,-2.9511316178306215,10.0,0.0,10.2457743025311,11.186905764062406,107.30652348624801,129.8642227816515,0.0
0.027,5.799107584524424,-2.9601231071800824,10.0,0.0,10.635989674295738,11.511817930102946,110.60730131627916,129.8642227816515,0.0
0.028,5.908737461979558,-2.9607966719094714,10.0,0.0,11.019658902714696,11.832265059549718,113.45917052043555,129.8642227816515,0.0
0.029,6.019655003845786,-2.9566418273227906,10.0,0.0,11.396542152684614,12.147929768062971,116.2884612045622,129.8642227816515,0.0
0.03,6.1339702941535865,-2.9444664845266684,10.0,0.0,11.766005809247154,12.458250824206697,118.82507586382849,129.8642227816515,0.0
0.031,6.25049037266463,-2.926539541272887,9.89254079005715,0.0,12.127704995437858,12.750991571565457,121.8385471923929,129.8642227816515,0.0
0.032,6.366318610818263,-2.8911709533146532,8.466061881667535,0.0,12.478797062502501,12.883214169572193,123.61409549228709,129.8642227816515,0.0
0.033,6.3834473172793,-2.7931399446571126,7.64078900461408,0.0,12.797572457588604,12.960082611763557,125.14297927364021,129.8642227816515,0.0
0.034,6.337963057646358,-2.6515754079942324,6.923559549017634,0.0,13.077565368438897,12.995673793523553,124.89507890348882,129.8642227816515,0.0
0.035,6.2545609371706705,-2.486409624520567,7.097201172874954,0.0,13.316365515564684,13.090697412028844,126.23329796734782,129.8642227816515,0.0
0.036000000000000004,6.214855515411816,-2.3348779183857626,6.464400889088489,0.0,13.525771179988329,13.132287811129821,127.28664957044299,129.8642227816515,0.0
0.037,6.17217013883587,-2.179074287251529,5.9635008196529915,0.0,13.702772235516289,13.14618706916879,126.98865815914688,129.8642227816515,0.0
0.038,6.127463718277207,-2.0153940116670075,6.141252171526093,0.0,13.847016317292391,13.205449008852742,127.4301934775456,129.8642227816515,0.0
0.039,6.125092941348023,-1.873697357839719,5.944824805367792,0.0,13.968812355694128,13.249638360206394,128.70305402458717,129.8642227816515,0.0
0.04,6.135936607691327,-1.75260779593919,5.320006219417648,0.0,14.070944840120271,13.233606098404866,129.47927070288998,129.8642227816515,0.0
0.041,6.1310305977306925,-1.6120768614200758,4.935747401053862,0.0,14.147013342745545,13.194018124824696,128.70939069966144,129.8642227816515,0.0
0.042,6.104583243860666,-1.4804949758293766,5.332235723488031,0.0,14.198447499680487,13.216312251342556,125.13108552414417,129.8642227816515,0.0
0.043000000000000003,6.131232682015147,-1.3631000261369155,7.168719683821741,0.0,14.235370027963462,13.4363728215788,124.532024163855,129.8642227816515,0.0
0.044,6.323441007817034,-1.3137389591695916,7.52157235014429,0.0,14.28635059257228,13.637692119855195,126.4353049826583,129.8642227816515,0.0
0.045,6.564105134746617,-1.2984061682472787,6.604221118732575,0.0,14.351172034216077,13.694989411942089,125.52656309149668,129.8642227816515,0.0
0.046,6.718389031840854,-1.263145550672356,7.101968661214928,0.0,14.411515720880166,13.802400273560776,122.64400687544027,129.8642227816515,0.0
0.047,6.892369112246293,-1.203286873001228,8.615448928305248,0.0,14.470334276671636,14.049014801765455,125.17794689348106,129.8642227816515,0.0
0.048,7.160442110526127,-1.1943082205812914,7.395341678166554,0.0,14.547543364714947,14.099754903535935,123.49879593687776,129.8642227816515,0.0
0.049,7.326177348573395,-1.154191693993683,8.298571424915945,0.0,14.617782522730542,14.249148102375113,122.96057279879388,129.8642227816515,0.0
0.05,7.541110002810126,-1.0953412502854944,8.636719493786462,0.0,14.689864701286464,14.396804647654623,123.47176791011755,129.8642227816515,0.0
0.051000000000000004,7.751420590192155,-1.0715913499878758,8.445046486839964,0.0,14.767480331919089,14.491453406739302,121.44766426770344,129.8642227816515,0.0
0.052000000000000005,7.94956164281593,-1.003156982865371,9.541263893186496,0.0,14.83950899401642,14.687207087831563,123.10694346270631,129.8642227816515,0.0
0.053,8.187512341187263,-0.9943825566218027,8.779197088874515,0.0,14.923629314797676,14.751605578191935,121.3097067442885,129.8642227816515,0.0
0.054,8.384097195888598,-0.9136632151366184,9.763360608457049,0.0,14.996986069235916,14.914610079758168,119.92308667611492,129.8642227816515,0.0
0.055,8.603294712134428,-0.8893828365025631,10.0,0.0,15.077443950152055,15.062692626245473,124.44311369356097,129.8642227816515,0.0
0.056,8.785537882399268,-0.945585309455486,8.339157945685102,0.0,15.171089373436473,15.001098912718913,122.80413306570932,129.8642227816515,0.0
0.057,8.790835137739935,-0.9888759638411835,9.229249156770349,0.0,15.253410830292697,15.070787300251162,127.39880870246292,129.8642227816515,0.0
0.058,8.799478106779256,-1.0905590327269552,6.956565479185438,0.0,15.345221211250092,14.881945124029686,125.99590727403918,129.8642227816515,0.0
0.059000000000000004,8.651479398617141,-1.0957796617161812,7.696699348473428,0.0,15.408523774989561,14.841676053511856,131.12933945268685,129.8642227816515,0.0
0.06,8.5216767660052,-1.1518503769203576,5.117332092439241,0.0,15.467584747685873,14.533430712068814,127.55863088089637,129.8642227816515,0.0
0.061,8.233726380558561,-1.11823707451419,6.92574229734203,0.0,15.485656918551522,14.517011313212357,132.43882607579627,129.8642227816515,0.0
0.062,8.084416406174228,-1.1528555947363852,4.459898666950634,0.0,15.504424102693465,14.228258763263842,130.84134961097215,129.8642227816515,0.0
0.063,7.793449975950635,-1.1566459706791643,5.248865631069491,0.0,15.492510069577849,14.112216196662114,130.99210468151801,129.8642227816515,0.0
0.064,7.588408874315009,-1.1710241897041112,5.162209276797892,0.0,15.471726883446937,14.008809471675617,134.14680106204185,129.8642227816515,0.0
0.065,7.4171791695357,-1.2189385822246392,3.5420353037320726,0.0,15.447808144417476,13.753097383589525,133.38471405866866,129.8642227816515,0.0
0.066,7.153765220668344,-1.2374611165228657,3.887873892648492,0.0,15.402268405329949,13.602071852248171,132.9957508514855,129.8642227816515,0.0
0.067,6.935892220810218,-1.2650852765165563,4.051040215541736,0.0,15.34903351927336,13.497416700257013,133.35895454725625,129.8642227816515,0.0
0.068,6.766892633016471,-1.3181692629094073,3.834491050000313,0.0,15.296219603526593,13.388862728079554,133.78722290151808,129.8642227816515,0.0
0.069,6.614136398731289,-1.3807012502504095,3.5811268716707314,0.0,15.244179360880345,13.275291383477763,134.29926863892896,129.8642227816515,0.0
0.07,6.46418996266298,-1.4421582987307335,3.280753544392514,0.0,15.192120963497963,13.152332270478874,135.00566773767557,129.8642227816515,0.0
0.07100000000000001,6.306887741315174,-1.4995865413682345,2.8761395454589724,0.0,15.13867503075925,13.010763202419302,135.9468440589095,129.8642227816515,0.0
0.07200000000000001,6.13292762283447,-1.5474975657472707,2.344725172069422,0.0,15.081112714743771,12.841159597627705,136.6669651497936,129.8642227816515,0.0
0.073,5.935556056110951,-1.5762183594826888,1.9166372029459477,0.0,15.015026446917789,12.660955859998811,137.22467223634712,129.8642227816515,0.0
0.074,5.722228758577245,-1.5937204146958357,1.5641791651222388,0.0,14.939166450247608,12.479166651942313,137.3125360616079,129.8642227816515,0.0
0.075,5.504152779059739,-1.6045036531701637,1.4457641196922895,0.0,14.853724668118838,12.320324375176966,137.30023917840495,129.8642227816515,0.0
0.076,5.302150571634409,-1.6198528774695429,1.3775523973262231,0.0,14.762523418814595,12.182542491890928,137.21295255277494,129.8642227816515,0.0
0.077,5.123079179365076,-1.642681331752828,1.3477084124299967,0.0,14.669021743840347,12.06449578196352,137.09524861284973,129.8642227816515,0.0
0.078,4.967904215922498,-1.6730072229496333,1.3342501240806177,0.0,14.576173128859594,11.963000135717945,136.98144096927666,129.8642227816515,0.0
0.079,4.833951855828303,-1.7090623126871505,1.3199817639908993,0.0,14.486122611711522,11.874117265848419,136.83397604650523,129.8642227816515,0.0
0.08,4.716766088126819,-1.748188341960573,1.3240166927280796,0.0,14.400132171613997,11.797255067859235,136.67069659145372,129.8642227816515,0.0
0.081,4.6136559828604975,-1.7887112470787747,1.3375916821558116,0.0,14.319120814997586,11.731103199111185,136.48947591817787,129.8642227816515,0.0
0.082,4.522307572165305,-1.8292918840022767,1.361949487428471,0.0,14.243654048178406,11.67502621438582,136.29099815053658,129.8642227816515,0.0
0.083,4.441145211129345,-1.8690622242630885,1.3969206175602666,0.0,14.174095190628066,11.62862787331985,136.07492278862816,129.8642227816515,0.0
0.084,4.369144694929551,-1.907497338991035,1.4428512984447117,0.0,14.110682543943623,11.591724577373029,135.85686474744458,129.8642227816515,0.0
0.085,4.305711271674221,-1.9443216077070837,1.4919538993785721,0.0,14.05358715074444,11.563369997042415,135.76357040050513,129.8642227816515,0.0
0.08600000000000001,4.24817852808827,-1.9822663774211529,1.4796075966597577,0.0,14.00317152081349,11.535986483678437,135.77485034902597,129.8642227816515,0.0
0.08700000000000001,4.194927907647174,-2.0117536720168894,1.4148613467255942,0.0,13.957923257247632,11.504583375004852,135.88193811221865,129.8642227816515,0.0
0.088,4.141064429666099,-2.029885748952238,1.3011403118235823,0.0,13.91575916468793,11.465326375875671,135.64115813980902,129.8642227816515,0.0
0.089,4.0810339713770345,-2.0377353451476443,1.3637609444468204,0.0,13.874567916283418,11.439868862972995,135.19123877060787,129.8642227816515,0.0
0.09,4.028307029260916,-2.0426862855063885,1.5354504691578343,0.0,13.835416148906603,11.436297276962003,134.48936141998368,129.8642227816515,0.0
0.091,3.992934928909266,-2.05208267361672,1.8401377580866054,0.0,13.80080649295492,11.464330040967,134.00016788533344,129.8642227816515,0.0
0.092,3.9832794621179715,-2.0746840788396272,2.0433750743749073,0.0,13.774853269692318,11.50611617522228,134.8420592398667,129.8642227816515,0.0
0.093,3.9936150928632816,-2.100503954389403,1.5726510325261245,0.0,13.758288154439754,11.486082881909626,136.87321301799608,129.8642227816515,0.0
0.094,3.9758564780689047,-2.0913535460261885,0.48698424109798966,0.0,13.740111477705723,11.35373710369921,135.05953187658127,129.8642227816515,0.0
0.095,3.8765507680459117,-2.0219797614812722,1.3418717208560942,0.0,13.70297827860775,11.34844856827869,133.35281444077967,129.8642227816515,0.0
0.096,3.8277757169382944,-1.983151110318302,2.160344522165616,0.0,13.665452132095044,11.425830898358502,132.2306460976283,129.8642227816515,0.0
0.097,3.8535133287901284,-1.9908115323478914,2.697764460581534,0.0,13.640647766176476,11.539334958176934,132.7994409606325,129.8642227816515,0.0
0.098,3.933930485649281,-2.023757253310559,2.384014847289624,0.0,13.633221667917205,11.590533007439415,134.78116242144984,129.8642227816515,0.0
0.099,3.994379029872378,-2.0370451449209543,1.343984720482971,0.0,13.632790195277623,11.518757655837952,134.88482668178952,129.8642227816515,0.0
0.1,3.979604533598489,-1.9707762819845607,1.2419465513117482,0.0,13.61780188090275,11.455522474824276,132.52892527130015,129.8642227816515,0.0
0.101,3.932234789579175,-1.8959528273370652,2.3932502316599447,0.0,13.590420988482133,11.529838693883878,130.1859140229611,129.8642227816515,0.0
0.10200000000000001,3.9717014280354284,-1.8592065622678167,3.5615389434163753,0.0,13.569915952598395,11.706168895614798,130.10633486755006,129.8642227816515,0.0
0.10300000000000001,4.102542727724226,-1.8923026688926994,3.5989074002629096,0.0,13.573102474855553,11.8412453401386,129.73883003345748,129.8642227816515,0.0
0.10400000000000001,4.244056968777245,-1.9268678938984385,3.7839137447911426,0.0,13.592949203023757,11.968851652246435,130.9687480084322,129.8642227816515,0.0
0.105,4.390151113786971,-1.9387750192536826,3.1579095050359802,0.0,13.624536021124948,12.000316262601423,132.644976638999,129.8642227816515,0.0
0.106,4.463716295381915,-1.9189716839984472,2.2919876511790997,0.0,13.653813180319887,11.936170503678973,131.78597876800035,129.8642227816515,0.0
0.107,4.464237938252043,-1.8223257280559202,2.702269026814936,0.0,13.663315025901962,11.935835477527016,131.95654559609451,129.8642227816515,0.0
0.108,4.473582125077486,-1.7352468624943276,2.5960623846234228,0.0,13.663220968658287,11.919675950028932,129.5782662449828,129.8642227816515,0.0
0.109,4.482148890343499,-1.6490993736598571,3.78806162554596,0.0,13.65291492927299,12.036456050168677,129.3035690552214,129.8642227816515,0.0
0.11,4.582175840888247,-1.6124562797748594,3.9310167576909665,0.0,13.652148238401196,12.133415311575384,129.37790982472129,129.8642227816515,0.0
0.111,4.70841445198798,-1.5867169810826218,3.8987095025103273,0.0,13.658689250839956,12.202732650647391,129.2784812051187,129.8642227816515,0.0
0.112,4.827295833606554,-1.5542314900493284,3.954281228076944,0.0,13.668191884915299,12.26039375355317,127.19596017556111,129.8642227816515,0.0
0.113,4.935646217230358,-1.51485449188815,5.022224368916646,0.0,13.678503750986291,12.419427309430175,126.08934475549886,129.8642227816515,0.0
0.114,5.107216791756162,-1.5066662430734477,5.613280859209301,0.0,13.703180848649877,12.600136219488768,124.20923108110404,129.8642227816515,0.0
0.115,5.312520180529179,-1.5233232474582095,6.609887613412186,0.0,13.745375280523433,12.848090459347475,123.57088310153927,129.8642227816515,0.0
0.116,5.588872409922964,-1.541198249839813,6.9919949999956925,0.0,13.809945373413637,13.079188752044239,125.11727694586142,129.8642227816515,0.0
0.117,5.870054566620104,-1.5621777413346438,6.266267536192517,0.0,13.893297280325108,13.181816614933421,125.94819097930744,129.8642227816515,0.0
0.11800000000000001,6.065695694665028,-1.534121320056772,5.889970837492947,0.0,13.975280781578839,13.229672817487932,126.38310636697582,129.8642227816515,0.0
0.11900000000000001,6.182593511289066,-1.4800623466968503,5.7073243078055125,0.0,14.048185630105833,13.25371125008555,125.56955240420173,129.8642227816515,0.0
0.12,6.2575227645703695,-1.4052050795977138,6.157047992967057,0.0,14.10851012739259,13.326859155246055,122.44852983612893,129.8642227816515,0.0
0.121,6.369478581284503,-1.3141118795138327,7.791716206458685,0.0,14.160845286128481,13.562475138945896,124.2496154862293,129.8642227816515,0.0
0.122,6.59981993755866,-1.2881310673192012,6.947319454362718,0.0,14.22956157002019,13.64631472426086,124.72328948521654,129.8642227816515,0.0
0.123,6.767543060570034,-1.2536722027190723,6.7618917878334495,0.0,14.296259517070169,13.700542773667733,120.88593011203542,129.8642227816515,0.0
0.124,6.901618203563555,-1.1894990850684877,8.770354401120168,0.0,14.35499602006026,13.965731942466565,123.38140640484912,129.8642227816515,0.0
0.125,7.174303407457374,-1.169531455158237,7.587444418481346,0.0,14.432823081517618,14.031416499463008,122.54932179111026,129.8642227816515,0.0
0.126,7.348301227794759,-1.1355534117427728,8.076635735256186,0.0,14.505897984052279,14.147542543378984,121.09514440103725,129.8642227816515,0.0
0.127,7.542746406265622,-1.0699475510621546,8.891415214098837,0.0,14.576401136484359,14.324448311233352,123.25247581784913,129.8642227816515,0.0
0.128,7.763333638869665,-1.055149329747311,7.878866975330918,0.0,14.656572804720836,14.348865572690856,119.62096384075498,129.8642227816515,0.0
0.129,7.918493616882517,-0.9669448319813357,9.797055553286956,0.0,14.721614519738315,14.585122775533732,121.462789689632,129.8642227816515,0.0
0.13,8.168877020483288,-0.9620009064804449,8.960156959768641,0.0,14.804115996710893,14.667027123911534,120.06845367829305,129.8642227816515,0.0
0.131,8.3790340423312,-0.8961786990034764,9.755282656471701,0.0,14.879366757256538,14.824210559354071,120.03967883196562,129.8642227816515,0.0
0.132,8.593715854636988,-0.8863691277679213,9.867915519132278,0.0,14.962389954530725,14.956125656097397,123.63207876475536,129.8642227816515,0.0
0.133,8.749878564911304,-0.9622099361881324,8.134036992906367,0.0,15.058742926390407,14.876267516375233,122.46437548323958,129.8642227816515,0.0
0.134,8.724817743545037,-1.015907710855264,8.791887106648378,0.0,15.142623134221084,14.908051103038163,127.96385534012308,129.8642227816515,0.0
0.135,8.70456075586392,-1.089848123441532,6.061150852621914,0.0,15.228890147572812,14.640062523168805,124.52078058923026,129.8642227816515,0.0
0.136,8.481542237032608,-1.0757392061213988,7.836122649992536,0.0,15.277440216571348,14.654383230067218,129.87179321711784,129.8642227816515,0.0
0.137,8.371719263023166,-1.124330782740733,5.160540631694081,0.0,15.328053511961205,14.369913475141832,127.03782643248563,129.8642227816515,0.0
0.138,8.099807107351307,-1.1157430635608456,6.605787987501845,0.0,15.343727937443553,14.333497161953618,130.08220189793232,129.8642227816515,0.0
0.139,7.951748548174475,-1.1416862057123283,5.081420463615691,0.0,15.357132911887305,14.133724341399638,130.8968100343639,129.8642227816515,0.0
