timestamp,iq,id,iq_ref,id_ref,vq,vd,omega,omega_ref,r
0.0,0.0,0.0,0.0,0.0,0.0,0.0,0.0,293.99664571987836,0.0
0.001,0.0,0.0,10.0,0.0,0.0,1.0999999999999999,7.038290956046261,293.99664571987836,0.0
0.002,0.5396738846961768,-0.29953536807893627,10.0,0.0,0.142948890488683,1.9306358726834205,15.154313102754482,293.99664571987836,0.0
0.003,1.2078886323930813,-0.6757845510564001,10.0,0.0,0.3930585356435714,2.624396163747669,23.674914550876647,293.99664571987836,0.0
0.004,1.8516165673815366,-1.0388270889776485,10.0,0.0,0.7237054327309584,3.2096634648492204,32.46579790681225,293.99664571987836,0.0
0.005,2.4056314368198057,-1.3505441526002393,10.0,0.0,1.1104728218390343,3.7149643692610326,41.425797608396906,293.99664571987836,0.0
0.006,2.8537299086293726,-1.6014940520522023,10.0,0.0,1.533580880780974,4.164661238937797,50.44584014558288,293.99664571987836,0.0
0.007,3.20390507014852,-1.7966468778503597,10.0,0.0,1.9783051326396743,4.577660944492072,59.484671422038254,293.99664571987836,0.0
0.008,3.4743047641868743,-1.9457361876029866,10.0,0.0,2.434305225682738,4.967590889947763,68.51328254286037,293.99664571987836,0.0
0.009000000000000001,3.6845603473811073,-2.059758577906359,10.0,0.0,2.894749873802911,5.343703732951206,77.48454997058285,293.99664571987836,0.0
0.01,3.8520318075632676,-2.1486379945977094,10.0,0.0,3.3553978533444253,5.711930451678228,86.3843980152504,293.99664571987836,0.0
0.011,3.9902078615900556,-2.2207962604415736,10.0,0.0,3.8138523218804012,6.075874645145574,95.1362375443048,293.99664571987836,0.0
0.012,4.110044466335126,-2.2806701767246977,10.0,0.0,4.26872031104222,6.437469600138094,103.77989865672633,293.99664571987836,0.0
0.013000000000000001,4.218798426220273,-2.3318545454809927,10.0,0.0,4.719292538187468,6.797627289007628,112.30089642033437,293.99664571987836,0.0
0.014,4.321373963964403,-2.3764117221282604,10.0,0.0,5.165212757248783,7.15663066215173,120.6759098674697,293.99664571987836,0.0
0.015,4.421021588422205,-2.415233393015895,10.0,0.0,5.606266103749543,7.514390236574635,128.87186978669178,293.99664571987836,0.0
0.016,4.519508589210651,-2.449049775933397,10.0,0.0,6.0423216584545685,7.870642094363177,136.84637475356587,293.99664571987836,0.0
0.017,4.618724241753475,-2.4767269364672573,10.0,0.0,6.473103167297493,8.22494547007154,144.60029733339294,293.99664571987836,0.0
0.018000000000000002,4.719569790950546,-2.497829095506345,10.0,0.0,6.898281328715924,8.57679580520711,152.09674740475393,293.99664571987836,0.0
0.019,4.822913440384571,-2.5115139444369206,10.0,0.0,7.31742101929804,8.925619577025195,159.32608088194448,293.99664571987836,0.0
0.02,4.929689396830067,-2.5166639753934996,10.0,0.0,7.729958772919671,9.270763022005015,166.25335173300098,293.99664571987836,0.0
0.021,5.04084824292181,-2.5121423030727685,10.0,0.0,8.135208211412275,9.611486184343383,172.80123865888436,293.99664571987836,0.0
0.022,5.155810797924724,-2.4994446770959584,10.0,0.0,8.532653500155211,9.94712768170777,178.7702649337183,293.99664571987836,0.0
0.023,5.276797775674908,-2.4756166134927327,10.0,0.0,8.921424299023709,10.27679061620752,184.35255623690057,293.99664571987836,0.0
0.024,5.40439840780474,-2.440461115079856,10.0,0.0,9.300655487265946,10.599538137387366,189.5634125344239,293.99664571987836,0.0
0.025,5.539473616577236,-2.3934559785334457,10.0,0.0,9.66941929876597,10.914351758629776,194.60991740088127,293.99664571987836,0.0
0.026000000000000002,5.683014071603907,-2.3339184391979373,10.0,0.0,10.026709013278786,11.220121700932737,198.64827412245182,293.99664571987836,0.0
0.027,5.832278985439688,-2.267309696663264,10.0,0.0,10.372115164285162,11.516059884485019,202.4476122232056,293.99664571987836,0.0
0.028,5.9936856553970905,-2.1841467626882984,10.0,0.0,10.704092683234228,11.800682780225749,205.55373727981782,293.99664571987836,0.0
0.029,6.159275871740984,-2.0981409646531057,10.0,0.0,11.022705731418338,12.073440281189056,207.24114881251614,293.99664571987836,0.0
0.03,6.338170596895926,-1.9952881909782363,10.0,0.0,11.326279477756486,12.33276081927084,209.09040575488052,293.99664571987836,0.0
0.031,6.521622883690249,-1.8902133531483014,10.0,0.0,11.614898198844454,12.578115873882439,210.35902836072992,293.99664571987836,0.0
0.032,6.717154370241911,-1.7710977006676094,10.0,0.0,11.887138579890204,12.808123354488933,211.90407861429676,293.99664571987836,0.0
0.033,6.916549617327696,-1.6513596031498499,10.0,0.0,12.143175636689882,13.022375962825432,211.10392806410204,293.99664571987836,0.0
0.034,7.127361351427064,-1.5185206598655205,10.0,0.0,12.381619345857148,13.21961167772818,212.9695315610909,293.99664571987836,0.0
0.035,7.333784365336145,-1.3983758628390115,10.0,0.0,12.604054717357887,13.400369777868367,210.51187908906925,293.99664571987836,0.0
0.036000000000000004,7.561948238954779,-1.246930177814542,10.0,0.0,12.806864784340146,13.56226180918566,207.5169891779873,293.99664571987836,0.0
0.037,7.7726034358294545,-1.128564877476113,10.0,0.0,12.994077321568923,13.707355211149412,219.49315642728408,293.99664571987836,0.0
0.038,7.9071750898756665,-1.1394613815771857,10.0,0.0,13.179460213725703,13.843964196663338,220.80569266833407,293.99664571987836,0.0
0.039,7.990700306683038,-1.2261141059044607,10.0,0.0,13.369388549853182,13.977608515533193,233.60497914072226,293.99664571987836,0.0
0.04,8.042844608796043,-1.351998446544311,10.0,0.0,13.566669234482012,14.111980615064455,235.1062135991648,293.99664571987836,0.0
0.041,8.079775368044155,-1.487202318656926,10.0,0.0,13.771272643127077,14.24910263260932,248.6074033404708,293.99664571987836,0.0
0.042,8.087456734583377,-1.656023229076793,10.0,0.0,13.98634617408718,14.392497146537368,250.4836011721023,293.99664571987836,0.0
0.043000000000000003,8.083491428167521,-1.8288080141899328,10.0,0.0,14.211569920602317,14.543572559539749,264.80937218110984,293.99664571987836,0.0
0.044,8.069120269399871,-2.003489688624043,10.0,0.0,14.446865970102808,14.703603980293698,273.2329157473159,293.99664571987836,0.0
0.045,8.031279956631646,-2.2033747758417044,10.0,0.0,14.694876099578249,14.875180586739129,279.60441939238865,293.99664571987836,0.0
0.046,7.992049185875658,-2.389885145490342,10.0,0.0,14.953760166539855,15.058337527143037,292.56530521407404,293.99664571987836,0.0
0.047,7.934297267344655,-2.5920839693145443,6.069644034589557,0.0,15.225448287769867,14.822688427338411,297.7538018441598,293.99664571987836,0.0
0.048,7.645653774685986,-2.697899250786688,3.437824158303868,0.0,15.456020379620108,14.418749687907079,299.6291223080906,293.99664571987836,0.0
0.049,7.163100299924913,-2.68693815159075,2.44383916045635,0.0,15.620877514615925,14.045436327900662,302.73358165317194,293.99664571987836,0.0
0.05,6.604422807017844,-2.616915388399356,0.8042401285827374,0.0,15.72432470715242,13.612152963339012,305.4011742925676,293.99664571987836,0.0
0.051000000000000004,5.986425416680826,-2.5045841375922366,-0.6436014768419795,0.0,15.762442634022225,13.152069006217193,304.90039508494397,293.99664571987836,0.0
0.052000000000000005,5.348285808104405,-2.349763037932739,-0.5022493666808243,0.0,15.734833364038408,12.835847768706554,303.8683233392019,293.99664571987836,0.0
0.053,4.793113246994682,-2.2033003274229133,-0.08493027000301634,0.0,15.66380021014241,12.647666893117838,302.59946191274526,293.99664571987836,0.0
0.054,4.364849283876983,-2.087759284585685,0.4634722812966272,0.0,15.569807396470148,12.568909189706435,301.10369420840203,293.99664571987836,0.0
0.055,4.071831243824021,-2.0119002661788183,1.140285648583002,0.0,15.47014901222759,12.5855427649321,299.34962676187416,293.99664571987836,0.0
0.056,3.909618534491675,-1.9713123471570635,1.963789561426978,0.0,15.378413743023527,12.689277658576941,297.17303418929555,293.99664571987836,0.0
0.057,3.8701451464562107,-1.9564561540720349,3.0203219630221128,0.0,15.304997188055225,12.884169006574496,295.27169466537646,293.99664571987836,0.0
0.058,3.9460660162346253,-1.9654394597544664,3.9582412355266774,0.0,15.259548148939423,13.136089330679038,294.618615077497,293.99664571987836,0.0
0.059000000000000004,4.116259971202027,-1.984211828847005,4.278561335890221,0.0,15.245811173689006,13.366166610427857,295.2344223556354,293.99664571987836,0.0
0.06,4.329602989982912,-1.9854761832333578,3.9582799304634557,0.0,15.256406979230093,13.511662516559952,296.9742522297982,293.99664571987836,0.0
0.061,4.513495315680128,-1.9678642202362837,3.0585889282828527,0.0,15.278542835356742,13.52981049080846,289.34675092526885,293.99664571987836,0.0
0.062,4.637791677461988,-1.879542863680455,6.918838528493621,0.0,15.2907406737044,13.970147942750742,285.7307040411045,293.99664571987836,0.0
0.063,4.955614415725009,-1.8369441656938241,8.809521387363533,0.0,15.341949830198546,14.503326514216031,291.03405900680156,293.99664571987836,0.0
0.064,5.40862940983863,-1.8573689351722837,6.187469771645775,0.0,15.44402863981231,14.634322215896681,288.4607485679877,293.99664571987836,0.0
0.065,5.730998671852099,-1.811720060637433,7.529483962571606,0.0,15.543773514739136,14.905337836649313,279.10867307371893,293.99664571987836,0.0
0.066,6.0896066307149574,-1.71170331234288,10.0,0.0,15.650100110681494,15.381339822172457,285.0585061131613,293.99664571987836,0.0
0.067,6.55386550134508,-1.6632550659027028,9.42177828379023,0.0,15.789065105956468,15.68458232339948,279.78869621901384,293.99664571987836,0.0
0.068,6.991633635334309,-1.598570929183154,10.0,0.0,15.93782707925188,15.997271773943954,279.2175583103615,293.99664571987836,0.0
0.069,7.450362196229051,-1.4856480399799938,10.0,0.0,16.09120712382706,16.24170379924289,275.90930136119704,293.99664571987836,0.0
0.07,7.858005381098891,-1.3894683568885586,10.0,0.0,16.244241830226585,16.43677716174272,272.8887583183915,293.99664571987836,0.0
0.07100000000000001,8.269138738724266,-1.215566683252956,10.0,0.0,16.383313014967136,16.58649842114243,265.5825019465833,293.99664571987836,0.0
0.07200000000000001,8.623965968102251,-1.069378650873061,10.0,0.0,16.50910754034817,16.70023501142089,273.7921311905296,293.99664571987836,0.0
0.073,8.967455686361493,-0.8924067132610243,10.0,0.0,16.61569123940543,16.78094179849488,274.11882655112356,293.99664571987836,0.0
0.074,9.11310537746653,-0.9983573980013604,10.0,0.0,16.73311154196191,16.85164970792823,286.66689574795697,293.99664571987836,0.0
0.075,9.188084936780648,-1.1729028667697763,9.330597427670586,0.0,16.864001099923204,16.846603319104158,291.00549266121396,293.99664571987836,0.0
0.076,9.176067871629382,-1.3654188562222915,7.191210501628733,0.0,17.000728367358054,16.628583661577093,300.3694687196856,293.99664571987836,0.0
0.077,8.986887403252599,-1.5387406069658556,2.44549424239485,0.0,17.119121174983984,15.966093458160842,300.6927197395374,293.99664571987836,0.0
0.078,8.489787087118714,-1.5679491687694682,2.216907992272362,0.0,17.16090540579665,15.456793461018638,305.2350948861985,293.99664571987836,0.0
0.079,7.897207838860265,-1.5846938660297176,-0.16666407272140393,0.0,17.149131044894418,14.802907536170915,306.37981430083767,293.99664571987836,0.0
0.08,7.195231755051949,-1.548726143807668,-0.8628554658505747,0.0,17.069021631180618,14.231779011859807,307.3549561461213,293.99664571987836,0.0
0.081,6.48577598777761,-1.5086855599307876,-1.4840094927548257,0.0,16.935765519402842,13.719407743142343,307.57162236984357,293.99664571987836,0.0
0.082,5.8148304991196085,-1.4757425079144149,-1.7280923711156069,0.0,16.76137456204807,13.291019859847847,307.1849438008712,293.99664571987836,0.0
0.083,5.218190503655547,-1.4602484422553481,-1.6666360674393639,0.0,16.56020899539699,12.956153635949782,306.3930021283462,293.99664571987836,0.0
0.084,4.71754393779387,-1.4680729438512992,-1.3946287952615357,0.0,16.346688998853367,12.713068436969358,305.27331839114726,293.99664571987836,0.0
0.085,4.321357868890949,-1.4993327711873825,-0.9475536533747482,0.0,16.13357281805706,12.557971953039084,304.0092754181673,293.99664571987836,0.0
0.08600000000000001,4.029361616272638,-1.5520200603513543,-0.41565846386766214,0.0,15.931741610482039,12.47926894594811,302.83444023006933,293.99664571987836,0.0
0.08700000000000001,3.8332341985525966,-1.620949880264632,0.08338118507941505,0.0,15.749278630254242,12.456482581720849,301.37023951768526,293.99664571987836,0.0
0.088,3.7191312353427928,-1.6928604048625029,0.7417456032933814,0.0,15.590004171133131,12.495748297183487,300.32584460255964,293.99664571987836,0.0
0.089,3.6791549330391042,-1.7664262640591708,1.2006510720293786,0.0,15.45795686873605,12.562312316187874,299.15204543416655,293.99664571987836,0.0
0.09,3.6900019095396686,-1.8344702902414687,1.7359966590830416,0.0,15.352519882767202,12.66172123250256,297.13713654600394,293.99664571987836,0.0
0.091,3.7469509013859468,-1.8871310967786739,2.71204619490309,0.0,15.27267973548398,12.836501632320477,295.24808859715,293.99664571987836,0.0
0.092,3.8662066153453676,-1.934991175289781,3.644055740557345,0.0,15.22303964348172,13.066031893474976,294.1952471320756,293.99664571987836,0.0
0.093,4.049785979928425,-1.9722527223041446,4.168490458972562,0.0,15.204936756181601,13.297011669918383,293.3581254025918,293.99664571987836,0.0
0.094,4.2700903173424685,-1.987478066787978,4.593436526887348,0.0,15.213044307678917,13.522185216804202,296.3660957744815,293.99664571987836,0.0
0.095,4.498023551211221,-1.994792453251255,3.0657568403964603,0.0,15.243510787781203,13.5304883256066,290.8232835083504,293.99664571987836,0.0
0.096,4.631669614820106,-1.926969239721783,5.868896595577279,0.0,15.264227233400625,13.852208206815494,286.26266859930934,293.99664571987836,0.0
0.097,4.891036129113384,-1.8681326584776192,8.226543821303508,0.0,15.30925023077743,14.34794368580735,289.2501748396035,293.99664571987836,0.0
0.098,5.2963478831394095,-1.8660497553845719,6.7802554099591665,0.0,15.39970372278795,14.57394909133263,288.53028838495413,293.99664571987836,0.0
0.099,5.6439113149688485,-1.825579143532007,7.194862210633101,0.0,15.499281467877093,14.812290077733032,280.76135634483074,293.99664571987836,0.0
0.1,5.97948548825572,-1.7510733828431297,10.0,0.0,15.604944609540114,15.307736304082665,284.0210429615527,293.99664571987836,0.0
0.101,6.458328213537472,-1.689533485370176,9.657360221178632,0.0,15.743561728556653,15.649145510351499,284.954252139788,293.99664571987836,0.0
0.10200000000000001,6.908273377452712,-1.6456379529343046,9.281179567861885,0.0,15.898244946705208,15.887616493040609,274.3826389871538,293.99664571987836,0.0
0.10300000000000001,7.335052375088978,-1.522564752486527,10.0,0.0,16.04820784458293,16.158094515243192,278.2070829898123,293.99664571987836,0.0
0.10400000000000001,7.745215943011688,-1.4120530109952831,10.0,0.0,16.19929669533357,16.36848261819677,268.2795064046483,293.99664571987836,0.0
0.105,8.150835993182184,-1.2538385796149334,10.0,0.0,16.340017001267583,16.532424226090523,269.76414108135884,293.99664571987836,0.0
0.106,8.513417001524955,-1.1087569746454542,10.0,0.0,16.46868260516473,16.658215993372313,265.7767235463191,293.99664571987836,0.0
0.107,8.878473139158459,-0.9098225499783719,10.0,0.0,16.576628854736654,16.74776477925937,271.1596683228479,293.99664571987836,0.0
0.108,9.071554755659275,-0.9551592718663695,10.0,0.0,16.689711741594444,16.821564895076165,283.7858885734426,293.99664571987836,0.0
0.109,9.16218558203665,-1.1210681264603117,10.0,0.0,16.816662958134586,16.89125471326055,288.6320113800934,293.99664571987836,0.0
0.11,9.208865410611754,-1.3104668991337691,8.1593969779057,0.0,16.95706281128729,16.759975865970656,299.50421430389474,293.99664571987836,0.0
0.111,9.087520920847679,-1.5183397604833018,2.668219830164859,0.0,17.09126682141745,16.08405612485427,299.08850910790505,293.99664571987836,0.0
0.112,8.625061450021809,-1.5525331795589,2.8251537942794362,0.0,17.14614100390778,15.610980363285751,304.6715770493377,293.99664571987836,0.0
0.113,8.06576104577638,-1.5843074547920766,-0.07312948973148714,0.0,17.15137342807711,14.927217544999511,305.3727298975904,293.99664571987836,0.0
0.114,7.366139159405568,-1.545746005315079,-0.537466755634938,0.0,17.083146825806097,14.3616253880079,306.8996503817036,293.99664571987836,0.0
0.115,6.6578549600117904,-1.507648967361266,-1.4299570443098144,0.0,16.961378608382866,13.823154270462748,307.13996518535566,293.99664571987836,0.0
0.116,5.971807157409303,-1.4712519519184282,-1.6815476407906083,0.0,16.794317399628262,13.37598579649599,306.92632515050354,293.99664571987836,0.0
0.117,5.355786251539761,-1.4513458413608646,-1.7040244176707997,0.0,16.597419762345552,13.017773331178049,306.21401738039435,293.99664571987836,0.0
0.11800000000000001,4.831219613931724,-1.454430055515586,-1.4700442492213641,0.0,16.3849289669219,12.753197056040065,305.1484314695367,293.99664571987836,0.0
0.11900000000000001,4.410303520852271,-1.4814829056648802,-1.0487691512891306,0.0,16.170174594901702,12.578884891824227,303.9289792804624,293.99664571987836,0.0
0.12,4.09478666204398,-1.5311655155255268,-0.5383663923578048,0.0,15.96465900224511,12.48295775286919,302.70138936978697,293.99664571987836,0.0
0.121,3.8776409240559078,-1.59764397657692,-0.011618873519180895,0.0,15.776918059575726,12.449640830617541,301.43303390930424,293.99664571987836,0.0
0.122,3.7456939019715256,-1.6722760720585945,0.548194974827922,0.0,15.612164264840583,12.469536269503315,300.30943976980075,293.99664571987836,0.0
0.123,3.6869198866861423,-1.746142647534883,1.0468641040804458,0.0,15.473254395815108,12.52536792222185,299.1703908522864,293.99664571987836,0.0
0.124,3.6829099426194336,-1.8152368445914229,1.5646511115135375,0.0,15.360680374885488,12.613548655985584,297.553890380704,293.99664571987836,0.0
0.125,3.7244326117520257,-1.873193526782445,2.3373289006964875,0.0,15.273866122495658,12.756863007970527,295.4688009545927,293.99664571987836,0.0
0.126,3.8202624470065154,-1.9194442392759847,3.3651520614049772,0.0,15.214572742095676,12.972372214117426,293.8730546585561,293.99664571987836,0.0
0.127,3.9833008722952736,-1.9588037439613328,4.164261120036511,0.0,15.186626658740838,13.2210489980228,293.11246257651226,293.99664571987836,0.0
0.128,4.199393627856632,-1.987070639526035,4.5533989924920935,0.0,15.189058625577283,13.454737751727095,295.5280905381461,293.99664571987836,0.0
0.129,4.43460577940069,-1.9964663839792829,3.330270563492494,0.0,15.215367134034725,13.503152911715858,293.6863139036219,293.99664571987836,0.0
0.13,4.584060399842709,-1.9523026063003184,4.254262198917155,0.0,15.238934334656083,13.649139884005018,285.386374169376,293.99664571987836,0.0
0.131,4.75595942084026,-1.8766076368982736,8.49033478154514,0.0,15.26685870358678,14.222198600756913,286.95916127433105,293.99664571987836,0.0
0.132,5.167649867748377,-1.8635710160716987,7.77431607352308,0.0,15.348619428702698,14.576054140068067,291.8091683011057,293.99664571987836,0.0
0.133,5.580159907100722,-1.850606931300451,5.371187334323497,0.0,15.456293952121566,14.60425702386829,283.2339678608796,293.99664571987836,0.0
0.134,5.834573413691919,-1.7552414061547539,9.76641433302652,0.0,15.545660744660253,15.124052943548188,282.7153008667387,293.99664571987836,0.0
0.135,6.282314281256912,-1.6906195141424778,10.0,0.0,15.671915697043175,15.535840743527793,287.2486870401407,293.99664571987836,0.0
0.136,6.755305085299337,-1.6555537139499936,7.936576553152187,0.0,15.823512915084706,15.642211243155707,275.1419285962477,293.99664571987836,0.0
0.137,7.115123900750545,-1.5273795069708926,10.0,0.0,15.956838956519112,15.965865066587522,277.8334340452905,293.99664571987836,0.0
0.138,7.5291557345676585,-1.407844571247285,10.0,0.0,16.097330675293446,16.20790656378574,269.38270966398153,293.99664571987836,0.0
0.139,7.935363243846393,-1.2815410874111626,10.0,0.0,16.235279338045427,16.399250575459085,271.7155849768562,293.99664571987836,0.0
0.14,8.32680429841732,-1.132841844980168,10.0,0.0,16.363473653860495,16.54625861133028,263.8790458636097,293.99664571987836,0.0
0.14100000000000001,8.701374058415416,-0.959740795673977,10.0,0.0,16.475995218681817,16.65409701214178,271.8639193906896,293.99664571987836,0.0
