timestamp,iq,id,iq_ref,id_ref,vq,vd,omega,omega_ref,r
0.0,0.0,0.0,0.0,0.0,0.0,0.0,0.0,207.95432662715834,0.0
0.001,0.0,0.0,10.0,0.0,0.0,1.0999999999999999,20.38880628458141,207.95432662715834,0.0
0.002,0.6159342534443861,-0.31486216373077225,10.0,0.0,0.1446348380103849,1.9222472321211175,41.51682983386591,207.95432662715834,0.0
0.003,1.3360805602417616,-0.6710076564292257,10.0,0.0,0.39305829799136544,2.6036764736178943,63.11629476656086,207.95432662715834,0.0
0.004,1.9933618430190263,-0.9891515003280803,10.0,0.0,0.7162167040258146,3.176705658925566,85.18108419349952,207.95432662715834,0.0
0.005,2.535359125396269,-1.2402397883232505,10.0,0.0,1.0888004612280668,3.671700878072191,107.4205821169565,207.95432662715834,0.0
0.006,2.9605291438352657,-1.4240677979311525,10.0,0.0,1.4913355628016736,4.11310622181986,129.57539294865666,207.95432662715834,0.0
0.007,3.287406978807294,-1.5515317407756062,10.0,0.0,1.9099404422094972,4.518919679687594,151.44429876938443,207.95432662715834,0.0
0.008,3.5393238713640858,-1.6357184486282703,10.0,0.0,2.3352520778986605,4.901570199877808,172.85664302098448,207.95432662715834,0.0
0.009000000000000001,3.737715742608181,-1.688028436627839,10.0,0.0,2.761209833639355,5.269182894706633,193.6522110322679,207.95432662715834,0.0
0.01,3.8998812197160193,-1.7169816212522506,8.758256113886103,0.0,3.183994833717551,5.490183984384696,210.9008244868263,207.95432662715834,0.0
0.011,3.9639813797531915,-1.6900337375164003,0.10448440801021897,0.0,3.583347643698547,4.786436653484554,208.48178067091834,207.95432662715834,0.0
0.012,3.4804063290634075,-1.3800650638238943,1.3087317755266032,0.0,3.8385633643226127,4.465838521334334,208.15039383056663,207.95432662715834,0.0
0.013000000000000001,2.9878867393234776,-1.0664268407991098,1.4724645236683764,0.0,4.004797181873447,4.258131307446468,207.18140753598772,207.95432662715834,0.0
0.014,2.5832075745505145,-0.8003832727293951,1.9646868618695383,0.0,4.107508486022992,4.179914838650811,206.4153124090271,207.95432662715834,0.0
0.015,2.3135671920002134,-0.6082623052290769,2.3631245675311545,0.0,4.173654142133679,4.184310721823241,206.35186809448317,207.95432662715834,0.0
0.016,2.168360901966734,-0.4830695828559152,2.410871310129878,0.0,4.221774831164495,4.20942563499692,206.0612567420132,207.95432662715834,0.0
0.017,2.1017316872665255,-0.4015421587957172,2.5751076852163126,0.0,4.259878853186708,4.260306810306523,205.8456509731372,207.95432662715834,0.0
0.018000000000000002,2.092338160079597,-0.3505282528107503,2.703997326194526,0.0,4.294464335119914,4.322812762887687,205.6008496512418,207.95432662715834,0.0
0.019,2.1201581861938625,-0.31786972067103014,2.8499327569013957,0.0,4.328759564642397,4.394136531227588,205.36457260985247,207.95432662715834,0.0
0.02,2.1728253657936354,-0.29617823947708866,2.9939688177691113,0.0,4.364698170436685,4.470626868579296,205.12306039132073,207.95432662715834,0.0
0.021,2.241752546810084,-0.2803532360299964,3.143037589393357,0.0,4.403168113819476,4.55096391892944,204.87649951642976,207.95432662715834,0.0
0.022,2.321783609865615,-0.26735256988067835,3.29709629794613,0.0,4.444552944657046,4.6344558836814675,204.62486960868836,207.95432662715834,0.0
0.023,2.4099475454429085,-0.25543465831235634,3.456205822001531,0.0,4.48896752527504,4.720800873319668,204.36879832255886,207.95432662715834,0.0
0.024,2.504638854737312,-0.2436705088668193,3.6200967481122746,0.0,4.536400269471729,4.809855324020865,204.1089727036128,207.95432662715834,0.0
0.025,2.6050466770550944,-0.23160177373760527,3.7884630968207564,0.0,4.586785264949112,4.9015310458064265,203.8459672812862,207.95432662715834,0.0
0.026000000000000002,2.710796665010871,-0.21902539075337435,3.961049401442785,0.0,4.640036618280338,4.995750104530547,203.58019028462596,207.95432662715834,0.0
0.027,2.821740077731769,-0.20586635851746293,4.137679263198227,0.0,4.696063012434745,5.092429538942517,203.31187676218957,207.95432662715834,0.0
0.028,2.937837243162546,-0.19210733760859022,4.318260523066108,0.0,4.754772808637293,5.191480055226467,203.04109291357835,207.95432662715834,0.0
0.029,3.0590978008259193,-0.17775247305766384,4.502784784507516,0.0,4.816075231956468,5.29281066597349,205.07662558063979,207.95432662715834,0.0
0.03,3.1846241047265833,-0.16430226943193937,3.5137954614419855,0.0,4.880044500265107,5.266909101973665,210.4419751905459,207.95432662715834,0.0
0.031,3.2085941866226912,-0.1698551903159753,0.8062441708550581,0.0,4.935772008676399,4.960672426501214,210.9458710050833,207.95432662715834,0.0
0.032,3.0299312430817436,-0.10684091782639693,0.5243808198071078,0.0,4.948315999516627,4.706595338316201,210.38364067806884,207.95432662715834,0.0
0.033,2.7938558570286127,-0.031933259243239975,0.7812028428052262,0.0,4.926588182735074,4.534431077104417,209.9072284964688,207.95432662715834,0.0
0.034,2.5847630384385116,0.02014336165157249,0.9998799149121416,0.0,4.884837369797905,4.419436174221817,209.7135188959329,207.95432662715834,0.0
0.035,2.4257893353820874,0.04209404189357002,1.079142792492344,0.0,4.83386833924852,4.333694005296817,209.68632033284777,207.95432662715834,0.0
0.036000000000000004,2.309474157473752,0.040425159233379526,1.0754221369780177,0.0,4.7798250787566126,4.261432181866355,209.71786244037062,207.95432662715834,0.0
0.037,2.221555618883773,0.024056005890496612,1.0420157250844686,0.0,4.725743880011965,4.195862603442413,209.75724546422612,207.95432662715834,0.0
0.038,2.1504042968289676,-7.01551524706634e-05,1.0042950247860443,0.0,4.673004029480685,4.13457411011264,209.78741267221906,207.95432662715834,0.0
0.039,2.0886417964145605,-0.027544171772228454,0.9708805603389641,0.0,4.6221901948873025,4.076924458801558,209.8040613251768,207.95432662715834,0.0
0.04,2.032213290448335,-0.05585770650646693,0.9440588868799087,0.0,4.573532527276717,4.022931660378361,209.80639884151128,207.95432662715834,0.0
0.041,1.9791767675180454,-0.08369231368485086,0.9243694065691404,0.0,4.52712001802715,3.972844481399501,209.7944471104056,207.95432662715834,0.0
0.042,1.9288021682601806,-0.11040769929474625,0.9119440672895092,0.0,4.483000388149958,3.926965717564981,209.76842733155905,207.95432662715834,0.0
0.043000000000000003,1.8809985163336718,-0.13572237953363386,0.9068129496687751,0.0,4.441222305847213,3.8855773533000466,209.7285771562688,207.95432662715834,0.0
0.044,1.83597675726348,-0.15952909537611526,0.9089955320227905,0.0,4.401848787288532,3.8489157694449365,209.67508160800568,207.95432662715834,0.0
0.045,1.7940653531617812,-0.18179588711503625,0.9185357563458816,0.0,4.364957742133066,3.817170627831954,209.60807712498752,207.95432662715834,0.0
0.046,1.7556182488312055,-0.2025180778638317,0.935500492876673,0.0,4.330638060396826,3.790491682075226,209.5277004512132,207.95432662715834,0.0
0.047,1.7209740897257406,-0.22169812054807325,0.9599550915232795,0.0,4.298985035046314,3.768995407664661,209.43417231566804,207.95432662715834,0.0
0.048,1.6904407359796538,-0.23933908018147365,0.9919207024107679,0.0,4.270096389922631,3.752767356692273,209.3279321120587,207.95432662715834,0.0
0.049,1.6642896025925142,-0.2554434780037934,1.0313047493664302,0.0,4.244068878378198,3.741857126496128,209.2098686142505,207.95432662715834,0.0
0.05,1.642750406860015,-0.2700128123288399,1.0777810783996127,0.0,4.220994677766126,3.7362615240859522,209.08199193718036,207.95432662715834,0.0
0.051000000000000004,1.6259988927014979,-0.2830455220958925,1.1304427638344592,0.0,4.2009562417053665,3.7358733585632,208.9534974667015,207.95432662715834,0.0
0.052000000000000005,1.6141180805792936,-0.29453289228727697,1.1846982906784627,0.0,4.184016116321793,3.7401010312769962,208.8071718382574,207.95432662715834,0.0
0.053,1.6069185863368887,-0.30427242944985955,1.2493326527895163,0.0,4.170149246133926,3.749452284990273,208.63544859629155,207.95432662715834,0.0
0.054,1.6046581183785324,-0.3123908100324915,1.3283830540811092,0.0,4.159399814828637,3.764707583367395,208.46748171648613,207.95432662715834,0.0
0.055,1.6079760144306858,-0.31917826762488893,1.407234943090541,0.0,4.151916293020925,3.7848580393090767,208.31388037824806,207.95432662715834,0.0
0.056,1.6166305046796015,-0.3245562189502919,1.4804400746986817,0.0,4.147719869058023,3.808590328095761,208.12955489310806,207.95432662715834,0.0
0.057,1.6298877357471933,-0.328100454979462,1.570850534609181,0.0,4.146652402820033,3.8373710943666155,207.93336867435667,207.95432662715834,0.0
0.058,1.6482761593192172,-0.3301778020755592,1.669153223512894,0.0,4.148762825653209,3.8711860742846405,207.71169880062365,207.95432662715834,0.0
0.059000000000000004,1.6722497569897303,-0.3307619994309094,1.7824144386447514,0.0,4.154087192432996,3.910853093761613,207.58823423099682,207.95432662715834,0.0
0.06,1.702454019093722,-0.33024763905087556,1.847807647419783,0.0,4.162783402867144,3.950063755928068,207.2850888100326,207.95432662715834,0.0
0.061,1.7354952087036237,-0.3275388030275722,2.0060727360731545,0.0,4.17423823011576,3.9996457123493636,206.75135512303996,207.95432662715834,0.0
0.062,1.7756728372393724,-0.325717648810056,2.2849692946106552,0.0,4.189332531677951,4.070421799163149,206.81354096130215,207.95432662715834,0.0
0.063,1.8325866841022629,-0.326187413593266,2.2652842321381192,0.0,4.21006489743363,4.1248166381248605,206.56883515898872,207.95432662715834,0.0
0.064,1.887502601705748,-0.32248421873346894,2.4014920479765323,0.0,4.2337514614275005,4.185553327665167,206.3873471398402,207.95432662715834,0.0
0.065,1.9455476529512814,-0.31696207512405294,2.5079058524239795,0.0,4.260572634127578,4.247092648520688,206.1268647802432,207.95432662715834,0.0
0.066,2.0062961562091197,-0.3090886390930376,2.6564216506916196,0.0,4.290054765115886,4.3143308694797255,205.88472058271222,207.95432662715834,0.0
0.067,2.0722881664919277,-0.3003430525531268,2.798189809901576,0.0,4.32242922494218,4.385251184873576,205.63351918555864,207.95432662715834,0.0
0.068,2.1436798718697516,-0.29083737425240763,2.946998582894363,0.0,4.357700101577553,4.4600750306590475,205.380440235944,207.95432662715834,0.0
0.069,2.220700662828197,-0.2807716832167968,3.0992769216138223,0.0,4.395914105897027,4.538447739107071,205.12399245241386,207.95432662715834,0.0
0.07,2.3033092143759566,-0.2701803788864876,3.2558041551263415,0.0,4.437079594063379,4.620183056680753,204.86452242685226,207.95432662715834,0.0
0.07100000000000001,2.39143315058973,-0.2590718055562129,3.4164372099102014,0.0,4.481186035147434,4.705098207536764,204.60226567734998,207.95432662715834,0.0
0.07200000000000001,2.4849934607795325,-0.247441035230234,3.581086194159427,0.0,4.5282050482061305,4.793027150376413,204.33745298421294,207.95432662715834,0.0
0.073,2.58392233635569,-0.23528104913958647,3.7496612771573967,0.0,4.57809376347621,4.8838152963137755,204.0702725877349,207.95432662715834,0.0
0.074,2.688167862628267,-0.2225858493905829,3.9220920157906507,0.0,4.630797549701535,4.977317410469864,203.80085223481456,207.95432662715834,0.0
0.075,2.797694098444291,-0.20935074043886606,4.098336936174263,0.0,4.686252258732738,5.073396895011704,203.52924523824248,207.95432662715834,0.0
0.076,2.9124797830266784,-0.1955716982420848,4.278391248349459,0.0,4.744386101762874,5.171926264192013,203.2554141517454,207.95432662715834,0.0
0.077,3.0325171494048773,-0.18124466422866634,4.462295916352123,0.0,4.80512131408852,5.272788797660069,202.96197977978596,207.95432662715834,0.0
0.078,3.1578791826737476,-0.16624949989005175,4.658936570805571,0.0,4.868363060791294,5.376840574327941,210.64424271386818,207.95432662715834,0.0
0.079,3.262910613501362,-0.19293109993553548,0.7909059428973642,0.0,4.9387707381389685,5.039061735326519,211.5266634026026,207.95432662715834,0.0
0.08,3.1003323242589667,-0.13148490239525268,0.3139722307757151,0.0,4.961333866121846,4.747253072030647,210.77974876889792,207.95432662715834,0.0
0.081,2.8478266013474425,-0.0459121284564053,0.6591753262106574,0.0,4.943661271818976,4.555773112109551,210.10739647206788,207.95432662715834,0.0
0.082,2.6189074612749526,0.017245764733427094,0.9738207761765829,0.0,4.902516300442792,4.435488905471041,209.83747096961704,207.95432662715834,0.0
0.083,2.447347578920343,0.04595519245707194,1.089952083977412,0.0,4.8509309474226745,4.349329007375476,209.79902554916734,207.95432662715834,0.0
0.084,2.3250525155905293,0.04728504801362754,1.090727804982174,0.0,4.796028950061027,4.277287438162707,209.83553017904583,207.95432662715834,0.0
0.085,2.2347965742934055,0.03182502509579249,1.0536634545240524,0.0,4.741126896590794,4.211580193283994,209.8796004129242,207.95432662715834,0.0
0.08600000000000001,2.1628580749308903,0.007680805570597138,1.012375599727215,0.0,4.687645587898306,4.149793122539962,209.91213231763308,207.95432662715834,0.0
0.08700000000000001,2.10081886751573,-0.020155466639836306,0.9765315904680227,0.0,4.63615425074856,4.0914115933525865,209.92986759130542,207.95432662715834,0.0
0.088,2.044189852456274,-0.048927566546336454,0.94790854399038,0.0,4.5868604626626635,4.036537787931413,209.93280446760465,207.95432662715834,0.0
0.089,1.9908693986574013,-0.07722376586641383,0.9266553274363014,0.0,4.539833533769378,3.985469320654875,209.9212829745089,207.95432662715834,0.0
0.09,1.9400821863880755,-0.10437563761063307,0.912746510510674,0.0,4.495106194936436,3.938540958332023,209.89564373475562,207.95432662715834,0.0
0.091,1.8917375546639268,-0.13009935387397686,0.9061529593113387,0.0,4.452716843826023,3.8960565332624535,209.85617938883144,207.95432662715834,0.0
0.092,1.8460622747624602,-0.15429377637161723,0.9068666046567015,0.0,4.412722134631804,3.8582668865607026,209.80309879538493,207.95432662715834,0.0
0.093,1.8034030884546643,-0.17693409827207385,0.9149191796976901,0.0,4.375196422870904,3.8253711381056013,209.7365407301485,207.95432662715834,0.0
0.094,1.7641298980208369,-0.19802115502046258,0.930376071285999,0.0,4.340226880463906,3.79752558472887,209.65662711215714,207.95432662715834,0.0
0.095,1.7285940904463537,-0.21756078491960018,0.953309875431694,0.0,4.307908225681353,3.774851988918109,209.56354357978105,207.95432662715834,0.0
0.096,1.697113748264539,-0.23555769844825813,0.983759472093509,0.0,4.278338340985142,3.7574414843657666,209.45766227676248,207.95432662715834,0.0
0.097,1.6699693293161102,-0.2520150243720408,1.0216667671067563,0.0,4.251614731019646,3.7453514309463865,209.33974421465786,207.95432662715834,0.0
0.098,1.6474002083598691,-0.26693464619992124,1.0667716222840717,0.0,4.2278310618505905,3.738591642107468,209.2114286571683,207.95432662715834,0.0
0.099,1.6295952164255922,-0.28031587280665304,1.1183583807287436,0.0,4.207072519423011,3.7370858180158844,209.0787164252091,207.95432662715834,0.0
0.1,1.6166637413637155,-0.2921522267207365,1.1734705987278375,0.0,4.189407435493512,3.7404456108236186,208.92565154869007,207.95432662715834,0.0
0.101,1.6085445995531873,-0.3022898691529843,1.2402897877720398,0.0,4.174841616366144,3.74926569542104,208.7703246358285,207.95432662715834,0.0
0.10200000000000001,1.605555669813907,-0.3109668678407317,1.3097932641161223,0.0,4.163467481042585,3.762971971006606,208.6044577140254,207.95432662715834,0.0
0.10300000000000001,1.6076629681713857,-0.3180340052417293,1.3862254141490096,0.0,4.15529200193717,3.781621015124722,208.44156814093662,207.95432662715834,0.0
0.10400000000000001,1.6149022209663377,-0.3235732594673264,1.4627977855556076,0.0,4.150337621744914,3.8044710014510086,208.25902797315734,207.95432662715834,0.0
0.105,1.626990780304421,-0.3273979741950501,1.5510208559852574,0.0,4.148529004282306,3.8322220161593985,208.06581191032603,207.95432662715834,0.0
0.106,1.6442354024414136,-0.3297488145128006,1.6465140345692362,0.0,4.149896695324472,3.864863063748941,207.8350974104841,207.95432662715834,0.0
0.107,1.66694905512117,-0.3306111606213502,1.76306357665694,0.0,4.15446307169014,3.903916237954151,207.70374878759387,207.95432662715834,0.0
0.108,1.6961796149201684,-0.3304537470354715,1.8312436664977065,0.0,4.162452188884228,3.9428668217859206,207.42973247780048,207.95432662715834,0.0
0.109,1.7285808144166124,-0.3281639405500725,1.9734977628879757,0.0,4.173287148164553,3.9904155823118272,206.9580903661926,207.95432662715834,0.0
0.11,1.7670801306489645,-0.3265810997650621,2.219281181301572,0.0,4.187642273147934,4.055995684984172,206.84562312885004,207.95432662715834,0.0
0.111,1.8204398336574572,-0.3257910875405642,2.2866018349559405,0.0,4.207048822963371,4.1159161534368565,206.72463189371112,207.95432662715834,0.0
0.112,1.87667022442615,-0.32360748945802265,2.359394399859871,0.0,4.230274468975694,4.173467459674232,206.49295277306905,207.95432662715834,0.0
0.113,1.9334953897529994,-0.3181168705181793,2.489847698721799,0.0,4.256350548907969,4.235519672836608,206.25663619686276,207.95432662715834,0.0
0.114,1.9937881002647035,-0.31078382038256824,2.6249828911279005,0.0,4.285272512837734,4.301470664349008,206.00662703893317,207.95432662715834,0.0
0.115,2.0586974141985523,-0.30219122663320963,2.7694644659749437,0.0,4.31702552471469,4.371723276984652,205.75611584599022,207.95432662715834,0.0
0.116,2.1290343417659945,-0.2928447660186768,2.916702170258101,0.0,4.351686311937408,4.445789292374024,205.5019367900495,207.95432662715834,0.0
0.117,2.2049563337859204,-0.28289559239326445,3.068315596599544,0.0,4.389286677484142,4.523471834954939,205.24460187588588,207.95432662715834,0.0
0.11800000000000001,2.2864726775834416,-0.2724105223465668,3.2240803011940864,0.0,4.429841394765411,4.604556565176895,204.9842100865513,207.95432662715834,0.0
0.11900000000000001,2.3735191009741468,-0.26140446772483106,3.383977361267452,0.0,4.473343298032826,4.6888593805319045,204.72101099214774,207.95432662715834,0.0
0.12,2.4660186885328694,-0.24987576547982582,3.5479100648193316,0.0,4.5197671958082655,4.776211241070574,204.45524281510217,207.95432662715834,0.0
0.121,2.5639020879292898,-0.23781839245347824,3.7157849914626793,0.0,4.569072865849581,4.86645504217015,204.1871038444764,207.95432662715834,0.0
0.122,2.6671145263872322,-0.22522649150246465,3.8875267046023767,0.0,4.621207813622373,4.959443335106425,203.91673441285124,207.95432662715834,0.0
0.123,2.775616930766333,-0.2120952879329936,4.063087342558033,0.0,4.676109582528384,5.055037406472955,203.6442032096865,207.95432662715834,0.0
0.124,2.8893850134319474,-0.19842070534462675,4.242454178315118,0.0,4.73370768963142,5.153107528097729,203.3694918683111,207.95432662715834,0.0
0.125,3.008408123465854,-0.18419871737842008,4.425658196591301,0.0,4.793925325336231,5.253534360646064,203.09247459413547,207.95432662715834,0.0
0.126,3.1326887354449298,-0.16942486554625336,4.61278535400934,0.0,4.856680976903517,5.356211584425915,209.58051323607475,207.95432662715834,0.0
0.127,3.2430391517535666,-0.1854089191119459,1.352504166950533,0.0,4.925334770102607,5.083498709159696,211.084518466104,207.95432662715834,0.0
0.128,3.1200839459064316,-0.1367277088020522,0.5691996335464591,0.0,4.954337122785423,4.80599039074242,210.80887437770016,207.95432662715834,0.0
0.129,2.893261069450735,-0.05999000678735955,0.6784762002429519,0.0,4.944734073239712,4.602707571457463,210.270931876982,207.95432662715834,0.0
0.13,2.6680148893221163,0.003447648339656384,0.924281398103802,0.0,4.909552281676252,4.467247386293751,209.96791739368845,207.95432662715834,0.0
0.131,2.488142506638606,0.03743809378725926,1.05565273208527,0.0,4.861238078304801,4.371341335543319,209.8802141522454,207.95432662715834,0.0
0.132,2.3555263177853893,0.04446173289678512,1.0802454775559247,0.0,4.8077319943478765,4.294375015139758,209.89049084225863,207.95432662715834,0.0
0.133,2.25722436517574,0.03317247569122428,1.0557454903983081,0.0,4.753191941429999,4.226300845237347,209.92582474044934,207.95432662715834,0.0
0.134,2.180086316602063,0.011521516333547255,1.018363560170041,0.0,4.699567189770956,4.163215240396864,209.95720436353602,207.95432662715834,0.0
0.135,2.1149758148790045,-0.015054779818257646,0.9826449712629246,0.0,4.6477032357768895,4.103911270100825,209.97621542938361,207.95432662715834,0.0
0.136,2.056578038816858,-0.043333013150535615,0.9529205503168752,0.0,4.5979401228576595,4.048211451369593,209.98107155573456,207.95432662715834,0.0
