timestamp,iq,id,iq_ref,id_ref,vq,vd,omega,omega_ref,r
0.0,0.0,0.0,0.0,0.0,0.0,0.0,0.0,25.02032702652307,0.0
0.001,0.0,0.0,10.0,0.0,0.0,1.0999999999999999,3.2537434243680585,25.02032702652307,0.0
0.002,0.778767171293123,-0.4488181688057719,10.0,0.0,0.15936999856863493,1.9043356111577563,7.175660944242984,25.02032702652307,0.0
0.003,1.4724690349782286,-0.8458967390070224,9.487522401145213,0.0,0.4224270194302617,2.5192825918901436,11.224999075489144,25.02032702652307,0.0
0.004,1.968818738107183,-1.1283733496795934,7.600806615032473,0.0,0.7477746777509351,2.8489651674442666,14.759678200155447,25.02032702652307,0.0
0.005,2.189776086079874,-1.2517469478833936,5.936073540962998,0.0,1.0843021574906453,2.9946189597428243,17.69875011895975,25.02032702652307,0.0
0.006,2.2088271033960813,-1.2591362291025698,4.539753350636479,0.0,1.4013213534383122,3.0225261921652202,20.03547053273596,25.02032702652307,0.0
0.007,2.103367996015725,-1.1952289605537323,3.421241708686246,0.0,1.6823256606808876,2.9820625542138823,21.83496502263876,25.02032702652307,0.0
0.008,1.933986494975945,-1.0947754331845012,2.55334808377369,0.0,1.9207723580789453,2.9070399025016296,23.192704753715407,25.02032702652307,0.0
0.009000000000000001,1.741853185792073,-0.9818105285223325,1.892754440963442,0.0,2.1164505163268252,2.8188186702402342,24.252821659989547,25.02032702652307,0.0
0.01,1.5522964913896191,-0.870708130513474,1.3703710414917079,0.0,2.272647120789425,2.7270610428084088,24.986188102940776,25.02032702652307,0.0
0.011,1.3769535608022143,-0.7681400944799633,1.0040292092519159,0.0,2.3938768420789844,2.642417226434956,25.47145354722299,25.02032702652307,0.0
0.012,1.224411969444891,-0.67886628553872,0.7568852219038102,0.0,2.485724770979041,2.5698644892853437,25.835002827219373,25.02032702652307,0.0
0.013000000000000001,1.0979506534554488,-0.6048076507344083,0.5669638238986551,0.0,2.553878921535069,2.5077172336788767,26.089108153231646,25.02032702652307,0.0
0.014,0.9947745597706071,-0.5445188609902528,0.4292233496254332,0.0,2.6031117509510335,2.455432637644095,26.21062417524778,25.02032702652307,0.0
0.015,0.912030918442505,-0.49601696113845106,0.3565623671301189,0.0,2.637460516735666,2.4147545204318788,26.28775720418282,25.02032702652307,0.0
0.016,0.848583140915608,-0.4586033955877168,0.305321550886001,0.0,2.6606761210085517,2.3828210306721243,26.33437026136504,25.02032702652307,0.0
0.017,0.8006027001346153,-0.4300374926178617,0.26887458994647107,0.0,2.6756087022069965,2.3575490634853673,26.362786735334243,25.02032702652307,0.0
0.018000000000000002,0.7645188170090148,-0.40825323005637054,0.2412417558737585,0.0,2.6844102187148553,2.3371118317345334,26.38063298322114,25.02032702652307,0.0
0.019,0.7372792240289475,-0.39151745638741847,0.21871557236332917,0.0,2.6886647679188753,2.3200324393606997,26.396392445449486,25.02032702652307,0.0
0.02,0.7164548453809595,-0.37842596378543614,0.19707518705989224,0.0,2.6895132165155826,2.3049495463178564,26.421267993823623,25.02032702652307,0.0
0.021,0.7000524853752483,-0.36777131549322767,0.1706280031998183,0.0,2.68772743456221,2.2903630168815425,26.462823635670837,25.02032702652307,0.0
0.022,0.6858231291739472,-0.3591380329905392,0.13542521618473358,0.0,2.6838184632681705,2.2748499330425496,26.482603167799805,25.02032702652307,0.0
0.023,0.6721880492402373,-0.35142227266676607,0.11091268870748205,0.0,2.677986679909047,2.259510475536401,26.455922251923663,25.02032702652307,0.0
0.024,0.6595116593568133,-0.34466541572381826,0.10989719439154699,0.0,2.670538032474734,2.246513258432814,26.390021064974157,25.02032702652307,0.0
0.025,0.6494496380533835,-0.3394013635432682,0.1291508474817895,0.0,2.662023050903065,2.2371790135237832,26.303786497334237,25.02032702652307,0.0
0.026000000000000002,0.6431457822391681,-0.3360921735409534,0.1594335365936379,0.0,2.653114772619208,2.231658058146419,26.216855577412634,25.02032702652307,0.0
0.027,0.6406898418382521,-0.33477021894536224,0.19093371104554357,0.0,2.6444329035205087,2.2291676776629554,26.13507335576432,25.02032702652307,0.0
0.028,0.6412852554612694,-0.33499080721750824,0.22067735857728832,0.0,2.6364076675392263,2.2289248928993994,26.066062659993516,25.02032702652307,0.0
0.029,0.6439709910064991,-0.3362874497764733,0.24472535012798546,0.0,2.629301101478481,2.2299622288355856,26.005541138834115,25.02032702652307,0.0
0.03,0.647712112147104,-0.338110119718355,0.2651339695845758,0.0,2.6231964528854452,2.2318049768267825,25.950888809496746,25.02032702652307,0.0
0.031,0.6518822750107748,-0.34012283891697465,0.2831545164235234,0.0,2.6180897163632633,2.234209852413676,25.89905461073216,25.02032702652307,0.0
0.032,0.656157426984514,-0.3421494649745765,0.3002843399637247,0.0,2.613936942726338,2.2371390768222206,25.846333023669175,25.02032702652307,0.0
0.033,0.6604546635909272,-0.3441342890893669,0.318385073523757,0.0,2.6106904332860106,2.240749939375452,25.78907550541648,25.02032702652307,0.0
0.034,0.6648964430868118,-0.34611693075713895,0.3393263478611699,0.0,2.6083279033873463,2.245351974192358,25.72902171920814,25.02032702652307,0.0
0.035,0.669741654347805,-0.3482322274463778,0.36226629403848887,0.0,2.6068746861793777,2.2510829784300888,25.67682829614988,25.02032702652307,0.0
0.036000000000000004,0.6750607574317893,-0.350693986518115,0.3817979928713522,0.0,2.606389531646977,2.257477998706463,25.619027140817554,25.02032702652307,0.0
0.037,0.6805865520318168,-0.3532354539185787,0.40471156939456954,0.0,2.6068473384187882,2.264955531556022,25.551584601468733,25.02032702652307,0.0
0.038,0.686818225679604,-0.35552606205505194,0.4331202633195236,0.0,2.6082336700193816,2.273996686209062,25.493122748051416,25.02032702652307,0.0
0.039,0.6940021362829961,-0.35805213219949555,0.4576232328128984,0.0,2.610640445559744,2.2839556848319833,25.451132109366522,25.02032702652307,0.0
0.04,0.7017865764965515,-0.3605090501603591,0.47431050132691077,0.0,2.614047443682613,2.2939655816708013,25.43456330094745,25.02032702652307,0.0
0.041,0.709453023833717,-0.3625302786313503,0.4784525427922036,0.0,2.618312497629276,2.3028384757091116,25.439983853302255,25.02032702652307,0.0
0.042,0.7159913437751169,-0.36368294777582966,0.47154569834700855,0.0,2.6231449169062877,2.3098068617144514,25.4731741860261,25.02032702652307,0.0
0.043000000000000003,0.7207127016328768,-0.36366761526879293,0.45042206039005617,0.0,2.6281777195889133,2.313853153151206,25.520686171941687,25.02032702652307,0.0
0.044,0.722847291933431,-0.3621609479195682,0.42166247597807627,0.0,2.6329462910636066,2.314858186452315,25.58449680020537,25.02032702652307,0.0
0.045,0.722291704269798,-0.35919885787355205,0.38411546410941266,0.0,2.6370277454893722,2.3124794586553556,25.6631273997349,25.02032702652307,0.0
0.046,0.718901298612449,-0.35485227406309683,0.33837216061252817,0.0,2.6400146783741754,2.30645784456037,25.752379128076374,25.02032702652307,0.0
0.047,0.7126023443608324,-0.34918301706145566,0.28642577542625847,0.0,2.6415206041289245,2.296739396738947,25.83235327697382,25.02032702652307,0.0
0.048,0.7038376461085432,-0.3417148414134081,0.23831843847302814,0.0,2.6411392857747873,2.2842721703273825,25.902994179538336,25.02032702652307,0.0
0.049,0.6924433549682135,-0.33468457261763923,0.1941713156606173,0.0,2.6388507288038525,2.2698041496246435,25.924024981799782,25.02032702652307,0.0
0.05,0.6798929688207265,-0.32729821772694206,0.174618934977127,0.0,2.634602029109719,2.2561113842128444,25.872958224628892,25.02032702652307,0.0
0.051000000000000004,0.6682985748447446,-0.3208614436427328,0.19162600158151377,0.0,2.628774741243463,2.2465792059820124,25.773703382635787,25.02032702652307,0.0
0.052000000000000005,0.6606496995588512,-0.3165259087526934,0.23371965901693903,0.0,2.622164423243687,2.2426031807811797,25.658468215094853,25.02032702652307,0.0
0.053,0.6583620099497617,-0.3148608008725382,0.2849558309016882,0.0,2.6156777280058883,2.243753925737562,25.543815221699994,25.02032702652307,0.0
0.054,0.6609754955003906,-0.3158100850157495,0.33704744564734856,0.0,2.6100758491220626,2.24904828227104,25.400843356667828,25.02032702652307,0.0
0.055,0.6675369217226778,-0.3184931530018422,0.40472821486198407,0.0,2.6058492384170053,2.259481361699996,25.27189347258308,25.02032702652307,0.0
0.056,0.6780976049067806,-0.3233280354832338,0.4666874924437575,0.0,2.6035936031184423,2.273491124069371,25.14188425859545,25.02032702652307,0.0
0.057,0.6917157557598779,-0.32897759009967553,0.530476527116849,0.0,2.6035376097696665,2.2908791579481758,25.0622310945355,25.02032702652307,0.0
0.058,0.7079479894134603,-0.3349430875476342,0.5698840684667006,0.0,2.6058257283167605,2.3085703641126116,25.052108953061328,25.02032702652307,0.0
0.059000000000000004,0.7242028541351941,-0.34027041484994475,0.5746273199384031,0.0,2.610180506654363,2.323223230980847,25.118554265271506,25.02032702652307,0.0
0.06,0.7374816135526587,-0.34368940364089484,0.5404223914458299,0.0,2.61588790933901,2.331738199458415,25.23337905498366,25.02032702652307,0.0
0.061,0.7450100356740562,-0.3441110255012583,0.48087947630514616,0.0,2.6218882571196804,2.3330694011369633,25.384725327488304,25.02032702652307,0.0
0.062,0.7457043014194349,-0.3413214422607529,0.4015623570431722,0.0,2.627110619915079,2.326736978447534,25.535294754825397,25.02032702652307,0.0
0.063,0.7394903449951944,-0.3352183648707317,0.32112796609160266,0.0,2.6305340614814976,2.314195900358657,25.66183538988394,25.02032702652307,0.0
0.064,0.7274879996594821,-0.32714106487896116,0.2514425649287224,0.0,2.6315335788571916,2.2976483424395924,25.6904688233498,25.02032702652307,0.0
0.065,0.711897971724281,-0.31825546733140625,0.23042443022752523,0.0,2.6298817459730963,2.2828352308640163,25.621723961199994,25.02032702652307,0.0
0.066,0.6977764098990674,-0.3105423285482473,0.2587828919556592,0.0,2.6261541959291823,2.274065330816118,25.461786964685487,25.02032702652307,0.0
0.067,0.689415783514995,-0.30558981178570216,0.3343367908312883,0.0,2.6214547654288207,2.2746054633116506,25.273939537370936,25.02032702652307,0.0
0.068,0.6896635426639119,-0.3048526732424892,0.42572437938008545,0.0,2.6172477311559206,2.2838078754889835,25.06910312508399,25.02032702652307,0.0
0.069,0.698347725740728,-0.3077092704952293,0.5276548245379483,0.0,2.614703238611276,2.3010150335562094,24.910201616287072,25.02032702652307,0.0
0.07,0.7145147922374103,-0.3133814849819914,0.6082068330387681,0.0,2.614729288748836,2.322396907561893,24.87330034794106,25.02032702652307,0.0
0.07100000000000001,0.7348280854337875,-0.31997573204146584,0.6281277339975935,0.0,2.617559566304884,2.3409561866145916,24.96380208107491,25.02032702652307,0.0
0.07200000000000001,0.7529306037317818,-0.3250699271669217,0.5834421168851509,0.0,2.6224571630038005,2.351039794544854,25.14923807414299,25.02032702652307,0.0
0.073,0.7632635632660332,-0.3266022186897476,0.48943500987491206,0.0,2.627990970942109,2.3497552753861917,25.36745035131363,25.02032702652307,0.0
0.074,0.7627412171522856,-0.3237951630696856,0.3768576380416866,0.0,2.632518847137286,2.337869936773529,25.52946366774703,25.02032702652307,0.0
0.075,0.7522690729513672,-0.3164755415216482,0.2907596134127459,0.0,2.6346283140375943,2.3204276230517613,25.523625874229136,25.02032702652307,0.0
0.076,0.7357719699363523,-0.30768770289493264,0.28864552169463253,0.0,2.633889136842237,2.3072788774391415,25.38371992430381,25.02032702652307,0.0
0.077,0.7223603485277649,-0.30044478465319835,0.3549645676794876,0.0,2.6312001601848305,2.3039976319685582,25.138485022043717,25.02032702652307,0.0
0.078,0.7180466570433879,-0.29702272800732815,0.47640043885432815,0.0,2.6281479595974773,2.3138107585978713,24.883535180608945,25.02032702652307,0.0
0.079,0.7261091611894266,-0.29848848816013196,0.6052432780308556,0.0,2.626577745915058,2.3343656937322796,24.763617715176114,25.02032702652307,0.0
0.08,0.7448863326504819,-0.3037414016525004,0.6677691038607407,0.0,2.627783209996954,2.3563126626152706,24.831850684022164,25.02032702652307,0.0
0.081,0.7661470608485517,-0.3096552979180174,0.6355373828627244,0.0,2.6316608240132426,2.3698638250628967,25.06317694870161,25.02032702652307,0.0
0.082,0.7803501301959244,-0.31279394021586426,0.5194457513012163,0.0,2.6367919045627737,2.368650140059371,25.321460155116952,25.02032702652307,0.0
0.083,0.7809263844843445,-0.31078465854390347,0.3872928168076063,0.0,2.641036101150103,2.3547736678542175,25.43825810223456,25.02032702652307,0.0
0.084,0.768904179514039,-0.30402937699159416,0.3247145324916877,0.0,2.6427452427041507,2.3384753856881146,25.344122448281613,25.02032702652307,0.0
0.085,0.753094980633348,-0.295993874947431,0.3685444052505755,0.0,2.641837289476849,2.331043704567836,25.06407370712523,25.02032702652307,0.0
0.08600000000000001,0.7445440300184777,-0.2904526966475062,0.5081313090227446,0.0,2.639747788867698,2.3399631695030347,24.768968116715406,25.02032702652307,0.0
0.08700000000000001,0.7510540860665267,-0.29014278879823335,0.658197693325734,0.0,2.638780506732563,2.362091555447971,24.69000399471345,25.02032702652307,0.0
0.088,0.7708429976451069,-0.29471524971748503,0.7009829846448082,0.0,2.6406288611850455,2.3830044130738064,24.86568362301033,25.02032702652307,0.0
0.089,0.7914692743235878,-0.2998583267651132,0.6146896045314956,0.0,2.6449036798209087,2.390019694337802,25.178402920713175,25.02032702652307,0.0
0.09,0.8000091346088941,-0.3015272006558199,0.45674919673817205,0.0,2.649584690077087,2.379517296418255,25.358095834204846,25.02032702652307,0.0
0.091,0.7922480977745838,-0.29681202647049476,0.36352505191551887,0.0,2.6522120016163995,2.3627971001183488,25.246592101185648,25.02032702652307,0.0
0.092,0.7766560815861732,-0.2892585063268741,0.41701426767849215,0.0,2.6521208268978453,2.356465221196899,24.913888572961422,25.02032702652307,0.0
0.093,0.7689234260402057,-0.2836756737295861,0.5844304163262214,0.0,2.650867005374736,2.369332968837532,24.643777945339206,25.02032702652307,0.0
0.094,0.7788684102746294,-0.28352376678109054,0.7232512209491682,0.0,2.6510644593296404,2.393213411762591,24.697720118165147,25.02032702652307,0.0
0.095,0.8005778991509308,-0.28811252627287665,0.6995062036197768,0.0,2.654136494795141,2.4084368019041245,25.018179900348606,25.02032702652307,0.0
0.096,0.8165297451064015,-0.2918875445432265,0.5392977837897919,0.0,2.658793030143066,2.4035219724037105,25.276782362918286,25.02032702652307,0.0
0.097,0.8143740003497888,-0.2902525790624312,0.4074319991409996,0.0,2.6622748326205654,2.387057777657844,25.192008429620632,25.02032702652307,0.0
0.098,0.799869586449253,-0.2836284053895349,0.44810215175885126,0.0,2.6630497259265176,2.3799544853502606,24.82256187775099,25.02032702652307,0.0
0.099,0.7916685611502463,-0.27760604127270416,0.6348030791813937,0.0,2.662440582354994,2.394526480738217,24.57773613604794,25.02032702652307,0.0
0.1,0.8030392257529055,-0.2769900148907746,0.7616418589376699,0.0,2.663342013418574,2.4183328353699074,24.745685922892886,25.02032702652307,0.0
0.101,0.8248195307519856,-0.28127602051482403,0.6804133765514984,0.0,2.667011557721431,2.4273630498808716,25.11968087161047,25.02032702652307,0.0
0.10200000000000001,0.8352375610716475,-0.284085175453879,0.49242236374183224,0.0,2.671483316032153,2.4150622905006536,25.21317282549311,25.02032702652307,0.0
0.10300000000000001,0.8261776901443165,-0.28023791686149296,0.4437479288108116,0.0,2.6738265325792288,2.4020652712804154,24.897437804671878,25.02032702652307,0.0
0.10400000000000001,0.8137219006116317,-0.27356194011060864,0.6028443314399399,0.0,2.6739398406928987,2.4098691624147457,24.54368294956364,25.02032702652307,0.0
0.105,0.818902828887184,-0.2702183151439581,0.7844881997636536,0.0,2.674521168129813,2.4345993967306905,24.677159914464184,25.02032702652307,0.0
0.106,0.8405365003539023,-0.2734756106923691,0.7211813884339698,0.0,2.677909125014622,2.4458066578506443,25.08707723674411,25.02032702652307,0.0
0.107,0.852709290659439,-0.27685724783009436,0.5155552251917959,0.0,2.682418419452611,2.4331235084848015,25.14904901258861,25.02032702652307,0.0
0.108,0.8434820650947691,-0.27362513004760736,0.4832821174088916,0.0,2.6848191201827656,2.421802545990812,24.75275749111129,25.02032702652307,0.0
0.109,0.8326333551128904,-0.26706151912648046,0.6841035735016692,0.0,2.685157978567008,2.435367926909632,24.483971255169198,25.02032702652307,0.0
0.11,0.8431160905762992,-0.2645104167647748,0.8238602491862536,0.0,2.68660450405413,2.4597140873385754,24.811899511818265,25.02032702652307,0.0
0.111,0.8649227428426267,-0.2685027166565992,0.6619803960087683,0.0,2.690805657047153,2.460272029272308,25.159951431244977,25.02032702652307,0.0
0.112,0.8678434142952827,-0.2702032380618201,0.4865581922481931,0.0,2.694789623289903,2.4434134410929502,24.900769688183495,25.02032702652307,0.0
0.113,0.8540707526182107,-0.26450881579388796,0.6173446371623301,0.0,2.6960459424269168,2.4463240388329703,24.465063271948996,25.02032702652307,0.0
0.114,0.8553423872561887,-0.258872470182534,0.8407504828253204,0.0,2.6969046356296618,2.4720583808595284,24.678075930173147,25.02032702652307,0.0
0.115,0.8770935064943464,-0.2613519609008603,0.7376666646767438,0.0,2.7005800011499184,2.479351972780914,25.107455301147944,25.02032702652307,0.0
0.116,0.8855694282764042,-0.26457403017230063,0.5221056964430967,0.0,2.7049468220229613,2.462888033534326,24.903852705886468,25.02032702652307,0.0
0.117,0.8728820242214672,-0.2600351616331934,0.6250717372802006,0.0,2.7066990706520264,2.4634694181379837,24.432225254562532,25.02032702652307,0.0
0.11800000000000001,0.8725477327782917,-0.25377961592751636,0.8667664806617741,0.0,2.707691511536317,2.4896345485259834,24.679113090010667,25.02032702652307,0.0
0.11900000000000001,0.8943542516931691,-0.2560295127938754,0.7467347023028307,0.0,2.7115112654833347,2.495259906915244,25.096222616782413,25.02032702652307,0.0
0.12,0.9013203146321196,-0.25909041561833535,0.5374209830143641,0.0,2.7158257802166044,2.4783323117880047,24.776139330818715,25.02032702652307,0.0
0.121,0.8883062239754753,-0.253886904866295,0.6999045029532565,0.0,2.7174130887528527,2.484996462634598,24.373472314538272,25.02032702652307,0.0
0.122,0.8932710224775822,-0.24831787577159523,0.9077065582133259,0.0,2.71894752342724,2.511710051387577,24.81026626210757,25.02032702652307,0.0
0.123,0.9156680595426917,-0.2523307011699999,0.6914101920728313,0.0,2.7234969745942577,2.5076210778125008,25.050775781757523,25.02032702652307,0.0
0.124,0.9145658252686363,-0.2536896033397445,0.5708509446955113,0.0,2.7272919342717534,2.4936426093023316,24.529783600853747,25.02032702652307,0.0
0.125,0.9036560760213779,-0.24656534822145518,0.8362524694040921,0.0,2.728512294045774,2.5130302938771036,24.482638647698337,25.02032702652307,0.0
0.126,0.9192790870584766,-0.24402627652095593,0.8652018297700445,0.0,2.731341330963998,2.5293040316584157,25.014495946484438,25.02032702652307,0.0
0.127,0.934049468638823,-0.24827452275691958,0.5993314911773806,0.0,2.736007535771491,2.5132295566410994,24.771163920191256,25.02032702652307,0.0
0.128,0.9226463859424662,-0.24500911386703877,0.7234891353872895,0.0,2.7381979951562574,2.5169472367676837,24.320613076009078,25.02032702652307,0.0
0.129,0.9257099958545049,-0.23873547020904523,0.9557616969835185,0.0,2.7398837299017247,2.544369572236284,24.81425694374881,25.02032702652307,0.0
0.13,0.9481653065167813,-0.2428898277985722,0.7110004639413955,0.0,2.7446628404909337,2.537532338308246,24.919746052642473,25.02032702652307,0.0
0.131,0.9447688002715862,-0.24380835857978517,0.6592617192333694,0.0,2.7483398114384547,2.529211258038064,24.345940032509002,25.02032702652307,0.0
0.132,0.9389514768757155,-0.23636149144931368,0.9529085992402456,0.0,2.749988636572042,2.555514467648583,24.6616593154218,25.02032702652307,0.0
0.133,0.9601290042914459,-0.23717225428172817,0.798635634894859,0.0,2.754266552736193,2.55705804268366,24.981815845708784,25.02032702652307,0.0
0.134,0.9629740310924857,-0.24007043778695064,0.6389424815595103,0.0,2.758581727344688,2.5427503569342513,24.39960603958462,25.02032702652307,0.0
