timestamp,iq,id,iq_ref,id_ref,vq,vd,omega,omega_ref,r
0.0,0.0,0.0,0.0,0.0,0.0,0.0,0.0,376.4041853891082,0.0
0.001,0.0,0.0,10.0,0.0,0.0,1.0999999999999999,6.3020094386191925,376.4041853891082,0.0
0.002,0.5311576841978174,-0.29262361756297256,10.0,0.0,0.14218859793192695,1.9315726547382404,13.863724729873402,376.4041853891082,0.0
0.003,1.111418080258119,-0.6188566871320423,10.0,0.0,0.3862750030214531,2.635689837071194,21.69719593043882,376.4041853891082,0.0
0.004,1.622790986057896,-0.9074430589599537,10.0,0.0,0.7048466560407017,3.243355526002432,29.71189836678294,376.4041853891082,0.0
0.005,2.0384099937445943,-1.1413069234538011,10.0,0.0,1.0751668740271931,3.781507449554932,37.888375307526225,376.4041853891082,0.0
0.006,2.365949725129278,-1.3245615270579647,10.0,0.0,1.480089630321805,4.271003022175385,46.18602633066132,376.4041853891082,0.0
0.007,2.6232226093243516,-1.467320965638669,10.0,0.0,1.9073406604568366,4.727016693215639,54.498488366879975,376.4041853891082,0.0
0.008,2.8278847658305697,-1.5804432345551158,10.0,0.0,2.348483809877394,5.1602139917916405,62.84118884722068,376.4041853891082,0.0
0.009000000000000001,2.9953496457195032,-1.671483264060658,10.0,0.0,2.797715554769939,5.577831360229377,71.19349068380765,376.4041853891082,0.0
0.01,3.136541710792331,-1.747303744313005,10.0,0.0,3.2512157145497067,5.984753687953471,79.48917487370056,376.4041853891082,0.0
0.011,3.2594243216066614,-1.8125443192604862,10.0,0.0,3.7064763495656057,6.384228632344283,87.74817238703375,376.4041853891082,0.0
0.012,3.3701679295719638,-1.869274663876142,10.0,0.0,4.161746347677244,6.778329175029567,95.90631294962536,376.4041853891082,0.0
0.013000000000000001,3.4721018310187053,-1.9203266741083056,10.0,0.0,4.615947817925629,7.168441370177996,103.9474007064581,376.4041853891082,0.0
0.014,3.568408948352763,-1.9659632929737492,10.0,0.0,5.0682498686368955,7.5553880489441445,111.89804920420124,376.4041853891082,0.0
0.015,3.6610354652692703,-2.006636432518861,10.0,0.0,5.518034061314958,7.9396444192173234,119.74531044647053,376.4041853891082,0.0
0.016,3.751399535972027,-2.042450308536966,10.0,0.0,5.964798266719071,8.321439789122861,127.41952613713553,376.4041853891082,0.0
0.017,3.840110711310605,-2.0740843810652687,10.0,0.0,6.40818719779126,8.700877453998032,134.9016500597463,376.4041853891082,0.0
0.018000000000000002,3.9288190690611495,-2.0999943020934593,10.0,0.0,6.847714752831568,9.077839437893735,142.21357676970007,376.4041853891082,0.0
0.019,4.018128479731548,-2.1201024314056687,10.0,0.0,7.282938545771472,9.452121027307658,149.3179897906001,376.4041853891082,0.0
0.02,4.10883735255554,-2.1338795594782405,10.0,0.0,7.71338252115364,9.823411955170245,156.2190402697947,376.4041853891082,0.0
0.021,4.201873803074951,-2.1405296246558456,10.0,0.0,8.138504927672656,10.191291266955897,162.9639025911708,376.4041853891082,0.0
0.022,4.2981574146092765,-2.1392707757974927,10.0,0.0,8.557698050692151,10.555234055451304,169.18862294837476,376.4041853891082,0.0
0.023,4.396717712232907,-2.13248807979772,10.0,0.0,8.97063263218784,10.914823080775859,174.8513738341857,376.4041853891082,0.0
0.024,4.500310439939073,-2.1164964230173076,10.0,0.0,9.37654140278057,11.26933706464609,180.37593011038186,376.4041853891082,0.0
0.025,4.610162072156686,-2.0900949986058777,10.0,0.0,9.774566454583596,11.61794277492169,185.44679661813888,376.4041853891082,0.0
0.026000000000000002,4.7233243836596674,-2.0590251906889656,10.0,0.0,10.16449590760713,11.960141081406885,189.92650633100777,376.4041853891082,0.0
0.027,4.84529754527016,-2.0152462357522465,10.0,0.0,10.545147259012962,12.294827077883786,193.84070999679972,376.4041853891082,0.0
0.028,4.9709658045152505,-1.9679564839374954,10.0,0.0,10.916437991775645,12.621505832952728,197.3357922217351,376.4041853891082,0.0
0.029,5.1075959094161565,-1.9062149192210869,10.0,0.0,11.2769488521683,12.938873156844398,200.46089716882227,376.4041853891082,0.0
0.03,5.247670569121777,-1.8429864034169559,10.0,0.0,11.626807637819564,13.246512922867549,202.9466202679782,376.4041853891082,0.0
0.031,5.399448867379032,-1.7655857409610614,10.0,0.0,11.964562733795912,13.543079724642276,205.21343881393335,376.4041853891082,0.0
0.032,5.554225090991187,-1.6887059383154222,10.0,0.0,12.290516228685632,13.8282577542224,206.65347289882834,376.4041853891082,0.0
0.033,5.7213257954902055,-1.597598671419662,10.0,0.0,12.603139175712318,14.100680015074715,208.16084225825202,376.4041853891082,0.0
0.034,5.889413123601837,-1.511044908458278,10.0,0.0,12.903132212864769,14.360303745497172,208.77541988020045,376.4041853891082,0.0
0.035,6.071664328991851,-1.407497374892575,10.0,0.0,13.188563628281614,14.605597647280849,209.33309255885615,376.4041853891082,0.0
0.036000000000000004,6.2488760240188,-1.3186114648347087,10.0,0.0,13.461239317564427,14.837234526028775,210.28083866216153,376.4041853891082,0.0
0.037,6.44935116887366,-1.1969983876293084,10.0,0.0,13.717322546401734,15.052695136846427,204.6689735561211,376.4041853891082,0.0
0.038,6.63250370159785,-1.1099164634014635,10.0,0.0,13.960980632544072,15.254075982314928,215.76622866021876,376.4041853891082,0.0
0.039,6.766271708994095,-1.1109630244971593,10.0,0.0,14.201396935581833,15.44680159636447,223.62603360387112,376.4041853891082,0.0
0.04,6.855827671779188,-1.1766196035952485,10.0,0.0,14.444255927810596,15.635782803480438,227.309354666364,376.4041853891082,0.0
0.041,6.896998262269234,-1.3130200622947954,10.0,0.0,14.696074626194058,15.826518583781633,239.45782676152348,376.4041853891082,0.0
0.042,6.946123236085173,-1.4227124042835984,10.0,0.0,14.952487185801063,16.0183706146762,243.75217787626605,376.4041853891082,0.0
0.043000000000000003,6.962228670939403,-1.5754402077900154,10.0,0.0,15.218146827502647,16.2153983503462,255.67663341713026,376.4041853891082,0.0
0.044,6.984519863207691,-1.7039379279048616,10.0,0.0,15.489550749778633,16.4169982998184,264.0383413747919,376.4041853891082,0.0
0.045,6.970769064189293,-1.8815849108316764,10.0,0.0,15.772230465695037,16.627314146385668,270.1393612902005,376.4041853891082,0.0
0.046,6.972599184208876,-2.0177436352357434,10.0,0.0,16.06087478453172,16.844527558695525,283.8620155115496,376.4041853891082,0.0
0.047,6.942958599484697,-2.193294543573677,10.0,0.0,16.360325025388846,17.07216282717792,292.60947478558273,376.4041853891082,0.0
0.048,6.903348280287432,-2.3706233109175137,10.0,0.0,16.670344424332935,17.311040322162235,299.9613250409254,376.4041853891082,0.0
0.049,6.864289957673178,-2.528844703799056,10.0,0.0,16.988880698424587,17.56093231983813,313.27957778652626,376.4041853891082,0.0
0.05,6.807285575377623,-2.699044215915209,10.0,0.0,17.31769227727863,17.82356864398198,324.1376469635061,376.4041853891082,0.0
0.051000000000000004,6.741006584574415,-2.8655815764278163,10.0,0.0,17.656503445196872,18.099543138762233,333.24421846882615,376.4041853891082,0.0
0.052000000000000005,6.669455785086418,-3.020818249115865,10.0,0.0,18.004441606191875,18.38900909889193,341.8774904946785,376.4041853891082,0.0
0.053,6.596487810949568,-3.1582450722517974,10.0,0.0,18.36009713091842,18.691633248268335,350.4997871452004,376.4041853891082,0.0
0.054,6.530069915382614,-3.2654367250160763,10.0,0.0,18.72086633168266,19.006136823950754,359.31742033403606,376.4041853891082,0.0
0.055,6.470937288110766,-3.3441432361318673,10.0,0.0,19.08459476963381,19.33110737218558,367.23760741662625,376.4041853891082,0.0
0.056,6.42600362737893,-3.387553108265756,10.0,0.0,19.448435439436903,19.66430508579983,373.74790320355845,376.4041853891082,0.0
0.057,6.401608471533245,-3.391381220739449,7.0164022615977535,0.0,19.80919880727188,19.67460547434443,376.7651583300766,376.4041853891082,0.0
0.058,6.245648930671896,-3.2770747566229055,5.504164968929001,0.0,20.122303885000253,19.600353633944806,372.8728348059793,376.4041853891082,0.0
0.059000000000000004,6.0348578964729045,-3.065652982189575,7.485640236808923,0.0,20.374559940369345,19.81954955610474,367.2783776655436,376.4041853891082,0.0
0.06,5.994690168125551,-2.849624331316637,10.0,0.0,20.60186104856581,20.301126852634027,372.17204023854356,376.4041853891082,0.0
0.061,6.168277588491707,-2.69863976102757,7.962134511582849,0.0,20.8401417593725,20.48847143544849,374.2897576829234,376.4041853891082,0.0
0.062,6.296907179605057,-2.5104769247592684,6.924420066454787,0.0,21.054140791093346,20.574726316163453,361.31502351294824,376.4041853891082,0.0
0.063,6.401775813895593,-2.258382729591366,10.0,0.0,21.2295166746078,21.012197295259426,358.84088612644615,376.4041853891082,0.0
0.064,6.719468654464477,-2.028045854052398,10.0,0.0,21.408285953322814,21.358805439342127,358.5869467754533,376.4041853891082,0.0
0.065,7.0511432069666125,-1.8643900730827294,10.0,0.0,21.588140351423334,21.655322424518516,345.1549434848136,376.4041853891082,0.0
0.066,7.435151179622437,-1.6370976860844992,10.0,0.0,21.756295403471313,21.901249019520186,345.8020837005292,376.4041853891082,0.0
0.067,7.803708434228351,-1.4311248507245868,10.0,0.0,21.911843521795063,22.102697241946416,333.6883937881985,376.4041853891082,0.0
0.068,8.192881231087831,-1.1852471809204963,10.0,0.0,22.046994835204206,22.2604320188539,328.07201750808025,376.4041853891082,0.0
0.069,8.551753234772347,-0.9845759624415453,10.0,0.0,22.164789437628542,22.38032425697485,333.0892058059025,376.4041853891082,0.0
0.07,8.883457955552958,-0.8293803570180756,10.0,0.0,22.267728999210746,22.467107932277113,339.23281688864915,376.4041853891082,0.0
0.07100000000000001,9.00443351364611,-0.9916104513361284,10.0,0.0,22.38845023859417,22.54551693202494,352.0058006584844,376.4041853891082,0.0
0.07200000000000001,9.016399081124021,-1.2838346398057605,10.0,0.0,22.53546261380252,22.62805069889467,363.38666225414715,376.4041853891082,0.0
0.073,9.003328548559747,-1.559630462069672,10.0,0.0,22.703442426741347,22.718589740855133,377.72899024389704,376.4041853891082,0.0
0.074,8.912355211359232,-1.909814256547703,5.956501125638709,0.0,22.899440421752267,22.38196434550009,383.70581904269653,376.4041853891082,0.0
0.075,8.594828691662446,-2.114701553767831,2.895070389703081,0.0,23.061211842476034,21.836297080766983,394.0007270989796,376.4041853891082,0.0
0.076,8.047957608862461,-2.2515532551356983,-2.428349055537173,0.0,23.16524420883238,20.863392406873526,395.7199390689793,376.4041853891082,0.0
0.077,7.220792814901373,-2.2189592119630905,-3.4811125773357148,0.0,23.156629009401076,20.021131060567317,398.5404585633747,376.4041853891082,0.0
0.078,6.363185172709436,-2.1463455354408456,-5.112735056276108,0.0,23.05698763129656,19.179348684184657,398.6963626432688,376.4041853891082,0.0
0.079,5.518880317412507,-2.041606321882118,-5.413608868764749,0.0,22.872336976637996,18.479297970706206,396.84341203225705,376.4041853891082,0.0
0.08,4.780244215574229,-1.9345279254884369,-4.691525829690363,0.0,22.62541508462973,17.986032058182055,393.97423479579584,376.4041853891082,0.0
0.081,4.213627417580513,-1.85082135873844,-3.4326377055266333,0.0,22.345721852191296,17.703598897737674,390.7726060169994,376.4041853891082,0.0
0.082,3.841284085128996,-1.801702529229136,-1.9755075224073364,0.0,22.061188621373752,17.604426767585114,386.987480697375,376.4041853891082,0.0
0.083,3.649822968570959,-1.7889634077975665,-0.18877781567780527,0.0,21.794281385560332,17.686024782771977,382.7826110173067,376.4041853891082,0.0
0.084,3.6321582978832962,-1.8041130677955084,1.8498727680743734,0.0,21.564018528661023,17.939185042614323,378.4569352550795,376.4041853891082,0.0
0.085,3.7740993168642047,-1.8449177242365682,3.9921831505282643,0.0,21.386434999044422,18.343480468220125,373.8994282023605,376.4041853891082,0.0
0.08600000000000001,4.06194282810246,-1.8957339958825843,6.295984248755222,0.0,21.272221108266713,18.89133963923772,373.4643167372333,376.4041853891082,0.0
0.08700000000000001,4.483510161790107,-1.9495335918994405,6.542938667837595,0.0,21.229624316513927,19.333624507599318,375.77972628096387,376.4041853891082,0.0
0.088,4.897600590280631,-1.9712590236450394,5.3914784870537416,0.0,21.23736749230443,19.55695677207534,366.74172703296597,376.4041853891082,0.0
0.089,5.206681899076631,-1.9151727941029357,10.0,0.0,21.26028283739638,20.247324056232088,359.82066612068166,376.4041853891082,0.0
0.09,5.747347893439486,-1.8685534261918257,10.0,0.0,21.345376108220034,20.76847848506094,363.4098623581424,376.4041853891082,0.0
0.091,6.270571916973621,-1.825196619997321,10.0,0.0,21.46977243984191,21.19387881544415,353.2173817712376,376.4041853891082,0.0
0.092,6.759822108034849,-1.7371600603850128,10.0,0.0,21.615018717844514,21.540593465169827,350.6603651828657,376.4041853891082,0.0
0.093,7.241553103682531,-1.5586602497393658,10.0,0.0,21.76165721944452,21.819063370112563,342.51582834575385,376.4041853891082,0.0
0.094,7.65526351621577,-1.4093284736542202,10.0,0.0,21.906837364115894,22.043659299298852,338.41308502035423,376.4041853891082,0.0
0.095,8.090488309071175,-1.1704071191245178,10.0,0.0,22.035171056001353,22.216576026944885,325.5688222759464,376.4041853891082,0.0
0.096,8.474937746112806,-0.9776913686079203,10.0,0.0,22.14915353245133,22.347097260868836,334.8789254354474,376.4041853891082,0.0
0.097,8.834256471898339,-0.8079103675229917,10.0,0.0,22.248041132034533,22.440284053579397,337.6819357024739,376.4041853891082,0.0
0.098,8.979771000923549,-0.9553049229325228,10.0,0.0,22.364269862036366,22.5216275160423,350.15407543871027,376.4041853891082,0.0
0.099,9.004376331195951,-1.2453031959609202,10.0,0.0,22.507435929763336,22.60520806421939,362.2102518345308,376.4041853891082,0.0
0.1,9.000778565115505,-1.5196265777587747,10.0,0.0,22.671919034802794,22.695388971923038,375.4611233748245,376.4041853891082,0.0
0.101,8.91651850019345,-1.8698243562077335,6.559238562099057,0.0,22.864750441920087,22.42374897067178,382.58807068594257,376.4041853891082,0.0
0.10200000000000001,8.637649812144483,-2.0891024748815616,2.9339260535716907,0.0,23.03175332347015,21.864012303734548,392.8577515934608,376.4041853891082,0.0
0.10300000000000001,8.099399745527622,-2.2305053536464263,-2.365450062230961,0.0,23.13944378564888,20.886690164440388,394.52281581949734,376.4041853891082,0.0
0.10400000000000001,7.273804350322311,-2.2007270304572932,-3.3791684795531127,0.0,23.13394334334187,20.044787013352533,397.4511607249668,376.4041853891082,0.0
0.105,6.417269584108327,-2.1312893222540654,-5.053810685646443,0.0,23.037462265486308,19.198413544977193,397.79227069432136,376.4041853891082,0.0
0.106,5.570305405248864,-2.030131415528799,-5.438246523375842,0.0,22.855558955921023,18.48608850757693,396.0837922578466,376.4041853891082,0.0
0.107,4.8233728509392,-1.9252497880447743,-4.780803373825844,0.0,22.610088073616254,17.976661686973436,393.3248198724794,376.4041853891082,0.0
0.108,4.244117076681754,-1.8425849429150145,-3.570523525975955,0.0,22.330177280792174,17.67643562159302,390.1728900281569,376.4041853891082,0.0
0.109,3.856585395224995,-1.7939222051454704,-2.132245650205209,0.0,22.04370870800911,17.561184778542188,386.4808762530483,376.4041853891082,0.0
0.11,3.6507705527314096,-1.7803494935280062,-0.38700567129028585,0.0,21.773355537299047,17.625170097300796,382.4372988267255,376.4041853891082,0.0
0.111,3.6170211495026328,-1.796250060245407,1.5744519074949261,0.0,21.538321004990937,17.85568378691999,378.2177432359588,376.4041853891082,0.0
0.112,3.7405095575236467,-1.8362188585130907,3.6660941244097858,0.0,21.354078857017818,18.236187503504635,373.54875546137873,376.4041853891082,0.0
0.113,4.0075098506085105,-1.8873294085173729,6.029142310977104,0.0,21.23153376801829,18.771100363827635,372.2961157435929,376.4041853891082,0.0
0.114,4.414784183730616,-1.9410344944045705,6.69654286632517,0.0,21.180130927898556,19.24792083472842,374.8851001185619,376.4041853891082,0.0
0.115,4.84208102459891,-1.9696597426934,5.417241531546124,0.0,21.184162145333758,19.481591912983678,368.2325864237624,376.4041853891082,0.0
0.116,5.15334365673614,-1.9310504354891902,8.82521436859933,0.0,21.206624072575636,20.050003109454163,357.4299262531722,376.4041853891082,0.0
0.117,5.63072963205535,-1.8694655039671575,10.0,0.0,21.277292677344978,20.60956623912159,362.2938818855265,376.4041853891082,0.0
0.11800000000000001,6.158063508583311,-1.8146323945515632,10.0,0.0,21.391434941883645,21.055259193320317,355.0664511701191,376.4041853891082,0.0
0.11900000000000001,6.646060699513482,-1.748127283552786,10.0,0.0,21.531965044272603,21.419390726316003,347.813413309416,376.4041853891082,0.0
0.12,7.139332319947321,-1.574758704999466,10.0,0.0,21.676449797191353,21.711782209912585,345.2230662721469,376.4041853891082,0.0
0.121,7.560281848999377,-1.433144702978701,10.0,0.0,21.82188136874114,21.94801128845001,335.95484545285655,376.4041853891082,0.0
0.122,7.999673183762668,-1.2014002534746497,10.0,0.0,21.952316941564447,22.131037064755215,327.4691756007003,376.4041853891082,0.0
0.123,8.38180914051863,-1.022016516122748,10.0,0.0,22.070596768122286,22.271162778816716,326.9822905373669,376.4041853891082,0.0
0.124,8.784222937260097,-0.7849786355487103,10.0,0.0,22.166780853940853,22.368659746053854,333.0495574104671,376.4041853891082,0.0
0.125,8.937615814557073,-0.9310136670551663,10.0,0.0,22.281530460172736,22.453176346613873,350.58522130591086,376.4041853891082,0.0
0.126,8.991298856671973,-1.1840820469314144,10.0,0.0,22.41963393730875,22.536345041881408,356.4012893615136,376.4041853891082,0.0
0.127,8.986696685395042,-1.4714097932103076,10.0,0.0,22.581319304549833,22.62605028459742,375.2772126170905,376.4041853891082,0.0
0.128,8.921790505119278,-1.7997550352147713,6.29983650388748,0.0,22.76905135849612,22.32302921331111,378.18207667669327,376.4041853891082,0.0
0.129,8.626323539680556,-2.027644302359284,4.829625561210257,0.0,22.92949246688499,21.97621419021019,388.73349475962306,376.4041853891082,0.0
0.13,8.205611486866463,-2.1989709588839705,-0.5693765739597847,0.0,23.055775001671154,21.144260310971486,395.10907644420786,376.4041853891082,0.0
0.131,7.483776536738548,-2.238212766602698,-3.9442163268031827,0.0,23.08883722733865,20.16608244566013,396.2482791764725,376.4041853891082,0.0
0.132,6.596239288559165,-2.160158803781231,-4.712258630809157,0.0,23.0117970899207,19.32870308133288,396.9032707188706,376.4041853891082,0.0
0.133,5.7372801077340565,-2.056729137752737,-5.244745255305821,0.0,22.848126306176905,18.602074671450957,395.83629745805365,376.4041853891082,0.0
0.134,4.97142026107423,-1.9521678017501558,-4.9055797455868,0.0,22.617692309519295,18.050030087821234,393.3138599552367,376.4041853891082,0.0
0.135,4.356455897611713,-1.8654006902617293,-3.813457739839607,0.0,22.34659848526078,17.706875809938012,390.14747564204725,376.4041853891082,0.0
0.136,3.929547861811261,-1.8077146159243431,-2.3676984857742784,0.0,22.062820818577563,17.559850115610388,386.74636320706844,376.4041853891082,0.0
0.137,3.688537796329613,-1.787971739695637,-0.7705640464644743,0.0,21.79112349348812,17.58261844667561,382.62366504395567,376.4041853891082,0.0
0.138,3.618146480243541,-1.7959102208147062,1.228590238543438,0.0,21.54994339569953,17.785208783197795,378.5966925308225,376.4041853891082,0.0
0.139,3.711240994211947,-1.8317833145639262,3.220151423692874,0.0,21.357006996843243,18.13155795410787,373.92998735505137,376.4041853891082,0.0
0.14,3.946938803733202,-1.8806341312848713,5.5782459919190135,0.0,21.223014013865402,18.63845754478703,371.4272685525818,376.4041853891082,0.0
0.14100000000000001,4.327626082902897,-1.9317669164423157,6.879374561519072,0.0,21.15824638645337,19.161292452460792,374.1981121232845,376.4041853891082,0.0
0.14200000000000002,4.766722438723415,-1.973758548084027,5.516013508825954,0.0,21.156346764178927,19.41789237878517,370.2510552933568,376.4041853891082,0.0
0.14300000000000002,5.089837008821637,-1.9513329355409996,7.55107322474732,0.0,21.17741036306822,19.854980890375348,357.3567908594847,376.4041853891082,0.0
0.14400000000000002,5.49775065523851,-1.880095641386726,10.0,0.0,21.232464606996068,20.45785890340914,361.27532240461096,376.4041853891082,0.0
0.145,6.031396502703554,-1.8125373860519258,10.0,0.0,21.335582192689216,20.926843365022826,358.76048467773296,376.4041853891082,0.0
