timestamp,iq,id,iq_ref,id_ref,vq,vd,omega,omega_ref,r
0.0,0.0,0.0,0.0,0.0,0.0,0.0,0.0,337.966002167566,0.0
0.001,0.0,0.0,10.0,0.0,0.0,1.0999999999999999,8.997974132401016,337.966002167566,0.0
0.002,0.5063005903691672,-0.27989514777338015,10.0,0.0,0.14078846625507174,1.9343069350593918,16.61833715632971,337.966002167566,0.0
0.003,1.0954701095002495,-0.6191906815333275,10.0,0.0,0.3854523366264361,2.6395163820376237,24.426955437166537,337.966002167566,0.0
0.004,1.6429780152102103,-0.9305266875167579,10.0,0.0,0.7070247699790649,3.244337096918384,32.69228801163021,337.966002167566,0.0
0.005,2.1021817974794197,-1.192015200916257,10.0,0.0,1.0825724078986176,3.7757956466538176,41.01961723844555,337.966002167566,0.0
0.006,2.4697483401393856,-1.4011038536216505,10.0,0.0,1.4940960036633566,4.255822823337761,49.51187773318951,337.966002167566,0.0
0.007,2.758637259069718,-1.5650500864420716,10.0,0.0,1.9284131566032083,4.700897526274045,58.01049890498874,337.966002167566,0.0
0.008,2.986000745052806,-1.693898376926445,10.0,0.0,2.37633991416778,5.122775379941848,66.42484846203486,337.966002167566,0.0
0.009000000000000001,3.168189574869654,-1.796643959080808,10.0,0.0,2.831675312474812,5.529490987579307,74.78569924865826,337.966002167566,0.0
0.01,3.318452887214637,-1.880739460560402,10.0,0.0,3.2903717810560966,5.926361498223945,83.15916435908761,337.966002167566,0.0
0.011,3.446857874271245,-1.9516033291395802,10.0,0.0,3.7498397243726322,6.3167926892094695,91.48786498577863,337.966002167566,0.0
0.012,3.5605763638253554,-2.013082797734946,10.0,0.0,4.208458095315764,6.7029025714477095,99.95650763757904,337.966002167566,0.0
0.013000000000000001,3.6648136446814377,-2.06728864587585,10.0,0.0,4.665173465997952,7.08593438655781,107.97816711923558,337.966002167566,0.0
0.014,3.762581871018375,-2.1163444012977446,10.0,0.0,5.119374555737932,7.4666224251366184,115.93742643742229,337.966002167566,0.0
0.015,3.8568751825858647,-2.159849766338464,10.0,0.0,5.570519372962052,7.845267186822485,123.75315840379643,337.966002167566,0.0
0.016,3.949003773907735,-2.198543374913575,10.0,0.0,6.018235427925205,8.221970742132449,131.28851257072517,337.966002167566,0.0
0.017,4.04018096472988,-2.232263822919308,10.0,0.0,6.462172546117918,8.596667342330516,138.7372888019144,337.966002167566,0.0
0.018000000000000002,4.131693543552239,-2.260091786144203,10.0,0.0,6.901909483985848,8.96913338256581,145.94363731926364,337.966002167566,0.0
0.019,4.224142929548833,-2.2819003073115036,10.0,0.0,7.3370399897866685,9.339072205892961,152.89844208566598,337.966002167566,0.0
0.02,4.318482766319865,-2.296820669186297,10.0,0.0,7.767074481934675,9.706077309282636,159.5701953502498,337.966002167566,0.0
0.021,4.41544999730597,-2.304294809813368,10.0,0.0,8.19147898705708,10.069662354507383,165.95213308246656,337.966002167566,0.0
0.022,4.515871347887882,-2.3036400171176146,10.0,0.0,8.609654777586911,10.429252669467745,172.12168205881918,337.966002167566,0.0
0.023,4.620544553971713,-2.294277128167414,10.0,0.0,9.020948650702234,10.784191692821649,178.6429417692793,337.966002167566,0.0
0.024,4.730888099025939,-2.274664798453313,10.0,0.0,9.424543311462369,11.133675143256575,183.25676042423237,337.966002167566,0.0
0.025,4.845561459652536,-2.2478554360248815,10.0,0.0,9.819973944619992,11.477059080505633,188.16691846117536,337.966002167566,0.0
0.026000000000000002,4.967825204096252,-2.209464310622554,10.0,0.0,10.206244978016787,11.813345409063004,192.75153510936747,337.966002167566,0.0
0.027,5.096431363307341,-2.162400556848318,10.0,0.0,10.582724439268496,12.141706168035537,196.1505480419548,337.966002167566,0.0
0.028,5.233128731729692,-2.104743339154384,10.0,0.0,10.948520373883703,12.461128148301643,199.90247632978034,337.966002167566,0.0
0.029,5.376044009282696,-2.0404325589151355,10.0,0.0,11.303181299414618,12.770833817156047,203.00571343538294,337.966002167566,0.0
0.03,5.530809313691609,-1.9610409876146486,10.0,0.0,11.645256734237218,13.069439980968655,203.74194078661034,337.966002167566,0.0
0.031,5.687887310487126,-1.8827985303653576,10.0,0.0,11.975172487374405,13.356662145278845,206.59148777735757,337.966002167566,0.0
0.032,5.854849825313851,-1.7941162482720372,10.0,0.0,12.291846255171121,13.631358571808745,209.4812327775486,337.966002167566,0.0
0.033,6.032761326737702,-1.6933384338833435,10.0,0.0,12.594123552079328,13.892352092456976,206.98120539946143,337.966002167566,0.0
0.034,6.228026315148369,-1.5696510949386502,10.0,0.0,12.87967464222151,14.137773957020269,203.77879128040735,337.966002167566,0.0
0.035,6.405168997945591,-1.4820331476298523,10.0,0.0,13.152811708991283,14.369675698917863,205.82497788367505,337.966002167566,0.0
0.036000000000000004,6.595664826291145,-1.3794356862670938,10.0,0.0,13.411415701997026,14.586517859012636,206.71879780107926,337.966002167566,0.0
0.037,6.796049125088591,-1.2660824727371933,10.0,0.0,13.654400632837007,14.787398887814236,206.2109380864026,337.966002167566,0.0
0.038,7.001138387861149,-1.1498545534878613,10.0,0.0,13.881523634491023,14.971934330902672,214.66163411873737,337.966002167566,0.0
0.039,7.1182937915197435,-1.1837639396420543,10.0,0.0,14.109280191957934,15.149892328072946,222.95766969883528,337.966002167566,0.0
0.04,7.197464721419067,-1.2731880023025774,10.0,0.0,14.341554446426297,15.325292933020547,231.86191552449472,337.966002167566,0.0
0.041,7.252106138018101,-1.3919409520079955,10.0,0.0,14.580309919783577,15.501162056393325,241.55396201943265,337.966002167566,0.0
0.042,7.2916570224443245,-1.522344046818601,10.0,0.0,14.825933569074518,15.679515631643657,246.56712599804493,337.966002167566,0.0
0.043000000000000003,7.317858654786027,-1.6609027898454727,10.0,0.0,15.078767641746248,15.86210954358472,251.54932052249,337.966002167566,0.0
0.044,7.3101946409212015,-1.844457525221392,10.0,0.0,15.343383131805993,16.0528325294474,266.8172017978214,337.966002167566,0.0
0.045,7.308798685041765,-2.0031139872156465,10.0,0.0,15.616226034911643,16.251021680737882,271.2802961976129,337.966002167566,0.0
0.046,7.300135844052412,-2.158285518655113,10.0,0.0,15.897085866674171,16.457615160159904,282.61334896440775,337.966002167566,0.0
0.047,7.2514429182623825,-2.368461794402949,10.0,0.0,16.192086738220514,16.67690486824299,295.2381644407802,337.966002167566,0.0
0.048,7.220504070676629,-2.5311729974869914,10.0,0.0,16.495312963002306,16.90668203664894,301.8179026174587,337.966002167566,0.0
0.049,7.151376991465357,-2.7424648379489596,10.0,0.0,16.812809272566486,17.151098700929857,315.0533630646245,337.966002167566,0.0
0.05,7.100515219289507,-2.9027568387220377,10.0,0.0,17.138516819282756,17.40772685388632,324.23676002806616,337.966002167566,0.0
0.051000000000000004,7.014875985837886,-3.1029699767961576,10.0,0.0,17.47773695180347,17.68017464417669,333.46061230294185,337.966002167566,0.0
0.052000000000000005,6.947831945783284,-3.250459196646065,7.783504932157134,0.0,17.824501532903902,17.722003663298874,341.47549616192975,337.966002167566,0.0
0.053,6.751798817838569,-3.348574204735291,3.7409680627195465,0.0,18.150090316497817,17.392705337332544,342.0576241835797,337.966002167566,0.0
0.054,6.3489651627558406,-3.287194585579117,3.408987831734427,0.0,18.40245748094764,17.175154636387912,346.23526007049446,337.966002167566,0.0
0.055,5.929777102490104,-3.1513230480744667,1.2374773092477707,0.0,18.59350078592406,16.81113171689744,346.02284114226313,337.966002167566,0.0
0.056,5.437521596233799,-2.973976783253699,1.2631183836164643,0.0,18.710888094698564,16.577107268344616,340.6901237803972,337.966002167566,0.0
0.057,5.036315900049435,-2.7398208200609115,3.9022358484211255,0.0,18.76915053443733,16.707480577427066,347.0486669116774,337.966002167566,0.0
0.058,4.850217992777451,-2.5953730097942374,0.6321376353399035,0.0,18.821076361613066,16.460999534326252,334.5869411221712,337.966002167566,0.0
0.059000000000000004,4.6159982588067905,-2.3886922221020415,6.896791140546953,0.0,18.82187109321767,16.990075237620726,342.6830282273702,337.966002167566,0.0
0.06,4.757487694197426,-2.297998213418921,2.801577327349417,0.0,18.86758438891303,16.93529675400973,330.2697696341057,337.966002167566,0.0
0.061,4.785770549290595,-2.164836595546159,9.085168949316248,0.0,18.889507668798593,17.62101844517137,337.6958506727323,337.966002167566,0.0
0.062,5.152225906100629,-2.120230059729396,5.37482994495129,0.0,18.974235687050633,17.729359827807404,323.8742318563917,337.966002167566,0.0
0.063,5.391448777482719,-2.0124333364645355,10.0,0.0,19.049913467540115,18.358562007820122,332.5064177232893,337.966002167566,0.0
0.064,5.839786017915626,-1.9630595909088946,8.116528826102641,0.0,19.176590543203453,18.63205335046752,321.9704235411018,337.966002167566,0.0
0.065,6.234904176806398,-1.8390726141773786,10.0,0.0,19.304804215580287,19.07790018221054,320.46557035347024,337.966002167566,0.0
0.066,6.668928459676999,-1.7611109474438322,10.0,0.0,19.457445290320354,19.429357496751106,321.20290282648386,337.966002167566,0.0
0.067,7.122312031442406,-1.6229787913109575,10.0,0.0,19.6155530685332,19.71540123724614,313.08942266160153,337.966002167566,0.0
0.068,7.556775033192487,-1.4559761602330266,10.0,0.0,19.769465475117013,19.94539428703809,302.0741438995265,337.966002167566,0.0
0.069,7.955875932576082,-1.2888722148776561,10.0,0.0,19.914274538343328,20.12822280359454,297.9799576091184,337.966002167566,0.0
0.07,8.332837295374487,-1.112544497404531,10.0,0.0,20.04516053743417,20.269774633903985,295.7416116614548,337.966002167566,0.0
0.07100000000000001,8.70288050665078,-0.9136142144898491,10.0,0.0,20.156994065700992,20.373324741479163,308.6688471392085,337.966002167566,0.0
0.07200000000000001,8.863896139335658,-1.029362842216484,10.0,0.0,20.282720903777722,20.46369190364093,323.2616425167047,337.966002167566,0.0
0.073,8.940695491925835,-1.2343395896592604,10.0,0.0,20.426301730204393,20.55075726093613,332.81435630303235,337.966002167566,0.0
0.074,8.962233532335373,-1.477420459954247,8.736872384618259,0.0,20.588920137975943,20.502928936533323,337.0230092247202,337.966002167566,0.0
0.075,8.862149682544771,-1.7328019658157756,6.641975853202781,0.0,20.756155029471874,20.26956254692714,345.2545792562528,337.966002167566,0.0
0.076,8.595428130383333,-1.9642328163911655,2.4533050665496354,0.0,20.90623337136227,19.664789996453326,356.3539983125908,337.966002167566,0.0
0.077,8.102053980707874,-2.0352706810664447,-3.280284423069631,0.0,20.986326480624776,18.598298340167037,351.57080293046386,337.966002167566,0.0
0.078,7.254451301802293,-1.9865362948647936,-1.0247347396351287,0.0,20.94568995220346,18.04021407369246,356.57462031432067,337.966002167566,0.0
0.079,6.514648015601299,-1.9689277116023336,-3.7127296130310814,0.0,20.851859049679973,17.288541982808383,356.49132062175045,337.966002167566,0.0
0.08,5.751909209836035,-1.9046600338892425,-3.856332951287815,0.0,20.685350669604606,16.690240828058236,355.97396474346135,337.966002167566,0.0
0.081,5.061807353525534,-1.8545829879221367,-3.7777346379022205,0.0,20.470797213782514,16.21348461476706,354.4145141699358,337.966002167566,0.0
0.082,4.48534247892646,-1.8140637960539965,-3.1624944711631358,0.0,20.226067141567682,15.886349230073023,352.4598044723344,337.966002167566,0.0
0.083,4.045008030121846,-1.7980139932163595,-2.3300776454101184,0.0,19.971736251711476,15.695539966414877,350.02747268224147,337.966002167566,0.0
0.084,3.744832216141231,-1.8032860898247942,-1.234526455510415,0.0,19.72449795313038,15.63918099781817,348.10572057859486,337.966002167566,0.0
0.085,3.5819279034289986,-1.8279298242489335,-0.3750475877973978,0.0,19.499005677368295,15.662238976031002,344.52779577386974,337.966002167566,0.0
0.08600000000000001,3.525089219323677,-1.86025508257893,1.3482968785021212,0.0,19.301677768075763,15.846038243586623,340.9977072540962,337.966002167566,0.0
0.08700000000000001,3.600112189724494,-1.9063157116103882,3.083024087523583,0.0,19.147205993078202,16.156490428201657,345.37614061859625,337.966002167566,0.0
0.088,3.7982680203105303,-1.9640012561328895,0.8197060207632605,0.0,19.045111417649057,16.133091045761113,334.7691562246139,337.966002167566,0.0
0.089,3.889744192930606,-1.9490151253230716,6.155166677183968,0.0,18.94866103168447,16.70327517621325,340.297895835509,337.966002167566,0.0
0.09,4.242728267892677,-1.971701155312202,3.3674779350569803,0.0,18.921519421968462,16.808882000305914,330.4334383818579,337.966002167566,0.0
0.091,4.465460184011539,-1.9505798133471222,8.375032299739603,0.0,18.905102447717272,17.458951178530608,336.5222315140582,337.966002167566,0.0
0.092,4.925794078197017,-1.9555570348574813,5.345073440174534,0.0,18.95609279649946,17.61059131410952,322.5626378155481,337.966002167566,0.0
0.093,5.236432574665287,-1.8965913288758984,10.0,0.0,19.010612124088244,18.264941085515563,331.2352944571005,337.966002167566,0.0
0.094,5.740211044312715,-1.8783363386251444,8.160304610619221,0.0,19.12369610419098,18.558082807413196,319.8057288979274,337.966002167566,0.0
0.095,6.175170963052649,-1.778734859038646,10.0,0.0,19.2440122456212,19.01117439549212,318.7352388484696,337.966002167566,0.0
0.096,6.633466244801627,-1.7190123866679574,10.0,0.0,19.392032474551378,19.36652860320737,319.3363062445884,337.966002167566,0.0
0.097,7.103091230339328,-1.5911223985631726,10.0,0.0,19.54731542739225,19.654073617452468,311.6029172383356,337.966002167566,0.0
0.098,7.546686045369608,-1.431708192368764,10.0,0.0,19.699567923573206,19.884293245759178,300.63771539039465,337.966002167566,0.0
0.099,7.951323307105839,-1.2687564870659314,10.0,0.0,19.843286587445363,20.06664201021263,296.152968698326,337.966002167566,0.0
0.1,8.330252092470161,-1.0964180244736648,10.0,0.0,19.97354054754353,20.207491970835243,297.63344403856075,337.966002167566,0.0
0.101,8.694837340654109,-0.9102969750057643,10.0,0.0,20.086104176878603,20.310967241958828,309.251865554515,337.966002167566,0.0
0.10200000000000001,8.847629853948169,-1.0389984556936311,10.0,0.0,20.21377734376287,20.402190024923044,323.4019825547992,337.966002167566,0.0
0.10300000000000001,8.923048937894675,-1.2440956472000462,10.0,0.0,20.359079148513956,20.490289672178093,331.084386105598,337.966002167566,0.0
0.10400000000000001,8.942385411103364,-1.4880115977703179,9.124385692395181,0.0,20.523440520163103,20.48641914013273,335.89728812764235,337.966002167566,0.0
0.105,8.855986162611638,-1.7611887683127951,6.738621821772247,0.0,20.698589030696763,20.255391197830512,348.185104004336,337.966002167566,0.0
0.106,8.597532880630814,-1.9949648164332052,0.49252286505773313,0.0,20.856103489534664,19.42933352281249,352.71879173608477,337.966002167566,0.0
0.107,8.005745593804894,-2.009115758158091,-1.9218488965018468,0.0,20.914479578095506,18.561025225706697,351.37332010812486,337.966002167566,0.0
0.108,7.205834214179902,-1.9838164635404136,-1.38318626192748,0.0,20.877262796264493,17.950854353476828,355.2316596051188,337.966002167566,0.0
0.109,6.468722605843117,-1.9561600350660115,-3.485012584799983,0.0,20.779961391207586,17.23447453154593,355.438672117241,337.966002167566,0.0
0.11,5.718782912796894,-1.9050968695570216,-3.7632455403578433,0.0,20.61541176054203,16.645537439571505,354.93468523394586,337.966002167566,0.0
0.111,5.043426482214866,-1.8550274538051499,-3.680938929374057,0.0,20.403426379667977,16.177664960925327,353.4702175509584,337.966002167566,0.0
0.112,4.476107866823666,-1.8184487430595357,-3.1037472417142578,0.0,20.162329324992207,15.85370069497631,351.31374524968925,337.966002167566,0.0
0.113,4.041620727005115,-1.803033452509883,-2.15898852190091,0.0,19.911615654336106,15.678295091683614,349.2619890690864,337.966002167566,0.0
0.114,3.7511783581075635,-1.810487464694969,-1.2460703006146812,0.0,19.669406884662205,15.61393588797847,347.2435288327683,337.966002167566,0.0
0.115,3.5877909648887303,-1.8341240172651387,-0.32961544910765106,0.0,19.447508552246052,15.638540768694465,343.6921363334978,337.966002167566,0.0
0.116,3.531353260469233,-1.864594975894344,1.3888194588682765,0.0,19.25337598106662,15.822932893013482,340.14117462205274,337.966002167566,0.0
0.117,3.605781949824633,-1.9101000734510953,3.14254859004593,0.0,19.10179673058198,16.13644687025915,344.6227032964268,337.966002167566,0.0
0.11800000000000001,3.80539879843708,-1.9663039664635236,0.8352172415703052,0.0,19.002454180126172,16.11089421863387,334.25565406506166,337.966002167566,0.0
0.11900000000000001,3.8949256138002855,-1.9515810274883802,6.055845338277906,0.0,18.908309057336023,16.66745320004431,339.35677249601895,337.966002167566,0.0
0.12,4.241270667011024,-1.9694459818868628,3.4913784195147333,0.0,18.881346719339525,16.787441441304114,329.9901217313446,337.966002167566,0.0
0.121,4.466501851270042,-1.9508461953400764,8.254462606214137,0.0,18.86685481320452,17.421006574626464,335.69972206276867,337.966002167566,0.0
0.122,4.9209004776575345,-1.951858401474723,5.422325241550059,0.0,18.91746595155553,17.582868514963003,322.10239369107006,337.966002167566,0.0
0.123,5.2318964670283155,-1.8960123428895312,10.0,0.0,18.973048981599383,18.23580539961022,330.616671768303,337.966002167566,0.0
0.124,5.736122173512135,-1.8770123306363073,8.14838726729721,0.0,19.086835856341565,18.52719788279578,319.05991873004047,337.966002167566,0.0
0.125,6.168958253686882,-1.778690233484824,10.0,0.0,19.20775786136396,18.980453621306946,318.3466727194131,337.966002167566,0.0
0.126,6.625972453488954,-1.7197364888407212,10.0,0.0,19.356411548795887,19.336016657965732,318.81938526046446,337.966002167566,0.0
0.127,7.095222770218576,-1.5913939951781364,10.0,0.0,19.512228034294058,19.623841366859597,310.94666812845384,337.966002167566,0.0
0.128,7.537535304965652,-1.4331217046833036,10.0,0.0,19.665118815113992,19.854503377759002,300.06269554369106,337.966002167566,0.0
0.129,7.940703420989539,-1.271764789916535,10.0,0.0,19.809620181222478,20.037462898235304,295.96737011624015,337.966002167566,0.0
0.13,8.31899990130304,-1.099701059525009,10.0,0.0,19.94065392157235,20.17899567160059,296.70760013748605,337.966002167566,0.0
0.131,8.684553206252252,-0.9110894141490506,10.0,0.0,20.05371092153631,20.283050642923047,308.0720886938329,337.966002167566,0.0
0.132,8.838054413062682,-1.0381753094412534,10.0,0.0,20.181733283572036,20.37477621741,322.52636023946144,337.966002167566,0.0
0.133,8.913031554762654,-1.2439666132352318,10.0,0.0,20.32749215131729,20.46341899713294,331.0205346271532,337.966002167566,0.0
0.134,8.93349686830543,-1.486190964869778,8.887996449353963,0.0,20.492126175902175,20.43395158201433,335.37350801372537,337.966002167566,0.0
0.135,8.838053861689469,-1.7484337094252504,6.73743469760629,0.0,20.663774514901473,20.209155937543485,345.6459936398732,337.966002167566,0.0
0.136,8.577504792572016,-1.9814406870962418,1.5243919698092974,0.0,20.818786795652013,19.499781576416222,353.5383923574651,337.966002167566,0.0
0.137,8.038717154789534,-2.0245089765634443,-2.577531290885645,0.0,20.889767854279444,18.534425897543155,350.4237845500835,337.966002167566,0.0
0.138,7.219412881988582,-1.9839196880594105,-1.144805211020011,0.0,20.852219734526717,17.956058587442595,354.9459202496438,337.966002167566,0.0
0.139,6.483832312176222,-1.963369125522564,-3.5756722416209366,0.0,20.758735026745192,17.2227713821634,354.98722251411095,337.966002167566,0.0
0.14,5.730680693754464,-1.9032865854691134,-3.766535577319967,0.0,20.594866495433394,16.632269002341367,354.4951244003913,337.966002167566,0.0
0.14100000000000001,5.049847477395404,-1.8539130556378232,-3.685777742788403,0.0,20.38350431638965,16.16258214014109,352.9816637491974,337.966002167566,0.0
0.14200000000000002,4.480378775318718,-1.815109174865,-3.0792040330077697,0.0,20.14253497744357,15.840476501051874,350.93938773053515,337.966002167566,0.0
0.14300000000000002,4.0450603796925755,-1.8005250441354486,-2.187799879306322,0.0,19.89223579291065,15.660663548284429,348.835975555051,337.966002167566,0.0
0.14400000000000002,3.7522022611155155,-1.807524482545198,-1.2447935254390963,0.0,19.649901011086648,15.596479838816036,346.9658354421132,337.966002167566,0.0
