timestamp,iq,id,iq_ref,id_ref,vq,vd,omega,omega_ref,r
0.0,0.0,0.0,0.0,0.0,0.0,0.0,0.0,217.9500648346946,0.0
0.001,0.0,0.0,10.0,0.0,0.0,1.0999999999999999,9.892531605314778,217.9500648346946,0.0
0.002,0.7723271334806013,-0.4588789481644486,10.0,0.0,0.1604766842980894,1.9050440153171335,16.473222025053175,217.9500648346946,0.0
0.003,1.6661837886161832,-0.9524674520085317,10.0,0.0,0.43511604763928763,2.555030336802254,23.78832712976047,217.9500648346946,0.0
0.004,2.4443640826248236,-1.4039240670265443,10.0,0.0,0.7920144494084188,3.090820696683389,31.728487939341942,217.9500648346946,0.0
0.005,3.0603310333464666,-1.7517574356157701,10.0,0.0,1.2005491513833852,3.548747299114029,39.261387365542404,217.9500648346946,0.0
0.006,3.5170559252063716,-2.009111441162216,10.0,0.0,1.6388536503281355,3.957654642901728,47.00611400524966,217.9500648346946,0.0
0.007,3.847451101317794,-2.1954616083893534,10.0,0.0,2.092143412096701,4.337725481751476,54.69203133912207,217.9500648346946,0.0
0.008,4.089168430774347,-2.329729149991747,10.0,0.0,2.5510172094773766,4.701833258413998,62.305802921283735,217.9500648346946,0.0
0.009000000000000001,4.27226774325466,-2.4306989205919236,10.0,0.0,3.0101784041362336,5.0576938860700675,69.87685752451262,217.9500648346946,0.0
0.01,4.419741347328326,-2.510648323436026,10.0,0.0,3.46679427870166,5.409493467103114,77.36460857029725,217.9500648346946,0.0
0.011,4.546806500371114,-2.578050718823865,10.0,0.0,3.9195432933780707,5.759272246695427,84.77383737204886,217.9500648346946,0.0
0.012,4.662968940122576,-2.637919254659402,10.0,0.0,4.367906799534102,6.107840832953921,92.09222269635835,217.9500648346946,0.0
0.013000000000000001,4.77382257846861,-2.692774056544658,10.0,0.0,4.811726156549403,6.455356635381619,99.30043765000838,217.9500648346946,0.0
0.014,4.8824613708082145,-2.7435647867828266,10.0,0.0,5.250953590413287,6.80166106249418,106.357207628799,217.9500648346946,0.0
0.015,4.990692936710067,-2.790020879593879,10.0,0.0,5.685490986508876,7.146438705956065,113.28461701932467,217.9500648346946,0.0
0.016,5.098987041322278,-2.8323342048937237,10.0,0.0,6.115242312195964,7.489362288832994,120.07275869309474,217.9500648346946,0.0
0.017,5.208166561260642,-2.869281624020344,10.0,0.0,6.53995194645297,7.830041839843845,126.87776219877244,217.9500648346946,0.0
0.018000000000000002,5.318131054012609,-2.900930210547396,10.0,0.0,6.959370442712065,8.168120100175976,133.31279400203638,217.9500648346946,0.0
0.019,5.431077804526906,-2.923491468506579,10.0,0.0,7.3728201678887055,8.503007886471753,139.40487036600422,217.9500648346946,0.0
0.02,5.54579962085186,-2.9390180601625797,10.0,0.0,7.7798960116798295,8.834261934365012,145.3525379224655,217.9500648346946,0.0
0.021,5.66375136873562,-2.9453316661776405,10.0,0.0,8.179928906626262,9.161270687744095,151.0034379474419,217.9500648346946,0.0
0.022,5.785878509177226,-2.9412410790565224,10.0,0.0,8.572146286772487,9.483327387310167,156.31403476423856,217.9500648346946,0.0
0.023,5.912665485726672,-2.9264795608309226,10.0,0.0,8.955764737727092,9.799674858918241,161.30763400608362,217.9500648346946,0.0
0.024,6.044961067084091,-2.9003071230719453,10.0,0.0,9.329924737775812,10.109464784277144,165.95420651736453,217.9500648346946,0.0
0.025,6.183605337477811,-2.862077119666834,10.0,0.0,9.693704154358576,10.411763803175292,170.21796767076776,217.9500648346946,0.0
0.026000000000000002,6.329232079488273,-2.8115312650673046,10.0,0.0,10.046157787200984,10.705578362924685,174.08711806563352,217.9500648346946,0.0
0.027,6.482372166983467,-2.7485964834513847,10.0,0.0,10.386330145302331,10.989867687779022,177.55679533120696,217.9500648346946,0.0
0.028,6.643462920856627,-2.673328293474785,10.0,0.0,10.713264046997715,11.263556733906956,180.61898540703524,217.9500648346946,0.0
0.029,6.812779316032975,-2.585983619796721,10.0,0.0,11.026018230931527,11.52555636966097,183.2676049985435,217.9500648346946,0.0
0.03,6.9903970319048145,-2.487045339982808,10.0,0.0,11.323687196004611,11.774786675438824,185.50661671262682,217.9500648346946,0.0
0.031,7.176199725322193,-2.3771769040794415,10.0,0.0,11.605416149996946,12.01019872802901,187.36073950734485,217.9500648346946,0.0
0.032,7.369926536694155,-2.2571133858553143,10.0,0.0,11.870405111203448,12.230790548442672,188.90692714009077,217.9500648346946,0.0
0.033,7.571363334842722,-2.1273167175669374,10.0,0.0,12.117877360001177,12.435601303252993,188.59747468380266,217.9500648346946,0.0
0.034,7.781726709453531,-1.9856712162648193,10.0,0.0,12.34680042093982,12.623552604236345,188.337367419627,217.9500648346946,0.0
0.035,7.986838448250879,-1.8553544555095716,10.0,0.0,12.558707917212871,12.795142423693628,188.51833501540116,217.9500648346946,0.0
0.036000000000000004,8.20022040174203,-1.7139776193154703,10.0,0.0,12.752335361430557,12.949343113336443,188.4420273760684,217.9500648346946,0.0
0.037,8.419313571487233,-1.564674925963197,10.0,0.0,12.927010602283943,13.085520049299678,187.9295622670702,217.9500648346946,0.0
0.038,8.640665846346305,-1.4122809982987246,10.0,0.0,13.082565707538745,13.20338899721488,187.01141808231208,217.9500648346946,0.0
0.039,8.862381765594161,-1.2590876970346758,10.0,0.0,13.219024873197183,13.302851332495374,185.65009025313634,217.9500648346946,0.0
0.04,9.083207551671332,-1.1061720066733378,10.0,0.0,13.336495562890725,13.383939673537652,187.12260964780867,217.9500648346946,0.0
0.041,9.24772695120972,-1.0464122820749022,10.0,0.0,13.445283604916924,13.452777373356602,191.7280939495498,217.9500648346946,0.0
0.042,9.317260640540258,-1.132715384880402,10.0,0.0,13.560167551276983,13.519606595565303,196.85014924195335,217.9500648346946,0.0
0.043000000000000003,9.349392372801132,-1.263117778141472,10.0,0.0,13.683727257452574,13.588402136533748,202.26905015469106,217.9500648346946,0.0
0.044,9.358744332409806,-1.4126160507885173,10.0,0.0,13.816951333166012,13.661966695788566,208.18962713292663,217.9500648346946,0.0
0.045,9.35220031378832,-1.5716790734926755,10.0,0.0,13.960211407004575,13.742310568333691,212.72933378544758,217.9500648346946,0.0
0.046,9.33564679250971,-1.7331065517199917,8.213370808911055,0.0,14.113346253091759,13.634172297142813,215.17134500070253,217.9500648346946,0.0
0.047,9.161527380568302,-1.8368232619591174,7.020152399623501,0.0,14.250148350795168,13.457761204669762,217.0711067218587,217.9500648346946,0.0
0.048,8.854745060941147,-1.904646143310206,6.079061120173769,0.0,14.362052479327158,13.253088435607335,219.77231294660768,217.9500648346946,0.0
0.049,8.465281960104253,-1.9539119079039993,4.710235526680151,0.0,14.447039923391515,12.97868657171034,225.30693382589212,217.9500648346946,0.0
0.05,7.997459581995099,-1.9609805141381225,1.8693563971259595,0.0,14.49637332569955,12.488981020877091,225.9322279065169,217.9500648346946,0.0
0.051000000000000004,7.365030072822407,-1.8369198583228528,1.4768877260953372,0.0,14.47808547449143,12.103305625068048,223.92988418324904,217.9500648346946,0.0
0.052000000000000005,6.722029086936249,-1.7501258308264798,2.4182613942437285,0.0,14.414752132356774,11.92625058728148,225.19005766237817,217.9500648346946,0.0
0.053,6.242904953531377,-1.7606101879211673,1.7157747264023318,0.0,14.34206784021231,11.720154093731741,226.38605199951536,217.9500648346946,0.0
0.054,5.843132631337516,-1.7700384904771818,1.033417686185527,0.0,14.256974597637532,11.498548126684367,226.21060537221211,217.9500648346946,0.0
0.055,5.4614742242804395,-1.7912415965222694,1.0385355944619743,0.0,14.16046814125489,11.335964673951175,226.50940972260105,217.9500648346946,0.0
0.056,5.140616332327582,-1.825817873262209,0.8035399703884423,0.0,14.060945344618146,11.185566007166427,226.50518453042235,217.9500648346946,0.0
0.057,4.860771591721825,-1.8615133230714762,0.7201013695205116,0.0,13.95991569767821,11.061000980088844,226.17347099923427,217.9500648346946,0.0
0.058,4.620998743651,-1.8990165868821154,0.8037240734691578,0.0,13.86030091724559,10.972398940349791,225.42942917794488,217.9500648346946,0.0
0.059000000000000004,4.427765218200816,-1.9413434436355743,1.1009513406813483,0.0,13.766068332487098,10.933412358214044,225.93915779740513,217.9500648346946,0.0
0.06,4.290640499560341,-1.9981444167748668,0.7661961013241188,0.0,13.683185186468677,10.862257210610563,225.90054269425903,217.9500648346946,0.0
0.061,4.165456554375357,-2.0216139602126706,0.7059988743015237,0.0,13.60348848033851,10.799054107370615,224.65344264668855,217.9500648346946,0.0
0.062,4.046859445132632,-2.034213103064125,1.2625151199668263,0.0,13.526592344776647,10.807814245699904,223.7118889750366,217.9500648346946,0.0
0.063,3.9857343414451942,-2.0594220681303685,1.6756737143893794,0.0,13.46090883133267,10.853428829883095,225.0079147504083,217.9500648346946,0.0
0.064,3.9854043966189314,-2.081926882546637,0.9570823275463907,0.0,13.408578567586538,10.804162008700633,221.56643252951977,217.9500648346946,0.0
0.065,3.945627343485338,-2.0575504047712445,2.641659761042404,0.0,13.353648187397319,10.951450451211224,223.1721686343892,217.9500648346946,0.0
0.066,4.013435120934102,-2.1100411566961412,1.7865706706107396,0.0,13.324957436967571,10.959754811118694,222.26724652605583,217.9500648346946,0.0
0.067,4.074809661060673,-2.0581536393579114,2.1958599078638175,0.0,13.2937336631451,11.011859245355161,218.33202151976877,217.9500648346946,0.0
0.068,4.119929001208328,-2.0509699317719337,4.159652844156604,0.0,13.270571377467435,11.263205807390436,222.57163179220947,217.9500648346946,0.0
0.069,4.323250469709723,-2.095809290337955,1.9936320383611044,0.0,13.27986414307919,11.207287098520304,218.7798744976595,217.9500648346946,0.0
0.07,4.411009829647884,-1.9835297564967056,3.881212589006439,0.0,13.269836618934555,11.37956329081912,215.39893891345147,217.9500648346946,0.0
0.07100000000000001,4.550345813791101,-1.9920192510096286,5.597191640322886,0.0,13.280096106169104,11.689041636955574,220.52333952769442,217.9500648346946,0.0
0.07200000000000001,4.857354980614953,-2.023871694784349,3.0092585862714154,0.0,13.323696353163932,11.634388022233816,216.63008554243683,217.9500648346946,0.0
0.073,5.003251849404151,-1.8824473262087604,4.9690853718227865,0.0,13.341596009006041,11.818041506736314,211.57592247869283,217.9500648346946,0.0
0.074,5.191169791500901,-1.855101975783951,7.559908327254804,0.0,13.374477302853215,12.231299860672028,216.39825206363938,217.9500648346946,0.0
0.075,5.591978553633677,-1.9147429544471177,5.164261662492084,0.0,13.452230263866436,12.274881361507035,216.7752726179449,217.9500648346946,0.0
0.076,5.861767642057221,-1.8027541895314292,4.987499307506822,0.0,13.513650904934483,12.300723903853847,210.53826752614464,217.9500648346946,0.0
0.077,6.034254287968143,-1.6582344521546601,8.18011982649245,0.0,13.556736452668122,12.66680449654509,208.5684502015552,217.9500648346946,0.0
0.078,6.388536586699356,-1.670007804970533,9.258844635118557,0.0,13.63486177108103,13.050072922098261,211.3722189606716,217.9500648346946,0.0
0.079,6.868122318750506,-1.7026377580827237,7.922738714300591,0.0,13.746972961522147,13.195856530022851,212.22810174210585,217.9500648346946,0.0
0.08,7.244805317466834,-1.6289774096164433,7.552016954509354,0.0,13.854022455849204,13.274215289291961,210.5265204389419,217.9500648346946,0.0
0.081,7.528762070288457,-1.4848450852764346,8.477043050048856,0.0,13.94308492447772,13.4334347973509,206.7388100973186,217.9500648346946,0.0
0.082,7.829626658182822,-1.3560485336340913,10.0,0.0,14.026436799612023,13.713658067865868,202.8510703622345,217.9500648346946,0.0
0.083,8.22302603391609,-1.2992496069953512,10.0,0.0,14.124515897870554,13.918699343891547,201.19079856265603,217.9500648346946,0.0
0.084,8.614331570027755,-1.2382921328067011,10.0,0.0,14.227153881011436,14.073934786925552,199.86489868838237,217.9500648346946,0.0
0.085,8.978849768746755,-1.1478866768867348,10.0,0.0,14.325716584732318,14.187726537472273,198.22897592035457,217.9500648346946,0.0
0.08600000000000001,9.308079510029943,-1.030135478129966,10.0,0.0,14.413753615831741,14.267425293782454,198.68105882399377,217.9500648346946,0.0
0.08700000000000001,9.599289153145211,-0.9009056367903229,10.0,0.0,14.48791904889245,14.31921711424171,203.00578005585962,217.9500648346946,0.0
0.088,9.71555459159338,-1.0019029943011901,10.0,0.0,14.572249128432604,14.363369194162964,208.27849482808622,217.9500648346946,0.0
0.089,9.764256616461918,-1.158506216144153,10.0,0.0,14.66877778883849,14.407344505695049,214.2760637999943,217.9500648346946,0.0
0.09,9.770203844543508,-1.3406057668789404,7.396962017487768,0.0,14.77851603271938,14.170073799197883,219.78927602333889,217.9500648346946,0.0
0.091,9.549150043044902,-1.416278487970282,4.621963793929028,0.0,14.860056385375175,13.71265995341784,221.59573372127917,217.9500648346946,0.0
0.092,9.0619076156415,-1.3682516705639869,3.6822782560930376,0.0,14.881661641061777,13.284912229554408,220.8584866774686,217.9500648346946,0.0
0.093,8.472893879378134,-1.3043054253763582,4.02181755957059,0.0,14.851777779996802,13.008765069121795,220.72635881617896,217.9500648346946,0.0
0.094,7.954382828996071,-1.307942474098704,4.060118550400563,0.0,14.798307126806392,12.809208032761864,222.1447582850717,217.9500648346946,0.0
0.095,7.532814090538605,-1.371390676148227,3.308971881450419,0.0,14.737170767037263,12.582437941952573,223.8063649891449,217.9500648346946,0.0
0.096,7.145028318707557,-1.437965227894872,2.4196055278693196,0.0,14.666159752835746,12.320353139559717,224.8621229984979,217.9500648346946,0.0
0.097,6.745698876328125,-1.4940159663041124,1.8226059415547793,0.0,14.58154119552265,12.060647805970632,225.39113480785954,217.9500648346946,0.0
0.098,6.344553972682805,-1.5430014590754517,1.4836893371423123,0.0,14.484241857402706,11.827272964364118,225.75545499229443,217.9500648346946,0.0
0.099,5.964471706549552,-1.5937954780669545,1.2234753433488699,0.0,14.378432456095453,11.620068900071304,226.0523111817639,217.9500648346946,0.0
0.1,5.616184807213521,-1.6478929790244574,0.9940247851434361,0.0,14.267926373405059,11.434877616878016,226.17538030073533,217.9500648346946,0.0
0.101,5.300969744465645,-1.7032508747321975,0.8502370709973217,0.0,14.155500164182651,11.274823498669909,226.15202694650344,217.9500648346946,0.0
0.10200000000000001,5.020819843495217,-1.759807948660961,0.7798941269951767,0.0,14.043978863236756,11.140896663140861,226.02638846763034,217.9500648346946,0.0
0.10300000000000001,4.7773156833824455,-1.8163152340753694,0.7619501301023686,0.0,13.935867239488854,11.031923929454644,225.75913157150026,217.9500648346946,0.0
0.10400000000000001,4.569882624259222,-1.871155964440369,0.8174879107993505,0.0,13.833136912233119,10.94970849751028,224.99384003457672,217.9500648346946,0.0
0.105,4.398899495270714,-1.9244431770433574,1.1296959272623006,0.0,13.737771260591197,10.915962893636237,225.25467277280345,217.9500648346946,0.0
0.106,4.275603658784038,-1.9914032350586568,0.9262334787678492,0.0,13.655400347981718,10.862405046210037,225.77863182201136,217.9500648346946,0.0
0.107,4.170869495002198,-2.0243818220196026,0.5859682842907228,0.0,13.578868785876125,10.780859145009103,224.1856806279429,217.9500648346946,0.0
0.108,4.048072748468645,-2.0337428176942787,1.3200877233924704,0.0,13.502535713515595,10.79643076844454,223.4142117887658,217.9500648346946,0.0
0.109,3.987918692861157,-2.0628121381904174,1.6511806734403027,0.0,13.438497126032495,10.837279931066117,224.3022148570855,217.9500648346946,0.0
0.11,3.9876886595852383,-2.078895933456968,1.1436576390565554,0.0,13.38642583783422,10.807925618498809,221.14178349030826,217.9500648346946,0.0
0.111,3.955235513639254,-2.0704640535986276,2.6919561358890345,0.0,13.335537902461956,10.95525521908511,223.68413551847934,217.9500648346946,0.0
0.112,4.031520731829848,-2.118858691825798,1.3634394149656464,0.0,13.309879449689127,10.912427336345239,221.18820212031846,217.9500648346946,0.0
0.113,4.057523199193559,-2.048286315207579,2.579024741189844,0.0,13.274257146109312,11.016218530467857,218.64447062110236,217.9500648346946,0.0
0.114,4.119008500896291,-2.0607500360347553,3.84394643293382,0.0,13.254652925356911,11.226550549136169,222.7604512655021,217.9500648346946,0.0
0.115,4.309476182996811,-2.082946919125012,1.7378522464258745,0.0,13.26035934847824,11.149232774415061,217.49727476927768,217.9500648346946,0.0
0.116,4.369010235934912,-1.966245673348067,4.373968395192253,0.0,13.244704245948961,11.3866070687054,216.07054285352882,217.9500648346946,0.0
0.117,4.5413434047701635,-2.001307469722745,5.1061295728783405,0.0,13.259375893160623,11.63449368332908,220.5963397499642,217.9500648346946,0.0
0.11800000000000001,4.830618260794628,-2.0030653520430333,2.8167683755079613,0.0,13.297211786204977,11.56981055524962,215.02158330006836,217.9500648346946,0.0
0.11900000000000001,4.951652444794166,-1.8634076452276227,5.633431415802138,0.0,13.30941585056405,11.8376848640089,211.93565198293481,217.9500648346946,0.0
0.12,5.184607834635654,-1.8776385848288901,7.2365412028865075,0.0,13.35014891978744,12.203752843461926,217.10784324006318,217.9500648346946,0.0
0.121,5.58576654354834,-1.9134068156083375,4.6588677902686415,0.0,13.427207676023516,12.195914254551203,215.3740469097371,217.9500648346946,0.0
0.122,5.817231784203664,-1.7741646793849875,5.551526134681252,0.0,13.480102380452546,12.299084962783764,209.08214741875915,217.9500648346946,0.0
0.123,6.015788247123117,-1.6687332848956702,8.786155054329583,0.0,13.527819653230345,12.724584109838581,209.58065984738684,217.9500648346946,0.0
0.124,6.427122353745823,-1.7132809926456734,8.620592889888815,0.0,13.619269675233234,13.01848575508142,212.0516965954818,217.9500648346946,0.0
0.125,6.872827544535722,-1.7133511703202498,7.444058198233471,0.0,13.730527102026821,13.119464813641926,212.52382176459176,217.9500648346946,0.0
0.126,7.201142016003491,-1.6073940989833977,7.262258044379513,0.0,13.8291007123733,13.181581499064796,209.05662619171176,217.9500648346946,0.0
0.127,7.450274712401929,-1.4484004545610834,9.084790217249342,0.0,13.907598900054335,13.425518965645102,204.6283998275761,217.9500648346946,0.0
0.128,7.791208743830736,-1.3579794727340593,10.0,0.0,13.994284644068546,13.700348842216172,202.4859897894993,217.9500648346946,0.0
0.129,8.197358445374462,-1.3195537943067972,10.0,0.0,14.09646218652972,13.905945080848525,201.4450738213507,217.9500648346946,0.0
0.13,8.596732853520015,-1.2609266729355784,10.0,0.0,14.202916872041447,14.06132976198319,200.4296847011728,217.9500648346946,0.0
0.131,8.964421495869614,-1.1686345241396228,10.0,0.0,14.304698691961617,14.175369436978553,198.91451788586807,217.9500648346946,0.0
0.132,9.293922418122676,-1.0485157385268473,10.0,0.0,14.39541615245987,14.255615111442065,198.30266232032736,217.9500648346946,0.0
0.133,9.587042749492813,-0.9125586432360846,10.0,0.0,14.471332341728793,14.30795973728086,203.15263486179393,217.9500648346946,0.0
0.134,9.70853515946163,-1.0024340654358892,10.0,0.0,14.556137242049585,14.352228557679803,208.53510159138668,217.9500648346946,0.0
0.135,9.759348736902611,-1.1539979031705814,10.0,0.0,14.652661802307012,14.39617641665211,214.5940926331454,217.9500648346946,0.0
0.136,9.767976544903696,-1.3308770986900842,7.1264058170951365,0.0,14.761869765565727,14.128845662527688,219.33196004596644,217.9500648346946,0.0
0.137,9.527779700539497,-1.3915016263562259,4.743653158571902,0.0,14.838323763174204,13.69230986049314,220.93535281137264,217.9500648346946,0.0
0.138,9.046855240502452,-1.3480002995495228,3.912103896102022,0.0,14.858087389592983,13.289929868296877,220.27963453570771,217.9500648346946,0.0
0.139,8.47968300711497,-1.297271398826605,4.216667336924353,0.0,14.830491488338804,13.02916141014952,220.3829134815125,217.9500648346946,0.0
0.14,7.98289355915688,-1.3116584952192392,4.140699377553779,0.0,14.78166820100572,12.829283214694014,221.92307654481658,217.9500648346946,0.0
0.14100000000000001,7.570618536280924,-1.3783409046947763,3.33088772880052,0.0,14.724930616938781,12.59657326631837,223.58561214828256,217.9500648346946,0.0
0.14200000000000002,7.181940332736346,-1.4427182088491994,2.443264453931649,0.0,14.657010475803212,12.330551962786702,224.52662860726448,217.9500648346946,0.0
