timestamp,iq,id,iq_ref,id_ref,vq,vd,omega,omega_ref,r
0.0,0.0,0.0,0.0,0.0,0.0,0.0,0.0,62.10414433369016,0.0
0.001,0.0,0.0,10.0,0.0,0.0,1.0999999999999999,4.420199120876974,62.10414433369016,0.0
0.002,0.37560132046565387,-0.21442464764775995,10.0,0.0,0.13358671124125357,1.948683854748778,9.508539474280424,62.10414433369016,0.0
0.003,0.7313811554420646,-0.416824936133227,10.0,0.0,0.35880292209018344,2.6904782265040543,14.910838037695674,62.10414433369016,0.0
0.004,1.0276522646469783,-0.58467417946636,10.0,0.0,0.6521163629115377,3.3515827585059195,20.537182289908166,62.10414433369016,0.0
0.005,1.268052875611674,-0.720419895088118,10.0,0.0,0.9954624491360056,3.952426825275668,26.308082347539724,62.10414433369016,0.0
0.006,1.4640063704512751,-0.8305693706790913,10.0,0.0,1.3753173185737901,4.508370215668177,32.167445070268485,62.10414433369016,0.0
0.007,1.6261594755010311,-0.9212388268524199,10.0,0.0,1.781653185530204,5.030827447358138,38.09522882925988,62.10414433369016,0.0
0.008,1.762866946416566,-0.9974023266301714,10.0,0.0,2.207072479373793,5.528256251824534,44.04142015110166,62.10414433369016,0.0
0.009000000000000001,1.8806044507913189,-1.06252028197468,10.0,0.0,2.6460940643697803,6.0069000544565805,50.026202933928154,62.10414433369016,0.0
0.01,1.9840399167511664,-1.1194042771124113,7.755365108791587,0.0,3.094683931041078,6.22447127108026,55.03363535411326,62.10414433369016,0.0
0.011,1.9929346735640254,-1.1220861303125496,5.322353988494804,0.0,3.5198980966082525,6.2200154097983225,58.74868638451779,62.10414433369016,0.0
0.012,1.9078008875715546,-1.0704502755805716,3.498383052784262,0.0,3.8964384969379964,6.091673523503404,61.374635359218935,62.10414433369016,0.0
0.013000000000000001,1.7672135204040698,-0.9866714392505129,2.192703655178401,0.0,4.213791355156287,5.903048114019914,63.11958753183137,62.10414433369016,0.0
0.014,1.6044510513040897,-0.8898048459545066,1.3100731368907712,0.0,4.47072884970514,5.697485966200342,64.35238729265382,62.10414433369016,0.0
0.015,1.4425449239498267,-0.7934128279393422,0.671190826889912,0.0,4.671781923968444,5.492905083018365,64.80914040110791,62.10414433369016,0.0
0.016,1.2927239306174618,-0.7032137884323444,0.41576431198868713,0.0,4.823313628321601,5.322040750034806,65.42289511856602,62.10414433369016,0.0
0.017,1.1669499356768742,-0.6273233343294136,0.07569944541087481,0.0,4.935159769384833,5.160900080120514,65.7615430524706,62.10414433369016,0.0
0.018000000000000002,1.0586900211990555,-0.5609463259819667,-0.13019850872922056,0.0,5.013164662973123,5.0184608156574955,66.12866636801597,62.10414433369016,0.0
0.019,0.9674275996324228,-0.5053265768615829,-0.354005386845164,0.0,5.063670738436516,4.884462457175805,66.10661730822785,62.10414433369016,0.0
0.02,0.8879174758387722,-0.4587204292087431,-0.38300558669648277,0.0,5.09115589175479,4.775796078287777,65.80020358628651,62.10414433369016,0.0
0.021,0.8249390444957564,-0.42133363224439413,-0.26675931825177646,0.0,5.101379405662883,4.699954470357601,65.28446404480887,62.10414433369016,0.0
0.022,0.7809461939322373,-0.394127221784651,-0.040692744624142074,0.0,5.1003775702062235,4.660633664274403,64.81081052212699,62.10414433369016,0.0
0.023,0.7564129280479976,-0.3775918114718289,0.16906735483243285,0.0,5.093997006657096,4.648216431199437,64.256912463375,62.10414433369016,0.0
0.024,0.7473096199228916,-0.36880640576473245,0.4244887029115758,0.0,5.086211735630733,4.663157643606113,63.84471719306803,62.10414433369016,0.0
0.025,0.7509327916336117,-0.36844262724163,0.6131806094712839,0.0,5.080746951367202,4.693538521940834,63.46845119239798,62.10414433369016,0.0
0.026000000000000002,0.7639944929787801,-0.37029216246960106,0.7876705412192309,0.0,5.079073820023805,4.73624125201154,63.14132149058834,62.10414433369016,0.0
0.027,0.78258241904493,-0.374973710128908,0.9408636205550684,0.0,5.082334749712063,4.787698680496479,63.477805447732855,62.10414433369016,0.0
0.028,0.8050174571000313,-0.38061783699167234,0.7588850308423836,0.0,5.0909893677583,4.810504908514594,63.99633198427269,62.10414433369016,0.0
0.029,0.8169879059616587,-0.3815079927815938,0.4806998860666396,0.0,5.101100622669987,4.802022996513089,64.48366281235324,62.10414433369016,0.0
0.03,0.8159278160765353,-0.37450845588181203,0.21323928723973284,0.0,5.108573710273481,4.7689979011556805,64.51713224797459,62.10414433369016,0.0
0.031,0.8017631377515811,-0.3649222619851729,0.17237469028621755,0.0,5.111012493621251,4.739749638134638,64.4246592707787,62.10414433369016,0.0
0.032,0.7875553262740579,-0.3547260050262896,0.19540602951327335,0.0,5.109256846005632,4.718033385514267,63.6038236631177,62.10414433369016,0.0
0.033,0.7774653276981023,-0.34523384335889906,0.5908270400494995,0.0,5.1045629626757085,4.742547012889665,62.83463395401987,62.10414433369016,0.0
0.034,0.7854576995237089,-0.3437657858143212,0.9681169983951174,0.0,5.10272326570309,4.800707513620608,62.50934632616775,62.10414433369016,0.0
0.035,0.8097523868025288,-0.348629072180932,1.1267087923964014,0.0,5.107433230576603,4.86394770045547,62.886363859415475,62.10414433369016,0.0
0.036000000000000004,0.838442785947357,-0.3552897346125075,0.9303778305152863,0.0,5.118680257650056,4.8952395443141175,63.669234144655555,62.10414433369016,0.0
0.037,0.8545512252181717,-0.35819765745442284,0.5232917897855927,0.0,5.132185031290324,4.880225727304448,64.29809846919713,62.10414433369016,0.0
0.038,0.8515589086960045,-0.35112139402231324,0.186920086159736,0.0,5.142030477659647,4.8356239815783715,63.57568094888387,62.10414433369016,0.0
0.039,0.8332968781970468,-0.33879191797967645,0.5334134801644275,0.0,5.145145725089059,4.839923845628274,62.656154337410285,62.10414433369016,0.0
0.04,0.8317541297190832,-0.33114849633998383,0.987656685864019,0.0,5.147661952560582,4.890594148730621,61.921159379864335,62.10414433369016,0.0
0.041,0.8509950399963965,-0.3321400296196889,1.3569840141752525,0.0,5.155179090472353,4.970400690711843,62.921262716502405,62.10414433369016,0.0
0.042,0.884483216785946,-0.3397329743540145,0.848761162028095,0.0,5.1707504773790465,4.979889214922742,63.74069319980153,62.10414433369016,0.0
0.043000000000000003,0.893530332205112,-0.338999507377508,0.4226804317174204,0.0,5.185556967201401,4.947539072662304,63.54253619868351,62.10414433369016,0.0
0.044,0.8818181899663675,-0.32988565137970416,0.5073750136264967,0.0,5.194652604325484,4.934860611723707,62.335552991842,62.10414433369016,0.0
0.045,0.8752796342281931,-0.31923240537943676,1.1085525304657315,0.0,5.200490113143248,4.99024426133341,62.03084938174978,62.10414433369016,0.0
0.046,0.8960259360419915,-0.3176840702071392,1.2616372850312445,0.0,5.211218451631254,5.049153365940835,63.03581331841292,62.10414433369016,0.0
0.047,0.9218946529738694,-0.32147709603920416,0.749838626852448,0.0,5.227197582924453,5.04277759814663,63.436042000971504,62.10414433369016,0.0
0.048,0.9230140961018988,-0.3185504984565249,0.5364053089003424,0.0,5.240581368316497,5.020413190293454,62.400977584123645,62.10414433369016,0.0
0.049,0.9144752453899837,-0.3093456361505825,1.0509691848199374,0.0,5.249407065506191,5.06131042930507,61.79128847281493,62.10414433369016,0.0
0.05,0.9305450672041464,-0.3035177442568887,1.3589422990830486,0.0,5.260890897392832,5.125878849037562,62.9665462077819,62.10414433369016,0.0
0.051000000000000004,0.9574657057307454,-0.3071387789243399,0.7626894128586432,0.0,5.278139780796412,5.113670689338367,63.02981645790252,62.10414433369016,0.0
0.052000000000000005,0.9564404340377206,-0.30385364097709733,0.7217975665562111,0.0,5.292045384368846,5.106254645989927,61.69580701395112,62.10414433369016,0.0
0.053,0.955019104208614,-0.29351912020709514,1.3928856617293024,0.0,5.302714877343964,5.175345469829909,62.29272943865144,62.10414433369016,0.0
0.054,0.9821650965046778,-0.29285661356843934,1.0925385983295275,0.0,5.319256972883016,5.195844830206842,63.08502351136626,62.10414433369016,0.0
0.055,0.9928214143494976,-0.2945599901431668,0.686582770195358,0.0,5.336388791395462,5.173396058599255,61.57607072192455,62.10414433369016,0.0
0.056,0.9872888510621364,-0.28478417823614444,1.4463399010338676,0.0,5.348470177820385,5.243253333817307,62.12456564141076,62.10414433369016,0.0
0.057,1.014631843480252,-0.28273673969253815,1.1718882282135568,0.0,5.366201693003894,5.26648271003856,62.94673141719965,62.10414433369016,0.0
0.058,1.0266713079998493,-0.28392309758552875,0.7523794694840171,0.0,5.384633968044845,5.244709942251019,61.23150637527174,62.10414433369016,0.0
0.059000000000000004,1.0220265202692438,-0.2735498223926415,1.6187183700321555,0.0,5.397892814952799,5.327081366689482,62.32681395575581,62.10414433369016,0.0
0.06,1.0536397660697439,-0.27402504056357935,1.068837883569465,0.0,5.418218926364533,5.329867385943153,62.49290074298765,62.10414433369016,0.0
0.061,1.0587860903553672,-0.2730566569767881,0.9819069258605697,0.0,5.4366797541842065,5.330093850715866,61.15987856872662,62.10414433369016,0.0
0.062,1.063631091262281,-0.2606444006922188,1.657860670640721,0.0,5.451961481343747,5.406886486439275,62.825791542238996,62.10414433369016,0.0
0.063,1.092079655099853,-0.26517502442441915,0.8176877117990442,0.0,5.474016790533065,5.37526857637285,61.2393207020871,62.10414433369016,0.0
0.064,1.0863534813778974,-0.25595542912275915,1.6195713681910233,0.0,5.489645316076304,5.446541284771323,62.22793537536002,62.10414433369016,0.0
0.065,1.1142845920114457,-0.2539585365878849,1.1240261211378646,0.0,5.510710797679243,5.446591077237595,61.75905313682358,62.10414433369016,0.0
0.066,1.1178918654562997,-0.25203322951632184,1.361918152374749,0.0,5.529482895515995,5.479748525551526,61.67975328347573,62.10414433369016,0.0
0.067,1.1356726270577844,-0.24281377635278295,1.4058119895508174,0.0,5.54869864162319,5.511997029553021,62.07441979476951,62.10414433369016,0.0
0.068,1.1485025430072477,-0.24511055008679844,1.208775979293135,0.0,5.569562503162194,5.519595875126554,61.2000509968304,62.10414433369016,0.0
0.069,1.1589593603736208,-0.23307206356083077,1.6550013116312887,0.0,5.5877526618494535,5.578554418205602,62.30255303650268,62.10414433369016,0.0
0.07,1.1803162753890906,-0.23851677531856574,1.1017662047670231,0.0,5.610738962134501,5.565873315288982,60.80203050178707,62.10414433369016,0.0
0.07100000000000001,1.1850342568915673,-0.22442403028239444,1.8650486104438575,0.0,5.628553873027828,5.645946959570509,62.24897784125643,62.10414433369016,0.0
0.07200000000000001,1.2132436329970682,-0.23215216794051968,1.1401266056335142,0.0,5.653585679852728,5.629364634370726,60.76692643587043,62.10414433369016,0.0
0.073,1.217925464361742,-0.21799376382215307,1.8945244873047127,0.0,5.67282136764556,5.706943801716289,62.08189248097554,62.10414433369016,0.0
0.074,1.2449799945894409,-0.22556084549272148,1.2372639832793042,0.0,5.6988653664186115,5.695916806835671,61.04218474107567,62.10414433369016,0.0
0.075,1.2521137235552535,-0.21092756426695147,1.767737449155383,0.0,5.719516934074756,5.753007432723081,61.63254169405491,62.10414433369016,0.0
0.076,1.2717362980010845,-0.21612920331923657,1.477274999062118,0.0,5.744530920662034,5.76711140271896,61.60651361418516,62.10414433369016,0.0
0.077,1.2867126770539963,-0.20467422302970278,1.495265346192041,0.0,5.7671418413678,5.785738761107842,60.742510303851176,62.10414433369016,0.0
0.078,1.2954345250164316,-0.20249732832703876,1.9408833416574232,0.0,5.789229497227483,5.852792912272967,62.068345458275445,62.10414433369016,0.0
0.079,1.3246046146631185,-0.20300278385018589,1.278323753199436,0.0,5.8158911716722805,5.834891187841004,60.5958556886825,62.10414433369016,0.0
0.08,1.328353935733752,-0.18867567229639304,2.0296515244459865,0.0,5.836515469403256,5.910596729597115,61.250860506263685,62.10414433369016,0.0
0.081,1.354654390517323,-0.19677641775194799,1.7106819539296576,0.0,5.86368224465239,5.9353386596659625,61.87360013997845,62.10414433369016,0.0
0.082,1.3747153839514712,-0.18844905745941776,1.401617579009392,0.0,5.889609518296764,5.9275719839868515,60.33361808233847,62.10414433369016,0.0
0.083,1.3785579844636557,-0.17676313087720585,2.1893138703429,0.0,5.9109652186876716,6.012689862913981,61.1304454033859,62.10414433369016,0.0
0.084,1.4094316755359106,-0.18548787198414995,1.800637199122227,0.0,5.9397737177197865,6.037442447227052,61.904667045932,62.10414433369016,0.0
0.085,1.4300409872789057,-0.1782297521324614,1.4155211507267573,0.0,5.967290984685242,6.022166337019726,60.79385724849534,62.10414433369016,0.0
0.08600000000000001,1.431576019531675,-0.16511695867432374,1.9840289202970347,0.0,5.989159087851542,6.077593819235989,61.25131212419781,62.10414433369016,0.0
0.08700000000000001,1.4441688119987905,-0.1812044086432868,1.7638298045407246,0.0,6.016283876354003,6.098388526269503,63.08084792107463,62.10414433369016,0.0
0.088,1.4517898466095454,-0.18821652241024833,0.8392948702284704,0.0,6.04338611472425,6.019607003950617,62.36635840051497,62.10414433369016,0.0
0.089,1.4232383021166206,-0.17531795365734348,1.1939174898400524,0.0,6.058411013325091,6.002884575441367,62.26429823453873,62.10414433369016,0.0
0.09,1.404342871172126,-0.17948619708417435,1.243346033819687,0.0,6.070848671679404,5.993020775243735,63.95670847203075,62.10414433369016,0.0
0.091,1.3951643763895705,-0.18154770605004056,0.37861527369027126,0.0,6.081241267730501,5.890593131963904,62.74726062957074,62.10414433369016,0.0
0.092,1.3559809867688437,-0.1672160915370957,0.9769080319614698,0.0,6.078754747162422,5.878125411538745,63.21253413713741,62.10414433369016,0.0
0.093,1.338971798479524,-0.17407032499434838,0.7331873801436619,0.0,6.07616738843406,5.835342788632241,63.839963756788045,62.10414433369016,0.0
0.094,1.3229253102541358,-0.16980460843801237,0.4021143760873658,0.0,6.069022732132117,5.764193890037438,62.847700537714154,62.10414433369016,0.0
0.095,1.2923460699656901,-0.16800450118409593,0.8908104235840713,0.0,6.055322296968519,5.759715962486593,64.41739687741754,62.10414433369016,0.0
0.096,1.2851598582900907,-0.17526809227658124,0.08282972829510182,0.0,6.04336110865891,5.661035638099156,62.95875504236737,62.10414433369016,0.0
0.097,1.2510235521572275,-0.166181085949047,0.8036045387334163,0.0,6.021655800134563,5.66207539497846,64.02550523702887,62.10414433369016,0.0
0.098,1.2436559646447367,-0.17801130902186124,0.2510158323692817,0.0,6.003617192751868,5.593317211078008,63.210477157835925,62.10414433369016,0.0
0.099,1.2224059499803346,-0.17338381829576133,0.647466543724295,0.0,5.979879301506797,5.581030275879985,63.82490841021224,62.10414433369016,0.0
0.1,1.2130420447302102,-0.1852196367227329,0.3230432767709175,0.0,5.958634720800658,5.528764708029704,63.282232722707576,62.10414433369016,0.0
0.101,1.19784026047941,-0.1831749744732475,0.5826002366330743,0.0,5.9339447703483925,5.512975294363297,63.86623050131538,62.10414433369016,0.0
0.10200000000000001,1.1886379399235754,-0.1951432000930134,0.272980485652921,0.0,5.911481825015382,5.4605023222304965,63.18890883557443,62.10414433369016,0.0
0.10300000000000001,1.173221284305088,-0.1934599269042248,0.6007936735045523,0.0,5.885713034695427,5.451789809863631,64.12922464073048,62.10414433369016,0.0
0.10400000000000001,1.1670336197808813,-0.20578361834715347,0.11038496785612217,0.0,5.863022310961393,5.384675056743093,63.02265491475648,62.10414433369016,0.0
0.105,1.1461009038058203,-0.20312562144777369,0.6544847250324612,0.0,5.835473567715347,5.388998489019103,64.2745679014839,62.10414433369016,0.0
0.106,1.1452852277507142,-0.21408179291680796,0.00682399599081096,0.0,5.8123438008520925,5.313331423182872,63.002849631289294,62.10414433369016,0.0
0.107,1.1200763986887168,-0.21386954732112318,0.6336960781121252,0.0,5.783827395361325,5.321115438003967,63.73445325264659,62.10414433369016,0.0
0.108,1.1219625078991213,-0.22151033690823202,0.25159117824391375,0.0,5.759783641212286,5.276509590683397,63.48261352487649,62.10414433369016,0.0
0.109,1.1061093206388477,-0.2300293239992115,0.36372635021709887,0.0,5.7345443584302265,5.251878582286445,63.01079437660807,62.10414433369016,0.0
0.11,1.098638685588571,-0.23247646215940537,0.5905694239221313,0.0,5.70954989841339,5.251681370821733,64.22202893038413,62.10414433369016,0.0
0.111,1.0981882878549412,-0.24399755057616884,-0.03622669893283792,0.0,5.688278011596009,5.177763267650907,63.07595769130968,62.10414433369016,0.0
0.112,1.0727904027615855,-0.24384355937298108,0.5270907870281893,0.0,5.6616093532267655,5.18013193418262,63.224296750576144,62.10414433369016,0.0
0.113,1.0722223172463972,-0.2494755918385958,0.4417197332260985,0.0,5.638465490830867,5.164381388002136,64.10815205104565,62.10414433369016,0.0
0.114,1.0665151853324624,-0.2601485133028419,-0.02024799418220935,0.0,5.61717866109292,5.098550874378598,62.99813272781066,62.10414433369016,0.0
0.115,1.0433941094799422,-0.2593215113877392,0.5258217834940788,0.0,5.59123976354111,5.104348328986733,63.160057212730315,62.10414433369016,0.0
0.116,1.0440374981052178,-0.26544229358357174,0.4343004122438514,0.0,5.569156057265988,5.091142116257279,64.14585657796638,62.10414433369016,0.0
0.117,1.0396239265622729,-0.27542086920884046,-0.07901639281694539,0.0,5.548996535842254,5.021990446085049,63.130323561178926,62.10414433369016,0.0
0.11800000000000001,1.0145592225360587,-0.2746629424307977,0.418488323301896,0.0,5.523754641841833,5.020309659338805,62.93506797792804,62.10414433369016,0.0
0.11900000000000001,1.0116048960599364,-0.2794310066942074,0.507806878484959,0.0,5.501400924903583,5.0211970846482,63.79810810944673,62.10414433369016,0.0
0.12,1.013279899554754,-0.28754388015862303,0.05934717496804953,0.0,5.482216057628554,4.969322849144953,63.69656133283759,62.10414433369016,0.0
0.121,0.9936748252615228,-0.29224194499471584,0.09419639328114549,0.0,5.460197911928025,4.931208869721336,62.89402888317415,62.10414433369016,0.0
0.122,0.9776581481210135,-0.2925849785825843,0.48756377261802464,0.0,5.436560935901493,4.939192176956481,62.93305505653433,62.10414433369016,0.0
0.123,0.9795481245659678,-0.2992933900769301,0.4597615787094942,0.0,5.4168204831296265,4.936653476561799,63.84368737973274,62.10414433369016,0.0
0.124,0.9801968262566948,-0.30716958028494323,-0.012950013350138345,0.0,5.39959950240342,4.880621890320395,63.700003631413196,62.10414433369016,0.0
0.125,0.9586914588764626,-0.3097904711712889,0.042933267832404365,0.0,5.37870699722111,4.841717718909919,62.97107376400917,62.10414433369016,0.0
0.126,0.9413168810653478,-0.30938773618788057,0.39872890723122767,0.0,5.355942815658944,4.844889551529725,62.80041955864818,62.10414433369016,0.0
0.127,0.9404796219943635,-0.31524374952874545,0.47709325766214217,0.0,5.336420424332306,4.8504482576044445,63.076045315547454,62.10414433369016,0.0
0.128,0.943934451788476,-0.32249809458587847,0.3295613693939323,0.0,5.32014556056868,4.836098298857155,63.933809793226764,62.10414433369016,0.0
0.129,0.9390363716082247,-0.3291739016983466,-0.11761752404108916,0.0,5.3047249826384855,4.774414827330826,63.55550821749419,62.10414433369016,0.0
0.13,0.9146086349569937,-0.3281070629198469,0.05701962498715607,0.0,5.2844940050119185,4.743677590721402,63.031375921806394,62.10414433369016,0.0
0.131,0.8991437602823704,-0.32765802793725596,0.3098134569498934,0.0,5.263173676026766,4.741508788883579,62.80999359022406,62.10414433369016,0.0
0.132,0.8958581431560723,-0.33300183171327674,0.41344613017572107,0.0,5.244360808521537,4.7465032592033864,62.77070337057529,62.10414433369016,0.0
0.133,0.8979321964094317,-0.3400357575484981,0.4264256496312546,0.0,5.228648968602924,4.749247414119405,62.94626147772771,62.10414433369016,0.0
0.134,0.9001384840477327,-0.3462112323717041,0.33022542461466964,0.0,5.215391691139974,4.739212198497902,63.68948703037303,62.10414433369016,0.0
0.135,0.8964840573543235,-0.35111487267610586,-0.05724077867481925,0.0,5.202934265546422,4.687619546393233,63.66288200936509,62.10414433369016,0.0
0.136,0.8754497709685283,-0.35010219965894096,-0.059525644927599375,0.0,5.186402886866825,4.645840970920269,63.25255437340842,62.10414433369016,0.0
0.137,0.8557190570465216,-0.3473895376816989,0.13415407265355261,0.0,5.167058522420567,4.6298747683906605,63.04829130761283,62.10414433369016,0.0
