timestamp,iq,id,iq_ref,id_ref,vq,vd,omega,omega_ref,r
0.0,0.0,0.0,0.0,0.0,0.0,0.0,0.0,389.85295185798566,0.0
0.001,0.0,0.0,10.0,0.0,0.0,1.0999999999999999,20.856644841056386,389.85295185798566,0.0
0.002,0.6060119688232317,-0.35995813379485536,10.0,0.0,0.14959539471743413,1.9233386834294441,41.82212311944248,389.85295185798566,0.0
0.003,1.033867080050618,-0.5994654259849774,10.0,0.0,0.38931133910903387,2.638299095440907,63.49203805830607,389.85295185798566,0.0
0.004,1.3654204180413418,-0.7836828260415778,10.0,0.0,0.6944205713469452,3.2735427446236773,85.87181560792975,389.85295185798566,0.0
0.005,1.626655280861945,-0.9276717635042646,10.0,0.0,1.0465398543996716,3.8503526505816033,108.79795323274779,389.85295185798566,0.0
0.006,1.8358208483437228,-1.0416422984288618,10.0,0.0,1.4322250692099967,4.3842976304542205,131.93129349960216,389.85295185798566,0.0
0.007,2.006300491367326,-1.1328323266594988,10.0,0.0,1.8416274582826757,4.886755528762829,155.09324757743587,389.85295185798566,0.0
0.008,2.148005729792892,-1.206280152354433,10.0,0.0,2.2675027588230834,5.366025096351269,178.09731075043834,389.85295185798566,0.0
0.009000000000000001,2.2684734634384474,-1.2652370370083,10.0,0.0,2.70446826512327,5.8281208389181485,200.73331368389367,389.85295185798566,0.0
0.01,2.3736043086636247,-1.3116149986659171,10.0,0.0,3.1484588019859263,6.277343842220048,222.77074082537004,389.85295185798566,0.0
0.011,2.468220631828557,-1.3463149807061192,10.0,0.0,3.596325803900352,6.716687111782128,243.9621170929263,389.85295185798566,0.0
0.012,2.5564665177749575,-1.3695048683726365,10.0,0.0,4.045544320402459,7.1481218703569915,264.05085589336034,389.85295185798566,0.0
0.013000000000000001,2.642072623648351,-1.3808771867466907,10.0,0.0,4.494003517256321,7.572800791937969,282.78750127767216,389.85295185798566,0.0
0.014,2.7285049307968987,-1.379894785943556,10.0,0.0,4.93986289931081,7.99120624831863,300.05754413874064,389.85295185798566,0.0
0.015,2.818992909659703,-1.3660553982204424,10.0,0.0,5.381464380156407,8.40326774266325,315.5675444957777,389.85295185798566,0.0
0.016,2.9164508629719905,-1.3391667452342046,10.0,0.0,5.8172925044006485,8.808467740582243,329.18692919037085,389.85295185798566,0.0
0.017,3.0234700674350368,-1.299379031612797,10.0,0.0,6.245950054043873,9.205933018175946,340.8846173073308,389.85295185798566,0.0
0.018000000000000002,3.1421815929814745,-1.2473057984644451,10.0,0.0,6.66615819797204,9.59452944720913,350.7229827778419,389.85295185798566,0.0
0.019,3.2740688431571607,-1.1841844450309509,10.0,0.0,7.0767825538645095,9.972966565467944,358.8251046602675,389.85295185798566,0.0
0.02,3.4198485182922678,-1.111917099586658,10.0,0.0,7.476869991529074,10.339905515727024,365.3139747776599,389.85295185798566,0.0
0.021,3.5794195487614893,-1.033041821840586,10.0,0.0,7.865688973355469,10.69406429812639,370.2054188659989,389.85295185798566,0.0
0.022,3.752529492650072,-0.949560048463274,10.0,0.0,8.242647692945111,11.034242716945403,382.8335091717112,389.85295185798566,0.0
0.023,3.9201701916513385,-0.8940453187091146,6.59498255220745,0.0,8.61065657991851,10.986837869133046,402.89964605537074,389.85295185798566,0.0
0.024,3.7815831636935036,-0.8816458132798188,-3.568552831596156,0.0,8.936315295113657,9.913956657124173,406.0789692980421,389.85295185798566,0.0
0.025,3.048385171548708,-0.6224240832907113,-5.320474627332414,0.0,9.093729622343885,8.96911930299909,406.21934799640115,389.85295185798566,0.0
0.026000000000000002,2.422226181706683,-0.4137554029317383,-5.554327937896083,0.0,9.120557443898988,8.187847979766076,404.57813526793154,389.85295185798566,0.0
0.027,1.9249242776178797,-0.27377914044723795,-4.880973407760737,0.0,9.053264648905577,7.612235721983749,402.4259586411325,389.85295185798566,0.0
0.028,1.5705790893245848,-0.20561931569774172,-3.9306151621926966,0.0,8.929042089535674,7.219266223862816,400.53742969078263,389.85295185798566,0.0
0.029,1.3368124065780578,-0.19312738046256706,-3.093195465345719,0.0,8.777252321662292,6.957954887033662,399.0326200702924,389.85295185798566,0.0
0.03,1.186434656094471,-0.21462702144756785,-2.4325873372236764,0.0,8.617000276754037,6.786092289950766,397.75805386331484,389.85295185798566,0.0
0.031,1.0903153858658083,-0.2526131830212135,-1.8743552537881842,0.0,8.459550657991565,6.679259538202335,396.5184001871938,389.85295185798566,0.0
0.032,1.0320668680983685,-0.29649989102522,-1.3211828990197327,0.0,8.311610402195205,6.628077882194805,395.22853293152076,389.85295185798566,0.0
0.033,1.0052075167604764,-0.34183842193862474,-0.7300050819185759,0.0,8.177894377698163,6.62909024601133,393.9237160458924,389.85295185798566,0.0
0.034,1.0073515674871476,-0.386720190289885,-0.11830428098345136,0.0,8.06213480124198,6.677500641835036,392.83588232860166,389.85295185798566,0.0
0.035,1.0355410748430236,-0.42957858741787724,0.39578327295574933,0.0,7.967057828014352,6.756847258052837,391.54647780837655,389.85295185798566,0.0
0.036000000000000004,1.0814010476099656,-0.46461215457511895,1.0235502735643927,0.0,7.892848322147288,6.87790230792285,390.32033654720254,389.85295185798566,0.0
0.037,1.1510880568772477,-0.49621708701148287,1.6319470572592274,0.0,7.841291478750357,7.0328699071277665,389.32266181575886,389.85295185798566,0.0
0.038,1.242989990876256,-0.5189280516852474,2.1360873234033355,0.0,7.812569236403355,7.207144180864184,387.31091004187175,389.85295185798566,0.0
0.039,1.346588807566656,-0.5348470302554776,3.1673836285080315,0.0,7.805670623660691,7.45904314339638,385.1633028410507,389.85295185798566,0.0
0.04,1.4930658653388476,-0.5639773613577234,4.288083719087895,0.0,7.827696915081053,7.782949907125795,385.20556010397917,389.85295185798566,0.0
0.041,1.6790884912328066,-0.6031145473403482,4.313429005163737,0.0,7.883925040879389,8.049251885916231,383.94028817489976,389.85295185798566,0.0
0.042,1.838897570643518,-0.6053992124277007,5.005191606534298,0.0,7.961020493276717,8.354668140221223,382.6047314946922,389.85295185798566,0.0
0.043000000000000003,2.0254371934362982,-0.6059123689079986,5.745452150271013,0.0,8.060981626426772,8.692842080419686,381.7766084263489,389.85295185798566,0.0
0.044,2.235505605363165,-0.6060948740306829,6.240277118759032,0.0,8.184778984280356,9.032980751925592,380.7380839062501,389.85295185798566,0.0
0.045,2.4532205242594665,-0.5967260453587176,6.850688058325789,0.0,8.329178077294033,9.391834288774405,379.7739081828736,389.85295185798566,0.0
0.046,2.6884690906193307,-0.584358814703075,7.433566356765167,0.0,8.493755907605822,9.763554691561744,378.84428241592514,389.85295185798566,0.0
0.047,2.9389873417943404,-0.5681645810166287,8.008465934659995,0.0,8.677390301766211,10.146766485719919,377.94715412241254,389.85295185798566,0.0
0.048,3.2045913869651046,-0.5487706567611494,8.576088058772024,0.0,8.87901104659514,10.53999871529465,393.81205864611843,389.85295185798566,0.0
0.049,3.431918470005772,-0.6105543216357843,0.604044729037752,0.0,9.106783082277415,10.009118870200147,403.461760335842,389.85295185798566,0.0
0.05,3.050424229516454,-0.5289649903130942,-4.356894200602582,0.0,9.249097266787775,9.132359001504462,405.2858790751685,389.85295185798566,0.0
0.051000000000000004,2.4814826682346163,-0.35543911572848763,-5.423282842437679,0.0,9.271232093086445,8.348581806160029,404.33856235584693,389.85295185798566,0.0
0.052000000000000005,1.9906257957506999,-0.2233418028133432,-5.094480587755504,0.0,9.199980271545986,7.740532787773712,402.3984181995113,389.85295185798566,0.0
0.053,1.623295428470884,-0.15397659606485564,-4.249863173002943,0.0,9.068739530707758,7.311281153823879,400.4754618789419,389.85295185798566,0.0
0.054,1.3740055632994173,-0.13948744794934126,-3.39461011292782,0.0,8.906797546333149,7.021210853142011,398.91382326610216,389.85295185798566,0.0
0.055,1.2121558486796769,-0.1621993104472768,-2.7043995205890994,0.0,8.734685926683742,6.826634588603833,397.62499542860877,389.85295185798566,0.0
0.056,1.107510982637675,-0.20399682813139414,-2.137706037548637,0.0,8.564698450865734,6.699631403884018,396.48637042741507,389.85295185798566,0.0
0.057,1.0412366523416754,-0.25321514217861013,-1.6347277226460804,0.0,8.404005443525893,6.624234197535399,395.32245144404396,389.85295185798566,0.0
0.058,1.0032954502209246,-0.3027526548075128,-1.107463226821111,0.0,8.256798959533885,6.596787511409701,393.9919162029449,389.85295185798566,0.0
0.059000000000000004,0.9912973017977496,-0.35063857531749504,-0.4835852497211608,0.0,8.126340531458315,6.621659162325457,392.82681958939133,389.85295185798566,0.0
0.06,1.0075965099370232,-0.3978921915285159,0.06922437974155438,0.0,8.01613414985999,6.683655190432431,391.7216370988955,389.85295185798566,0.0
0.061,1.0440342947391845,-0.4395085296847019,0.6031287725803809,0.0,7.927253270267267,6.777787200239674,390.48861670034694,389.85295185798566,0.0
0.062,1.0985815278896887,-0.4739139733007456,1.2132823234310415,0.0,7.860042115030741,6.909759949973569,389.2081171265976,389.85295185798566,0.0
0.063,1.1750837705614723,-0.5035005056378685,1.8599804576195986,0.0,7.815659814412183,7.078979794100268,388.21559670221234,389.85295185798566,0.0
0.064,1.2744656995578216,-0.5275323707803676,2.3726142213699557,0.0,7.794985368110454,7.2665951666602115,386.13026524324584,389.85295185798566,0.0
0.065,1.3875635140403781,-0.5403083262448307,3.4525068170006,0.0,7.796304940144556,7.535596464912738,384.5021191781656,389.85295185798566,0.0
0.066,1.5420362430344499,-0.5736570818565564,4.320088176338938,0.0,7.8279332883631465,7.846603592069811,384.0452114276115,389.85295185798566,0.0
0.067,1.722972537926549,-0.602816667398727,4.60661945591972,0.0,7.890373581329108,8.13415720334535,382.9767956738714,389.85295185798566,0.0
0.068,1.8959741129636847,-0.6074715336221822,5.209588894630919,0.0,7.9755456455551865,8.445439997947187,381.6695357311324,389.85295185798566,0.0
0.069,2.0872332085105496,-0.6063903326612629,5.945053027268949,0.0,8.083163302050904,8.789674594954743,380.95899823166684,389.85295185798566,0.0
0.07,2.302082474919654,-0.6054335918814323,6.3892613132649085,0.0,8.214348223121629,9.130034939694752,379.8969901094634,389.85295185798566,0.0
0.07100000000000001,2.521728623279089,-0.5933877748338481,7.019824991851857,0.0,8.365135214091852,9.49238508019699,378.9626441316708,389.85295185798566,0.0
0.07200000000000001,2.7609709811782004,-0.5797818143929118,7.5959010580113,0.0,8.53570232253725,9.866521438352391,378.0582284776132,389.85295185798566,0.0
0.073,3.01513352296708,-0.5623994462560655,8.16605611884381,0.0,8.724850355063,10.251691711548986,377.1707288318265,389.85295185798566,0.0
0.074,3.284297295613107,-0.5420196027137203,8.736628171998754,0.0,8.931532652547547,10.647254746344041,399.84885879896405,389.85295185798566,0.0
0.075,3.475621577380558,-0.6590301373531238,-2.702395880979791,0.0,9.170177981008905,9.741577307780895,404.9900848856835,389.85295185798566,0.0
0.076,2.874714493465664,-0.47591677791607345,-5.424380254616483,0.0,9.273078457883344,8.833317127398267,404.68769911360533,389.85295185798566,0.0
0.077,2.2930469023136753,-0.29618042706654724,-5.42153484113361,0.0,9.256923004032991,8.111680216148393,403.20422338692623,389.85295185798566,0.0
0.078,1.8468707715532422,-0.18686759237883377,-4.813309693083465,0.0,9.15999235613554,7.570730461261286,401.23225655186053,389.85295185798566,0.0
0.079,1.5251301835665814,-0.13928772069031542,-3.941119322489363,0.0,9.014519140000262,7.194971009728926,399.4425957761028,389.85295185798566,0.0
0.08,1.310480205974307,-0.14035890538290094,-3.1421853737916647,0.0,8.846610929358341,6.94179510404236,398.003051765912,389.85295185798566,0.0
0.081,1.1715073659928164,-0.17179942546609495,-2.503914367775535,0.0,8.673623694574186,6.772506951657101,396.7886500937856,389.85295185798566,0.0
0.082,1.0817915218756207,-0.21753465020281443,-1.9660705140703203,0.0,8.505722837550127,6.6641080193324385,395.6888738329149,389.85295185798566,0.0
0.083,1.026008861288419,-0.26790341456626543,-1.474541603384278,0.0,8.348855384828617,6.60368757039967,394.4512890160694,389.85295185798566,0.0
0.084,0.9962832328849148,-0.31709384928900525,-0.9017325665423521,0.0,8.206539892661853,6.594428118552293,393.2100451727581,389.85295185798566,0.0
0.085,0.9941400761489196,-0.36553614212581353,-0.31468157803443586,0.0,8.082366752391847,6.630649071997354,392.11628503214496,389.85295185798566,0.0
0.08600000000000001,1.0164922112333068,-0.41113061361862246,0.2095651605305422,0.0,7.978763990429187,6.70014708100133,390.9250964020642,389.85295185798566,0.0
0.08700000000000001,1.0571814037990512,-0.4496868488156847,0.7944380301301437,0.0,7.89625654671994,6.807176271347563,389.73890837242027,389.85295185798566,0.0
0.088,1.118911588491741,-0.4834038960272602,1.3886724798077554,0.0,7.836026079257547,6.948385430666253,388.5239054399172,389.85295185798566,0.0
0.089,1.201321537542735,-0.5103918409332839,2.0094644102399744,0.0,7.798571077940803,7.123347602608917,387.3119906130593,389.85295185798566,0.0
0.09,1.3038701981330512,-0.5328182039690261,2.640831436118177,0.0,7.784554814434873,7.329854257593497,385.04100522943054,389.85295185798566,0.0
0.091,1.4261817436435786,-0.5502963103042832,3.8244435942181196,0.0,7.794289170844518,7.625763504460982,383.94084745299875,389.85295185798566,0.0
0.092,1.5960469806711663,-0.5870871099377649,4.433643526483882,0.0,7.836513223196275,7.930769072632989,383.6282743263542,389.85295185798566,0.0
0.093,1.775416706833762,-0.6078013462088243,4.652176865122479,0.0,7.906926085123538,8.209411139642949,382.2602476319986,389.85295185798566,0.0
0.094,1.9447300513270906,-0.6056529859497859,5.412117254560146,0.0,7.997718405567868,8.531807624963758,381.098105950196,389.85295185798566,0.0
0.095,2.143596915396262,-0.6051105130104477,6.080736554539348,0.0,8.111632954079111,8.876810191297578,380.30339835856034,389.85295185798566,0.0
0.096,2.360863437907552,-0.6016891071479861,6.573585885351422,0.0,8.24828537445713,9.224320540403124,379.303082349351,389.85295185798566,0.0
0.097,2.586476070986598,-0.5895712924914833,7.179242585042454,0.0,8.40472484215431,9.58979411588023,378.38609826584644,389.85295185798566,0.0
0.098,2.829682367283697,-0.574871223217142,7.752403162716112,0.0,8.580571891155872,9.966858810864643,377.50214956339056,389.85295185798566,0.0
0.099,3.08780201792014,-0.5566391160099433,8.317885536890003,0.0,8.774682173655673,10.35431209802613,383.70154780286623,389.85295185798566,0.0
0.1,3.3515580868382626,-0.5507721048875647,5.279700457703363,0.0,8.98766370647025,10.356143931194545,401.54852245671566,389.85295185798566,0.0
0.101,3.2877836569213548,-0.6055958262858645,-3.760742575208652,0.0,9.185619548785251,9.424676599479167,403.42160319388506,389.85295185798566,0.0
0.10200000000000001,2.6816209464589296,-0.4121065206098482,-4.832969457152347,0.0,9.248801012858866,8.644651212333832,403.8324247920366,389.85295185798566,0.0
0.10300000000000001,2.182438540892896,-0.2734080787047649,-5.178174985568621,0.0,9.214339856257789,7.9705446085116805,402.39219955339564,389.85295185798566,0.0
0.10400000000000001,1.7689795489796105,-0.18038812711328944,-4.583454843202246,0.0,9.107068944678591,7.469762485410903,400.4695996608731,389.85295185798566,0.0
0.105,1.4726354761208822,-0.14396354904906117,-3.728321374969843,0.0,8.957370407876084,7.124912221639509,398.7674016790125,389.85295185798566,0.0
0.106,1.276428307593012,-0.15203827503234058,-2.9663668822498153,0.0,8.789409164015494,6.893460137891363,397.39845246469577,389.85295185798566,0.0
0.107,1.149640505701027,-0.18675019699013168,-2.357347281158552,0.0,8.618836400321673,6.739714335847652,396.21984162593895,389.85295185798566,0.0
0.108,1.0681014261941024,-0.23326005961585033,-1.8317107594596798,0.0,8.454715298462114,6.643717079741733,395.11806968551514,389.85295185798566,0.0
0.109,1.0186286882161486,-0.28302190695328133,-1.333475967523066,0.0,8.30241528575878,6.595083511338996,393.8614247745122,389.85295185798566,0.0
0.11,0.994928376357212,-0.3312441615093117,-0.7452382411868705,0.0,8.16528874701329,6.597919407408518,392.62917958513384,389.85295185798566,0.0
0.111,0.9990823058332334,-0.378766640680747,-0.15687792376916487,0.0,8.046903701912607,6.644902382288173,391.59994881473347,389.85295185798566,0.0
0.112,1.0270531502418185,-0.42313398264263824,0.34026749186354444,0.0,7.949460641634043,6.721115694125029,390.3538304828088,389.85295185798566,0.0
0.113,1.0714909208281402,-0.45900459232476176,0.9583178715776444,0.0,7.872885312212439,6.838369010042158,389.1259217967334,389.85295185798566,0.0
0.114,1.1388769716004177,-0.49175104197829833,1.5795425152278717,0.0,7.8189362506897755,6.991425580550708,388.1844994608359,389.85295185798566,0.0
0.115,1.2293195757413231,-0.5161186498242751,2.0669382071481044,0.0,7.788040724736757,7.161908041583088,386.4905695936755,389.85295185798566,0.0
0.116,1.3311914178297164,-0.5313791007215286,2.9475269633714163,0.0,7.778717971002514,7.393942033593973,384.0767306469199,389.85295185798566,0.0
0.117,1.4670467807960768,-0.5553234033449742,4.2122086488598836,0.0,7.79601216062239,7.718224077366429,383.95363563941413,389.85295185798566,0.0
0.11800000000000001,1.6516919950401423,-0.598983318780995,4.332749314798475,0.0,7.8485682833292545,7.993467572184803,383.0212056497786,389.85295185798566,0.0
0.11900000000000001,1.815375873893884,-0.606642948887553,4.867281771698307,0.0,7.923799103404629,8.28787671886015,381.71497900046757,389.85295185798566,0.0
0.12,1.9945370631403108,-0.6059495519569846,5.601774824929009,0.0,8.020794886176573,8.617746052133311,380.74944054117475,389.85295185798566,0.0
0.121,2.1988122049829038,-0.6052888349164707,6.1755791677435266,0.0,8.141012279093491,8.959422923823423,379.8319633884679,389.85295185798566,0.0
0.122,2.4159141707248493,-0.5983071898347642,6.73452762879213,0.0,8.282614246099143,9.312861670110221,378.87543509047254,389.85295185798566,0.0
0.123,2.646612489254091,-0.5859562438943133,7.322566945464943,0.0,8.444111103430277,9.681005783311637,377.96950483976696,389.85295185798566,0.0
0.124,2.8933772639662445,-0.5702566431404219,7.89436654099992,0.0,8.624669239724918,10.060665591235095,377.0963008841425,389.85295185798566,0.0
0.125,3.1551253680461766,-0.5512666223265876,8.458535028550568,0.0,8.823205636900452,10.450431125969224,387.83097395204805,389.85295185798566,0.0
0.126,3.3945888291142374,-0.5897655198754862,3.1114182736571774,0.0,9.045289726770369,10.203525719357025,403.0008331776054,389.85295185798566,0.0
0.127,3.179865979357441,-0.5811482056863901,-4.6049901523176855,0.0,9.219141973455784,9.234199651168666,404.27175002577326,389.85295185798566,0.0
0.128,2.555488283709515,-0.37672013775921886,-5.384636558079498,0.0,9.25627547432372,8.43712871211734,403.588694923032,389.85295185798566,0.0
0.129,2.0521220332968695,-0.23767388979694792,-5.180466437359328,0.0,9.196737724603157,7.802859904983687,401.681099378636,389.85295185798566,0.0
0.13,1.6674649568804378,-0.1587184546434272,-4.344950140367845,0.0,9.072432233754014,7.353207910954883,399.7692802980131,389.85295185798566,0.0
0.131,1.4049295801211423,-0.13805025075422606,-3.4882038844566527,0.0,8.914108144510632,7.047009813103723,398.1899424529455,389.85295185798566,0.0
0.132,1.2332077168346314,-0.15673345680247436,-2.781904867872459,0.0,8.743258489110671,6.840988596572411,396.90210989952556,389.85295185798566,0.0
0.133,1.1218954822141618,-0.19660515329007838,-2.208480171577885,0.0,8.573090732150728,6.705025389756183,395.7749782480156,389.85295185798566,0.0
0.134,1.050611667627813,-0.24516869024699955,-1.7041346097232066,0.0,8.411286702305544,6.622113590024946,394.6162457992124,389.85295185798566,0.0
0.135,1.0085326571553925,-0.2948423556926008,-1.1724013247338634,0.0,8.2623503633012,6.588675626018699,393.39286317748827,389.85295185798566,0.0
0.136,0.9931724553003933,-0.34357456239585515,-0.596109127066833,0.0,8.12982766787957,6.603031465505447,392.1724730225865,389.85295185798566,0.0
0.137,1.0036024516814468,-0.39029852318719027,-0.009109261261944779,0.0,8.016645139568787,6.660205613142758,391.14716936630714,389.85295185798566,0.0
