timestamp,iq,id,iq_ref,id_ref,vq,vd,omega,omega_ref,r
0.0,0.0,0.0,0.0,0.0,0.0,0.0,0.0,60.35286015264468,0.0
0.001,0.0,0.0,10.0,0.0,0.0,1.0999999999999999,7.51898414236456,60.35286015264468,0.0
0.002,0.5895130686225276,-0.3387218663464784,10.0,0.0,0.14725940529811252,1.9251535624515215,12.903593660235488,60.35286015264468,0.0
0.003,1.3998417091682533,-0.801073103528676,10.0,0.0,0.4097796437381432,2.5992766894138977,19.131641686769367,60.35286015264468,0.0
0.004,2.2454884987500234,-1.2865536881721267,10.0,0.0,0.7622395229693659,3.1473216670755026,25.408838268011102,60.35286015264468,0.0
0.005,3.0212673992494423,-1.7308816409081178,10.0,0.0,1.1782791809981508,3.59892892373495,31.75966520989102,60.35286015264468,0.0
0.006,3.675570973446606,-2.106215103482247,10.0,0.0,1.6347190002457972,3.9827638163746384,38.13771394235631,60.35286015264468,0.0
0.007,4.195590950187622,-2.4045321676135196,10.0,0.0,2.112959869261345,4.32320003997558,44.483483301259845,60.35286015264468,0.0
0.008,4.590970136190201,-2.631263474661533,9.358610811702807,0.0,2.5993775468694023,4.568572406712419,50.24012568668515,60.35286015264468,0.0
0.009000000000000001,4.845184827661132,-2.7766371035205597,6.581416963649752,0.0,3.0754144794943503,4.51496204893174,53.937837726573854,60.35286015264468,0.0
0.01,4.843972708935584,-2.7744138080178833,4.796711167966107,0.0,3.4967883842848506,4.348446201121472,56.80910003594723,60.35286015264468,0.0
0.011,4.620438186829267,-2.6440549694687423,3.3965176144463927,0.0,3.845056074529897,4.129121771885388,58.73484203945112,60.35286015264468,0.0
0.012,4.237156806013603,-2.4186812519938994,2.449826793826386,0.0,4.113077032290088,3.916348106533075,59.778879287857315,60.35286015264468,0.0
0.013000000000000001,3.7702135811448714,-2.1439948778555595,1.9335479782711602,0.0,4.305056763758559,3.751861082914539,60.419203831565476,60.35286015264468,0.0
0.014,3.294606032633162,-1.862795987098963,1.6127222696278718,0.0,4.433204805476487,3.640540093097096,60.510020520901016,60.35286015264468,0.0
0.015,2.857682964748546,-1.6110841657211419,1.5657423212775385,0.0,4.512529632596885,3.5945119311832774,61.41068338170667,60.35286015264468,0.0
0.016,2.5074100861881776,-1.3927973306963015,1.1048326585840922,0.0,4.557824727174904,3.5449495907229,59.83233645620954,60.35286015264468,0.0
0.017,2.216324803561665,-1.2205097039614536,1.8992113582970083,0.0,4.576865307658502,3.625380399665028,62.0011323069701,60.35286015264468,0.0
0.018000000000000002,2.0486438178413824,-1.1172528993402606,0.7983307113734741,0.0,4.592409538746969,3.5861655832055526,60.97327371557013,60.35286015264468,0.0
0.019,1.9084078351485045,-1.0203324089747243,1.3060558714442043,0.0,4.592849179186644,3.6330343938168994,61.347311374816,60.35286015264468,0.0
0.02,1.8262468083017067,-0.9766775244748682,1.1090925295995553,0.0,4.5940989042521565,3.65615242133368,62.06142317217046,60.35286015264468,0.0
0.021,1.7893130423956412,-0.9335148622348383,0.7349510007270701,0.0,4.593224115561392,3.641138787829007,60.041449706668686,60.35286015264468,0.0
0.022,1.7497724968738528,-0.9042115767312021,1.7480518379377152,0.0,4.588143707606239,3.746701668535956,62.22202351463517,60.35286015264468,0.0
0.023,1.778751894855754,-0.9138570081508114,0.6390733003345692,0.0,4.595481658828487,3.7054984336350145,61.34052120105472,60.35286015264468,0.0
0.024,1.7793808185376288,-0.8944667809866971,1.069947846640693,0.0,4.5957361121361675,3.7278559151909123,60.72226945779597,60.35286015264468,0.0
0.025,1.784658232736081,-0.8948167906909064,1.3753796252185568,0.0,4.598433271607775,3.7767176177774795,62.28363717709744,60.35286015264468,0.0
0.026000000000000002,1.8182577980495656,-0.8969518661148399,0.575387995323293,0.0,4.60597824359047,3.7262662909357935,60.75422465959252,60.35286015264468,0.0
0.027,1.8132580687995101,-0.8763134472312287,1.3360806090062727,0.0,4.60543200885929,3.7741766636512675,61.23020837563711,60.35286015264468,0.0
0.028,1.830427529502857,-0.8805883536857315,1.0893152687540542,0.0,4.610408058771604,3.780551624087635,62.055379019316774,60.35286015264468,0.0
0.029,1.85069633009585,-0.8697808308457795,0.6597047582475022,0.0,4.614292423159386,3.739939317260202,60.26096073464296,60.35286015264468,0.0
0.03,1.8402396720413574,-0.8483562507987765,1.557832894764428,0.0,4.611478491848875,3.80821979806814,61.30762431658052,60.35286015264468,0.0
0.031,1.8675097777578527,-0.8550071922349994,1.024953462156287,0.0,4.616719851108664,3.7986885405028112,61.73016457093344,60.35286015264468,0.0
0.032,1.8875051772267841,-0.839440334731502,0.7999102907969409,0.0,4.618705084946192,3.7692817972121286,59.928147205914726,60.35286015264468,0.0
0.033,1.8814131919067003,-0.8221681217817477,1.7051661027735971,0.0,4.615806846221463,3.845712895045193,61.13372448992756,60.35286015264468,0.0
0.034,1.918147145228071,-0.8311407089147349,1.094568817394352,0.0,4.622001247866639,3.8338911449924424,61.53343178812875,60.35286015264468,0.0
0.035,1.9432693596103188,-0.8167485337813221,0.8829094519389147,0.0,4.624721169206018,3.804298348714344,59.70735914792068,60.35286015264468,0.0
0.036000000000000004,1.9410064166955932,-0.7995938481862497,1.8024007820901922,0.0,4.622466725119525,3.8816976100336302,60.8279443596595,60.35286015264468,0.0
0.037,1.9804014849617382,-0.8097537177908719,1.2373573341506336,0.0,4.62946678408607,3.8754257212990524,61.528644889804745,60.35286015264468,0.0
0.038,2.0108505046575993,-0.7969244242896842,0.875249221706409,0.0,4.633626827301324,3.8333441279612344,59.60145457605994,60.35286015264468,0.0
0.039,2.0071072155085656,-0.7742020481890749,1.8463584343446575,0.0,4.630791538425217,3.9070460447967257,60.07627850131008,60.35286015264468,0.0
0.04,2.0430655941837803,-0.7809171702020226,1.611712288232936,0.0,4.6365758573027005,3.933579218316621,61.10244365051507,60.35286015264468,0.0
0.041,2.0866203952906215,-0.7800491546229509,1.091133878651736,0.0,4.644272428710596,3.8986888984444588,60.08899605094889,60.35286015264468,0.0
0.042,2.099789319237642,-0.7593498471812568,1.6004963194517827,0.0,4.64544206732769,3.928279886661018,59.08950900574523,60.35286015264468,0.0
0.043000000000000003,2.122026324552163,-0.7553781741607564,2.11287335352261,0.0,4.649223949946894,4.003982207912293,60.604908397275146,60.35286015264468,0.0
0.044,2.1800591472054407,-0.7670161576545262,1.352653175311346,0.0,4.661517771343823,3.9775832549176977,61.05350093080626,60.35286015264468,0.0
0.045,2.2109789839702945,-0.7497196732008888,1.1213505007641742,0.0,4.667923322176765,3.934391633126578,59.11676234035695,60.35286015264468,0.0
0.046,2.2066376683268523,-0.7237181880002292,2.1020807741117062,0.0,4.6666819572197635,4.007139828499993,59.20781443921736,60.35286015264468,0.0
0.047,2.2426135919429964,-0.7263006641668298,2.0680051818157748,0.0,4.673383635526136,4.054932685200127,60.349860521851795,60.35286015264468,0.0
0.048,2.296522239975848,-0.73103021091002,1.4970121368064855,0.0,4.684688857051967,4.030577752985369,60.431948167466835,60.35286015264468,0.0
0.049,2.3241988502078206,-0.7133593207214027,1.455177433850744,0.0,4.690436969815563,4.008391608624444,58.94042397146558,60.35286015264468,0.0
0.05,2.332294374266203,-0.6887401169749704,2.215063893663164,0.0,4.690860253356483,4.072391006040793,58.565386756854764,60.35286015264468,0.0
0.051000000000000004,2.371232809060804,-0.6910029678877725,2.42045723492647,0.0,4.69813625392282,4.140824922423614,59.739451353835115,60.35286015264468,0.0
0.052000000000000005,2.437228123022161,-0.7035748131518333,1.83955902442439,0.0,4.712888320540724,4.130320210469125,60.542507707825884,60.35286015264468,0.0
0.053,2.480270381663364,-0.6945846021349631,1.4361343718771935,0.0,4.72400006763689,4.0796987513857825,59.64477609529024,60.35286015264468,0.0
0.054,2.4850419047469465,-0.6628274180518693,1.89208101871856,0.0,4.725535105976135,4.089344545645633,58.54726665638127,60.35286015264468,0.0
0.055,2.495042181722282,-0.6401683210462502,2.45889167313568,0.0,4.725706291077655,4.15491665459444,58.19248269079871,60.35286015264468,0.0
0.056,2.5389431511151797,-0.6408678242670812,2.6578874305454177,0.0,4.732721104888247,4.225440994065955,58.948245929595565,60.35286015264468,0.0
0.057,2.6098566849738063,-0.6536118211704057,2.2940519533774824,0.0,4.747481715892093,4.240241041878284,59.58918310494847,60.35286015264468,0.0
0.058,2.668642622991615,-0.6551792305670743,1.981220136177993,0.0,4.762291245641386,4.218506683046131,59.88874825799244,60.35286015264468,0.0
0.059000000000000004,2.6999198099054174,-0.6375634139326932,1.8360786786025296,0.0,4.771492972608787,4.1847368397304745,59.325813261975675,60.35286015264468,0.0
0.06,2.7067124752777962,-0.6052459897782171,2.127816645517602,0.0,4.773018784057234,4.188372323057714,58.34346376271646,60.35286015264468,0.0
0.061,2.7159478743245766,-0.5799958809684199,2.6390853590464918,0.0,4.772301224966023,4.244171050774679,57.4538105743043,60.35286015264468,0.0
0.062,2.756533943721699,-0.5739159419622055,3.1129024490359765,0.0,4.776819002353047,4.336953228931165,57.740129791968805,60.35286015264468,0.0
0.063,2.8371890568773357,-0.5912583121109034,2.9958701438104822,0.0,4.792131679923436,4.394831040782856,58.31397823242017,60.35286015264468,0.0
0.064,2.925955128972658,-0.6093572959560714,2.729334742787045,0.0,4.813518335443438,4.411346051347164,58.706775866929945,60.35286015264468,0.0
0.065,2.9967459911866943,-0.6142644447935003,2.5493967683893044,0.0,4.8347766230015345,4.404321069110935,58.99572529446241,60.35286015264468,0.0
0.066,3.041610531029254,-0.6046181655488021,2.4184934032048946,0.0,4.852096421374908,4.38329723266729,59.41583929751248,60.35286015264468,0.0
0.067,3.0629479516734435,-0.5802634497354112,2.2178066102311833,0.0,4.8629993003195535,4.343442775257645,59.11642719771562,60.35286015264468,0.0
0.068,3.0599984648187792,-0.541178669731234,2.3798769896789005,0.0,4.864770666986443,4.3290364789128715,58.74057041948394,60.35286015264468,0.0
0.069,3.0554625778387035,-0.5030194907610774,2.583928276126351,0.0,4.861117605465493,4.337542339283271,58.31406726421531,60.35286015264468,0.0
0.07,3.063760695570192,-0.4735403607161208,2.817567782644958,0.0,4.855819323618432,4.36753398849684,57.94640919333673,60.35286015264468,0.0
0.07100000000000001,3.093314717805343,-0.4565448637407892,3.0254613276773292,0.0,4.852475321510598,4.411360578224169,57.61797995515227,60.35286015264468,0.0
0.07200000000000001,3.144838477663867,-0.4516755623271891,3.217024748744481,0.0,4.853482710400538,4.46409107627296,57.31379003807762,60.35286015264468,0.0
0.073,3.2153402115508536,-0.4569441368718081,3.3995104084274774,0.0,4.860290646420409,4.52256709863134,57.04539176523965,60.35286015264468,0.0
0.074,3.3006831271010935,-0.4695974502312492,3.566784228720513,0.0,4.8736045697982195,4.583768872619617,57.03263619395824,60.35286015264468,0.0
0.075,3.3959028515375516,-0.4870929209200283,3.6063642539480822,0.0,4.89350524687925,4.633242185586441,57.02454441600279,60.35286015264468,0.0
0.076,3.4905535260178913,-0.5020690619781942,3.643693300292226,0.0,4.91783560835837,4.674009252861793,57.038870543982995,60.35286015264468,0.0
0.077,3.5789868882850495,-0.5117357056392837,3.6696701323887404,0.0,4.944723209809251,4.706835647520112,56.988909365525664,60.35286015264468,0.0
0.078,3.658360977925776,-0.5145436539236481,3.728290229488596,0.0,4.9724168984555455,4.737409788979901,57.31869918653987,60.35286015264468,0.0
0.079,3.7297084531215003,-0.5123953593927069,3.593736928642543,0.0,5.000134240501941,4.745254339719152,57.53416308228434,60.35286015264468,0.0
0.08,3.783393637851595,-0.5001001865411052,3.514191951473911,0.0,5.024533317349258,4.742489859540675,57.48100309384992,60.35286015264468,0.0
0.081,3.8209439091339545,-0.4769854093808481,3.5694905162790667,0.0,5.043796364734882,4.745726348971271,57.88910881075789,60.35286015264468,0.0
0.082,3.8497629338107653,-0.45312432058449525,3.39007517124395,0.0,5.059063184329007,4.727482230593832,58.010366706307735,60.35286015264468,0.0
0.083,3.862530768512695,-0.4228514245973578,3.352871157932397,0.0,5.0678875024553545,4.709174646429185,57.980226986313546,60.35286015264468,0.0
0.084,3.8663904155456956,-0.38892875900832924,3.3916673495928027,0.0,5.07056986609768,4.697922990882788,57.34031343470887,60.35286015264468,0.0
0.085,3.86918732958794,-0.3568036806314223,3.7417495925744997,0.0,5.068664295855564,4.7259167579923265,56.48440537733872,60.35286015264468,0.0
0.08600000000000001,3.8954869512085435,-0.3356959705607503,4.208388169012634,0.0,5.0677480620246085,4.795885023107237,55.7687814775711,60.35286015264468,0.0
0.08700000000000001,3.9622473127529556,-0.3317680927107436,4.612040905647177,0.0,5.073699288625445,4.891419610039296,55.906005791900846,60.35286015264468,0.0
0.088,4.069512350226574,-0.34541675085111234,4.587897292089744,0.0,5.090149482433345,4.960171985573918,56.80817165978625,60.35286015264468,0.0
0.089,4.185676180587948,-0.3647809067954044,4.172261243075628,0.0,5.113823464986386,4.9665102427148735,57.95772450565651,60.35286015264468,0.0
0.09,4.267379629988985,-0.3769194108018328,3.6214361766103798,0.0,5.136905468879482,4.910321934445501,58.099693599790626,60.35286015264468,0.0
0.091,4.279757635074328,-0.3857707533297223,3.5729832950718605,0.0,5.152912704194336,4.861694545022415,57.6513539524285,60.35286015264468,0.0
0.092,4.257428689073663,-0.3829087732170475,3.824168180755085,0.0,5.162053145797721,4.850225448424586,57.22893723401571,60.35286015264468,0.0
0.093,4.233624588257496,-0.3829025337329077,4.06661576914777,0.0,5.169160567038858,4.867369853143018,57.25893072413275,60.35286015264468,0.0
0.094,4.225900602440111,-0.39182558331811834,4.0825583183743674,0.0,5.178253284476935,4.883451361476465,57.88948812973452,60.35286015264468,0.0
0.095,4.226808071009237,-0.4086529242817625,3.7919133358025876,0.0,5.189806658014703,4.866526555744438,58.634999128139974,60.35286015264468,0.0
0.096,4.214095630729807,-0.422456164835856,3.436336446844906,0.0,5.199862296676803,4.817650003096192,59.425444189345804,60.35286015264468,0.0
0.097,4.174290832523873,-0.4260357427113368,3.05038807587498,0.0,5.204280437368629,4.740019521061724,59.8890775754631,60.35286015264468,0.0
0.098,4.100110277167104,-0.4174934879974357,2.823209208588149,0.0,5.199518271990543,4.657225522715216,59.886813948632614,60.35286015264468,0.0
0.099,4.002512927553207,-0.3992713798276899,2.8290014840435114,0.0,5.185033913964083,4.595137549542474,59.586682731812346,60.35286015264468,0.0
0.1,3.903122116243652,-0.38120267794861284,2.986728866661969,0.0,5.163983858297992,4.565059042965746,59.49998675367986,60.35286015264468,0.0
0.101,3.8219771301100955,-0.3734052682000004,3.038605589717859,0.0,5.141353929487281,4.547944587551641,59.46212642167117,60.35286015264468,0.0
0.10200000000000001,3.761140761455946,-0.3765977003266392,3.066443093031939,0.0,5.119704689647648,4.538702493622486,59.5205228798022,60.35286015264468,0.0
0.10300000000000001,3.7184736625921766,-0.3893872578451507,3.0455682366948498,0.0,5.100671091404831,4.529730093060536,59.65016028626742,60.35286015264468,0.0
0.10400000000000001,3.687820604846449,-0.4083097045017201,2.987776532126012,0.0,5.08459718648714,4.516548399154692,59.8037697928386,60.35286015264468,0.0
0.105,3.66232565785252,-0.42957049929053626,2.9164626824384836,0.0,5.070961965630836,4.498308791319597,59.950480792273396,60.35286015264468,0.0
0.106,3.636850811040635,-0.45042398630199587,2.8471309763247987,0.0,5.058947581700027,4.476163556686119,60.05861528995629,60.35286015264468,0.0
0.107,3.6086711399258835,-0.4694481900695029,2.7960061761102337,0.0,5.047804240243261,4.452946011514944,60.11614353219625,60.35286015264468,0.0
0.108,3.577654540420541,-0.4866178122919591,2.769609221194741,0.0,5.03715189482185,4.4316734989110955,60.13148997462294,60.35286015264468,0.0
0.109,3.545460850223381,-0.5028950277866464,2.764149701761614,0.0,5.027056330164386,4.414357565363634,60.09909130437875,60.35286015264468,0.0
0.11,3.514321919240108,-0.519555915991319,2.7828867253663656,0.0,5.017908654165489,4.402982682002214,60.04204987515415,60.35286015264468,0.0
0.111,3.4868368616843872,-0.5378894068791817,2.814515542753573,0.0,5.010388332545958,4.3978342860748905,59.95418625487543,60.35286015264468,0.0
0.112,3.4647298890658584,-0.5588489563037995,2.8624340918706244,0.0,5.005227419023478,4.3995603662198315,59.83097763537464,60.35286015264468,0.0
0.113,3.4492800640863743,-0.5832807349188551,2.9292572267937214,0.0,5.003233105021148,4.408947517369954,59.65697063901695,60.35286015264468,0.0
0.114,3.4415026886325526,-0.6119955674926827,3.0232196201088444,0.0,5.005291251331036,4.427565166970393,59.678803669636196,60.35286015264468,0.0
0.115,3.442321024926331,-0.6465600776045892,3.019043669629305,0.0,5.012520295756549,4.442960097009022,60.07172154981831,60.35286015264468,0.0
0.116,3.4458298281820148,-0.6831404403763515,2.8253961155665133,0.0,5.024244123547149,4.43590118204904,61.08267692204638,60.35286015264468,0.0
0.117,3.4385942701910075,-0.7116571659443283,2.3126202617584584,0.0,5.03686071324745,4.3770826723974245,62.15372706684342,60.35286015264468,0.0
0.11800000000000001,3.395739339465665,-0.7179344591678323,1.7590865202179504,0.0,5.042739128011466,4.274288406449503,62.17021362943912,60.35286015264468,0.0
0.11900000000000001,3.305911181461962,-0.6965807299186533,1.7326697041521584,0.0,5.035338591554642,4.194443444294099,61.37883379726258,60.35286015264468,0.0
0.12,3.1971196780128404,-0.6695183617187863,2.118099883794249,0.0,5.0179302893184685,4.175573196429205,60.79837124626192,60.35286015264468,0.0
0.121,3.1116055638105067,-0.6577604104390031,2.403876048358405,0.0,4.999353041560645,4.192748856960587,60.52741446616208,60.35286015264468,0.0
0.122,3.0625081524947793,-0.6672758578044766,2.5376088952731535,0.0,4.98551536335474,4.222747652280735,60.97995716561269,60.35286015264468,0.0
0.123,3.0446748941424193,-0.6940629589598888,2.3050665754181683,0.0,4.978912759154883,4.222916500900682,62.107377013453004,60.35286015264468,0.0
0.124,3.031654276507533,-0.7199818516743464,1.723811482889928,0.0,4.9755705074240435,4.16204950261541,62.4145131631437,60.35286015264468,0.0
0.125,2.9892044898575616,-0.723480766826873,1.549626877939588,0.0,4.966601472777391,4.098126493721471,61.486491308010635,60.35286015264468,0.0
0.126,2.9222981392787215,-0.718090913511916,2.002301493952462,0.0,4.951509167689843,4.098170136760355,60.93858677392619,60.35286015264468,0.0
0.127,2.8746371686661503,-0.7272141473276486,2.2703964947818696,0.0,4.938987911667815,4.126237532179296,61.42760077353829,60.35286015264468,0.0
0.128,2.8557302551471606,-0.7528382732767935,2.0151420887668845,0.0,4.933252942306133,4.121090278565159,62.65445664841204,60.35286015264468,0.0
0.129,2.839322648857075,-0.7740358850684466,1.3786981863723362,0.0,4.9296522405567975,4.050043735729739,62.30815782776497,60.35286015264468,0.0
0.13,2.788401976556414,-0.7711318335744273,1.5322946199446652,0.0,4.918775532916594,4.01443902161,61.32187104266006,60.35286015264468,0.0
0.131,2.7301089384420867,-0.7715737255879965,2.0157479035969694,0.0,4.90550367326487,4.038854032473814,61.53800776834696,60.35286015264468,0.0
0.132,2.7009597865652397,-0.7910876351063848,1.895828064596496,0.0,4.898142611791588,4.044098117484809,62.79443076951564,60.35286015264468,0.0
0.133,2.683278168748913,-0.8109761234816228,1.2432008578434441,0.0,4.894034659592824,3.9791453799355727,62.419242689557905,60.35286015264468,0.0
0.134,2.6351741411954426,-0.807770547912731,1.410131072453181,0.0,4.883290730662683,3.950280343448703,61.47161532737003,60.35286015264468,0.0
0.135,2.5820508378736235,-0.8099019454959205,1.872757201799864,0.0,4.87100120046671,3.9778095128894098,62.03928398888248,60.35286015264468,0.0
0.136,2.5580179124009357,-0.8302992153538706,1.5720586326812613,0.0,4.864915925942947,3.9657660972387125,63.12047961765488,60.35286015264468,0.0
0.137,2.5356174090308645,-0.841808240994411,1.0037846236449601,0.0,4.859296857428369,3.897039066513883,61.976398797414156,60.35286015264468,0.0
0.138,2.4800863373638427,-0.835582719785864,1.5595896473176274,0.0,4.846567095103421,3.907328537554107,61.719133531356185,60.35286015264468,0.0
