timestamp,iq,id,iq_ref,id_ref,vq,vd,omega,omega_ref,r
0.0,0.0,0.0,0.0,0.0,0.0,0.0,0.0,370.493468066956,0.0
0.001,0.0,0.0,10.0,0.0,0.0,1.0999999999999999,7.252668697824025,370.493468066956,0.0
0.002,1.4456783585182265,-0.8167640740793007,10.0,0.0,0.1998440481487231,1.8309753805629951,17.4356924406903,370.493468066956,0.0
0.003,2.648784530677911,-1.497640760967426,10.0,0.0,0.519530024355774,2.39095273253218,28.912331859356417,370.493468066956,0.0
0.004,3.4672328929523255,-1.9623281412331073,10.0,0.0,0.9075519830993821,2.8489026887965623,40.903311314963894,370.493468066956,0.0
0.005,3.992086475576237,-2.2608841444686276,10.0,0.0,1.3307610281483182,3.2503104348429805,53.05970179582351,370.493468066956,0.0
0.006,4.333024494022215,-2.454744718334376,10.0,0.0,1.7701290463898793,3.621643664586833,65.3143788551725,370.493468066956,0.0
0.007,4.56807829200988,-2.590135117224686,10.0,0.0,2.215647923920947,3.9773338355862746,77.49414448239396,370.493468066956,0.0
0.008,4.746410838292609,-2.6920717846969033,10.0,0.0,2.6620430602318907,4.324740835127653,89.59808752102388,370.493468066956,0.0
0.009000000000000001,4.894628143385045,-2.7755441981313025,10.0,0.0,3.106701981668941,4.6675260702486465,101.5777826625462,370.493468066956,0.0
0.01,5.027804264153645,-2.846382540501223,10.0,0.0,3.5481310280007348,5.007331473767627,113.42995412937272,370.493468066956,0.0
0.011,5.154043307734784,-2.9065820497611,10.0,0.0,3.9853112726461326,5.344744707981647,125.24474616101159,370.493468066956,0.0
0.012,5.2762063548927705,-2.958993628863569,10.0,0.0,4.417678094857066,5.67995909848724,137.01388904591377,370.493468066956,0.0
0.013000000000000001,5.396119512872474,-3.004319308724095,10.0,0.0,4.844791382891098,6.012919915257177,148.50565660684535,370.493468066956,0.0
0.014,5.517069446898858,-3.039046868393333,10.0,0.0,5.265856198563731,6.343190617990417,159.7726192026429,370.493468066956,0.0
0.015,5.6419509315768455,-3.0596808846612777,10.0,0.0,5.6797640691352065,6.670013268043285,170.94326028365674,370.493468066956,0.0
0.016,5.769046690764345,-3.0702963334386886,10.0,0.0,6.0859247768576585,6.992812721484169,181.6169107487027,370.493468066956,0.0
0.017,5.902211854252656,-3.0657556722272314,10.0,0.0,6.483143731930917,7.310571089961368,191.74084218803716,370.493468066956,0.0
0.018000000000000002,6.041525407551598,-3.0473336285519377,10.0,0.0,6.870435610152403,7.622282677870174,200.9546877173013,370.493468066956,0.0
0.019,6.189146439709153,-3.0130807725743667,10.0,0.0,7.246585865621842,7.926707116805906,209.34994378228456,370.493468066956,0.0
0.02,6.349864498014826,-2.9568165756693032,10.0,0.0,7.60971700633813,8.222101361302961,217.27214334451352,370.493468066956,0.0
0.021,6.523873166186435,-2.8799773297665334,10.0,0.0,7.958184782352236,8.506735522506114,223.52204889901125,370.493468066956,0.0
0.022,6.706366263365599,-2.792261113624753,10.0,0.0,8.291388805568683,8.779418891182377,228.77007161316374,370.493468066956,0.0
0.023,6.91539479138082,-2.6655652896449316,10.0,0.0,8.605481384854748,9.036986118202773,233.40322552175078,370.493468066956,0.0
0.024,7.12133704874984,-2.5495863928269547,10.0,0.0,8.902430708504063,9.279642517419292,232.72104874861802,370.493468066956,0.0
0.025,7.373454241575578,-2.364433091259657,10.0,0.0,9.17474366550588,9.50205474044196,240.11634684981234,370.493468066956,0.0
0.026000000000000002,7.592245724049543,-2.240690873149557,10.0,0.0,9.43030643813334,9.707911145718654,233.83808049206064,370.493468066956,0.0
0.027,7.871884105191174,-2.02389393407174,10.0,0.0,9.658288332908269,9.890165880629592,241.6655822347938,370.493468066956,0.0
0.028,8.11101190982525,-1.8792214999108632,10.0,0.0,9.867951513329878,10.053485656828594,237.61727479908956,370.493468066956,0.0
0.029,8.41866136847599,-1.6257191095599999,10.0,0.0,10.04654181473224,10.189989611044616,233.6262540608469,370.493468066956,0.0
0.03,8.658427075467744,-1.4872840075725318,10.0,0.0,10.20823064410086,10.30740446679669,240.20233087540583,370.493468066956,0.0
0.031,8.945756908530335,-1.2713089262385648,10.0,0.0,10.343119168180955,10.40003809534344,235.23306059890186,370.493468066956,0.0
0.032,9.248237527976254,-1.0253151167096433,10.0,0.0,10.44888263447288,10.46649764363511,234.7607701827606,370.493468066956,0.0
0.033,9.364086638499963,-1.0837160183060148,10.0,0.0,10.559599746235667,10.527168987763652,245.20739843568813,370.493468066956,0.0
0.034,9.352275580783468,-1.3157211581728423,10.0,0.0,10.690248837604418,10.59530261610967,258.7901064910636,370.493468066956,0.0
0.035,9.359546593539223,-1.4765114755517477,10.0,0.0,10.830013266183908,10.668769868777666,256.69778926449004,370.493468066956,0.0
0.036000000000000004,9.309861219004365,-1.70705905646264,10.0,0.0,10.986900307898654,10.754404940363202,275.87287911828366,370.493468066956,0.0
0.037,9.24610606301081,-1.943601774943522,10.0,0.0,11.16037637582427,10.853681422375603,274.79125716040454,370.493468066956,0.0
0.038,9.173034691070004,-2.1803893560430296,10.0,0.0,11.350113691894702,10.967778162332877,294.35539672556564,370.493468066956,0.0
0.039,9.097065158051661,-2.4079602850094903,10.0,0.0,11.554951876729136,11.097064894814077,301.5704002702326,370.493468066956,0.0
0.04,8.966368449160418,-2.7187882854171335,10.0,0.0,11.784150287083419,11.24752371517845,307.31687147977675,370.493468066956,0.0
0.041,8.87973868061092,-2.9358661700008915,10.0,0.0,12.026245025738843,11.414078801993348,326.0223066845487,370.493468066956,0.0
0.042,8.76118627427008,-3.1902811658599965,10.0,0.0,12.286600669908886,11.600362321004297,340.17065053776616,370.493468066956,0.0
0.043000000000000003,8.610295817275688,-3.4834950376322076,10.0,0.0,12.569258477499373,11.809465478737136,351.3797588277075,370.493468066956,0.0
0.044,8.467442130707843,-3.7415991753480036,10.0,0.0,12.870020136535105,12.040129102408248,360.7589240322254,370.493468066956,0.0
0.045,8.327537317453592,-3.9716488385588855,9.926310477484163,0.0,13.186496413610417,12.283657674731378,372.02105416498586,370.493468066956,0.0
0.046,8.174475798822911,-4.179885533662098,4.279969550123649,0.0,13.516283460039757,11.929558129662054,378.82383628301113,370.493468066956,0.0
0.047,7.248408737145524,-3.8870731034617303,0.7952748089504587,0.0,13.74339011304615,11.417330993085361,381.622071810406,370.493468066956,0.0
0.048,6.002658121271077,-3.3509264257975513,-0.7151289921814747,0.0,13.840515376853183,10.975511661883608,377.9627398800504,370.493468066956,0.0
0.049,4.900778981764413,-2.79699302069733,1.0398442548653923,0.0,13.82817497337496,10.904487084556202,372.9242952381574,370.493468066956,0.0
0.05,4.438701134472339,-2.5016096230014613,3.534758304099861,0.0,13.783013312816271,11.136031509366097,367.5804922766507,370.493468066956,0.0
0.051000000000000004,4.596476346180838,-2.469651195360039,6.235789542756262,0.0,13.764960667730836,11.590093569638128,362.2143819979724,370.493468066956,0.0
0.052000000000000005,5.23725588501907,-2.5870205328298246,9.001635542785259,0.0,13.807349704579252,12.205268909835931,366.06586124687385,370.493468066956,0.0
0.053,6.210454335082805,-2.778627932388289,7.120171986535351,0.0,13.926920492339335,12.427902134392383,373.5606005025224,370.493468066956,0.0
0.054,6.721606888598165,-2.694337365839639,3.3421310343554174,0.0,14.045609487463112,12.196964449705845,368.2674828694369,370.493468066956,0.0
0.055,6.538027816190219,-2.255814918303237,6.010949702873359,0.0,14.081941251042347,12.357645119559146,349.76928574868526,370.493468066956,0.0
0.056,6.834713321901431,-1.9202559312331058,10.0,0.0,14.098181641146633,12.88352704843148,356.1449675135959,370.493468066956,0.0
0.057,7.794802653531306,-1.844299727910396,10.0,0.0,14.16038659263293,13.215911349033563,351.7204561956239,370.493468066956,0.0
0.058,8.590451844051284,-1.838065439303363,10.0,0.0,14.249683269317257,13.443357197083168,341.75804827197527,370.493468066956,0.0
0.059000000000000004,9.346968842811599,-1.5623543668716984,10.0,0.0,14.322528988056705,13.581727750037818,336.260450850008,370.493468066956,0.0
0.06,9.899594319372088,-1.3626038451336346,10.0,0.0,14.3827117435508,13.660322187136895,333.14149343808924,370.493468066956,0.0
0.061,10.459910200208169,-0.9913536992876291,10.0,0.0,14.405895656379707,13.680966963949103,316.395193001426,370.493468066956,0.0
0.062,10.933214319009576,-0.6657114645991108,10.0,0.0,14.396717511249674,13.655405360103197,318.2360939428437,370.493468066956,0.0
0.063,11.189243899500045,-0.6452504395649091,10.0,0.0,14.386906729841172,13.608051889462931,334.266757473924,370.493468066956,0.0
0.064,11.151647426918139,-0.9964904114746805,10.0,0.0,14.412182686669915,13.57114859553476,339.82786761181467,370.493468066956,0.0
0.065,11.060617657154515,-1.3279118919928108,10.0,0.0,14.464184681560866,13.550100536630461,348.70248302087475,370.493468066956,0.0
0.066,10.845420868542577,-1.795460439571356,10.0,0.0,14.556997796500742,13.559118832155365,360.83972630392344,370.493468066956,0.0
0.067,10.669098063918675,-2.1394807768221717,10.0,0.0,14.674598181120931,13.593760150244274,376.58043279007745,370.493468066956,0.0
0.068,10.394447338169774,-2.612513246007066,2.8274133428494537,0.0,14.832496027325815,12.876161194485887,372.2744904048926,370.493468066956,0.0
0.069,9.098071506329065,-2.481955090272356,4.962574312062506,0.0,14.883752471511713,12.692560326353767,381.5234634242543,370.493468066956,0.0
0.07,8.302460453383636,-2.5483128353095528,0.22778784880867242,0.0,14.920128117977242,12.064820526308983,387.9869154830258,370.493468066956,0.0
0.07100000000000001,7.015539771847321,-2.409024520320955,-3.1788726547377806,0.0,14.874106927692631,11.309712644597196,385.59050620569934,370.493468066956,0.0
0.07200000000000001,5.517906255489196,-2.0714941102132167,-2.1316383974619715,0.0,14.72144160630333,10.92664628534796,383.28798834938016,370.493468066956,0.0
0.073,4.5496577135435174,-1.920018583369397,-1.1083246721266216,0.0,14.532449177276295,10.760243201549292,381.69916792647723,370.493468066956,0.0
0.074,4.050949758244386,-1.933688719744354,-0.4259714592703707,0.0,14.348734153041775,10.701582289052071,379.9726539877449,370.493468066956,0.0
0.075,3.8327008393977096,-2.0166349212017196,0.34249365088791706,0.0,14.186511920777555,10.727143896890118,378.36728497246446,370.493468066956,0.0
0.076,3.8027537038130768,-2.1225344972868694,1.0664399894730403,0.0,14.053887563878344,10.806988262586549,376.18318968955043,370.493468066956,0.0
0.077,3.89611292531672,-2.2136088733880257,2.101590414704111,0.0,13.951469264848981,10.961643853691744,372.8908701904863,370.493468066956,0.0
0.078,4.124703533249885,-2.2959000002803824,3.723776143000882,0.0,13.88289963503022,11.234469606986202,367.44547370121364,370.493468066956,0.0
0.079,4.55167112741081,-2.3949264114300206,6.476954331294625,0.0,13.858539537480318,11.715103036120313,363.79981962191306,370.493468066956,0.0
0.08,5.317973948653163,-2.5513082966866554,8.366717855395347,0.0,13.90089053586555,12.245555683959116,368.8614173828086,370.493468066956,0.0
0.081,6.219874676248361,-2.695551826171659,5.852239481789045,0.0,14.006354668586921,12.340161858691815,374.9908121687891,370.493468066956,0.0
0.082,6.561689210204085,-2.523357334132673,2.742568647780473,0.0,14.090349176090289,12.090354229759317,363.4469351247762,370.493468066956,0.0
0.083,6.346735662651524,-2.0604790717499517,8.584972499208723,0.0,14.091768806008355,12.574750982037946,350.13915995689314,370.493468066956,0.0
0.084,7.112286130297067,-1.91267332894008,10.0,0.0,14.129856299077227,13.021718921736735,360.05997615779603,370.493468066956,0.0
0.085,8.047999663345776,-1.888454443791948,10.0,0.0,14.207645816870894,13.318375557805723,345.978403946669,370.493468066956,0.0
0.08600000000000001,8.813985766587077,-1.8214811745175896,10.0,0.0,14.300197175723394,13.51824414602112,346.6369238424023,370.493468066956,0.0
0.08700000000000001,9.52303118150754,-1.5233983672756035,10.0,0.0,14.371360881408311,13.637045876691388,330.5399481406781,370.493468066956,0.0
0.088,10.063619499526784,-1.277272768610831,10.0,0.0,14.423195401811046,13.698709544030208,332.73299589569103,370.493468066956,0.0
0.089,10.571257838771443,-0.9551285189422289,10.0,0.0,14.4430382254305,13.708955962538699,320.4877349448009,370.493468066956,0.0
0.09,11.062044420873269,-0.5790591513988872,10.0,0.0,14.423775220605776,13.671251880919533,320.3540833486311,370.493468066956,0.0
0.091,11.224238632966237,-0.6908439504350277,10.0,0.0,14.418725129671014,13.622458409470603,333.9741877873596,370.493468066956,0.0
0.092,11.142412665406589,-1.0871126259073085,10.0,0.0,14.451772406996428,13.588662074625582,344.6182868158322,370.493468066956,0.0
0.093,11.034976194327033,-1.4247857800630666,10.0,0.0,14.511316683307207,13.572549853140757,350.86279370853913,370.493468066956,0.0
0.094,10.811868702951317,-1.88969651039218,10.0,0.0,14.611058758633064,13.587470740776025,365.1122633505781,370.493468066956,0.0
0.095,10.62498860836327,-2.239759261202219,8.728208045384644,0.0,14.73617651047569,13.489302367663598,377.66122708599283,370.493468066956,0.0
0.096,10.156493292386468,-2.6239387376986425,2.3820485874868957,0.0,14.877724764729301,12.777768670035638,374.3535643654851,370.493468066956,0.0
0.097,8.827133696408234,-2.4672492503918764,3.9972789847554653,0.0,14.912887185426056,12.534224708272198,382.27212220890476,370.493468066956,0.0
0.098,7.946143321019324,-2.495707594387696,-0.07978647837384756,0.0,14.924876280589404,11.937537225170866,387.81773322876575,370.493468066956,0.0
0.099,6.701115955038972,-2.356464773697441,-3.0258346399224365,0.0,14.860396424210393,11.246565863260896,386.04711393455653,370.493468066956,0.0
0.1,5.3147853617400225,-2.058207997813928,-2.296061451493837,0.0,14.701851600137992,10.86802527584973,383.66646268819676,370.493468066956,0.0
0.101,4.389493720735087,-1.9109523721870558,-1.2374657745263562,0.0,14.50809164867161,10.708550831932136,381.5966484730692,370.493468066956,0.0
0.10200000000000001,3.9188752619846343,-1.920494423378728,-0.31359047102370674,0.0,14.320282429847447,10.679203277927783,379.5804912275785,370.493468066956,0.0
0.10300000000000001,3.7559136637852313,-2.0102846960190566,0.6036179201154273,0.0,14.158100886983789,10.738883318646153,377.9268125135475,370.493468066956,0.0
0.10400000000000001,3.790228882291097,-2.1319562176240137,1.3561238326650136,0.0,14.030591467128477,10.844576477457746,375.7123002338515,370.493468066956,0.0
0.105,3.936819213047455,-2.232999093581122,2.4111916508440343,0.0,13.936300306279085,11.019699995078705,371.94436420888604,370.493468066956,0.0
0.106,4.208165098533455,-2.3171645806163133,4.280650701907473,0.0,13.877198388091031,11.334589718191921,366.0005268088084,370.493468066956,0.0
0.107,4.704824987097113,-2.4264794301894366,7.297498814527776,0.0,13.866678612615793,11.873319850165466,364.56948199195887,370.493468066956,0.0
0.108,5.565626448813475,-2.6045789851461034,8.072261083702507,0.0,13.929581630434935,12.322458797973983,370.87406968800383,370.493468066956,0.0
0.109,6.37653311474194,-2.6897207968252257,4.916161219469549,0.0,14.038692844988159,12.297463826391228,375.18684318267,370.493468066956,0.0
0.11,6.538985038827871,-2.427255588660981,2.7128407209793366,0.0,14.104670849912921,12.065314572240302,358.05247799005747,370.493468066956,0.0
0.111,6.334697513858504,-1.938636855104552,10.0,0.0,14.08971272032055,12.710694916661613,351.71111414912184,370.493468066956,0.0
0.112,7.3436242367882265,-1.8808833720530305,10.0,0.0,14.139321742329441,13.104145006119388,359.65163573941965,370.493468066956,0.0
0.113,8.243145525766383,-1.8928005910728882,10.0,0.0,14.225203300005923,13.374352914273972,341.39060533143686,370.493468066956,0.0
0.114,9.008936476873208,-1.747656505247936,10.0,0.0,14.313432471099274,13.55088639564878,347.41756290982426,370.493468066956,0.0
0.115,9.656307578565658,-1.484716644374692,10.0,0.0,14.38302012938296,13.655036534320335,328.79535485676047,370.493468066956,0.0
0.116,10.215482700785817,-1.166190628288569,10.0,0.0,14.423655572544696,13.700694872525816,324.8700110929556,370.493468066956,0.0
0.117,10.678430013808107,-0.8919532803257431,10.0,0.0,14.437812457095756,13.700518468016675,324.5682958726208,370.493468066956,0.0
0.11800000000000001,11.151123731005221,-0.5322810522241737,10.0,0.0,14.413714441129247,13.654408556652085,325.1791267464582,370.493468066956,0.0
0.11900000000000001,11.226980440548726,-0.7569638407857351,10.0,0.0,14.415727064645719,13.606882533949493,333.06633919864686,370.493468066956,0.0
0.12,11.115745886221768,-1.1758189060563646,10.0,0.0,14.456613052834436,13.57730474394021,349.36627587117624,370.493468066956,0.0
0.121,10.983484639809811,-1.5361002068030745,10.0,0.0,14.52589505563279,13.568209723312771,351.8891842235556,370.493468066956,0.0
0.122,10.762116082009568,-1.9830782931681146,10.0,0.0,14.632904132581247,13.589980333921815,369.493773918006,370.493468066956,0.0
0.123,10.561921195158083,-2.34498135760557,6.5694569286011415,0.0,14.766728919120236,13.26272280528659,375.91916091169895,370.493468066956,0.0
0.124,9.775008619461804,-2.567940043956275,3.302506503307243,0.0,14.875351898996007,12.741072826558522,376.64713710731166,370.493468066956,0.0
0.125,8.639388667458022,-2.4884148094012115,2.8769817150973314,0.0,14.909970220346827,12.385360990204141,383.7296454106888,370.493468066956,0.0
0.126,7.6453959215540035,-2.4795023935516043,-0.7966342100285742,0.0,14.905370412529225,11.766822668267935,386.70359199831347,370.493468066956,0.0
0.127,6.364285584627156,-2.2926151481186112,-2.4457087431544746,0.0,14.81890828046063,11.195998367953912,385.74071197608185,370.493468066956,0.0
0.128,5.1458680697850125,-2.0587482167946933,-2.1167411711299264,0.0,14.660153441576181,10.847502285981754,383.74784821524287,370.493468066956,0.0
0.129,4.307894947405555,-1.938312655091024,-1.2528530921933019,0.0,14.471515235908802,10.689711209594472,381.4876866066415,370.493468066956,0.0
0.13,3.862389122252142,-1.942922534143742,-0.23271447328946682,0.0,14.28767318548227,10.673037697112314,379.21956572016757,370.493468066956,0.0
0.131,3.725068523081542,-2.025830093753427,0.8140849934153795,0.0,14.129621721616713,10.75524409364145,377.2978940835998,370.493468066956,0.0
0.132,3.798865555991512,-2.147267738593698,1.7068765515328383,0.0,14.008125109126958,10.891672901245183,375.10526617926433,370.493468066956,0.0
0.133,3.9971113323063703,-2.25790624612184,2.7570725225774737,0.0,13.923376898026248,11.08783374300777,370.8706381468652,370.493468066956,0.0
0.134,4.310380409027628,-2.343880145332218,4.8706148379779535,0.0,13.875070336049724,11.445414233791443,364.8680742919264,370.493468066956,0.0
0.135,4.878190880318666,-2.46017308656631,7.928150703197642,0.0,13.879284963892871,12.018273080244455,365.7412758470909,370.493468066956,0.0
0.136,5.799439734117943,-2.6472138937851906,7.53907184781405,0.0,13.959775572978733,12.365234202887077,372.57696224368914,370.493468066956,0.0
0.137,6.485230238865945,-2.658807140128596,4.100393707747594,0.0,14.06631808244586,12.244960000336263,372.93578002989716,370.493468066956,0.0
0.138,6.494681897570271,-2.3234929643100557,3.8965616950141717,0.0,14.11317842890772,12.165150951577235,353.8275310000448,370.493468066956,0.0
0.139,6.490209173885128,-1.8922352492929242,10.0,0.0,14.1032866289538,12.772011892208482,353.29588987552364,370.493468066956,0.0
0.14,7.503796067299616,-1.8277366223862472,10.0,0.0,14.152287831248819,13.144623890218902,356.823431632434,370.493468066956,0.0
0.14100000000000001,8.371346466846482,-1.8499279533055415,10.0,0.0,14.236736145785574,13.39958013364178,339.8825712895942,370.493468066956,0.0
0.14200000000000002,9.150348230481887,-1.6467618922588414,10.0,0.0,14.315665073186617,13.560470894171623,343.84346622929166,370.493468066956,0.0
0.14300000000000002,9.754500589498788,-1.4304154890474037,10.0,0.0,14.381023740157744,13.65449872953307,330.22054629686556,370.493468066956,0.0
0.14400000000000002,10.332677982415603,-1.0670094523036875,10.0,0.0,14.41143812395821,13.688101658424817,317.9633398884014,370.493468066956,0.0
0.145,10.790553347495178,-0.7904106364174168,10.0,0.0,14.41537955288774,13.676801216577834,322.31122360019754,370.493468066956,0.0
