timestamp,iq,id,iq_ref,id_ref,vq,vd,omega,omega_ref,r
0.0,0.0,0.0,0.0,0.0,0.0,0.0,0.0,9.700451816379573,0.0
0.001,0.0,0.0,4.947230426353582,0.0,0.0,0.5441953468988939,10.847193417851551,9.700451816379573,0.0
0.002,0.3441959450553317,-0.19961212814523335,-0.4878336985869133,0.0,0.07637686878586507,0.34878024714482175,6.284462134799854,9.700451816379573,0.0
0.003,0.4331463608925442,-0.24101926170477364,1.8276918397547324,0.0,0.12813320412783347,0.48326020842018913,11.574034533457189,9.700451816379573,0.0
0.004,0.5538646812658133,-0.31871067734959124,-0.8358301867447109,0.0,0.19629388644847634,0.28093561772117404,8.730780570605528,9.700451816379573,0.0
0.005,0.4892720863536951,-0.27383312670035664,0.5954935071388597,0.0,0.2316925967392894,0.2980527495603777,10.682914805613857,9.700451816379573,0.0
0.006,0.438145187322054,-0.2498439484810953,-0.39039824025764724,0.0,0.2630731150873151,0.1992147430366501,9.56532936551443,9.700451816379573,0.0
0.007,0.3324343513896624,-0.18469245710178295,0.16974570430071775,0.0,0.2745050086786338,0.1959902633377297,9.923424579439246,9.700451816379573,0.0
0.008,0.25123596033088097,-0.14060314705902474,-0.011531630292287043,0.0,0.28027295575001837,0.17656418937416113,9.866430388342799,9.700451816379573,0.0
0.009000000000000001,0.18265252051791875,-0.09937188214230003,0.015305679536304018,0.0,0.2794269546774954,0.17115458941000086,9.546794373250567,9.700451816379573,0.0
0.01,0.13173380699753695,-0.07056321863872932,0.17666026151371028,0.0,0.27536795337958314,0.18859720434334548,9.96574316619529,9.700451816379573,0.0
0.011,0.10933638571203155,-0.0579753802934663,-0.035467048456808675,0.0,0.27236253812185346,0.1808966369432351,9.592327781948944,9.700451816379573,0.0
0.012,0.0906792040535077,-0.04629194609126321,0.15232188401067082,0.0,0.2677283082710958,0.1982719561980733,9.821244303481867,9.700451816379573,0.0
0.013000000000000001,0.0898472764686274,-0.046804962509046685,0.03665569837318616,0.0,0.26546829947887607,0.19875009101530533,9.790645858529496,9.700451816379573,0.0
0.014,0.0910848423820831,-0.04658640008660902,0.05105298042787258,0.0,0.2634529330169555,0.20155032282765364,9.644842983856137,9.700451816379573,0.0
0.015,0.09389921246745557,-0.04876944738981372,0.12451050608978659,0.0,0.26216144721003876,0.21150814476458232,9.947712634241274,9.700451816379573,0.0
0.016,0.10269198039545938,-0.053963095105536166,-0.029396927281399005,0.0,0.262544362953204,0.2017375822284503,9.658929936801353,9.700451816379573,0.0
0.017,0.10270198277559443,-0.0533026137384334,0.11540964023434339,0.0,0.261787341440901,0.21053699169815668,9.844969338572113,9.700451816379573,0.0
0.018000000000000002,0.10792088505604706,-0.05725199841678282,0.02094476412703805,0.0,0.26242700015508835,0.20596757679565253,9.821874122464108,9.700451816379573,0.0
0.019,0.10906060172766242,-0.056918776220129794,0.03127814912019561,0.0,0.2624696032191911,0.20392721055406487,9.631273128758387,9.700451816379573,0.0
0.02,0.10795637597311288,-0.05687778006807276,0.1272704328492676,0.0,0.2623027319979652,0.21268382060302912,9.976419109657671,9.700451816379573,0.0
0.021,0.11288231223614185,-0.05987657902408127,-0.04806223053315542,0.0,0.2633584867504399,0.1997486714691385,9.64034998853336,9.700451816379573,0.0
0.022,0.10804370131387124,-0.05632868739116676,0.12057334830746208,0.0,0.26259489504509725,0.20909735959425668,9.844251171357762,9.700451816379573,0.0
0.023,0.11023445323431039,-0.058585299067113177,0.01718476334547965,0.0,0.26312623752348396,0.20408635078163348,9.809638954796034,9.700451816379573,0.0
0.024,0.10909394534407287,-0.056894246738781164,0.03339900024217893,0.0,0.26289476299989367,0.2025943923934984,9.620385303487547,9.700451816379573,0.0
0.025,0.10686229397409468,-0.05619916367527174,0.12882649102534272,0.0,0.2624776914761463,0.21179744058079425,9.96622706337976,9.700451816379573,0.0
0.026000000000000002,0.11139053763919031,-0.05895992446348246,-0.04675214139076578,0.0,0.26333326644084143,0.19925012900652173,9.630258051420098,9.700451816379573,0.0
0.027,0.1066039458110781,-0.05542844713264478,0.12193430223866003,0.0,0.2624324826373655,0.20892620874728726,9.835105153624085,9.700451816379573,0.0
0.028,0.10907928066161218,-0.05785495555256625,0.018164217764221613,0.0,0.2628916158878135,0.2041228756533063,9.802340169695965,9.700451816379573,0.0
0.029,0.1083200661261333,-0.05632647613152277,0.033527826195117516,0.0,0.2626321046833047,0.20268175391331922,9.603488857932259,9.700451816379573,0.0
0.03,0.10634540168087993,-0.05584811371608789,0.13392311166144358,0.0,0.2622170973537605,0.2124582594874899,9.973935597679956,9.700451816379573,0.0
0.031,0.11144669788360394,-0.05890258570846511,-0.05403509602540882,0.0,0.2631620168579038,0.19895536884431994,9.612758192219308,9.700451816379573,0.0
0.032,0.10641471664159106,-0.05521380732198472,0.12743054294651773,0.0,0.26222584500487917,0.20934259247831036,9.838026672865759,9.700451816379573,0.0
0.033,0.10917209807894464,-0.05781533415463508,0.01342055405843065,0.0,0.2627450684360122,0.2038880896256615,9.788462675191774,9.700451816379573,0.0
0.034,0.10818140770414834,-0.05614548471651966,0.03732244430730125,0.0,0.26245722053224796,0.20293681697324856,9.606812278585178,9.700451816379573,0.0
0.035,0.10636810350456212,-0.0557542949992287,0.12908403798854315,0.0,0.2620766977790979,0.21209619975635477,9.95895881510461,9.700451816379573,0.0
0.036000000000000004,0.11118503129641964,-0.05861996244680596,-0.04957430025842359,0.0,0.2629693008959801,0.1991835637427566,9.609940336355645,9.700451816379573,0.0
0.037,0.10634189592782052,-0.055048461576218156,0.12584005391629816,0.0,0.2620598583295736,0.2093145281523599,9.828133429932233,9.700451816379573,0.0
0.038,0.10905821664191544,-0.05762450327752195,0.015466690992477744,0.0,0.2625735360566175,0.20409901176875828,9.787874148032326,9.700451816379573,0.0
0.039,0.1081994953467764,-0.05601712460836641,0.03472210862590361,0.0,0.2623117223019767,0.20279986691474267,9.591024027379758,9.700451816379573,0.0
0.04,0.10625376535704702,-0.05552519702282288,0.13424144684218592,0.0,0.2619081371896801,0.21256447128404005,9.960060987910245,9.700451816379573,0.0
0.041,0.11134737309035363,-0.05858409573122628,-0.05287312513836409,0.0,0.2628627691593228,0.19915470625459372,9.602772873408991,9.700451816379573,0.0
0.042,0.1063905074911696,-0.05489955319903933,0.12674772154196845,0.0,0.26194507276343193,0.20940701107294163,9.820550071449352,9.700451816379573,0.0
0.043000000000000003,0.10908085614005292,-0.05748669453725122,0.016658139971090197,0.0,0.2624658074614901,0.2042907463228968,9.788455854179816,9.700451816379573,0.0
0.044,0.1082844601735309,-0.05589102343686522,0.03182520822785598,0.0,0.2622214469803135,0.2026219618844215,9.57508702550064,9.700451816379573,0.0
0.045,0.10614357665986748,-0.05526526316106902,0.13976327047623327,0.0,0.26178176718407326,0.21304466923326776,9.962013760828992,9.700451816379573,0.0
0.046,0.11150897093555495,-0.0585163432284044,-0.05631571663243684,0.0,0.26279220251250646,0.19912146645770556,9.595813596851848,9.700451816379573,0.0
0.047,0.10642848636095886,-0.05471137420452659,0.12783074755141238,0.0,0.2618582166372402,0.2095210356698154,9.813264723391208,9.700451816379573,0.0
0.048,0.10910438222137185,-0.05731734265568461,0.017977055211615633,0.0,0.2623822924905778,0.2045167251835802,9.78914115337203,9.700451816379573,0.0
0.049,0.10840150378553039,-0.055720255387776446,0.02915194685128003,0.0,0.2621517904259766,0.20249710392160997,9.561287341989564,9.700451816379573,0.0
0.05,0.10607274304685493,-0.055006366339887036,0.14447049728641342,0.0,0.26167981951904973,0.21347882110774058,9.963464190305384,9.700451816379573,0.0
0.051000000000000004,0.11167093511434288,-0.05840939358473776,-0.059248050610754735,0.0,0.26273468930884103,0.19911385497671513,9.58851680376867,9.700451816379573,0.0
0.052000000000000005,0.10647969827652794,-0.05450222418490468,0.12934499278371148,0.0,0.2617837566001206,0.20970031066296885,9.807442430830468,9.700451816379573,0.0
0.053,0.10918052415481838,-0.057144879982444434,0.01881227310830326,0.0,0.26231632656262527,0.20473949469649558,9.78969972351454,9.700451816379573,0.0
0.054,0.10853571241210103,-0.05556233949038532,0.026791147694917902,0.0,0.26209905192013017,0.20240895827468353,9.550932963957145,9.700451816379573,0.0
0.055,0.10605414690739356,-0.05472808999078182,0.14766971599783957,0.0,0.26159450905966775,0.21377312588634917,9.959660416789724,9.700451816379573,0.0
0.056,0.11177216046506427,-0.0582402862160461,-0.05928609642255156,0.0,0.2626715213261931,0.1993227002551387,9.586648829300602,9.700451816379573,0.0
0.057,0.10663461614423418,-0.0543213382963636,0.12835772719279925,0.0,0.2617295835695272,0.20975770714646247,9.796490459810803,9.700451816379573,0.0
0.058,0.10924707376988285,-0.056938969770253575,0.022476525503386302,0.0,0.262252469218985,0.2051929033689687,9.798359032139713,9.700451816379573,0.0
0.059000000000000004,0.10880235492966134,-0.05547696014018759,0.02056316718133011,0.0,0.26207958855170155,0.20206025478431885,9.540671963216775,9.700451816379573,0.0
0.06,0.10598275581351134,-0.05434366036998178,0.1510045001744268,0.0,0.26150068821425937,0.2138969719182411,9.947220536619675,9.700451816379573,0.0
0.061,0.11171739901494833,-0.057966594916579565,-0.05473747372942389,0.0,0.2625732054217814,0.1998970901023528,9.594530798774313,9.700451816379573,0.0
0.062,0.106939186157907,-0.05418940865918122,0.12266660536930947,0.0,0.2616867628931827,0.20955926647499368,9.773756275636318,9.700451816379573,0.0
0.063,0.10924997764091399,-0.0566747582811931,0.032320822345739644,0.0,0.26216634257570326,0.2061525348422294,9.823626651969532,9.700451816379573,0.0
0.064,0.10934892263981837,-0.05554954380545646,0.006153885823233174,0.0,0.2621086640381441,0.2011717531187041,9.527491879845636,9.700451816379573,0.0
0.065,0.10577903061023297,-0.053805596066408654,0.15595087125052046,0.0,0.26137809307545046,0.2138162970492456,9.923118094887288,9.700451816379573,0.0
0.066,0.11144255355202631,-0.057540489960645716,-0.04408889905538273,0.0,0.26241331140783697,0.20096229845864833,9.614180363534386,9.700451816379573,0.0
0.067,0.10743583487348492,-0.054128860733784215,0.11124268114952016,0.0,0.26164697989402785,0.2090814673700051,9.736511662910353,9.700451816379573,0.0
0.068,0.10922451381097457,-0.05633076488966201,0.04971643299622905,0.0,0.26204552417215066,0.20775406127002505,9.864664683876262,9.700451816379573,0.0
0.069,0.11026239262773851,-0.05586351408498234,-0.016002206161692442,0.0,0.26219805678238944,0.1998891825015476,9.510167917898785,9.700451816379573,0.0
0.07,0.10558759511332617,-0.05322692837538718,0.16314901581185356,0.0,0.261263496334748,0.2137144721943641,9.896277068713738,9.700451816379573,0.0
0.07100000000000001,0.11116492711736839,-0.057071288935497455,-0.03186381211896448,0.0,0.2622541664198605,0.20216059908542064,9.63676642573401,9.700451816379573,0.0
0.07200000000000001,0.10802075632992796,-0.05407809039980307,0.09852836327735551,0.0,0.2616226867410399,0.20855607997544495,9.694193440661651,9.700451816379573,0.0
0.073,0.10924696630487671,-0.05593677463294648,0.06987743957071377,0.0,0.26192829037010645,0.20962701664177227,9.884659858601305,9.700451816379573,0.0
0.074,0.11133393815244619,-0.05631849844807895,-0.027197849821330222,0.0,0.2623338300802322,0.20001234260483194,9.5218651883388,9.700451816379573,0.0
0.075,0.1063991336149134,-0.05320679623957812,0.1559853515903296,0.0,0.2613912439345651,0.2130842932094055,9.86108947227586,9.700451816379573,0.0
0.076,0.11115763953003716,-0.056734813736695686,-0.015233166937163409,0.0,0.26226931041068985,0.20351613739077523,9.675465070254285,9.700451816379573,0.0
0.077,0.10884859183401466,-0.05410108780859499,0.07782890153487738,0.0,0.2617777646302768,0.20724319682453354,9.624578897562271,9.700451816379573,0.0
0.078,0.10890294042425513,-0.055221233628325074,0.1040307170690573,0.0,0.2618576326707323,0.21247090593902748,9.932786595996452,9.700451816379573,0.0
0.079,0.11271053545690807,-0.05696202148066621,-0.05239647994420203,0.0,0.26263257002415186,0.19929652915162788,9.52238461398947,9.700451816379573,0.0
0.08,0.10685898814302602,-0.052930979852987746,0.15458518308319033,0.0,0.26155175350592147,0.21253108483630945,9.827956155000908,9.700451816379573,0.0
0.081,0.11092859629253252,-0.056275788673501526,0.000524369191257576,0.0,0.2623107135945155,0.20481142477272876,9.722645514293607,9.700451816379573,0.0
0.082,0.10945045484460118,-0.054059099463510174,0.05295775256576807,0.0,0.26194452776658794,0.20545119867524858,9.552192878767015,9.700451816379573,0.0
0.083,0.10814618821350377,-0.05420636715881425,0.1396666597051898,0.0,0.26171730425028844,0.2151327104712562,9.953009645165086,9.700451816379573,0.0
0.084,0.11373916125677645,-0.05730882320399903,-0.06326730178170087,0.0,0.26282075175323705,0.2000052542000101,9.545738460180111,9.700451816379573,0.0
0.085,0.1079675954359328,-0.05308375754703047,0.14191542427278106,0.0,0.26180532709604765,0.21179112975777087,9.792774780673291,9.700451816379573,0.0
0.08600000000000001,0.1110328708932167,-0.05595718484417756,0.017474034383253872,0.0,0.2624283601196093,0.20616159918713414,9.772424863053834,9.700451816379573,0.0
0.08700000000000001,0.11026213866535126,-0.05416163095497373,0.026929262726239883,0.0,0.262199891582967,0.20355724729217908,9.502680581932099,9.700451816379573,0.0
0.088,0.10749470228608533,-0.05313998697533156,0.16377911563158212,0.0,0.261639409411625,0.21644612594865362,9.9523168641628,9.700451816379573,0.0
0.089,0.11395615934987058,-0.05713702033372476,-0.06355767596160063,0.0,0.26287375343228425,0.2008760882772339,9.568972014544237,9.700451816379573,0.0
0.09,0.10868036372032876,-0.052957354960108595,0.12942954686603433,0.0,0.26192792575905394,0.21113340329188132,9.745869162854007,9.700451816379573,0.0
0.091,0.11096209746760109,-0.055515616974691845,0.04052679924640494,0.0,0.2624256178299517,0.20825748090280988,9.80247044869607,9.700451816379573,0.0
0.092,0.11139070624868365,-0.05461025308236443,0.011205970002208222,0.0,0.26246077580655064,0.2033583265906237,9.543039836125732,9.700451816379573,0.0
0.093,0.10819049431830316,-0.05282138547607774,0.14249539608991543,0.0,0.26181478075650283,0.21404395806955856,9.860030053571371,9.700451816379573,0.0
0.094,0.11272986611684206,-0.055963157027146354,-0.01759549500482202,0.0,0.26266543190603364,0.20414220159715377,9.646830585093657,9.700451816379573,0.0
0.095,0.10997804667355819,-0.05312499963658841,0.08954045154689452,0.0,0.2620972272648991,0.2090496427753254,9.635687457227116,9.700451816379573,0.0
0.096,0.11048995770756452,-0.05456052073344926,0.09575965907168961,0.0,0.26226287610025517,0.21293844432560308,9.932268213612161,9.700451816379573,0.0
0.097,0.11383334843919929,-0.055847019018120975,-0.05484888309315916,0.0,0.2629279998074488,0.1994631450208677,9.47802974616464,9.700451816379573,0.0
0.098,0.10746064860850613,-0.05153047113249937,0.1744945713327506,0.0,0.2616913959631844,0.21487018431451627,9.836503010399792,9.700451816379573,0.0
0.099,0.11256735507042516,-0.055537060101773075,-0.006102572725027171,0.0,0.2626030466981876,0.20582827419464084,9.70807590913238,9.700451816379573,0.0
0.1,0.11095932206831774,-0.05319714698359437,0.05803473698115103,0.0,0.2622218850150106,0.20687074636336172,9.544639696420743,9.700451816379573,0.0
0.101,0.10982655485845798,-0.053403928557239924,0.14131096453655723,0.0,0.26202923182130616,0.2163983911439892,9.93858680228148,9.700451816379573,0.0
0.10200000000000001,0.11540932336398985,-0.056506141657534426,-0.05804393825282985,0.0,0.26314778405033085,0.20156677233708975,9.548209068516345,9.700451816379573,0.0
0.10300000000000001,0.10984916323780934,-0.05234420578714624,0.13866735610836986,0.0,0.26218248409901745,0.2126294073403437,9.762229451474445,9.700451816379573,0.0
0.10400000000000001,0.1125329480309816,-0.055060241882921405,0.03103938827837091,0.0,0.2627603609724,0.20833224151471832,9.809161308823862,9.700451816379573,0.0
0.105,0.11239090396148262,-0.053605856102251576,0.006486364679219488,0.0,0.26266359077905027,0.20294048973696363,9.477275747306729,9.700451816379573,0.0
0.106,0.10837688917073321,-0.05156818767091237,0.17466090612851443,0.0,0.2618277227576195,0.21726308709935085,9.90383388487255,9.700451816379573,0.0
0.107,0.11477396042578422,-0.05579699089421667,-0.04065198333932536,0.0,0.26299324631344734,0.20395985668143782,9.611710624394469,9.700451816379573,0.0
0.108,0.11107763649975287,-0.052348944005429346,0.10629705881956573,0.0,0.2622903212819015,0.21089159153746934,9.656667484256461,9.700451816379573,0.0
0.109,0.11219444725689093,-0.05424450346046589,0.08425647220980072,0.0,0.26259385424805526,0.21300609303353446,9.885152166615013,9.700451816379573,0.0
0.11,0.11493155851232739,-0.054925945090491715,-0.031832872471829574,0.0,0.2631344870519525,0.2021001614972002,9.503577771137882,9.700451816379573,0.0
0.111,0.1096546966520308,-0.05142340147207777,0.16092306571915266,0.0,0.2621383692075009,0.21531075895990037,9.818213292422245,9.700451816379573,0.0
0.112,0.11415927284151187,-0.05492655844098278,0.0024276903165447797,0.0,0.2629832955965282,0.20719036221624285,9.701293400731217,9.700451816379573,0.0
0.113,0.11277390590534889,-0.05255098886894074,0.06087922031854229,0.0,0.2626353454496733,0.20817855596497228,9.541134319195296,9.700451816379573,0.0
0.114,0.11161224062470747,-0.05293236268866464,0.1425519360583457,0.0,0.2624867165082669,0.21754654826701075,9.935581258065682,9.700451816379573,0.0
0.115,0.11712574544962992,-0.055967929114338066,-0.057022827793708465,0.0,0.26361984825983187,0.20257482508003274,9.547404534650216,9.700451816379573,0.0
0.116,0.11144083424008817,-0.051694788296920445,0.138596006731318,0.0,0.26264209336336974,0.2134078821044813,9.742824808770669,9.700451816379573,0.0
0.117,0.11386479937648011,-0.05430172477715263,0.04046213974718059,0.0,0.26317491407999843,0.20998545894623488,9.785399491514946,9.700451816379573,0.0
0.11800000000000001,0.11406737582875884,-0.0531835961757463,0.018325321623688245,0.0,0.2631631468981827,0.20550680509334643,9.528299980512925,9.700451816379573,0.0
0.11900000000000001,0.11099345012754758,-0.05142250420864289,0.1485965954833654,0.0,0.2625221522188923,0.21636620580502075,9.84281900759437,9.700451816379573,0.0
0.12,0.11569849185911554,-0.054676759620625716,-0.01008658996950522,0.0,0.2634067760936875,0.20676940999170143,9.656382477493864,9.700451816379573,0.0
0.121,0.11331277427414668,-0.051921812303695886,0.08357236846960497,0.0,0.2629076712406892,0.21041955278168656,9.576288886192604,9.700451816379573,0.0
0.122,0.11322901154474464,-0.05298322178960833,0.12486079342210474,0.0,0.26296779566860895,0.21724526469214192,9.93838663453554,9.700451816379573,0.0
0.123,0.11794059415397905,-0.05528712927260329,-0.05856742893092313,0.0,0.2639472945730525,0.2022853174316758,9.516077463760773,9.700451816379573,0.0
0.124,0.11165125660367012,-0.050760141113372494,0.1544308999826484,0.0,0.26281184108865974,0.21492235614835012,9.760789077630596,9.700451816379573,0.0
0.125,0.11490555745253321,-0.053788363943058,0.03147172043522661,0.0,0.2634320112172315,0.21010578613668754,9.801830382457057,9.700451816379573,0.0
0.126,0.11483494119654979,-0.05232784998669056,0.00993728236122135,0.0,0.2633175685682824,0.2047340045430288,9.460807499895044,9.700451816379573,0.0
0.127,0.11088707143611677,-0.050308477370546986,0.18284516680707336,0.0,0.26246986617665036,0.21955672802471266,9.892777430256931,9.700451816379573,0.0
0.128,0.11761953887175376,-0.05476539545524655,-0.03506305451264402,0.0,0.2636996610878283,0.2063333756139131,9.62506576554864,9.700451816379573,0.0
0.129,0.11425196704421017,-0.05139230025514833,0.09954663834981053,0.0,0.2630685316139506,0.21197924393876463,9.61371059403776,9.700451816379573,0.0
0.13,0.11480302989104202,-0.05277209281210497,0.10609163632866873,0.0,0.26325061005321204,0.2162769727013662,9.903804694565403,9.700451816379573,0.0
0.131,0.11833721647532618,-0.0543137933065649,-0.04098894271701105,0.0,0.2640000426536286,0.20353557286101734,9.514236678950105,9.700451816379573,0.0
