timestamp,iq,id,iq_ref,id_ref,vq,vd,omega,omega_ref,r
0.0,0.0,0.0,0.0,0.0,0.0,0.0,0.0,312.3974271326002,0.0
0.001,0.0,0.0,10.0,0.0,0.0,1.0999999999999999,6.540337434231296,312.3974271326002,0.0
0.002,0.4727339632760392,-0.27082126620809005,10.0,0.0,0.1397903392828899,1.9379992640396355,11.562718245287629,312.3974271326002,0.0
0.003,0.9501876261376118,-0.5444751172896516,10.0,0.0,0.3767952819983451,2.658385072321584,17.214097991691183,312.3974271326002,0.0
0.004,1.3543141890244095,-0.7758518264839872,10.0,0.0,0.684853210771011,3.2907534087579506,22.96628355776531,312.3974271326002,0.0
0.005,1.6789817102109126,-0.9616061109952065,10.0,0.0,1.0434613845143377,3.8590185427263006,28.867208066161187,312.3974271326002,0.0
0.006,1.937531759425601,-1.1093978699136215,10.0,0.0,1.4374348049160808,4.381124150470397,34.822246363600236,312.3974271326002,0.0
0.007,2.1456732564992334,-1.2282501641338566,10.0,0.0,1.8558172788271003,4.870106475294306,40.79724905842959,312.3974271326002,0.0
0.008,2.316729328967547,-1.3258055204087313,10.0,0.0,2.2908023040774435,5.335294062026148,46.88108137224512,312.3974271326002,0.0
0.009000000000000001,2.460824391797483,-1.4080009209307385,10.0,0.0,2.736873525970607,5.783321496423228,52.81706725185288,312.3974271326002,0.0
0.01,2.5855403014604685,-1.478872334417049,10.0,0.0,3.190114270592437,6.218875510135288,59.011363741641134,312.3974271326002,0.0
0.011,2.6959675672099803,-1.541897979094492,10.0,0.0,3.647810448902946,6.645298356802511,64.867728719373,312.3974271326002,0.0
0.012,2.7965207913229544,-1.5981581822975144,10.0,0.0,4.107937659954683,7.064891954639128,70.82335473410231,312.3974271326002,0.0
0.013000000000000001,2.8894025358733018,-1.6499766607646136,10.0,0.0,4.5691489402842596,7.4793274541378505,76.73215103295821,312.3974271326002,0.0
0.014,2.976850416886825,-1.6978127709720054,10.0,0.0,5.030426429868894,7.889750082253676,82.62239120644129,312.3974271326002,0.0
0.015,3.0601940172021593,-1.742405628547845,10.0,0.0,5.491045286537915,8.296964879291828,88.80474138469773,312.3974271326002,0.0
0.016,3.140537170857246,-1.7839965540560818,10.0,0.0,5.950452810473997,8.701515771394158,94.26858755093784,312.3974271326002,0.0
0.017,3.2187831189104097,-1.8225526442140279,10.0,0.0,6.408199931888995,9.10374870393057,100.01059406635689,312.3974271326002,0.0
0.018000000000000002,3.2954497660517523,-1.8582830658705567,10.0,0.0,6.863940419896774,9.503882183649822,105.79522382552675,312.3974271326002,0.0
0.019,3.371327802588801,-1.890651648390508,10.0,0.0,7.31732344693633,9.90199644665027,111.02747282835712,312.3974271326002,0.0
0.02,3.4468870836267644,-1.9194758974661899,10.0,0.0,7.7680265791451,10.298084845505818,116.39694529985401,312.3974271326002,0.0
0.021,3.5221945086804123,-1.9451503288101113,10.0,0.0,8.215804182975623,10.692106493751169,121.62835688289857,312.3974271326002,0.0
0.022,3.598256717306938,-1.9664252063880165,10.0,0.0,8.66028968346776,11.083889968856658,126.78607395534247,312.3974271326002,0.0
0.023,3.675078305632253,-1.983696391927085,10.0,0.0,9.101192063054748,11.47325389387129,132.34620560475835,312.3974271326002,0.0
0.024,3.7532056324633722,-1.9964624476026198,10.0,0.0,9.53817215145342,11.859945874274985,136.68945781032767,312.3974271326002,0.0
0.025,3.834078691305772,-2.0027330126133576,10.0,0.0,9.97068553064702,12.24355190227383,140.9231787848441,312.3974271326002,0.0
0.026000000000000002,3.9158146764227046,-2.0060793944500315,10.0,0.0,10.398613571073069,12.623866437617707,145.41276966038097,312.3974271326002,0.0
0.027,4.000876222795191,-2.0029150179181894,10.0,0.0,10.821398715754036,13.000402913219997,149.79235775391595,312.3974271326002,0.0
0.028,4.089222535810242,-1.9937698202415883,10.0,0.0,11.238584665548021,13.37269677676223,153.39290440506485,312.3974271326002,0.0
0.029,4.181393555946085,-1.9782776074464146,10.0,0.0,11.649668715286131,13.740224499844839,156.7517325018938,312.3974271326002,0.0
0.03,4.276817719845859,-1.95793052445677,10.0,0.0,12.054313875357783,14.102532907765383,160.65302515259356,312.3974271326002,0.0
0.031,4.375866870206894,-1.9326940603455378,10.0,0.0,12.452152819991985,14.459133826000318,163.18868098634505,312.3974271326002,0.0
0.032,4.482234706600864,-1.8970154891325635,10.0,0.0,12.842195683793946,14.809148576375467,165.31303018480043,312.3974271326002,0.0
0.033,4.591022551719263,-1.859440203990566,10.0,0.0,13.224459240599733,15.152263153494204,167.1259078519999,312.3974271326002,0.0
0.034,4.706083217923986,-1.8142558828197028,10.0,0.0,13.598213376959446,15.487723833750312,168.64084551887538,312.3974271326002,0.0
0.035,4.826539396223735,-1.7633029242738985,10.0,0.0,13.962985185480463,15.81491428666585,169.8556565429423,312.3974271326002,0.0
0.036000000000000004,4.952730200688924,-1.706455942314144,10.0,0.0,14.318255220010819,16.133186448433772,170.62106758265273,312.3974271326002,0.0
0.037,5.0844938061618095,-1.6443373155807053,10.0,0.0,14.663560888143852,16.441926308920568,171.2321319907787,312.3974271326002,0.0
0.038,5.222904341198758,-1.5754406047618763,10.0,0.0,14.998252523589521,16.740415227372647,172.47426769864853,312.3974271326002,0.0
0.039,5.367654487090635,-1.500414628478513,10.0,0.0,15.32175999705285,17.02798600682635,174.4529219838121,312.3974271326002,0.0
0.04,5.516972347414461,-1.4223042394872814,10.0,0.0,15.633831918089015,17.304172992504316,176.87048570864192,312.3974271326002,0.0
0.041,5.669813350087102,-1.3429345040913256,10.0,0.0,15.934365778585715,17.568629140027348,179.64538875292695,312.3974271326002,0.0
0.042,5.823138124355509,-1.267437442121254,10.0,0.0,16.223780888322302,17.82135574370495,181.1512379790395,312.3974271326002,0.0
0.043000000000000003,5.977278593465688,-1.1953335547588666,10.0,0.0,16.50235069046283,18.06232899412901,180.6576062686187,312.3974271326002,0.0
0.044,6.131852673111944,-1.1272023810776237,10.0,0.0,16.7703874472004,18.29160015565474,175.86804755249938,312.3974271326002,0.0
0.045,6.2909987652230805,-1.0556512363166308,10.0,0.0,17.02735833022988,18.508787547365877,186.81596025386648,312.3974271326002,0.0
0.046,6.377403521735964,-1.104542658534612,10.0,0.0,17.28644443201913,18.72204022591356,193.7424984470765,312.3974271326002,0.0
0.047,6.4271757605144,-1.2074767828955282,10.0,0.0,17.551781030941733,18.935265348084897,200.22667798565763,312.3974271326002,0.0
0.048,6.464028612645714,-1.324043247343477,10.0,0.0,17.823699452034873,19.150145526584694,201.18926749394265,312.3974271326002,0.0
0.049,6.498369217526505,-1.4358752007689817,10.0,0.0,18.10104989910101,19.367320591328244,204.51248230275988,312.3974271326002,0.0
0.05,6.527078959083296,-1.5483294676832227,10.0,0.0,18.3836344577612,19.58769852878163,210.64081427889198,312.3974271326002,0.0
0.051000000000000004,6.547048234919648,-1.6670838043554292,10.0,0.0,18.671936788665505,19.812387605429258,217.4701733324863,312.3974271326002,0.0
0.052000000000000005,6.555771831062586,-1.7966509315018548,10.0,0.0,18.96694263476353,20.042678104685187,223.90921762857334,312.3974271326002,0.0
0.053,6.552961718988838,-1.9373304946003382,10.0,0.0,19.269656026846715,20.279836486914885,232.7663736824884,312.3974271326002,0.0
0.054,6.541964752112054,-2.0824898239176894,10.0,0.0,19.58037464853847,20.52473193536563,242.7196937946391,312.3974271326002,0.0
0.055,6.525974709713802,-2.225294809998195,10.0,0.0,19.898767908081812,20.777858636135512,253.3035143128815,312.3974271326002,0.0
0.056,6.5048317426487685,-2.364826142837839,10.0,0.0,20.224554908499357,21.039677818735917,260.81110353272675,312.3974271326002,0.0
0.057,6.483174562064653,-2.4916400728302133,10.0,0.0,20.556499346105962,21.310064643311634,261.37007523030906,312.3974271326002,0.0
0.058,6.439113067368858,-2.6440352451288343,10.0,0.0,20.8977833520624,21.591237421801136,273.64420280243695,312.3974271326002,0.0
0.059000000000000004,6.38362310562143,-2.8026251038154024,10.0,0.0,21.24897716800467,21.8840846038826,283.1078987271158,312.3974271326002,0.0
0.06,6.341782984448875,-2.921507499229531,10.0,0.0,21.60582748546956,22.18681396306164,287.085889725723,312.3974271326002,0.0
0.061,6.284385503191537,-3.051608401630194,10.0,0.0,21.970387982415794,22.500850739795847,296.8307096940542,312.3974271326002,0.0
0.062,6.2282698410096256,-3.164932691459546,10.0,0.0,22.341060770198055,22.825538636578706,303.4713213951612,312.3974271326002,0.0
0.063,6.1829670105706045,-3.2454943767941478,10.0,0.0,22.714863611368873,23.15924717718797,308.25368932510554,312.3974271326002,0.0
0.064,6.12200140571829,-3.341520118730314,8.336265114661071,0.0,23.094414237243175,23.320207498695474,315.09484603256783,312.3974271326002,0.0
0.065,6.023723745580686,-3.3173994046980115,4.888712571930251,0.0,23.448492296717884,23.150634306359265,311.2578775661608,312.3974271326002,0.0
0.066,5.753921090441386,-3.218545704896348,6.81859230079816,0.0,23.739572531173643,23.308884050270876,321.0865987635603,312.3974271326002,0.0
0.067,5.624881981804349,-3.113252397607053,1.8173399857888155,0.0,24.006775989771185,22.92247656669588,309.5839256743681,312.3974271326002,0.0
0.068,5.321663246143082,-2.8783596809632948,7.596811544967222,0.0,24.183833088393534,23.319248241834217,319.1331213989616,312.3974271326002,0.0
0.069,5.319268952476148,-2.8023570196179977,2.754856740006879,0.0,24.376850279085957,23.10086990013029,311.1770657209919,312.3974271326002,0.0
0.07,5.205424301850995,-2.5526199714063895,6.745088193107805,0.0,24.50201686784891,23.423475088188795,307.634179062522,312.3974271326002,0.0
0.07100000000000001,5.262858198379951,-2.460893015769939,8.564164003043544,0.0,24.639334721903527,23.87907626575523,313.95761048358946,312.3974271326002,0.0
0.07200000000000001,5.490781300787155,-2.3646340907123564,5.3868464589999085,0.0,24.798809696109355,23.910656220726832,306.9716939828663,312.3974271326002,0.0
0.073,5.6045214013601905,-2.1592023579165183,8.934062040858816,0.0,24.9238602670348,24.36676038702781,298.5425803026533,312.3974271326002,0.0
0.074,5.860789197499219,-2.0570234760464867,10.0,0.0,25.072830837820053,24.844488156908607,297.09332386954793,312.3974271326002,0.0
0.075,6.186904228050852,-1.9788138913607578,10.0,0.0,25.247095863018128,25.245370851889152,295.93794325640965,312.3974271326002,0.0
0.076,6.522929836482527,-1.8675530786310537,10.0,0.0,25.432566061641033,25.589890113269476,292.6586186971637,312.3974271326002,0.0
0.077,6.8499026539389885,-1.7315128658480199,10.0,0.0,25.620089351260845,25.88589771453817,287.33841217366637,312.3974271326002,0.0
0.078,7.171623037737093,-1.5701271500404737,10.0,0.0,25.802069045434553,26.138937370598747,281.03667910502304,312.3974271326002,0.0
0.079,7.4885082070944895,-1.3933031508140852,10.0,0.0,25.973317953040116,26.353230865679308,277.5315281406681,312.3974271326002,0.0
0.08,7.804972922693108,-1.2030332743213328,10.0,0.0,26.12970987297124,26.53157763499009,279.3662138074658,312.3974271326002,0.0
0.081,8.106928081784561,-1.0295757254636224,10.0,0.0,26.271119646230908,26.67767849901884,275.8866310982,312.3974271326002,0.0
0.082,8.357283171301448,-0.9416909487838052,10.0,0.0,26.405065778621285,26.798790745714722,279.11051679906893,312.3974271326002,0.0
0.083,8.45676090871734,-1.0834651633497443,10.0,0.0,26.554202533811253,26.912747380759487,290.6309936308798,312.3974271326002,0.0
0.084,8.491545965566567,-1.2919059052373019,10.0,0.0,26.721332016448688,27.027390448939514,303.2977903213568,312.3974271326002,0.0
0.085,8.480628493764545,-1.5375369080878927,10.0,0.0,26.908147860535067,27.148830931032002,313.7622988669111,312.3974271326002,0.0
0.08600000000000001,8.438566723999008,-1.7985262182528372,6.286145133231001,0.0,27.114678682511695,26.87280253393547,321.1961755695566,312.3974271326002,0.0
0.08700000000000001,8.196433505894879,-1.970400300307043,2.481219297538699,0.0,27.289249838505313,26.28984080178159,325.5639382192281,312.3974271326002,0.0
0.088,7.7512744194908905,-2.045962561333202,0.16567286183668273,0.0,27.39466081357652,25.612517676195566,327.637714470944,312.3974271326002,0.0
0.089,7.203968094767363,-2.0745998956507785,-1.0236181374047124,0.0,27.424192862746676,24.961553519971268,328.59784245252814,312.3974271326002,0.0
0.09,6.642327168869987,-2.0982598411138262,-1.6656862813960664,0.0,27.38799151203515,24.37621183704126,330.32672350077235,312.3974271326002,0.0
0.091,6.112416580998315,-2.132890726004578,-2.70941976919989,0.0,27.30044892598513,23.790067940521517,332.10864283435944,312.3974271326002,0.0
0.092,5.6077283170031365,-2.1484728818197665,-3.7974915930110313,0.0,27.1644139371789,23.1947502124683,332.8656522166826,312.3974271326002,0.0
0.093,5.119680607388981,-2.139587962249843,-4.380678535013421,0.0,26.981317511737128,22.640729278375236,332.1598757399584,312.3974271326002,0.0
0.094,4.670591135013318,-2.113795907289787,-4.225414782724918,0.0,26.758380358580318,22.191231042184246,332.3597378468076,312.3974271326002,0.0
0.095,4.296173755335805,-2.0860395659272157,-4.524968943291591,0.0,26.509991820119808,21.766580336152224,329.549797726782,312.3974271326002,0.0
0.096,3.974678841373933,-2.0374862517547703,-3.291522589220607,0.0,26.2389137637568,21.529850754169857,325.8576465535352,312.3974271326002,0.0
0.097,3.767633888567131,-2.0048992725938195,-1.5800491968065424,0.0,25.968171520265884,21.485173930043388,322.84316644303715,312.3974271326002,0.0
0.098,3.686450230315476,-2.008604468774282,-0.17726653466189823,0.0,25.720769260082868,21.561941675771862,323.45688308363714,312.3974271326002,0.0
0.099,3.726101684190046,-1.9922023343284379,-0.5947194144722614,0.0,25.50394271374015,21.541171280999883,315.2391021176772,312.3974271326002,0.0
0.1,3.735854079232533,-1.9811750070952274,3.4857543186569417,0.0,25.305672797903316,21.95314566159722,322.438158905145,312.3974271326002,0.0
0.101,3.9597493719496204,-2.00364661961079,-0.2141813928023968,0.0,25.17100946235893,21.831766988710854,308.94690871584555,312.3974271326002,0.0
0.10200000000000001,4.021219102705592,-1.898091166453526,6.565948886014861,0.0,25.025838777107907,22.4873508198872,311.3014157384432,312.3974271326002,0.0
0.10300000000000001,4.350642583980462,-1.9646519295310698,5.399655488657602,0.0,24.96912078196972,22.83114373729067,313.0252664030075,312.3974271326002,0.0
0.10400000000000001,4.675486583844897,-1.9129334321324787,4.531451763671388,0.0,24.946099235741073,23.018607482492712,301.0776395201821,312.3974271326002,0.0
0.105,4.9091130634110955,-1.8241964241685873,10.0,0.0,24.934882332753467,23.77279456904407,298.4290124219855,312.3974271326002,0.0
0.106,5.354602412787433,-1.8637734297808117,10.0,0.0,25.005446669416724,24.349088210642506,299.7262555475027,312.3974271326002,0.0
0.107,5.807289755669259,-1.854967053565583,10.0,0.0,25.125219465133718,24.829468207524183,298.93068507049196,312.3974271326002,0.0
0.108,6.226405709714642,-1.7943410900359198,10.0,0.0,25.274472188741054,25.232211602773216,297.2884356076038,312.3974271326002,0.0
0.109,6.607817821032286,-1.696077691545184,10.0,0.0,25.438871265313885,25.571841758153596,292.70279347706224,312.3974271326002,0.0
0.11,6.960875952876208,-1.5696722059430983,10.0,0.0,25.60787148033614,25.858926532263567,285.6821427875803,312.3974271326002,0.0
0.111,7.294270666231066,-1.4244893252015864,10.0,0.0,25.773974089241626,26.10106001331416,276.6760609877279,312.3974271326002,0.0
0.112,7.617538915211534,-1.2629141829802095,10.0,0.0,25.931358348524686,26.303364846895953,272.0490337277312,312.3974271326002,0.0
0.113,7.945403481882948,-1.072479438852819,10.0,0.0,26.073902594805823,26.468345203203818,275.41249867482696,312.3974271326002,0.0
0.114,8.250369851551428,-0.9073303919377929,10.0,0.0,26.202428404370252,26.60081429351219,278.60416288800536,312.3974271326002,0.0
0.115,8.375701516438674,-1.0300660699830795,10.0,0.0,26.3465009570632,26.722152236305256,282.75716118347907,312.3974271326002,0.0
0.116,8.432923419147809,-1.2229326530077613,10.0,0.0,26.508288016118428,26.840722547439185,292.3617620794875,312.3974271326002,0.0
0.117,8.444173302895107,-1.4496463613646209,10.0,0.0,26.688763242470532,26.962949265180118,302.99081888544066,312.3974271326002,0.0
0.11800000000000001,8.420266745805474,-1.6958184015500204,10.0,0.0,26.88822540529835,27.09374305389952,312.4382580704196,312.3974271326002,0.0
0.11900000000000001,8.36845639883287,-1.9522479308706158,6.037451175187798,0.0,27.106566258538738,26.800983381896497,319.83178998659497,312.3974271326002,0.0
0.12,8.102560851800586,-2.117676028668276,2.266341588560155,0.0,27.28942985471931,26.21286760284072,324.90209094574755,312.3974271326002,0.0
0.121,7.634492613629372,-2.1897236946261636,-0.393855529147606,0.0,27.40146647565365,25.495767724955513,328.19410177978676,312.3974271326002,0.0
0.122,7.051608891168069,-2.2051516643181355,-2.1978276926390796,0.0,27.431566046712568,24.749183057234315,330.5047323384388,312.3974271326002,0.0
0.123,6.432390115923407,-2.19257707563819,-3.5342160240234977,0.0,27.38245970944176,24.01358904662606,331.98077177191493,312.3974271326002,0.0
0.124,5.823474818166491,-2.163616238987102,-4.468069187154696,0.0,27.261644658692386,23.31807233372176,332.41049129645836,312.3974271326002,0.0
0.125,5.254099976386624,-2.124128731373357,-4.883059591064992,0.0,27.07930542425653,22.70025745385236,331.9226917038419,312.3974271326002,0.0
0.126,4.749210129752094,-2.083678883744595,-4.834412440469182,0.0,26.849364017114286,22.185335363842945,331.1206239479605,312.3974271326002,0.0
0.127,4.329139040506883,-2.0447380079416675,-4.62061053068208,0.0,26.587045543823283,21.76310200204151,330.30966929655534,312.3974271326002,0.0
0.128,3.9928315690219183,-2.006949823199656,-4.394255626619054,0.0,26.30496829011766,21.412414260411076,326.14149897749525,312.3974271326002,0.0
0.129,3.733028681152115,-1.959050684751785,-2.447611185537956,0.0,26.01113896423769,21.305670150002232,322.557605741115,312.3974271326002,0.0
0.13,3.612901713705383,-1.950538034679847,-0.7572663534329944,0.0,25.735560759781414,21.357304942707454,319.9407552147335,312.3974271326002,0.0
0.131,3.6153139177558318,-1.9648396920058326,0.4757256289364431,0.0,25.494362163847857,21.493477493316103,319.1717821769358,312.3974271326002,0.0
0.132,3.712593011956062,-1.9572763532952122,0.7924685973919416,0.0,25.289925698737097,21.60374815765542,313.4841401356857,312.3974271326002,0.0
0.133,3.801682323127638,-1.9698214388466992,3.625422487986116,0.0,25.11841553936911,21.982178574043655,318.9615390684138,312.3974271326002,0.0
0.134,4.044905872359443,-1.971252053145494,0.8210819022639404,0.0,25.001931354294108,21.942944232217112,305.0349756232613,312.3974271326002,0.0
0.135,4.1474693995841,-1.876586429049051,7.857988139933585,0.0,24.882744628750345,22.689238245564212,308.3621781774946,312.3974271326002,0.0
0.136,4.533499686491421,-1.9542164615809587,6.234739352367972,0.0,24.859591936915155,23.05862005972575,310.78058144774076,312.3974271326002,0.0
0.137,4.883403284487205,-1.9102029735267338,5.041706174093502,0.0,24.87007491166834,23.239118168642612,299.9228068334817,312.3974271326002,0.0
0.138,5.129929840967183,-1.8024409631551677,10.0,0.0,24.88614571357757,23.93633853154273,293.41563580468284,312.3974271326002,0.0
0.139,5.55800463941873,-1.8154972775934524,10.0,0.0,24.972845286277817,24.471238037819823,293.62819646705145,312.3974271326002,0.0
0.14,5.988186886873184,-1.7920252286432266,10.0,0.0,25.101652363806835,24.918278251503764,292.3429246459452,312.3974271326002,0.0
0.14100000000000001,6.389947640378866,-1.7215821991804843,10.0,0.0,25.254768742199943,25.293603291161126,288.60032926959184,312.3974271326002,0.0
0.14200000000000002,6.761714127727577,-1.6133838342893472,10.0,0.0,25.41890859687609,25.609830758618767,282.55758081042603,312.3974271326002,0.0
0.14300000000000002,7.11113358250121,-1.4765590085211633,10.0,0.0,25.58428846564479,25.876130989646636,276.19504776794105,312.3974271326002,0.0
0.14400000000000002,7.448935868578158,-1.3138940131473462,10.0,0.0,25.74323546940597,26.098675127527873,274.26707146410865,312.3974271326002,0.0
0.145,7.778046596321213,-1.1359685125851393,10.0,0.0,25.890597031471046,26.28203539480613,276.4010131610924,312.3974271326002,0.0
