timestamp,iq,id,iq_ref,id_ref,vq,vd,omega,omega_ref,r
0.0,0.0,0.0,0.0,0.0,0.0,0.0,0.0,168.05856284089236,0.0
0.001,0.0,0.0,10.0,0.0,0.0,1.0999999999999999,6.859148112135456,168.05856284089236,0.0
0.002,0.37878928556528,-0.1921661292654607,10.0,0.0,0.1311382742192007,1.948333178587819,14.185545438262995,168.05856284089236,0.0
0.003,0.8100842072864883,-0.42072792527852504,10.0,0.0,0.35721617514404574,2.681292318205096,21.741341512497975,168.05856284089236,0.0
0.004,1.2090592362129045,-0.6303813561463365,10.0,0.0,0.6547584593734626,3.3239890299884367,29.5481567613704,168.05856284089236,0.0
0.005,1.5493520583411267,-0.8057436449544374,10.0,0.0,1.0040095038184846,3.898727838871545,37.50982130503027,168.05856284089236,0.0
0.006,1.8301350898162432,-0.9467160359348891,10.0,0.0,1.389562664827084,4.423434666069864,45.57470613636959,168.05856284089236,0.0
0.007,2.059953201978108,-1.058355336384348,10.0,0.0,1.7999017915942914,4.911753964626156,53.693054044357424,168.05856284089236,0.0
0.008,2.249360896745623,-1.1468055854834958,10.0,0.0,2.2266520699368186,5.373738580700731,61.8281410209227,168.05856284089236,0.0
0.009000000000000001,2.4080336237576874,-1.2176231702059777,10.0,0.0,2.663831213881033,5.81663983997845,69.95213373510141,168.05856284089236,0.0
0.01,2.543871177494743,-1.2752779929628733,10.0,0.0,3.1072164240146307,6.245613484081865,78.04262836814367,168.05856284089236,0.0
0.011,2.662957208032597,-1.323131627680477,10.0,0.0,3.553847829136578,6.6642871969665025,86.08030288382295,168.05856284089236,0.0
0.012,2.769828314085422,-1.3635917099971435,10.0,0.0,4.001655537742451,7.075191717714439,94.00808516188955,168.05856284089236,0.0
0.013000000000000001,2.8677869473192885,-1.3983499310530596,10.0,0.0,4.449191731055515,7.480079818652976,101.85540215989204,168.05856284089236,0.0
0.014,2.9593227779926163,-1.4283768262142094,10.0,0.0,4.895418491388293,7.880143373787233,109.60302353646787,168.05856284089236,0.0
0.015,3.046202052496322,-1.4543495133078101,10.0,0.0,5.339585657829904,8.276181887552667,117.33390694822211,168.05856284089236,0.0
0.016,3.129882069490931,-1.4763973081539548,10.0,0.0,5.781105489566038,8.668697257461355,124.81172483090187,168.05856284089236,0.0
0.017,3.211127273440297,-1.4950911016023989,10.0,0.0,6.219560714450294,9.058012901288295,132.1102470277171,168.05856284089236,0.0
0.018000000000000002,3.2910046340389383,-1.510004608009107,10.0,0.0,6.6545555289990705,9.444268445594616,139.2147819154918,168.05856284089236,0.0
0.019,3.3702128561166846,-1.5210080093785263,10.0,0.0,7.085737655610172,9.827483786102619,146.09805783363404,168.05856284089236,0.0
0.02,3.449412473800461,-1.527847869987133,10.0,0.0,7.512765454264216,10.207575929496489,152.73404625395403,168.05856284089236,0.0
0.021,3.529229480143375,-1.5302249543465944,10.0,0.0,7.935292768065695,10.584373763895496,159.09246786887465,168.05856284089236,0.0
0.022,3.6102698634165034,-1.5278280661777888,7.736173389708652,0.0,8.352959705384766,10.708607347006083,163.44059422042753,168.05856284089236,0.0
0.023,3.6092302320985015,-1.4777178016735957,5.608289900136861,0.0,8.735795147069215,10.65168011106525,166.17161164874938,168.05856284089236,0.0
0.024,3.520755704891987,-1.3746109550606622,4.261650697897367,0.0,9.063813670508756,10.521599467215855,167.09562567880175,168.05856284089236,0.0
0.025,3.3803846310238477,-1.2419024874114066,3.8092730544920848,0.0,9.332455414244116,10.4155896641966,167.6506564103844,168.05856284089236,0.0
0.026000000000000002,3.239998935468524,-1.1039764929845026,3.535836753005834,0.0,9.549787228593544,10.335529514895772,167.72006525378563,168.05856284089236,0.0
0.027,3.118832935040959,-0.9761884614606399,3.5045173071762914,0.0,9.72470242305459,10.29642218902506,167.57541211924826,168.05856284089236,0.0
0.028,3.0300388452329363,-0.8650134320654299,3.5816753816614217,0.0,9.86726399256423,10.296073387713797,167.27818242164923,168.05856284089236,0.0
0.029,2.976308685214964,-0.7725169662762938,3.738094034653364,0.0,9.986471664048922,10.331472471272777,166.9121026745502,168.05856284089236,0.0
0.03,2.9562940747692936,-0.6976248056256419,3.9325985098663034,0.0,10.089985303727367,10.396748024916677,166.52181727251102,168.05856284089236,0.0
0.031,2.965933411742248,-0.6378533850073721,4.1431086665697086,0.0,10.183849200140854,10.485797986477797,166.1327756365209,168.05856284089236,0.0
0.032,3.000276057708255,-0.5901211873638431,4.356887356608478,0.0,10.272578875534496,10.593058598174851,165.75132663487065,168.05856284089236,0.0
0.033,3.054404131800424,-0.5514558054223587,4.570684219493822,0.0,10.359385774521353,10.71423532256809,165.38226056773053,168.05856284089236,0.0
0.034,3.124107116752959,-0.5193110455725178,4.781980275795503,0.0,10.446480386284776,10.845953614381159,165.0247113343664,168.05856284089236,0.0
0.035,3.2059853673963374,-0.4916423059742596,4.9910934075428255,0.0,10.53531525229586,10.98578944439721,164.67780292337585,168.05856284089236,0.0
0.036000000000000004,3.297457075054996,-0.4669160791980187,5.198355212213266,0.0,10.626807017158033,11.131989739873017,164.33939213164996,168.05856284089236,0.0
0.037,3.396636199317267,-0.44401532729613225,5.404752315168635,0.0,10.721497814640124,11.28335525897359,164.00634410252567,168.05856284089236,0.0
0.038,3.502193427975277,-0.42217670832370535,5.611798517114445,0.0,10.81968284371612,11.43914491318704,163.6808231879984,168.05856284089236,0.0
0.039,3.613258963380053,-0.4008921187799406,5.818336370907015,0.0,10.921505416645768,11.598661170176522,163.36271295714354,168.05856284089236,0.0
0.04,3.729237971045732,-0.3797489331509949,6.024349985171938,0.0,11.02698445345765,11.761357142302053,163.0350076246044,168.05856284089236,0.0
0.041,3.849677579511375,-0.3585084468280779,6.238438203604394,0.0,11.136060162161673,11.927732421926587,165.95096421049973,168.05856284089236,0.0
0.042,3.960983935280294,-0.36023690276771125,4.801535896960649,0.0,11.25126836297433,11.917138305494003,167.73412552562746,168.05856284089236,0.0
0.043000000000000003,3.987112091101915,-0.3734683330753561,3.9131996125494335,0.0,11.35533450483691,11.834015418984457,170.27112711343975,168.05856284089236,0.0
0.044,3.948049620883027,-0.3872043651536423,2.6225731759178172,0.0,11.44206039308781,11.641084043409059,171.93157849173346,168.05856284089236,0.0
0.045,3.849209752478278,-0.37655879862071306,1.753617330262549,0.0,11.499512182316677,11.403921276382853,173.26328735165788,168.05856284089236,0.0
0.046,3.7084661098824685,-0.3581982623262181,1.0357156551926847,0.0,11.52558931259297,11.140433741182516,174.2512851291169,168.05856284089236,0.0
0.047,3.545312123443967,-0.33411885945345765,0.4797895435809316,0.0,11.520244847368545,10.868469319085525,174.84620566996668,168.05856284089236,0.0
0.048,3.3728209417050437,-0.31103129166519317,0.11445284486529683,0.0,11.485939548028881,10.60588160706009,175.17136516575093,168.05856284089236,0.0
0.049,3.203527727672915,-0.29280838624700656,-0.11925492627541345,0.0,11.427032363502516,10.360964990191043,175.28419391499077,168.05856284089236,0.0
0.05,3.045050986030663,-0.2820454334462197,-0.24792561163631666,0.0,11.348522539987984,10.13857212831831,175.25768604982548,168.05856284089236,0.0
0.051000000000000004,2.901784267285389,-0.279701132297526,-0.3066629111430048,0.0,11.255474169039285,9.939567745834825,175.13948706399978,168.05856284089236,0.0
0.052000000000000005,2.7751896128382274,-0.28554155802982506,-0.3183726604612289,0.0,11.152496086779143,9.762951009876613,174.96374612539492,168.05856284089236,0.0
0.053,2.664862532083519,-0.29856642614118156,-0.29955402400382436,0.0,11.04352847038412,9.606755319130254,174.7549302277748,168.05856284089236,0.0
0.054,2.56933254319292,-0.31741107524709244,-0.26210974906258544,0.0,10.931780709274504,9.468618147668407,174.52784556866058,168.05856284089236,0.0
0.055,2.4866398552500435,-0.34060460100466416,-0.21326024678316147,0.0,10.819756848471938,9.346259815527919,174.29213886843448,168.05856284089236,0.0
0.056,2.414756781883702,-0.3667533133339236,-0.1577426569455307,0.0,10.709343963634215,9.237633581571435,174.05280757476925,168.05856284089236,0.0
0.057,2.351815587858219,-0.3946272749067842,-0.09801945745168439,0.0,10.601914392534349,9.14104775918192,173.81222383635983,168.05856284089236,0.0
0.058,2.296235544110806,-0.42320196208427585,-0.03526419820165305,0.0,10.498433672279308,9.055167801315891,173.57124936722553,168.05856284089236,0.0
0.059000000000000004,2.2467616473642718,-0.4516608372243317,0.03009617110216567,0.0,10.3995577576568,8.978976183446525,173.33760438433063,168.05856284089236,0.0
0.06,2.2024462500336703,-0.47938381620111725,0.0941282471152336,0.0,10.30571521164565,8.911286015309146,173.0993197387693,168.05856284089236,0.0
0.061,2.1624743294347075,-0.5058197744535852,0.16286300091712524,0.0,10.217118629039883,8.851854868835046,172.85744563641208,168.05856284089236,0.0
0.062,2.1264526544951243,-0.5306443749753657,0.235811224140543,0.0,10.133904936522152,8.800406800801698,172.61199351803137,168.05856284089236,0.0
0.063,2.0941734079029395,-0.5536496995871582,0.3130029765595088,0.0,10.056150146154941,8.756734281229514,172.36040971261386,168.05856284089236,0.0
0.064,2.065552741585969,-0.5746895150629774,0.39577641055104973,0.0,9.983887909323453,8.72081217562165,172.10404476056056,168.05856284089236,0.0
0.065,2.040613383487411,-0.5937165391026495,0.48350406738101936,0.0,9.917142260103933,8.692535487530474,171.8516140120451,168.05856284089236,0.0
0.066,2.0193816563944855,-0.6107479573543759,0.5717889299272172,0.0,9.855926692764546,8.671332058037489,171.58713250796248,168.05856284089236,0.0
0.067,2.00174227068823,-0.6257256391801347,0.6687439852978283,0.0,9.800189570028108,8.657637637381919,171.23997742103484,168.05856284089236,0.0
0.068,1.9878451274710607,-0.6387889044555868,0.8105073829602252,0.0,9.749943899861803,8.655715661604253,170.90018856203451,168.05856284089236,0.0
0.069,1.97937386647703,-0.6506033107629121,0.9519855552489647,0.0,9.705699551175414,8.663899148640027,170.56643000147224,168.05856284089236,0.0
0.07,1.9763243587220833,-0.6614105104097235,1.0937861639243023,0.0,9.667768633959314,8.681273870578092,170.25483552533092,168.05856284089236,0.0
0.07100000000000001,1.9784524813501558,-0.6710406958115802,1.2276206751505785,0.0,9.636319529056365,8.706157230182237,169.91758505717183,168.05856284089236,0.0
0.07200000000000001,1.9852478856928286,-0.6788935237499172,1.3776556870673256,0.0,9.611271179823332,8.73984663628284,169.7384893832942,168.05856284089236,0.0
0.073,1.9973019752373649,-0.684445976113692,1.450404258582127,0.0,9.592628847604288,8.772906263791068,169.44374106514556,168.05856284089236,0.0
0.074,2.010587874544925,-0.6878224027410813,1.5839266354139125,0.0,9.579472593763349,8.81341476303453,169.1312532375343,168.05856284089236,0.0
0.075,2.027358218445154,-0.6888413566520784,1.729443645253118,0.0,9.571761135894784,8.8615165554476,168.79749853616693,168.05856284089236,0.0
0.076,2.048237724778687,-0.6883104594459438,1.8889316389840638,0.0,9.5695624148226,8.91799648978683,168.3792462348077,168.05856284089236,0.0
0.077,2.0737787917550183,-0.686819105798623,2.094850955724519,0.0,9.57307281936241,8.987064081184997,168.1736695395506,168.05856284089236,0.0
0.078,2.1076589862648207,-0.682020585722481,2.196488236366498,0.0,9.582626018916159,9.05522545087423,168.03896796341476,168.05856284089236,0.0
0.079,2.141300339851558,-0.67993800628266,2.2640349732091867,0.0,9.59785893694583,9.120578024846743,166.97635686610536,168.05856284089236,0.0
0.08,2.1763620073100474,-0.67314667922193,2.8061625816117566,0.0,9.617377600387508,9.236356832896266,167.7113310034059,168.05856284089236,0.0
0.081,2.2309851218158707,-0.669005930928829,2.4421478313363583,0.0,9.646134709248335,9.291388801949626,166.9405312493855,168.05856284089236,0.0
0.082,2.2704616660902657,-0.6584118759626545,2.838728024261628,0.0,9.676395365565066,9.387261064983141,166.821380803206,168.05856284089236,0.0
0.083,2.3209289302705702,-0.6462425054244262,2.910675067728229,0.0,9.711984492343936,9.475363906579961,166.73102989633585,168.05856284089236,0.0
0.084,2.372478615268312,-0.6331776787234541,2.9691258506088727,0.0,9.751509553372873,9.558759699669247,165.6460248960627,168.05856284089236,0.0
0.085,2.422883852129977,-0.6189690944688838,3.535753730193748,0.0,9.79398939160685,9.694483899273216,165.903761374198,168.05856284089236,0.0
0.08600000000000001,2.493936552822366,-0.6078893668485515,3.428433505793034,0.0,9.844716981782144,9.796100414552715,165.4626144325573,168.05856284089236,0.0
0.08700000000000001,2.5605042734036876,-0.5941405947155949,3.6749664606967403,0.0,9.899131896809427,9.914207942348186,165.07636201159949,168.05856284089236,0.0
0.088,2.632074653160973,-0.5800142711070891,3.8979146794685775,0.0,9.958499665237927,10.040798118815218,164.80668669174594,168.05856284089236,0.0
0.089,2.709462982898289,-0.5658233117976019,4.065271100886815,0.0,10.02316993218232,10.169048766173152,164.50700497824002,168.05856284089236,0.0
0.09,2.7905715287036443,-0.5507407905205919,4.250627536266299,0.0,10.092681069420694,10.301508962426073,164.22462801931928,168.05856284089236,0.0
0.091,2.8754328974254837,-0.5349456273121017,4.430155363942397,0.0,10.166900469820355,10.437045084366773,163.93929506667044,168.05856284089236,0.0
0.092,2.963817259809807,-0.5182399730930325,4.614014518009038,0.0,10.245571872042108,10.576005096648874,163.6543884674875,168.05856284089236,0.0
0.093,3.055723582383548,-0.500810840965678,4.800509561334553,0.0,10.32852198727808,10.718386259290815,163.37568117667283,168.05856284089236,0.0
0.094,3.1512751412648976,-0.4826896318282819,4.986692023384088,0.0,10.415596165570808,10.863847829333142,163.09158834089348,168.05856284089236,0.0
0.095,3.2504257939617074,-0.4639469868997998,5.17840818627375,0.0,10.506628604187734,11.012746557290042,162.8138508313911,168.05856284089236,0.0
0.096,3.3533320010011733,-0.4447232856893578,5.36972406111995,0.0,10.601520491054801,11.16465806466976,162.5323488880375,168.05856284089236,0.0
0.097,3.4599927003971813,-0.4249947722362549,5.565737172325307,0.0,10.700136440505387,11.319812278619168,162.24888563128724,168.05856284089236,0.0
0.098,3.5704746116953134,-0.4049265904777305,5.7655655727964845,0.0,10.802396001546953,11.478247255809634,161.98157355020203,168.05856284089236,0.0
0.099,3.6849432761758036,-0.3844861830776485,5.959991506245992,0.0,10.908225341206983,11.638966526080077,161.68498737776548,168.05856284089236,0.0
0.1,3.803176785336227,-0.36349615329753365,6.172020347095535,0.0,11.017439174726245,11.803714717085589,163.68814722427788,168.05856284089236,0.0
0.101,3.920694298648909,-0.35076815715991744,5.214144580005478,0.0,11.131016264716797,11.843678258181283,165.30141509177741,168.05856284089236,0.0
0.10200000000000001,3.96267330278857,-0.3738412676240332,4.435082123746863,0.0,11.239897321930286,11.811442526326681,169.35568177379426,168.05856284089236,0.0
0.10300000000000001,3.9499807096222996,-0.39523902331014216,2.394977593409421,0.0,11.3367897222578,11.578513574894046,170.24209253092639,168.05856284089236,0.0
0.10400000000000001,3.8481854349460365,-0.37832349296135526,1.9299369179430181,0.0,11.398625301514077,11.358883883922216,171.5621714990447,168.05856284089236,0.0
0.105,3.710686596387327,-0.3607257715547221,1.2348613473023393,0.0,11.430547759696296,11.109699733452082,172.67548312761593,168.05856284089236,0.0
0.106,3.553897228233728,-0.3370000649767964,0.6320363301494845,0.0,11.431925706503776,10.845138089778086,173.325999304574,168.05856284089236,0.0
0.107,3.385862183889142,-0.3142143949608786,0.25410387703363657,0.0,11.404440527627136,10.588542046677395,173.7368588603804,168.05856284089236,0.0
0.108,3.2198375046277197,-0.29583037050456246,-0.008108861064449524,0.0,11.352249876338051,10.34637537761478,173.9178758342777,168.05856284089236,0.0
0.109,3.0629349056569635,-0.28435300820056253,-0.15721047794695275,0.0,11.279982953662742,10.125026298947603,173.94911898257016,168.05856284089236,0.0
0.11,2.9199774753765215,-0.28089147536965553,-0.2317376135099538,0.0,11.192541820399883,9.926034758477641,173.88075966857826,168.05856284089236,0.0
0.111,2.792862713427609,-0.28543384085931833,-0.2557799247908674,0.0,11.094479921948487,9.748851925354698,173.7483157595421,168.05856284089236,0.0
0.112,2.6815510716956563,-0.2971445652537622,-0.2464554994592798,0.0,10.989748686058425,9.591820428569214,173.5782906050855,168.05856284089236,0.0
0.113,2.584838691114886,-0.3147761614609821,-0.21664019987291327,0.0,10.881609792417677,9.45273064202103,173.38657023835378,168.05856284089236,0.0
0.114,2.500927471289439,-0.3369221499001097,-0.17406009048167004,0.0,10.772635552252416,9.329384714175752,173.18379933113454,168.05856284089236,0.0
0.115,2.427876465817596,-0.3622174418316394,-0.12392700177446825,0.0,10.664785165547228,9.219761292166002,172.9756929659914,168.05856284089236,0.0
0.116,2.36385057073995,-0.3894359381282191,-0.0690451204538971,0.0,10.559498556984895,9.122163188148722,172.76509424066182,168.05856284089236,0.0
0.117,2.3072674919855243,-0.41754197986214325,-0.0108110717867973,0.0,10.457800278504827,9.03523703992932,172.5531401630981,168.05856284089236,0.0
0.11800000000000001,2.2568522477715978,-0.44570057592813395,0.05022019377300424,0.0,10.360395598200752,8.95794462348475,172.3477412471828,168.05856284089236,0.0
0.11900000000000001,2.2116298164523016,-0.47327168090774296,0.11002786766775552,0.0,10.267753379869724,8.889079827130036,172.1370628176,168.05856284089236,0.0
0.12,2.170757294333338,-0.49968397832717026,0.17458208269207853,0.0,10.180118545402662,8.828383928611311,171.9221594892201,168.05856284089236,0.0
0.121,2.1338154460981156,-0.5245953564601522,0.24339778039875348,0.0,10.097653733150876,8.775573199179933,171.70300208660097,168.05856284089236,0.0
0.122,2.100576102115282,-0.5477825979693746,0.316532089251226,0.0,10.020455811965808,8.730440587818968,171.4776784646003,168.05856284089236,0.0
0.123,2.070940720690545,-0.5690886135375054,0.39500274401448277,0.0,9.948576211060558,8.692929372927928,171.24586709923514,168.05856284089236,0.0
0.124,2.0449187497672874,-0.5884360538189974,0.47903538411363566,0.0,9.88204860703201,8.663006266286049,171.01567925136732,168.05856284089236,0.0
0.125,2.022549270329454,-0.6058427528013113,0.5645581439427989,0.0,9.820902715227362,8.640190310114649,170.7819593331147,168.05856284089236,0.0
0.126,2.0037519211161317,-0.6212585556056559,0.6541841381468769,0.0,9.765111488304704,8.62438900576317,170.51486348969345,168.05856284089236,0.0
0.127,1.9885224269513742,-0.6347020649997683,0.7631690533694955,0.0,9.714643881644466,8.61716806075301,170.160446653005,168.05856284089236,0.0
0.128,1.9774711877196727,-0.6464837065176812,0.9193586335925907,0.0,9.669662486622272,8.622776795623997,169.8319043419081,168.05856284089236,0.0
0.129,1.9724110413333629,-0.657389865410191,1.0658963741308816,0.0,9.630821965652384,8.638329876872819,169.54807784907572,168.05856284089236,0.0
0.13,1.9729151923698294,-0.6675438833040788,1.1929144704652426,0.0,9.598428685283775,8.660844153013297,169.23532986091325,168.05856284089236,0.0
0.131,1.9780709655583815,-0.6759801711598367,1.337520794346269,0.0,9.572352612051269,8.691942094626055,169.03596449539089,168.05856284089236,0.0
0.132,1.988326726275195,-0.6822128830949111,1.4274294605624678,0.0,9.55259517573759,8.724689948852301,168.79246377506368,168.05856284089236,0.0
0.133,2.0006724537466205,-0.6864193828504809,1.5418408113843574,0.0,9.538488656331666,8.762617963538109,168.50302724312854,168.05856284089236,0.0
0.134,2.015881294905565,-0.6881964015503808,1.6821144333295646,0.0,9.529738997394347,8.808078994467726,168.19701803549285,168.05856284089236,0.0
0.135,2.034969056280141,-0.6882445965129194,1.8337344852014081,0.0,9.526397938702601,8.86144686055749,167.8378772151836,168.05856284089236,0.0
0.136,2.058506287336213,-0.6870677844229706,2.0155117516131207,0.0,9.52859784120949,8.925224915153246,167.2725959964923,168.05856284089236,0.0
0.137,2.0879275188931574,-0.684828879606906,2.30601202940277,0.0,9.536721047516394,9.009981449272157,167.66541674211607,168.05856284089236,0.0
