timestamp,iq,id,iq_ref,id_ref,vq,vd,omega,omega_ref,r
0.0,0.0,0.0,0.0,0.0,0.0,0.0,0.0,84.05679379480857,0.0
0.001,0.0,0.0,10.0,0.0,0.0,1.0999999999999999,9.862001358405768,84.05679379480857,0.0
0.002,0.48033138713798107,-0.2643750583490464,10.0,0.0,0.13908125641839508,1.937163547414822,18.275868204076794,84.05679379480857,0.0
0.003,0.9350403949627542,-0.5268989186489198,10.0,0.0,0.37420461598592847,2.659304188740656,26.929831857073328,84.05679379480857,0.0
0.004,1.3121656641855393,-0.740229560456159,10.0,0.0,0.6788708357250893,3.2958064123544006,36.063138648337606,84.05679379480857,0.0
0.005,1.6123866099842774,-0.9102768404149113,10.0,0.0,1.0332925502290995,3.869871984235054,45.30654358232576,84.05679379480857,0.0
0.006,1.8517164464172309,-1.0455105976491372,10.0,0.0,1.4228538909669508,4.398649097828406,54.76250903388823,84.05679379480857,0.0
0.007,2.0454088280716483,-1.1545868325174784,10.0,0.0,1.8369828572535278,4.894591770518551,64.26781389731515,84.05679379480857,0.0
0.008,2.2054262202281048,-1.2445614723772855,10.0,0.0,2.268099642216357,5.3666880832476735,73.73081180456833,84.05679379480857,0.0
0.009000000000000001,2.3408909179468584,-1.3202769423269582,6.682273800904526,0.0,2.7107433352516814,5.456435618472168,79.96545472798445,84.05679379480857,0.0
0.01,2.300593341140052,-1.297807652011058,3.6058657298647083,0.0,3.114868635871676,5.282032524080253,83.65855227054453,84.05679379480857,0.0
0.011,2.1105779442627886,-1.1860340948420796,1.7632993738273077,0.0,3.4490706986050523,5.014062768624247,85.6093708886194,84.05679379480857,0.0
0.012,1.857248454140192,-1.0377791594491401,0.7723642938517683,0.0,3.7078652721979575,4.741699089694955,86.19695370797457,84.05679379480857,0.0
0.013000000000000001,1.603404801731052,-0.8908582619357369,0.45717128504252,0.0,3.8988652711660965,4.523078862712402,85.5531605227531,84.05679379480857,0.0
0.014,1.395071958639837,-0.758536323962679,0.7641042103738092,0.0,4.035817043337265,4.402713386415393,88.15326745330135,84.05679379480857,0.0
0.015,1.2475823854432986,-0.674774484504727,-0.5769139914852439,0.0,4.13914650770097,4.1716388281281,85.23293144159794,84.05679379480857,0.0
0.016,1.0823160985160987,-0.5746664396431627,0.8714926378985686,0.0,4.198861303259384,4.163443979186745,87.93662448809174,84.05679379480857,0.0
0.017,1.020435097340025,-0.5284854405366798,-0.5191521922811613,0.0,4.247706304914722,3.9997393443418523,85.19857534862312,84.05679379480857,0.0
0.018000000000000002,0.9171285946815735,-0.47029478273707437,0.8384545619150003,0.0,4.269357180553147,4.0312777696910285,87.1416807601608,84.05679379480857,0.0
0.019,0.9012831479786237,-0.4470457057503567,-0.16394701350735796,0.0,4.290021319272103,3.938697133341449,84.97545194848308,84.05679379480857,0.0
0.02,0.8472076912289281,-0.4185385486759703,0.9099808107947529,0.0,4.29645768397589,3.9913868967016137,86.64234633635344,84.05679379480857,0.0
0.021,0.8585746577271262,-0.40957632439284725,0.050678091444125384,0.0,4.306818615444917,3.932397621942252,84.69830970847968,84.05679379480857,0.0
0.022,0.8289423287008006,-0.39495559303744426,1.0162812462442927,0.0,4.308725868084841,3.998525967885134,86.3874534328593,84.05679379480857,0.0
0.023,0.8542787888064355,-0.3933395978580889,0.14840278767397597,0.0,4.317023677898885,3.950026208605099,84.34720910226291,84.05679379480857,0.0
0.024,0.8340399697510656,-0.38298172572961203,1.1656207998976298,0.0,4.318518524821184,4.030258606861924,86.3350845974521,84.05679379480857,0.0
0.025,0.8680095328909166,-0.386463291350066,0.14890014427660136,0.0,4.328373677816469,3.97666675760881,83.91805047902626,84.05679379480857,0.0
0.026000000000000002,0.8488161228608269,-0.3743167994108166,1.3588046366473403,0.0,4.330513200817393,4.075127280032236,86.39710875235609,84.05679379480857,0.0
0.027,0.8899648345061308,-0.3832348053286746,0.09587235040695186,0.0,4.343387269330923,4.008215813721976,83.52853276087167,84.05679379480857,0.0
0.028,0.8682888440825642,-0.3659699234162177,1.5354429564885308,0.0,4.346294467292524,4.12306083648852,86.43708843039153,84.05679379480857,0.0
0.029,0.9142438335334641,-0.3799549244179805,0.05736217537277333,0.0,4.36210644666394,4.044455676047184,83.28321291202042,84.05679379480857,0.0
0.03,0.8905755739377886,-0.35724266475917044,1.6420357433862092,0.0,4.365838513481594,4.167450188329793,86.30539189325042,84.05679379480857,0.0
0.031,0.9377085918633988,-0.3746049355732616,0.1084602717867913,0.0,4.38363379723188,4.088557103942061,83.2091408101645,84.05679379480857,0.0
0.032,0.9161684185826716,-0.3489560507063113,1.6650623431761906,0.0,4.38876524412486,4.208735588177097,86.05006298937128,84.05679379480857,0.0
0.033,0.9608992476307173,-0.3674496602766568,0.22466856162717086,0.0,4.407692180653452,4.138264239065547,83.26531954502917,84.05679379480857,0.0
0.034,0.9444160992139183,-0.34058280970162813,1.6249550262960208,0.0,4.414538998959076,4.247428622063405,85.61739662455714,84.05679379480857,0.0
0.035,0.9840711965781366,-0.3584983647030305,0.4333104582345486,0.0,4.433856953289824,4.196750589264356,83.64684932238792,84.05679379480857,0.0
0.036000000000000004,0.9765694176018238,-0.333480455098477,1.4226835540433664,0.0,4.443244183301079,4.2750413880589075,84.76880829446097,84.05679379480857,0.0
0.037,1.0043104113320709,-0.3454880016741285,0.8545839230103198,0.0,4.461092779410031,4.270930612503317,84.36284179003327,84.05679379480857,0.0
0.038,1.015592979172539,-0.3280301687568658,1.0545066952719204,0.0,4.474705001265875,4.29572460284814,83.40678037992915,84.05679379480857,0.0
0.039,1.0239544681254615,-0.33006161291622255,1.5390375344727782,0.0,4.489833437157316,4.369892642827123,85.40763233668584,84.05679379480857,0.0
0.04,1.0619494446208448,-0.3333682164389867,0.5251031706756601,0.0,4.511209245403423,4.317682801462699,82.9263254943043,84.05679379480857,0.0
0.041,1.05053615810575,-0.308977936001529,1.777061274871474,0.0,4.522510491805129,4.422321671440452,84.46159967302829,84.05679379480857,0.0
0.042,1.0898951268500818,-0.3256709300934322,1.0053761267272794,0.0,4.545225632718923,4.415778212295754,84.5380657110278,84.05679379480857,0.0
0.043000000000000003,1.102878532689947,-0.30837354142966483,0.9623303885653325,0.0,4.562945270932935,4.41410784848559,82.50479183886662,84.05679379480857,0.0
0.044,1.1033673418380707,-0.2984858518077803,1.9944873442053392,0.0,4.577811236972758,4.528420272431972,84.64044246688029,84.05679379480857,0.0
0.045,1.1531664358147433,-0.31539497413126316,0.9208255434777899,0.0,4.604580729155042,4.498890670705313,84.15393191240912,84.05679379480857,0.0
0.046,1.1579486665153649,-0.29328175791697275,1.1631094395373678,0.0,4.623118766939623,4.512350770506076,82.3519347468961,84.05679379480857,0.0
0.047,1.1635386705106758,-0.2849316068420656,2.081156612773,0.0,4.640451626469726,4.6243139360680665,84.24199577083716,84.05679379480857,0.0
0.048,1.2136284336547942,-0.3015743197529055,1.134274081042185,0.0,4.66916171653396,4.608022546898222,84.47975138227724,84.05679379480857,0.0
0.049,1.2240987641161243,-0.28262378726757487,1.0111666994474586,0.0,4.69112067297229,4.591507480274369,82.57916044512487,84.05679379480857,0.0
0.05,1.2210772333003397,-0.26263726068033516,1.9762385015204822,0.0,4.707223214504657,4.686665859695061,82.91306048287636,84.05679379480857,0.0
0.051000000000000004,1.2606669603331984,-0.27564538245169085,1.820725815764059,0.0,4.7328620984865815,4.742776456591215,84.22996430604965,84.05679379480857,0.0
0.052000000000000005,1.2981487408771275,-0.2780083709755377,1.1605421990650024,0.0,4.7616780012798365,4.72104771262711,83.96280816893973,84.05679379480857,0.0
0.053,1.30227099734569,-0.2563130201858748,1.2950601238786517,0.0,4.783029320925254,4.725693610829128,82.44535923848748,84.05679379480857,0.0
0.054,1.308119278788411,-0.24005502470567452,2.069898934667986,0.0,4.8011386724314065,4.815295052720164,82.20816349087373,84.05679379480857,0.0
0.055,1.3489709243281482,-0.2512530624848415,2.2069831115142113,0.0,4.8277915970865575,4.900642958722958,83.37591057408045,84.05679379480857,0.0
0.056,1.3991034349422844,-0.26169048940502704,1.6299184021181325,0.0,4.861350156459903,4.910167347076803,84.03465999384619,84.05679379480857,0.0
0.057,1.4186818621350645,-0.25092303359676305,1.300765030244886,0.0,4.891216504323187,4.890006626835434,83.7816204177482,84.05679379480857,0.0
0.058,1.4185136642585885,-0.22763273897455572,1.4300365520644847,0.0,4.9136258875256456,4.892574300561758,82.87572266068251,84.05679379480857,0.0
0.059000000000000004,1.4239920082015995,-0.20907260562536056,1.8947961419385893,0.0,4.932242388058299,4.946352685091156,81.75783589547581,84.05679379480857,0.0
0.06,1.4528455548762278,-0.20709178609679046,2.47672910353527,0.0,4.954342788175979,5.052860804402997,81.75208103638492,84.05679379480857,0.0
0.061,1.5099552419631797,-0.22213771913759073,2.5026536606649485,0.0,4.986558821042846,5.141966993350897,82.36428321396464,84.05679379480857,0.0
0.062,1.5666887898913988,-0.23317781859290865,2.213477677683529,0.0,5.025527821127496,5.18764596959021,82.73233019800556,84.05679379480857,0.0
0.063,1.6032294105397518,-0.23157876403466482,2.0426988216311015,0.0,5.064881521831651,5.213307901086067,82.88250706922973,84.05679379480857,0.0
0.064,1.6256479447012646,-0.22204506653314426,1.979353253274802,0.0,5.10183332943539,5.2329781529928,83.52424123386496,84.05679379480857,0.0
0.065,1.639245001801934,-0.21495302720550502,1.663811696566626,0.0,5.136372194118407,5.2190289539754415,84.76259411677145,84.05679379480857,0.0
0.066,1.6283522097419652,-0.2146709632120435,1.0375772518937487,0.0,5.166102145785379,5.145532365678784,85.84517787127699,84.05679379480857,0.0
0.067,1.587068250799644,-0.20090562413320345,0.4784015338762968,0.0,5.183998076797253,5.031543754406359,86.00676626998587,84.05679379480857,0.0
0.068,1.522307502187296,-0.17620438019723927,0.3781076097700806,0.0,5.186126070138528,4.932013865648788,85.60584927073373,84.05679379480857,0.0
0.069,1.4599549856386216,-0.15640504807312972,0.5630755546369022,0.0,5.176157361175626,4.870210347611746,85.23117743109977,84.05679379480857,0.0
0.07,1.4171139341959604,-0.1493053494032862,0.7386676380909711,0.0,5.160422197772866,4.835144750706602,85.0044264985242,84.05679379480857,0.0
0.07100000000000001,1.3924333724744522,-0.15280765376652727,0.8425667773415999,0.0,5.143210241486526,4.813971632909665,84.8812598943457,84.05679379480857,0.0
0.07200000000000001,1.3787825624137684,-0.16283121360896424,0.8959054184354753,0.0,5.12666973758816,4.7992776738810665,85.00709508229482,84.05679379480857,0.0
0.073,1.3701622189988076,-0.1767364056698255,0.8234848115860522,0.0,5.111743223705042,4.776711136876155,85.40644224436637,84.05679379480857,0.0
0.074,1.3583835024860664,-0.1903612472213938,0.6103147460546992,0.0,5.097412388159808,4.733393556425722,86.86222140923702,84.05679379480857,0.0
0.075,1.338957111328909,-0.19409871148061308,-0.14562911252490962,0.0,5.080457750777053,4.613971642539521,85.91869444736936,84.05679379480857,0.0
0.076,1.284116655802626,-0.177963762186641,0.3075153618833131,0.0,5.0514441666790235,4.56803997327069,85.11203740584223,84.05679379480857,0.0
0.077,1.2522998768535007,-0.17980581557275366,0.7002914465365422,0.0,5.0211027494293266,4.56542547821585,85.1346089546458,84.05679379480857,0.0
0.078,1.2459703204698582,-0.19676168321796328,0.6782275205363855,0.0,4.9953807493062286,4.5540615816476855,86.53166080469845,84.05679379480857,0.0
0.079,1.2421796664824876,-0.21352160671761167,-0.045047074588837166,0.0,4.972768592447132,4.4622759848950295,85.80430251988977,84.05679379480857,0.0
0.08,1.2059016587108728,-0.2048860931174178,0.3011569805646874,0.0,4.942121585867662,4.426675598464874,84.92840120643449,84.05679379480857,0.0
0.081,1.182878817228214,-0.2116693338863344,0.730391563176072,0.0,4.911811752923706,4.437494046040877,85.40695911857742,84.05679379480857,0.0
0.082,1.1838175200330983,-0.23320778528092373,0.4776109538669173,0.0,4.88791614527746,4.411767966991402,86.44754086559406,84.05679379480857,0.0
0.083,1.1779799575252157,-0.24079819969216432,-0.0665873903492602,0.0,4.864457051562183,4.329542442215477,84.96780975715512,84.05679379480857,0.0
0.084,1.1416680840422688,-0.23717117882153665,0.6641680042467446,0.0,4.834646438300959,4.342954567851384,85.4113396263126,84.05679379480857,0.0
0.085,1.1388869922343843,-0.2572283150991375,0.42885761135296785,0.0,4.8114006541286924,4.318795523797341,86.32692997674748,84.05679379480857,0.0
0.08600000000000001,1.1325569526336996,-0.2634655050009326,-0.051638925683862746,0.0,4.788549063494669,4.244894784024359,84.92742533195275,84.05679379480857,0.0
0.08700000000000001,1.0985031279878248,-0.2621429003638914,0.6394070813420614,0.0,4.760384699537656,4.260601605623532,85.89077139925504,84.05679379480857,0.0
0.088,1.097115355231422,-0.2816569587649839,0.13939427164644824,0.0,4.738767226606754,4.209821556287055,85.68563869605208,84.05679379480857,0.0
0.089,1.0791501541833988,-0.2797683289133637,0.2256721742354948,0.0,4.713830606167603,4.178410756360605,85.04436564484958,84.05679379480857,0.0
0.09,1.0596925462496305,-0.2881909128022446,0.5364329813363367,0.0,4.689191938306016,4.182928969000321,86.59954189721702,84.05679379480857,0.0
0.091,1.059953024032898,-0.29976159157404203,-0.26658262587147075,0.0,4.668657507320568,4.0928689400905425,84.64596285607016,84.05679379480857,0.0
0.092,1.0202148832113678,-0.29345181943568555,0.7043152040893469,0.0,4.640360734819749,4.128964188609166,86.30059462561015,84.05679379480857,0.0
0.093,1.0264237094547195,-0.3144651358167567,-0.1454386889886634,0.0,4.620877726944179,4.054357976192672,84.95551150942678,84.05679379480857,0.0
0.094,0.9982772669135657,-0.3074215834486543,0.5181156919568346,0.0,4.594897474690214,4.069910802007016,85.61004087441809,84.05679379480857,0.0
0.095,0.9964848438239569,-0.3250433327137948,0.17531853866508695,0.0,4.575079358185925,4.036882791457429,85.23322987223467,84.05679379480857,0.0
0.096,0.985157861723392,-0.3253637606565571,0.3519596789825339,0.0,4.553799281858157,4.0292623110803705,85.40917353914566,84.05679379480857,0.0
0.097,0.976031290203816,-0.33909850033253114,0.2504640480836723,0.0,4.535392782210392,4.008235593352343,85.51141493902799,84.05679379480857,0.0
0.098,0.9677121822514018,-0.3403479672150827,0.1847971367003125,0.0,4.5167243547149205,3.9820863296487286,85.20455260518426,84.05679379480857,0.0
0.099,0.9508337065867568,-0.34853883994261553,0.32675071551841806,0.0,4.4981963449298386,3.974730153593343,85.68798562232199,84.05679379480857,0.0
0.1,0.9458484242242691,-0.352124115571115,0.0687222886744201,0.0,4.4810979901095855,3.9368337277271923,85.04690386356899,84.05679379480857,0.0
0.101,0.9249126167430216,-0.35632492345308114,0.37936206736331757,0.0,4.462346064295474,3.940020854889163,85.79048762780984,84.05679379480857,0.0
0.10200000000000001,0.9232253599953779,-0.36139849994724355,-0.009766753087121605,0.0,4.446304129114509,3.8950797488845157,84.96885104400006,84.05679379480857,0.0
0.10300000000000001,0.8999238960522824,-0.3635138897923459,0.391930966325852,0.0,4.427554233969194,3.903652885768432,85.71415419510313,84.05679379480857,0.0
0.10400000000000001,0.8999126606664118,-0.36893979186027526,0.0027057867713700112,0.0,4.412112337355825,3.8624301937573176,84.96781347811124,84.05679379480857,0.0
0.105,0.8786813554371333,-0.3712863017117271,0.3667659484342909,0.0,4.394296218265661,3.870059782085806,85.53693258459555,84.05679379480857,0.0
0.106,0.878372655266307,-0.37638207861716877,0.06740500729426702,0.0,4.379561740278447,3.8383961384968956,85.03734189356199,84.05679379480857,0.0
0.107,0.861698029143633,-0.3793337668975988,0.3073948718235131,0.0,4.363408073672855,3.839649027849557,85.32717834878581,84.05679379480857,0.0
0.108,0.858922824046641,-0.38333141960656114,0.14977279867183046,0.0,4.349405287578271,3.819561461213858,85.12911602979128,84.05679379480857,0.0
0.109,0.8472136149336724,-0.38699159980979203,0.2380807358192687,0.0,4.335156666724842,3.8126327274014638,85.21377343866713,84.05679379480857,0.0
0.11,0.8411465601907631,-0.38965052456136634,0.1841822349427551,0.0,4.321895914496156,3.7987103743476647,85.16969645027179,84.05679379480857,0.0
0.111,0.8320884288768744,-0.39220327982839653,0.19509170258579622,0.0,4.308823216016818,3.7875289317229757,85.00793043737438,84.05679379480857,0.0
0.112,0.8239489158689469,-0.39422239373406665,0.2664633426088393,0.0,4.296136218099895,3.7847049143566585,84.81372924069396,84.05679379480857,0.0
0.113,0.8190613947026073,-0.3988946257385438,0.35599458649019766,0.0,4.28492927261947,3.7904855515602174,85.23231593355825,84.05679379480857,0.0
0.114,0.820525368345753,-0.4023397278240699,0.13494601867055322,0.0,4.275753324316808,3.769146863283995,84.87026041997402,84.05679379480857,0.0
0.115,0.8080413743774545,-0.40438812839968524,0.30783910921101776,0.0,4.2655519750592505,3.771641053715721,84.96304914004793,84.05679379480857,0.0
0.116,0.8067689331155032,-0.40425962432026896,0.2523821957216681,0.0,4.25658556031613,3.7650516273884147,85.14753636088467,84.05679379480857,0.0
0.117,0.7999211847435028,-0.4086682528626675,0.1492311596425353,0.0,4.248343078595051,3.748172985294019,84.39132338081534,84.05679379480857,0.0
0.11800000000000001,0.7909715289538147,-0.40460381949583085,0.5239923538171354,0.0,4.238745806880862,3.7753291856100977,85.71241821496612,84.05679379480857,0.0
0.11900000000000001,0.7992278645267059,-0.4119212802020814,-0.15311130745983237,0.0,4.233669447381056,3.7195833305700203,84.13447434897368,84.05679379480857,0.0
0.12,0.7736924504360937,-0.4039496246399267,0.6350838199947355,0.0,4.222576081608324,3.7652683846224413,85.23236692928946,84.05679379480857,0.0
0.121,0.7888673657215699,-0.40965505029173965,0.07438179849204052,0.0,4.217867871195427,3.7337918282301947,84.41200677630408,84.05679379480857,0.0
0.122,0.7742045402983044,-0.40947847120487135,0.4810097451697718,0.0,4.210406348228521,3.7570928607348737,84.67133577837104,84.05679379480857,0.0
0.123,0.7827836124501892,-0.4094647568991795,0.34519982430066565,0.0,4.206021338026018,3.7572219407390763,85.01498240654627,84.05679379480857,0.0
0.124,0.7800348694563121,-0.41513018392194334,0.1637946240956778,0.0,4.202711070959747,3.738691291359597,83.90411746555797,84.05679379480857,0.0
0.125,0.7719977426421331,-0.40721325844768064,0.7207538578823302,0.0,4.196951249589755,3.7856188444496395,85.4731352149542,84.05679379480857,0.0
0.126,0.788655288075858,-0.4165351681379561,-0.07791843101723805,0.0,4.197564744986443,3.731941414711008,83.67265337672033,84.05679379480857,0.0
0.127,0.7659820650585969,-0.4069662365065491,0.8261638922805763,0.0,4.191603346293241,3.7937894859239005,85.18091843154366,84.05679379480857,0.0
0.128,0.7889140455510328,-0.41315021740103464,0.06079011850156235,0.0,4.193198821805353,3.752875421713171,83.95618404792064,84.05679379480857,0.0
0.129,0.7713781867171847,-0.4088678381164492,0.6741634077819495,0.0,4.190010441814935,3.793495375310009,84.64356081895497,84.05679379480857,0.0
0.13,0.7873472366406887,-0.40849368821143645,0.324607352023324,0.0,4.191204562486536,3.783217642441944,84.4587116406492,84.05679379480857,0.0
0.131,0.7808999526726124,-0.4105884545157869,0.41301276271780185,0.0,4.1914856635966995,3.788176142397548,83.72061631792869,84.05679379480857,0.0
0.132,0.7840892095892799,-0.4022067598527755,0.7854221988468563,0.0,4.191291570515431,3.832332595235344,85.25464499880148,84.05679379480857,0.0
0.133,0.799768464542252,-0.41256284082679895,0.006429346370530276,0.0,4.196755517879842,3.7809478598718878,83.08952071503269,84.05679379480857,0.0
0.134,0.7803220492080908,-0.3974538156852919,1.0986642190526843,0.0,4.194769043396162,3.865479655537306,85.45366225759305,84.05679379480857,0.0
0.135,0.812432886390383,-0.4081964892452536,-0.09737523685534122,0.0,4.2027671802704,3.795146279067716,83.02881334329277,84.05679379480857,0.0
0.136,0.78536697479479,-0.39401035785010213,1.1253290248099588,0.0,4.201264264621192,3.8824022759221095,85.12042805353303,84.05679379480857,0.0
