timestamp,iq,id,iq_ref,id_ref,vq,vd,omega,omega_ref,r
0.0,0.0,0.0,0.0,0.0,0.0,0.0,0.0,304.9622654910341,0.0
0.001,0.0,0.0,10.0,0.0,0.0,1.0999999999999999,8.408320400861793,304.9622654910341,0.0
0.002,0.4702162296731369,-0.26509069833403986,10.0,0.0,0.13915997681674436,1.938276214735955,17.198811603415347,304.9622654910341,0.0
0.003,0.8650530544283113,-0.48549711417348856,10.0,0.0,0.36982537618440886,2.667910917253651,26.408091938114506,304.9622654910341,0.0
0.004,1.179437762556687,-0.6592724016638299,10.0,0.0,0.6672989233326195,3.3170147398097733,35.93805987432979,304.9622654910341,0.0
0.005,1.4304445448034653,-0.7965571266292465,10.0,0.0,1.0132990648929134,3.906488635859244,45.664345834276226,304.9622654910341,0.0
0.006,1.6339433895793214,-0.9064270322352469,10.0,0.0,1.394359424269131,4.451740351356921,55.51032917833767,304.9622654910341,0.0
0.007,1.8020654478162592,-0.9958557329421249,10.0,0.0,1.800577377279191,4.964114493284146,65.48603009562437,304.9622654910341,0.0
0.008,1.943651140425945,-1.0702386918526858,10.0,0.0,2.224698787654061,5.451979810714959,75.52127727549606,304.9622654910341,0.0
0.009000000000000001,2.065497339691016,-1.1330220017468817,10.0,0.0,2.6613569232337806,5.921483512447115,85.44333525397657,304.9622654910341,0.0
0.01,2.1725246148563375,-1.1868475449818048,10.0,0.0,3.106592592085644,6.377148119288496,95.50136035718005,304.9622654910341,0.0
0.011,2.268333589145119,-1.2336738823601916,10.0,0.0,3.557483796415733,6.822301117910811,105.44489394922753,304.9622654910341,0.0
0.012,2.3557490170495186,-1.2746389765926096,10.0,0.0,4.011839077166826,7.259370329777307,115.37911677560605,304.9622654910341,0.0
0.013000000000000001,2.4368093371419564,-1.3106663039703785,10.0,0.0,4.468019106098691,7.690125667601139,124.978918508263,304.9622654910341,0.0
0.014,2.5132819754464792,-1.3420229362072567,10.0,0.0,4.924745622192028,8.115822087523199,134.53954406839205,304.9622654910341,0.0
0.015,2.586532894989496,-1.3688625566090902,10.0,0.0,5.381007920590072,8.537328642295702,143.86148198543304,304.9622654910341,0.0
0.016,2.6577316098835273,-1.3911234231544038,10.0,0.0,5.835974943741528,8.955211421987846,152.8827234698794,304.9622654910341,0.0
0.017,2.727900436353005,-1.4086240489300912,10.0,0.0,6.288936002716928,9.369796042263221,161.64466463034225,304.9622654910341,0.0
0.018000000000000002,2.797957181934183,-1.4211224177046236,10.0,0.0,6.739259232129765,9.78121375265936,170.2882116455203,304.9622654910341,0.0
0.019,2.8687081735637494,-1.4284249475663207,10.0,0.0,7.186370204237974,10.18943997333373,178.77257491163522,304.9622654910341,0.0
0.02,2.940834747203613,-1.4304793805298597,10.0,0.0,7.629745663530171,10.594328255967397,186.80331930423463,304.9622654910341,0.0
0.021,3.0152580322064892,-1.426816544567286,10.0,0.0,8.068848948870993,10.995599960652992,194.32728271735354,304.9622654910341,0.0
0.022,3.092866757617475,-1.417023658492215,10.0,0.0,8.503128487037664,11.392862096458936,201.37161486111881,304.9622654910341,0.0
0.023,3.1744275533301893,-1.4009094169187033,10.0,0.0,8.93203164725593,11.785630372226661,207.9544556798298,304.9622654910341,0.0
0.024,3.260637930695638,-1.3784122834566777,10.0,0.0,9.355007776764046,12.17334460288637,214.11326309534795,304.9622654910341,0.0
0.025,3.3528546791935776,-1.3483836893655143,10.0,0.0,9.771379542371918,12.555303284869801,220.00430199843748,304.9622654910341,0.0
0.026000000000000002,3.4502713911900647,-1.3131990004124408,10.0,0.0,10.18073996977342,12.930909604381045,225.09384759029186,304.9622654910341,0.0
0.027,3.553727725296179,-1.2725290487618004,10.0,0.0,10.582603138593855,13.2994853050496,229.560776980346,304.9622654910341,0.0
0.028,3.6626338375802465,-1.228310995001877,10.0,0.0,10.976680274202021,13.660444643523165,232.88029206169426,304.9622654910341,0.0
0.029,3.7779323142255627,-1.179879615853163,10.0,0.0,11.362560358927961,14.01312199040204,236.30352466021344,304.9622654910341,0.0
0.03,3.9025648897841583,-1.1230429226107344,10.0,0.0,11.739352447404016,14.35656301252063,237.7989597960909,304.9622654910341,0.0
0.031,4.030642984186399,-1.0681227381238576,10.0,0.0,12.107336575883195,14.690496876646304,241.79380985305883,304.9622654910341,0.0
0.032,4.170977379937522,-1.0009562896515705,10.0,0.0,12.46507657043994,15.01367976461873,243.5483220878149,304.9622654910341,0.0
0.033,4.3132789528509665,-0.938801603108053,10.0,0.0,12.813195503303188,15.326068534186616,241.49666507092064,304.9622654910341,0.0
0.034,4.470010629935732,-0.8608684456858815,10.0,0.0,13.149790319385898,15.626212851333854,247.68441704803098,304.9622654910341,0.0
0.035,4.578400093276478,-0.8719481543602416,10.0,0.0,13.48473818510346,15.919646694177997,261.43639009303985,304.9622654910341,0.0
0.036000000000000004,4.645963141166617,-0.9414850180975318,10.0,0.0,13.823072906458037,16.21088389867498,271.848023442578,304.9622654910341,0.0
0.037,4.70132551701918,-1.020868225073679,10.0,0.0,14.164734660256864,16.501416623992846,283.8800859645497,304.9622654910341,0.0
0.038,4.7368701975505045,-1.124152718396239,10.0,0.0,14.511850973403313,16.793705961058887,295.2785184621319,304.9622654910341,0.0
0.039,4.773495050522346,-1.2138308506525908,9.601650394666585,0.0,14.862316338556694,17.043986252124697,309.0030749475969,304.9622654910341,0.0
0.04,4.7678597197799695,-1.3216327650662643,2.69896405736847,0.0,15.213724625564257,16.54995918446119,312.7392259111647,304.9622654910341,0.0
0.041,4.427455218571373,-1.268173356419115,0.7531189713832598,0.0,15.473630823009389,16.032847698004915,318.2330918778349,304.9622654910341,0.0
0.042,4.045570912092899,-1.1922546093179405,-2.1265222758198625,0.0,15.648018783969722,15.334739122306845,322.4358572154016,304.9622654910341,0.0
0.043000000000000003,3.591725720197087,-1.086732548618954,-4.402640861846882,0.0,15.724308852058341,14.548407696327423,323.2117948447688,304.9622654910341,0.0
0.044,3.1109430289234625,-0.9627974978881515,-4.9731049700678325,0.0,15.701759135766759,13.856696197831914,322.62184213310456,304.9622654910341,0.0
0.045,2.69225770392371,-0.8582029700153937,-4.8547243806564175,0.0,15.602027193696083,13.291874942311496,321.05316556755133,304.9622654910341,0.0
0.046,2.3576759638768676,-0.7839851125376743,-4.231295098644974,0.0,15.448668301236614,12.873573171418354,319.02272203531663,304.9622654910341,0.0
0.047,2.1140459230968993,-0.7429230550305426,-3.35667789797045,0.0,15.265040473182772,12.595192774707991,316.67603256321905,304.9622654910341,0.0
0.048,1.9550062430965847,-0.7300925101335933,-2.3004708326435095,0.0,15.070936648899684,12.44878230443473,314.42404874120473,304.9622654910341,0.0
0.049,1.8716811663982176,-0.7409257838664336,-1.269096754138054,0.0,14.882922125577156,12.408066938379633,312.8557925138462,304.9622654910341,0.0
0.05,1.847113273074908,-0.768366533186826,-0.5639039106869159,0.0,14.71254766766929,12.42174834609095,311.53061875777513,304.9622654910341,0.0
0.051000000000000004,1.8557998894760348,-0.7966849784609218,0.03299943468121391,0.0,14.563419417810291,12.47443040005897,309.5212877884385,304.9622654910341,0.0
0.052000000000000005,1.8869111166234906,-0.8205161216198754,0.9920746963754925,0.0,14.436810439628736,12.60312530015477,308.0864310500356,304.9622654910341,0.0
0.053,1.9540163470222727,-0.8489696499093198,1.6782614099869058,0.0,14.33862342595517,12.765109135230762,306.12800267444703,304.9622654910341,0.0
0.054,2.0409522608570447,-0.8720015957753979,2.645818225947074,0.0,14.268702475918928,12.991753369833457,304.09733931708917,304.9622654910341,0.0
0.055,2.1588965278031975,-0.8959307249050352,3.6697991663654568,0.0,14.230839929092182,13.279598911032956,301.546908497619,304.9622654910341,0.0
0.056,2.307005129425735,-0.9215479076948192,4.979168146034704,0.0,14.228126789883634,13.653551918280236,299.9634563124605,304.9622654910341,0.0
0.057,2.5004485684651137,-0.9457422677222941,5.820882330399679,0.0,14.2654854730958,14.049535489087287,300.98476506757027,304.9622654910341,0.0
0.058,2.70638844226261,-0.9654367311402765,5.3500029570794325,0.0,14.340631092443157,14.328723746498643,301.62543981673684,304.9622654910341,0.0
0.059000000000000004,2.863973608747329,-0.9488815663615835,5.063033839239115,0.0,14.434162962837075,14.545374961299022,300.6923640830637,304.9622654910341,0.0
0.06,2.9862389924794295,-0.9174824707029716,5.5722707201553945,0.0,14.536718418796982,14.796726649192268,293.2811072018843,304.9622654910341,0.0
0.061,3.1320496210961926,-0.8760619393141481,9.394710743636583,0.0,14.649911230454034,15.433758232355421,296.6404496176475,304.9622654910341,0.0
0.062,3.4586229742661736,-0.899676374066058,7.798257694488853,0.0,14.818499712398303,15.770106740164376,297.242254137342,304.9622654910341,0.0
0.063,3.666140871216155,-0.8806261034131888,7.574555548178525,0.0,15.001532522809695,16.0614753046514,288.77468795202276,304.9622654910341,0.0
0.064,3.857855135134919,-0.8183313485086099,10.0,0.0,15.18873698829568,16.592032814832766,293.7797611325365,304.9622654910341,0.0
0.065,4.14790584553074,-0.815340952775425,9.54009858123179,0.0,15.410570762269602,16.98342298445752,289.95657032186176,304.9622654910341,0.0
0.066,4.405796154487777,-0.767082289299126,10.0,0.0,15.644081626783542,17.38757825788806,287.781761512655,304.9622654910341,0.0
0.067,4.657088734859042,-0.7369569901291823,10.0,0.0,15.891825735915205,17.745006795487992,294.2050213706383,304.9622654910341,0.0
0.068,4.8850597119462735,-0.7128744513750245,9.6682893688175,0.0,16.14819046162245,18.032414839135136,301.6084848939667,304.9622654910341,0.0
0.069,4.990659457087279,-0.812693529738171,6.00009541312397,0.0,16.41888044313117,17.90719805997919,311.62428031832974,304.9622654910341,0.0
0.07,4.866076154542122,-0.8798931863402508,0.9255775526694956,0.0,16.656373520016015,17.31481709252804,316.813844102432,304.9622654910341,0.0
0.07100000000000001,4.524647392137113,-0.815148904701948,-1.7877201254955999,0.0,16.803085324921025,16.594017294355957,320.6200232810459,304.9622654910341,0.0
0.07200000000000001,4.089216680462133,-0.7502350452555415,-3.847387292702691,0.0,16.85655288779561,15.805021335540658,322.7130748937167,304.9622654910341,0.0
0.073,3.633959053524965,-0.6668822496635077,-5.071421193064898,0.0,16.817254429580547,15.031948703372917,324.0086389513704,304.9622654910341,0.0
0.074,3.1953582755989247,-0.598205350483473,-5.909666956495129,0.0,16.697857623016326,14.295980302929236,323.8789251129385,304.9622654910341,0.0
0.075,2.7923068743712527,-0.5398185986745928,-6.033976633498203,0.0,16.511067883356986,13.656327101393245,322.7735057383778,304.9622654910341,0.0
0.076,2.4494193160867654,-0.5045074159377179,-5.6593793486913135,0.0,16.27569143492702,13.13809616154273,321.09903481760017,304.9622654910341,0.0
0.077,2.1791957033255858,-0.49409245160244275,-4.983511581568148,0.0,16.01123700310548,12.745045874190623,319.0303084736665,304.9622654910341,0.0
0.078,1.9817801701400304,-0.5060236897499834,-4.089828839427627,0.0,15.735339571570465,12.475415068878604,317.1707391134108,304.9622654910341,0.0
0.079,1.8517222174566037,-0.5394292938986796,-3.2821288955235417,0.0,15.463624106732635,12.297399986815652,315.0700960757564,304.9622654910341,0.0
0.08,1.7731900928855373,-0.5822030192472579,-2.3328856825435755,0.0,15.205649733919149,12.213692574639952,313.1528898969814,304.9622654910341,0.0
0.081,1.7423691974030087,-0.63381438383329,-1.4561888372155396,0.0,14.970351570020412,12.202107664514124,311.281899928434,304.9622654910341,0.0
0.082,1.7479662810299903,-0.6878183422407431,-0.583890197315835,0.0,14.76284905327794,12.254413422792894,310.0396225306652,304.9622654910341,0.0
0.083,1.7832019328903832,-0.7427465647280731,-0.013525068827766606,0.0,14.586829428927112,12.330935580435863,308.7935044971705,304.9622654910341,0.0
0.084,1.8309272717089047,-0.7877292486109662,0.5712215578582311,0.0,14.440462795777915,12.435924606778594,307.2816250488209,304.9622654910341,0.0
0.085,1.8912644686323639,-0.823371581579454,1.3039676864551577,0.0,14.322702558365613,12.58437283677754,305.93302904385956,304.9622654910341,0.0
0.08600000000000001,1.9709805376901683,-0.8546299708391383,1.9685580534075715,0.0,14.234645167183317,12.763812303487033,303.8234245263335,304.9622654910341,0.0
0.08700000000000001,2.0672191164032254,-0.8779072409820287,3.03474872181761,0.0,14.17558537761332,13.01734807129507,301.9512518862743,304.9622654910341,0.0
0.088,2.196409308337585,-0.9061246292310408,4.000945177894811,0.0,14.150656283787086,13.321995451524046,299.3063516012836,304.9622654910341,0.0
0.089,2.3543559402241656,-0.9291283337145634,5.379954459287657,0.0,14.160933070977075,13.719632013151765,298.5904756050324,304.9622654910341,0.0
0.09,2.5585825923821837,-0.9540938095982027,5.801610356273281,0.0,14.212462000913204,14.09023918777168,300.10447389566656,304.9622654910341,0.0
0.091,2.7519444944096842,-0.9686116478586708,5.093189126909874,0.0,14.297246062767519,14.327568101021939,300.1814926337593,304.9622654910341,0.0
0.092,2.8892233681466744,-0.9410543850027466,5.102487486436242,0.0,14.394108132464682,14.54458250388335,297.0156715000929,304.9622654910341,0.0
0.093,3.0103232674023688,-0.9067181615187148,6.764863993178874,0.0,14.499484023523575,14.920401905393998,292.1043103429062,304.9622654910341,0.0
0.094,3.218321448429151,-0.8771300694384676,9.349124123253484,0.0,14.628992937733663,15.515153004179865,296.97294387156245,304.9622654910341,0.0
0.095,3.5241246317905817,-0.9067881044968402,6.994700575120084,0.0,14.808584335178553,15.746992324553247,292.4979395432858,304.9622654910341,0.0
0.096,3.6842870378500523,-0.8636768772514232,9.356845998735901,0.0,14.988361709568707,16.242427251879924,293.08674586911445,304.9622654910341,0.0
0.097,3.963551773142004,-0.8337615158911227,9.181198032040761,0.0,15.196845261775342,16.63423619651881,291.117215806416,304.9622654910341,0.0
0.098,4.196555081582394,-0.8151708403423552,10.0,0.0,15.421915532528436,17.07669958148141,291.1895483005222,304.9622654910341,0.0
0.099,4.474393275720832,-0.766534297495209,10.0,0.0,15.663561001744785,17.461003467072644,285.11907769471236,304.9622654910341,0.0
0.1,4.720483590359818,-0.7301795741353554,10.0,0.0,15.915959658457503,17.806749958357486,295.6865323025537,304.9622654910341,0.0
0.101,4.91479452685907,-0.7492422931463842,8.362074585028587,0.0,16.180153544952258,17.944076570669736,305.9314567310667,304.9622654910341,0.0
0.10200000000000001,4.947539393968722,-0.819511877058678,3.2299204583717604,0.0,16.43919973106899,17.544273384600622,309.6629762354491,304.9622654910341,0.0
0.10300000000000001,4.698434308473063,-0.818150267989493,1.317153598736415,0.0,16.631508507130413,17.0790013305324,316.24313055747547,304.9622654910341,0.0
0.10400000000000001,4.393238783201074,-0.793170081741799,-2.0857322129411857,0.0,16.755324995782317,16.355378045713913,319.5337956440241,304.9622654910341,0.0
0.105,3.971820797874081,-0.7258803045402591,-3.8767800577454072,0.0,16.787245433457482,15.596816356564037,321.9607994089496,304.9622654910341,0.0
0.106,3.5335453683033125,-0.6539635189669991,-5.260267279387299,0.0,16.732879709809108,14.827025881563607,322.87835447020217,304.9622654910341,0.0
0.107,3.1025169594082636,-0.586300079849805,-5.898205699805272,0.0,16.600247700578368,14.115469898351577,322.54838017580397,304.9622654910341,0.0
0.108,2.7138933529138494,-0.5327862587163877,-5.909079699453873,0.0,16.404513408015994,13.505427869405942,321.34604961297254,304.9622654910341,0.0
0.109,2.3882753216567694,-0.5028311923906266,-5.471752259257539,0.0,16.164588422730784,13.016963119890047,319.64737012843733,304.9622654910341,0.0
0.11,2.134806120419142,-0.4975999966489171,-4.769263563363969,0.0,15.899533580154195,12.65087826076712,317.72161670381473,304.9622654910341,0.0
0.111,1.9517158453720123,-0.5143013728446068,-3.933980363180477,0.0,15.626265199261903,12.397357906602887,315.66343834361226,304.9622654910341,0.0
0.112,1.8313756859031662,-0.5478389274771192,-3.0119029116050204,0.0,15.358493738290042,12.24634495222841,313.71169216505297,304.9622654910341,0.0
0.113,1.7656192617148645,-0.5937245403663508,-2.123524089065564,0.0,15.107110169849399,12.178186848223808,311.8463570840627,304.9622654910341,0.0
0.114,1.7426626859033911,-0.6459739095135123,-1.2596974645007042,0.0,14.879337722329668,12.179710997349725,310.0663564831331,304.9622654910341,0.0
0.115,1.7541317526325837,-0.6998654477094546,-0.4207380739569171,0.0,14.679900509984577,12.240461590426909,309.1321177175786,304.9622654910341,0.0
0.116,1.792814904200746,-0.7537548182198138,0.004682786554907725,0.0,14.511870993555895,12.309459647707527,307.55772612033695,304.9622654910341,0.0
0.117,1.8373034002419226,-0.793583019188653,0.7659239788826939,0.0,14.371386442899615,12.42973036711931,306.1679334526436,304.9622654910341,0.0
0.11800000000000001,1.9032726562059203,-0.8297401023679815,1.4487636331132845,0.0,14.260556416390171,12.584613776370745,304.69082300237443,304.9622654910341,0.0
0.11900000000000001,1.9862420275345922,-0.8599004285047681,2.1900332831344564,0.0,14.179253798500074,12.779170168719595,302.6850635409591,304.9622654910341,0.0
0.12,2.089035150490115,-0.8840530927726171,3.2156850333428677,0.0,14.12789227144197,13.04107210625545,300.75355933014526,304.9622654910341,0.0
0.121,2.221894296771777,-0.9123789300328627,4.223524200358677,0.0,14.110731406299209,13.358666913340135,298.31101435211525,304.9622654910341,0.0
0.122,2.38617234438792,-0.9345551856202341,5.511309200762872,0.0,14.129202238121199,13.757622117801416,297.98769871955056,304.9622654910341,0.0
0.123,2.590828142117766,-0.9581356676221081,5.7427126847600505,0.0,14.18809359767145,14.110236060960297,299.5145283002911,304.9622654910341,0.0
0.124,2.7757172351024386,-0.9675042458021058,5.0337752662972175,0.0,14.277151954362342,14.334889352636417,299.3290784409132,304.9622654910341,0.0
0.125,2.905822673466851,-0.9367746143685907,5.182832066487382,0.0,14.376295859312275,14.557006065729315,295.37148991155806,304.9622654910341,0.0
0.126,3.029745229723884,-0.9008912621157679,7.257534086959703,0.0,14.484097172643025,14.981221725453342,292.13178571797926,304.9622654910341,0.0
0.127,3.2607907508243974,-0.8784271495373772,9.005690981479653,0.0,14.62142770175201,15.521170406972033,296.04307901985175,304.9622654910341,0.0
0.128,3.543119737012212,-0.9008710881813886,7.139236195255231,0.0,14.801713520478591,15.769319944550206,290.9987479083482,304.9622654910341,0.0
0.129,3.7104800565218583,-0.8557652309848329,9.80103692683386,0.0,14.983599627412271,16.306559393294936,293.3517414727417,304.9622654910341,0.0
0.13,4.007282325269497,-0.8374056574241118,8.740645384820033,0.0,15.19945257400734,16.63402778455411,288.7039655255946,304.9622654910341,0.0
0.131,4.215507142607008,-0.804627028985647,10.0,0.0,15.4230450116762,17.07953084721716,289.9336698169695,304.9622654910341,0.0
0.132,4.490504197486305,-0.7582257662510503,10.0,0.0,15.664052159228055,17.462081873365637,289.0470009519013,304.9622654910341,0.0
0.133,4.740763704057654,-0.7151504588649211,10.0,0.0,15.914939423454442,17.8056999364804,297.0709612446409,304.9622654910341,0.0
0.134,4.928123776972899,-0.7440390605954859,7.366152963860436,0.0,16.178708266833898,17.832214732776016,301.1636535078241,304.9622654910341,0.0
0.135,4.892933140044912,-0.8224675840986639,5.357792952100931,0.0,16.427089957073,17.69361837363909,315.63336191716957,304.9622654910341,0.0
0.136,4.756492706560086,-0.8660887319925035,-1.983772216833152,0.0,16.640787883407807,16.82088779228866,315.4206752937375,304.9622654910341,0.0
0.137,4.284284375456797,-0.7583916964082378,-1.9820130031441403,0.0,16.73356007358087,16.18098773898841,319.026746701231,304.9622654910341,0.0
0.138,3.880388129149377,-0.7017783679893077,-3.9256935189928672,0.0,16.747914543636366,15.44023896493802,321.2249992171132,304.9622654910341,0.0
0.139,3.4562141545230842,-0.6365760132882508,-5.187447114194753,0.0,16.680152563548344,14.698264599730312,322.09315322012736,304.9622654910341,0.0
0.14,3.042281405578725,-0.5763517788015051,-5.792832992992777,0.0,16.53899670270182,14.011027424956426,321.70441659831323,304.9622654910341,0.0
