timestamp,iq,id,iq_ref,id_ref,vq,vd,omega,omega_ref,r
0.0,0.0,0.0,0.0,0.0,0.0,0.0,0.0,35.52669499468303,0.0
0.001,0.0,0.0,10.0,0.0,0.0,1.0999999999999999,4.161598935153891,35.52669499468303,0.0
0.002,0.4873021581219328,-0.27852555510325216,10.0,0.0,0.1406378110613577,1.9363967626065872,8.586711142547305,35.52669499468303,0.0
0.003,0.8301871696172302,-0.47387168419697207,10.0,0.0,0.369554335926515,2.670373300375388,13.232445672976775,35.52669499468303,0.0
0.004,1.1024559742587836,-0.6285209462983324,10.0,0.0,0.6640348196222492,3.3273231184582066,18.029470825116835,35.52669499468303,0.0
0.005,1.3223077296913488,-0.7530158611794376,9.677451543905196,0.0,1.0069101847725996,3.891084667880722,22.808264280863703,35.52669499468303,0.0
0.006,1.4873049886696594,-0.8458705609676721,7.415239123169956,0.0,1.3808432361780614,4.171188536222803,26.687991755071717,35.52669499468303,0.0
0.007,1.517790041717141,-0.8614029381206338,5.563762418462062,0.0,1.746173383766129,4.277931626315267,29.796723417915427,35.52669499468303,0.0
0.008,1.4710922444016916,-0.8333169925038054,4.066696302807883,0.0,2.0824000478152547,4.269812524717586,32.21987240741339,35.52669499468303,0.0
0.009000000000000001,1.3797773742878947,-0.7794468771266178,2.8881900339315973,0.0,2.3785472820643774,4.191040629004098,34.040971058731664,35.52669499468303,0.0
0.01,1.266670819200534,-0.7132269611681559,1.9924979476319744,0.0,2.6304571137155803,4.074548151841146,35.404833825933636,35.52669499468303,0.0
0.011,1.1479554706474377,-0.6436528331243018,1.311785175718482,0.0,2.8385357595601284,3.940902044302091,36.37094506033133,35.52669499468303,0.0
0.012,1.0326204676554986,-0.576564575761167,0.8202870578631523,0.0,3.0057579630368094,3.8056704437000253,37.032229971516514,35.52669499468303,0.0
0.013000000000000001,0.927339007524488,-0.5149049227607012,0.47458925250222506,0.0,3.1366231068491968,3.6780000566791786,37.48554811870807,35.52669499468303,0.0
0.014,0.8349628481779222,-0.46064526596501293,0.22834164766619836,0.0,3.236282731860738,3.5616615271901133,37.79233095851444,35.52669499468303,0.0
0.015,0.755501521521563,-0.4146749050023229,0.05229386812469716,0.0,3.309828398284282,3.4578370177886377,38.01109223147365,35.52669499468303,0.0
0.016,0.6886596861006421,-0.3757158966284317,-0.08193074072281203,0.0,3.361811259813822,3.365303285421591,38.09376600560832,35.52669499468303,0.0
0.017,0.6314519873283471,-0.34494033811379626,-0.14893833789940292,0.0,3.3963467406008325,3.2868170513539967,37.92404013687455,35.52669499468303,0.0
0.018000000000000002,0.5853537084724977,-0.32009873997274585,-0.08804885495443293,0.0,3.4171552296920127,3.2314996415539947,37.72417439725144,35.52669499468303,0.0
0.019,0.5539436111427029,-0.3020292516184982,-0.010090779168560049,0.0,3.4286119011565184,3.194755443067827,37.572348266854085,35.52669499468303,0.0
0.02,0.5334096213995024,-0.2901490086045427,0.045365753308405976,0.0,3.4341223537779633,3.1700966072897883,37.39503084148595,35.52669499468303,0.0
0.021,0.5202100491324785,-0.28185244766374606,0.11534110752444549,0.0,3.4358220582861136,3.1568440370426343,37.219230000665966,35.52669499468303,0.0
0.022,0.5135265121540076,-0.2764350849755963,0.18631617787460675,0.0,3.4355135910324424,3.152797391812328,37.13065795682082,35.52669499468303,0.0
0.023,0.5121305627524816,-0.27267679502331627,0.2145625701758025,0.0,3.43447206771324,3.1516086358936977,37.10049133707608,35.52669499468303,0.0
0.024,0.5123502481725627,-0.2696643383198087,0.21390791662424213,0.0,3.433122033796232,3.1500420025311033,37.23373956440918,35.52669499468303,0.0
0.025,0.5123032986333328,-0.26699444312290044,0.1302133572604316,0.0,3.43148677603004,3.1393045354220805,37.420578652558554,35.52669499468303,0.0
0.026000000000000002,0.5068402174605025,-0.2645701465201458,0.017854976606987982,0.0,3.4287013236552317,3.1185552824027196,37.30174945386633,35.52669499468303,0.0
0.027,0.4963675313779099,-0.26123369667484236,0.05951903136126757,0.0,3.423776724699011,3.1064064039346744,37.04927934618917,35.52669499468303,0.0
0.028,0.4912057418218833,-0.2586035705282767,0.1705282416847873,0.0,3.41787374841394,3.1072373959961945,36.85080852694791,35.52669499468303,0.0
0.029,0.49239682946143354,-0.258901958141743,0.25652251598276754,0.0,3.412703292862474,3.1155616317566865,36.649477749463635,35.52669499468303,0.0
0.03,0.4977598501070863,-0.2594103872649902,0.345960077177098,0.0,3.4089352497696273,3.130936565979752,36.64355707230445,35.52669499468303,0.0
0.031,0.5066355418705073,-0.2602915868538531,0.3377517949804746,0.0,3.407173352071913,3.1416772199301377,36.766146366087334,35.52669499468303,0.0
0.032,0.5126668934720269,-0.2603130864293071,0.2640626343749912,0.0,3.406655262496421,3.142569202112541,36.99872269685511,35.52669499468303,0.0
0.033,0.512845808033943,-0.2596381592109245,0.13305419196938173,0.0,3.406203723106942,3.1296867729747975,36.99149541072596,35.52669499468303,0.0
0.034,0.5054258007966591,-0.2579452364775666,0.12201983087352775,0.0,3.4043296225141515,3.118961727457113,36.74687820954617,35.52669499468303,0.0
0.035,0.5000776616795198,-0.2555393165543727,0.23212659931479274,0.0,3.401322705464653,3.1218579598019285,36.49503035562185,35.52669499468303,0.0
0.036000000000000004,0.5018134359789961,-0.2554271153477882,0.34836717266756323,0.0,3.398917820421093,3.13560485602759,36.35269490292532,35.52669499468303,0.0
0.037,0.5098029244859078,-0.25542379687441374,0.4112748999334045,0.0,3.3981288704844506,3.152632532399279,36.49166852617899,35.52669499468303,0.0
0.038,0.5188371671780236,-0.2561450586772951,0.3321383529916103,0.0,3.399200955161691,3.1576305768928155,36.73669718073184,35.52669499468303,0.0
0.039,0.5210494805680794,-0.2554166844250873,0.1975240038546986,0.0,3.4005783020347895,3.148066800423095,36.810378172020656,35.52669499468303,0.0
0.04,0.5148183995234443,-0.2541355568320037,0.14784667643691352,0.0,3.4007278962808907,3.1361863158118806,36.55064774591109,35.52669499468303,0.0
0.041,0.508392952423065,-0.251410854665614,0.2674723619794144,0.0,3.399387576678886,3.1398089261408453,36.253696711341306,35.52669499468303,0.0
0.042,0.5105341124969559,-0.2504769305538024,0.40867786209772516,0.0,3.3984680654393444,3.15697180955517,36.20043955704909,35.52669499468303,0.0
0.043000000000000003,0.5202677193868496,-0.2501967902767633,0.42856899362017375,0.0,3.399335317475833,3.1720531378132466,36.44154354992351,35.52669499468303,0.0
0.044,0.5278866291375223,-0.2505999222276696,0.29886851163055805,0.0,3.4016711230518504,3.1705063501114052,36.67692840753428,35.52669499468303,0.0
0.045,0.5258665212879835,-0.24989943879815021,0.16967374869666152,0.0,3.403537584803325,3.156731803595474,36.49378507039062,35.52669499468303,0.0
0.046,0.5176864743881066,-0.2475113840070427,0.2515745165114128,0.0,3.4035842645353322,3.155701994075736,36.15156534020831,35.52669499468303,0.0
0.047,0.5173212359230829,-0.245485728909288,0.4164356781473174,0.0,3.403324353829325,3.172053929345128,36.047904861484724,35.52669499468303,0.0
0.048,0.5267940199108064,-0.2445178704021176,0.463053818841092,0.0,3.404639419836046,3.1891784052536374,36.336541967031216,35.52669499468303,0.0
0.049,0.5353923931553406,-0.2451559510927967,0.31063679634436414,0.0,3.407615294293991,3.1866387930733677,36.553335757321044,35.52669499468303,0.0
0.05,0.532508962393604,-0.2447305918315133,0.19197349357307025,0.0,3.4099864497624663,3.1735250975932807,36.2745873415848,35.52669499468303,0.0
0.051000000000000004,0.5247720368352415,-0.24209569723795074,0.3238687779721754,0.0,3.410523535323408,3.1784772290234673,35.91943276021574,35.52669499468303,0.0
0.052000000000000005,0.5280951557617444,-0.23966116903023515,0.4975186910013766,0.0,3.411260676314359,3.2003274811184514,36.0738562998021,35.52669499468303,0.0
0.053,0.5401110453670512,-0.23950593790783073,0.4148353081570053,0.0,3.414116398274327,3.2079462341925393,36.42081136954329,35.52669499468303,0.0
0.054,0.5427499640562623,-0.2401039828267607,0.2324166095378104,0.0,3.4175157605980147,3.19567933897579,36.271887972634175,35.52669499468303,0.0
0.055,0.5347048185438603,-0.23851047360449207,0.2994263782128549,0.0,3.4191672307040184,3.1950856862467867,35.8419847558482,35.52669499468303,0.0
0.056,0.5349828726275808,-0.23521265027528174,0.51122508899419,0.0,3.420247363052531,3.2172332688961474,35.957621214283044,35.52669499468303,0.0
0.057,0.5475302962185586,-0.23429893729186346,0.4490975975807686,0.0,3.4233667102362446,3.2269446592979634,36.354913706458,35.52669499468303,0.0
0.058,0.5509888721876566,-0.23556072551070728,0.24216916437554126,0.0,3.4272931955756754,3.2136010235188364,36.12963593819173,35.52669499468303,0.0
0.059000000000000004,0.5422505626116901,-0.23393340439247065,0.3487786390735875,0.0,3.429301045598056,3.21677652621345,35.68591676318991,35.52669499468303,0.0
0.06,0.5452342865139336,-0.2297352132830654,0.5690460088894308,0.0,3.4309801330768073,3.2425829868485962,36.033511208044885,35.52669499468303,0.0
0.061,0.5590375574809281,-0.23015570071350405,0.3901806243283238,0.0,3.435160193399642,3.2426103216008744,36.32045506895638,35.52669499468303,0.0
0.062,0.5565217709674211,-0.23146757939334822,0.23877109312984413,0.0,3.439065082945898,3.2286013035501435,35.78430046305696,35.52669499468303,0.0
0.063,0.5490190451256862,-0.22713849009510054,0.5042723413958144,0.0,3.4406892631228505,3.2479030508578086,35.70164089152977,35.52669499468303,0.0
0.064,0.5609342980128792,-0.22420597055376518,0.5438526681909409,0.0,3.4438019137563094,3.2657501598411978,36.228240900903685,35.52669499468303,0.0
0.065,0.5683982124857386,-0.2269596593790704,0.27353720444177676,0.0,3.448720241190959,3.2512914406460935,35.903723109161724,35.52669499468303,0.0
0.066,0.5590408806613325,-0.22508855429914965,0.4320258191679702,0.0,3.451467505515588,3.2600112740167493,35.5231089582897,35.52669499468303,0.0
0.067,0.5655393086455576,-0.22027940973335763,0.6223687549679173,0.0,3.4543017318933824,3.2866782868770263,36.09481583760511,35.52669499468303,0.0
0.068,0.5781614007851317,-0.2231684122762542,0.33083410688098935,0.0,3.459885118644801,3.275666334585982,35.93470110461992,35.52669499468303,0.0
0.069,0.5699437578414132,-0.2226339725430337,0.4068114122742168,0.0,3.46372129309589,3.2786169279185144,35.46037214292478,35.52669499468303,0.0
0.07,0.5734712464588724,-0.21666621549722148,0.6446391216393671,0.0,3.466817800557417,3.3065871541617775,36.04409286402364,35.52669499468303,0.0
0.07100000000000001,0.5868772489169906,-0.2193867600443983,0.3476047823965326,0.0,3.4727606173677645,3.2955785687322856,35.846178996940246,35.52669499468303,0.0
0.07200000000000001,0.5786899290491054,-0.21873412119373142,0.44336687591565704,0.0,3.4769092982350838,3.3008039624163596,35.45141385864838,35.52669499468303,0.0
0.073,0.5837484960405614,-0.21238481002557474,0.6415022564219367,0.0,3.4804737525440856,3.326120640171517,36.05631600301877,35.52669499468303,0.0
0.074,0.5950646808990062,-0.2158684998031649,0.3337549741533833,0.0,3.4866601281849214,3.312234346062943,35.6467326771886,35.52669499468303,0.0
0.075,0.5861948796489939,-0.2134868963085382,0.5373462602434123,0.0,3.4905424235686313,3.3269166732079825,35.57406905295897,35.52669499468303,0.0
0.076,0.5962450714064571,-0.2083094932584413,0.5732043317754697,0.0,3.494959023827909,3.341233253078694,36.03383125841925,35.52669499468303,0.0
0.077,0.6006868131300905,-0.21226097024675702,0.3382518664079678,0.0,3.5008520585475473,3.327968393410492,35.39937994567043,35.52669499468303,0.0
0.078,0.5942195639159891,-0.20663217616610619,0.6567506732725015,0.0,3.5041706217096458,3.354759531420635,35.80067047394765,35.52669499468303,0.0
0.079,0.6089079055216331,-0.20602783266634056,0.45336565434124765,0.0,3.5098262525123802,3.351965681726128,35.717677674006275,35.52669499468303,0.0
0.08,0.6044562235049359,-0.20767477540329907,0.4929522275187015,0.0,3.514824142401455,3.3570417217580717,35.375235869488066,35.52669499468303,0.0
0.081,0.6099152667206734,-0.20051625544435941,0.6656877210297558,0.0,3.5190259406819626,3.380069973756271,35.93069427134144,35.52669499468303,0.0
0.082,0.6189897033603236,-0.20546101646455792,0.3839185273364858,0.0,3.525725893246052,3.3675500165431287,35.308283364449636,35.52669499468303,0.0
0.083,0.6127930911058941,-0.20000382259435306,0.6973080970847202,0.0,3.5298541158964927,3.3950149666313294,35.79823065168224,35.52669499468303,0.0
0.084,0.6272465145655319,-0.20020485932603638,0.4496190968984266,0.0,3.5363926972698962,3.388114715554675,35.45202081796686,35.52669499468303,0.0
0.085,0.6214451470249858,-0.1998099958552718,0.623470755523277,0.0,3.5415419500491936,3.404941604837681,35.59199952534462,35.52669499468303,0.0
0.08600000000000001,0.6324412624459658,-0.19498122722225816,0.5528283565277824,0.0,3.547331750563939,3.4098239636228485,35.63369469963668,35.52669499468303,0.0
0.08700000000000001,0.6314919191634689,-0.19836660769610656,0.5309107723322165,0.0,3.553451486444179,3.4133069452247016,35.33324345367224,35.52669499468303,0.0
0.088,0.63633901344255,-0.19046294603933178,0.6830709107245437,0.0,3.5584042903095963,3.4334677195159826,35.75662003619216,35.52669499468303,0.0
0.089,0.6432713920510189,-0.19602870236496808,0.46908336904949177,0.0,3.565569161029988,3.4263333750923555,35.1911907811359,35.52669499468303,0.0
0.09,0.6415861203885175,-0.18834868901227533,0.7551530387130924,0.0,3.570403651203925,3.454491194931837,35.780293752919064,35.52669499468303,0.0
0.091,0.6537804074211337,-0.19297480458690489,0.45806556523915054,0.0,3.5781561471911534,3.443418138735782,35.15868641381625,35.52669499468303,0.0
0.092,0.6491289929029191,-0.18625301026844998,0.7725493205992264,0.0,3.583240429429277,3.4724253240497323,35.75761424145673,35.52669499468303,0.0
0.093,0.6624001904509846,-0.18981199566124995,0.47077621431124916,0.0,3.5911757083113747,3.4611939939353524,35.13531248300573,35.52669499468303,0.0
0.094,0.6575178423626256,-0.18331997704430653,0.7858409186535231,0.0,3.5964446143920346,3.4902239435263516,35.73116335652468,35.52669499468303,0.0
0.095,0.6706500309700413,-0.18712536518267622,0.48587079827562885,0.0,3.604573137705117,3.4792370642536246,35.117479763114595,35.52669499468303,0.0
0.096,0.6663864124722845,-0.17983162683532772,0.7968047472963568,0.0,3.609949755660027,3.5079644807563666,35.69004148824935,35.52669499468303,0.0
0.097,0.6787467914918449,-0.18466910287964627,0.5088904197933164,0.0,3.6182665132180687,3.498174624011653,35.1274980767436,35.52669499468303,0.0
0.098,0.675879580121977,-0.17621159868760805,0.7941540947255858,0.0,3.6237939091242666,3.5248925732556766,35.61315002170461,35.52669499468303,0.0
0.099,0.6864957034322066,-0.1820235128000947,0.5504635719748633,0.0,3.632164245958543,3.5186364272361916,35.18467921090738,35.52669499468303,0.0
0.1,0.6861474370835059,-0.17286929247386004,0.7681191352112343,0.0,3.638006851130431,3.5403664172170513,35.48716094997629,35.52669499468303,0.0
0.101,0.6937337684526017,-0.17882955102895498,0.617273606123847,0.0,3.646185365427539,3.540900125770948,35.319675786418564,35.52669499468303,0.0
0.10200000000000001,0.697198267107215,-0.1701027469219306,0.7030863799853558,0.0,3.652579848113003,3.5528409437764905,35.25109388370341,35.52669499468303,0.0
0.10300000000000001,0.7000050956956478,-0.17434792650745767,0.7401333424527281,0.0,3.6600832021259526,3.5671700602246394,35.55667002381946,35.52669499468303,0.0
0.10400000000000001,0.7090304247367645,-0.1701960833096872,0.5870455221033412,0.0,3.667769977834812,3.5626417526575214,34.98762657302509,35.52669499468303,0.0
0.105,0.706875924485087,-0.1661759225686161,0.8769579317171045,0.0,3.6738345459665336,3.5930834449971067,35.54420955720961,35.52669499468303,0.0
0.106,0.7195831974199159,-0.17233569070920832,0.5984912939995771,0.0,3.683054602621918,3.5861376256454935,35.226569772140145,35.52669499468303,0.0
0.107,0.7198392099603699,-0.1614197006862906,0.7603124387597394,0.0,3.689395715092675,3.60149229754527,35.11259562216375,35.52669499468303,0.0
0.108,0.7242275582166059,-0.16656691379870014,0.8214405074731286,0.0,3.697313536848929,3.620571331430234,35.5774070334682,35.52669499468303,0.0
0.109,0.7344885506679001,-0.16509981816964966,0.588527681433054,0.0,3.7061346271677342,3.611217726863705,35.0093165541235,35.52669499468303,0.0
0.11,0.7323753216250803,-0.15596139623321262,0.8777467055109978,0.0,3.7121476925412864,3.638159877813907,35.19640511506531,35.52669499468303,0.0
0.111,0.7420266702770386,-0.1640348425712049,0.7875053238362701,0.0,3.721233129789051,3.6491075973393023,35.51738894818923,35.52669499468303,0.0
0.112,0.749293946195722,-0.15926635498271366,0.6271064677392489,0.0,3.729899527166462,3.642424741418472,34.96367551087928,35.52669499468303,0.0
0.113,0.7479924868730629,-0.15150266152689817,0.9095933812322625,0.0,3.736224677809794,3.6701701931573467,35.12586102187218,35.52669499468303,0.0
0.114,0.7582134018178428,-0.15946858070462544,0.8325089654639181,0.0,3.7456457466067903,3.6833321446800693,35.4906178476137,35.52669499468303,0.0
0.115,0.7658854690591268,-0.15618857117744556,0.6504913240638533,0.0,3.7550004434365905,3.6761271932868005,35.07366514613978,35.52669499468303,0.0
0.116,0.7651045700036845,-0.14683296240612426,0.8634979732862444,0.0,3.7617028585745107,3.6959917341128126,34.94121395817921,35.52669499468303,0.0
0.117,0.7722125884327694,-0.15221122450462665,0.9355783776315674,0.0,3.7704066511997887,3.719549149338025,35.365349785030304,35.52669499468303,0.0
0.11800000000000001,0.7831031984268149,-0.1542533054346507,0.7251239163025485,0.0,3.780766652366378,3.7166235205985454,35.329721103257775,35.52669499468303,0.0
0.11900000000000001,0.7845023184878187,-0.145217758329574,0.7449079961030656,0.0,3.7887837595515013,3.7192622511342477,34.848238649121946,35.52669499468303,0.0
0.12,0.7865309026719989,-0.14159624029613777,0.992433786626591,0.0,3.7959550175590544,3.7492596624348247,35.00675693687477,35.52669499468303,0.0
0.121,0.798527316558019,-0.14893999156256532,0.9183740233282601,0.0,3.8062529187155523,3.7650533068524275,35.347842710753326,35.52669499468303,0.0
0.122,0.8063755967541522,-0.14790970043870583,0.7496196592282802,0.0,3.8169136246618725,3.761731647843193,35.31644347619576,35.52669499468303,0.0
0.123,0.8072902548050224,-0.13920434750752492,0.7674217916919372,0.0,3.8252288082014436,3.7634318739578796,34.90182697293673,35.52669499468303,0.0
0.124,0.8095435802433342,-0.1343284344888433,0.9809787235389134,0.0,3.832433199095785,3.7888681177758814,34.839754835636874,35.52669499468303,0.0
0.125,0.8199825914520575,-0.14001802157350735,1.0188841937793036,0.0,3.8421353889919914,3.813389450730912,35.118280577176535,35.52669499468303,0.0
0.126,0.8309167811669788,-0.14297918758544087,0.8837054671845385,0.0,3.853588325584547,3.820081783995679,35.331444994365256,35.52669499468303,0.0
0.127,0.834972249835735,-0.13884490650521314,0.7790757585933552,0.0,3.8640808192653795,3.816755937257729,35.2849168292934,35.52669499468303,0.0
0.128,0.8356750148684599,-0.13071941902519613,0.8047576227831792,0.0,3.872339018092333,3.818646477241536,34.97222943901593,35.52669499468303,0.0
0.129,0.8384537671473135,-0.12548184577256988,0.9666459734785839,0.0,3.8794655728519833,3.8384260479439076,34.75771740635101,35.52669499468303,0.0
0.13,0.8474599100815171,-0.12836531312151517,1.0815917656943643,0.0,3.8882269863468184,3.8670025824888175,34.84853239090714,35.52669499468303,0.0
0.131,0.8601676902474613,-0.13317449213302257,1.0429658994540605,0.0,3.899470086964434,3.8868915073312134,35.02730344666892,35.52669499468303,0.0
0.132,0.8694105149108735,-0.13393861295964038,0.9585742870533123,0.0,3.911613731505343,3.896129398138138,35.16907608152327,35.52669499468303,0.0
0.133,0.8740769171046021,-0.13120222683675897,0.8912641587577322,0.0,3.923158156991069,3.8986767903352786,35.25315503277247,35.52669499468303,0.0
0.134,0.8762840828516973,-0.12618140066206335,0.8519600827522396,0.0,3.9332779521299504,3.8982774145733856,35.254569954716644,35.52669499468303,0.0
0.135,0.8778657723544956,-0.12006341635574119,0.853973872179816,0.0,3.9417230601668036,3.899392599310823,35.155122720790295,35.52669499468303,0.0
