timestamp,iq,id,iq_ref,id_ref,vq,vd,omega,omega_ref,r
0.0,0.0,0.0,0.0,0.0,0.0,0.0,0.0,444.67222294526204,0.0
0.001,0.0,0.0,10.0,0.0,0.0,1.0999999999999999,6.764237706659435,444.67222294526204,0.0
0.002,0.6166811417288717,-0.37532858246239165,10.0,0.0,0.1512861440708631,1.9221650744098238,14.320808538914115,444.67222294526204,0.0
0.003,1.403227357539917,-0.8216892951574948,10.0,0.0,0.41500657374745964,2.596888983463826,20.835012824672116,444.67222294526204,0.0
0.004,2.1616090949318405,-1.2509317499346944,10.0,0.0,0.762580414260338,3.1549560156250864,27.47147628067767,444.67222294526204,0.0
0.005,2.806536588202312,-1.6201393952383785,10.0,0.0,1.167523990373687,3.6286155217356746,34.468331584025734,444.67222294526204,0.0
0.006,3.3188824171541316,-1.9130096322446328,10.0,0.0,1.6078628091044116,4.045494668594544,41.47661631253855,444.67222294526204,0.0
0.007,3.709439226180182,-2.134610705683574,10.0,0.0,2.067303076356172,4.426881991937252,48.389038359418784,444.67222294526204,0.0
0.008,4.001012639925981,-2.2994629837746636,10.0,0.0,2.5348557890726577,4.787907102249088,55.25554976295768,444.67222294526204,0.0
0.009000000000000001,4.219127910875997,-2.42302248374085,10.0,0.0,3.003698763764047,5.138508027134345,62.127261513809046,444.67222294526204,0.0
0.01,4.387931173440149,-2.51649291666693,10.0,0.0,3.469763686097031,5.484545950827659,68.860998996152,444.67222294526204,0.0
0.011,4.524911386527557,-2.5912463518875324,10.0,0.0,3.931114082111052,5.829206783570966,75.50862372685579,444.67222294526204,0.0
0.012,4.6433527513450334,-2.6542209197372277,10.0,0.0,4.386975189909262,6.173877824642297,82.06976436151136,444.67222294526204,0.0
0.013000000000000001,4.751766220949345,-2.7105071821567646,10.0,0.0,4.837279034222439,6.518926804378015,88.56414612708093,444.67222294526204,0.0
0.014,4.855820820810124,-2.762370891194687,10.0,0.0,5.2821995374478465,6.864139399282838,94.96129448642219,444.67222294526204,0.0
0.015,4.958734763942431,-2.8108521133456037,10.0,0.0,5.721963547187415,7.209042797273774,101.24253653755886,444.67222294526204,0.0
0.016,5.062165458240309,-2.8561529521356395,10.0,0.0,6.156739775797513,7.553084019498128,107.39661145450279,444.67222294526204,0.0
0.017,5.166930523981579,-2.897845844969609,10.0,0.0,6.586575713592877,7.8957088920724985,113.40810704322465,444.67222294526204,0.0
0.018000000000000002,5.2734365073461476,-2.9351404911411154,10.0,0.0,7.011376027016665,8.236386863656273,119.25763992666919,444.67222294526204,0.0
0.019,5.381936614615142,-2.9670850802566364,10.0,0.0,7.430905064597444,8.574607117458106,124.92427957106244,444.67222294526204,0.0
0.02,5.492688197602961,-2.992673874398288,10.0,0.0,7.844798545264759,8.909860576581869,130.3859595407181,444.67222294526204,0.0
0.021,5.606030888295725,-3.010908380955355,10.0,0.0,8.252577931557575,9.241617857713656,135.61946190144442,444.67222294526204,0.0
0.022,5.722408741461409,-3.020838499207537,10.0,0.0,8.653665075276457,9.569309212420253,140.60079420254755,444.67222294526204,0.0
0.023,5.842360427484603,-3.0215907592074505,10.0,0.0,9.04739608751158,9.892309239097177,145.30570155933034,444.67222294526204,0.0
0.024,5.966492883036343,-3.012389343810433,10.0,0.0,9.43303432289721,10.209927311079467,149.7101678931845,444.67222294526204,0.0
0.025,6.095447486870792,-2.992573960375341,10.0,0.0,9.809782863918617,10.521403717535815,153.79089889716388,444.67222294526204,0.0
0.026000000000000002,6.229864047203221,-2.961616366906936,10.0,0.0,10.176797010036351,10.825911061850451,157.52582212511285,444.67222294526204,0.0
0.027,6.370345871629673,-2.919135228494604,10.0,0.0,10.533197126683097,11.122560251261808,160.89463068565584,444.67222294526204,0.0
0.028,6.517427863531686,-2.8649080382474255,10.0,0.0,10.87808197106324,11.41041033253175,163.87942406570673,444.67222294526204,0.0
0.029,6.67154879836365,-2.7988786282479,10.0,0.0,11.210542375934885,11.688481407200209,166.46554591195664,444.67222294526204,0.0
0.03,6.833028455986144,-2.721159087124771,10.0,0.0,11.529674992362663,11.955769861898844,168.6427529037869,444.67222294526204,0.0
0.031,7.002049835244859,-2.632025702473158,10.0,0.0,11.834595715717079,12.21126517762815,170.40682024025085,444.67222294526204,0.0
0.032,7.178646021372355,-2.5319099252671866,10.0,0.0,12.124452496662844,12.453967667438533,171.76147271817575,444.67222294526204,0.0
0.033,7.3626902823954445,-2.4213873433946804,10.0,0.0,12.39843752226116,12.682906679511186,172.7198235036228,444.67222294526204,0.0
0.034,7.553886895908047,-2.3011697547290244,10.0,0.0,12.655799237572406,12.897159108060253,173.3028450681946,444.67222294526204,0.0
0.035,7.751761414416288,-2.172103733012775,10.0,0.0,12.895854937705302,13.095868234384755,173.52981018810272,444.67222294526204,0.0
0.036000000000000004,7.955659834615653,-2.035161325827453,10.0,0.0,13.118002975884144,13.278261937053255,173.08397864655348,444.67222294526204,0.0
0.037,8.164294810584636,-1.8921975774472055,10.0,0.0,13.321818992261974,13.44372021011819,172.8857272920748,444.67222294526204,0.0
0.038,8.378358703838993,-1.741603576863059,10.0,0.0,13.506663531728059,13.59155357901612,172.55744832085986,444.67222294526204,0.0
0.039,8.595993806062461,-1.5857563768100458,10.0,0.0,13.672169702137339,13.721288842658838,172.97615118214364,444.67222294526204,0.0
0.04,8.814744321179624,-1.4279629528778264,10.0,0.0,13.818299977237949,13.832714991337554,173.9971388676852,444.67222294526204,0.0
0.041,9.030280431926295,-1.2746954140783933,10.0,0.0,13.945678344667758,13.926090085627498,174.7859347389517,444.67222294526204,0.0
0.042,9.244381843550936,-1.1221891900834642,10.0,0.0,14.05441337553213,14.001469713060185,179.42356891788543,444.67222294526204,0.0
0.043000000000000003,9.430755474550674,-1.0143673050348485,10.0,0.0,14.149477520937936,14.061824795542313,181.74534603380795,444.67222294526204,0.0
0.044,9.507031162443374,-1.0851673842980998,10.0,0.0,14.249936987620814,14.11912419495861,183.67720383487784,444.67222294526204,0.0
0.045,9.551892190495762,-1.1951267779472512,10.0,0.0,14.35746798008581,14.176567644894728,186.19789471791717,444.67222294526204,0.0
0.046,9.570020917076299,-1.3336863934473717,10.0,0.0,14.474132182066437,14.2374742994404,188.97129851516607,444.67222294526204,0.0
0.047,9.571942896916333,-1.4832389462433708,10.0,0.0,14.60028581395613,14.303926578212968,192.525703315656,444.67222294526204,0.0
0.048,9.558245775990827,-1.6446887041068887,10.0,0.0,14.736733258371139,14.377874895397458,196.69830433441322,444.67222294526204,0.0
0.049,9.531163671129704,-1.8168096219339693,10.0,0.0,14.884249593445439,14.460915185630467,201.41374684944034,444.67222294526204,0.0
0.05,9.49269005603799,-1.9985914755395333,10.0,0.0,15.043593118753948,14.55436435695908,206.68361465271423,444.67222294526204,0.0
0.051000000000000004,9.4444951665158,-2.1890171594949543,10.0,0.0,15.215476215363509,14.65931966538221,212.60129440100476,444.67222294526204,0.0
0.052000000000000005,9.388372724864144,-2.386151011143229,10.0,0.0,15.400446999996186,14.776659272310441,219.1654407288827,444.67222294526204,0.0
0.053,9.326349626631167,-2.5869360533849113,10.0,0.0,15.598769682988515,14.907023313398227,226.10852844636554,444.67222294526204,0.0
0.054,9.25934241496337,-2.789697717829757,10.0,0.0,15.810592434456915,15.050933780977598,233.19447028422942,444.67222294526204,0.0
0.055,9.18734141183719,-2.9940347403003558,10.0,0.0,16.03607341336372,15.208885515173067,240.36551840266824,444.67222294526204,0.0
0.056,9.110790110131397,-3.1985000527860374,10.0,0.0,16.275249281948117,15.381290806996052,247.60891513006865,444.67222294526204,0.0
0.057,9.031941551711924,-3.398225168854038,10.0,0.0,16.527673202498995,15.568280984904263,252.3867961521102,444.67222294526204,0.0
0.058,8.952829208714222,-3.5886535038928526,10.0,0.0,16.79250361447919,15.769728409222287,254.90440039399908,444.67222294526204,0.0
0.059000000000000004,8.852244616754886,-3.8068197000636266,10.0,0.0,17.073089725921573,15.98778731399208,263.8161713342049,444.67222294526204,0.0
0.06,8.751011834069171,-4.016396976110739,10.0,0.0,17.368294955100165,16.222228699604972,272.63933118843676,444.67222294526204,0.0
0.061,8.66640551243371,-4.185937314316591,10.0,0.0,17.673977464364363,16.47104083712747,278.56765623857245,444.67222294526204,0.0
0.062,8.588885499195042,-4.331704720207284,10.0,0.0,17.98831194772031,16.733221150064043,284.8531402632122,444.67222294526204,0.0
0.063,8.507565074162777,-4.474278710907257,10.0,0.0,18.311656478952408,17.008786926663714,291.42354151637494,444.67222294526204,0.0
0.064,8.448949868083082,-4.570292835133125,10.0,0.0,18.639358948479106,17.29476504714507,296.81942008521,444.67222294526204,0.0
0.065,8.408595150234241,-4.629538138874999,10.0,0.0,18.968445825270617,17.58876846943354,301.3538751937403,444.67222294526204,0.0
0.066,8.392492333600092,-4.645724763020734,10.0,0.0,19.295212432230446,17.887647999823585,303.7801475195254,444.67222294526204,0.0
0.067,8.399055935126015,-4.626229235370065,10.0,0.0,19.61688395725026,18.188433213536406,305.8945660177355,444.67222294526204,0.0
0.068,8.433330606299721,-4.568179260423913,10.0,0.0,19.930276309171802,18.48760248056609,309.46747196948195,444.67222294526204,0.0
0.069,8.510358008919285,-4.452099400638264,10.0,0.0,20.2300580677772,18.780063788508528,312.73492702945316,444.67222294526204,0.0
0.07,8.638869719528337,-4.268656778994144,10.0,0.0,20.510089891533305,19.059891127376474,309.71014893089875,444.67222294526204,0.0
0.07100000000000001,8.81550230621768,-4.02822855142715,10.0,0.0,20.765488587984667,19.321594447303497,303.76291729668117,444.67222294526204,0.0
0.07200000000000001,9.007973325257138,-3.7887943666615946,10.0,0.0,20.997584268735054,19.5632618186555,300.5759539432892,444.67222294526204,0.0
0.073,9.23302584095427,-3.528367650024638,10.0,0.0,21.20438452156319,19.781140954411057,300.2147335119244,444.67222294526204,0.0
0.074,9.506896502711681,-3.221692874848715,10.0,0.0,21.381162704581087,19.970036954237532,298.44721230656137,444.67222294526204,0.0
0.075,9.821761019311191,-2.880231736830511,10.0,0.0,21.524658691849606,20.12582478217477,295.80588265381687,444.67222294526204,0.0
0.076,10.162785171123772,-2.526390851790497,10.0,0.0,21.63387597721076,20.246019414511753,292.1152826598499,444.67222294526204,0.0
0.077,10.525640081398679,-2.1647226543757605,10.0,0.0,21.707945904404294,20.328612513539035,286.4467277099106,444.67222294526204,0.0
0.078,10.904141772833013,-1.801145613604575,10.0,0.0,21.74649135627051,20.372346658427915,279.7627117293607,444.67222294526204,0.0
0.079,11.28989927609096,-1.444117829464481,10.0,0.0,21.749918391591297,20.376913625570502,272.37417013474004,444.67222294526204,0.0
0.08,11.677268661219657,-1.0969900552533942,10.0,0.0,21.718845642772454,20.342613542199334,264.4869968297531,444.67222294526204,0.0
0.081,12.061651373156476,-0.760861143275201,10.0,0.0,21.653947257922876,20.270227787821618,263.70894520612717,444.67222294526204,0.0
0.082,12.341127888918042,-0.6014714563650274,10.0,0.0,21.574128559680155,20.171692180782326,269.2170575548978,444.67222294526204,0.0
0.083,12.420487732694516,-0.7489020317511992,10.0,0.0,21.510249430719345,20.0690934469649,275.90166957207043,444.67222294526204,0.0
0.084,12.398281761845736,-1.0209528059179807,10.0,0.0,21.470949620677374,19.973602928864263,283.42514838300696,444.67222294526204,0.0
0.085,12.309782769751557,-1.352451807483718,10.0,0.0,21.45977512226009,19.89324431099136,290.7050812428194,444.67222294526204,0.0
0.08600000000000001,12.176143093444852,-1.7081059501217415,10.0,0.0,21.477489177571776,19.833619479536807,297.8176245160285,444.67222294526204,0.0
0.08700000000000001,12.007783015566927,-2.074947342994859,10.0,0.0,21.524265355996487,19.79891174856239,304.5258338539004,444.67222294526204,0.0
0.088,11.81275125115276,-2.445721420943258,10.0,0.0,21.60000987812689,19.792122301834674,310.6072404344098,444.67222294526204,0.0
0.089,11.596431960913458,-2.8175449979612037,10.0,0.0,21.70469385606397,19.81543105627494,315.7729955566873,444.67222294526204,0.0
0.09,11.360814338215214,-3.192415993147542,10.0,0.0,21.838757885351676,19.8706320786593,320.96864198446207,444.67222294526204,0.0
0.091,11.109250625462378,-3.568644502180223,10.0,0.0,22.00257203999079,19.959035233909827,327.2369628702735,444.67222294526204,0.0
0.092,10.845724411449035,-3.9420686354662124,10.0,0.0,22.196159464262177,20.081451735513152,336.87978767229447,444.67222294526204,0.0
0.093,10.581382299923527,-4.294818875395809,10.0,0.0,22.417698081326147,20.237427699510963,347.5758487571592,444.67222294526204,0.0
0.094,10.337647556593433,-4.590158318772713,10.0,0.0,22.66164026945567,20.42412732946644,354.21150172287383,444.67222294526204,0.0
0.095,10.114040587369566,-4.830259312491825,10.0,0.0,22.923315916643126,20.638710634420647,357.1744124490583,444.67222294526204,0.0
0.096,9.898457231829823,-5.040485606559492,10.0,0.0,23.201006212017504,20.879481273015312,362.96958113696496,444.67222294526204,0.0
0.097,9.702102011075077,-5.208661996198488,10.0,0.0,23.491401681633516,21.143387118015568,370.80980879570245,444.67222294526204,0.0
0.098,9.562942086561804,-5.27743941700686,10.0,0.0,23.785031941180495,21.42328596496632,374.95063988759273,444.67222294526204,0.0
0.099,9.490212698782013,-5.2392832752084875,10.0,0.0,24.072404109661942,21.71116658658733,370.3756140979808,444.67222294526204,0.0
0.1,9.466911364445256,-5.134354422945136,10.0,0.0,24.348666511126357,22.000832215793636,368.7725151084815,444.67222294526204,0.0
0.101,9.479384167976612,-4.999758059418321,10.0,0.0,24.612512923899654,22.287552500493927,373.5661296605735,444.67222294526204,0.0
0.10200000000000001,9.591307872348318,-4.743362857302152,10.0,0.0,24.851789215268134,22.55979851855595,374.85046096693117,444.67222294526204,0.0
0.10300000000000001,9.797206765564473,-4.381429749257739,10.0,0.0,25.057113789442244,22.807217922738563,368.0539323950395,444.67222294526204,0.0
0.10400000000000001,10.076214013869413,-3.9558419723788703,10.0,0.0,25.223452522240983,23.02179603553894,358.4487824667126,444.67222294526204,0.0
0.105,10.408583692084132,-3.504700238251105,10.0,0.0,25.349245480054602,23.197779618218583,348.8213259161189,444.67222294526204,0.0
0.106,10.790377177742245,-3.0371362509099664,10.0,0.0,25.43313687908859,23.33007055177138,339.2913521747121,444.67222294526204,0.0
0.107,11.221055963938326,-2.5510622889163215,10.0,0.0,25.473075735628555,23.4139648002473,332.5869430371056,444.67222294526204,0.0
0.108,11.688717987621352,-2.058541438219086,10.0,0.0,25.46809357740537,23.44632747478646,326.14586860381735,444.67222294526204,0.0
0.109,12.184109152750464,-1.5645760586483437,10.0,0.0,25.41743491921261,23.42513925812202,321.14079950124614,444.67222294526204,0.0
0.11,12.68591803062798,-1.0923794657498256,10.0,0.0,25.32272133374954,23.3507589323895,313.6518845917796,444.67222294526204,0.0
0.111,13.17495887312064,-0.6622612995906012,10.0,0.0,25.187450041911013,23.22556887678852,315.9590935902716,444.67222294526204,0.0
0.112,13.598974904291092,-0.35149941789093386,10.0,0.0,25.023304248370863,23.05761934255995,318.53291607582844,444.67222294526204,0.0
0.113,13.696563985234626,-0.5563035025724341,10.0,0.0,24.884414148893832,22.883555543808146,323.9445431090225,444.67222294526204,0.0
0.114,13.670926149299012,-0.9037132428564254,10.0,0.0,24.778173710073744,22.716805167746173,331.30157844785487,444.67222294526204,0.0
0.115,13.547961091990455,-1.335081808342724,10.0,0.0,24.709858722330125,22.56937556335297,338.81028181024385,444.67222294526204,0.0
0.116,13.354266183267166,-1.8043179120024484,10.0,0.0,24.68093455866925,22.449934210011193,346.1587342332828,444.67222294526204,0.0
0.117,13.106185381350762,-2.2897758886463726,10.0,0.0,24.691666692434524,22.364896514761092,353.111714382938,444.67222294526204,0.0
0.11800000000000001,12.815833273873364,-2.7801184310306906,10.0,0.0,24.74190494319409,22.318893726215876,359.65614510401,444.67222294526204,0.0
0.11900000000000001,12.493178766104421,-3.267862901803211,10.0,0.0,24.831267556384315,22.315103516380944,365.9155759141847,444.67222294526204,0.0
0.12,12.145629152285476,-3.748722372406774,10.0,0.0,24.959331984330692,22.355632501290923,372.8315183142062,444.67222294526204,0.0
0.121,11.783247963789842,-4.21216952604906,10.0,0.0,25.124813460168046,22.441301465100874,380.8846632991378,444.67222294526204,0.0
0.122,11.417229694493008,-4.644347988261508,10.0,0.0,25.325218844109607,22.571589877851252,393.2251510314005,444.67222294526204,0.0
0.123,11.066382860938198,-5.017711935621754,10.0,0.0,25.55536078051955,22.743822956718816,400.61784563429444,444.67222294526204,0.0
0.124,10.764655223002942,-5.278693405506366,10.0,0.0,25.804686153388964,22.95152849317795,402.981601626822,444.67222294526204,0.0
0.125,10.48499707752965,-5.48228421980112,10.0,0.0,26.069634717490917,23.19114113290081,406.15113864743097,444.67222294526204,0.0
0.126,10.244196070685478,-5.614345812525193,10.0,0.0,26.344540556211673,23.45697889435972,413.1532586582454,444.67222294526204,0.0
0.127,10.084968538952264,-5.617714215443965,10.0,0.0,26.617589495600058,23.738830481967025,416.17983602927876,444.67222294526204,0.0
0.128,10.034674258052494,-5.461826598734103,10.0,0.0,26.87433737794306,24.023741900334066,408.06154927035857,444.67222294526204,0.0
0.129,10.05946689076458,-5.220941002039152,10.0,0.0,27.10896307441913,24.30260683269139,399.04992142919906,444.67222294526204,0.0
0.13,10.146411187269903,-4.937428724934555,10.0,0.0,27.319235199968766,24.567731895172113,401.3138992074483,444.67222294526204,0.0
0.131,10.354302798891709,-4.531945710180252,10.0,0.0,27.493224610359583,24.80537302964639,400.14879458695293,444.67222294526204,0.0
0.132,10.676322082419206,-4.022048096265461,10.0,0.0,27.621545285775667,25.00330578664052,394.80549418036935,444.67222294526204,0.0
0.133,11.091188480414436,-3.446049691202806,10.0,0.0,27.698566320931803,25.151862224532636,384.7854906221898,444.67222294526204,0.0
0.134,11.567759949339163,-2.8538356953867825,10.0,0.0,27.723357340872404,25.24499092454939,374.60186425600835,444.67222294526204,0.0
0.135,12.09088658627633,-2.265163985497515,10.0,0.0,27.696150380690963,25.278507641184685,364.23612691080064,444.67222294526204,0.0
0.136,12.644977106340871,-1.694494292004256,10.0,0.0,27.618128839005827,25.250233299300582,353.1853295344299,444.67222294526204,0.0
0.137,13.216147750269943,-1.1494987937745869,10.0,0.0,27.49083920943046,25.15969637180482,340.68394124737176,444.67222294526204,0.0
0.138,13.791381714890782,-0.6340614183609858,10.0,0.0,27.31597669374986,25.0079201444321,338.9919532184903,444.67222294526204,0.0
0.139,14.327487656589797,-0.20245594714187742,10.0,0.0,27.10110057882007,24.8006159742879,344.7523020912083,444.67222294526204,0.0
0.14,14.449085596772603,-0.43091471078605625,10.0,0.0,26.916428177081897,24.584539895662026,351.70117343028056,444.67222294526204,0.0
0.14100000000000001,14.41856527134443,-0.8385360695104804,10.0,0.0,26.771169169478206,24.376177399923854,359.74028379546996,444.67222294526204,0.0
0.14200000000000002,14.27163124095706,-1.343428145838626,10.0,0.0,26.67106172786992,24.18998279308746,368.0387902966357,444.67222294526204,0.0
0.14300000000000002,14.036089990989417,-1.8949057638207352,10.0,0.0,26.61795918695357,24.03683709996644,375.9818440394601,444.67222294526204,0.0
0.14400000000000002,13.732671422229526,-2.4642203305411554,10.0,0.0,26.611962156976176,23.924716352129803,383.2583697752272,444.67222294526204,0.0
0.145,13.376591203076106,-3.036418511263384,10.0,0.0,26.6526014094251,23.85934261449836,390.5535912493046,444.67222294526204,0.0
0.146,12.98228927283774,-3.598538074865468,10.0,0.0,26.73875053305499,23.844382586009644,397.7601863248587,444.67222294526204,0.0
0.147,12.561231730642241,-4.141658984221957,10.0,0.0,26.868910845866214,23.881906783071912,405.6014506551159,444.67222294526204,0.0
0.148,12.129607971806298,-4.647284078184032,10.0,0.0,27.039995098344807,23.971962629759073,414.2331002021362,444.67222294526204,0.0
0.149,11.702369177778086,-5.0983319314841005,10.0,0.0,27.247535523167638,24.11280134678012,427.18982475140245,444.67222294526204,0.0
