timestamp,iq,id,iq_ref,id_ref,vq,vd,omega,omega_ref,r
0.0,0.0,0.0,0.0,0.0,0.0,0.0,0.0,42.27468960723096,0.0
0.001,0.0,0.0,10.0,0.0,0.0,1.0999999999999999,7.079886990453187,42.27468960723096,0.0
0.002,0.5954930696175954,-0.3484872508964726,10.0,0.0,0.14833359759861203,1.9244957623420644,13.855933799379866,42.27468960723096,0.0
0.003,1.1652033657766208,-0.6743607715592,10.0,0.0,0.39664462643550463,2.6246621063284667,20.661569165978882,42.27468960723096,0.0
0.004,1.6267704193648775,-0.9391456823127955,10.0,0.0,0.7160087917636162,3.2345676458668002,27.75094563134986,42.27468960723096,0.0
0.005,1.9862163858051816,-1.1451105749363677,8.158817189853979,0.0,1.0844353835938072,3.5779655530954972,33.64978095468897,42.27468960723096,0.0
0.006,2.156765123867677,-1.241451671187894,5.295648614709844,0.0,1.458896978625281,3.612163712097479,37.670378774905274,42.27468960723096,0.0
0.007,2.1043480951331843,-1.209293691966632,3.3313928129249497,0.0,1.7948314413769515,3.500423122798932,40.40196041145086,42.27468960723096,0.0
0.008,1.9224300067616737,-1.1022435607239007,1.9843292866099587,0.0,2.0745444642791115,3.324402428262127,42.21552533206105,42.27468960723096,0.0
0.009000000000000001,1.686819436483345,-0.9647771645664512,1.0781384690565627,0.0,2.294633313172483,3.131842732648397,43.360286929707435,42.27468960723096,0.0
0.01,1.4462673000774078,-0.82411863569005,0.49490169700860487,0.0,2.4593595334003164,2.9495583840375055,44.22747072576763,42.27468960723096,0.0
0.011,1.227842117889842,-0.6952062561313777,0.04178198779314002,0.0,2.576610920281586,2.779585540693837,43.794113218254985,42.27468960723096,0.0
0.012,1.0383278021156694,-0.5804850081708052,0.2432665054392229,0.0,2.6538096706602863,2.68369193731917,43.13890214556149,42.27468960723096,0.0
0.013000000000000001,0.9058378289617165,-0.5068524496745336,0.5622299164026661,0.0,2.706746816708665,2.650857453238551,44.18869988339139,42.27468960723096,0.0
0.014,0.8322047732910557,-0.46703620923873845,0.01819094472610905,0.0,2.7474633388811696,2.5703409475690084,44.91134443168784,42.27468960723096,0.0
0.015,0.7567321846368669,-0.4180348667883494,-0.36949787766668163,0.0,2.7710645730042835,2.4723080181324835,43.767780922484725,42.27468960723096,0.0
0.016,0.6755845993477376,-0.3661764745851534,0.18735296378233668,0.0,2.7772879810535875,2.4597404943305046,42.95681859900259,42.27468960723096,0.0
0.017,0.6414031580285906,-0.3487824976336837,0.586012835605689,0.0,2.780237542375133,2.490284623891947,43.684252274805424,42.27468960723096,0.0
0.018000000000000002,0.6453240631274066,-0.3540461279668328,0.20820037102852662,0.0,2.7866994996268293,2.471750212833618,44.53983392971688,42.27468960723096,0.0
0.019,0.6352872381645155,-0.3446582786812211,-0.24224189965205956,0.0,2.789576520322774,2.4110881732741047,43.66701303344403,42.27468960723096,0.0
0.02,0.6001126472909211,-0.3181392769294086,0.18024531422223422,0.0,2.7832764232933296,2.4115268927195825,42.71783065335326,42.27468960723096,0.0
0.021,0.5904968865632327,-0.31319674438233286,0.6504050938063953,0.0,2.777371719348717,2.4594904219043916,43.14952534240478,42.27468960723096,0.0
0.022,0.6131380367398751,-0.32974301499700687,0.425809391928898,0.0,2.7787233538101326,2.4700733186471853,44.07837163880856,42.27468960723096,0.0
0.023,0.6249420478775292,-0.3349186296132649,-0.05665057658876971,0.0,2.781401969401327,2.427836419920297,43.77382847504994,42.27468960723096,0.0
0.024,0.606474611908474,-0.3174356921970364,0.08062961661235213,0.0,2.7776141542987656,2.41216595163049,42.80890909797605,42.27468960723096,0.0
0.025,0.5934617119591844,-0.30727185905967774,0.5577471102418465,0.0,2.771694881606532,2.450040615661371,42.57036312189438,42.27468960723096,0.0
0.026000000000000002,0.6094710523930181,-0.31969743434732345,0.674063363136046,0.0,2.7716234541996245,2.489668342454793,43.523382324775994,42.27468960723096,0.0
0.027,0.6345352427758879,-0.33478082113737095,0.185066834519789,0.0,2.7770568590067786,2.4677764056136753,44.14092971214606,42.27468960723096,0.0
0.028,0.6298766745719614,-0.3260163703750971,-0.14236926021439533,0.0,2.7786428061973565,2.4182520822090474,43.22769430898765,42.27468960723096,0.0
0.029,0.6023394453994253,-0.30428350863761705,0.3047183943472429,0.0,2.7728147560449123,2.429275298340001,42.43405826423116,42.27468960723096,0.0
0.03,0.6011467711743488,-0.3029154161315895,0.6999427301554856,0.0,2.7687386709625197,2.47747301010894,42.678805313719074,42.27468960723096,0.0
0.031,0.6262355542487675,-0.31941573192195705,0.5735280483466481,0.0,2.7717186812272616,2.499813790955253,43.453327538779725,42.27468960723096,0.0
0.032,0.6441225494031638,-0.32886083111512143,0.17448055650083527,0.0,2.777508726303504,2.475870735822219,43.899437955520966,42.27468960723096,0.0
0.033,0.6363350191454836,-0.31784924186131763,-0.06482213535268544,0.0,2.779019735548969,2.433603667804572,43.0767565617355,42.27468960723096,0.0
0.034,0.6119092937721591,-0.2978987697485013,0.338497891995002,0.0,2.7740685010282515,2.4450815919285063,42.226411735840905,42.27468960723096,0.0
0.035,0.6121228396884731,-0.2962170055804739,0.7641530836562002,0.0,2.7707746930346446,2.497437723692703,42.41273155663727,42.27468960723096,0.0
0.036000000000000004,0.6396499976291132,-0.3137863042552983,0.6696127537639553,0.0,2.774995319512728,2.5265470213620507,43.08646585237105,42.27468960723096,0.0
0.037,0.6613579513327721,-0.3257160799032113,0.3246278434456644,0.0,2.7828413954444593,2.5140519117481883,43.675890504189724,42.27468960723096,0.0
0.038,0.6595351507239013,-0.319776834883566,0.01590350856673939,0.0,2.787880738112993,2.4734986805593993,43.410168719150334,42.27468960723096,0.0
0.039,0.6374103552481301,-0.29993925528134563,0.13740960996724028,0.0,2.786238082089746,2.456373120755433,42.73776882091463,42.27468960723096,0.0
0.04,0.6229837097217972,-0.28706284853655184,0.468978766948255,0.0,2.7818291067425225,2.4774190806365826,42.14086048600044,42.27468960723096,0.0
0.041,0.6312577639107142,-0.28997081955302517,0.7687712256176551,0.0,2.780414265797395,2.524526613462675,42.27065072897647,42.27468960723096,0.0
0.042,0.6583492815662222,-0.30579521239336127,0.7039164929121857,0.0,2.7855632657316622,2.5537526373271344,42.76728179942951,42.27468960723096,0.0
0.043000000000000003,0.6798517654680518,-0.3170421073880204,0.4506750357636795,0.0,2.794198882579959,2.551268587786647,43.29436047064738,42.27468960723096,0.0
0.044,0.6827873722601205,-0.3146353602167205,0.17693899152057946,0.0,2.8013453216505866,2.5222100626816717,43.47880631510133,42.27468960723096,0.0
0.045,0.6675149744175988,-0.29920955182512154,0.07267490221490225,0.0,2.8031984928522906,2.4897496644436607,43.10613342120055,42.27468960723096,0.0
0.046,0.6467336873049028,-0.2806411621208223,0.250696911025595,0.0,2.7997320423264673,2.4834789026158273,42.48875019966736,42.27468960723096,0.0
0.047,0.6395267106885679,-0.2714717470159325,0.5572479158678287,0.0,2.7951622089059476,2.5100139169194033,41.88421068359292,42.27468960723096,0.0
0.048,0.6532035924045856,-0.2768146456878604,0.8634224631414288,0.0,2.794382273262798,2.562475609847317,41.839777305784494,42.27468960723096,0.0
0.049,0.6847719300519405,-0.2946285605467038,0.8899882750601055,0.0,2.800832602124509,2.6061378854323958,42.33429680844365,42.27468960723096,0.0
0.05,0.7152813898197097,-0.3102192772465082,0.642132451718399,0.0,2.812540965346947,2.6155088104603825,42.69932304058377,42.27468960723096,0.0
0.051000000000000004,0.725788709534138,-0.31295968118499584,0.4553730013148124,0.0,2.824161122016174,2.606197787425925,43.04128458499838,42.27468960723096,0.0
0.052000000000000005,0.7211265202480364,-0.3056797508183936,0.27672627932983374,0.0,2.8328599643353223,2.5818142514661413,43.39818467545043,42.27468960723096,0.0
0.053,0.7053925857889285,-0.29102774365487216,0.08704128342161366,0.0,2.8367116473422556,2.543344181901836,43.213479174231594,42.27468960723096,0.0
0.054,0.6809932127812269,-0.2702576430997378,0.1700061383610254,0.0,2.8341929641026367,2.5226558632833296,43.03675909146242,42.27468960723096,0.0
0.055,0.6654982648874634,-0.2549982523312532,0.25074548490329707,0.0,2.8283864853461465,2.5132966383112034,42.56422355266856,42.27468960723096,0.0
0.056,0.6589577119789175,-0.24661069814685713,0.48411791484585276,0.0,2.821454694915494,2.5297207731299025,42.29876245101938,42.27468960723096,0.0
0.057,0.6693780609678437,-0.24795433362147462,0.6166077372325586,0.0,2.8170901724538293,2.5548378276689108,42.0412918866956,42.27468960723096,0.0
0.058,0.6882693849070798,-0.25444877449104436,0.7476769965997997,0.0,2.8163747598331375,2.588125602670955,41.72118720780479,42.27468960723096,0.0
0.059000000000000004,0.7127506417510181,-0.2642247222243603,0.9132643600394685,0.0,2.820070075816688,2.6324129512819754,41.648428455659,42.27468960723096,0.0
0.06,0.7429665311303286,-0.2780052809321629,0.9559063476280821,0.0,2.8292426970435107,2.672596906367315,41.78923681836332,42.27468960723096,0.0
0.061,0.7710813950444612,-0.2901908036891167,0.8903566941645986,0.0,2.8427190535723716,2.699252370173172,41.85066021210555,42.27468960723096,0.0
0.062,0.790212500315983,-0.2965568064630279,0.863885291244737,0.0,2.858091725906494,2.720510292524053,42.181788282167034,42.27468960723096,0.0
0.063,0.8036581207220233,-0.29875023686195185,0.6992502694646355,0.0,2.8742305405584343,2.722046844314697,42.21743010242535,42.27468960723096,0.0
0.064,0.8046897437104419,-0.2936049996009747,0.6820019543835353,0.0,2.8883212185215483,2.7248136356256847,42.246629627787115,42.27468960723096,0.0
0.065,0.8036684430384015,-0.28707293748770935,0.6676827914970894,0.0,2.9006124333596,2.727432850138996,42.273844413401854,42.27468960723096,0.0
0.066,0.8026713156582799,-0.28036179367350617,0.6540838506280113,0.0,2.9112635429667484,2.7297660438231404,42.29126551942908,42.27468960723096,0.0
0.067,0.8021396345940948,-0.27376265042561904,0.6452075384924157,0.0,2.920424066662471,2.7321391378166195,42.17019150004707,42.27468960723096,0.0
0.068,0.8022046408310984,-0.26762639194885224,0.706789529255262,0.0,2.9282968503880027,2.7420412893888777,42.338235867000876,42.27468960723096,0.0
0.069,0.8071190542678008,-0.2638782735989685,0.6221318831806588,0.0,2.9360216404644874,2.741272407784963,42.38303029297638,42.27468960723096,0.0
0.07,0.807738588933173,-0.2575774261513305,0.598651263335453,0.0,2.9422414513371926,2.739597596948039,42.46312118970051,42.27468960723096,0.0
0.07100000000000001,0.8071632884944615,-0.2506328741998544,0.5567214991486926,0.0,2.9469709077987476,2.7344042588148962,42.608393664892894,42.27468960723096,0.0
0.07200000000000001,0.8047795707731297,-0.24289962045546118,0.48074822097588066,0.0,2.9499268724084646,2.7225218931290414,42.80383325180314,42.27468960723096,0.0
0.073,0.7989418395653203,-0.23319314391988816,0.37773699107503533,0.0,2.9504086241071557,2.7021701712210255,42.94625032838993,42.27468960723096,0.0
0.074,0.787303002301467,-0.22268456627360467,0.2998128455700514,0.0,2.94774814966944,2.6775821477540855,42.811992345806665,42.27468960723096,0.0
0.075,0.7727208082753263,-0.21143815158119486,0.3615688094759265,0.0,2.9417629004891,2.664246929645001,42.472010588256325,42.27468960723096,0.0
0.076,0.7646237802780187,-0.20383166677431813,0.5295864784408433,0.0,2.9343184052340536,2.6702559435153157,42.024422629910354,42.27468960723096,0.0
0.077,0.7695657152021784,-0.202925106869148,0.7558831273870343,0.0,2.9281956041500425,2.697507478045895,41.512201300319255,42.27468960723096,0.0
0.078,0.7896157508152648,-0.20943249952689694,1.0196186752517011,0.0,2.9261351154188957,2.74601343822247,41.09892447543072,42.27468960723096,0.0
0.079,0.8252196168588346,-0.22179311364135162,1.2380147390139709,0.0,2.9304258652045325,2.8071330401348127,41.39234098059704,42.27468960723096,0.0
0.08,0.870464467895249,-0.23756303353569402,1.1001299726971498,0.0,2.9420105852500735,2.840597576948442,42.04604119992458,42.27468960723096,0.0
0.081,0.9002154501394312,-0.24608867866034795,0.7755663471064438,0.0,2.9565634087371913,2.8347308213969584,42.58338361263229,42.27468960723096,0.0
0.082,0.9029616784261378,-0.24098198575340113,0.5038082006985762,0.0,2.968427281649439,2.8042536886112797,42.75655230734433,42.27468960723096,0.0
0.083,0.8844764871335677,-0.22728299944105057,0.41240522634142285,0.0,2.9746012324266045,2.772734744005235,42.143482805898955,42.27468960723096,0.0
0.084,0.8616411783061452,-0.21150767150542887,0.7202520450774297,0.0,2.9754075974556544,2.782089300800134,41.332168573373984,42.27468960723096,0.0
0.085,0.8631018278522403,-0.20578463840723493,1.135334371678485,0.0,2.9765970012998437,2.8327806016188597,41.173048565823024,42.27468960723096,0.0
0.08600000000000001,0.8949980006481943,-0.21300168845059853,1.2259107858680445,0.0,2.983587700677239,2.880840322522879,42.03039024372662,42.27468960723096,0.0
0.08700000000000001,0.9310590399456029,-0.22377156476281673,0.7996829405512889,0.0,2.995797818101207,2.8733545615527425,42.6454751140591,42.27468960723096,0.0
0.088,0.9345463432792818,-0.2212180088465756,0.48843265031676686,0.0,3.005649757771855,2.837840141975655,42.15287517542309,42.27468960723096,0.0
0.089,0.9140731077537133,-0.20774673779134833,0.7359507639528514,0.0,3.009508757260818,2.8394887826668054,41.137372239536276,42.27468960723096,0.0
0.09,0.911768829789661,-0.19892426453996492,1.2550754055732056,0.0,3.0123109615228993,2.896035726900405,41.41517704050327,42.27468960723096,0.0
0.091,0.9461577753231908,-0.20563586783276205,1.124768130756984,0.0,3.0213141408768536,2.923877323702536,42.49893213828013,42.27468960723096,0.0
0.092,0.9701208745819013,-0.2122060769366263,0.5806481565580628,0.0,3.0328567689441233,2.888992902883007,42.17633549213598,42.27468960723096,0.0
0.093,0.9546181478070896,-0.20238258261821063,0.7429300207810869,0.0,3.038610405656649,2.8839883226964975,41.006899221280676,42.27468960723096,0.0
0.094,0.9498841451182697,-0.19186746580306263,1.3403260600682434,0.0,3.0422297927727886,2.94451602290727,41.67313594089443,42.27468960723096,0.0
0.095,0.9858673214175862,-0.19885663015150573,1.0132232369247305,0.0,3.0524139704448716,2.953392131450108,42.584455610576704,42.27468960723096,0.0
0.096,0.9984956884565475,-0.2017877037236826,0.5544657420501374,0.0,3.0627198676534855,2.9141774620898087,41.413168006942804,42.27468960723096,0.0
0.097,0.9790448917205854,-0.1882181829291883,1.1487247598699688,0.0,3.066551750182091,2.9521367876066718,41.15164685551702,42.27468960723096,0.0
0.098,0.9997061224539636,-0.18593955365127113,1.2907157630999995,0.0,3.073681422996897,2.9938925456537833,42.53097043295597,42.27468960723096,0.0
0.099,1.0282279263429415,-0.19472934701073613,0.5984911661232764,0.0,3.0852633678972534,2.951690293357472,41.48784605149945,42.27468960723096,0.0
0.1,1.0103082487589121,-0.18336512553605655,1.127921792408849,0.0,3.090128930782134,2.982282458215139,41.11341104448545,42.27468960723096,0.0
0.101,1.0274459575672523,-0.1789122130264998,1.326752081543304,0.0,3.097190975702989,3.0248146436727033,42.533861028347026,42.27468960723096,0.0
0.10200000000000001,1.0551353151963867,-0.18811177457162315,0.6139353754013569,0.0,3.1088565155725743,2.9805272222585186,41.12831313532029,42.27468960723096,0.0
0.10300000000000001,1.036661197177202,-0.17503760975647775,1.3281730866338313,0.0,3.1133966055686644,3.0298384588281047,41.59998232927792,42.27468960723096,0.0
0.10400000000000001,1.0642222241660022,-0.17554888852739564,1.0990855624345466,0.0,3.1226007925350574,3.0391141218171343,42.17410930273637,42.27468960723096,0.0
0.105,1.0741583055934367,-0.1792282971887043,0.8130278787502684,0.0,3.1322117492687482,3.0183898085534917,40.66754222755674,42.27468960723096,0.0
0.106,1.067787017164963,-0.16624465567732366,1.5823828901368266,0.0,3.1373241843498407,3.0889888529203535,42.33830449840376,42.27468960723096,0.0
0.107,1.1077420417422494,-0.17739543302569927,0.7463656058015882,0.0,3.1503417022829456,3.048925019380112,41.07896097101531,42.27468960723096,0.0
0.108,1.0938724861122568,-0.16742946273650394,1.3879946558579672,0.0,3.156843320563421,3.0950338907018295,41.86055095130287,42.27468960723096,0.0
0.109,1.1206946517671337,-0.1673727487714768,1.00134105227347,0.0,3.1673990853147598,3.085144716046229,41.505704166285916,42.27468960723096,0.0
0.11,1.11930337309577,-0.16577354143271078,1.1864542991913969,0.0,3.17573501045779,3.1019502908385386,41.37512234895624,42.27468960723096,0.0
0.111,1.1335547348185486,-0.15825435960412193,1.2607408804389828,0.0,3.1841067826379903,3.1226477295577535,41.90357235652144,42.27468960723096,0.0
0.112,1.1463767706724304,-0.16375658826344358,1.0002270491634793,0.0,3.194391558442905,3.111445304043588,40.92503793604318,42.27468960723096,0.0
0.113,1.1478943732251106,-0.15098473964947828,1.5029907761144843,0.0,3.20106768848178,3.160262031016441,42.21074725090352,42.27468960723096,0.0
0.114,1.174453998653584,-0.16159864995067097,0.8607755422475881,0.0,3.213253126833325,3.1262870025294207,40.67032539282128,42.27468960723096,0.0
0.115,1.1656163726177438,-0.14518231736464982,1.647030113432805,0.0,3.2189105828135407,3.1910759110135283,42.27053354000159,42.27468960723096,0.0
0.116,1.1993776464702273,-0.1582109645072287,0.8469676005149469,0.0,3.232078498555687,3.1502801357302976,40.65295949583378,42.27468960723096,0.0
0.117,1.1884197451163554,-0.14054074606640216,1.6719719237128239,0.0,3.2377760346953792,3.215174812118001,42.160873105469044,42.27468960723096,0.0
0.11800000000000001,1.2212892890114433,-0.15407510401839308,0.9191532839128095,0.0,3.251058766419001,3.1793644520289246,40.84711218301792,42.27468960723096,0.0
0.11900000000000001,1.2139041274047462,-0.13622646264531046,1.5903095193805017,0.0,3.2573334948307933,3.2309598366362517,41.77362076950601,42.27468960723096,0.0
0.12,1.2391160422705783,-0.14789832002267062,1.1320659145137062,0.0,3.2696026795873805,3.2180576344826926,41.40145189561967,42.27468960723096,0.0
0.121,1.2438111951456425,-0.1344222991588876,1.3268827285729878,0.0,3.277755644784162,3.2334205089477384,41.119310418754225,42.27468960723096,0.0
0.122,1.2500998194448727,-0.13950556577169804,1.4795072588904792,0.0,3.287323520443818,3.2622581255361247,42.5518564634482,42.27468960723096,0.0
0.123,1.2683427146103292,-0.14573949848054457,0.7604625679813173,0.0,3.299453270128192,3.2066037745032463,40.99614168997893,42.27468960723096,0.0
0.124,1.2376222074036485,-0.1352090656459316,1.5511054338884758,0.0,3.303583922801945,3.2554506804453625,42.98287489726051,42.27468960723096,0.0
0.125,1.25475536876885,-0.14995902154580043,0.5506569773473896,0.0,3.313914000279865,3.1796783493598104,41.404535785064645,42.27468960723096,0.0
0.126,1.2158373335927943,-0.1314612851116409,1.3485280716669843,0.0,3.313451586334681,3.2147388795541905,42.98656745656258,42.27468960723096,0.0
0.127,1.2223639985826535,-0.144356346738148,0.5503934574246996,0.0,3.318144900946712,3.1493664833241235,41.600165535212625,42.27468960723096,0.0
0.128,1.1884587422535764,-0.12843482366106723,1.2503396588198616,0.0,3.313951326319789,3.1797709313202533,43.13550602123004,42.27468960723096,0.0
0.129,1.1948250866823311,-0.14151776851028586,0.47406125167116175,0.0,3.3148158931193565,3.113286139803316,41.60431511214857,42.27468960723096,0.0
0.13,1.1606164003704689,-0.12726422156368594,1.2463604511627226,0.0,3.307246804474655,3.1500785990721782,43.31036245452733,42.27468960723096,0.0
0.131,1.1724738320769477,-0.1414619489006544,0.38298005150037895,0.0,3.3058181560978417,3.078093663241081,41.591899416673236,42.27468960723096,0.0
0.132,1.135735435419202,-0.12911864155913821,1.2490394723330027,0.0,3.2958341378946656,3.1212244943930414,43.30440945240668,42.27468960723096,0.0
0.133,1.1529187776749312,-0.14291562945584008,0.38248725601452316,0.0,3.292802706369053,3.052804950991421,41.74964377316856,42.27468960723096,0.0
0.134,1.1180327092858817,-0.13528086912903314,1.1651205539742089,0.0,3.2822546701409245,3.089688704661503,43.04515364630011,42.27468960723096,0.0
0.135,1.1342248778843438,-0.14536907074827943,0.5096609770177423,0.0,3.2776358626840034,3.039772393667237,42.23450084580514,42.27468960723096,0.0
