timestamp,iq,id,iq_ref,id_ref,vq,vd,omega,omega_ref,r
0.0,0.0,0.0,0.0,0.0,0.0,0.0,0.0,404.8874648518357,0.0
0.001,0.0,0.0,10.0,0.0,0.0,1.0999999999999999,6.790264060717102,404.8874648518357,0.0
0.002,0.446611097650222,-0.2515365438535825,10.0,0.0,0.1376690198238941,1.940872779258475,12.328814702781024,404.8874648518357,0.0
0.003,1.0520809859487104,-0.5966560277207634,10.0,0.0,0.3811061933781003,2.6492896058371604,18.41442203502138,404.8874648518357,0.0
0.004,1.6860448911972976,-0.9577288522140883,10.0,0.0,0.7073081480903486,3.2475271364190395,24.6306625041622,404.8874648518357,0.0
0.005,2.2746081283448305,-1.2930076779655122,10.0,0.0,1.0939836029772831,3.760158792380212,30.97678543052987,404.8874648518357,0.0
0.006,2.7836932588720975,-1.5828736455633214,10.0,0.0,1.5217871461498862,4.210081096247436,37.38593545251119,404.8874648518357,0.0
0.007,3.20427388194544,-1.8220414712091955,10.0,0.0,1.9752123665370194,4.616618506812403,43.754918668524674,404.8874648518357,0.0
0.008,3.5416740628790078,-2.013549905569208,10.0,0.0,2.442623055465078,4.994936484687628,50.16046162776484,404.8874648518357,0.0
0.009000000000000001,3.808219397461936,-2.164530014863413,10.0,0.0,2.915817200966616,5.356217748673353,56.488091667923996,404.8874648518357,0.0
0.01,4.0187261359873405,-2.283084839719459,10.0,0.0,3.3893512879577976,5.70820001291869,62.68275746492537,404.8874648518357,0.0
0.011,4.187424532182783,-2.3771725580238514,10.0,0.0,3.859894293439315,6.055885703242367,68.8701521362902,404.8874648518357,0.0
0.012,4.326538777584742,-2.4537736255819036,10.0,0.0,4.3256368076533915,6.402241542049569,75.01695822980938,404.8874648518357,0.0
0.013000000000000001,4.445967648072489,-2.518219827763002,10.0,0.0,4.78576372589112,6.748790015097824,81.27239957857036,404.8874648518357,0.0
0.014,4.553157264709657,-2.574427468081555,10.0,0.0,5.240071178023131,7.096099763539816,87.102414382647,404.8874648518357,0.0
0.015,4.653545996421576,-2.6248076800760036,10.0,0.0,5.6886586067023455,7.4441384180288726,92.99654111389681,404.8874648518357,0.0
0.016,4.750732055857106,-2.6709217611306326,10.0,0.0,6.131759904758606,7.792545370716154,98.78927885383798,404.8874648518357,0.0
0.017,4.84703282998791,-2.7135022797232393,10.0,0.0,6.569614484512612,8.1408005333803,104.39100679447085,404.8874648518357,0.0
0.018000000000000002,4.943974658919313,-2.7524987045886533,10.0,0.0,7.0023729241069,8.488315044312285,109.93001297842267,404.8874648518357,0.0
0.019,5.0422778391379826,-2.78782470396513,10.0,0.0,7.430102866517714,8.834510016575763,115.28380416470003,404.8874648518357,0.0
0.02,5.14261111893241,-2.8186426088850762,10.0,0.0,7.852716021461228,9.17880485687877,120.4995602027647,404.8874648518357,0.0
0.021,5.24521225971795,-2.8443984374289366,10.0,0.0,8.270022307031315,9.520648735957367,125.55135717132755,404.8874648518357,0.0
0.022,5.350419055787759,-2.8642094468538324,10.0,0.0,8.68170400470355,9.859492119525289,130.41548667383262,404.8874648518357,0.0
0.023,5.458520322305822,-2.8772814083007345,10.0,0.0,9.087341676630269,10.19478026314735,135.0745190398975,404.8874648518357,0.0
0.024,5.569864594958069,-2.8828259660640168,10.0,0.0,9.486423577466011,10.525936502273314,139.50882162211266,404.8874648518357,0.0
0.025,5.684849420914319,-2.8801227279532986,10.0,0.0,9.878360110360966,10.852350419441589,143.70045613260115,404.8874648518357,0.0
0.026000000000000002,5.803914589671386,-2.868540781468333,10.0,0.0,10.26249739995101,11.17336927787882,147.6328097001357,404.8874648518357,0.0
0.027,5.927524689202391,-2.847556224206355,10.0,0.0,10.638130364591806,11.48829352017049,151.29092712930512,404.8874648518357,0.0
0.028,6.056145144909267,-2.8167679699294474,10.0,0.0,11.004515594599852,11.79637648556462,154.69328906248012,404.8874648518357,0.0
0.029,6.190185017658648,-2.775962244902024,10.0,0.0,11.360889850936255,12.096831495974788,157.85840832969282,404.8874648518357,0.0
0.03,6.330032147104287,-2.7250229163332493,10.0,0.0,11.706476913787743,12.38883564546605,160.805280798017,404.8874648518357,0.0
0.031,6.476028260949986,-2.6639383072914127,10.0,0.0,12.040495771594298,12.671536985064765,164.21964478915763,404.8874648518357,0.0
0.032,6.62802473460308,-2.5935023758450733,10.0,0.0,12.362245771211384,12.94411042552088,165.61267725627422,404.8874648518357,0.0
0.033,6.7889280027936145,-2.509451570055697,10.0,0.0,12.670536885590012,13.205422127128664,167.75202650080104,404.8874648518357,0.0
0.034,6.95183755104759,-2.423495053518246,10.0,0.0,12.965515349930328,13.4551207523875,168.621223350052,404.8874648518357,0.0
0.035,7.126224773196796,-2.3206604647055937,10.0,0.0,13.245513590758478,13.691793862600608,169.63462141095795,404.8874648518357,0.0
0.036000000000000004,7.302568282093438,-2.216604804383511,10.0,0.0,13.510761541777821,13.915145572118087,170.1152975430708,404.8874648518357,0.0
0.037,7.487639315836352,-2.1005779552127137,10.0,0.0,13.760097471841412,14.124092527162992,170.36377024431488,404.8874648518357,0.0
0.038,7.675819997761506,-1.9816991206270118,10.0,0.0,13.99347810109041,14.318229215035432,170.32829563089535,404.8874648518357,0.0
0.039,7.8709471944623015,-1.8536324328885803,10.0,0.0,14.210035788896388,14.496708112227692,169.74644563339095,404.8874648518357,0.0
0.04,8.066252865173652,-1.727256797174519,10.0,0.0,14.410164944589827,14.659462536670084,169.58936965963295,404.8874648518357,0.0
0.041,8.270241785251468,-1.5882141398169227,10.0,0.0,14.59252569120597,14.80546870973613,167.90784572883368,404.8874648518357,0.0
0.042,8.47295813501837,-1.4522883512422093,10.0,0.0,14.757689570297458,14.934851430883608,166.97556233030915,404.8874648518357,0.0
0.043000000000000003,8.67902467023177,-1.311359734791603,10.0,0.0,14.905132443670727,15.047172112449681,166.28880126527417,404.8874648518357,0.0
0.044,8.88600944453939,-1.1686122862702386,10.0,0.0,15.034770164690435,15.142297353374769,171.30365493901945,404.8874648518357,0.0
0.045,9.056395848715898,-1.0869809842214537,10.0,0.0,15.153404668960523,15.22420118559298,175.50400222283588,404.8874648518357,0.0
0.046,9.14783050867964,-1.132694629375456,10.0,0.0,15.274210920012857,15.30142413646214,179.34885875301993,404.8874648518357,0.0
0.047,9.209621092614857,-1.2190647341633092,10.0,0.0,15.399702416121986,15.377122799716366,182.82220677081324,404.8874648518357,0.0
0.048,9.247254776755714,-1.3342838551734668,10.0,0.0,15.532025031208875,15.454278946839953,185.7714096579779,404.8874648518357,0.0
0.049,9.265468421849759,-1.4695284802307391,10.0,0.0,15.672555717045634,15.535324576640924,188.15074733815513,404.8874648518357,0.0
0.05,9.265664789796126,-1.6228976648632707,10.0,0.0,15.82265606133781,15.622479248022318,193.29577071900556,404.8874648518357,0.0
0.051000000000000004,9.251105834577839,-1.789954928583509,10.0,0.0,15.983304445501815,15.717531935448267,199.86593497306205,404.8874648518357,0.0
0.052000000000000005,9.228252503135307,-1.9606215979829265,10.0,0.0,16.154496020988745,15.82151246945451,207.9732835243257,404.8874648518357,0.0
0.053,9.196425158181555,-2.137063643012322,10.0,0.0,16.336668450586853,15.935486582239324,213.70099999426125,404.8874648518357,0.0
0.054,9.162873498942075,-2.3072605036312415,10.0,0.0,16.52897828272141,16.059652935772263,212.9492277925911,404.8874648518357,0.0
0.055,9.115842838915743,-2.492461405098619,10.0,0.0,16.733143897551027,16.195471493175866,220.30026129078038,404.8874648518357,0.0
0.056,9.051055988474822,-2.7013686304333238,10.0,0.0,16.951602592410193,16.344781003270306,230.82379767419997,404.8874648518357,0.0
0.057,8.989510968233521,-2.8969163097234363,10.0,0.0,17.182567541261445,16.507127515563354,233.7380714419253,404.8874648518357,0.0
0.058,8.928821911498796,-3.0820769710773037,10.0,0.0,17.42508284241291,16.68239621755063,237.50610444289376,404.8874648518357,0.0
0.059000000000000004,8.843207150376593,-3.3022685831613394,10.0,0.0,17.683242954363653,16.873200312610418,248.3531007283167,404.8874648518357,0.0
0.06,8.770623875672861,-3.4905084924059517,10.0,0.0,17.953171938521372,17.077868021965493,248.2149154627268,404.8874648518357,0.0
0.061,8.692371150548126,-3.677986998670333,10.0,0.0,18.235315031795466,17.296943825817518,259.65508141205413,404.8874648518357,0.0
0.062,8.602465040239354,-3.87541609175104,10.0,0.0,18.530993811303574,17.531433503494465,265.38854955691414,404.8874648518357,0.0
0.063,8.526427209685345,-4.037951609226698,10.0,0.0,18.836458296620094,17.77950719161238,270.50502991656657,404.8874648518357,0.0
0.064,8.442703214078518,-4.202761865101017,10.0,0.0,19.152687475188166,18.04176922066137,277.42760773022746,404.8874648518357,0.0
0.065,8.372717683351269,-4.333811875333317,10.0,0.0,19.47628733737114,18.31628913308619,283.7005332135298,404.8874648518357,0.0
0.066,8.310615491794165,-4.442020289226421,10.0,0.0,19.805571630004223,18.60184842625084,287.93324472126903,404.8874648518357,0.0
0.067,8.263198128911018,-4.517822610896764,10.0,0.0,20.137739593935255,18.89637510736391,294.45961498902955,404.8874648518357,0.0
0.068,8.22732622480166,-4.569408791019345,10.0,0.0,20.47105988618129,19.198137652581966,289.986743965952,404.8874648518357,0.0
0.069,8.231426448452966,-4.5522552870152015,10.0,0.0,20.798821656482836,19.502246228860088,297.71566506220154,404.8874648518357,0.0
0.07,8.236174110477847,-4.536206373276899,10.0,0.0,21.12262426191086,19.808238883954328,300.1076746276964,404.8874648518357,0.0
0.07100000000000001,8.298192278410228,-4.4325329039350345,10.0,0.0,21.433402279815297,20.109238012229632,298.105902835391,404.8874648518357,0.0
0.07200000000000001,8.364031889071565,-4.333515232656398,10.0,0.0,21.733347199609582,20.40459285397443,301.516144121775,404.8874648518357,0.0
0.073,8.496445744383553,-4.142311906993789,10.0,0.0,22.01279092248882,20.68649957554647,296.89230640131314,404.8874648518357,0.0
0.074,8.647233074986525,-3.940568639862517,10.0,0.0,22.272201219109526,20.95289752943603,301.6985661598047,404.8874648518357,0.0
0.075,8.839725450991272,-3.6956917491139536,10.0,0.0,22.507391256146086,21.198930429544195,295.77376639162907,404.8874648518357,0.0
0.076,9.076742985138536,-3.405443644591277,10.0,0.0,22.7141870568998,21.41973203834906,286.61214727794294,404.8874648518357,0.0
0.077,9.328068193146162,-3.120516398539836,10.0,0.0,22.89394392243819,21.613857468809442,288.01269367970747,404.8874648518357,0.0
0.078,9.61623357477013,-2.8064249218205757,10.0,0.0,23.043436854490185,21.77736110287906,292.3356023734827,404.8874648518357,0.0
0.079,9.936819626318352,-2.4683311369633945,10.0,0.0,23.16028145517684,21.90708085489286,281.52562298702185,404.8874648518357,0.0
0.08,10.277336506597663,-2.1240331970904416,10.0,0.0,23.24392173545875,22.001262095458692,274.96732133858234,404.8874648518357,0.0
0.081,10.635368268029513,-1.7744886567550697,10.0,0.0,23.293609191730905,22.058410915041428,269.08978973929095,404.8874648518357,0.0
0.082,10.990262574283875,-1.4497426206630752,10.0,0.0,23.31181616576734,22.079355542219453,264.87431034265745,404.8874648518357,0.0
0.083,11.355330036886293,-1.1241323440193551,10.0,0.0,23.29772723504805,22.063417926259582,259.33936419899715,404.8874648518357,0.0
0.084,11.716373035116883,-0.8152759607885651,10.0,0.0,23.252735336415753,22.011601123644443,262.41206828012287,404.8874648518357,0.0
0.085,11.938685245954439,-0.7425121518081907,10.0,0.0,23.202145492229636,21.93962289821775,270.0088822253715,404.8874648518357,0.0
0.08600000000000001,12.014102235885197,-0.8960510623537079,10.0,0.0,23.167033728169276,21.863710764131103,276.136082325528,404.8874648518357,0.0
0.08700000000000001,12.020221764717935,-1.1353710239743817,10.0,0.0,23.1526317337791,21.79195968877481,281.6195299342868,404.8874648518357,0.0
0.088,11.97143106954167,-1.4278876287762388,10.0,0.0,23.162278458204312,21.731371693272827,286.5583144481079,404.8874648518357,0.0
0.089,11.876912455976923,-1.7550444980963689,10.0,0.0,23.197963800213998,21.687716310303934,291.1686738643295,404.8874648518357,0.0
0.09,11.742502422215436,-2.1076764043393776,10.0,0.0,23.261233010719362,21.66583491741101,295.6912110272185,404.8874648518357,0.0
0.091,11.575337000354219,-2.4763406417012614,10.0,0.0,23.353013907932272,21.66951268092504,305.49903869976526,404.8874648518357,0.0
0.092,11.38128343860085,-2.8543925853485446,10.0,0.0,23.473883563202875,21.7016749953832,316.166380194452,404.8874648518357,0.0
0.093,11.18191429318609,-3.206735629444814,10.0,0.0,23.620859699806356,21.76269811430072,317.962838132065,404.8874648518357,0.0
0.094,10.95795110438293,-3.569412121588202,10.0,0.0,23.79561151833605,21.854958794301016,328.58418579003416,404.8874648518357,0.0
0.095,10.717968745974847,-3.931208745205753,10.0,0.0,23.998285086689293,21.979627015691115,336.5786091497429,404.8874648518357,0.0
0.096,10.49304907432439,-4.239360652455362,10.0,0.0,24.223436863907505,22.134437112074995,340.56763606260654,404.8874648518357,0.0
0.097,10.249371488906206,-4.5542998704981414,10.0,0.0,24.473116267954495,22.320836714221812,350.99464157519697,404.8874648518357,0.0
0.098,10.031869968098666,-4.801925071083504,10.0,0.0,24.740557071695427,22.535052687993293,353.26015509365936,404.8874648518357,0.0
0.099,9.823082282355504,-5.0148792081300115,10.0,0.0,25.02362409550868,22.77538277498538,361.41773112425795,404.8874648518357,0.0
0.1,9.64568745150671,-5.160115451076109,10.0,0.0,25.316263870993424,23.037412110195522,359.4011406203258,404.8874648518357,0.0
0.101,9.49752661839266,-5.247932467435758,10.0,0.0,25.61405011182081,23.31702623276719,369.0241951847191,404.8874648518357,0.0
0.10200000000000001,9.40544206671607,-5.2418904209544905,10.0,0.0,25.90847634554608,23.607105259517706,363.2770858635928,404.8874648518357,0.0
0.10300000000000001,9.360377391308187,-5.166615502188176,10.0,0.0,26.1942480379744,23.901655275743806,368.6246732663695,404.8874648518357,0.0
0.10400000000000001,9.372824610758766,-5.016481551313925,10.0,0.0,26.465135577373985,24.193507618696486,360.43439479748656,404.8874648518357,0.0
0.105,9.471954591041559,-4.75415462522399,10.0,0.0,26.71076497476774,24.47248365565725,359.7490991824752,404.8874648518357,0.0
0.106,9.594911545586319,-4.492626903593608,10.0,0.0,26.93358425599975,24.735591063464224,361.22368758738963,404.8874648518357,0.0
0.107,9.821069288506546,-4.113936413369333,10.0,0.0,27.121391673180895,24.971021876437923,350.7717357208833,404.8874648518357,0.0
0.108,10.101673344429612,-3.6997406085642823,10.0,0.0,27.272186796314962,25.173085481110018,339.9320080408153,404.8874648518357,0.0
0.109,10.42220848196192,-3.2783968208310235,10.0,0.0,27.385902909000237,25.337569413058997,339.3446815586647,404.8874648518357,0.0
0.11,10.803359236589978,-2.817861577726463,10.0,0.0,27.458250364747716,25.45825533144784,338.7939213041949,404.8874648518357,0.0
0.111,11.2332108247746,-2.3323698329861586,10.0,0.0,27.486632927268946,25.530635236418526,326.1441511986442,404.8874648518357,0.0
0.112,11.686996672022198,-1.8558470157488909,10.0,0.0,27.47185263158642,25.55299747982887,317.7825041946624,404.8874648518357,0.0
0.113,12.15686389583329,-1.3941804826990483,10.0,0.0,27.414768499350075,25.52449793318319,309.52675969315015,404.8874648518357,0.0
0.114,12.634163198160891,-0.9524470248735257,10.0,0.0,27.316568810642476,25.445335676960507,306.1524078147521,404.8874648518357,0.0
0.115,13.104704374213252,-0.5440289927436481,10.0,0.0,27.17976421622734,25.317283141146856,313.9215011988426,404.8874648518357,0.0
0.116,13.264852695552836,-0.650955907484664,10.0,0.0,27.059680968615165,25.175444495886214,320.61821460007445,404.8874648518357,0.0
0.117,13.314484959868068,-0.9123442411688565,10.0,0.0,26.965105628796003,25.03192332452916,327.2613957759499,404.8874648518357,0.0
0.11800000000000001,13.273780759977587,-1.2730600590547403,10.0,0.0,26.902700562453653,24.898270520956995,333.77353151365395,404.8874648518357,0.0
0.11900000000000001,13.15788333478558,-1.696679380020846,10.0,0.0,26.876161689515737,24.784084165880024,339.95325918157425,404.8874648518357,0.0
0.12,12.978857506680363,-2.159386115813776,10.0,0.0,26.887519616091467,24.6971964258566,346.5730759089634,404.8874648518357,0.0
0.121,12.74645529820034,-2.6460338820059786,10.0,0.0,26.9379571629305,24.643907237144855,353.791971691747,404.8874648518357,0.0
0.122,12.473603544131919,-3.138259393329885,10.0,0.0,27.027300364798172,24.628680392850917,366.10566369925374,404.8874648518357,0.0
0.123,12.16771798613945,-3.628067012009997,10.0,0.0,27.155143144991243,24.654829447011615,373.82109235633646,404.8874648518357,0.0
0.124,11.85712478558621,-4.0705608367824935,10.0,0.0,27.31659279711926,24.722254270256492,379.19790295051655,404.8874648518357,0.0
0.125,11.516732268589676,-4.514153018157934,10.0,0.0,27.513010168062525,24.833418821253765,391.6546641381679,404.8874648518357,0.0
0.126,11.190639621313164,-4.889289067058821,10.0,0.0,27.737731300576534,24.985574920276086,393.35435678773723,404.8874648518357,0.0
0.127,10.872245646054942,-5.21278604086571,10.0,0.0,27.987029236371132,25.17674993345322,403.0509419576363,404.8874648518357,0.0
0.128,10.582611511919042,-5.457467185955252,9.142465883049017,0.0,28.254194836125766,25.308084301029847,402.06235254327214,404.8874648518357,0.0
0.129,10.301037948084252,-5.584536962387227,9.665011713316744,0.0,28.51930817661922,25.547133925003724,409.47101790744216,404.8874648518357,0.0
0.13,10.082453059836318,-5.620543484745269,5.914843500675671,0.0,28.78450516515577,25.39227456100527,401.93072569066607,404.8874648518357,0.0
0.131,9.785774636915484,-5.446893474648173,9.714557000675414,0.0,28.988234952104563,25.765339777025517,407.7496988528266,404.8874648518357,0.0
0.132,9.669716962220118,-5.250226602406908,6.776448079585233,0.0,29.18900142611494,25.770081893805987,396.4886350997616,404.8874648518357,0.0
0.133,9.588411738555887,-4.877421969622643,10.0,0.0,29.331123623518465,26.186181244622077,394.48671721408556,404.8874648518357,0.0
0.134,9.683321073195597,-4.54637312448816,10.0,0.0,29.467956209626298,26.531394281845756,391.04671501545204,404.8874648518357,0.0
0.135,9.967855840122226,-4.099653571444534,10.0,0.0,29.579798178462262,26.825419542942328,373.4523846744857,404.8874648518357,0.0
0.136,10.335187678125106,-3.646771816454265,10.0,0.0,29.664508679005785,27.063665320301777,369.67207091520544,404.8874648518357,0.0
0.137,10.766026297271974,-3.184115950983567,10.0,0.0,29.718209379579044,27.242838640253517,372.6664133812564,404.8874648518357,0.0
0.138,11.271632765535092,-2.669080621161926,10.0,0.0,29.732430014464462,27.358156372949924,357.36695982195255,404.8874648518357,0.0
0.139,11.820721083833078,-2.1328598465455366,10.0,0.0,29.702926427221396,27.408020745535087,348.1568876651249,404.8874648518357,0.0
0.14,12.388170796400706,-1.603601643687231,10.0,0.0,29.6285034413929,27.393019736937973,336.87584045707746,404.8874648518357,0.0
0.14100000000000001,12.956679588507427,-1.0998948544791274,10.0,0.0,29.509907488503252,27.31521506061166,327.0082887122061,404.8874648518357,0.0
0.14200000000000002,13.525190447877153,-0.6142910084808353,10.0,0.0,29.34701130810219,27.176480150019398,331.46491074425046,404.8874648518357,0.0
0.14300000000000002,13.871109034309706,-0.5039441270011702,10.0,0.0,29.179249136179216,27.002963176532376,342.68978243231675,404.8874648518357,0.0
0.14400000000000002,13.978295410599669,-0.7502370881167302,10.0,0.0,29.03910717863737,26.821690367674204,350.60052051159784,404.8874648518357,0.0
0.145,13.963743511686104,-1.1384648001229483,10.0,0.0,28.93509425467341,26.647203216591038,358.15170474332825,404.8874648518357,0.0
0.146,13.851583981708153,-1.6121520876782256,10.0,0.0,28.872257232508556,26.491955517528254,365.48746214871284,404.8874648518357,0.0
0.147,13.657742626256573,-2.138018667882233,10.0,0.0,28.853287593600776,26.366149839955135,373.2787288772266,404.8874648518357,0.0
0.148,13.395323223454987,-2.694217547702456,10.0,0.0,28.879557561804667,26.277955487002217,381.75131147629156,404.8874648518357,0.0
0.149,13.081290892982945,-3.2557218297226633,10.0,0.0,28.950584580116885,26.233126928488886,390.80141845039276,404.8874648518357,0.0
0.15,12.72650701819606,-3.809562435252655,10.0,0.0,29.065333464534643,26.235769830579937,399.5118188488787,404.8874648518357,0.0
