timestamp,iq,id,iq_ref,id_ref,vq,vd,omega,omega_ref,r
0.0,0.0,0.0,0.0,0.0,0.0,0.0,0.0,92.22846536948836,0.0
0.001,0.0,0.0,10.0,0.0,0.0,1.0999999999999999,14.73692199326835,92.22846536948836,0.0
0.002,0.5907505276815407,-0.3424064329225185,10.0,0.0,0.14766470762147704,1.9250174419550306,24.617774152454537,92.22846536948836,0.0
0.003,1.3949434642458824,-0.7920652932041682,10.0,0.0,0.4091030989780658,2.599745892731444,36.08493255859506,92.22846536948836,0.0
0.004,2.2171383102123583,-1.2638499212823586,10.0,0.0,0.759270216762421,3.150745833875206,48.03602697909254,92.22846536948836,0.0
0.005,2.9618597013614667,-1.6866691274561578,10.0,0.0,1.1713128832810533,3.607965088116288,59.78684064446048,92.22846536948836,0.0
0.006,3.5813166895817394,-2.0390566341408527,10.0,0.0,1.6224076422455092,3.9999736287923886,71.71124407260022,92.22846536948836,0.0
0.007,4.067641065112209,-2.315582088567727,10.0,0.0,2.0944877043012387,4.350589679871175,83.50496976556798,92.22846536948836,0.0
0.008,4.4339265533676295,-2.522933180998077,5.695386960507132,0.0,2.574464730882343,4.204416537750649,88.64194041370266,92.22846536948836,0.0
0.009000000000000001,4.450911032099788,-2.526651562410373,3.16276688599765,0.0,2.990162251624334,3.8871108969211887,91.86284827425422,92.22846536948836,0.0
0.01,4.157456412024013,-2.3550864272376986,1.5559691266742095,0.0,3.3136501075260623,3.524133872464046,93.12929410105686,92.22846536948836,0.0
0.011,3.66287613914907,-2.059906755619089,0.9137379259572058,0.0,3.5377373628655833,3.2266951653726403,92.20625287719808,92.22846536948836,0.0
0.012,3.0946589514866853,-1.7259819018358709,1.3754806628094958,0.0,3.675892084762044,3.096181155499361,94.42392084434546,92.22846536948836,0.0
0.013000000000000001,2.5954447322740206,-1.4286220309232378,0.24469212448723576,0.0,3.7578095962189733,2.9127612444558553,91.69177728849965,92.22846536948836,0.0
0.014,2.13844574069768,-1.1407739130767054,1.6161307832200276,0.0,3.784503671171867,2.9633189603874937,93.28925056295107,92.22846536948836,0.0
0.015,1.835043797443694,-0.9704592191078366,0.8067862940596922,0.0,3.797727975064525,2.937552255668467,94.26591105397257,92.22846536948836,0.0
0.016,1.623134772042268,-0.8193308666965671,0.29808159170409754,0.0,3.7921322062704625,2.888096552804714,90.92744859794047,92.22846536948836,0.0
0.017,1.4488343244498039,-0.7074658058790515,1.9803229874356285,0.0,3.7713565709036176,3.0502144028831117,93.82956432457448,92.22846536948836,0.0
0.018000000000000002,1.4207283792187348,-0.6843779289891215,0.5132541345677633,0.0,3.7674492682315797,3.0171915661436968,92.68051269625366,92.22846536948836,0.0
0.019,1.3950481068948872,-0.6379476570607093,1.08325947546052,0.0,3.7557539610095794,3.066995329341215,91.21696316935493,92.22846536948836,0.0
0.02,1.3969836554459512,-0.6368713793210388,1.82514926091122,0.0,3.75055447299745,3.1860872954235733,94.4706562900921,92.22846536948836,0.0
0.021,1.4686602073797228,-0.6595373271778048,0.17588079133659873,0.0,3.7602881474364103,3.096046621361565,91.97670819099784,92.22846536948836,0.0
0.022,1.4717177787137306,-0.6319409818053956,1.425372412668631,0.0,3.7567821295557415,3.17030057786452,91.75457737723056,92.22846536948836,0.0
0.023,1.5057524125562618,-0.6462968210289396,1.5411766994748488,0.0,3.762907214881748,3.2333088582551364,94.12995672546141,92.22846536948836,0.0
0.024,1.5692624503893935,-0.6550526941794632,0.3344721117996925,0.0,3.7755402073685387,3.150087513803746,91.5202067555505,92.22846536948836,0.0
0.025,1.5670550720879683,-0.6244357028839667,1.6464296828945253,0.0,3.775132338387501,3.2337118937348426,91.8061165347921,92.22846536948836,0.0
0.026000000000000002,1.6026458052393138,-0.6377931622051831,1.5076982816206916,0.0,3.784903184735966,3.276615964493995,93.84544285962335,92.22846536948836,0.0
0.027,1.6587273963508231,-0.6343771912099034,0.4718653443037166,0.0,3.797478022122806,3.1978393360291966,90.96526428630531,92.22846536948836,0.0
0.028,1.6531150665255967,-0.5990459863495704,1.9245866417945638,0.0,3.7970654400997983,3.299533698438616,91.28627460330806,92.22846536948836,0.0
0.029,1.6962572519959513,-0.6150309208037015,1.7735033909549942,0.0,3.8089752073585914,3.3550692321375384,93.7013558936843,92.22846536948836,0.0
0.03,1.7647198401333222,-0.615708773583801,0.5512338405249169,0.0,3.8251622657226676,3.2662039083131282,91.09339957553277,92.22846536948836,0.0
0.031,1.7624024413969976,-0.5780953084585101,1.866562657540234,0.0,3.826699826176312,3.3456922278259222,90.30129358262549,92.22846536948836,0.0
0.032,1.798216391162192,-0.5816725021972149,2.2818873718625032,0.0,3.8368020884983807,3.4459551933765624,93.25247504032795,92.22846536948836,0.0
0.033,1.8813721586772492,-0.5964436650431217,0.7960565463028768,0.0,3.8575094771189695,3.3608184557205605,91.94709517067693,92.22846536948836,0.0
0.034,1.8956327973417906,-0.5597646519977186,1.4515601831165013,0.0,3.863450050048448,3.372492726419363,89.77003494410523,92.22846536948836,0.0
0.035,1.9078211289554408,-0.5395144634264075,2.564674600656181,0.0,3.8681032621424674,3.4982830668116067,91.27781054340454,92.22846536948836,0.0
0.036000000000000004,1.9838919981601828,-0.5584491575159647,1.8202933492673654,0.0,3.8871555053018723,3.5107007002494743,92.514633560802,92.22846536948836,0.0
0.037,2.0470807275663794,-0.5532070344092308,1.1990201586555016,0.0,3.904778307006488,3.456695504663445,91.02366259077606,92.22846536948836,0.0
0.038,2.0622787537786196,-0.5194845137820727,1.9565536714555951,0.0,3.9115812529441203,3.498354631531326,89.16393001649652,92.22846536948836,0.0
0.039,2.094187996411542,-0.5060485861001459,2.9170653121252803,0.0,3.920729090136036,3.631251049224347,90.96157576605201,92.22846536948836,0.0
0.04,2.1882293469782885,-0.5287303824168161,2.030911333381901,0.0,3.9448811422497156,3.6346650986627766,92.25994650315148,92.22846536948836,0.0
0.041,2.2567377496204832,-0.5246866501029055,1.3814111534955322,0.0,3.9662877655781728,3.570973957583689,91.12241915060515,92.22846536948836,0.0
0.042,2.2713333569218603,-0.4862525161949687,1.9612352919575287,0.0,3.9749972950591417,3.585147817198311,89.39739825033827,92.22846536948836,0.0
0.043000000000000003,2.290422711053296,-0.45808165265639966,2.8520564132824715,0.0,3.9815388039033124,3.6890134528792453,89.3204161295067,92.22846536948836,0.0
0.044,2.3609501296214392,-0.4647598907199254,2.919627966098075,0.0,3.998829040253533,3.7741042129717908,90.5937786843909,92.22846536948836,0.0
0.045,2.458091087899155,-0.4792974444754372,2.2992935555069494,0.0,4.024431677510458,3.773522188772058,91.43011790151057,92.22846536948836,0.0
0.046,2.5252102361369673,-0.4719231254096058,1.889107421626891,0.0,4.04645929798692,3.7302298033737085,91.00357213836807,92.22846536948836,0.0
0.047,2.5508056007933453,-0.437285508192758,2.1146292355093435,0.0,4.058218523172708,3.7202343807988925,89.55539469233254,92.22846536948836,0.0
0.048,2.566250087362308,-0.40157525199858024,2.8654486652986666,0.0,4.064220531573241,3.7913064022621117,88.09300539650128,92.22846536948836,0.0
0.049,2.620043439054432,-0.39080048701067127,3.637997912944167,0.0,4.075901419693316,3.9275808215417336,88.69357880355734,92.22846536948836,0.0
0.05,2.733786948891643,-0.41432156155108546,3.3730600750754465,0.0,4.102736726778671,4.002553380498213,89.61734251150503,92.22846536948836,0.0
0.051000000000000004,2.8537244785874796,-0.43519143915864156,2.9372894496814372,0.0,4.136446234842564,4.0153711306847555,90.25604859864634,92.22846536948836,0.0
0.052000000000000005,2.9422588053783425,-0.43517041205639706,2.6376605738191996,0.0,4.167855555361401,3.9931371859180897,90.61996335079503,92.22846536948836,0.0
0.053,2.9910918125398096,-0.4121082190444474,2.471788217931789,0.0,4.191363918391396,3.9565316097711314,90.62003549616496,92.22846536948836,0.0
0.054,3.0081506373700324,-0.37055831105285053,2.4878364439800595,0.0,4.204521019554738,3.927973315306341,89.65711940069471,92.22846536948836,0.0
0.055,3.0102430928083206,-0.3229816683025766,2.9950079514031205,0.0,4.208688649532652,3.959155362110507,88.89640704331046,92.22846536948836,0.0
0.056,3.037340138785866,-0.29089994084586124,3.408684713357024,0.0,4.212504497600458,4.0251089454696025,88.22135352705553,92.22846536948836,0.0
0.057,3.1013381592691847,-0.27828302798781146,3.7862825899088195,0.0,4.221467076057573,4.115478942307335,86.97947417485501,92.22846536948836,0.0
0.058,3.202209565421035,-0.28510345034975937,4.45971217795541,0.0,4.239446811941143,4.257553598754743,87.26418486824633,92.22846536948836,0.0
0.059000000000000004,3.3539488610132837,-0.31800700453712194,4.366999636272171,0.0,4.2733872266180875,4.354603479226516,88.94519236586673,92.22846536948836,0.0
0.06,3.5027743172149686,-0.36678773625865424,3.5593286174981875,0.0,4.318675432822013,4.342572319244239,90.45391672608105,92.22846536948836,0.0
0.061,3.5789802937135042,-0.40585105669872945,2.8227119238251026,0.0,4.362040860338508,4.256427566911461,91.57454908592865,92.22846536948836,0.0
0.062,3.5700633177973025,-0.4106197085665628,2.268934906736898,0.0,4.392589188371138,4.1314274547364045,92.8221101792928,92.22846536948836,0.0
0.063,3.484816849772862,-0.385466871491968,1.6392179119567756,0.0,4.404768173786115,3.967539029050713,93.44103947266301,92.22846536948836,0.0
0.064,3.334032589906806,-0.3286963684248996,1.3176275242399287,0.0,4.393347191124397,3.807913375679058,92.89853275465744,92.22846536948836,0.0
0.065,3.1460095021081234,-0.2596770971837177,1.5821802093910224,0.0,4.360081326585821,3.7145995856813783,91.74648520516854,92.22846536948836,0.0
0.066,2.9744349576821834,-0.20733489708928188,2.16302378577867,0.0,4.31574322020336,3.705530823789607,91.06773517028513,92.22846536948836,0.0
0.067,2.8637113645603494,-0.19195170132890804,2.514006105212406,0.0,4.273763318737272,3.7361985966217435,90.95031840545249,92.22846536948836,0.0
0.068,2.8159328839567705,-0.21103624680825095,2.5854959572690848,0.0,4.241301316661337,3.76810405949113,91.14506256915111,92.22846536948836,0.0
0.069,2.808652909361712,-0.25140870173713115,2.4989579034231495,0.0,4.219526185667318,3.7836617038217844,91.39835782890364,92.22846536948836,0.0
0.07,2.816865305608803,-0.29845230083608554,2.38061134895273,0.0,4.206255403557362,3.782357166833555,91.54776835832087,92.22846536948836,0.0
0.07100000000000001,2.8230273177360132,-0.3442501059472223,2.3127130543557923,0.0,4.1987485685308155,3.7729749611006733,92.05038981276176,92.22846536948836,0.0
0.07200000000000001,2.820627205509135,-0.3870453210067766,2.063183082702609,0.0,4.195303692039074,3.737336610968771,93.72101327816313,92.22846536948836,0.0
0.073,2.7984942443169887,-0.4158368441033258,1.2129458709151801,0.0,4.191378583573343,3.616297439229668,93.41026695426687,92.22846536948836,0.0
0.074,2.717341911687008,-0.40764497228932517,1.356501017015522,0.0,4.174553047649766,3.539968538984189,92.2980811574331,92.22846536948836,0.0
0.075,2.620369301668096,-0.396897120354504,1.91189775755296,0.0,4.150676830299311,3.5391035289447967,91.95268958413342,92.22846536948836,0.0
0.076,2.556364481395746,-0.4072450834336463,2.087351302056349,0.0,4.1303474881380176,3.555754124794066,92.31919458975847,92.22846536948836,0.0
0.077,2.5243360170036535,-0.4339875193003404,1.9031915070411258,0.0,4.116554328092322,3.5495776968259767,93.69941165039668,92.22846536948836,0.0
0.078,2.499828929723079,-0.4627586510135633,1.1983735139129343,0.0,4.106420241384176,3.4693267093131213,93.52716657568206,92.22846536948836,0.0
0.079,2.441113064306649,-0.46538875313042194,1.2715090392083095,0.0,4.089276064511281,3.41739417391751,92.53424338043844,92.22846536948836,0.0
0.08,2.3718686315183346,-0.46836847031956286,1.7649128567206187,0.0,4.068954519655752,3.4295132680001212,92.63532888036875,92.22846536948836,0.0
0.081,2.3320398727597134,-0.48995387275039193,1.7103014716466616,0.0,4.054221635789536,3.4311357267912252,93.67607613181298,92.22846536948836,0.0
0.082,2.3061703560205875,-0.5169281118841738,1.1754517383013003,0.0,4.043875598469459,3.375282653753064,93.90530516312803,92.22846536948836,0.0
0.083,2.2597765811130053,-0.5240127612931851,1.044068824707375,0.0,4.029488426621229,3.3197212811972783,92.82567118332801,92.22846536948836,0.0
0.084,2.1956935150339225,-0.5271875413861532,1.5779137564689893,0.0,4.011262214018379,3.3348992998615867,93.1049338213491,92.22846536948836,0.0
0.085,2.1596927656350644,-0.5488812088991506,1.4295177529398346,0.0,3.9987309801677444,3.32839413746644,94.76623230142422,92.22846536948836,0.0
0.08600000000000001,2.132798168363574,-0.5685858795796623,0.5734908435829174,0.0,3.9887529305623852,3.23120576613765,93.15081904726057,92.22846536948836,0.0
0.08700000000000001,2.0605419335552173,-0.5608684721874593,1.371973933887023,0.0,3.969007887264736,3.2468110758644286,93.05521290134999,92.22846536948836,0.0
0.088,2.0178872365747624,-0.5775152761927176,1.4115095315236965,0.0,3.954706201784028,3.259214889445523,94.51723415176984,92.22846536948836,0.0
0.089,1.9963244366920212,-0.6004286714329131,0.6576112184909557,0.0,3.945429071645872,3.1875693437277675,93.69227886534674,92.22846536948836,0.0
0.09,1.9431009840747824,-0.5982662564065571,1.0554507267439246,0.0,3.929448100344453,3.179100920395193,93.09681957622661,92.22846536948836,0.0
0.091,1.8988726845699162,-0.6098564322641805,1.3444968292366064,0.0,3.9155149273345202,3.202030796876765,94.40029953238626,92.22846536948836,0.0
0.092,1.880722504058335,-0.633354771465719,0.6710385095278029,0.0,3.907736974827334,3.1458577290775147,94.07165506851757,92.22846536948836,0.0
0.093,1.8384904571983354,-0.63369707999409,0.816928844471853,0.0,3.894922181337044,3.121770716197889,93.17605139455466,92.22846536948836,0.0
0.094,1.7922660361020546,-0.6405542036259071,1.2552548212026449,0.0,3.8817310264220377,3.1502302452001336,94.5669588517118,92.22846536948836,0.0
0.095,1.7750568360060308,-0.6622073549120908,0.5364161578018398,0.0,3.875018215303918,3.0924999608688575,94.12827234545168,92.22846536948836,0.0
0.096,1.7328164052156365,-0.6587857634895651,0.7367613411722698,0.0,3.8626107502951426,3.0735721360496346,93.24629753240154,92.22846536948836,0.0
0.097,1.6888990435808449,-0.6643037526337326,1.1675704260682056,0.0,3.850192444025408,3.10509040018823,94.82556802092962,92.22846536948836,0.0
0.098,1.675384383846228,-0.6836514792526656,0.35196415528975233,0.0,3.8442408648331448,3.039237665605861,93.88286698508813,92.22846536948836,0.0
0.099,1.630838956418412,-0.6755965748964776,0.8067706570545021,0.0,3.8312196533565035,3.0423246748841244,93.47392183747694,92.22846536948836,0.0
0.1,1.5970769424581048,-0.6847178154211868,0.9987886661802123,0.0,3.82089314945663,3.063643145334433,95.15018843831123,92.22846536948836,0.0
0.101,1.5863187507845986,-0.698609088149097,0.13143813507483548,0.0,3.8151679705866006,2.9853141607813583,93.30537014611016,92.22846536948836,0.0
0.10200000000000001,1.5351551430570245,-0.685355562630211,1.0430782334091517,0.0,3.8005856106139073,3.0287198878577137,94.07177648908367,92.22846536948836,0.0
0.10300000000000001,1.5198402959549757,-0.7017435461642665,0.641441950726443,0.0,3.793737272790055,3.014203411254673,94.43812223180898,92.22846536948836,0.0
0.10400000000000001,1.5034974047478256,-0.7042192874505723,0.4361725107405867,0.0,3.786230572794438,2.9835350425196996,93.49408606008559,92.22846536948836,0.0
0.105,1.471484769009036,-0.7035684324172302,0.8955343896963055,0.0,3.776311354458353,3.011123302762846,94.31068706700619,92.22846536948836,0.0
0.106,1.463518682453867,-0.7146036738094825,0.4664116692608311,0.0,3.7713632690836723,2.98371984027429,93.79514714733207,92.22846536948836,0.0
0.107,1.4421301452288193,-0.7130922756854847,0.7085148113194497,0.0,3.763893039790042,2.9917575665571277,93.83334165800576,92.22846536948836,0.0
0.108,1.4282211312117277,-0.7200275078064148,0.6733687930974304,0.0,3.758751595568602,2.993273510026941,94.41985880103044,92.22846536948836,0.0
0.109,1.4201126079209923,-0.7215206541983945,0.3581962872696698,0.0,3.754370783898196,2.9605590466906033,92.96653364335215,92.22846536948836,0.0
0.11,1.3927205125461273,-0.7165451233509446,1.0774781833701783,0.0,3.746594367204055,3.015882727408521,94.73119929049999,92.22846536948836,0.0
0.111,1.4016216779304782,-0.7330155170020493,0.17011802058614367,0.0,3.7469894588612185,2.9566409123719577,93.45970115613112,92.22846536948836,0.0
0.112,1.3769915570215392,-0.7170708341483814,0.7935547299041508,0.0,3.739502240798594,2.9838127526114144,93.43539506605676,92.22846536948836,0.0
0.113,1.368048228602153,-0.725025058905473,0.7936384779756478,0.0,3.7365153401179945,3.0020309971323904,94.69797409546243,92.22846536948836,0.0
0.114,1.3745130021409397,-0.7267122052297357,0.13765387601307144,0.0,3.73575499780565,2.9451690250631497,92.54778913190698,92.22846536948836,0.0
0.115,1.3449540406432399,-0.7102127421356798,1.2095531201666085,0.0,3.727552680114028,3.02170211234625,94.32083152504923,92.22846536948836,0.0
0.116,1.3622057804804364,-0.7280237599378719,0.30210826203987606,0.0,3.729948109509059,2.9770304512993326,93.52426884168209,92.22846536948836,0.0
0.117,1.3538492850177153,-0.7114748370495373,0.68743156900151,0.0,3.725638338164156,2.989617243542927,92.6581698622922,92.22846536948836,0.0
0.11800000000000001,1.3471724178594193,-0.7137842865918711,1.1161840137684162,0.0,3.7234377518566424,3.0444748057152013,94.77687172347431,92.22846536948836,0.0
0.11900000000000001,1.373944973726168,-0.7238532815444265,0.03134901963749814,0.0,3.728027475346467,2.9669954294205025,92.34017486600864,92.22846536948836,0.0
0.12,1.3500005454734383,-0.6984346436217784,1.2485803534051336,0.0,3.7215135487368234,3.0453683724264726,93.5865327456397,92.22846536948836,0.0
0.121,1.3690793984669052,-0.7145640972875507,0.6118207398280886,0.0,3.7255167353712015,3.0306986395279214,93.9671934465731,92.22846536948836,0.0
0.122,1.3806245322820718,-0.7010759403320321,0.4041031085905389,0.0,3.7260076382505196,3.0003356790925677,91.55767889809252,92.22846536948836,0.0
0.123,1.365420691558325,-0.6877212510949975,1.6155682475447908,0.0,3.7220790205518544,3.1101843204037896,94.48577469935024,92.22846536948836,0.0
0.124,1.412846940205886,-0.7104722402120438,0.12894725361730908,0.0,3.7321642844494223,3.027643349333988,92.58004285884621,92.22846536948836,0.0
0.125,1.4055940475107684,-0.6800116675965407,1.0782973989757467,0.0,3.729408751971377,3.0749318083725647,91.85931925794999,92.22846536948836,0.0
0.126,1.4158553800313247,-0.686877924516706,1.442350660539241,0.0,3.732717512632369,3.146566950073667,94.65951745048892,92.22846536948836,0.0
0.127,1.4660370104132705,-0.69706283405986,0.0179410434597711,0.0,3.743910588877916,3.045626497159572,91.64102065475835,92.22846536948836,0.0
0.128,1.4453376947424466,-0.6616333483813147,1.5330638884723564,0.0,3.7398912196874274,3.1395857473112327,92.75643648011227,92.22846536948836,0.0
0.129,1.4733823445793122,-0.6772586324288568,0.9700762646891568,0.0,3.747742788533169,3.143375363823635,93.99352660509695,92.22846536948836,0.0
0.13,1.504536291487789,-0.661806194230234,0.3338805898407333,0.0,3.7533321411032534,3.080073039912314,90.67499257210953,92.22846536948836,0.0
0.131,1.4866369964021389,-0.6324355979802316,2.0086823343082294,0.0,3.7489560848196817,3.2165304942175474,92.88768188509756,92.22846536948836,0.0
0.132,1.5450050176248977,-0.6561855024341342,0.8957455126581206,0.0,3.7615695750474214,3.1931340543523543,93.35380795477371,92.22846536948836,0.0
0.133,1.578593752439962,-0.6414265310238003,0.6514290519671921,0.0,3.768721086366191,3.1544820844195254,90.54031016338244,92.22846536948836,0.0
0.134,1.5758606424493025,-0.6190174285104081,2.0750594997238867,0.0,3.768974837997432,3.2800895059191237,92.60592456563263,92.22846536948836,0.0
0.135,1.6390628958483966,-0.6409827806735293,1.0384777066373485,0.0,3.7844042363785846,3.2579216797409933,93.32756780901693,92.22846536948836,0.0
0.136,1.6760935820273286,-0.6250770675184016,0.6666650605499167,0.0,3.7941046303351147,3.205538649934348,90.31740224014558,92.22846536948836,0.0
0.137,1.6691698013382703,-0.5955452414364416,2.190858476279016,0.0,3.794507238177861,3.3318752874326805,91.85519996401001,92.22846536948836,0.0
