timestamp,iq,id,iq_ref,id_ref,vq,vd,omega,omega_ref,r
0.0,0.0,0.0,0.0,0.0,0.0,0.0,0.0,101.29510368096184,0.0
0.001,0.0,0.0,10.0,0.0,0.0,1.0999999999999999,5.2682873538753725,101.29510368096184,0.0
0.002,0.5548584941376692,-0.30982694639753927,10.0,0.0,0.1440809641037293,1.9289655656448563,11.426335861386201,101.29510368096184,0.0
0.003,1.0021369188456453,-0.5633267795304175,10.0,0.0,0.3814371005422123,2.645790629359099,17.850692217253865,101.29510368096184,0.0
0.004,1.3514408260695108,-0.7617157445075772,10.0,0.0,0.6860279175244304,3.2807181547982203,24.44716196546363,101.29510368096184,0.0
0.005,1.6266915381375493,-0.9180131514664689,10.0,0.0,1.0388612304680456,3.8558274701364064,31.182704572612284,101.29510368096184,0.0
0.006,1.8476186472032927,-1.0431977877279923,10.0,0.0,1.4261294795702955,4.387159710358585,38.02655309959379,101.29510368096184,0.0
0.007,2.0289684563281463,-1.1452296363167218,10.0,0.0,1.837775784766684,4.886346343555692,44.959902663626174,101.29510368096184,0.0
0.008,2.1810524810387517,-1.2306240613751445,10.0,0.0,2.266549191033684,5.361863199325811,51.90527496288608,101.29510368096184,0.0
0.009000000000000001,2.3112144706420765,-1.3043257220315403,10.0,0.0,2.7072501806726144,5.819908731536358,58.85148251481911,101.29510368096184,0.0
0.01,2.425618448381763,-1.3684598022023409,10.0,0.0,3.1560033567809302,6.264936991834408,65.82113333751055,101.29510368096184,0.0
0.011,2.5283508371918004,-1.4252108751262245,10.0,0.0,3.60998531852814,6.700181220721783,72.80004709801736,101.29510368096184,0.0
0.012,2.6225780039662316,-1.4758034336531871,10.0,0.0,4.067091177698093,7.127961558438048,79.77652772042926,101.29510368096184,0.0
0.013000000000000001,2.709518519406014,-1.5229594552857701,10.0,0.0,4.52594572151699,7.550053263269054,86.66033111873257,101.29510368096184,0.0
0.014,2.7911732757064076,-1.5667448295582307,9.633187919956114,0.0,4.985468812390744,7.927359305155374,93.25438283749244,101.29510368096184,0.0
0.015,2.8492702084242527,-1.5953161907227538,6.416569269010873,0.0,5.439475194351128,7.957153006100944,98.09340765593596,101.29510368096184,0.0
0.016,2.734199659527016,-1.5212197519763748,4.029073820039372,0.0,5.842623986336284,7.812148391976455,101.32547556924368,101.29510368096184,0.0
0.017,2.5232433088648856,-1.3946195322056223,2.412736144502695,0.0,6.177772377923155,7.590091421727473,103.27129532663336,101.29510368096184,0.0
0.018000000000000002,2.283447924767646,-1.2480074672328332,1.420064349351137,0.0,6.442338908377141,7.354992395694848,104.79117116819037,101.29510368096184,0.0
0.019,2.0548809382811264,-1.1067996131546647,0.625165753700347,0.0,6.642872139883598,7.115092212413355,104.29985762137886,101.29510368096184,0.0
0.02,1.8407087735366987,-0.983047036967222,0.8407749877019324,0.0,6.78716132507142,6.972174640564362,102.7083713329575,101.29510368096184,0.0
0.021,1.7021654470717895,-0.8843223753767488,1.6223854553926582,0.0,6.893107647542484,6.954896847788712,103.77681778394825,101.29510368096184,0.0
0.022,1.650833592196417,-0.8251994079132476,1.06334508886742,0.0,6.9812152786837975,6.8848919923146905,105.45044813428372,101.29510368096184,0.0
0.023,1.5808999985155376,-0.775771631249705,0.18497646916646548,0.0,7.04866583540522,6.746847617756492,104.03242558160109,101.29510368096184,0.0
0.024,1.4796879691717908,-0.7153816100476373,0.8666145265013876,0.0,7.089418274433093,6.723550596121111,102.25506504340161,101.29510368096184,0.0
0.025,1.4509945578629435,-0.6713006750497454,1.7456951819767266,0.0,7.11952076475689,6.798685167031531,104.04535716712375,101.29510368096184,0.0
0.026000000000000002,1.4826906042718335,-0.6609069226643804,0.8230465852540383,0.0,7.153423959726939,6.755260878470972,104.436938084082,101.29510368096184,0.0
0.027,1.451017302907102,-0.6411386063057793,0.5958377827437129,0.0,7.177523829068334,6.707603879568772,101.6974293272723,101.29510368096184,0.0
0.028,1.4212047339290974,-0.6061495343348198,1.9615689046854574,0.0,7.19079689683215,6.822587728503564,102.94434994628467,101.29510368096184,0.0
0.029,1.4831016193900528,-0.6039863162555628,1.3216161325260432,0.0,7.214352979444054,6.836241600073815,104.04662504454257,101.29510368096184,0.0
0.03,1.4891803154647394,-0.6011251413313449,0.7429633697612905,0.0,7.236625743890922,6.7935837288520995,101.06129078480002,101.29510368096184,0.0
0.031,1.4688831177050055,-0.5698588724127494,2.2379686285941807,0.0,7.248994766939129,6.929949506010827,102.80955710244862,101.29510368096184,0.0
0.032,1.544178758039342,-0.5744340646161414,1.3486909355550125,0.0,7.274579399229945,6.932659516521488,102.77730179642556,101.29510368096184,0.0
0.033,1.5464368713324235,-0.5707384821379285,1.3499966074119056,0.0,7.297424303348109,6.9471979539859205,100.50796873769322,101.29510368096184,0.0
0.034,1.5626001110360193,-0.5429532380800579,2.4925344862107632,0.0,7.316419139779319,7.086477772830565,103.31184079084446,101.29510368096184,0.0
0.035,1.6357092400486173,-0.5606230617647843,1.070431088536318,0.0,7.34966400749777,7.037991969107341,100.52444509933166,101.29510368096184,0.0
0.036000000000000004,1.6170763858694899,-0.5342005126354866,2.4718355201090194,0.0,7.371652629430983,7.168835459227855,102.46596143938318,101.29510368096184,0.0
0.037,1.6903385457516298,-0.5349107174484082,1.4893687724990459,0.0,7.4048690862036395,7.158462909847988,100.75194599747397,101.29510368096184,0.0
0.038,1.68814647494453,-0.5225538098596632,2.3518080702885302,0.0,7.432360280478155,7.258116000703921,101.92930715858762,101.29510368096184,0.0
0.039,1.7495078462358413,-0.5124196379117238,1.7567854549554465,0.0,7.4660764745724215,7.269704349687059,100.46687619439955,101.29510368096184,0.0
0.04,1.757555622389894,-0.5047085854597273,2.496283211915106,0.0,7.496833010105341,7.370528820936171,101.86709375639585,101.29510368096184,0.0
0.041,1.8205282140100492,-0.495774442173869,1.790454530162616,0.0,7.533690693972951,7.372463858734619,99.6272850392459,101.29510368096184,0.0
0.042,1.826695842365496,-0.4809682504073084,2.927037075154746,0.0,7.565516773572183,7.5099248147037425,102.21474558861937,101.29510368096184,0.0
0.043000000000000003,1.90458271638219,-0.4874675552986517,1.6241103813914406,0.0,7.6087693262641185,7.473628641413713,99.05834707857294,101.29510368096184,0.0
0.044,1.9006378438404843,-0.45046949042233386,3.224677202438544,0.0,7.639932226172547,7.635591762694445,101.39730863629549,101.29510368096184,0.0
0.045,1.9820535404995456,-0.47545415167920313,2.0541743740239298,0.0,7.687293441605228,7.6307187071439575,100.19563952287146,101.29510368096184,0.0
0.046,2.0018929920007396,-0.43610313345678287,2.66600357231685,0.0,7.724852771322553,7.708707136089611,99.31053469605533,101.29510368096184,0.0
0.047,2.0407699037659817,-0.44205726152527547,3.128401675573981,0.0,7.767503475232472,7.823320088708624,101.41585708800466,101.29510368096184,0.0
0.048,2.1122157624373705,-0.4422243682633751,2.074532945528888,0.0,7.817309244473805,7.802716999782996,99.45265875751963,101.29510368096184,0.0
0.049,2.121117532570989,-0.39966196346391236,3.0745565600058242,0.0,7.855390592303122,7.909431345438995,98.72864525109448,101.29510368096184,0.0
0.05,2.175661495297316,-0.41160226429844493,3.462227897517074,0.0,7.902074297054899,8.03601518409523,100.63480328187126,101.29510368096184,0.0
0.051000000000000004,2.2540864665191696,-0.4184370026434213,2.51575188611959,0.0,7.957380433406723,8.038538627525046,100.4668434289343,101.29510368096184,0.0
0.052000000000000005,2.2765765326588236,-0.38083585855580937,2.6080144151083453,0.0,8.003203827233262,8.064264320986657,98.27181555487071,101.29510368096184,0.0
0.053,2.3003719136166882,-0.35612481204417745,3.7357612334010484,0.0,8.0446752473479,8.212736717963102,98.21133461799666,101.29510368096184,0.0
0.054,2.3827642452921056,-0.3762437254425737,3.796839392467729,0.0,8.099306956087666,8.337124943893059,99.32545755668329,101.29510368096184,0.0
0.055,2.4630881236420614,-0.3843538373600949,3.259474384367197,0.0,8.16160523972339,8.386804882320522,100.04165243700137,101.29510368096184,0.0
0.056,2.506040621642187,-0.3657745384680905,2.9139114566477597,0.0,8.220516864840988,8.40118684730417,100.13721691121874,101.29510368096184,0.0
0.057,2.5288144480172963,-0.3331887541559062,2.877708087236506,0.0,8.271576880659781,8.417419441021913,100.39259355311161,101.29510368096184,0.0
0.058,2.543442023025425,-0.31659959095146517,2.7590448675685755,0.0,8.317655204159093,8.423062561493253,100.518195645524,101.29510368096184,0.0
0.059000000000000004,2.5374245808000344,-0.32613865563511424,2.7040129017167573,0.0,8.360905196102856,8.428690512615244,100.57639137336714,101.29510368096184,0.0
0.06,2.525299873384955,-0.3462773434667743,2.6821021608711333,0.0,8.40251284897909,8.43749434937832,102.07239050953235,101.29510368096184,0.0
0.061,2.512132181754975,-0.3724743194511373,1.9263297245028235,0.0,8.443520400723969,8.367989906165795,104.69514735307975,101.29510368096184,0.0
0.062,2.46289078335432,-0.371273135247878,0.5809508660079481,0.0,8.473082652950907,8.174387589286036,104.61652877339033,101.29510368096184,0.0
0.063,2.3527709473187493,-0.3272805833942172,0.5870459049283725,0.0,8.475501279405307,8.028846740163045,103.44228342019731,101.29510368096184,0.0
0.064,2.258394261548601,-0.30891746014972565,1.1526967841325253,0.0,8.461543940263606,7.969542721995403,103.51995615766766,101.29510368096184,0.0
0.065,2.2116890080266227,-0.3243296273241324,1.0916118906302916,0.0,8.444930902840944,7.906591335682789,105.91508537097296,101.29510368096184,0.0
0.066,2.1743117643219527,-0.335164325531349,-0.15215253292246755,0.0,8.424721725660337,7.715714990875684,104.26504611118334,101.29510368096184,0.0
0.067,2.0758211407949334,-0.3066374713556137,0.6431676726701285,0.0,8.384199530775675,7.652288425832862,104.03450660113485,101.29510368096184,0.0
0.068,2.0308967690857243,-0.3259273206480895,0.7310433984926421,0.0,8.343794050839128,7.596822200243157,105.3459375147116,101.29510368096184,0.0
0.069,2.0056301113349155,-0.337194420481464,0.03481960336677359,0.0,8.302928978826008,7.467728763132184,104.05557682011931,101.29510368096184,0.0
0.07,1.9379606783176575,-0.33951936151266504,0.6523952192713391,0.0,8.253384142818206,7.429544689286157,105.44953343839302,101.29510368096184,0.0
0.07100000000000001,1.9139493500478795,-0.36505770712940167,-0.08612738743982562,0.0,8.207761351634106,7.304775848106173,104.27187539293762,101.29510368096184,0.0
0.07200000000000001,1.8562898294035892,-0.3574487913866834,0.4729339181681178,0.0,8.153131591262554,7.262906015597939,104.69446393478174,101.29510368096184,0.0
0.073,1.8291365488999212,-0.3861542851319767,0.22764604470785832,0.0,8.103011517146742,7.189598176815629,104.59552956222367,101.29510368096184,0.0
0.074,1.7990409681269228,-0.3905305827721909,0.24410897217427108,0.0,8.050767004367254,7.125911896335871,104.50518371893578,101.29510368096184,0.0
0.075,1.7632851841568815,-0.4127891019292854,0.25718109343847795,0.0,7.999782988948615,7.068275277119512,104.41690828666023,101.29510368096184,0.0
0.076,1.7389450955297912,-0.42081851494486777,0.2701007635192698,0.0,7.948794363390348,7.014914212688448,104.84706739538065,101.29510368096184,0.0
0.077,1.7081058029116254,-0.44527700571199613,0.019501572014873236,0.0,7.900178633799026,6.9372442056801,104.18321936815752,101.29510368096184,0.0
0.078,1.6730520501649315,-0.44630829704862984,0.32254442875447875,0.0,7.848526333605364,6.901867852445811,105.1106950635525,101.29510368096184,0.0
0.079,1.6511371218022655,-0.4709896987473634,-0.17934933276891507,0.0,7.801206269381134,6.808685266773039,103.85814175626957,101.29510368096184,0.0
0.08,1.6062533429841757,-0.47038091919417935,0.4212969401194693,0.0,7.74898617324421,6.795897027264443,104.02685171883266,101.29510368096184,0.0
0.081,1.600186727064112,-0.48930123149252613,0.3096244784592186,0.0,7.702796584918471,6.76109365854453,105.54981322138474,101.29510368096184,0.0
0.082,1.5803425977310255,-0.5135248440210043,-0.4944033682210498,0.0,7.660221012808461,6.639947517413243,103.70652309774752,101.29510368096184,0.0
0.083,1.518013528988006,-0.5053530903497556,0.40312749942970205,0.0,7.608647254767203,6.640084863360875,104.04083509466642,101.29510368096184,0.0
0.084,1.51688829444474,-0.5225346020117618,0.208514186833207,0.0,7.5642162909443655,6.60416881095982,104.91099860569771,101.29510368096184,0.0
0.085,1.4968407870201226,-0.5428982992913651,-0.2627265179297986,0.0,7.522705009847844,6.519704896489901,103.69915038386738,101.29510368096184,0.0
0.08600000000000001,1.4525084171538827,-0.5423430175717512,0.3191571259563146,0.0,7.476633747452029,6.51293193884346,103.56232972302794,101.29510368096184,0.0
0.08700000000000001,1.4476918915041366,-0.5570814204884711,0.3648951959553699,0.0,7.436119092669183,6.501527996105927,104.37517452672684,101.29510368096184,0.0
0.088,1.4440743710669592,-0.5709528459255224,-0.07232791435172725,0.0,7.399893981859783,6.439010821321686,104.61283831331093,101.29510368096184,0.0
0.089,1.4063191694269677,-0.5819224407228158,-0.2243371539672645,0.0,7.362107605826227,6.370890964656317,103.54013015202489,101.29510368096184,0.0
0.09,1.3679504300477265,-0.579476072306881,0.28956666196512737,0.0,7.320909085255763,6.367696977518164,103.36563913232926,101.29510368096184,0.0
0.091,1.363671302785753,-0.5927328864337635,0.3561068172992643,0.0,7.28499373126665,6.362969932569237,103.68266779817297,101.29510368096184,0.0
0.092,1.3612894491614689,-0.6066820681330403,0.17371684320529912,0.0,7.253599050027208,6.334614970638664,104.13928392622134,101.29510368096184,0.0
0.093,1.3437116387522532,-0.6167609252144288,-0.08303302327147932,0.0,7.22347752318061,6.281447191814468,103.69779715255355,101.29510368096184,0.0
0.094,1.3136043435000802,-0.6145344017057736,0.11368342884649918,0.0,7.190705664979484,6.257926370959425,103.63357718256484,101.29510368096184,0.0
0.095,1.2975834425844979,-0.6189990548698483,0.12240867882482576,0.0,7.159372287596105,6.233934285494403,103.5435630470081,101.29510368096184,0.0
0.096,1.2824963634918907,-0.624075231850311,0.14493115294272751,0.0,7.129286772340771,6.213097660181763,103.40888713387736,101.29510368096184,0.0
0.097,1.268705829961366,-0.6296834830310188,0.19113127497894689,0.0,7.100692291939778,6.19755902245509,103.20785210340156,101.29510368096184,0.0
0.098,1.257842002179195,-0.635387559075067,0.2725213059924465,0.0,7.073974761659255,6.19026281837284,103.02162450449534,101.29510368096184,0.0
0.099,1.2514721983840276,-0.6419375037891066,0.3483698972102258,0.0,7.049862817156665,6.189145966534232,102.93190687185665,101.29510368096184,0.0
0.1,1.2472837994528088,-0.6509811165949616,0.37686068162061837,0.0,7.028979679881976,6.18850213164667,102.57925728686804,101.29510368096184,0.0
0.101,1.2449646691731464,-0.6557342589300386,0.5403439380558623,0.0,7.0105528823748005,6.203745837225622,102.55653438076534,101.29510368096184,0.0
0.10200000000000001,1.2511637778796538,-0.6619752180030579,0.5390910841091774,0.0,6.996132109250917,6.21314475273696,102.66686297182416,101.29510368096184,0.0
0.10300000000000001,1.255252879895209,-0.6644042495387535,0.47020919567114583,0.0,6.984298088868754,6.212209410061414,103.82604886225025,101.29510368096184,0.0
0.10400000000000001,1.25033868774778,-0.667743216105388,-0.13469320135478213,0.0,6.973896932264223,6.1449152069831054,103.40389702310829,101.29510368096184,0.0
0.105,1.2077402404490873,-0.6573682655874729,0.05529478479473382,0.0,6.956631836789679,6.114894698280264,102.23523970237873,101.29510368096184,0.0
0.106,1.1857760410176048,-0.6484392074799349,0.6302220849453404,0.0,6.937212753105659,6.149481931519802,101.62053920172713,101.29510368096184,0.0
0.107,1.2017334658109022,-0.6542583656906145,0.9343179800634918,0.0,6.92392369909824,6.204394849806894,101.88862137729062,101.29510368096184,0.0
0.108,1.2323697011729136,-0.6643244631455955,0.7943417153184578,0.0,6.918503921458212,6.2308388111495105,102.95289794389556,101.29510368096184,0.0
0.109,1.246483700754489,-0.6689416459986092,0.24562548938664786,0.0,6.916677746855734,6.193891198788464,103.17806672330876,101.29510368096184,0.0
0.11,1.221199141995763,-0.6624528497294426,0.11421146925658099,0.0,6.910579489059261,6.154409791707561,101.95632580775636,101.29510368096184,0.0
0.111,1.1940064351983348,-0.6492825734059597,0.718469705764837,0.0,6.899759073901452,6.188787597932436,100.97813345326627,101.29510368096184,0.0
0.112,1.2096819054703019,-0.6485450298662819,1.2107355852868382,0.0,6.893509053855782,6.264756017603494,101.3661038450894,101.29510368096184,0.0
0.113,1.251865825097951,-0.6578143833718172,1.016040387733997,0.0,6.896507882102787,6.3016799863205195,102.62453679791517,101.29510368096184,0.0
0.114,1.2716592190849418,-0.662344411515059,0.3735295801515781,0.0,6.903304833957501,6.264726769989716,102.6044795552017,101.29510368096184,0.0
0.115,1.2467542955047695,-0.6519360675832085,0.37046444276591095,0.0,6.904536550879725,6.241173988974554,101.04039694860093,101.29510368096184,0.0
0.116,1.2289669119833926,-0.6368709917978589,1.155052813389909,0.0,6.90173674311114,6.308142592847176,100.36632301380043,101.29510368096184,0.0
0.117,1.2645891808021594,-0.6368613505270349,1.5013775874617747,0.0,6.906063366724737,6.3942878735920665,101.74236480070539,101.29510368096184,0.0
0.11800000000000001,1.3126420279123105,-0.6465117098453528,0.8088840828118578,0.0,6.91963349198919,6.387684164877687,102.51759611252244,101.29510368096184,0.0
0.11900000000000001,1.3065153063295216,-0.6422038304890206,0.4090435025877259,0.0,6.930615863533378,6.347194778628243,100.81519842918172,101.29510368096184,0.0
0.12,1.2799086557003863,-0.6232443167384483,1.2650413967758873,0.0,6.934408591579205,6.412876206674479,99.79518037111306,101.29510368096184,0.0
0.121,1.3157848861047194,-0.6163091941509727,1.790049658908704,0.0,6.943816921277952,6.517347242762635,101.73726226096454,101.29510368096184,0.0
0.122,1.3732880827152316,-0.6279749761952504,0.8145871281829373,0.0,6.9640841088663885,6.493794457887575,101.8804875723169,101.29510368096184,0.0
0.123,1.358090727591563,-0.6199486990905706,0.7371206335932103,0.0,6.978969750906516,6.4781037221909585,99.44860620018154,101.29510368096184,0.0
0.124,1.3476028873079842,-0.5986708481331567,1.9715262944686887,0.0,6.988537454338701,6.603031600790177,100.54459881299394,101.29510368096184,0.0
0.125,1.4165800706487366,-0.6034484886839795,1.43103503674217,0.0,7.010379494257757,6.636932998343701,102.07089378518329,101.29510368096184,0.0
0.126,1.434523882194231,-0.6058484132305215,0.6601296496052818,0.0,7.0336436852348685,6.588949732689386,99.51274901242475,101.29510368096184,0.0
0.127,1.4084576467698602,-0.5798019964952494,1.9570255826699219,0.0,7.046894025462493,6.701505543218831,100.09789623097167,101.29510368096184,0.0
0.128,1.4712261382070113,-0.5767969932636403,1.6764240478963628,0.0,7.070004826532174,6.753130482150025,101.68878677308506,101.29510368096184,0.0
0.129,1.4978218770909721,-0.5831192271560615,0.877041945918438,0.0,7.096692537148491,6.714480145062369,98.76839913696959,101.29510368096184,0.0
0.13,1.4803426105125088,-0.555374690187224,2.3625028094160925,0.0,7.1137313215889115,6.855946805462098,100.5879917294038,101.29510368096184,0.0
0.131,1.5576286116670564,-0.5612749962623731,1.4597776327145706,0.0,7.14413937266322,6.862140047400972,100.31902486761412,101.29510368096184,0.0
0.132,1.561033971054783,-0.5579021197841952,1.6040218517428873,0.0,7.171695923350631,6.896047156592413,98.7298366725087,101.29510368096184,0.0
0.133,1.5875909383060764,-0.5322618527878445,2.4242686193801295,0.0,7.197100829283633,7.015216699379499,101.24573550102481,101.29510368096184,0.0
0.134,1.6473745570792702,-0.5491646268805904,1.1668128869214427,0.0,7.233997906722204,6.97217655184181,98.11251448074223,101.29510368096184,0.0
0.135,1.632993763330187,-0.5172209722799661,2.765249289064927,0.0,7.259218431916155,7.127712411862247,100.96277939308202,101.29510368096184,0.0
0.136,1.7147206960841062,-0.5299046923624869,1.3434400757738343,0.0,7.299185136347837,7.088699590376161,98.13562627911007,101.29510368096184,0.0
