timestamp,iq,id,iq_ref,id_ref,vq,vd,omega,omega_ref,r
0.0,0.0,0.0,0.0,0.0,0.0,0.0,0.0,393.1765119325001,0.0
0.001,0.0,0.0,10.0,0.0,0.0,1.0999999999999999,3.9616166376088144,393.1765119325001,0.0
0.002,0.4180595836562341,-0.21561877923106068,10.0,0.0,0.13371806571541675,1.9440134457978142,8.23571516102104,393.1765119325001,0.0
0.003,0.9743097413146152,-0.5206110736532212,10.0,0.0,0.36985863403320024,2.6599904320815293,12.527832842840132,393.1765119325001,0.0
0.004,1.554041011658241,-0.8392746724107457,10.0,0.0,0.6859859170666828,3.269775838407436,16.947385617251683,393.1765119325001,0.0
0.005,2.0927741665490616,-1.133708370804081,10.0,0.0,1.0606800832650998,3.7967320980695463,21.45360875475932,393.1765119325001,0.0
0.006,2.561080403125919,-1.387619207153617,10.0,0.0,1.4755863138244016,4.262335793910742,25.999409092129962,393.1765119325001,0.0
0.007,2.951698558634684,-1.5969719877594952,10.0,0.0,1.9160519884150435,4.68458480848355,30.552772196513093,393.1765119325001,0.0
0.008,3.269671667154429,-1.7647115646751734,10.0,0.0,2.3710538226585687,5.07758462867606,35.14822529842022,393.1765119325001,0.0
0.009000000000000001,3.5259771100445576,-1.8968713792137035,10.0,0.0,2.832715639327073,5.451770782640953,39.63947248028397,393.1765119325001,0.0
0.01,3.732904188096729,-2.001260246919027,10.0,0.0,3.295791067027417,5.814505578719369,44.09015646014596,393.1765119325001,0.0
0.011,3.902826024462467,-2.0842728767441705,10.0,0.0,3.75691993216928,6.17065230674027,48.50325529960121,393.1765119325001,0.0
0.012,4.0460747815291205,-2.151936849738624,10.0,0.0,4.214163494330185,6.523239103559593,52.87161785178542,393.1765119325001,0.0
0.013000000000000001,4.170984951973189,-2.2089334184057345,10.0,0.0,4.66653436278037,6.873983945734892,57.19120755964744,393.1765119325001,0.0
0.014,4.283866122405286,-2.2587267045657056,10.0,0.0,5.113649924393993,7.223723563494589,61.45542916122178,393.1765119325001,0.0
0.015,4.389242577429951,-2.3037415357532285,10.0,0.0,5.555481590191249,7.572738177291286,65.66866371449284,393.1765119325001,0.0
0.016,4.4902403933490485,-2.3454849354078746,10.0,0.0,5.992173176438587,7.9209785010871885,69.84181467852878,393.1765119325001,0.0
0.017,4.588899359396963,-2.3848053825238607,10.0,0.0,6.4239274516269935,8.26822144302215,73.9649551953875,393.1765119325001,0.0
0.018000000000000002,4.686432323481271,-2.4221560897934067,10.0,0.0,6.8509459668185455,8.614173481893665,78.02954947565645,393.1765119325001,0.0
0.019,4.783563190795056,-2.4575991963899413,10.0,0.0,7.273383069031016,8.958523102633508,82.03106929238346,393.1765119325001,0.0
0.02,4.880696046124427,-2.4909636677508087,10.0,0.0,7.691327083879955,9.300968166107525,85.96446748726113,393.1765119325001,0.0
0.021,4.978047473063555,-2.521945671752982,10.0,0.0,8.104795579318031,9.641225796309017,89.82394961672645,393.1765119325001,0.0
0.022,5.0757489511829075,-2.5501597451063662,10.0,0.0,8.5137367162613,9.979030864710435,93.60314621687195,393.1765119325001,0.0
0.023,5.173909356656023,-2.575179440917755,10.0,0.0,8.918034272156104,10.314128910145188,97.29522897460696,393.1765119325001,0.0
0.024,5.272651794264478,-2.596563929141803,10.0,0.0,9.317513973751431,10.646266842543747,100.89299697676094,393.1765119325001,0.0
0.025,5.372132145696593,-2.613875277752582,10.0,0.0,9.71194990189203,10.975183537580536,104.38898090225341,393.1765119325001,0.0
0.026000000000000002,5.472545457096928,-2.6266895989783805,10.0,0.0,10.101070368570976,11.300601495187992,107.77556076192398,393.1765119325001,0.0
0.027,5.574124563577115,-2.6346046546941104,10.0,0.0,10.484563097259244,11.622220135103772,111.04509700124002,393.1765119325001,0.0
0.028,5.677134143804964,-2.637245555999759,10.0,0.0,10.86207976565673,11.939710921136546,114.19008030778502,393.1765119325001,0.0
0.029,5.781862373991846,-2.6342695390593853,10.0,0.0,11.233240074941248,12.252714285887514,117.2033131555987,393.1765119325001,0.0
0.03,5.888611623568977,-2.6253702477636987,10.0,0.0,11.597635527899287,12.560838209940218,120.07815833661678,393.1765119325001,0.0
0.031,5.997689195698382,-2.6102814433823873,10.0,0.0,11.954833052397802,12.863658246444988,122.80895316558622,393.1765119325001,0.0
0.032,6.109399027395798,-2.5887793876773895,10.0,0.0,12.304378490013212,13.160718725983715,125.39188161276364,393.1765119325001,0.0
0.033,6.224035876568071,-2.560681623847941,10.0,0.0,12.64579969835676,13.451534746238137,127.70629567349668,393.1765119325001,0.0
0.034,6.341414342665548,-2.526613987669254,10.0,0.0,12.978693925550036,13.735646022522467,129.8338784715258,393.1765119325001,0.0
0.035,6.46236251348595,-2.485553581654846,10.0,0.0,13.30253388935262,14.012505079768431,131.8109271410923,393.1765119325001,0.0
0.036000000000000004,6.586859063000854,-2.4378512508105765,10.0,0.0,13.616839110166815,14.281577088931607,133.58730988015574,393.1765119325001,0.0
0.037,6.715014126841438,-2.383640472058735,10.0,0.0,13.921134847461651,14.542320327732579,135.19346771589824,393.1765119325001,0.0
0.038,6.847009567077066,-2.322918973717108,10.0,0.0,14.21493807787704,14.794180868595426,136.60524676059183,393.1765119325001,0.0
0.039,6.982763598357744,-2.256086196216727,10.0,0.0,14.49780264879555,15.036622689375012,137.83482276893002,393.1765119325001,0.0
0.04,7.122344006832883,-2.1832657113116327,10.0,0.0,14.769283019135607,15.269110480549026,138.87333238435218,393.1765119325001,0.0
0.041,7.265575603831854,-2.10493404899705,10.0,0.0,15.028975853553504,15.491137858054504,139.72783892368508,393.1765119325001,0.0
0.042,7.412385506609467,-2.021355656779422,10.0,0.0,15.276491835759373,15.702215007915688,140.3945761793069,393.1765119325001,0.0
0.043000000000000003,7.562490854900508,-1.9330843105368758,10.0,0.0,15.511489870566264,15.90189255172709,140.8824832221019,393.1765119325001,0.0
0.044,7.715703660490694,-1.840464768546751,10.0,0.0,15.73365042011712,16.089749789506037,141.1870295054329,393.1765119325001,0.0
0.045,7.871620567891171,-1.7441350401661184,10.0,0.0,15.942710563788816,16.265418626704015,141.32503762821864,393.1765119325001,0.0
0.046,8.029974163129904,-1.644453244108043,10.0,0.0,16.13842987653056,16.428566868147115,141.28285520388576,393.1765119325001,0.0
0.047,8.190245237160884,-1.542131025948907,10.0,0.0,16.320633456105515,16.578925934529064,141.09772814590738,393.1765119325001,0.0
0.048,8.352102741736857,-1.4375166279024052,10.0,0.0,16.489168222757645,16.716267837467267,140.72862286075866,393.1765119325001,0.0
0.049,8.515027348683557,-1.3312110383623685,10.0,0.0,16.64393623216944,16.840425895058473,140.26058986226522,393.1765119325001,0.0
0.05,8.678304384308792,-1.2241003963092125,10.0,0.0,16.78492413166873,16.951313719982444,139.5572413891369,393.1765119325001,0.0
0.051000000000000004,8.842862076878902,-1.1142593779221217,10.0,0.0,16.911890618108444,17.048742976537483,138.55004033432394,393.1765119325001,0.0
0.052000000000000005,9.001350125204114,-1.013700071711423,10.0,0.0,17.02594026806039,17.133337847690917,138.36886824537476,393.1765119325001,0.0
0.053,9.168157096132369,-0.8978003387893656,10.0,0.0,17.12530106257315,17.20411431040534,139.12034610243114,393.1765119325001,0.0
0.054,9.284587611259363,-0.8653490934084118,10.0,0.0,17.219392784243396,17.266609919344916,143.36252530425634,393.1765119325001,0.0
0.055,9.354748291324345,-0.9053250158650141,10.0,0.0,17.315046758564616,17.32571176990168,143.95438578023678,393.1765119325001,0.0
0.056,9.40482981367099,-0.9709916434827197,10.0,0.0,17.413869090322773,17.383661472177405,147.45445238392514,393.1765119325001,0.0
0.057,9.427563841355042,-1.07413130387632,10.0,0.0,17.519292855499806,17.4436985095796,149.66307067412384,393.1765119325001,0.0
0.058,9.451152004552844,-1.166164548383982,10.0,0.0,17.629270208191258,17.50590686208436,152.07481859640345,393.1765119325001,0.0
0.059000000000000004,9.45067906041576,-1.2906550877195846,10.0,0.0,17.747244287745882,17.57318002009484,155.2981704745924,393.1765119325001,0.0
0.06,9.453591439532419,-1.401268326228272,10.0,0.0,17.87107082598869,17.645198179115532,157.34659320373422,393.1765119325001,0.0
0.061,9.438352756118103,-1.5363891965815677,10.0,0.0,18.003473689663064,17.72410255502518,161.15069613932775,393.1765119325001,0.0
0.062,9.42763405512119,-1.6576406107974733,10.0,0.0,18.142513151421184,17.80938344998682,163.2312073334837,393.1765119325001,0.0
0.063,9.401556865952035,-1.8005080994186393,10.0,0.0,18.290679666105827,17.902801505426744,167.20110258768253,393.1765119325001,0.0
0.064,9.381149318392808,-1.9288468081145216,10.0,0.0,18.44605991793633,18.00367846513097,169.74943206514646,393.1765119325001,0.0
0.065,9.346213699184048,-2.0784501981730736,10.0,0.0,18.611162826373683,18.113644596685187,173.57939757608867,393.1765119325001,0.0
0.066,9.317766766286635,-2.212596671980465,10.0,0.0,18.784012135340955,18.231904212354344,176.80967353598894,393.1765119325001,0.0
0.067,9.276321854364362,-2.365519393044809,10.0,0.0,18.966882509557415,18.359897268335793,180.43390567617365,393.1765119325001,0.0
0.068,9.238955395883117,-2.5070896740633595,10.0,0.0,19.158308655651773,18.49707391745445,184.21503772559967,393.1765119325001,0.0
0.069,9.192630448803897,-2.659928151351534,10.0,0.0,19.35970638174008,18.644397595864586,187.84626143164402,393.1765119325001,0.0
0.07,9.14744221781385,-2.8059821521749995,10.0,0.0,19.57023425837826,18.801636134980654,191.82960309108603,393.1765119325001,0.0
0.07100000000000001,9.09633700056022,-2.95724351380893,10.0,0.0,19.790611411035734,18.96937329943693,195.62427173915705,393.1765119325001,0.0
0.07200000000000001,9.045133051543278,-3.1031188645135197,10.0,0.0,20.020258239834252,19.14749584493265,199.62692869467173,393.1765119325001,0.0
0.073,8.990700271033063,-3.248695769060961,10.0,0.0,20.259307346295664,19.336246385124603,203.5241679973858,393.1765119325001,0.0
0.074,8.935951750969304,-3.3885731688670258,10.0,0.0,20.507257341063315,19.535504791345417,207.49192793609564,393.1765119325001,0.0
0.075,8.880785805178245,-3.522674065129815,10.0,0.0,20.76369050156714,19.745153125257296,211.38877467665046,393.1765119325001,0.0
0.076,8.826703738875253,-3.6482806107660224,10.0,0.0,21.027920890469122,19.964877309663784,215.06164642669003,393.1765119325001,0.0
0.077,8.773663122298139,-3.765553555435947,10.0,0.0,21.299344617378875,20.19434576168027,218.61069544798093,393.1765119325001,0.0
0.078,8.724898439844763,-3.869178233645751,10.0,0.0,21.57679880195569,20.432843450090196,222.33865620790996,393.1765119325001,0.0
0.079,8.68198559708523,-3.956905823146439,10.0,0.0,21.85897112497879,20.67946955399581,225.74378522451119,393.1765119325001,0.0
0.08,8.645218161712306,-4.029026444720177,10.0,0.0,22.144644818568246,20.93326556927661,228.77417124124804,393.1765119325001,0.0
0.081,8.617539915375193,-4.081641702032623,10.0,0.0,22.432197216415467,21.192926285131627,231.55442242186024,393.1765119325001,0.0
0.082,8.6011482100919,-4.1123985763342015,10.0,0.0,22.719817549663524,21.456902474303654,234.00263782955875,393.1765119325001,0.0
0.083,8.59783484513033,-4.1199494103147325,10.0,0.0,23.005596491498807,21.72344363097622,236.07669470745404,393.1765119325001,0.0
0.084,8.609795189194454,-4.102565840730582,10.0,0.0,23.287463953823774,21.9905597946684,237.75438585822414,393.1765119325001,0.0
0.085,8.63891264518929,-4.0592733529580896,10.0,0.0,23.56326794832632,22.25606777150505,239.00663939716443,393.1765119325001,0.0
0.08600000000000001,8.686883451294605,-3.9895764145772152,10.0,0.0,23.830808602718104,22.517619735996668,239.81662944068302,393.1765119325001,0.0
0.08700000000000001,8.755097841237623,-3.8935615346876897,10.0,0.0,24.087885720715832,22.77274669464562,240.17456024208295,393.1765119325001,0.0
0.088,8.844561600936148,-3.7719200008821576,10.0,0.0,24.33234740285897,23.01890979956204,240.08046816106332,393.1765119325001,0.0
0.089,8.9558525087677,-3.625905931222539,10.0,0.0,24.562134094954928,23.253555399936648,239.5505050457424,393.1765119325001,0.0
0.09,9.08910454636177,-3.457249132801906,10.0,0.0,24.775314570749096,23.47417029442636,238.66294097410943,393.1765119325001,0.0
0.091,9.244217618480034,-3.2677045429116625,10.0,0.0,24.970075151509086,23.678311829489452,237.38102340896654,393.1765119325001,0.0
0.092,9.418021440137299,-3.063630565187645,10.0,0.0,25.145221136048637,23.86394797946111,234.43646986819357,393.1765119325001,0.0
0.093,9.610482525703796,-2.845872158973725,10.0,0.0,25.29950345222512,24.029102431693815,233.32035277205787,393.1765119325001,0.0
0.094,9.826501963288564,-2.606548330494787,10.0,0.0,25.43072494493668,24.171332143042243,229.86994333854045,393.1765119325001,0.0
0.095,10.047604358708192,-2.375101357705717,10.0,0.0,25.539981330789917,24.290299963406678,227.6991683905703,393.1765119325001,0.0
0.096,10.295578966093633,-2.1157017052935947,10.0,0.0,25.623989368056833,24.383230457461778,223.9403432321576,393.1765119325001,0.0
0.097,10.53910110041445,-1.877349873428345,10.0,0.0,25.6852649460215,24.450961017136628,220.91899498045328,393.1765119325001,0.0
0.098,10.805303931472098,-1.6148202699122165,10.0,0.0,25.720691284089067,24.491198988567326,217.06649442658568,393.1765119325001,0.0
0.099,11.06187487682828,-1.3781779066849205,10.0,0.0,25.733193421573123,24.505395020983116,212.95632678254657,393.1765119325001,0.0
0.1,11.334787934863886,-1.1231807132016633,10.0,0.0,25.720181680899447,24.49196693697537,209.5849169305578,393.1765119325001,0.0
0.101,11.594091576646141,-0.8961030403663871,10.0,0.0,25.684699733815332,24.45278621728534,205.33187767641087,393.1765119325001,0.0
0.10200000000000001,11.864088457560952,-0.654643971967911,10.0,0.0,25.624558188675135,24.38686875437309,203.3970137906057,393.1765119325001,0.0
0.10300000000000001,12.115372169717043,-0.44468035511379833,10.0,0.0,25.543157644587765,24.29658764371004,208.05343600052547,393.1765119325001,0.0
0.10400000000000001,12.188611935714503,-0.5264266283366552,10.0,0.0,25.471960770065895,24.201651052566387,210.73072602881717,393.1765119325001,0.0
0.105,12.221970715834093,-0.6571896415511822,10.0,0.0,25.41195639260321,24.106151364931733,213.62435846311905,393.1765119325001,0.0
0.106,12.198165645870573,-0.859548673948384,10.0,0.0,25.369354347554875,24.017153353811466,216.52475583924854,393.1765119325001,0.0
0.107,12.147541036611017,-1.0801600082740181,10.0,0.0,25.34435636235119,23.938125595617294,219.97522925494272,393.1765119325001,0.0
0.108,12.065088038162271,-1.327830389495471,10.0,0.0,25.338993028439557,23.873064398458943,223.26953795626136,393.1765119325001,0.0
0.109,11.965923761358761,-1.578651368798707,10.0,0.0,25.352773512114396,23.824056528089162,227.15430740693978,393.1765119325001,0.0
0.11,11.8465580338279,-1.8413102850788976,10.0,0.0,25.386659431382565,23.793466080384206,230.85880431911772,393.1765119325001,0.0
0.111,11.71801501430966,-2.099461588085313,10.0,0.0,25.43986776812132,23.782269344248256,235.19661639811068,393.1765119325001,0.0
0.112,11.57458885836919,-2.365580144431296,10.0,0.0,25.513327125740616,23.792004562358052,239.11336902039886,393.1765119325001,0.0
0.113,11.425943328458438,-2.6249104779166994,10.0,0.0,25.60627922052888,23.823028941149566,243.64973225989274,393.1765119325001,0.0
0.114,11.268787234292498,-2.8846607961464534,10.0,0.0,25.719017775387897,23.876046806599906,247.813990957371,393.1765119325001,0.0
0.115,11.108315442073918,-3.1368256137200263,10.0,0.0,25.850924888056824,23.951117077193505,252.34177058072666,393.1765119325001,0.0
0.116,10.93864290683042,-3.3925840268400784,10.0,0.0,26.00276009378571,24.04893029294923,256.4468218216681,393.1765119325001,0.0
0.117,10.783308349900784,-3.6108830202837177,10.0,0.0,26.170648405664863,24.1675357836121,261.43511466807973,393.1765119325001,0.0
0.11800000000000001,10.617463021994482,-3.835275622300203,10.0,0.0,26.356108631709773,24.30775919689699,264.8781747923803,393.1765119325001,0.0
0.11900000000000001,10.457171182976461,-4.038953966138988,10.0,0.0,26.55720586828079,24.4684799404708,269.4680122765853,393.1765119325001,0.0
0.12,10.308424131265653,-4.212028545451462,10.0,0.0,26.77126687583806,24.647997590642348,273.19130403188655,393.1765119325001,0.0
0.121,10.163207554129297,-4.369533893689364,10.0,0.0,26.9974683901698,24.845455929520345,276.3528734901396,393.1765119325001,0.0
0.122,10.035055856883012,-4.4902453163102445,10.0,0.0,27.232498789962083,25.058433106869444,279.5202456552119,393.1765119325001,0.0
0.123,9.923915108997932,-4.576475633514072,10.0,0.0,27.473602088176264,25.28455957175777,282.03208455110325,393.1765119325001,0.0
0.124,9.833803535090293,-4.624540980845257,10.0,0.0,27.71763258809225,25.52098458562968,283.9939934206232,393.1765119325001,0.0
0.125,9.769048639839184,-4.630902452389684,10.0,0.0,27.96112164780041,25.764392070844526,285.4870359698889,393.1765119325001,0.0
0.126,9.733720168043085,-4.592997705272693,10.0,0.0,28.20036941316092,26.011046296453767,285.8859660770424,393.1765119325001,0.0
0.127,9.72581118519936,-4.518927496139389,10.0,0.0,28.43258914901281,26.257476579432982,284.97336199874854,393.1765119325001,0.0
0.128,9.75962699383576,-4.38983835255768,10.0,0.0,28.652770835874772,26.498686978921018,285.1123692505213,393.1765119325001,0.0
0.129,9.826189202880338,-4.224915162652776,10.0,0.0,28.85820473454563,26.730810822237917,283.45614396600155,393.1765119325001,0.0
0.13,9.927096182919893,-4.026186164946825,10.0,0.0,29.046096669832483,26.94983152537631,280.6300684955108,393.1765119325001,0.0
0.131,10.073086896131171,-3.7797729821929527,10.0,0.0,29.211983321778618,27.150689443076686,279.3347802390901,393.1765119325001,0.0
0.132,10.248801733121864,-3.5131360171841566,10.0,0.0,29.354501165976753,27.330181509264797,274.72881456247137,393.1765119325001,0.0
0.133,10.456622942349975,-3.2246920222932074,10.0,0.0,29.471653962585968,27.484872968608705,271.94265904783487,393.1765119325001,0.0
0.134,10.702899605772984,-2.9047406654607215,10.0,0.0,29.56025041616599,27.610798340794908,267.37667312864875,393.1765119325001,0.0
0.135,10.963179428350136,-2.592079538672782,10.0,0.0,29.62138655122827,27.70682280727123,262.69278769749354,393.1765119325001,0.0
0.136,11.259874314271178,-2.2495191611841037,10.0,0.0,29.65145648917609,27.769324801380606,258.2175515467136,393.1765119325001,0.0
0.137,11.560320941752385,-1.9267534274547176,10.0,0.0,29.652691005804726,27.798501409710106,252.06250476089667,393.1765119325001,0.0
0.138,11.885545888031073,-1.5870883208843516,10.0,0.0,29.622584227217995,27.79211353105367,248.08036979827284,393.1765119325001,0.0
0.139,12.208545316154801,-1.2699135655670224,10.0,0.0,29.563356766605082,27.751076074773387,241.9225722389669,393.1765119325001,0.0
0.14,12.548185981119975,-0.9403347772453401,10.0,0.0,29.472866387263238,27.674089139194898,236.62370675946875,393.1765119325001,0.0
0.14100000000000001,12.873705684246355,-0.6438060991673593,10.0,0.0,29.354403985592356,27.56334109854584,230.59119987657095,393.1765119325001,0.0
0.14200000000000002,13.205259226451679,-0.34299280976571644,10.0,0.0,29.206588844970263,27.418605929183272,236.14721060591336,393.1765119325001,0.0
0.14300000000000002,13.369282896813495,-0.3206319526810928,10.0,0.0,29.059630140088824,27.258835694377,239.3460473039282,393.1765119325001,0.0
0.14400000000000002,13.401996965276297,-0.49541844214735153,10.0,0.0,28.930840404627034,27.098388301735923,242.82300621903772,393.1765119325001,0.0
0.145,13.380522218124383,-0.7292022656480555,10.0,0.0,28.822853259137737,26.943796037684123,246.4859756568764,393.1765119325001,0.0
0.146,13.303764662483024,-1.0178680094347117,10.0,0.0,28.739620995373716,26.80209286913759,250.29196727864732,393.1765119325001,0.0
0.147,13.191168037269644,-1.3275272201752188,10.0,0.0,28.681717496875027,26.677854844286372,254.36426074751068,393.1765119325001,0.0
0.148,13.045452335115368,-1.6552816713531846,10.0,0.0,28.65013694326326,26.575153033055244,258.66432991251224,393.1765119325001,0.0
0.149,12.876468649644472,-1.9875690609644994,10.0,0.0,28.64471833223503,26.4966943959663,263.1296458261411,393.1765119325001,0.0
0.15,12.687514369292266,-2.3224385192878563,10.0,0.0,28.66550848512017,26.444634895467473,267.55874363168334,393.1765119325001,0.0
