timestamp,iq,id,iq_ref,id_ref,vq,vd,omega,omega_ref,r
0.0,0.0,0.0,0.0,0.0,0.0,0.0,0.0,270.4337080132997,0.0
0.001,0.0,0.0,10.0,0.0,0.0,1.0999999999999999,8.181351064719314,270.4337080132997,0.0
0.002,0.4189365302442783,-0.21217206065143646,10.0,0.0,0.13333892667165792,1.9439169816731288,17.212313888616,270.4337080132997,0.0
0.003,0.9099590521919866,-0.4950277424494893,10.0,0.0,0.3667280632347345,2.666953045734306,24.71944668990588,270.4337080132997,0.0
0.004,1.3787768574933872,-0.7633509507572874,10.0,0.0,0.6757688886434983,3.294364683681996,32.816827544622534,270.4337080132997,0.0
0.005,1.7862026325305898,-0.9910726677313969,10.0,0.0,1.039012952090229,3.849810583174716,41.42732030210538,270.4337080132997,0.0
0.006,2.1214710624667936,-1.1792476117371151,10.0,0.0,1.4398992258124463,4.353231029520226,49.950004816024425,270.4337080132997,0.0
0.007,2.391817603387066,-1.3313471545225783,10.0,0.0,1.8658881170633375,4.82001262340154,58.475156516330536,270.4337080132997,0.0
0.008,2.609843143481575,-1.4528837128626093,10.0,0.0,2.3078043045668184,5.261435603018615,67.05606076193199,270.4337080132997,0.0
0.009000000000000001,2.7874520420230353,-1.551211409331477,10.0,0.0,2.759271852309835,5.685551179985719,75.61501078834537,270.4337080132997,0.0
0.01,2.9351432239487196,-1.6323424348690458,10.0,0.0,3.215945338819703,6.097932013003999,84.28258981451438,270.4337080132997,0.0
0.011,3.061727582625817,-1.7001843873992395,10.0,0.0,3.6748408645033592,6.502294743736217,92.69308657499627,270.4337080132997,0.0
0.012,3.1726198494944033,-1.7596835657329646,10.0,0.0,4.134149600783278,6.9011784481948055,100.94119194330948,270.4337080132997,0.0
0.013000000000000001,3.2734988703648393,-1.8113700027906643,10.0,0.0,4.592506350174073,7.296116886208464,109.31397170566333,270.4337080132997,0.0
0.014,3.3677182992305372,-1.8566476428928154,10.0,0.0,5.048984944467815,7.688041808393314,117.48072291660651,270.4337080132997,0.0
0.015,3.4567007550826574,-1.897941211889775,10.0,0.0,5.503097687739313,8.077576221933976,125.44648748796655,270.4337080132997,0.0
0.016,3.5431881239050202,-1.9338991640036594,10.0,0.0,5.954295037080282,8.464944682435785,133.29433443861305,270.4337080132997,0.0
0.017,3.6281136105311824,-1.9651403251770816,10.0,0.0,6.402186445745276,8.850219101980855,140.93519290166225,270.4337080132997,0.0
0.018000000000000002,3.712543013497774,-1.9913941679160576,10.0,0.0,6.846391666587826,9.23331724097785,148.34787504709718,270.4337080132997,0.0
0.019,3.7974758886328,-2.0120899056815604,10.0,0.0,7.286500171972642,9.614027765924222,155.50965568951528,270.4337080132997,0.0
0.02,3.8836837986646215,-2.026809881314976,10.0,0.0,7.722081119255632,9.992044547562283,162.38045823557235,270.4337080132997,0.0
0.021,3.9719670453611498,-2.0349884577040154,10.0,0.0,8.152658093620591,10.366968667728539,168.93045683263068,270.4337080132997,0.0
0.022,4.063093523042428,-2.036089718199751,10.0,0.0,8.577709135456317,10.738316993236685,175.126974060988,270.4337080132997,0.0
0.023,4.1578075304499915,-2.02963947789788,10.0,0.0,8.996669366621123,11.105528314339576,180.92821695647794,270.4337080132997,0.0
0.024,4.2568173370021185,-2.0152684659840725,10.0,0.0,9.40893839787224,11.467970587801995,186.31867889513174,270.4337080132997,0.0
0.025,4.360891173115045,-1.992559584291406,10.0,0.0,9.813870486477425,11.824937513136387,191.26359160729677,270.4337080132997,0.0
0.026000000000000002,4.470547510490116,-1.9615461053025636,10.0,0.0,10.21082166488369,12.17567949604773,195.75084048259572,270.4337080132997,0.0
0.027,4.586583108358606,-1.9218336475221842,10.0,0.0,10.59909368817451,12.519375046116775,199.75739865587641,270.4337080132997,0.0
0.028,4.709091830710298,-1.8741728298205387,10.0,0.0,10.978062498773776,12.85521264002801,203.2721237265008,270.4337080132997,0.0
0.029,4.839213032314874,-1.8175859008277966,10.0,0.0,11.346970233692048,13.182275110655048,206.33815181964704,270.4337080132997,0.0
0.03,4.975665949697599,-1.7549786323133276,10.0,0.0,11.705372511934538,13.499813498815161,208.70193988363002,270.4337080132997,0.0
0.031,5.12185112076076,-1.6815374833902532,10.0,0.0,12.052235947472393,13.806722436340394,211.05042194574602,270.4337080132997,0.0
0.032,5.270410257477338,-1.6099187980682124,10.0,0.0,12.387960289312794,14.102747170338692,210.95358464658926,270.4337080132997,0.0
0.033,5.435438825968615,-1.517540089077502,10.0,0.0,12.71026919923323,14.386074313954328,213.97410471408435,270.4337080132997,0.0
0.034,5.593052462045759,-1.443900591826691,10.0,0.0,13.021503374915499,14.657612419916873,212.51529498719714,270.4337080132997,0.0
0.035,5.777697688836893,-1.3325151966060735,10.0,0.0,13.31725194512404,14.914385294265134,214.46897281636708,270.4337080132997,0.0
0.036000000000000004,5.9420656823514975,-1.2614355149442513,10.0,0.0,13.602398034715954,15.158821711180728,214.21801381378103,270.4337080132997,0.0
0.037,6.142634436528025,-1.1370246730337161,10.0,0.0,13.870498761246699,15.386910212339682,218.30056120103944,270.4337080132997,0.0
0.038,6.298382658135737,-1.0941920568524766,10.0,0.0,14.131130785879433,15.603873319200734,226.52717852904675,270.4337080132997,0.0
0.039,6.411750006613927,-1.1223561695075266,10.0,0.0,14.390922297288865,15.814290391722428,232.64729199315852,270.4337080132997,0.0
0.04,6.473486455211929,-1.2309736312515769,10.0,0.0,14.657442644474813,16.023987572271896,242.9949559439458,270.4337080132997,0.0
0.041,6.538228112430754,-1.3246130585869609,10.0,0.0,14.927494837386568,16.232862851676924,250.36954299333726,270.4337080132997,0.0
0.042,6.5673799363355,-1.4672137884956435,10.0,0.0,15.206179024964257,16.445296538375295,260.1308070947452,270.4337080132997,0.0
0.043000000000000003,6.603243435079172,-1.5853784834487863,10.0,0.0,15.489810271599774,16.66070180853884,270.22248118993883,270.4337080132997,0.0
0.044,6.603313799260372,-1.7519157675900812,5.304996317636771,0.0,15.783756374894104,16.366830166217124,271.7033144532993,270.4337080132997,0.0
0.045,6.413380891332572,-1.797645762765237,4.5518836215565415,0.0,16.02228563025468,16.116741262225684,283.84259830238574,270.4337080132997,0.0
0.046,6.134633967791771,-1.8218162344850768,-1.651847205877539,0.0,16.214154521617488,15.269397742622727,279.02896929301824,270.4337080132997,0.0
0.047,5.5811274609494355,-1.741953130643296,0.6690146860090271,0.0,16.29307552574392,14.90140582701545,283.4013172161554,270.4337080132997,0.0
0.048,5.123130050535868,-1.6504603599990901,-1.6468353675881149,0.0,16.318039664164548,14.344997728644069,285.29353505061727,270.4337080132997,0.0
0.049,4.611393631439883,-1.588801465929277,-2.741542555192221,0.0,16.278999028264717,13.801178595847821,282.4053059417787,270.4337080132997,0.0
0.05,4.120965114257698,-1.4919754013623823,-1.417143980057725,0.0,16.1794462645136,13.513298000581138,283.4004394012717,270.4337080132997,0.0
0.051000000000000004,3.7433065050995187,-1.4382022800906742,-2.04437802368394,0.0,16.056113934916702,13.198648619751355,282.6198552144623,270.4337080132997,0.0
0.052000000000000005,3.413611796246465,-1.4057630594184531,-1.7759474022908703,0.0,15.91061931713529,12.971420484716619,280.93074988449814,270.4337080132997,0.0
0.053,3.1562736619733274,-1.3807462542236477,-1.0363651560207803,0.0,15.754523891263839,12.856045689964503,280.1577037799723,270.4337080132997,0.0
0.054,2.9803179992310915,-1.377491743303094,-0.7470820614245754,0.0,15.602392700355011,12.777805891602258,279.0935106719032,270.4337080132997,0.0
0.055,2.860997742940048,-1.3854189312434624,-0.30158353397605797,0.0,15.458555184483483,12.749654632623317,277.22620427581575,270.4337080132997,0.0
0.056,2.792118372741179,-1.3979654867518005,0.5641447014424958,0.0,15.327587143527724,12.807093396735636,275.9280548621683,270.4337080132997,0.0
0.057,2.783770456926381,-1.4172489075540031,1.1582759397775209,0.0,15.217455493811936,12.902618111241456,274.7096736994285,270.4337080132997,0.0
0.058,2.8178367412500043,-1.4416273114335314,1.7247068642861483,0.0,15.130378270737044,13.030112508203974,273.39862419167133,270.4337080132997,0.0
0.059000000000000004,2.8883709591283084,-1.4596753997054108,2.3505824563810127,0.0,15.066499715336995,13.191913647924714,272.20111571868074,270.4337080132997,0.0
0.06,2.9857932577730297,-1.4792733707231376,2.9316626158224977,0.0,15.027164425378256,13.378795769078856,271.27734542389317,270.4337080132997,0.0
0.061,3.1150763781485855,-1.480909303462692,3.385111389110349,0.0,15.01043484942198,13.573877792334095,271.5450960821614,270.4337080132997,0.0
0.062,3.2532957621784138,-1.4849432831982217,3.240122179287604,0.0,15.01531381183037,13.713384053815279,267.5211516113416,270.4337080132997,0.0
0.063,3.380895016859787,-1.4658392321507252,5.281219978717084,0.0,15.031513718733459,14.052744511249998,267.90704835224693,270.4337080132997,0.0
0.064,3.594613662149694,-1.444063656788885,5.113538204874956,0.0,15.077825407910387,14.298699882079555,268.4717844669831,270.4337080132997,0.0
0.065,3.7895242749814546,-1.44072387149023,4.8507893829700475,0.0,15.14395184462334,14.478162351114127,261.69204256948814,270.4337080132997,0.0
0.066,3.975477135445151,-1.3919477102517526,8.328076986155635,0.0,15.216079904685209,15.012914632963318,267.09351472406564,270.4337080132997,0.0
0.067,4.293543428271054,-1.3823052394280917,5.660742841759223,0.0,15.333897476747593,15.140097097112097,260.97939585044827,270.4337080132997,0.0
0.068,4.499173457129225,-1.3495280057684744,8.812345400196424,0.0,15.449142467024288,15.620254054678162,263.00152812145495,270.4337080132997,0.0
0.069,4.825922584542674,-1.3046953275469004,7.875601063611529,0.0,15.596274831762155,15.895475809179676,260.0688698740987,270.4337080132997,0.0
0.07,5.095137279490662,-1.2788159756376474,9.445578568681661,0.0,15.753817733548576,16.313607468458244,260.08871049274103,270.4337080132997,0.0
0.07100000000000001,5.435943585831049,-1.2174109335115846,9.539108234566088,0.0,15.930923749969441,16.665472193436223,258.22474814759494,270.4337080132997,0.0
0.07200000000000001,5.7495462512398,-1.1893533452576384,10.0,0.0,16.123033352959347,17.018535614965813,257.3409818180043,270.4337080132997,0.0
0.073,6.095746828466524,-1.107632991771681,10.0,0.0,16.322529674802304,17.31594870014625,253.65713852729846,270.4337080132997,0.0
0.074,6.401563993583465,-1.0545161608836848,10.0,0.0,16.52679202511618,17.573392226602337,254.32840773908694,270.4337080132997,0.0
0.075,6.715330109793894,-0.94635127167598,10.0,0.0,16.72500552354032,17.79406153431223,258.00839406161384,270.4337080132997,0.0
0.076,6.927870492968299,-0.9676693241718076,10.0,0.0,16.92889123755965,17.992243480106467,271.7211369638357,270.4337080132997,0.0
0.077,7.038285422528321,-1.1149416082259975,4.237691452427383,0.0,17.148193345477477,17.547121624070364,272.0872073691441,270.4337080132997,0.0
0.078,6.891736209537794,-1.1309839543152724,4.038121256214743,0.0,17.30134499222918,17.221337091046554,280.6209158670694,270.4337080132997,0.0
0.079,6.622720428258004,-1.188354439921926,-0.33060507128561323,0.0,17.412753350959175,16.49300822574824,279.21381731785004,270.4337080132997,0.0
0.08,6.181605024168514,-1.1298124885634637,0.2851431102785682,0.0,17.43317466778085,16.005905182736882,284.97895262321737,270.4337080132997,0.0
0.081,5.726289556185602,-1.1206117395014985,-2.7428769885042703,0.0,17.402416885735978,15.275988430464288,282.4271439171182,270.4337080132997,0.0
0.082,5.198510942330966,-1.0587317262923677,-1.5869069944928729,0.0,17.295028412705953,14.826926968387735,285.47426340684063,270.4337080132997,0.0
0.083,4.744252124115291,-1.0410225455398052,-3.2608722932894985,0.0,17.152143431020587,14.261027606273267,284.3889068571511,270.4337080132997,0.0
0.084,4.2872393313908335,-1.0231251271827217,-2.8577460068832377,0.0,16.965165387080553,13.844242045711903,284.145610574078,270.4337080132997,0.0
0.085,3.8988361404917358,-1.0205025467750914,-2.873216890954467,0.0,16.755097081817127,13.482858399772422,283.5949203650716,270.4337080132997,0.0
0.08600000000000001,3.565992794580287,-1.038141834731837,-2.729483909968984,0.0,16.531863789965403,13.185300360790936,282.41810557246924,270.4337080132997,0.0
0.08700000000000001,3.2909653933446203,-1.0665601525118062,-2.260920489259515,0.0,16.304147645476938,12.972204023667425,281.3969469064727,270.4337080132997,0.0
0.088,3.0792287748942346,-1.107527180172681,-1.8599735451929695,0.0,16.082115671589857,12.817604989464826,280.251274515605,270.4337080132997,0.0
0.089,2.921515718307906,-1.1570822283574849,-1.3853130147821866,0.0,15.871868376694955,12.719696920238286,279.02148427435947,270.4337080132997,0.0
0.09,2.8125939095157686,-1.2107011345847973,-0.856295656770008,0.0,15.678257533570038,12.674404500923417,277.9893863583646,270.4337080132997,0.0
0.091,2.7478264033608353,-1.2647372168619753,-0.4158034822232164,0.0,15.504886312814346,12.663479412436693,277.0640147253893,270.4337080132997,0.0
0.092,2.716810706561247,-1.3152359287308535,-0.019420732856477052,0.0,15.352774202768362,12.678270942994352,275.4496721024708,270.4337080132997,0.0
0.093,2.7112110712560096,-1.3588770523378297,0.7375909377110688,0.0,15.221647993260806,12.75598536867598,274.18533613947125,270.4337080132997,0.0
0.094,2.7436102445198465,-1.3972735292859597,1.3322426379491294,0.0,15.115193048500405,12.867037395747136,273.02200165516734,270.4337080132997,0.0
0.095,2.8047701041358843,-1.4325144611033833,1.8880269436824038,0.0,15.033981338653588,13.005124889438285,272.01049983585443,270.4337080132997,0.0
0.096,2.8927674756678625,-1.4566085288520738,2.3780099351133117,0.0,14.976997487294753,13.160554636503349,272.28333132425695,270.4337080132997,0.0
0.097,2.996176384155258,-1.4765768841063431,2.223097957802481,0.0,14.94321057417879,13.26230787008923,268.29524587194425,270.4337080132997,0.0
0.098,3.090541573412307,-1.4714635748182872,4.238525305372386,0.0,14.92221552815878,13.564407135277325,268.80846982105845,270.4337080132997,0.0
0.099,3.268489120455069,-1.466342595082588,3.998165712737696,0.0,14.933017738581542,13.768972562396959,269.5448785666034,270.4337080132997,0.0
0.1,3.42715387563827,-1.4742448478853538,3.638849634432177,0.0,14.96411672827964,13.901366847559917,263.18991458883676,270.4337080132997,0.0
0.101,3.5700765123624665,-1.4381179649480396,6.888769557560135,0.0,15.0012922678731,14.3705811130157,266.9386647577401,270.4337080132997,0.0
0.10200000000000001,3.8410565948479354,-1.4272169639254741,5.049344905664046,0.0,15.080833838769683,14.533377012239233,263.9306993057985,270.4337080132997,0.0
0.10300000000000001,4.028921745248664,-1.4148984152415414,6.618357718709872,0.0,15.167454812153949,14.860877768864846,261.5596192803577,270.4337080132997,0.0
0.10400000000000001,4.283271214322598,-1.360470603338034,7.892638618759687,0.0,15.272299890039806,15.262671527947226,264.33569783152956,270.4337080132997,0.0
0.105,4.56339307592922,-1.3547226112024018,6.565579444991464,0.0,15.406751835029432,15.447781190708957,256.2571375219789,270.4337080132997,0.0
0.106,4.800194745686272,-1.2904345046912338,10.0,0.0,15.539255340001402,15.995634969424898,262.7994762820113,270.4337080132997,0.0
0.107,5.15219771204655,-1.2693016326792972,7.536865735883078,0.0,15.711612137491556,16.160312436561423,254.54500482895588,270.4337080132997,0.0
0.108,5.410460791742407,-1.2060632878376685,10.0,0.0,15.87645611273389,16.596445039324408,259.3182252868036,270.4337080132997,0.0
0.109,5.743432371737147,-1.1511671338291556,9.511073322710235,0.0,16.063022757235775,16.892991259189824,251.8212020157923,270.4337080132997,0.0
0.11,6.0548709436333645,-1.0865822638979106,10.0,0.0,16.25403198512166,17.206282195685016,255.3320992337215,270.4337080132997,0.0
0.111,6.368543088114748,-1.0181359790870892,10.0,0.0,16.450386141238596,17.471066144372394,247.88913817129492,270.4337080132997,0.0
0.112,6.685417485821628,-0.9126760874272275,10.0,0.0,16.642667151378102,17.69728765149978,261.4222652876632,270.4337080132997,0.0
0.113,6.877272693302247,-0.9800701584961633,8.893716284223556,0.0,16.846810157950568,17.78048857134717,266.4850560094748,270.4337080132997,0.0
0.114,6.968299691153665,-1.0698474351019964,6.401807443356,0.0,17.048060515566487,17.604642146840554,274.5138154315833,270.4337080132997,0.0
0.115,6.875671288975715,-1.1783149704071794,2.3466266581189315,0.0,17.22263485108767,17.05645399679688,276.2620914636428,270.4337080132997,0.0
0.116,6.587613975478309,-1.165946074214125,1.4142048075857536,0.0,17.32248768411807,16.549287520066347,281.57701928307426,270.4337080132997,0.0
0.117,6.1867351401896755,-1.1749336708917653,-1.354692214827736,0.0,17.36275091076885,15.848784619098527,281.0229178474537,270.4337080132997,0.0
0.11800000000000001,5.693051478333052,-1.1120023637616794,-1.183533595358993,0.0,17.321925204906684,15.31917116370961,284.19411129598797,270.4337080132997,0.0
0.11900000000000001,5.208577851782956,-1.086255098228782,-2.9067343524530105,0.0,17.230017837954527,14.695528076100281,282.9158405378965,270.4337080132997,0.0
0.12,4.71146056788071,-1.0439003338056378,-2.392420298653238,0.0,17.080535347505432,14.248703279009327,284.04600642758214,270.4337080132997,0.0
0.121,4.282193337079371,-1.0303663898472613,-3.0936262276388913,0.0,16.900253440200967,13.791585142405271,283.36606293624044,270.4337080132997,0.0
0.122,3.8862499553728576,-1.0296192419222405,-2.882978031197447,0.0,16.692341063134368,13.431595089309287,282.4778481656562,270.4337080132997,0.0
0.123,3.553182135231313,-1.04170810280172,-2.5593120474288993,0.0,16.47055816464083,13.152987606464876,281.68887718473997,270.4337080132997,0.0
0.124,3.2843693491840082,-1.0712394782992085,-2.2773782486851784,0.0,16.24622037040813,12.934077368343461,280.56916723078444,270.4337080132997,0.0
0.125,3.0725625947196002,-1.111656656439237,-1.8188778638822654,0.0,16.02657590762698,12.782850694082414,279.374602551554,270.4337080132997,0.0
0.126,2.9163646231441973,-1.1598647664289627,-1.311004469649589,0.0,15.81867194401532,12.691127019815571,278.25641025337353,270.4337080132997,0.0
0.127,2.81020308982799,-1.2134137680253283,-0.8301353429600904,0.0,15.627794318413844,12.645717975556792,277.22903627939274,270.4337080132997,0.0
0.128,2.746263782595826,-1.2670630876967763,-0.38440163863062793,0.0,15.456829486094533,12.635955797835472,276.2919130932122,270.4337080132997,0.0
0.129,2.7159413796247165,-1.3168480785092573,0.025577903660518153,0.0,15.306924775027674,12.65340983851758,274.7159229572528,270.4337080132997,0.0
0.13,2.7114258955007733,-1.3601961648991492,0.77075082220068,0.0,15.178026378730479,12.73219070886522,273.4812573069346,270.4337080132997,0.0
0.131,2.7444404763702472,-1.3983459988922713,1.357608154423441,0.0,15.073658909973114,12.8436294711706,272.3610902833495,270.4337080132997,0.0
0.132,2.8058885445208097,-1.4330367033456717,1.8984178435154986,0.0,14.994306543471964,12.980678961159732,271.3802993295189,270.4337080132997,0.0
0.133,2.8930737181648825,-1.4569530150960142,2.3793474072686025,0.0,14.938878249867846,13.134606532202419,271.11661271253513,270.4337080132997,0.0
0.134,2.995114105627132,-1.4767147219176349,2.504361668768129,0.0,14.906320167361281,13.266188199023432,267.8311125210983,270.4337080132997,0.0
0.135,3.100832495243294,-1.475113961723959,4.173137719408555,0.0,14.889802359097956,13.553062494883989,268.54457079185204,270.4337080132997,0.0
0.136,3.2765739170441304,-1.4706684550796925,3.8352999562461645,0.0,14.903150763118084,13.737473293375954,268.6857386493678,270.4337080132997,0.0
0.137,3.4256751085592096,-1.4756740422385626,3.782195721127599,0.0,14.934200476239319,13.887671047340671,262.6835063857615,270.4337080132997,0.0
0.138,3.5729050170646905,-1.437358407183299,6.860813869206124,0.0,14.972900217717232,14.350428757840406,266.76732784390873,270.4337080132997,0.0
0.139,3.8407685284387485,-1.4281569989326666,4.855566941826428,0.0,15.053376757540306,14.491424640779318,263.0049915125268,270.4337080132997,0.0
0.14,4.019608575623682,-1.411294759072982,6.811022272525137,0.0,15.13814239937291,14.844527374980704,261.5275843488911,270.4337080132997,0.0
