timestamp,iq,id,iq_ref,id_ref,vq,vd,omega,omega_ref,r
0.0,0.0,0.0,0.0,0.0,0.0,0.0,0.0,244.11162187464126,0.0
0.001,0.0,0.0,10.0,0.0,0.0,1.0999999999999999,6.248320897514742,244.11162187464126,0.0
0.002,0.4720675983875045,-0.25828296560653013,10.0,0.0,0.13841112621671836,1.9380725641773744,12.594447623024653,244.11162187464126,0.0
0.003,0.9309174974448591,-0.5145023359558663,10.0,0.0,0.37238969731186383,2.660426171646249,19.106995610140867,244.11162187464126,0.0
0.004,1.3140514590576877,-0.7266630244907627,10.0,0.0,0.6759812540797278,3.2963860386909136,25.850194661944972,244.11162187464126,0.0
0.005,1.621303398795043,-0.8949069087516003,10.0,0.0,1.029194862258615,3.869142700952917,32.784197964629875,244.11162187464126,0.0
0.006,1.8672566437069584,-1.0277371704866527,10.0,0.0,1.4172916657940604,4.39596272026367,39.75011529586561,244.11162187464126,0.0
0.007,2.0667625530961793,-1.134212444806853,10.0,0.0,1.8296447684649086,4.8894243004132,46.78054687565531,244.11162187464126,0.0
0.008,2.2322396087820406,-1.2210040014270858,10.0,0.0,2.2585910373686486,5.358567615783308,53.87894330917311,244.11162187464126,0.0
0.009000000000000001,2.3728699595320535,-1.2933543412878177,10.0,0.0,2.698647632737504,5.809876658481136,60.94254516560848,244.11162187464126,0.0
0.01,2.4951174101296782,-1.355463187144099,10.0,0.0,3.1459379424848395,6.248019540387829,68.1117580495522,244.11162187464126,0.0
0.011,2.6044562070643997,-1.408929692506907,10.0,0.0,3.5975737365794584,6.676272371921742,75.06025782334295,244.11162187464126,0.0
0.012,2.7031748330112926,-1.457676122567117,10.0,0.0,4.051698676670999,7.097097838826916,81.9916240770965,244.11162187464126,0.0
0.013000000000000001,2.794973909482775,-1.5009753150147254,10.0,0.0,4.50676911631254,7.512142540898334,88.9014017083117,244.11162187464126,0.0
0.014,2.8813906959571587,-1.5401826526378462,10.0,0.0,4.961716797411135,7.922601960979293,95.76427932731882,244.11162187464126,0.0
0.015,2.963830109340038,-1.5757586389337241,10.0,0.0,5.415736937524282,8.329306039554643,102.56639946407263,244.11162187464126,0.0
0.016,3.043366089315207,-1.6079326057690728,10.0,0.0,5.8682088479725785,8.732817160620337,109.29257446609247,244.11162187464126,0.0
0.017,3.120862982572789,-1.6367397417684708,10.0,0.0,6.318631724774195,9.133495062165702,115.7903496275527,244.11162187464126,0.0
0.018000000000000002,3.196683202220314,-1.6626882850212288,10.0,0.0,6.766646372447996,9.531582206008045,122.23252647183057,244.11162187464126,0.0
0.019,3.2720710364586463,-1.6845588960472133,10.0,0.0,7.211814551518983,9.927127640663794,128.5532992052913,244.11162187464126,0.0
0.02,3.347284030673194,-1.702623768540643,10.0,0.0,7.6537888860124585,10.320115798739845,134.9466160736653,244.11162187464126,0.0
0.021,3.423496601492791,-1.7155402393339547,10.0,0.0,8.092104765926528,10.710371321609633,141.01216414086986,244.11162187464126,0.0
0.022,3.4998090320010418,-1.7253729463972955,10.0,0.0,8.526567043205201,11.097800638536135,146.61698991406885,244.11162187464126,0.0
0.023,3.5774755681808816,-1.7306162829733693,10.0,0.0,8.95680446440139,11.482153056823153,152.0517353500095,244.11162187464126,0.0
0.024,3.657407989923281,-1.7303155712921572,10.0,0.0,9.382367873655971,11.863078074371227,157.1949818116266,244.11162187464126,0.0
0.025,3.739669945608111,-1.7249452076832967,10.0,0.0,9.80287971085974,12.24021744018204,162.094358454155,244.11162187464126,0.0
0.026000000000000002,3.825090918651604,-1.713758339229615,10.0,0.0,10.217877449030393,12.613120365654213,166.6804071975364,244.11162187464126,0.0
0.027,3.913933714440919,-1.6969587356353908,10.0,0.0,10.626929618220373,12.981314274589849,170.97897159806797,244.11162187464126,0.0
0.028,4.006800104188282,-1.6742214878836594,10.0,0.0,11.029562860168172,13.344267134636599,174.94130500920798,244.11162187464126,0.0
0.029,4.10400686800694,-1.6456954924790037,10.0,0.0,11.425317576908864,13.701423952750869,178.58703286458504,244.11162187464126,0.0
0.03,4.205981413229937,-1.6113507104813671,10.0,0.0,11.813719837721226,14.052195428391448,181.88181382662498,244.11162187464126,0.0
0.031,4.312990755329597,-1.5714009374857856,10.0,0.0,12.19430799280687,14.395978700370469,184.83852492669538,244.11162187464126,0.0
0.032,4.425288412262738,-1.5260521970013692,10.0,0.0,12.56662679585852,14.7321598118185,187.42684017220745,244.11162187464126,0.0
0.033,4.543029025043597,-1.475623684591869,10.0,0.0,12.930238180789612,15.06012620159034,189.7060683318565,244.11162187464126,0.0
0.034,4.6663051446102335,-1.4204736992160139,10.0,0.0,13.284722852937524,15.379274123853573,191.69495441843125,244.11162187464126,0.0
0.035,4.795188052183894,-1.3609162328230957,10.0,0.0,13.629674028647512,15.689011362467845,193.37185126688996,244.11162187464126,0.0
0.036000000000000004,4.929620048831667,-1.2973890256934713,10.0,0.0,13.964711392527601,15.98877130423617,194.80532929646148,244.11162187464126,0.0
0.037,5.069468561115816,-1.2303585127280252,10.0,0.0,14.289482929841602,16.278019971830886,195.93736256224875,244.11162187464126,0.0
0.038,5.21474888939612,-1.1599377597080365,10.0,0.0,14.603626202481134,16.556238575409544,196.66788508783216,244.11162187464126,0.0
0.039,5.3649582861567255,-1.086994713450519,10.0,0.0,14.906857480656452,16.82297941553343,197.14361075662154,244.11162187464126,0.0
0.04,5.519380358510554,-1.0126801099081755,10.0,0.0,15.198994539099544,17.07788496547113,197.77303683950223,244.11162187464126,0.0
0.041,5.678040435823904,-0.9367947949552575,10.0,0.0,15.479804208082697,17.32060527847845,202.83206394591403,244.11162187464126,0.0
0.042,5.7961752715008,-0.933519796079989,10.0,0.0,15.757203544741522,17.55572629593203,208.8261860980874,244.11162187464126,0.0
0.043000000000000003,5.866129744606134,-1.0035968713373702,10.0,0.0,16.03811627774688,17.78856150162131,215.52113356979356,244.11162187464126,0.0
0.044,5.9127758754400475,-1.1048143590411175,10.0,0.0,16.324654410915475,18.021772930381516,224.32546255397267,244.11162187464126,0.0
0.045,5.960029452659766,-1.195496786777031,10.0,0.0,16.614822765817138,18.25558559739674,228.5506894444477,244.11162187464126,0.0
0.046,6.000985761591517,-1.2868062541521175,10.0,0.0,16.90849276906406,18.491001174990306,235.66121520344183,244.11162187464126,0.0
0.047,6.012150690385959,-1.4208906792387586,9.784671535885199,0.0,17.21017352183143,18.707737485018516,246.77351639198326,244.11162187464126,0.0
0.048,6.02203700509914,-1.5241571355027124,4.201901996441061,0.0,17.513378296263046,18.32004102929243,248.1353693755085,244.11162187464126,0.0
0.049,5.755075573985671,-1.5007203234907815,3.4807380296697694,0.0,17.743882233794942,18.007398976201316,252.97739379411058,244.11162187464126,0.0
0.05,5.442067065340498,-1.4877185001393727,0.9710681011740352,0.0,17.918875739816002,17.511980791345533,255.63853148550072,244.11162187464126,0.0
0.051000000000000004,5.061559831719309,-1.4148016828713175,-0.47476984062962835,0.0,18.018937245083414,16.98838401187586,257.6378779334847,244.11162187464126,0.0
0.052000000000000005,4.648894836097887,-1.3514921673293627,-1.6097056252100383,0.0,18.050398043340167,16.45835658117623,258.52342753782847,244.11162187464126,0.0
0.053,4.247110010679062,-1.2785304820482177,-2.1965984840138075,0.0,18.01831732847579,15.971338797589492,258.95517167424174,244.11162187464126,0.0
0.054,3.8776896720149994,-1.2202168181571353,-2.560906050216449,0.0,17.935058020563954,15.532228206179585,258.6672881925728,244.11162187464126,0.0
0.055,3.552028985497059,-1.173290218501665,-2.5625209725613,0.0,17.811634794979135,15.164296649453918,258.06750671631255,244.11162187464126,0.0
0.056,3.2800617280086386,-1.1426233339852248,-2.4021890828478822,0.0,17.66085664497997,14.865128374392803,257.2442004439024,244.11162187464126,0.0
0.057,3.0618386908128814,-1.126024424763651,-2.121861732335419,0.0,17.493720271305403,14.63131666301377,256.2928167714993,244.11162187464126,0.0
0.058,2.893753917208833,-1.120760933045217,-1.767981845102451,0.0,17.319503368863572,14.456603094220178,255.258554300829,244.11162187464126,0.0
0.059000000000000004,2.770431302001284,-1.1234194734734448,-1.3623199340291716,0.0,17.14558187415086,14.33490784334428,253.79010089451168,244.11162187464126,0.0
0.06,2.6857563046826614,-1.1320328906490809,-0.7248780210692214,0.0,16.977803894306867,14.282132982952536,252.0959426303684,244.11162187464126,0.0
0.061,2.6440715031315634,-1.1485385422918706,0.04235790344514889,0.0,16.82325571391705,14.299617921379982,250.56485273375876,244.11162187464126,0.0
0.062,2.6454896589499866,-1.1735400465857664,0.7433705431587958,0.0,16.688495954364857,14.36876573389352,248.94215964908813,244.11162187464126,0.0
0.063,2.681905646615061,-1.200479288994308,1.506411707749642,0.0,16.57684025364124,14.490455613823372,248.3235973111758,244.11162187464126,0.0
0.064,2.7507871732353504,-1.2274988077998632,1.7735731223404576,0.0,16.491221865627498,14.603355471595377,247.71614316111936,244.11162187464126,0.0
0.065,2.817988356147594,-1.252173644765496,2.041254984503897,0.0,16.427899339070493,14.71647358062673,245.18615189922286,244.11162187464126,0.0
0.066,2.8985394833454645,-1.2437659434732578,3.29550531520633,0.0,16.381049280560514,14.939049731692238,247.69971835889694,244.11162187464126,0.0
0.067,3.018848710892621,-1.2618985509091811,2.0028411205267327,0.0,16.363220506838964,14.967519193320207,242.8374989344677,244.11162187464126,0.0
0.068,3.0696985839320594,-1.23146965428669,4.4466920621430885,0.0,16.346493051949533,15.26871868317895,244.0180114366198,244.11162187464126,0.0
0.069,3.230061832550668,-1.2292719886381998,3.8573719154472617,0.0,16.361620837279812,15.431730294392526,240.92935731884447,244.11162187464126,0.0
0.07,3.346235552022094,-1.2210600622092749,5.43352161989289,0.0,16.390655669947723,15.748047715318076,241.54289643242583,244.11162187464126,0.0
0.07100000000000001,3.535853578984291,-1.209324376408938,5.15243931752436,0.0,16.447209955267642,15.969260081341737,239.0169139003785,244.11162187464126,0.0
0.07200000000000001,3.6874939134287374,-1.1981573026600676,6.466377663290649,0.0,16.51911902740357,16.30656642383374,239.64158929686567,244.11162187464126,0.0
0.073,3.8998135293570964,-1.1756662554989723,6.198740290824823,0.0,16.615205482124875,16.552914790453556,236.65804123525876,244.11162187464126,0.0
0.074,4.072896589501951,-1.1543657640639453,7.765050128022104,0.0,16.724199984449786,16.942291481243224,237.99674948706917,244.11162187464126,0.0
0.075,4.315741722545565,-1.133511468025234,7.156844725992623,0.0,16.859151737971267,17.196082126557858,233.29925721095017,244.11162187464126,0.0
0.076,4.509781090825588,-1.096526151736078,9.61371451068903,0.0,17.00212753884064,17.69541073384971,237.14423415382174,244.11162187464126,0.0
0.077,4.8050416368180855,-1.0960698082892186,7.760899916461441,0.0,17.181058275736003,17.90018749091093,233.9220845694988,244.11162187464126,0.0
0.078,5.01247220366589,-1.0186191368783253,9.47387008167434,0.0,17.35405860422722,18.28946975317794,231.07437327461932,244.11162187464126,0.0
0.079,5.256486191359408,-1.000917588433674,10.0,0.0,17.54751446248121,18.673101178453244,233.14441128656642,244.11162187464126,0.0
0.08,5.530814715790046,-0.963184703898349,10.0,0.0,17.756014275622892,19.004717750032732,233.25424851283054,244.11162187464126,0.0
0.081,5.7954197502468725,-0.9044109937883225,10.0,0.0,17.97073798534161,19.297659377222484,230.40358236201345,244.11162187464126,0.0
0.082,6.046458620427324,-0.8295404412010566,10.0,0.0,18.185635463123933,19.557810987289862,228.07472924043145,244.11162187464126,0.0
0.083,6.251218635512238,-0.80296303434553,10.0,0.0,18.402883544906526,19.793423971171197,237.79327923876818,244.11162187464126,0.0
0.084,6.355039928997445,-0.9123991306451047,8.129058512037421,0.0,18.634271861560496,19.81202415903425,247.06317512365703,244.11162187464126,0.0
0.085,6.336012928188244,-0.9991218047735642,3.4645950371028373,0.0,18.852826498526507,19.360652775437078,249.65807781965484,244.11162187464126,0.0
0.08600000000000001,6.079468084296831,-0.9749407460109516,2.1116791296538002,0.0,19.000861390231037,18.902127541646152,251.40205986568785,244.11162187464126,0.0
0.08700000000000001,5.7492687979870984,-0.9513315521584231,1.1667837267268286,0.0,19.085885068649862,18.447605458212433,254.3386160913058,244.11162187464126,0.0
0.088,5.40959951402294,-0.9367182930349687,-0.4037643282487906,0.0,19.115582804318393,17.9177882473189,256.8099303052137,244.11162187464126,0.0
0.089,5.044457123515928,-0.9104738937317683,-1.766404519508466,0.0,19.08658829399858,17.346506560708875,257.9817298763469,244.11162187464126,0.0
0.09,4.660347901750961,-0.8816399135387768,-2.4910053850921186,0.0,19.00045577222156,16.80197448891535,258.77079324844493,244.11162187464126,0.0
0.091,4.292693991637332,-0.8599812081298864,-3.032128784879177,0.0,18.866389177649843,16.287605644697585,258.99197945857753,244.11162187464126,0.0
0.092,3.9511263126243312,-0.8476308351439581,-3.29152546578484,0.0,18.693150404139153,15.82204053013297,258.75859370715193,244.11162187464126,0.0
0.093,3.645676165898369,-0.8464108289024056,-3.3213023083971462,0.0,18.490668299566362,15.415210403145176,258.1944914168041,244.11162187464126,0.0
0.094,3.382039246289936,-0.8568671418403628,-3.1800798586448655,0.0,18.26891378723765,15.070592875987419,257.399488533717,244.11162187464126,0.0
0.095,3.161810210846082,-0.8779828210178298,-2.9154570836920546,0.0,18.037091135006186,14.787546755762595,256.44361416515096,244.11162187464126,0.0
0.096,2.9836882914034573,-0.907778112458431,-2.560839822314144,0.0,17.803212461242076,14.5633757741234,255.3843816410976,244.11162187464126,0.0
0.097,2.8448466957389615,-0.9439105082129844,-2.143951157952029,0.0,17.573981167309054,14.394036960066433,254.2972673839858,244.11162187464126,0.0
0.098,2.741712815134539,-0.9839004822493361,-1.702250484489571,0.0,17.354776694550083,14.273083396368953,253.28442509993843,244.11162187464126,0.0
0.099,2.6697906720888556,-1.0248680672142518,-1.28755737471886,0.0,17.149503847303045,14.190384074034462,252.34846517609859,244.11162187464126,0.0
0.1,2.62300277962494,-1.0633807089330958,-0.9019458458135103,0.0,16.960315067286686,14.138125183031166,250.8939709070332,244.11162187464126,0.0
0.101,2.59537783995052,-1.0981491017039606,-0.24252220160474058,0.0,16.788258672959245,14.143424653140025,249.47817372856096,244.11162187464126,0.0
0.10200000000000001,2.5979608608308737,-1.1333021576805682,0.41171086909218557,0.0,16.637457017305138,14.195799556446245,247.92861356848533,244.11162187464126,0.0
0.10300000000000001,2.62701398167522,-1.1703687940958831,1.148321032191559,0.0,16.510698816992992,14.299171578006318,246.70870274973845,244.11162187464126,0.0
0.10400000000000001,2.687592851949943,-1.2022705329988506,1.732305632814028,0.0,16.41009216378324,14.43002963729487,247.361481334072,244.11162187464126,0.0
0.105,2.7600620366396607,-1.2401157985494278,1.3734177460529406,0.0,16.33647594364485,14.485057890170529,244.0442607326606,244.11162187464126,0.0
0.106,2.813391664307355,-1.23372658582902,3.0327016581784503,0.0,16.274642904753115,14.708190237749648,245.62059107027454,244.11162187464126,0.0
0.107,2.932609167707527,-1.2481262922123373,2.2294467974151484,0.0,16.24295426433784,14.78529454377912,242.735779549248,244.11162187464126,0.0
0.108,2.994714189625695,-1.2468951442993972,3.685610981182348,0.0,16.221865495232777,15.014090786609149,241.85055368912583,244.11162187464126,0.0
0.109,3.128087173027274,-1.2352234888954283,4.15083459309859,0.0,16.224493656705917,15.240461505763788,242.57958889934608,244.11162187464126,0.0
0.11,3.2584000160812234,-1.2488324346575594,3.801637317741419,0.0,16.25110977453508,15.38839334983991,237.35431967438257,244.11162187464126,0.0
0.111,3.378958092626582,-1.205788283662247,6.481844952225762,0.0,16.284986518921833,15.810550173848737,240.88489845498574,244.11162187464126,0.0
0.112,3.597792444342351,-1.2333611426701554,4.748822796120728,0.0,16.36115472727162,15.953578278455675,234.7058832535779,244.11162187464126,0.0
0.113,3.7329007130468073,-1.1940295004255177,7.932387783035287,0.0,16.43940671601013,16.44476919751822,240.31290454953023,244.11162187464126,0.0
0.114,3.9947746469113063,-1.2125592879757205,5.166864308310228,0.0,16.56138419083402,16.531167941421412,234.6552328611949,244.11162187464126,0.0
0.115,4.1208133863156,-1.144871697088579,8.090264042612363,0.0,16.67217285969274,16.959108241941323,236.63195700069508,244.11162187464126,0.0
0.116,4.355491427894912,-1.137661323455774,7.176698621601728,0.0,16.81456042652685,17.201052988461253,234.77027181326702,244.11162187464126,0.0
0.117,4.554904063890771,-1.0789905620074107,8.200954715929505,0.0,16.960522031306546,17.535257232055002,232.78985113641997,244.11162187464126,0.0
0.11800000000000001,4.7687304485376325,-1.0575247322726196,9.30438276173524,0.0,17.123533366311307,17.940244959911503,235.1367471430828,244.11162187464126,0.0
0.11900000000000001,5.039738742824476,-1.0258523623019733,8.220683505719409,0.0,17.307473038201813,18.163121201337947,230.89485285075455,244.11162187464126,0.0
0.12,5.2498638124017605,-0.9496556865998491,10.0,0.0,17.487241456418396,18.568261918031194,228.08496810238333,244.11162187464126,0.0
0.121,5.509605354350306,-0.9315320036133805,10.0,0.0,17.68831546611115,18.906601921015394,229.54426909801438,244.11162187464126,0.0
0.122,5.773584136795731,-0.8850090970836786,10.0,0.0,17.898179792244644,19.204775074020944,229.80982354251614,244.11162187464126,0.0
0.123,6.024995770475076,-0.8217640528708445,10.0,0.0,18.11038327526723,19.469101852459012,233.13475502080487,244.11162187464126,0.0
0.124,6.230058651394578,-0.8038517067779041,9.806666004458837,0.0,18.32646118020327,19.68690676128165,237.87043295990992,244.11162187464126,0.0
0.125,6.328471658824933,-0.9051198870374384,7.501238924053627,0.0,18.554030408817447,19.64410052881833,242.07920467971906,244.11162187464126,0.0
0.126,6.2732237492508665,-0.9902108923879629,5.417177236098282,0.0,18.762909420109843,19.42920072771917,250.07010114837578,244.11162187464126,0.0
0.127,6.1000858796711235,-1.035497326059112,1.3621442090325715,0.0,18.933541147813393,18.849958478319525,252.74806645613072,244.11162187464126,0.0
0.128,5.748994174185814,-0.9780158539917168,-0.06320289065978812,0.0,19.022409651542507,18.266354484842275,253.62026122034015,244.11162187464126,0.0
0.129,5.342224793795877,-0.9297125692664323,-0.5943866662214967,0.0,19.03929235895187,17.74705471155884,255.6428452344781,244.11162187464126,0.0
0.13,4.9638238732136495,-0.8988336411865837,-1.7209909068888392,0.0,18.99964316905043,17.200314965087053,256.9885412325777,244.11162187464126,0.0
0.131,4.589485843039322,-0.8730803651206256,-2.522608099517997,0.0,18.906760852405498,16.664765599603108,257.71796975372996,244.11162187464126,0.0
0.132,4.22985197362385,-0.8540488521820153,-3.02338583888502,0.0,18.76777589721407,16.16222990493294,257.88377096892737,244.11162187464126,0.0
0.133,3.8970198871276924,-0.844033428195877,-3.2440079374265833,0.0,18.59152448656568,15.709803821585174,257.61949607147443,244.11162187464126,0.0
0.134,3.600684802717646,-0.8451812247285673,-3.2469492306684478,0.0,18.387882020505813,15.316146422656292,257.0455487528825,244.11162187464126,0.0
0.135,3.3459622949618804,-0.8577742488076389,-3.089314840154893,0.0,18.16661181584242,14.983915837912267,256.2552447318421,244.11162187464126,0.0
0.136,3.1339259658020304,-0.880647129135623,-2.815599058206695,0.0,17.936635659766242,14.712090454415485,255.31408414476022,244.11162187464126,0.0
0.137,2.963008193276933,-0.911755680146972,-2.4570433873669506,0.0,17.705667792755982,14.49783455131982,254.27925421770294,244.11162187464126,0.0
0.138,2.8302986688561247,-0.9487636398266761,-2.0413047472689305,0.0,17.48013091219183,14.336942015496122,253.22979783173056,244.11162187464126,0.0
0.139,2.732193547273252,-0.989184478439219,-1.607758313853635,0.0,17.265134678752307,14.222582234602985,252.26344459195192,244.11162187464126,0.0
0.14,2.664076638693398,-1.0300905842068127,-1.2060999211374215,0.0,17.064297553815734,14.144517576047797,251.32532403102505,244.11162187464126,0.0
