timestamp,iq,id,iq_ref,id_ref,vq,vd,omega,omega_ref,r
0.0,0.0,0.0,0.0,0.0,0.0,0.0,0.0,332.2676020034407,0.0
0.001,0.0,0.0,10.0,0.0,0.0,1.0999999999999999,8.700478823342245,332.2676020034407,0.0
0.002,1.244211817475487,-0.6915914037950706,10.0,0.0,0.18607505441745772,1.8531367000776964,17.574598258256035,332.2676020034407,0.0
0.003,2.3588580732851603,-1.3334823909664804,10.0,0.0,0.49254836795184365,2.4393982656250603,26.064034957960242,332.2676020034407,0.0
0.004,3.170343090221039,-1.7987479308972623,10.0,0.0,0.8717608062081994,2.919564116666275,34.737176215954676,332.2676020034407,0.0
0.005,3.7181453953059,-2.1112021109924908,10.0,0.0,1.2907858901542084,3.3374912230390295,43.60433354641229,332.2676020034407,0.0
0.006,4.084759581342688,-2.319502324739558,10.0,0.0,1.7294896580541173,3.7206785897559107,52.38087620570461,332.2676020034407,0.0
0.007,4.339838171452983,-2.464682931714236,10.0,0.0,2.176528650465466,4.08502509353933,61.306265592181596,332.2676020034407,0.0
0.008,4.531898743894779,-2.5717812300401937,10.0,0.0,2.625627400760131,4.439064969118047,69.92648302700962,332.2676020034407,0.0
0.009000000000000001,4.68751019740048,-2.660478147358388,10.0,0.0,3.0739059415049437,4.787414078007151,78.45564296792914,332.2676020034407,0.0
0.01,4.8249986218580725,-2.735872965732652,10.0,0.0,3.519597999912173,5.132188517926547,87.12477272036796,332.2676020034407,0.0
0.011,4.952659762845769,-2.8030861407702607,10.0,0.0,3.9618377975410124,5.474386878430655,95.59540935553572,332.2676020034407,0.0
0.012,5.073764612119957,-2.8662738171506534,10.0,0.0,4.400351964108846,5.814544460636953,103.99277641094167,332.2676020034407,0.0
0.013000000000000001,5.192607091495891,-2.922843562371918,10.0,0.0,4.834621267451058,6.152676077040794,112.0974584813369,332.2676020034407,0.0
0.014,5.30901384955929,-2.9753240896945177,10.0,0.0,5.2644839626527125,6.488805143545257,120.05645774265757,332.2676020034407,0.0
0.015,5.425662663945908,-3.0202823193044326,10.0,0.0,5.689393894968508,6.822640270917543,127.92643612320391,332.2676020034407,0.0
0.016,5.542718682910387,-3.0580614698042923,10.0,0.0,6.1089024710488395,7.1538732048419575,135.49939164901807,332.2676020034407,0.0
0.017,5.660907981173604,-3.0879309750055874,10.0,0.0,6.522491336980723,7.482103440362652,142.9233187303756,332.2676020034407,0.0
0.018000000000000002,5.782038329649287,-3.1073609287738186,10.0,0.0,6.92938293973398,7.806727093574772,150.48100507037688,332.2676020034407,0.0
0.019,5.907641680584977,-3.114367665946777,10.0,0.0,7.328624189084466,8.12697247662284,157.3159725838578,332.2676020034407,0.0
0.02,6.035153032192404,-3.1139205015354756,10.0,0.0,7.719846596347737,8.442347231133686,163.21444612806079,332.2676020034407,0.0
0.021,6.169506573951415,-3.098640836011291,10.0,0.0,8.10180794677222,8.751802974842361,169.39372784567706,332.2676020034407,0.0
0.022,6.311871816724846,-3.06744880586659,10.0,0.0,8.473240409864447,9.05419263793513,174.77051213034073,332.2676020034407,0.0
0.023,6.4603351318581295,-3.024489553010598,10.0,0.0,8.833354995444015,9.348579268790912,179.77075048353396,332.2676020034407,0.0
0.024,6.6190511617570245,-2.963923298401601,10.0,0.0,9.180664090072773,9.633564564981532,184.80349771645393,332.2676020034407,0.0
0.025,6.787357790471624,-2.8877687943495776,10.0,0.0,9.513969471958088,9.90785567215635,189.3814681946666,332.2676020034407,0.0
0.026000000000000002,6.964471957215315,-2.7982349164974893,10.0,0.0,9.83228624484914,10.170248714747549,191.8169313070154,332.2676020034407,0.0
0.027,7.153415478435121,-2.6911483770254803,10.0,0.0,10.13412646414681,10.419221484702003,195.41861871397936,332.2676020034407,0.0
0.028,7.3431679838767145,-2.585287783261945,10.0,0.0,10.420106138590889,10.654497659204395,196.62637023675495,332.2676020034407,0.0
0.029,7.568939460378059,-2.423081466212485,10.0,0.0,10.684231374102996,10.871906846340226,193.94435981323383,332.2676020034407,0.0
0.03,7.759951039022228,-2.320831330547818,10.0,0.0,10.934059553024849,11.075234079427833,200.35043785944276,332.2676020034407,0.0
0.031,7.983951831166699,-2.168206937159899,10.0,0.0,11.163471455447262,11.260481435749426,201.98886298375555,332.2676020034407,0.0
0.032,8.228802240446994,-1.9829000480192915,10.0,0.0,11.369609389388,11.425451709581704,195.57784198383536,332.2676020034407,0.0
0.033,8.474029841839297,-1.7983610472015044,10.0,0.0,11.553184336119342,11.57001221736448,193.90162664925475,332.2676020034407,0.0
0.034,8.691279403949357,-1.6618097869102284,10.0,0.0,11.719682590331967,11.697028993223931,195.22843119769857,332.2676020034407,0.0
0.035,8.92425946973304,-1.4996797674745403,10.0,0.0,11.865763907174259,11.804538605303591,194.9319812114799,332.2676020034407,0.0
0.036000000000000004,9.162204207527324,-1.327299376767543,10.0,0.0,11.990647510756876,11.892061267359988,193.26576871948447,332.2676020034407,0.0
0.037,9.40025827553685,-1.15163553831362,10.0,0.0,12.09419580186401,11.959513523465892,190.52278881441254,332.2676020034407,0.0
0.038,9.636448838808802,-0.9746488519166907,10.0,0.0,12.176422592351898,12.006974961792105,195.21918342417987,332.2676020034407,0.0
0.039,9.723627871754013,-1.0384136325951383,10.0,0.0,12.263956840362217,12.050685147343232,199.92996625305068,332.2676020034407,0.0
0.04,9.737502629845304,-1.1945956178190027,10.0,0.0,12.363651052694456,12.098123306079682,206.01764137209278,332.2676020034407,0.0
0.041,9.719104563450298,-1.3787969628569092,10.0,0.0,12.476819987769051,12.152949605060083,213.67649432425821,332.2676020034407,0.0
0.042,9.686690742679144,-1.5666003825154142,10.0,0.0,12.602971021946281,12.216991707270777,221.00129316491052,332.2676020034407,0.0
0.043000000000000003,9.65294401389816,-1.7417604420412576,10.0,0.0,12.740300735278113,12.290632704636321,223.87026964749717,332.2676020034407,0.0
0.044,9.612665773228336,-1.9174340699756738,10.0,0.0,12.88883407549085,12.374735712784368,225.32865231927707,332.2676020034407,0.0
0.045,9.53255385239777,-2.1559950099594887,10.0,0.0,13.055409349615987,12.473691283023541,237.99784274750584,332.2676020034407,0.0
0.046,9.453978953489935,-2.385638132153162,10.0,0.0,13.23809778739399,12.587250943322868,244.11375293712757,332.2676020034407,0.0
0.047,9.40049576889023,-2.562120697801788,10.0,0.0,13.430989998423545,12.712820882686955,247.5557860141288,332.2676020034407,0.0
0.048,9.28680747619086,-2.837790095838629,10.0,0.0,13.645708790414117,12.857093929568519,260.909016280583,332.2676020034407,0.0
0.049,9.212955724391104,-3.034357471393618,10.0,0.0,13.872248725224468,13.015398360731966,263.0978022972772,332.2676020034407,0.0
0.05,9.092903648224247,-3.3020643060335573,10.0,0.0,14.11944718772497,13.19299355312046,276.1510050613109,332.2676020034407,0.0
0.051000000000000004,9.010476314149255,-3.4918087124562573,10.0,0.0,14.377880139574374,13.385415558506736,283.4014966032294,332.2676020034407,0.0
0.052000000000000005,8.875420672276071,-3.7616964765756253,10.0,0.0,14.657502206766365,13.598470505804624,289.5124950632599,332.2676020034407,0.0
0.053,8.786920474845733,-3.936637095431691,10.0,0.0,14.947012152401923,13.826566630390529,301.17712836854054,332.2676020034407,0.0
0.054,8.665782231368832,-4.154623681811027,10.0,0.0,15.252609834245678,14.073244341889552,307.87049488306343,332.2676020034407,0.0
0.055,8.562749946224105,-4.3290703010237115,10.0,0.0,15.569324781304562,14.335936219354203,317.117493132196,332.2676020034407,0.0
0.056,8.477845172768449,-4.460818458109763,10.0,0.0,15.893385252491369,14.612339606006952,326.46919840423527,332.2676020034407,0.0
0.057,8.401892185598264,-4.569617157145007,8.798936251889234,0.0,16.22333039054778,14.768897469675084,333.0027892224291,332.2676020034407,0.0
0.058,8.202530910801123,-4.557142313229988,5.524788970602434,0.0,16.533476581344352,14.615818707677585,327.87544556642695,332.2676020034407,0.0
0.059000000000000004,7.655325641963651,-4.282094151770069,8.132382362973647,0.0,16.767169727540086,14.886838153757356,332.7564092599401,332.2676020034407,0.0
0.06,7.598193253358748,-4.0785487052983305,5.687012443652085,0.0,16.984955986226925,14.859870854857792,339.37675711081243,332.2676020034407,0.0
0.061,7.325971637188125,-3.819451160587392,2.305746967142193,0.0,17.151801613701643,14.539266462386722,324.2967617771666,332.2676020034407,0.0
0.062,6.780787241166785,-3.2752452338208484,9.92545303622786,0.0,17.21263056268457,15.196635461675394,334.212067999282,332.2676020034407,0.0
0.063,7.350440263158044,-3.212068680290646,4.94835526521174,0.0,17.331606155077417,15.102558964051603,324.2683922835184,332.2676020034407,0.0
0.064,7.363202497165506,-2.9307805515969623,10.0,0.0,17.398966609847594,15.639532258445445,329.03562828838466,332.2676020034407,0.0
0.065,8.064072123392851,-2.799331599964551,7.648883250604338,0.0,17.501641845187514,15.743436942550582,316.87618435761243,332.2676020034407,0.0
0.066,8.419516178779638,-2.584509444681264,10.0,0.0,17.58212407783911,16.097262541876404,324.07021347773355,332.2676020034407,0.0
0.067,9.061042874649058,-2.379610654249585,10.0,0.0,17.66955000176348,16.333229141049074,310.58621924157046,332.2676020034407,0.0
0.068,9.673710285429442,-2.1250264238727437,10.0,0.0,17.745874715775546,16.493363524469764,305.8051227404119,332.2676020034407,0.0
0.069,10.183208429181086,-1.894568835236721,10.0,0.0,17.807775904282288,16.59519881924472,306.1081015419535,332.2676020034407,0.0
0.07,10.681851054436182,-1.5685095437014482,10.0,0.0,17.840108557233314,16.6432849960523,300.1338232683177,332.2676020034407,0.0
0.07100000000000001,11.156664925205641,-1.2033901383784755,10.0,0.0,17.837114020899826,16.64255272094214,291.9754655870034,332.2676020034407,0.0
0.07200000000000001,11.589695047738726,-0.8585385343050178,10.0,0.0,17.80006322829383,16.598709044938712,285.11076240327486,332.2676020034407,0.0
0.073,11.989747438291815,-0.536509288219045,10.0,0.0,17.73035844631936,16.515869195539505,285.76700023495926,332.2676020034407,0.0
0.074,12.224847003123832,-0.4650354504310015,10.0,0.0,17.654698327906594,16.412482424656794,291.3300469760559,332.2676020034407,0.0
0.075,12.190711536277611,-0.7619230831419942,10.0,0.0,17.60963792222293,16.31797421602247,295.961677523934,332.2676020034407,0.0
0.076,12.069147178067405,-1.121252633627689,10.0,0.0,17.59619011047051,16.241441512417875,299.2827774296045,332.2676020034407,0.0
0.077,11.89675707007495,-1.500272716325169,10.0,0.0,17.614532723124743,16.18896456629557,302.84058261346127,332.2676020034407,0.0
0.078,11.682324883137337,-1.904078573275354,10.0,0.0,17.666421823338858,16.16543321553413,311.9389149734448,332.2676020034407,0.0
0.079,11.43614732682423,-2.329694370446701,10.0,0.0,17.753548557574767,16.17437911919531,324.6611927827279,332.2676020034407,0.0
0.08,11.218918256412476,-2.6765703160807925,10.0,0.0,17.866757404801245,16.212576528096125,325.78663742575907,332.2676020034407,0.0
0.081,10.95501419722342,-3.081984759402008,10.0,0.0,18.01359193750415,16.285132236636183,343.0334426402325,332.2676020034407,0.0
0.082,10.698202404641787,-3.4549250016739093,1.5626548296027734,0.0,18.189967870007454,15.462618115440923,336.1617227261173,332.2676020034407,0.0
0.083,9.38603018326871,-3.269511640795912,4.959573579433609,0.0,18.242329925021608,15.339798340226103,348.0344691141693,332.2676020034407,0.0
0.084,8.627731752567042,-3.298132855772951,-1.1344682856996808,0.0,18.282176264269125,14.600474060534667,343.01907533137944,332.2676020034407,0.0
0.085,7.317309893115695,-3.063445384971901,1.2657138724158745,0.0,18.21800370768486,14.4005907190138,343.9717215178008,332.2676020034407,0.0
0.08600000000000001,6.56954381147842,-2.970402902491223,0.6723495840615925,0.0,18.132372274242066,14.194156613072053,345.8459273059554,332.2676020034407,0.0
0.08700000000000001,5.980727068479055,-2.9444105620496552,-0.40053656304085283,0.0,18.032731840925614,13.945011121996036,342.9721760640165,332.2676020034407,0.0
0.088,5.444126138300701,-2.835146683917886,0.9292933173228484,0.0,17.90638179864313,13.920964219896627,340.6609187504695,332.2676020034407,0.0
0.089,5.207861107337759,-2.811863671868736,2.0009888066260615,0.0,17.78879357783486,14.011898352902765,338.0454632104217,332.2676020034407,0.0
0.09,5.221666774165258,-2.8243779190388087,3.2509379645801406,0.0,17.693666989717237,14.204876429348728,341.23194576559024,332.2676020034407,0.0
0.091,5.444293460161706,-2.852357207270898,1.5680532493743744,0.0,17.630303447289798,14.147076350294832,337.2318453895529,332.2676020034407,0.0
0.092,5.417370511434678,-2.76565681512721,3.5184610035319146,0.0,17.55767941518158,14.325281416232894,327.70263290158664,332.2676020034407,0.0
0.093,5.684640688824885,-2.636370120440986,8.328716938533592,0.0,17.49678376038395,14.958358698674745,338.8262970195703,332.2676020034407,0.0
0.094,6.522298478236731,-2.809845610862209,2.7012979293804715,0.0,17.525660570203467,14.765450381974397,322.315386018754,332.2676020034407,0.0
0.095,6.590515423335638,-2.549568123538776,10.0,0.0,17.501993588861193,15.454724709718942,331.52229641893615,332.2676020034407,0.0
0.096,7.517745204355078,-2.5812431728099865,6.439147933596743,0.0,17.55570776872068,15.506711052083105,316.05008868815753,332.2676020034407,0.0
0.097,7.922188031603513,-2.3990087747444457,10.0,0.0,17.588886630550718,15.950956012978061,324.4434118568958,332.2676020034407,0.0
0.098,8.693107918407286,-2.298093817669786,10.0,0.0,17.653893800989678,16.237729084026558,311.57765448039726,332.2676020034407,0.0
0.099,9.415321301861287,-2.110496353307645,10.0,0.0,17.72145098998051,16.430591291702207,307.06098088357334,332.2676020034407,0.0
0.1,9.992487325628302,-1.9280104178916848,10.0,0.0,17.78334120258769,16.554656868729534,307.66898456506084,332.2676020034407,0.0
0.101,10.534566419724353,-1.6235709908878904,10.0,0.0,17.819785474020627,16.618647869201954,301.13294356928014,332.2676020034407,0.0
0.10200000000000001,11.033794586001521,-1.2692210534836939,10.0,0.0,17.82305031951308,16.630389889420897,292.5639550460736,332.2676020034407,0.0
0.10300000000000001,11.479936233202618,-0.9300122811618525,10.0,0.0,17.793393416896834,16.59720089263784,285.7131563190103,332.2676020034407,0.0
0.10400000000000001,11.889580470283232,-0.6071338584386661,10.0,0.0,17.73125876608757,16.52376565566461,284.01001655114385,332.2676020034407,0.0
0.105,12.203829280608337,-0.41375364711790397,10.0,0.0,17.649951017643858,16.42098955054282,289.59625996511863,332.2676020034407,0.0
0.106,12.202251632560419,-0.68074702711389,10.0,0.0,17.5977995074451,16.32367631047736,294.5146770402845,332.2676020034407,0.0
0.107,12.096408036818177,-1.032990674116451,10.0,0.0,17.57720869163,16.24250626244974,298.05757989394306,332.2676020034407,0.0
0.108,11.934192003128805,-1.4087117745557398,10.0,0.0,17.588366837171932,16.18417946539178,301.0986728310254,332.2676020034407,0.0
0.109,11.730013776331356,-1.8045321066249906,10.0,0.0,17.63235951397711,16.153638607204634,308.5143549429643,332.2676020034407,0.0
0.11,11.488739096893172,-2.228780575869828,10.0,0.0,17.7116079655793,16.155049534986947,322.90134933118486,332.2676020034407,0.0
0.111,11.264272366606532,-2.595025362528346,10.0,0.0,17.819117106639478,16.18652280868839,323.71184717418555,332.2676020034407,0.0
0.112,11.01876340560028,-2.9736488169178066,10.0,0.0,17.957008793080043,16.250360987533533,339.722107980888,332.2676020034407,0.0
0.113,10.747234824440062,-3.378133155397438,3.273806473071451,0.0,18.128202171449935,15.60913628349364,335.5457974981631,332.2676020034407,0.0
0.114,9.662470210650332,-3.283481995122979,5.32917975948667,0.0,18.203697270563858,15.459115206174953,348.45074460171764,332.2676020034407,0.0
0.115,8.912623481554624,-3.3570054458042056,-1.2851252182733734,0.0,18.2656748432122,14.655153960144402,341.1816142253497,332.2676020034407,0.0
0.116,7.529975162239998,-3.077288648141054,2.2602998476915204,0.0,18.209554451742896,14.538519250849125,344.93344265050274,332.2676020034407,0.0
0.117,6.842680354105021,-3.0320560071056644,0.2577272286443675,0.0,18.14520420595373,14.23397468028332,345.7102345073914,332.2676020034407,0.0
0.11800000000000001,6.139806335723814,-2.9751503405370876,-0.26509502483947855,0.0,18.051027230774707,13.986408014443004,343.3440476637337,332.2676020034407,0.0
0.11900000000000001,5.564544866341089,-2.8595374194803687,0.8072339403864488,0.0,17.929362921879008,13.933614747826795,341.3965428921499,332.2676020034407,0.0
0.12,5.271671429194872,-2.8319260526906715,1.6896969172912542,0.0,17.812704596074962,13.986745478182163,338.4129538018188,332.2676020034407,0.0
0.121,5.217586523704345,-2.831998424235854,3.120037944473035,0.0,17.71330925042471,14.174430791375036,340.254251181872,332.2676020034407,0.0
0.122,5.412617437219372,-2.8574912089383555,2.119522762662112,0.0,17.645425453260604,14.187053708871021,340.1255496513049,332.2676020034407,0.0
0.123,5.449975752749274,-2.8220908861813507,2.105294051467034,0.0,17.581443364212213,14.197906842914502,328.2704757567473,332.2676020034407,0.0
0.124,5.5262512897031595,-2.633444299552956,8.072802261212749,0.0,17.504547676171452,14.84982791892315,337.50643349405703,332.2676020034407,0.0
0.125,6.349395512084749,-2.776490961845364,3.4024350776517265,0.0,17.51815526325408,14.765668737145253,325.6183761325157,332.2676020034407,0.0
0.126,6.513919823393725,-2.615986155367455,9.412956017131634,0.0,17.502900178115173,15.389280975411634,330.5926486185849,332.2676020034407,0.0
0.127,7.40104544998767,-2.6149092492337305,6.942569307945593,0.0,17.553018413706845,15.521220158119977,319.64473025331495,332.2676020034407,0.0
0.128,7.857869933297544,-2.500979432107603,10.0,0.0,17.59879723318766,15.964619052436358,326.1901572572176,332.2676020034407,0.0
0.129,8.65156964112024,-2.3785857659809557,9.2799630094311,0.0,17.672014055049363,16.175738840358655,311.02344316566735,332.2676020034407,0.0
0.13,9.260150447207335,-2.175445529264703,10.0,0.0,17.737899684139595,16.40046587895181,311.77951316981733,332.2676020034407,0.0
0.131,9.843693257942524,-1.9873326573145982,10.0,0.0,17.801008440632774,16.544004505568985,310.22173305024495,332.2676020034407,0.0
0.132,10.416807926590257,-1.6666072585663971,10.0,0.0,17.838761518995554,16.62229295972986,300.6606853351936,332.2676020034407,0.0
0.133,10.926540091671503,-1.3274772060561766,10.0,0.0,17.8464710831495,16.64618848483847,291.9018334467557,332.2676020034407,0.0
0.134,11.380563526872134,-0.9998820214192223,10.0,0.0,17.823155073613947,16.62362015763035,285.41168344628085,332.2676020034407,0.0
0.135,11.801787682714586,-0.6745917167889735,10.0,0.0,17.76740785064818,16.559182639398827,282.60868169078077,332.2676020034407,0.0
0.136,12.18783745684792,-0.3708587572346147,10.0,0.0,17.680633875651164,16.45736091709764,288.29953774937354,332.2676020034407,0.0
0.137,12.224319738298378,-0.5999025126814015,10.0,0.0,17.620587268618422,16.356891416308645,293.3831965631069,332.2676020034407,0.0
0.138,12.135201770212957,-0.9447615430366065,10.0,0.0,17.592142427994652,16.270632004199182,297.27181093434535,332.2676020034407,0.0
0.139,11.982682649705126,-1.3189342453180464,10.0,0.0,17.59562653716972,16.206039972813294,300.39418565803186,332.2676020034407,0.0
0.14,11.786794405876886,-1.7105005674997464,10.0,0.0,17.63163360070587,16.168278071099525,306.3234878382136,332.2676020034407,0.0
0.14100000000000001,11.552026052253698,-2.1301606607193353,10.0,0.0,17.702510714749362,16.161758702371028,320.8344162295493,332.2676020034407,0.0
0.14200000000000002,11.318162221328485,-2.518644744775778,10.0,0.0,17.804184828829673,16.18635631978526,323.1980888595101,332.2676020034407,0.0
0.14300000000000002,11.088492149885163,-2.874010846194345,10.0,0.0,17.933356723558845,16.241586656415613,335.9355824033022,332.2676020034407,0.0
0.14400000000000002,10.805029388673733,-3.303699027109829,5.221753922317265,0.0,18.09884650136467,15.80748828332958,336.18024855771773,332.2676020034407,0.0
0.145,9.975177379309038,-3.317453958226391,5.060294379566725,0.0,18.201593624694958,15.551819729825,347.03430352484986,332.2676020034407,0.0
0.146,9.144355220395708,-3.404694866418528,-0.5144001192134313,0.0,18.277958130931736,14.803482861952416,340.7184200861263,332.2676020034407,0.0
