timestamp,iq,id,iq_ref,id_ref,vq,vd,omega,omega_ref,r
0.0,0.0,0.0,0.0,0.0,0.0,0.0,0.0,431.2240851260716,0.0
0.001,0.0,0.0,10.0,0.0,0.0,1.0999999999999999,10.51436623325435,431.2240851260716,0.0
0.002,0.8470693263763408,-0.49116850190097433,10.0,0.0,0.16402853520910715,1.8968223740986023,22.00620212996143,431.2240851260716,0.0
0.003,1.951983824286565,-1.1165586340499245,10.0,0.0,0.45521768382453864,2.517295462801894,33.534975407189826,431.2240851260716,0.0
0.004,3.0294962954075237,-1.7251050439980984,10.0,0.0,0.8400214302215657,2.997362930652196,45.23345765357811,431.2240851260716,0.0
0.005,3.9368676373501716,-2.236681469953469,10.0,0.0,1.2845394915195292,3.3788683034546896,57.0697918487938,431.2240851260716,0.0
0.006,4.628067229536917,-2.6241398679786534,10.0,0.0,1.7602609434911625,3.6997167033856133,68.7740269676991,431.2240851260716,0.0
0.007,5.114398720248971,-2.893908567107093,10.0,0.0,2.2462950631826013,3.989467940464151,80.27020160802472,431.2240851260716,0.0
0.008,5.435475644619037,-3.0683680780858906,10.0,0.0,2.7291937538291338,4.268392319030392,91.52711871561809,431.2240851260716,0.0
0.009000000000000001,5.639177922954211,-3.1742780344783617,10.0,0.0,3.201600513361019,4.548517647431493,102.41952065950096,431.2240851260716,0.0
0.01,5.769384763518238,-3.2367455210154343,10.0,0.0,3.660591453734981,4.835585389266981,113.24697019820253,431.2240851260716,0.0
0.011,5.862191075182623,-3.273037677307289,10.0,0.0,4.105757536581828,5.130938825078875,123.8230330503386,431.2240851260716,0.0
0.012,5.942058427051178,-3.2960895477396344,10.0,0.0,4.53811513890982,5.433416180005367,134.0509632585673,431.2240851260716,0.0
0.013000000000000001,6.023869341167094,-3.31349961762006,10.0,0.0,4.959169305480185,5.740681032637943,143.91945335240555,431.2240851260716,0.0
0.014,6.115714073757822,-3.327734269226283,10.0,0.0,5.370236251634651,6.0500400052204775,153.40461436378226,431.2240851260716,0.0
0.015,6.220972867860023,-3.3379853283755745,10.0,0.0,5.772117670422284,6.358909755134869,162.4577746237926,431.2240851260716,0.0
0.016,6.340225226174305,-3.341671339458806,10.0,0.0,6.165000872950255,6.665015500463037,171.01755153117495,431.2240851260716,0.0
0.017,6.472797143729039,-3.3354174936211667,10.0,0.0,6.548481546605275,6.966408604163308,178.8531423452314,431.2240851260716,0.0
0.018000000000000002,6.61734187070848,-3.3164639333910273,10.0,0.0,6.92173111009788,7.261436264066863,186.27426397745867,431.2240851260716,0.0
0.019,6.7741077468363855,-3.280225588699226,10.0,0.0,7.283361800917779,7.548487315225046,193.02602570876908,431.2240851260716,0.0
0.02,6.942798596372813,-3.2243873621703756,10.0,0.0,7.631754706300256,7.826007995661675,199.0237377157692,431.2240851260716,0.0
0.021,7.123580466783306,-3.1473301324298983,10.0,0.0,7.965142476181985,8.092416801343097,204.14367182213195,431.2240851260716,0.0
0.022,7.316805935626779,-3.048332451530314,10.0,0.0,8.281713177042132,8.346076520575874,209.00764515397688,431.2240851260716,0.0
0.023,7.52385314007044,-2.9257995970489845,10.0,0.0,8.579504142555589,8.585184400171016,212.66185069396678,431.2240851260716,0.0
0.024,7.744187081202909,-2.7816703840410675,10.0,0.0,8.856797914591162,8.807994326877857,214.95868862902643,431.2240851260716,0.0
0.025,7.977802687350023,-2.6171127744033025,10.0,0.0,9.111983257163786,9.01275826085271,218.18291835426243,431.2240851260716,0.0
0.026000000000000002,8.224440218636104,-2.4334459373141977,10.0,0.0,9.343568682893205,9.19777036330735,219.45243709112827,431.2240851260716,0.0
0.027,8.48309938377213,-2.2327746091006118,10.0,0.0,9.550259598562544,9.36145366523736,220.87828623499584,431.2240851260716,0.0
0.028,8.751502613726537,-2.0187399701065747,10.0,0.0,9.731112655850744,9.50249996489768,221.86120923207366,431.2240851260716,0.0
0.029,9.02614016972451,-1.7964200084935316,10.0,0.0,9.885670187988659,9.620000841460556,221.90080709057858,431.2240851260716,0.0
0.03,9.307598441539074,-1.5636060821250664,10.0,0.0,10.013135722284673,9.712993349241316,222.49724227915684,431.2240851260716,0.0
0.031,9.587275983043215,-1.3325666835198464,10.0,0.0,10.11406775934627,9.781483212826288,221.886553004354,431.2240851260716,0.0
0.032,9.859646575155457,-1.1106381191922585,10.0,0.0,10.189653830970219,9.826053304041615,215.79217805564912,431.2240851260716,0.0
0.033,10.12864291314332,-0.8890075054621658,10.0,0.0,10.239978222686274,9.846859102040266,218.88539187797332,431.2240851260716,0.0
0.034,10.32871842129398,-0.7747221169264842,10.0,0.0,10.276995668428965,9.851298416893961,227.0127176318007,431.2240851260716,0.0
0.035,10.402611254065505,-0.8496294637352912,10.0,0.0,10.320137963117082,9.852868088313196,231.95690105790993,431.2240851260716,0.0
0.036000000000000004,10.415158447976179,-1.0002076055946452,10.0,0.0,10.37493751761475,9.857953759056858,235.4912454675473,431.2240851260716,0.0
0.037,10.390694301875392,-1.1836262899813557,10.0,0.0,10.443435957600965,9.870827346186118,239.8846859105454,431.2240851260716,0.0
0.038,10.337605711230495,-1.387724240280635,10.0,0.0,10.526988499990537,9.894858522111,245.48490387395455,431.2240851260716,0.0
0.039,10.261617321681417,-1.607665290566076,10.0,0.0,10.626741441762041,9.932669671626302,251.8168698508694,431.2240851260716,0.0
0.04,10.16618642476114,-1.8433947504827781,10.0,0.0,10.744031034395915,9.986412515132969,258.7083762091776,431.2240851260716,0.0
0.041,10.055991449534579,-2.092170530514852,10.0,0.0,10.879973993321427,10.057677171858073,266.36397452618064,431.2240851260716,0.0
0.042,9.93434972185705,-2.352199535696056,10.0,0.0,11.035564554796506,10.147688299095478,274.5069886478948,431.2240851260716,0.0
0.043000000000000003,9.803904137817113,-2.6212682017749205,10.0,0.0,11.211594436064685,10.257389966724269,283.02674051325965,431.2240851260716,0.0
0.044,9.666531698441425,-2.897010954540884,10.0,0.0,11.408632512112392,10.387530968207924,292.6883502671558,431.2240851260716,0.0
0.045,9.525445173528503,-3.1734207177397065,10.0,0.0,11.626628527127902,10.538507470494649,302.4334094521018,431.2240851260716,0.0
0.046,9.381119617929393,-3.4485289363601765,10.0,0.0,11.865420397286798,10.710650869921023,312.74709043477117,431.2240851260716,0.0
0.047,9.23741928528061,-3.714069140340398,10.0,0.0,12.124005760624065,10.90382289745603,322.99379443472804,431.2240851260716,0.0
0.048,9.096717475418368,-3.9644980852322345,10.0,0.0,12.4009415722794,11.117576454329617,333.09141006790173,431.2240851260716,0.0
0.049,8.963953617184796,-4.190491515295484,10.0,0.0,12.6939141463146,11.350845242988452,343.14829278039673,431.2240851260716,0.0
0.05,8.846564311068942,-4.379508510501203,10.0,0.0,12.999448276984166,11.60166959527533,351.5485328332622,431.2240851260716,0.0
0.051000000000000004,8.747871529356946,-4.527757658661808,10.0,0.0,13.31392866616107,11.867647238327638,359.3853169431455,431.2240851260716,0.0
0.052000000000000005,8.679898460696952,-4.618861731154103,10.0,0.0,13.632097737218057,12.144965265727889,366.0709745505685,431.2240851260716,0.0
0.053,8.65327385935322,-4.640827978171899,10.0,0.0,13.947686950356408,12.42861737295502,371.125831100382,431.2240851260716,0.0
0.054,8.677470431020355,-4.585871346004162,10.0,0.0,14.253817560895007,12.712535321876448,374.3530617047167,431.2240851260716,0.0
0.055,8.761377107503362,-4.449035202795714,10.0,0.0,14.543224495840644,12.98968676826314,375.65231785471184,431.2240851260716,0.0
0.056,8.912031937550111,-4.22933632525204,10.0,0.0,14.808607366832655,13.25233079896541,375.00370398112847,431.2240851260716,0.0
0.057,9.133470241370992,-3.930400370708047,10.0,0.0,15.043030387571292,13.492397048576827,372.48232626617875,431.2240851260716,0.0
0.058,9.425951998651556,-3.5603242537502937,10.0,0.0,15.240298717877296,13.70194036503831,368.02650663874005,431.2240851260716,0.0
0.059000000000000004,9.784892138952443,-3.132144053441492,10.0,0.0,15.395395485934463,13.873697585023955,362.3250440081535,431.2240851260716,0.0
0.06,10.20396932413338,-2.657729807194967,10.0,0.0,15.50425453410044,14.001279670849858,355.055223438967,431.2240851260716,0.0
0.061,10.670670146784799,-2.154527064755091,10.0,0.0,15.564377726826494,14.079843134269922,347.1602677239516,431.2240851260716,0.0
0.062,11.172869190679974,-1.6351392983590847,10.0,0.0,15.574244319742782,14.105987684018631,341.2959702464298,431.2240851260716,0.0
0.063,11.694525380794389,-1.1146885531378856,10.0,0.0,15.533683004031941,14.078144247610464,332.62919924676066,431.2240851260716,0.0
0.064,12.20329077336425,-0.633212410442294,10.0,0.0,15.446635608007071,13.998281391990494,319.2408256179153,431.2240851260716,0.0
0.065,12.70836277346194,-0.16196103945628026,10.0,0.0,15.313283776641178,13.867229816244976,329.46493046608634,431.2240851260716,0.0
0.066,12.955233835262769,-0.10364346967870913,10.0,0.0,15.17845955187165,13.71384311814031,334.87140746732666,431.2240851260716,0.0
0.067,12.990980014991983,-0.3314573955806678,10.0,0.0,15.067421787315604,13.560849298216958,341.91549716195004,431.2240851260716,0.0
0.068,12.901354363986206,-0.6856889024667869,10.0,0.0,14.98887574372128,13.422267367238257,349.2486981781757,431.2240851260716,0.0
0.069,12.71654822636155,-1.1114542336940696,10.0,0.0,14.947617982754657,13.309121443626651,357.03343460638143,431.2240851260716,0.0
0.07,12.460513051378554,-1.5761778817952488,10.0,0.0,14.94603335350239,13.229480144151427,365.2442519979008,431.2240851260716,0.0
0.07100000000000001,12.153526697284898,-2.0595602285230084,10.0,0.0,14.98516787888687,13.188852658898973,374.0617429573947,431.2240851260716,0.0
0.07200000000000001,11.812291998720223,-2.5486688517256075,10.0,0.0,15.06529432829267,13.190667328011383,383.78362601559576,431.2240851260716,0.0
0.073,11.451642208864763,-3.031887089978285,10.0,0.0,15.185852519644897,13.236572305051594,394.00445608907376,431.2240851260716,0.0
0.074,11.086201018928094,-3.494534040567041,10.0,0.0,15.345004371748153,13.32653463651748,402.127218208445,431.2240851260716,0.0
0.075,10.724088700593192,-3.930002773653221,10.0,0.0,15.54051236292127,13.459593863164576,411.56912747004407,431.2240851260716,0.0
0.076,10.370709174779243,-4.334816375071348,10.0,0.0,15.769950286466917,13.63414859092046,421.77050472525315,431.2240851260716,0.0
0.077,10.051686457664504,-4.669860426448976,10.0,0.0,16.026706600070945,13.845750341879807,431.3229182189705,431.2240851260716,0.0
0.078,9.78446389949892,-4.910518708066835,6.762371153779018,0.0,16.302069427874695,13.731932630246375,435.19097715121364,431.2240851260716,0.0
0.079,9.313189449439443,-4.894377359072164,4.78867276740604,0.0,16.534332070529132,13.52147040244273,434.70636273227245,431.2240851260716,0.0
0.08,8.69206866268595,-4.610654730083005,4.996157200814626,0.0,16.6912741504389,13.46145147526586,429.0453942647101,431.2240851260716,0.0
0.081,8.146546835574956,-4.198636752169964,7.848428343209405,0.0,16.78403537835946,13.788599823241668,421.79587491856466,431.2240851260716,0.0
0.082,7.995610036472135,-3.8593697560894284,10.0,0.0,16.86703612849582,14.311607459665165,421.6894787819938,431.2240851260716,0.0
0.083,8.298229770871327,-3.6060723341972407,10.0,0.0,16.96956752081356,14.73430115211711,418.39070308247705,431.2240851260716,0.0
0.084,8.852184049133369,-3.3315985911269084,10.0,0.0,17.0764560056259,15.067069841290797,412.63992069451626,431.2240851260716,0.0
0.085,9.53486336161967,-2.991418390616148,10.0,0.0,17.171257426248896,15.307695328437479,404.45082150929295,431.2240851260716,0.0
0.08600000000000001,10.269030146878404,-2.5719555310216924,10.0,0.0,17.23790214097398,15.459806855678188,394.83641842150155,431.2240851260716,0.0
0.08700000000000001,11.012541407216645,-2.0769571900405746,10.0,0.0,17.262838348038645,15.52892713088272,383.9787708841264,431.2240851260716,0.0
0.088,11.73677238671116,-1.5336936093256623,10.0,0.0,17.23738395144848,15.521398704132256,373.283232023043,431.2240851260716,0.0
0.089,12.43455759594754,-0.9577214003150374,10.0,0.0,17.155797844658252,15.44256361717676,360.58171813833246,431.2240851260716,0.0
0.09,13.094633320423059,-0.3779925911097619,10.0,0.0,17.016476392929025,15.297822950637848,359.57884538114376,431.2240851260716,0.0
0.091,13.691171115979923,0.1527481687145782,10.0,0.0,16.824028824230208,15.094605805313403,367.8873581542336,431.2240851260716,0.0
0.092,13.820434101717108,-0.012927134429523868,10.0,0.0,16.65403598881292,14.884212067176003,374.4421900047828,431.2240851260716,0.0
0.093,13.779121907014606,-0.36038080584155274,10.0,0.0,16.51656621394751,14.683695390585257,382.09657913097203,431.2240851260716,0.0
0.094,13.597972790291326,-0.8260254919951322,10.0,0.0,16.420538127672334,14.508996685059582,390.3088724786805,431.2240851260716,0.0
0.095,13.310686920949513,-1.3593651958977517,10.0,0.0,16.370653900039855,14.371954995919323,398.97228187556664,431.2240851260716,0.0
0.096,12.946432798178835,-1.9270438647758414,10.0,0.0,16.369165182794166,14.280824147741198,408.210054181461,431.2240851260716,0.0
0.097,12.529805192551011,-2.5067079824358434,10.0,0.0,16.416798518709058,14.240844008047674,418.1179784855267,431.2240851260716,0.0
0.098,12.082439355958149,-3.0799294481208506,10.0,0.0,16.512928227111853,14.254669181883926,428.57387744816714,431.2240851260716,0.0
0.099,11.623880921881906,-3.6284722050357727,8.941738190599064,0.0,16.655434970661787,14.206283779525187,438.1532044564041,431.2240851260716,0.0
0.1,11.085339431809636,-4.080856774993837,4.082783493177245,0.0,16.823129374747083,13.70773917270211,440.4286616053081,431.2240851260716,0.0
0.101,10.141833958104527,-4.2266141658716165,2.853009153932897,0.0,16.935709345038532,13.287533023834051,439.8996518303487,431.2240851260716,0.0
0.10200000000000001,9.03657843813576,-4.153819662072454,3.030758374369814,0.0,16.985545734087335,13.064598696981964,438.1910167195446,431.2240851260716,0.0
0.10300000000000001,8.028832550610668,-3.9733481190060953,3.8154066138371308,0.0,16.988981126846745,13.053274748285073,435.70554493541476,431.2240851260716,0.0
0.10400000000000001,7.293953898215416,-3.7668137737263017,5.013327907808629,0.0,16.97002652291041,13.238110786564226,432.1388615502914,431.2240851260716,0.0
0.105,6.9274125871452155,-3.5791328360309587,6.787521836128122,0.0,16.952871423501932,13.618720637491034,427.70167968723996,431.2240851260716,0.0
0.106,6.9678158340608825,-3.4625248074410586,9.04133682204215,0.0,16.964542745359047,14.181621932280231,428.0869307384933,431.2240851260716,0.0
0.107,7.441856199823771,-3.406515940888771,8.88008284029125,0.0,17.02634216947452,14.597383734159722,424.85791999068783,431.2240851260716,0.0
0.108,8.100309328437358,-3.2850184723663585,10.0,0.0,17.110733198494458,15.034863285158417,420.05095881361206,431.2240851260716,0.0
0.109,8.920380647284636,-3.1014894319252266,10.0,0.0,17.21145985994896,15.342211498575088,413.09687840713013,431.2240851260716,0.0
0.11,9.775996913159208,-2.806383529347548,10.0,0.0,17.302222317720545,15.542980480737803,404.2332367054729,431.2240851260716,0.0
0.111,10.61077186881549,-2.396661662424363,10.0,0.0,17.361867081595477,15.649479727997967,393.74309458558423,431.2240851260716,0.0
0.112,11.399635387411779,-1.89587070302451,10.0,0.0,17.37520750694417,15.672866289430571,383.11696633976106,431.2240851260716,0.0
0.113,12.13623259611816,-1.3362286489168378,10.0,0.0,17.332999829543418,15.622111179483056,370.5795948118501,431.2240851260716,0.0
0.114,12.826018325440073,-0.7430485544782881,10.0,0.0,17.23028401904083,15.503700354651865,357.10722439163146,431.2240851260716,0.0
0.115,13.468183816295594,-0.14803426062837843,10.0,0.0,17.066478935726273,15.323118684552645,363.81343457355763,431.2240851260716,0.0
0.116,13.869662559404464,0.1083998485661466,10.0,0.0,16.878738584660347,15.10647366629847,373.23373913478474,431.2240851260716,0.0
0.117,13.907734255887906,-0.14106176052551866,10.0,0.0,16.718112884967628,14.892546015581036,380.77813809173193,431.2240851260716,0.0
0.11800000000000001,13.787723255080943,-0.5492478787632615,10.0,0.0,16.594562847087676,14.69753048701967,388.78401843125897,431.2240851260716,0.0
0.11900000000000001,13.544918918132463,-1.0538630256665034,10.0,0.0,16.515292065116554,14.535169874582706,397.26492671082684,431.2240851260716,0.0
0.12,13.210920445372903,-1.6116235931504583,10.0,0.0,16.48401981105306,14.4154300338264,406.21937639302035,431.2240851260716,0.0
0.121,12.812245200673859,-2.1941489041948534,10.0,0.0,16.502400976860315,14.345051243928658,415.7965665971843,431.2240851260716,0.0
0.122,12.371567285738418,-2.780850480471898,10.0,0.0,16.57061806737711,14.328036267797348,426.0262583554922,431.2240851260716,0.0
0.123,11.909477072566172,-3.352662877790566,10.0,0.0,16.687344299171382,14.36596764263043,436.6647014671204,431.2240851260716,0.0
0.124,11.44518723825189,-3.889557933746993,5.1789377355458734,0.0,16.84953137745155,13.927912633712523,441.2097414051778,431.2240851260716,0.0
0.125,10.595495843204576,-4.1440457370970325,2.8065612037261047,0.0,16.974318954820856,13.425954192770856,441.280473606343,431.2240851260716,0.0
0.126,9.47406901768675,-4.136719618744701,2.670631218340798,0.0,17.033081179306794,13.110301857442584,439.67521192491404,431.2240851260716,0.0
0.127,8.368248428771327,-3.9894930559129396,3.388750791066845,0.0,17.03828028708335,13.02286942747497,437.50891452552895,431.2240851260716,0.0
0.128,7.496886081119293,-3.7999056546982066,4.409051196764814,0.0,17.01483389258019,13.13454365253386,434.6266754572121,431.2240851260716,0.0
0.129,6.976371324708102,-3.6120134145183482,5.816144827611827,0.0,16.986127287625585,13.425826110701447,429.6607436758003,431.2240851260716,0.0
0.13,6.840715689539225,-3.477464181833658,8.31474413282045,0.0,16.976498095789694,13.955601622125759,429.01421664265376,431.2240851260716,0.0
0.131,7.1616400361162755,-3.4295659164574,8.660106334227894,0.0,17.016886057415274,14.407782277851616,427.0024417220443,431.2240851260716,0.0
0.132,7.74157215038517,-3.345796373240382,9.708210228572902,0.0,17.08971762135078,14.870038181427521,423.36474356986264,431.2240851260716,0.0
0.133,8.517742742442028,-3.208396868989942,10.0,0.0,17.18721536921494,15.235388042969348,417.4372222599121,431.2240851260716,0.0
0.134,9.373058600288235,-2.9723741475697354,10.0,0.0,17.28690982413315,15.484711756986618,409.4408770353244,431.2240851260716,0.0
0.135,10.225875015872761,-2.6163777558550207,10.0,0.0,17.364767829086855,15.633815897958154,399.5519723111148,431.2240851260716,0.0
0.136,11.039605118348446,-2.154261215809095,10.0,0.0,17.402477592154437,15.694813278211418,388.88627097590467,431.2240851260716,0.0
0.137,11.801686863994016,-1.616276082421486,10.0,0.0,17.387958917668406,15.677790205749865,377.6405615218059,431.2240851260716,0.0
0.138,12.514540542935658,-1.031135240448119,10.0,0.0,17.314204162101632,15.590224485858737,364.4573774739741,431.2240851260716,0.0
0.139,13.179254262743807,-0.4316775723840814,10.0,0.0,17.17897937503511,15.438049890010564,357.7804435940068,431.2240851260716,0.0
0.14,13.787202846468938,0.14109782274050692,10.0,0.0,16.98504889030736,15.227343068028876,370.36099458405107,431.2240851260716,0.0
0.14100000000000001,13.920619642347718,0.003643832215139975,10.0,0.0,16.810288464763254,15.009717518063166,377.5934502794585,431.2240851260716,0.0
0.14200000000000002,13.872696888064064,-0.3375380316001322,10.0,0.0,16.667396991891408,14.802984151469605,385.34618758124145,431.2240851260716,0.0
0.14300000000000002,13.684287385876408,-0.8032550221016348,10.0,0.0,16.56593837996441,14.622880791946024,393.63900945571885,431.2240851260716,0.0
0.14400000000000002,13.389486301095557,-1.3410898995431073,10.0,0.0,16.511119959891293,14.481185931486118,402.37483296769875,431.2240851260716,0.0
0.145,13.017596767973409,-1.9158840304142974,10.0,0.0,16.505462901400918,14.38613855286051,411.6460725546267,431.2240851260716,0.0
0.146,12.593003867677037,-2.504223591213029,10.0,0.0,16.549836221276166,14.343016529949814,421.59966799874775,431.2240851260716,0.0
0.147,12.13735887861276,-3.086602827562396,10.0,0.0,16.643638327263268,14.354519061111812,432.1045213789232,431.2240851260716,0.0
0.148,11.670550196273538,-3.6435332522386945,7.677400725111575,0.0,16.784649030118754,14.165558134685268,439.90329093501305,431.2240851260716,0.0
