timestamp,iq,id,iq_ref,id_ref,vq,vd,omega,omega_ref,r
0.0,0.0,0.0,0.0,0.0,0.0,0.0,0.0,422.66075946969704,0.0
0.001,0.0,0.0,10.0,0.0,0.0,1.0999999999999999,4.354510681747701,422.66075946969704,0.0
0.002,0.531271920680781,-0.31265787929385846,10.0,0.0,0.14439236672232442,1.931560088725114,10.559490208514822,422.66075946969704,0.0
0.003,1.2018578485858462,-0.7029531919056655,10.0,0.0,0.39730741123928803,2.6259516723872,17.673180129031937,422.66075946969704,0.0
0.004,1.8560636010883205,-1.081356714780649,10.0,0.0,0.7320915440608937,3.210938828638551,25.18580340339649,422.66075946969704,0.0
0.005,2.424251095081433,-1.4085788101000285,10.0,0.0,1.1241063744818562,3.7149471157327114,32.8453402980804,422.66075946969704,0.0
0.006,2.8865728659817327,-1.6739792569749077,10.0,0.0,1.5532423787731813,4.16258253730045,40.52229877244275,422.66075946969704,0.0
0.007,3.2489913039242193,-1.8815666372822926,10.0,0.0,2.004408932157211,4.573125206675876,48.2122107454121,422.66075946969704,0.0
0.008,3.5285390938981034,-2.0413465758188765,10.0,0.0,2.4670130165763315,4.9606041919344595,55.852498929562664,422.66075946969704,0.0
0.009000000000000001,3.744898281203679,-2.164535946278861,10.0,0.0,2.93405762244463,5.334591654405223,63.40082081237118,422.66075946969704,0.0
0.01,3.916047123991786,-2.261348827634424,10.0,0.0,3.401214037217688,5.701222050382105,70.97964132944813,422.66075946969704,0.0
0.011,4.056676515881692,-2.339840354678842,10.0,0.0,3.865983789272458,6.0641473035585935,78.43463832693263,422.66075946969704,0.0
0.012,4.177819535589922,-2.4058955512354823,10.0,0.0,4.327050247790185,6.425337568373905,85.78270836705086,422.66075946969704,0.0
0.013000000000000001,4.287226663281091,-2.463535548447254,10.0,0.0,4.7838089346654,6.785692098710512,93.02133218965727,422.66075946969704,0.0
0.014,4.390120121562155,-2.5151565941993526,10.0,0.0,5.236029120947368,7.145462835566977,100.19221125947074,422.66075946969704,0.0
0.015,4.489965439816639,-2.5617923784315795,10.0,0.0,5.683618088094809,7.504524466940804,107.1770398736772,422.66075946969704,0.0
0.016,4.588831564907856,-2.6038675196269985,10.0,0.0,6.126516229354063,7.862562011314507,113.96526139563417,422.66075946969704,0.0
0.017,4.6880449492596705,-2.64116994470463,10.0,0.0,6.564610826271347,8.219160804348977,120.54614634165266,422.66075946969704,0.0
0.018000000000000002,4.7885059870819795,-2.673096635303661,10.0,0.0,6.997694754515466,8.573850597454793,126.90328209016602,422.66075946969704,0.0
0.019,4.8909059765473355,-2.6988239411216686,10.0,0.0,7.425450005979745,8.926120415611473,133.01429920737897,422.66075946969704,0.0
0.02,4.995864063301826,-2.7174217980659767,10.0,0.0,7.847445205318958,9.275417387450574,138.6401722780395,422.66075946969704,0.0
0.021,5.103921662784003,-2.728072289828724,10.0,0.0,8.26315615743262,9.621147426964187,144.22257681012,422.66075946969704,0.0
0.022,5.215907533126755,-2.729557269192669,10.0,0.0,8.671925861098684,9.96263768799493,149.63752989893715,422.66075946969704,0.0
0.023,5.332476481701916,-2.7210840773240528,10.0,0.0,9.073020719602026,10.29915316764936,154.8076390599118,422.66075946969704,0.0
0.024,5.454298684213534,-2.701983141207706,10.0,0.0,9.465641269166369,10.629891832398158,159.66195505374654,422.66075946969704,0.0
0.025,5.582116868642179,-2.6715978058972625,10.0,0.0,9.848922252726167,10.953976907366473,164.20720796378478,422.66075946969704,0.0
0.026000000000000002,5.716658647059479,-2.629397262936277,10.0,0.0,10.221945439054215,11.270460159412321,168.8513678160556,422.66075946969704,0.0
0.027,5.857673280879328,-2.576518922793793,10.0,0.0,10.583920019967982,11.578431212950381,173.51661947298706,422.66075946969704,0.0
0.028,6.005232748486906,-2.5136351805132335,10.0,0.0,10.934105819894738,11.87698122412737,177.87012114374696,422.66075946969704,0.0
0.029,6.160314781298649,-2.4399316574485828,10.0,0.0,11.271649490832214,12.165111385246131,181.762225746049,422.66075946969704,0.0
0.03,6.323762031362359,-2.354712700521984,10.0,0.0,11.595614760756536,12.441754520167862,186.08427862825425,422.66075946969704,0.0
0.031,6.491861567859237,-2.264725449233625,10.0,0.0,11.905801409108149,12.70627339207584,189.43899245108182,422.66075946969704,0.0
0.032,6.667364216087481,-2.166103971456034,10.0,0.0,12.201472789772746,12.957734745688034,192.1924982903564,422.66075946969704,0.0
0.033,6.847685729706348,-2.06351922535072,10.0,0.0,12.482425060438292,13.195536761989683,194.01671738340005,422.66075946969704,0.0
0.034,7.035485370380711,-1.9529321131852098,10.0,0.0,12.747923570790295,13.418799058389725,195.18904554639713,422.66075946969704,0.0
0.035,7.229143062582397,-1.836998133034895,10.0,0.0,12.997551593052226,13.626860626449528,192.2929951405711,422.66075946969704,0.0
0.036000000000000004,7.425850065093351,-1.7203610204214193,10.0,0.0,13.23135222730796,13.81937764657535,189.69099900668368,422.66075946969704,0.0
0.037,7.64576058947449,-1.5690498598660327,10.0,0.0,13.44554664361575,13.993799940457352,194.4378773728953,422.66075946969704,0.0
0.038,7.859775490075154,-1.4301082295115801,10.0,0.0,13.641993379947527,14.150856912759668,192.34583124720393,422.66075946969704,0.0
0.039,8.061392134097375,-1.3150395188242952,10.0,0.0,13.823232998004297,14.291815179628497,186.7075007470538,422.66075946969704,0.0
0.04,8.289565019508913,-1.1577231701731048,10.0,0.0,13.984290369697515,14.413718730661072,198.06187271301937,422.66075946969704,0.0
0.041,8.42418791247373,-1.1574865931573366,10.0,0.0,14.142979499339448,14.527010874387697,204.4283723426331,422.66075946969704,0.0
0.042,8.492404687770241,-1.2603370563471765,10.0,0.0,14.308444847110888,14.638685100352879,203.89936798802543,422.66075946969704,0.0
0.043000000000000003,8.546249767582832,-1.3744361950576267,10.0,0.0,14.480053483327948,14.75049764747227,212.0802605482719,422.66075946969704,0.0
0.044,8.585969176971963,-1.4963989989596134,10.0,0.0,14.657957427677363,14.864459119266751,222.19590819851481,422.66075946969704,0.0
0.045,8.592893704819325,-1.6589998269388757,10.0,0.0,14.846133587809984,14.984450334347406,228.0804218227117,422.66075946969704,0.0
0.046,8.576663148702332,-1.84798989419187,10.0,0.0,15.046654152555442,15.113114650384603,230.5053385260823,422.66075946969704,0.0
0.047,8.553950525849821,-2.0354165285049572,10.0,0.0,15.258716121531986,15.25130067424523,234.29775976138322,422.66075946969704,0.0
0.048,8.531521506117564,-2.209247810504523,10.0,0.0,15.480637670673758,15.39911435855947,242.04216292242424,422.66075946969704,0.0
0.049,8.498170624132019,-2.389164599662513,10.0,0.0,15.713200967320164,15.557783136177553,251.19024091956467,422.66075946969704,0.0
0.05,8.448518405610258,-2.5853369942981224,10.0,0.0,15.958154607582067,15.728969600916004,259.4596787099786,422.66075946969704,0.0
0.051000000000000004,8.387591154698713,-2.789112518244725,10.0,0.0,16.2161851139794,15.913738258621859,267.1279184104592,422.66075946969704,0.0
0.052000000000000005,8.31719628931815,-2.9966014013758278,10.0,0.0,16.48767545741254,16.1129672638796,274.51778488521114,422.66075946969704,0.0
0.053,8.23783865949909,-3.205963420012519,10.0,0.0,16.77289460024686,16.32744779358118,281.821632826999,422.66075946969704,0.0
0.054,8.151003809051442,-3.413663059684452,10.0,0.0,17.071793221945455,16.557760441847073,289.3331279818302,422.66075946969704,0.0
0.055,8.058883053412305,-3.6151076986965274,10.0,0.0,17.383915160195393,16.804196622072073,297.46724140941274,422.66075946969704,0.0
0.056,7.964857070199956,-3.8040041295658105,10.0,0.0,17.708232683648337,17.066623028696533,306.36443966058926,422.66075946969704,0.0
0.057,7.873662150791159,-3.9723141515383453,10.0,0.0,18.04298623352672,17.344329728306686,313.5507683857762,422.66075946969704,0.0
0.058,7.790148768963644,-4.112724889209694,10.0,0.0,18.385797179302397,17.636015635750606,319.77300235858064,422.66075946969704,0.0
0.059000000000000004,7.717955635880948,-4.221299107902086,10.0,0.0,18.73403467792435,17.939920157848515,325.614803241451,422.66075946969704,0.0
0.06,7.663976079834859,-4.289914599077561,10.0,0.0,19.084300840736283,18.253473797433074,330.66181635375705,422.66075946969704,0.0
0.061,7.634879081831595,-4.312146778154701,10.0,0.0,19.432655136012194,18.573359563560263,334.5032818251225,422.66075946969704,0.0
0.062,7.636803080639345,-4.2837947473672315,10.0,0.0,19.774821533195855,18.895589572753444,337.395754429707,422.66075946969704,0.0
0.063,7.677745501858294,-4.198556152367621,10.0,0.0,20.105901566438376,19.215328794399667,338.33146330326116,422.66075946969704,0.0
0.064,7.7593530508147515,-4.061296859886325,10.0,0.0,20.421601382298327,19.527634691032492,337.70878525509323,422.66075946969704,0.0
0.065,7.885733313424537,-3.8729862337695122,10.0,0.0,20.717620230287526,19.827194226190528,335.0503516969888,422.66075946969704,0.0
0.066,8.057946053340121,-3.6388314026865904,10.0,0.0,20.990119221835656,20.108720093867056,333.3185555479068,422.66075946969704,0.0
0.067,8.27933118861373,-3.358948683955864,10.0,0.0,21.235075350247072,20.366713036449806,330.81892010483506,422.66075946969704,0.0
0.068,8.544771228080059,-3.045277397457652,10.0,0.0,21.44963014574813,20.596417744626866,329.8310013864046,422.66075946969704,0.0
0.069,8.8477578018306,-2.71027302516777,10.0,0.0,21.63198616442988,20.79393333881843,330.42097286938156,422.66075946969704,0.0
0.07,9.175740205145638,-2.374314050385401,10.0,0.0,21.78225269715945,20.95688477683186,326.25190933200963,422.66075946969704,0.0
0.07100000000000001,9.51447401196307,-2.059341433482724,10.0,0.0,21.902500322305936,21.084586829600138,314.3794448078821,422.66075946969704,0.0
0.07200000000000001,9.881351185927382,-1.7337046651468078,10.0,0.0,21.990823071866686,21.174574288538338,302.5438227495183,422.66075946969704,0.0
0.073,10.290051295910654,-1.3669807334814867,10.0,0.0,22.04222902756534,21.223107036180274,303.26635283935326,422.66075946969704,0.0
0.074,10.697312533468105,-1.021462585327114,10.0,0.0,22.059007905478,21.23121536959639,305.1471709511124,422.66075946969704,0.0
0.075,11.041295521101695,-0.7970510031447942,10.0,0.0,22.053689636382497,21.20642524119805,304.1731915653164,422.66075946969704,0.0
0.076,11.167728919174106,-0.9276460374480828,10.0,0.0,22.063033750951888,21.173114454818357,314.64877460883184,422.66075946969704,0.0
0.077,11.210440427103725,-1.1603861697160933,10.0,0.0,22.09240783963283,21.140635226642043,329.39157211926727,422.66075946969704,0.0
0.078,11.160250928727821,-1.4986480785001075,10.0,0.0,22.150478005271605,21.120289290052103,335.9510458767026,422.66075946969704,0.0
0.079,11.048557286867533,-1.8871688858112154,10.0,0.0,22.24006123040388,21.119569369305896,342.3266261652208,422.66075946969704,0.0
0.08,10.905313651848221,-2.2741933913685117,10.0,0.0,22.359301628486506,21.14251962658107,350.74870796432475,422.66075946969704,0.0
0.081,10.726237457414573,-2.6685780434459554,10.0,0.0,22.508425079161334,21.193364842974493,360.33579463918636,422.66075946969704,0.0
0.082,10.518220512511053,-3.062075460567,10.0,0.0,22.687061575770556,21.27512898479111,370.69358474789755,422.66075946969704,0.0
0.083,10.286591573855036,-3.4488039816003657,10.0,0.0,22.894616000042987,21.389979375890107,381.2858722403339,422.66075946969704,0.0
0.084,10.037673251147057,-3.820759487934501,10.0,0.0,23.129947841484498,21.539164896417766,391.6663031795745,422.66075946969704,0.0
0.085,9.779948256951634,-4.166041894856175,10.0,0.0,23.390926560532655,21.72282561517124,401.55171218476625,422.66075946969704,0.0
0.08600000000000001,9.524215806413494,-4.469380035163526,10.0,0.0,23.67408785091593,21.939771453571407,410.8873606770484,422.66075946969704,0.0
0.08700000000000001,9.284819960355057,-4.711082297541273,10.0,0.0,23.974181463559386,22.18711505573094,417.96272580029915,422.66075946969704,0.0
0.088,9.071135495267455,-4.882868933662353,9.41233521621143,0.0,24.28547958250399,22.396201865421176,423.1365263329888,422.66075946969704,0.0
0.089,8.866381258474034,-4.955507191730498,6.820677281233685,0.0,24.592828912549436,22.35669020242358,426.38687478363073,422.66075946969704,0.0
0.09,8.580701415188944,-4.844653890452808,5.158241902773387,0.0,24.852571897569355,22.22429056684286,426.8083018062605,422.66075946969704,0.0
0.091,8.251621631993387,-4.560181277022332,4.906052968092874,0.0,25.04291716606463,22.153330742010596,422.61394430150773,422.66075946969704,0.0
0.092,7.977839699267683,-4.169512041322072,7.003699872151146,0.0,25.16700303543444,22.36858969007219,417.35176874459603,422.66075946969704,0.0
0.093,7.9189914409817135,-3.7843106237788207,9.687877557858005,0.0,25.26174074910066,22.852749895735982,411.4158316087418,422.66075946969704,0.0
0.094,8.149965149301023,-3.4611084271621677,10.0,0.0,25.36372048451424,23.27946395348057,404.46094319406836,422.66075946969704,0.0
0.095,8.549224987255897,-3.1462312433016972,10.0,0.0,25.466769183902443,23.62897450947879,394.2075540366153,422.66075946969704,0.0
0.096,9.038191444374853,-2.8109836303614917,10.0,0.0,25.560735603366822,23.904045167912482,380.1741865398535,422.66075946969704,0.0
0.097,9.591407839834575,-2.418315238542966,10.0,0.0,25.632971399757498,24.10504126351986,369.0786614602139,422.66075946969704,0.0
0.098,10.174102495734747,-1.9863825817476268,10.0,0.0,25.674497317740546,24.234597081011152,366.24979732538566,422.66075946969704,0.0
0.099,10.757117743832566,-1.5482667817609927,10.0,0.0,25.68095281424384,24.29704517781986,359.17322416055305,422.66075946969704,0.0
0.1,11.301001539950082,-1.1666753594061436,10.0,0.0,25.655413672318506,24.29989694950607,338.9466254704201,422.66075946969704,0.0
0.101,11.862427393179713,-0.7497290086135306,10.0,0.0,25.590665437390687,24.243591623937046,358.5235636671379,422.66075946969704,0.0
0.10200000000000001,12.21883905379996,-0.65930464775803,10.0,0.0,25.52098427721257,24.15285098329621,362.7589255795368,422.66075946969704,0.0
0.10300000000000001,12.29377340991055,-0.9741328690184519,10.0,0.0,25.484732516935388,24.059537628135686,369.38512145632404,422.66075946969704,0.0
0.10400000000000001,12.275199298644903,-1.3662261976228285,10.0,0.0,25.482756581103747,23.974722928263823,380.97692916218443,422.66075946969704,0.0
0.105,12.157302642702138,-1.8332723481957136,10.0,0.0,25.519950912145053,23.910974995837023,395.3910608745621,422.66075946969704,0.0
0.106,11.958045121122886,-2.346363810382055,10.0,0.0,25.598820616174315,23.878060650571335,408.35373978857046,422.66075946969704,0.0
0.107,11.700642809393813,-2.870785198352518,10.0,0.0,25.71906735332898,23.882646389309542,420.87560881312027,422.66075946969704,0.0
0.108,11.40100111354455,-3.384605724760861,8.565299260839796,0.0,25.8790240346672,23.771367710007894,433.1086077654513,422.66075946969704,0.0
0.109,10.994070927693778,-3.8330976138186834,2.3443213017167235,0.0,26.05605308247371,23.059017902143395,440.991162807449,422.66075946969704,0.0
0.11,10.225655358126557,-4.04287880789519,-1.7802602526596196,0.0,26.162735257170972,22.12456819924972,443.4282151276529,422.66075946969704,0.0
0.111,9.167280089234843,-4.017504559596179,-3.206460969341138,0.0,26.16041526485547,21.287332544706345,441.19195382393673,422.66075946969704,0.0
0.112,8.03480845411872,-3.843256117669621,-2.2736422610254534,0.0,26.055690120188252,20.764448648641157,435.5172108026444,422.66075946969704,0.0
0.113,7.058696861647005,-3.630750550457774,0.4351647362912381,0.0,25.8875159724072,20.66806876915818,430.9472039013908,422.66075946969704,0.0
0.114,6.416736254307115,-3.471931829062182,2.6373037426010892,0.0,25.711176247774567,20.84051123444898,427.63186276607547,422.66075946969704,0.0
0.115,6.126162226043615,-3.3665848282434263,4.24526327729498,0.0,25.559714759258156,21.15847317653624,424.1406703600228,422.66075946969704,0.0
0.116,6.1276241596117424,-3.2861362163811307,5.976060371418061,0.0,25.44739973650546,21.60073430759461,419.90669791298365,422.66075946969704,0.0
0.117,6.372444818821907,-3.2148514297188173,8.12058721050477,0.0,25.38350548871963,22.179212151452756,415.28486517266776,422.66075946969704,0.0
0.11800000000000001,6.839503194543719,-3.1461429180320506,10.0,0.0,25.37700336167928,22.8298147098628,410.66582170994974,422.66075946969704,0.0
0.11900000000000001,7.48027752113076,-3.0700852718044764,10.0,0.0,25.4285324472158,23.330098079665493,406.289358229137,422.66075946969704,0.0
0.12,8.16616934924795,-2.9224198909306773,10.0,0.0,25.5094543457451,23.716465663214567,401.4146206864348,422.66075946969704,0.0
0.121,8.840474715877297,-2.6996185075887618,10.0,0.0,25.5978893144175,24.00497400621359,392.7546840528504,422.66075946969704,0.0
0.122,9.483026953513708,-2.4141189386203092,10.0,0.0,25.67715468176946,24.20953731930625,376.87944771799744,422.66075946969704,0.0
0.123,10.10836103732979,-2.056591135202799,10.0,0.0,25.73247678100924,24.339209610981428,361.78483198168954,422.66075946969704,0.0
0.124,10.72651602826372,-1.6343330347668563,10.0,0.0,25.75236078647879,24.399703175248497,356.17795183944514,422.66075946969704,0.0
0.125,11.326816077033435,-1.187545196646436,10.0,0.0,25.7313816666392,24.39628432818049,349.82711893192123,422.66075946969704,0.0
0.126,11.866425309134986,-0.8074334220950483,10.0,0.0,25.674814157257323,24.33775543879186,350.6986421429652,422.66075946969704,0.0
0.127,12.260441992532575,-0.6499337566773651,10.0,0.0,25.604526664424334,24.241476944551167,366.9575567715763,422.66075946969704,0.0
0.128,12.349316439009819,-0.9354751191764636,10.0,0.0,25.564624617979653,24.141961528172722,372.5730678110161,422.66075946969704,0.0
0.129,12.316551960686475,-1.3474407330046798,10.0,0.0,25.561222038437712,24.052900285868,381.65328515438455,422.66075946969704,0.0
0.13,12.201807402691639,-1.8082657772549222,10.0,0.0,25.595824691348735,23.984699166435757,393.56356379408476,422.66075946969704,0.0
0.131,12.006872659324245,-2.313648265414403,10.0,0.0,25.671130790280476,23.94707380042831,406.48822782667,422.66075946969704,0.0
0.132,11.75121455134505,-2.8352622349948415,10.0,0.0,25.787467454490546,23.946914625358815,419.8579680944671,422.66075946969704,0.0
0.133,11.449366727352988,-3.3538051448183133,8.918532202478652,0.0,25.943978115157428,23.870090256049256,432.9569609861766,422.66075946969704,0.0
0.134,11.058425699982873,-3.8186982017197892,2.266073741459083,0.0,26.12310807998761,23.135628671771197,441.4776735793951,422.66075946969704,0.0
0.135,10.287914398513422,-4.034688401112439,-2.182451696247143,0.0,26.229988881271133,22.15055986175441,444.08690813893793,422.66075946969704,0.0
0.136,9.2032666227834,-4.0027792594437255,-3.701330462710958,0.0,26.222004813847143,21.263700745249313,441.67185848288335,422.66075946969704,0.0
0.137,8.032762593788231,-3.8154375007578487,-2.6839166248155326,0.0,26.105844739476282,20.709742408917624,435.891603404315,422.66075946969704,0.0
0.138,7.022227545477037,-3.591927666362419,0.07390247512246795,0.0,25.923192174712707,20.59220367642053,430.6712110419571,422.66075946969704,0.0
0.139,6.353412828412937,-3.4264456450277123,2.603994140578802,0.0,25.73108306917291,20.78234972129154,427.4426510708054,422.66075946969704,0.0
0.14,6.0587718761496685,-3.327821655582239,4.170455210143566,0.0,25.56800566004855,21.107002409697344,424.04911028902126,422.66075946969704,0.0
0.14100000000000001,6.0629562769052905,-3.2573998127057866,5.853342092842408,0.0,25.446941097855238,21.54892834114561,419.8731154032387,422.66075946969704,0.0
0.14200000000000002,6.309875308748097,-3.195684475505218,7.969215976398255,0.0,25.376091116362787,22.123353232098715,415.28852445264135,422.66075946969704,0.0
0.14300000000000002,6.776225419723537,-3.134711915387503,10.0,0.0,25.363678793873966,22.786648817679037,410.66808492386696,422.66075946969704,0.0
0.14400000000000002,7.422365276799637,-3.06881368887262,10.0,0.0,25.41219818287658,23.295653889047806,406.2648919129176,422.66075946969704,0.0
0.145,8.114426919098376,-2.930536597990134,10.0,0.0,25.492214642383892,23.688945010097854,401.55549172245037,422.66075946969704,0.0
0.146,8.794401312233832,-2.7146122908831645,10.0,0.0,25.581189665172534,23.983032098171726,393.65920316827925,422.66075946969704,0.0
0.147,9.44073554499475,-2.434547911700859,10.0,0.0,25.662028055850712,24.19231095804472,378.0120564309377,422.66075946969704,0.0
