timestamp,iq,id,iq_ref,id_ref,vq,vd,omega,omega_ref,r
0.0,0.0,0.0,0.0,0.0,0.0,0.0,0.0,335.71326936404466,0.0
0.001,0.0,0.0,10.0,0.0,0.0,1.0999999999999999,5.699707956414279,335.71326936404466,0.0
0.002,0.3925924286783007,-0.22387667152990323,10.0,0.0,0.13462643386828932,1.9468148328453871,11.461736020143075,335.71326936404466,0.0
0.003,0.9085915430207022,-0.518513508350502,10.0,0.0,0.37064299296925524,2.669576847502183,17.49485117254609,335.71326936404466,0.0
0.004,1.4351969314818898,-0.8194166322529752,10.0,0.0,0.6854870728868702,3.2908977150160883,23.751238516044516,335.71326936404466,0.0
0.005,1.91564284147956,-1.0939333702808385,10.0,0.0,1.058166641508154,3.833987907555234,30.09001015956043,335.71326936404466,0.0
0.006,2.3274597865130744,-1.3291836574554177,10.0,0.0,1.47101963673015,4.319541632848884,36.48826877893699,335.71326936404466,0.0
0.007,2.6677486441648255,-1.523536722623805,10.0,0.0,1.9101690392560877,4.764511680244008,43.02196020672013,335.71326936404466,0.0
0.008,2.9436940420318587,-1.6808520513848346,10.0,0.0,2.3652616617809734,5.181948557963362,49.51412986424668,335.71326936404466,0.0
0.009000000000000001,3.166333129972052,-1.807586850561103,10.0,0.0,2.828956384447085,5.581420164468515,55.919718927334166,335.71326936404466,0.0
0.01,3.347353278654387,-1.9105025568144824,10.0,0.0,3.2962821751932108,5.969628257114109,62.40051368881439,335.71326936404466,0.0
0.011,3.4975802793462045,-1.9952644667645005,10.0,0.0,3.763990849161251,6.351033350980482,68.77605487604951,335.71326936404466,0.0
0.012,3.6257289930102035,-2.066939574778595,10.0,0.0,4.230105807901174,6.728474714360898,75.08385406917688,335.71326936404466,0.0
0.013000000000000001,3.7387371872237205,-2.1291353115388736,10.0,0.0,4.693478187068636,7.103634023050417,81.1077992322818,335.71326936404466,0.0
0.014,3.841576563154488,-2.1847289275771833,10.0,0.0,5.1535225995849165,7.477432389377483,87.1988960153357,335.71326936404466,0.0
0.015,3.938094065636015,-2.2351359140785574,10.0,0.0,5.609931239837042,7.850266828809809,93.37629807999251,335.71326936404466,0.0
0.016,4.031184907915197,-2.280772420279204,10.0,0.0,6.062498405824245,8.222183870698222,99.54079460295853,335.71326936404466,0.0
0.017,4.1223439784585265,-2.322512012308277,10.0,0.0,6.511135549462762,8.593069335659537,105.45848351185619,335.71326936404466,0.0
0.018000000000000002,4.212544594647405,-2.360784806847089,10.0,0.0,6.955790136712538,8.962719491413228,111.22204556171755,335.71326936404466,0.0
0.019,4.302776751312096,-2.3951192215463792,10.0,0.0,7.3963383384842345,9.330846559245304,116.63629257041252,335.71326936404466,0.0
0.02,4.393664146404323,-2.425121242638335,10.0,0.0,7.832601305035097,9.697120448577843,121.90886672840035,335.71326936404466,0.0
0.021,4.48578209385663,-2.4501819963110547,10.0,0.0,8.2643220265572,10.061169145363381,126.76897647327307,335.71326936404466,0.0
0.022,4.57954241764475,-2.4698320370559577,10.0,0.0,8.691186442550865,10.422592588480406,131.8933808594133,335.71326936404466,0.0
0.023,4.675642315385159,-2.483096993954976,10.0,0.0,9.112769406108306,10.78092674337153,137.12207148709962,335.71326936404466,0.0
0.024,4.774385578053463,-2.489684121981843,10.0,0.0,9.528619423313085,11.135685019213183,141.8003908189661,335.71326936404466,0.0
0.025,4.8762685805217165,-2.4890527775744773,10.0,0.0,9.93822494721647,11.48633277154632,146.45609732890549,335.71326936404466,0.0
0.026000000000000002,4.981739280639292,-2.4808209757658948,10.0,0.0,10.341035509207956,11.832293354048225,150.2004255080427,335.71326936404466,0.0
0.027,5.091676378496999,-2.463968873194775,10.0,0.0,10.736389659985752,12.172900560735924,155.06882447238323,335.71326936404466,0.0
0.028,5.205639265497907,-2.439719457386055,10.0,0.0,11.123770201641284,12.507545915241105,159.12482617645594,335.71326936404466,0.0
0.029,5.324625946071947,-2.4070040479192603,10.0,0.0,11.502521023698526,12.835515882468185,162.75055193578393,335.71326936404466,0.0
0.03,5.449088580266337,-2.365662413097144,10.0,0.0,11.871973334536985,13.156062912222644,166.0441234606126,335.71326936404466,0.0
0.031,5.5794607986832725,-2.3155821397043868,10.0,0.0,12.231439703542058,13.468404152401583,169.3162064387663,335.71326936404466,0.0
0.032,5.716913061116253,-2.2554253087750684,10.0,0.0,12.580077110996227,13.771641878779674,172.84902932101733,335.71326936404466,0.0
0.033,5.859318891186582,-2.1892107980907825,10.0,0.0,12.91749252247681,14.065129454581967,174.5132195684827,335.71326936404466,0.0
0.034,6.006000010844192,-2.1186740240201987,10.0,0.0,13.243418250348634,14.348298949090458,173.53419434133727,335.71326936404466,0.0
0.035,6.169585714259322,-2.0234544554801404,10.0,0.0,13.555299570085431,14.61921645075619,177.6095961676961,335.71326936404466,0.0
0.036000000000000004,6.321269765767094,-1.9509950549536523,10.0,0.0,13.856066169642613,14.879180945597327,174.63691246399029,335.71326936404466,0.0
0.037,6.4990040495491055,-1.839770716935373,10.0,0.0,14.141242475551437,15.125191720209127,178.7689086425315,335.71326936404466,0.0
0.038,6.660472208408007,-1.7589116461635217,10.0,0.0,14.414719973925838,15.359134893313968,179.98866848720132,335.71326936404466,0.0
0.039,6.841414515462398,-1.650442900337164,10.0,0.0,14.673121068440103,15.578742526758369,180.40521821779654,335.71326936404466,0.0
0.04,7.020685689478578,-1.5483939896015437,10.0,0.0,14.917502124124729,15.784319100238523,180.31386659301913,335.71326936404466,0.0
0.041,7.210784365538278,-1.4321012020344597,10.0,0.0,15.146231014063883,15.97465797931272,177.50140669844748,335.71326936404466,0.0
0.042,7.3942277978192585,-1.3302444547450332,10.0,0.0,15.361079588590377,16.150558068683097,179.53312361723465,335.71326936404466,0.0
0.043000000000000003,7.592141447282735,-1.207345833919279,10.0,0.0,15.55953303378332,16.310416939450914,184.86011494828972,335.71326936404466,0.0
0.044,7.751647559134176,-1.1516907130984886,10.0,0.0,15.749233944451722,16.45856873185223,184.75104803270742,335.71326936404466,0.0
0.045,7.845860042737083,-1.2030628864876478,10.0,0.0,15.940987433574428,16.602107124002444,191.73689910280643,335.71326936404466,0.0
0.046,7.910925461043308,-1.297076221080545,10.0,0.0,16.137747158071214,16.744251954672244,199.38121207619008,335.71326936404466,0.0
0.047,7.962900440894559,-1.4036636973616652,10.0,0.0,16.33982988223029,16.886791681124166,200.96608321265154,335.71326936404466,0.0
0.048,7.99144143384906,-1.5394053392268194,10.0,0.0,16.549824012461013,17.032665947920332,209.5039453086275,335.71326936404466,0.0
0.049,8.014439485501496,-1.6733490594938027,10.0,0.0,16.76678254915899,17.182707825307723,217.5789381579302,335.71326936404466,0.0
0.05,8.013893092081478,-1.8369019531134216,10.0,0.0,16.993700801021404,17.3397314524189,218.70343450728868,335.71326936404466,0.0
0.051000000000000004,8.016197968035959,-1.9845333857182457,10.0,0.0,17.228233519059025,17.50348554171601,228.7241420785583,335.71326936404466,0.0
0.052000000000000005,8.002828453599118,-2.148224388519677,10.0,0.0,17.472218070204704,17.675811189234768,240.7132011694273,335.71326936404466,0.0
0.053,7.976708593703034,-2.3234626031890198,10.0,0.0,17.726676024573305,17.858042216560417,240.15888386638625,335.71326936404466,0.0
0.054,7.939295311088162,-2.5077595000320274,10.0,0.0,17.992431562743647,18.051350199079042,242.81408566567686,335.71326936404466,0.0
0.055,7.897999912933313,-2.687368715496624,10.0,0.0,18.268856390081503,18.256071298133715,252.84193509609082,335.71326936404466,0.0
0.056,7.850369764769425,-2.865546398263246,10.0,0.0,18.55591429754071,18.47278913233319,258.38140262653275,335.71326936404466,0.0
0.057,7.794115790699569,-3.045579654250376,10.0,0.0,18.853960079004874,18.702252609524688,267.2088541329275,335.71326936404466,0.0
0.058,7.728606362838192,-3.228085653934885,10.0,0.0,19.163422957447185,18.9452178144675,272.7561069810265,335.71326936404466,0.0
0.059000000000000004,7.659299219074793,-3.402892240710705,10.0,0.0,19.48363973308804,19.20180147829562,281.31325322715776,335.71326936404466,0.0
0.06,7.585540924353217,-3.5706991824959395,10.0,0.0,19.814203895276247,19.472168794286755,289.6662030913519,335.71326936404466,0.0
0.061,7.512426044112764,-3.7226517351992086,10.0,0.0,20.15378508422425,19.755860848776834,294.5517814766696,335.71326936404466,0.0
0.062,7.4424269941858325,-3.855000043253601,10.0,0.0,20.50081614808541,20.05211056340226,299.4468556744754,335.71326936404466,0.0
0.063,7.378471279895752,-3.964119273923166,10.0,0.0,20.853448709316112,20.3597735510239,306.7955631539593,335.71326936404466,0.0
0.064,7.328921460314218,-4.037944950248933,10.0,0.0,21.20861394527504,20.67674441901752,310.57164366708577,335.71326936404466,0.0
0.065,7.288853264860052,-4.088030606566953,10.0,0.0,21.564730909869162,21.001446727111805,316.3150294937287,335.71326936404466,0.0
0.066,7.277804986886151,-4.0858787708566915,10.0,0.0,21.916968850321997,21.330105129478667,318.74906977999865,335.71326936404466,0.0
0.067,7.291828467422353,-4.042642181637234,10.0,0.0,22.26211433050919,21.659468420015408,319.12595810089357,335.71326936404466,0.0
0.068,7.326127812211578,-3.972259806556347,10.0,0.0,22.59837189636464,21.986777236395735,320.8900311535404,335.71326936404466,0.0
0.069,7.400356383284313,-3.8488001404526013,10.0,0.0,22.920857847751968,22.307158778353468,319.56462692603,335.71326936404466,0.0
0.07,7.5132573682447585,-3.6794785185887813,10.0,0.0,23.225742576452358,22.61607393861923,318.85844546911426,335.71326936404466,0.0
0.07100000000000001,7.66261182219083,-3.4732659632061047,10.0,0.0,23.510040183435823,22.909286075644,309.4563581288816,335.71326936404466,0.0
0.07200000000000001,7.847532036209592,-3.236263383941467,10.0,0.0,23.77122108525815,23.182759080662038,316.73415502382556,335.71326936404466,0.0
0.073,8.061846859777312,-2.982310751185633,10.0,0.0,24.008066433589537,23.433277446908242,317.10398400609074,335.71326936404466,0.0
0.074,8.30580185981825,-2.7133672584042263,10.0,0.0,24.21923482583402,23.657736609594135,308.16820900419253,335.71326936404466,0.0
0.075,8.56675954988483,-2.450778955393073,10.0,0.0,24.405537016719222,23.854600899328965,302.2653700182063,335.71326936404466,0.0
0.076,8.885517369504475,-2.127559880298175,10.0,0.0,24.559967202259067,24.017955195921356,302.77591181697596,335.71326936404466,0.0
0.077,9.196657470828997,-1.8455063759171275,10.0,0.0,24.687496104173192,24.14937924845899,292.24488654471384,335.71326936404466,0.0
0.078,9.54184789926165,-1.5359405815808518,10.0,0.0,24.784182818816493,24.245554239819917,282.20786865046665,335.71326936404466,0.0
0.079,9.881622200064797,-1.258092387904159,10.0,0.0,24.853350717770493,24.307857134705063,282.79791426330735,335.71326936404466,0.0
0.08,10.236342626179665,-0.9750639856396144,10.0,0.0,24.893477474005266,24.33522502613249,291.73713401465756,335.71326936404466,0.0
0.081,10.444105843344568,-0.9494359922098876,10.0,0.0,24.93233954850468,24.344562054413664,293.8463193681941,335.71326936404466,0.0
0.082,10.530546223303174,-1.111397989947331,10.0,0.0,24.986321218067687,24.34942077769286,304.19954257531543,335.71326936404466,0.0
0.083,10.542325615349231,-1.3712414319673836,10.0,0.0,25.062353751647137,24.358760466274962,310.3199276754045,335.71326936404466,0.0
0.084,10.515882121488566,-1.6581119356993255,10.0,0.0,25.16067432171717,24.37779601760193,324.39434185984646,335.71326936404466,0.0
0.085,10.434648776319035,-1.995668035741616,10.0,0.0,25.285328855880227,24.413431303833242,326.411245907325,335.71326936404466,0.0
0.08600000000000001,10.320922423978566,-2.3451373089177148,10.0,0.0,25.436147524299063,24.469666080163492,337.1028594987459,335.71326936404466,0.0
0.08700000000000001,10.185534601994831,-2.6869446894700073,6.7282807809597625,0.0,25.61161192263803,24.18922552850298,351.86026763567355,335.71326936404466,0.0
0.088,9.889565112599474,-2.9707462814718144,-0.8118932702203594,0.0,25.769285927291726,23.188876284016658,353.8966740141015,335.71326936404466,0.0
0.089,9.230779846956372,-3.0788900542688613,-2.011930505934905,0.0,25.820215406119072,22.317233693354314,353.5251289774357,335.71326936404466,0.0
0.09,8.425686615830042,-3.0799271759588045,-2.004276583735919,0.0,25.777920323655373,21.63266301620745,354.183233534807,335.71326936404466,0.0
0.091,7.617075300327892,-3.0411783404801547,-2.5180285041291928,0.0,25.667124938603813,21.036626960457625,353.4086966055896,335.71326936404466,0.0
0.092,6.856226782393094,-2.97857604053021,-2.307714311935947,0.0,25.501306721842717,20.59299427594061,351.6530457241752,335.71326936404466,0.0
0.093,6.197251122667855,-2.9114649532215107,-1.5892866348300263,0.0,25.300950861701573,20.31894577814935,349.37274670556604,335.71326936404466,0.0
0.094,5.676708152849756,-2.853547004194151,-0.5857318989406757,0.0,25.087525874275492,20.20614325838261,346.9314007597328,335.71326936404466,0.0
0.095,5.311560445662244,-2.8091596131403915,0.522759760019059,0.0,24.879859700089703,20.230137845069045,345.2132861225164,335.71326936404466,0.0
0.096,5.098581514939154,-2.779130895219141,1.2868169110425356,0.0,24.692500316930335,20.32370393099891,343.0877972911343,335.71326936404466,0.0
0.097,5.012101561987437,-2.747495391049443,2.275816047462711,0.0,24.530053862400443,20.49770980903331,339.85448219685253,335.71326936404466,0.0
0.098,5.03742901031106,-2.712317908709702,3.8510614662755067,0.0,24.397699473111302,20.797806639671354,338.8479103340974,335.71326936404466,0.0
0.099,5.186699685529904,-2.673054391121589,4.323000987952556,0.0,24.30462299370359,21.074652741722197,333.96124212413866,335.71326936404466,0.0
0.1,5.401955569665317,-2.6206949281335508,6.7838553653309726,0.0,24.243171866688918,21.558295731419328,329.97323021781983,335.71326936404466,0.0
0.101,5.735506014877036,-2.5880955524146354,8.835261709952636,0.0,24.23316781464624,22.153937473447943,327.9944413254807,335.71326936404466,0.0
0.10200000000000001,6.190425648289218,-2.5625039802261105,9.901844436507846,0.0,24.281239262827132,22.739119017321066,325.51944545734875,335.71326936404466,0.0
0.10300000000000001,6.714767351878862,-2.5290937268691147,10.0,0.0,24.379602508429873,23.21759244528282,319.42040310146797,335.71326936404466,0.0
0.10400000000000001,7.246040039426571,-2.4618543734979514,10.0,0.0,24.508914545931248,23.603876720779382,314.3663117671979,335.71326936404466,0.0
0.105,7.771197931342191,-2.3256307638751865,10.0,0.0,24.649611603707353,23.9120091312412,314.37038756718596,335.71326936404466,0.0
0.106,8.259365457328165,-2.156218207740342,10.0,0.0,24.78977905167342,24.15495115749514,302.73797649348523,335.71326936404466,0.0
0.107,8.714935660077147,-1.9554184106046573,10.0,0.0,24.9198301053447,24.342384678877767,303.7297450037306,335.71326936404466,0.0
0.108,9.162092646808636,-1.7002039466657015,10.0,0.0,25.02955381272519,24.479448386976273,292.84385454210496,335.71326936404466,0.0
0.109,9.57632041743505,-1.4474436038108198,10.0,0.0,25.11676002710283,24.572684610101394,294.23346566536367,335.71326936404466,0.0
0.11,9.975388826740637,-1.1854205710282897,10.0,0.0,25.178274312177688,24.62556258503442,284.6702935302053,335.71326936404466,0.0
0.111,10.371477348061825,-0.9054078611915903,10.0,0.0,25.210743798484156,24.63972513772935,294.8247120063643,335.71326936404466,0.0
0.112,10.557621120938547,-0.955315725589788,10.0,0.0,25.24967258361164,24.639203453982212,297.4377036268275,335.71326936404466,0.0
0.113,10.630000431129508,-1.1604309473398664,10.0,0.0,25.30671991760019,24.636526530730286,316.86687651281994,335.71326936404466,0.0
0.114,10.645861508599944,-1.4183438392921137,10.0,0.0,25.384114091761933,24.638801107782577,314.45529027053806,335.71326936404466,0.0
0.115,10.595294467485548,-1.7421199975459216,10.0,0.0,25.487032554701127,24.6543086298431,325.3929520032027,335.71326936404466,0.0
0.116,10.517313964043447,-2.0644843838866587,10.0,0.0,25.6134322444674,24.68662943095899,341.42116125048847,335.71326936404466,0.0
0.117,10.385211332267264,-2.432031390292872,4.035794416474447,0.0,25.76763057220991,24.086046991213053,342.1353320053254,335.71326936404466,0.0
0.11800000000000001,9.992200650166751,-2.674499152021397,3.6144884126431824,0.0,25.869346806929656,23.616151172343073,348.75404171364266,335.71326936404466,0.0
0.11900000000000001,9.485203251792587,-2.867006257973664,0.17472583498856142,0.0,25.932652940327884,22.88109534232852,351.802369589272,335.71326936404466,0.0
0.12,8.82124545649626,-2.959080991624738,-1.5103291050783891,0.0,25.924326027026932,22.142882674523285,354.4523140648651,335.71326936404466,0.0
0.121,8.070390041805657,-2.9821263046835025,-3.0226917898831385,0.0,25.844624775375493,21.404103753903634,354.5498464474249,335.71326936404466,0.0
0.122,7.283737278350759,-2.94634932377997,-3.2598237519968363,0.0,25.694849835797278,20.799294961029464,353.00167377907303,335.71326936404466,0.0
0.123,6.54325962955494,-2.88202134181343,-2.658621461971186,0.0,25.49285320268217,20.38207913874185,350.67008513128883,335.71326936404466,0.0
0.124,5.916230027632101,-2.8167389032370114,-1.6423952957515269,0.0,25.26279686222608,20.153726570478945,347.7002412426972,335.71326936404466,0.0
0.125,5.440429336142024,-2.7664702446486364,-0.2773430702422317,0.0,25.028034170930347,20.11126488818522,345.8762044754119,335.71326936404466,0.0
0.126,5.134854087322399,-2.7379380853810997,0.5330459622867423,0.0,24.809865729601267,20.15392064676966,343.95627235556844,335.71326936404466,0.0
0.127,4.970842540668861,-2.7169644625121268,1.4105819922932303,0.0,24.615757931340628,20.273904575981852,341.4815654991921,335.71326936404466,0.0
0.128,4.9279444760347975,-2.6934442089151287,2.5902524591299425,0.0,24.45068181416029,20.48654639514195,338.57162323666586,335.71326936404466,0.0
0.129,4.997743505106463,-2.667046944300065,4.016640051666837,0.0,24.32070899404232,20.798415477334473,337.30916185591764,335.71326936404466,0.0
0.13,5.179329127917907,-2.6354617490831314,4.631911817122218,0.0,24.231709965327678,21.100239959352137,331.7766544787063,335.71326936404466,0.0
0.131,5.423155174971649,-2.5939471498354045,7.437531654581274,0.0,24.17754253372118,21.640442545814697,330.37365220623605,335.71326936404466,0.0
0.132,5.801349026371368,-2.566809086940912,8.192428962394484,0.0,24.180242062995678,22.137027572771796,328.591950688418,335.71326936404466,0.0
0.133,6.243866823013791,-2.531711611902671,9.15449290805976,0.0,24.22874080041317,22.63760709178901,320.27745004458257,335.71326936404466,0.0
0.134,6.735358394782947,-2.473813793233065,10.0,0.0,24.316429830687373,23.12672477837484,315.59307784708113,335.71326936404466,0.0
0.135,7.2657460296280725,-2.377800570415836,10.0,0.0,24.434279250269533,23.513816804294837,316.05230843911266,335.71326936404466,0.0
0.136,7.783475342521564,-2.244900334635982,10.0,0.0,24.56539403677786,23.82233822151121,310.9709523409165,335.71326936404466,0.0
0.137,8.266905247362823,-2.0876171394367184,10.0,0.0,24.69827733724287,24.06511897925318,302.47577511029885,335.71326936404466,0.0
0.138,8.74034022977199,-1.868090662068231,10.0,0.0,24.819575302877038,24.24966644225085,299.80955230825674,335.71326936404466,0.0
0.139,9.175648116733784,-1.6432646335258587,10.0,0.0,24.92466261988158,24.38473943777048,293.25617668043463,335.71326936404466,0.0
0.14,9.604061110912825,-1.3787577242826843,10.0,0.0,25.0059010050063,24.474041514948514,283.48535342955273,335.71326936404466,0.0
0.14100000000000001,10.00414929306033,-1.1234198890246887,10.0,0.0,25.062503666550413,24.522811652826775,288.49344912609433,335.71326936404466,0.0
0.14200000000000002,10.373006423226334,-0.8959079556485179,10.0,0.0,25.095850141409144,24.535791640574857,296.17746439618463,335.71326936404466,0.0
0.14300000000000002,10.538355553167769,-0.9810467170265262,10.0,0.0,25.138800350642146,24.536308444042092,296.0337416773734,335.71326936404466,0.0
0.14400000000000002,10.599516307845484,-1.2018967421141227,10.0,0.0,25.20094933444443,24.53599439637077,315.22671621590456,335.71326936404466,0.0
0.145,10.60604821325832,-1.4700474692245846,10.0,0.0,25.284140094830626,24.541819749798176,315.2216534839377,335.71326936404466,0.0
