timestamp,iq,id,iq_ref,id_ref,vq,vd,omega,omega_ref,r
0.0,0.0,0.0,0.0,0.0,0.0,0.0,0.0,225.9831895313318,0.0
0.001,0.0,0.0,10.0,0.0,0.0,1.0999999999999999,11.07412761138277,225.9831895313318,0.0
0.002,0.382161541649775,-0.22731470779709617,10.0,0.0,0.13500461785768053,1.9479622304185245,18.25964278429725,225.9831895313318,0.0
0.003,0.7387608873805076,-0.4247964269612424,10.0,0.0,0.3607548390015306,2.6892243869670813,26.99553835679005,225.9831895313318,0.0
0.004,1.0277956422005887,-0.5936179847785036,10.0,0.0,0.6546518078541089,3.350707520402267,35.8429201437936,225.9831895313318,0.0
0.005,1.2631039824665855,-0.7263918017029439,10.0,0.0,0.9982242974484634,3.9524384674981325,44.80018081411547,225.9831895313318,0.0
0.006,1.4538622035720465,-0.8354074819424647,10.0,0.0,1.3782766194500717,4.509723247924906,53.97552408943678,225.9831895313318,0.0
0.007,1.6115845910802182,-0.9252192466928725,10.0,0.0,1.7848413246143464,5.033842902094318,63.20231181494051,225.9831895313318,0.0
0.008,1.7443235530211292,-1.0007923809084063,10.0,0.0,2.21057645179534,5.533182999424799,72.49507217505895,225.9831895313318,0.0
0.009000000000000001,1.85825923914711,-1.06557569017717,10.0,0.0,2.6500425086686903,6.013957063885884,81.85823989595238,225.9831895313318,0.0
0.01,1.957805693993418,-1.122406880415621,10.0,0.0,3.0992429641343557,6.480789574416358,91.16030207207758,225.9831895313318,0.0
0.011,2.046998142698061,-1.1720538938979388,10.0,0.0,3.5550994846871733,6.937043174631305,100.3988287292204,225.9831895313318,0.0
0.012,2.1279950301152963,-1.216492023158823,10.0,0.0,4.015387437290077,7.38523933375119,109.57970912114129,225.9831895313318,0.0
0.013000000000000001,2.2029439206310144,-1.2562514010467276,10.0,0.0,4.47839536081974,7.827210263136822,118.66579340709337,225.9831895313318,0.0
0.014,2.2732791956269747,-1.2920039752004477,10.0,0.0,4.942834774313031,8.264297500592457,127.63634639069292,225.9831895313318,0.0
0.015,2.3402933312654133,-1.323897678660621,10.0,0.0,5.4076897518416365,8.697451753481584,136.45064860935943,225.9831895313318,0.0
0.016,2.40502560764819,-1.3519644219049716,10.0,0.0,5.872143061628573,9.127325669788945,145.07552072319152,225.9831895313318,0.0
0.017,2.468379428400325,-1.3760915826315334,10.0,0.0,6.335511752315029,9.554335927925354,153.47321675329667,225.9831895313318,0.0
0.018000000000000002,2.5311764127198946,-1.3960560634767676,10.0,0.0,6.797199421032192,9.978707899249136,161.6049255320703,225.9831895313318,0.0
0.019,2.594181509015373,-1.4115761329107168,10.0,0.0,7.256663082839295,10.400508849562948,169.43139955466907,225.9831895313318,0.0
0.02,2.658130877230049,-1.4223340374443287,10.0,0.0,7.713388642301432,10.819671691485434,176.91328887762776,225.9831895313318,0.0
0.021,2.7237413606140453,-1.4280093601832782,10.0,0.0,8.166874636465549,11.236013145671787,184.0124805307485,225.9831895313318,0.0
0.022,2.7917139712818653,-1.4283060338735432,10.0,0.0,8.616622057510428,11.649248171516298,190.69305073624298,225.9831895313318,0.0
0.023,2.8627304349850085,-1.4229769133216195,10.0,0.0,9.06212906903766,12.05900235198018,196.92226196177532,225.9831895313318,0.0
0.024,2.9374445701982985,-1.4118450129794233,10.0,0.0,9.502889579626434,12.464823425313968,202.6713564356934,225.9831895313318,0.0
0.025,3.016470690628336,-1.3948196289546488,10.0,0.0,9.938394673250404,12.866192710478082,207.91597786284868,225.9831895313318,0.0
0.026000000000000002,3.100370610388552,-1.3719066121634875,10.0,0.0,10.368136008021608,13.262536846518852,212.63613591860815,225.9831895313318,0.0
0.027,3.1896409957207768,-1.3432119281769848,10.0,0.0,10.791610337849164,13.653239959243724,216.81568895150022,225.9831895313318,0.0
0.028,3.2847024820200357,-1.3089382803449867,8.454545754923386,0.0,11.208324391544796,13.867656167080847,219.5038280613683,225.9831895313318,0.0
0.029,3.3282383897943997,-1.2356529883333929,7.175269814688982,0.0,11.59709001501163,13.973198013536614,220.82988812356643,225.9831895313318,0.0
0.03,3.333362724939486,-1.1358513143039861,6.563772797667567,0.0,11.947287929554228,14.052462007435258,221.33182837559542,225.9831895313318,0.0
0.031,3.3331014359523654,-1.0305940641065647,6.359316283210437,0.0,12.259812171251014,14.142524132118263,221.30941260987927,225.9831895313318,0.0
0.032,3.3472711039063534,-0.931466306019088,6.417261935283036,0.0,12.540238720358776,14.261689779010391,220.85162631132997,225.9831895313318,0.0
0.033,3.3852297697976694,-0.8439502324287869,6.697470716757707,0.0,12.795903688730913,14.42319126899706,219.9330531395547,225.9831895313318,0.0
0.034,3.4520697266459592,-0.7708292057599699,7.217258666563118,0.0,13.034984157066834,14.641510884891735,218.5941786120908,225.9831895313318,0.0
0.035,3.5530589306060625,-0.7130957852068611,7.960586039487478,0.0,13.266369074164475,14.928034304687028,217.17222486593153,225.9831895313318,0.0
0.036000000000000004,3.6925303281749695,-0.6703538618794764,8.759672559221112,0.0,13.499143564171405,15.275178155961033,225.60939842072705,225.9831895313318,0.0
0.037,3.8088668624602495,-0.7347726739301248,4.544823692929398,0.0,13.75086847886389,15.127858525823216,233.08699777368145,225.9831895313318,0.0
0.038,3.7309421985837306,-0.7424273267901498,0.7349859340287015,0.0,13.962886762767436,14.653244763721542,238.90307876262915,225.9831895313318,0.0
0.039,3.5022563028373193,-0.6794490770405175,-2.3022534527581238,0.0,14.099237688069401,13.975672453156179,240.009916350795,225.9831895313318,0.0
0.04,3.1792507412324538,-0.5753760707767972,-2.995939515035686,0.0,14.14337804159312,13.366803146013957,239.01438629127463,225.9831895313318,0.0
0.041,2.8687333366254824,-0.4972619852618494,-2.628486452874926,0.0,14.11466560970624,12.901518361289513,238.68193066247585,225.9831895313318,0.0
0.042,2.6206810358019235,-0.46409434555782947,-2.589246049786975,0.0,14.03942864302331,12.50471330461141,239.06015698566605,225.9831895313318,0.0
0.043000000000000003,2.4179587432358542,-0.45555724324281077,-2.9091288859254205,0.0,13.931427462483251,12.12430447010075,239.1992024820739,225.9831895313318,0.0
0.044,2.236478696017091,-0.45407777197691446,-3.1108117636367645,0.0,13.796108145730036,11.770085695068689,238.81898830481762,225.9831895313318,0.0
0.045,2.0723009021033674,-0.45917292364848783,-3.049062662743484,0.0,13.639474144545462,11.462810852598208,238.32168027802743,225.9831895313318,0.0
0.046,1.931650828358071,-0.47271960239438227,-2.9237935568153435,0.0,13.469215242377636,11.197591935072328,237.7160637774895,225.9831895313318,0.0
0.047,1.8131453685454502,-0.49274623292122965,-2.738314049007953,0.0,13.291527801244493,10.972648173723718,237.02907146099878,225.9831895313318,0.0
0.048,1.7148867019695098,-0.5177453709730434,-2.505276710059265,0.0,13.11166436697024,10.785832755328162,236.30515095058655,225.9831895313318,0.0
0.049,1.6350251860757297,-0.546210858623849,-2.2465360690456992,0.0,12.933986946544923,10.633645812549295,235.49431973679017,225.9831895313318,0.0
0.05,1.5715737649131534,-0.5762196291035696,-1.9362317642020948,0.0,12.761874883760516,10.516636930297402,234.80915155083633,225.9831895313318,0.0
0.051000000000000004,1.5230285087454591,-0.6086399444950634,-1.6819072914202193,0.0,12.598539286017623,10.423695842916638,234.10679115713052,225.9831895313318,0.0
0.052000000000000005,1.4857716613345409,-0.6394449228562059,-1.4119631108252984,0.0,12.445307483776757,10.354478720290812,233.3475607352165,225.9831895313318,0.0
0.053,1.4583888050597436,-0.6684803083042294,-1.1059916119071325,0.0,12.303362992113065,10.310457098494648,232.6678603859586,225.9831895313318,0.0
0.054,1.4409344189132087,-0.6962503601967245,-0.832988145824451,0.0,12.173975139289821,10.285260009905016,231.81266911218057,225.9831895313318,0.0
0.055,1.4324416615003228,-0.719353835696856,-0.4636873047439294,0.0,12.057270044676027,10.288296562204007,230.90675748738,225.9831895313318,0.0
0.056,1.4345385644290019,-0.7418172840813376,-0.05996717190412104,0.0,11.954779059320806,10.319759569117007,230.0132115346809,225.9831895313318,0.0
0.057,1.4476375845045515,-0.764327150037339,0.3465055844119376,0.0,11.86793492396372,10.377082055490527,229.828203439331,225.9831895313318,0.0
0.058,1.4712245827119053,-0.7857692396480144,0.40055949300689564,0.0,11.797640981977304,10.419405502471221,228.7182073729463,225.9831895313318,0.0
0.059000000000000004,1.4929379574292962,-0.794713552481977,0.9282073477830988,0.0,11.739378232403233,10.5058153342578,228.15696427051705,225.9831895313318,0.0
0.06,1.5246712390733017,-0.8128221995662941,1.1870911516058684,0.0,11.697485249016168,10.597685120547387,228.46154970135592,225.9831895313318,0.0
0.061,1.569431244558987,-0.8123551871193739,1.0100148344861921,0.0,11.668736084756755,10.649505129160932,225.497445102185,225.9831895313318,0.0
0.062,1.5947917889347822,-0.8095964327029337,2.4969245783631218,0.0,11.647745044923298,10.856256995658358,227.74806650422,225.9831895313318,0.0
0.063,1.6699319090856968,-0.8340471858799748,1.3539651076167427,0.0,11.652245466116574,10.891628124528983,225.20166352664907,225.9831895313318,0.0
0.064,1.7089435700368707,-0.8014492680664199,2.63498185644903,0.0,11.656002679586324,11.07271373820777,223.87297027359446,225.9831895313318,0.0
0.065,1.7725378124172597,-0.8171486343477771,3.320430675553708,0.0,11.679545642546055,11.292050464426513,226.3580671971898,225.9831895313318,0.0
0.066,1.8692017628697046,-0.8208210490439054,2.0741334370974602,0.0,11.722914953785455,11.337863537772156,222.5338182194681,225.9831895313318,0.0
0.067,1.917201699522717,-0.7760339112371073,4.020751639076952,0.0,11.76156533192977,11.605709855982177,221.5516499868453,225.9831895313318,0.0
0.068,2.0131805984339692,-0.798829571103552,4.556151150833216,0.0,11.826090698044029,11.879986664945308,224.38920440218635,225.9831895313318,0.0
0.069,2.138208314801863,-0.802910569518441,3.1533137944541396,0.0,11.91181216167015,11.96082896549294,222.23961827853108,225.9831895313318,0.0
0.07,2.2087166804708813,-0.750543396945782,4.265542568809781,0.0,11.991244510021279,12.172027078031412,218.19033235027393,225.9831895313318,0.0
0.07100000000000001,2.299156178790146,-0.7399792144729824,6.368114104748933,0.0,12.083215046444863,12.580965934202478,220.74455985323652,225.9831895313318,0.0
0.07200000000000001,2.4645857006260803,-0.7716250268174836,5.143386650048591,0.0,12.210469096025815,12.785169370603608,221.8026115933002,225.9831895313318,0.0
0.073,2.585062964824206,-0.7467594228455765,4.656166559397063,0.0,12.342366409728433,12.928732729054614,221.13439324252423,225.9831895313318,0.0
0.074,2.6772429222666934,-0.6971345310231178,5.038763697673132,0.0,12.47022024584514,13.109152346470974,217.5236727230779,225.9831895313318,0.0
0.075,2.7786123274607286,-0.6524523487286158,6.92871912547883,0.0,12.59891186895764,13.47815567643632,215.6395248159577,225.9831895313318,0.0
0.076,2.9404037745876637,-0.6617408736338011,7.974229726192668,0.0,12.753103222317938,13.90245108238482,216.25736949677386,225.9831895313318,0.0
0.077,3.1396231291999896,-0.679524386886682,7.762565586130172,0.0,12.93616828214582,14.245701707124404,216.71754074961152,225.9831895313318,0.0
0.078,3.3209608540737587,-0.6732337601347099,7.625136447528549,0.0,13.13438209438963,14.541978255337266,216.37697512901497,225.9831895313318,0.0
0.079,3.484114686764489,-0.6490762759589617,7.891481401849992,0.0,13.339807763238532,14.84298722196736,219.55056395985366,225.9831895313318,0.0
0.08,3.640959049791828,-0.6325892834121802,6.369013242145424,0.0,13.553219767527162,14.948681570102519,226.26892725974326,225.9831895313318,0.0
0.081,3.6708754488949005,-0.673970185380016,3.006974214916509,0.0,13.760576775342379,14.708825712183826,232.95621092877923,225.9831895313318,0.0
0.082,3.5499501185479447,-0.6647492649416803,-0.40639783357594705,0.0,13.921784386316311,14.185441556105836,236.6523989646003,225.9831895313318,0.0
0.083,3.304420625369325,-0.594272011003593,-2.361183945819173,0.0,14.00687253185624,13.575422815817388,236.60655137221647,225.9831895313318,0.0
0.084,3.0083681724697944,-0.5117004459765329,-2.4444937680361014,0.0,14.014071889199736,13.075409019677512,236.04118219330743,225.9831895313318,0.0
0.085,2.747990344431608,-0.4642206438332014,-2.2623891052013394,0.0,13.966152868609402,12.672662186575169,236.2448109867728,225.9831895313318,0.0
0.08600000000000001,2.537240072570536,-0.44921973649435454,-2.4668197164884273,0.0,13.881575764982026,12.301668472478436,236.6945483446741,225.9831895313318,0.0
0.08700000000000001,2.3542422446293245,-0.4477465914036262,-2.798801983572507,0.0,13.768344963421114,11.942864934517178,236.72952222336235,225.9831895313318,0.0
0.088,2.186002536777839,-0.4504643399642943,-2.9237522498369373,0.0,13.630870572012762,11.614870353161969,236.38528352426755,225.9831895313318,0.0
0.089,2.034570586229678,-0.460105504907344,-2.855653840218894,0.0,13.475377512267848,11.32964323600385,235.97878866142068,225.9831895313318,0.0
0.09,1.9047135566616726,-0.47681668751736267,-2.7523624000963474,0.0,13.308652865219283,11.080840552651356,235.42842131412667,225.9831895313318,0.0
0.091,1.794140395467351,-0.4985102222571707,-2.5716310442772894,0.0,13.135939591535607,10.86995768510382,234.80712983790482,225.9831895313318,0.0
0.092,1.702054498228864,-0.5244770995771351,-2.3492247092320993,0.0,12.962048779623345,10.694572877323736,234.15059825250074,225.9831895313318,0.0
0.093,1.6268962445921937,-0.5532576819881674,-2.1026330037417473,0.0,12.790914763416309,10.551585042311578,233.42548150938293,225.9831895313318,0.0
0.094,1.5668148049311554,-0.583317085600752,-1.8144975519633548,0.0,12.62561409390204,10.440868947646988,232.80832277356535,225.9831895313318,0.0
0.095,1.5203875602822716,-0.6150875165865767,-1.574169516476899,0.0,12.46896603524505,10.352755307397931,232.14725406426894,225.9831895313318,0.0
0.096,1.4844809704741477,-0.6449588839728864,-1.3052758071580624,0.0,12.322139564531486,10.288448705410696,231.45799312851545,225.9831895313318,0.0
0.097,1.458256289841424,-0.6733538913399888,-1.0153933752531585,0.0,12.186389817827079,10.24761389593869,230.81715863359204,225.9831895313318,0.0
0.098,1.4415003888985725,-0.7000749357190585,-0.7433158188140558,0.0,12.062786929653935,10.225898201930084,230.06049681651893,225.9831895313318,0.0
0.099,1.4334707667442044,-0.722774672861551,-0.40575798312937295,0.0,11.95160252153913,10.229120074293505,229.1840620281757,225.9831895313318,0.0
0.1,1.4351687115188598,-0.7439289172101136,0.0004506860738040519,0.0,11.853958710979065,10.26194162371785,228.3006003264001,225.9831895313318,0.0
0.101,1.44798295045087,-0.765697904088297,0.4190074290109289,0.0,11.771544482530555,10.322303205340026,228.21570431472642,225.9831895313318,0.0
0.10200000000000001,1.4719173221113062,-0.7870283984480206,0.43913028701381407,0.0,11.705536499599901,10.363910514412751,227.09609538752298,225.9831895313318,0.0
0.10300000000000001,1.4931607611791766,-0.7947424396314646,0.9878056920536242,0.0,11.650925285456168,10.452811925678635,226.66110276549108,225.9831895313318,0.0
0.10400000000000001,1.5245305755181013,-0.8136930126619116,1.1985228707279811,0.0,11.61267275647491,10.541815964820728,226.99420185816635,225.9831895313318,0.0
0.105,1.568147554155293,-0.8117086414733465,1.021863201122001,0.0,11.586738097744943,10.592070442200386,224.00007175265083,225.9831895313318,0.0
0.106,1.592298707176628,-0.8080944214154528,2.5387594316665725,0.0,11.568044632131455,10.80111073097907,226.29209782180786,225.9831895313318,0.0
0.107,1.667359246826078,-0.8331122774535329,1.3896573141832957,0.0,11.574912648321948,10.8377923012587,223.86767576067456,225.9831895313318,0.0
0.108,1.7064062119069425,-0.8007626551924315,2.6230234824565173,0.0,11.580953382912256,11.01510925505191,222.50024240161582,225.9831895313318,0.0
0.109,1.7684124337193299,-0.8154812852754832,3.3415696332830453,0.0,11.606064284954597,11.235574787084452,225.01825141435845,225.9831895313318,0.0
0.11,1.8642776147064986,-0.820026871092362,2.092214508081467,0.0,11.651063478134992,11.281965223147077,221.35217255919213,225.9831895313318,0.0
0.111,1.9120024112621141,-0.775417014325214,3.9715641053860233,0.0,11.691249255501047,11.54314746606575,220.28921842928884,225.9831895313318,0.0
0.112,2.0054220177688618,-0.7966722777741434,4.559980881358097,0.0,11.756318856969422,11.818363503062859,223.1395474638607,225.9831895313318,0.0
0.113,2.129413350201372,-0.8016708623012764,3.1632527847468728,0.0,11.842740393654166,11.900335787617626,221.13187851311952,225.9831895313318,0.0
0.114,2.1996018703516924,-0.7501176895269501,4.215600370299591,0.0,11.922996170275463,12.10599768887009,217.02235413907337,225.9831895313318,0.0
0.115,2.287737607079955,-0.7386800069422778,6.359970911245248,0.0,12.015049946003305,12.515483215469331,219.660340476295,225.9831895313318,0.0
0.116,2.4523638172539224,-0.7707788254916074,5.104206233184799,0.0,12.14249214368456,12.71642022123347,220.7359221227635,225.9831895313318,0.0
0.117,2.5711220189900295,-0.7456683853216642,4.618888084036236,0.0,12.274200685569923,12.857763256474357,220.07155341332034,225.9831895313318,0.0
0.11800000000000001,2.6617548945133196,-0.6959164200276869,5.010188799937926,0.0,12.401651065010187,13.037257068330154,216.4381549218116,225.9831895313318,0.0
0.11900000000000001,2.7617859750640594,-0.6518550713732685,6.922338391787507,0.0,12.529956558992971,13.407872894783491,214.67872427045148,225.9831895313318,0.0
0.12,2.9232036669337513,-0.6622583289961643,7.915098370076363,0.0,12.684078058047868,13.827584154382892,215.35542115600487,225.9831895313318,0.0
0.121,3.120185530331051,-0.6797222016409366,7.68302761105294,0.0,12.866575526571909,14.16522722659737,215.82868128528398,225.9831895313318,0.0
0.122,3.2984660177642646,-0.6728374355095226,7.547942628873862,0.0,13.063655592464096,14.457176063009666,215.50029713929786,225.9831895313318,0.0
0.123,3.458845280114147,-0.6484148251621882,7.8169636257872614,0.0,13.267604895931397,14.75472226786805,217.13814131142075,225.9831895313318,0.0
0.124,3.618106381105856,-0.6237012653097165,7.086492021924924,0.0,13.478439624057511,14.943951767707754,224.20436915237156,225.9831895313318,0.0
0.125,3.6790831873233034,-0.678075211331495,3.5711663052391254,0.0,13.6933420990159,14.750845839905278,231.057808152481,225.9831895313318,0.0
0.126,3.577975925961046,-0.6827133727037965,0.09370061897291704,0.0,13.867410191988945,14.262904350868489,236.0017830186438,225.9831895313318,0.0
0.127,3.3473206555653836,-0.6194655512758402,-2.4784727489816127,0.0,13.968273684790205,13.617360413550244,236.53954073851054,225.9831895313318,0.0
0.128,3.040923390167959,-0.5263552376772311,-2.8529151209867663,0.0,13.984886778297945,13.062387438492692,235.56327887047155,225.9831895313318,0.0
0.129,2.7579612965762417,-0.46358604529220304,-2.4605850803586695,0.0,13.938367756922787,12.639535656121925,235.38054741758023,225.9831895313318,0.0
0.13,2.534787029030557,-0.44188345046565053,-2.463192932775495,0.0,13.852455865941,12.271826534172693,235.78274443592116,225.9831895313318,0.0
0.131,2.350523135036875,-0.44022492870701163,-2.7622869909918526,0.0,13.73839884041728,11.917460153104424,235.88591232695327,225.9831895313318,0.0
0.132,2.1840694793186843,-0.4437970583588291,-2.9128981644641248,0.0,13.6007203988184,11.590015682279885,235.5458800536414,225.9831895313318,0.0
0.133,2.0336599761812773,-0.4535831164927472,-2.8385089330312896,0.0,13.44510609939516,11.306117250358184,235.1335531959149,225.9831895313318,0.0
0.134,1.9047831745832458,-0.4706827730810971,-2.723849140813872,0.0,13.278446488365459,11.059588269660324,234.60624498476827,225.9831895313318,0.0
0.135,1.795453798793559,-0.4930364725325149,-2.5464255897749135,0.0,13.10608785074271,10.850153681942277,234.00818620817864,225.9831895313318,0.0
0.136,1.7043095419708514,-0.5195495070970757,-2.3276461682485694,0.0,12.932714514918022,10.67565076458387,233.3752876041041,225.9831895313318,0.0
0.137,1.629739085463225,-0.5488148660846398,-2.0851178469390224,0.0,12.762182280082946,10.533042434155231,232.67564189960268,225.9831895313318,0.0
