timestamp,iq,id,iq_ref,id_ref,vq,vd,omega,omega_ref,r
0.0,0.0,0.0,0.0,0.0,0.0,0.0,0.0,57.71017937287315,0.0
0.001,0.0,0.0,10.0,0.0,0.0,1.0999999999999999,6.710765666717802,57.71017937287315,0.0
0.002,0.36233249772877,-0.2146223563254844,10.0,0.0,0.1336084591958033,1.9501434252498355,11.667183850707229,57.71017937287315,0.0
0.003,0.7629173551548585,-0.4360802698357426,10.0,0.0,0.3610845619198833,2.6881923445546847,16.9488544090666,57.71017937287315,0.0
0.004,1.1167041509214108,-0.6388309956801963,10.0,0.0,0.6597059470098278,3.340273283241399,22.642592244753878,57.71017937287315,0.0
0.005,1.412638951249154,-0.8055088638378728,10.0,0.0,1.009980345698349,3.9279933064900474,28.298708031696865,57.71017937287315,0.0
0.006,1.6541177369583722,-0.9412170274789983,10.0,0.0,1.3972604261618298,4.4683654488579485,34.078152267673744,57.71017937287315,0.0
0.007,1.8515714691476362,-1.0515134503975445,10.0,0.0,1.8106252377003815,4.9741232623516805,39.89247350952879,57.71017937287315,0.0
0.008,2.01512436222664,-1.142418619306305,10.0,0.0,2.2421259537852296,5.454625494733097,45.737341596506944,57.71017937287315,0.0
0.009000000000000001,2.153286275533944,-1.2188323923372573,7.54317254137406,0.0,2.686023284844051,5.646414273502988,49.942760767698076,57.71017937287315,0.0
0.01,2.1841557889678405,-1.2318996837359755,5.518137141830245,0.0,3.1053830249975305,5.663214260793558,53.17621683302272,57.71017937287315,0.0
0.011,2.1193593370948904,-1.1917149467913162,3.946748734566426,0.0,3.4799357958868176,5.575104157407201,55.67862435810105,57.71017937287315,0.0
0.012,1.9920295416081393,-1.1153161212834104,2.715860522174984,0.0,3.800220255912118,5.4269348351427995,57.38726208451534,57.71017937287315,0.0
0.013000000000000001,1.8314410678695003,-1.0192414448844178,1.8647708318514145,0.0,4.063855111559638,5.260691341452073,58.58449842527356,57.71017937287315,0.0
0.014,1.6628072694783516,-0.9188781643238682,1.2574094709483021,0.0,4.274422918175665,5.096080662984704,59.3363081645509,57.71017937287315,0.0
0.015,1.5024370600289745,-0.822216335089981,0.8652433133928539,0.0,4.437843707873228,4.94787755435913,59.84467613954835,57.71017937287315,0.0
0.016,1.3598625542418397,-0.73532544031936,0.5897143582273778,0.0,4.561510727606047,4.818529805615309,59.488788993642125,57.71017937287315,0.0
0.017,1.236135110468889,-0.6636047710152827,0.7498718349727997,0.0,4.65285590581546,4.747040419469958,60.443938283114036,57.71017937287315,0.0
0.018000000000000002,1.1457878565770443,-0.6110653259469346,0.24495960113443482,0.0,4.72285549532492,4.643393492760783,60.21937805835427,57.71017937287315,0.0
0.019,1.0667562472266738,-0.5539391902381668,0.3321477266595052,0.0,4.769731952735236,4.579541038309231,59.57399505523412,57.71017937287315,0.0
0.02,1.001170681320934,-0.5197016566617891,0.6362010713959716,0.0,4.802340651623051,4.565759557865759,60.58965382867523,57.71017937287315,0.0
0.021,0.9647133940016903,-0.49752861821519195,0.09957694011739537,0.0,4.828213673684374,4.497902353413466,60.09905437193507,57.71017937287315,0.0
0.022,0.926889759265262,-0.4639681530208817,0.3209879184968578,0.0,4.841243752307428,4.472935647494876,59.36001341751519,57.71017937287315,0.0
0.023,0.8970565181880429,-0.44934793344998325,0.6740100552603763,0.0,4.849201532975464,4.491290365461771,60.30173447506516,57.71017937287315,0.0
0.024,0.8896006192875067,-0.4440338376425516,0.17723397546347153,0.0,4.857760659030275,4.45095161602177,59.89419457717953,57.71017937287315,0.0
0.025,0.8757807002965561,-0.42370600142066717,0.3591637723632213,0.0,4.859247076509272,4.441928324688196,59.04120886873346,57.71017937287315,0.0
0.026000000000000002,0.8632263278743726,-0.4177884859858503,0.7723463316276531,0.0,4.859234874771403,4.4788295695625,59.96989323556108,57.71017937287315,0.0
0.027,0.8694867066277788,-0.42142157510557926,0.2854070095869652,0.0,4.863372832652266,4.453530133371366,59.77755953557897,57.71017937287315,0.0
0.028,0.8678143348768892,-0.40636575759452054,0.3609000579509607,0.0,4.862874580308517,4.444594629808012,58.69590518096933,57.71017937287315,0.0
0.029,0.860728557989937,-0.40229767354820545,0.8918699771748186,0.0,4.861235671772824,4.494917323737659,59.58928027032423,57.71017937287315,0.0
0.03,0.8732246867921517,-0.41056077098350013,0.42639142352285897,0.0,4.865742545042012,4.482086085389703,59.75076738319096,57.71017937287315,0.0
0.031,0.8779852905111307,-0.39985497190666996,0.3252419869863157,0.0,4.8672553382766806,4.464118300599899,58.5989216542833,57.71017937287315,0.0
0.032,0.872205263259567,-0.3921009461539148,0.892277428626044,0.0,4.866074188866866,4.512167375593137,59.06940822193504,57.71017937287315,0.0
0.033,0.8828363504136589,-0.40123114173697977,0.643441856309555,0.0,4.87089792366902,4.521023940915394,59.76481980327899,57.71017937287315,0.0
0.034,0.8936391167531639,-0.3956932146587787,0.27518966133352296,0.0,4.875424467588753,4.490375844035638,58.6515789702714,57.71017937287315,0.0
0.035,0.8881399272360935,-0.3829503563910478,0.8223960818633342,0.0,4.875087212289869,4.52783337795414,58.4483756524146,57.71017937287315,0.0
0.036000000000000004,0.8944566067535087,-0.3895962832070987,0.916615777996322,0.0,4.879387916445166,4.565653708678151,59.490766444500856,57.71017937287315,0.0
0.037,0.9115914767765674,-0.3915843838412482,0.37761451123691536,0.0,4.887192815058932,4.538068071533063,58.90968837657077,57.71017937287315,0.0
0.038,0.9120902555916723,-0.37691120389565824,0.6561584551649824,0.0,4.889824729296455,4.550167817494111,57.926578872957336,57.71017937287315,0.0
0.039,0.9126851827582082,-0.37649887138354743,1.1455492119708577,0.0,4.893504801929453,4.612307869892004,58.93597361109601,57.71017937287315,0.0
0.04,0.932225734812617,-0.38648250124886874,0.6285939005192922,0.0,4.904133195149248,4.604699421031354,59.28650719761858,57.71017937287315,0.0
0.041,0.9408929084901811,-0.3765732219141026,0.43756382901055124,0.0,4.911748047135521,4.5823129180433195,58.19376348664851,57.71017937287315,0.0
0.042,0.9361067992470888,-0.3649928106047432,0.9790998433578357,0.0,4.915188011173681,4.625018956599519,58.07223543851645,57.71017937287315,0.0
0.043000000000000003,0.9444099322746538,-0.37205722872611424,1.0362433067674308,0.0,4.923447472770091,4.663707602810032,59.15429392932274,57.71017937287315,0.0
0.044,0.9629828454935736,-0.37267862746736247,0.4807729157997902,0.0,4.9347475625082335,4.635720163794793,58.709115250699725,57.71017937287315,0.0
0.045,0.9639060112555061,-0.35662571599042253,0.6933728963330323,0.0,4.940346865121162,4.640686360321603,57.61437878046204,57.71017937287315,0.0
0.046,0.9634423974836401,-0.35190132375278177,1.2416991373759856,0.0,4.945523703094108,4.703965983338942,58.195623680269165,57.71017937287315,0.0
0.047,0.982168103821012,-0.36178155857547045,0.9462222443984631,0.0,4.957644889324365,4.721385143379056,58.99162274153762,57.71017937287315,0.0
0.048,0.9972311611170142,-0.3591380137193956,0.5354082800775917,0.0,4.969906280653213,4.694570059653474,58.39910603864466,57.71017937287315,0.0
0.049,0.9965390512114847,-0.3431810429863953,0.8247773648663554,0.0,4.976531193144548,4.707828125065877,57.42640001898604,57.71017937287315,0.0
0.05,0.9988789961858953,-0.33889179030413774,1.3139681682345385,0.0,4.983507172840274,4.771075857662549,57.949984937376556,57.71017937287315,0.0
0.051000000000000004,1.0188703327592747,-0.34826760260579037,1.049777653394245,0.0,4.9971845597060955,4.7925679027296795,58.69939131552442,57.71017937287315,0.0
0.052000000000000005,1.035238192267403,-0.3468414938448483,0.6651823448937986,0.0,5.0113927823053315,4.772014352009878,58.4835329450149,57.71017937287315,0.0
0.053,1.0376173403820526,-0.33130631800243815,0.7653779944271422,0.0,5.020430219317604,4.769706425458117,57.449786240103165,57.71017937287315,0.0
0.054,1.0368147758636779,-0.32241049740539995,1.2848552782107097,0.0,5.027509931466224,4.824785653561788,57.338797906715946,57.71017937287315,0.0
0.055,1.052519560450154,-0.32960860553822463,1.3440632595658912,0.0,5.040270345310932,4.874647483231493,58.19401698518071,57.71017937287315,0.0
0.056,1.076128467829026,-0.334248874368917,0.9116153442104338,0.0,5.057179349228186,4.8701978888502335,58.63463403552978,57.71017937287315,0.0
0.057,1.085718988391343,-0.32479087010365215,0.682062272409333,0.0,5.070865710158104,4.846138927366195,57.84699719664112,57.71017937287315,0.0
0.058,1.083065582849414,-0.3085033048591176,1.074512513615983,0.0,5.079080486712379,4.871707335189527,57.01004522055336,57.71017937287315,0.0
0.059000000000000004,1.0896948405160745,-0.30519085479565755,1.4999898431830612,0.0,5.088829132539026,4.937662631327514,57.354691730071316,57.71017937287315,0.0
0.06,1.1130026945526468,-0.3141187893171828,1.3312214648521008,0.0,5.1052136406948065,4.972680396154937,57.955135910636294,57.71017937287315,0.0
0.061,1.1343590187599661,-0.3162389072716264,1.0285498091919805,0.0,5.123605408147528,4.97211251985345,58.29788499907274,57.71017937287315,0.0
0.062,1.143956817323293,-0.3072280494010211,0.85129820871176,0.0,5.139088815679516,4.95612745383127,57.8226658382369,57.71017937287315,0.0
0.063,1.1441132386963655,-0.2922499042708934,1.0877829244760433,0.0,5.149867888470481,4.971153841537975,57.087978872287394,57.71017937287315,0.0
0.064,1.149763908964986,-0.2847327652086829,1.4613484124566543,0.0,5.160394588907474,5.0238628447575095,56.8221758092093,57.71017937287315,0.0
0.065,1.1685104686163692,-0.2896915602174061,1.6031299796323406,0.0,5.175760158464307,5.082208320349347,57.345413105618235,57.71017937287315,0.0
0.066,1.1953960484333246,-0.29644662348218254,1.3451589941004216,0.0,5.1961171876336785,5.1036912330740645,57.797238815045006,57.71017937287315,0.0
0.067,1.2134740312499706,-0.29466629813845313,1.1183755449653177,0.0,5.216323418738122,5.100975365582041,58.15305880780864,57.71017937287315,0.0
0.068,1.220853560540188,-0.28424096361366624,0.936036754234145,0.0,5.233108456438634,5.082131307066831,57.681723377532144,57.71017937287315,0.0
0.069,1.2194420017134342,-0.2681123866480088,1.1719890293258035,0.0,5.244660694396597,5.094857363104433,57.11590795785657,57.71017937287315,0.0
0.07,1.2248811509079438,-0.2583801166151241,1.4608394533137559,0.0,5.2554210502285645,5.136267639222165,56.458901424560786,57.71017937287315,0.0
0.07100000000000001,1.2415398223391065,-0.25837894932650607,1.8018554994447722,0.0,5.269343592387688,5.20745812178037,56.71247879962018,57.71017937287315,0.0
0.07200000000000001,1.2718151585911859,-0.26726681313766043,1.6850438176476052,0.0,5.289970605278834,5.2534986645662505,57.05252649416037,57.71017937287315,0.0
0.073,1.2992866718098164,-0.27169704459027527,1.5215964991646385,0.0,5.313537417981129,5.277467653055975,57.32417913481738,57.71017937287315,0.0
0.074,1.3180525548278954,-0.26976043390332477,1.3896301812166914,0.0,5.336887118772077,5.28672507017771,57.54881145457217,57.71017937287315,0.0
0.075,1.3287826220284118,-0.26263723875141215,1.2789277005223065,0.0,5.358063405836262,5.285541457407587,57.7082261188061,57.71017937287315,0.0
0.076,1.3338903190420015,-0.2511850949679116,1.1992399009460093,0.0,5.375815199052351,5.278480655474956,57.52589588610578,57.71017937287315,0.0
0.077,1.3357509346920164,-0.2372169983376191,1.2922478521638445,0.0,5.389663763562071,5.284775274935557,57.230311236552225,57.71017937287315,0.0
0.078,1.3411239705264757,-0.22604831500515454,1.4448388583038307,0.0,5.401668059366609,5.307107792278999,56.8691799839529,57.71017937287315,0.0
0.079,1.3535690715619195,-0.21919455486377537,1.6338144784926976,0.0,5.414062950542812,5.346353664872371,56.41403122073135,57.71017937287315,0.0
0.08,1.3738477718867759,-0.2179266669414699,1.8743503416248875,0.0,5.429072009790692,5.405377422041302,56.21903026707116,57.71017937287315,0.0
0.081,1.4027798809438023,-0.22301395123100343,1.986762309513003,0.0,5.4490548189817485,5.466979922261469,56.27744442701204,57.71017937287315,0.0
0.082,1.4357177506972008,-0.22930936318327966,1.9718825790011736,0.0,5.473841219747571,5.518325718761242,56.38546311333721,57.71017937287315,0.0
0.083,1.4663148708314602,-0.23304945646007946,1.9311203984339496,0.0,5.501632016227715,5.55964422861311,56.47186829963182,57.71017937287315,0.0
0.084,1.4922890669533644,-0.23349106368963823,1.9003009160190565,0.0,5.530786759907512,5.5940762554957715,56.54956618110899,57.71017937287315,0.0
0.085,1.5142090407671285,-0.23097295604328882,1.8730581071981127,0.0,5.560187823994204,5.623140584753695,56.58779552920578,57.71017937287315,0.0
0.08600000000000001,1.5328331169887686,-0.22634022567012346,1.865167271586394,0.0,5.589070795333434,5.649813575019175,56.59217110609302,57.71017937287315,0.0
0.08700000000000001,1.5496181689090287,-0.2205057456415782,1.8741595658105745,0.0,5.617137303065881,5.676115509163796,56.57059434677648,57.71017937287315,0.0
0.088,1.5658632279211435,-0.2142091620627653,1.8963437957298104,0.0,5.64439307404616,5.703325137043942,56.53109332850233,57.71017937287315,0.0
0.089,1.582505530691558,-0.2079456634471385,1.9278851653105942,0.0,5.671018211704496,5.732118884874169,56.480816752076585,57.71017937287315,0.0
0.09,1.6001082458678864,-0.20198823504568109,1.9653170797314323,0.0,5.6972675282420155,5.762727992936003,56.41532686306816,57.71017937287315,0.0
0.091,1.6188961947865301,-0.1964902385811742,2.0110105493336947,0.0,5.723407618604887,5.795662437128156,56.45511971241245,57.71017937287315,0.0
0.092,1.639086505000125,-0.19155556462340817,2.003664721266158,0.0,5.749739310179978,5.824619415519622,57.05391379743707,57.71017937287315,0.0
0.093,1.6518509269718442,-0.19753438201546913,1.7108303345082079,0.0,5.77704054708941,5.819973357651998,57.57580275525233,57.71017937287315,0.0
0.094,1.6505911929225026,-0.20094324351823445,1.4512296217767837,0.0,5.80146224111252,5.793160509694346,57.991334586650815,57.71017937287315,0.0
0.095,1.6366507088545257,-0.20028846993415972,1.2406521539397661,0.0,5.8206543672282764,5.752424457506996,58.22555903509694,57.71017937287315,0.0
0.096,1.6138318780397265,-0.19659460944628782,1.1183861330944644,0.0,5.833453898595899,5.708708402084293,58.40243925654981,57.71017937287315,0.0
0.097,1.5874622636336713,-0.19240155348801202,1.0230234235312632,0.0,5.840177573733956,5.664049136773642,58.6747763844747,57.71017937287315,0.0
0.098,1.5602643755753833,-0.18891179701633298,0.8772088894528052,0.0,5.841421012174842,5.6121702653972125,59.166277053740956,57.71017937287315,0.0
0.099,1.5301405977046194,-0.1869737354454698,0.616897578010998,0.0,5.837173930425917,5.541469162769905,59.53735423875115,57.71017937287315,0.0
0.1,1.4959474478594936,-0.1785217010021929,0.41308723684712123,0.0,5.825371103416101,5.461057446521078,59.671038329652944,57.71017937287315,0.0
0.101,1.4573721845606395,-0.16810348062851677,0.3266366018284257,0.0,5.805645903585714,5.3839365002201625,59.53019849629676,57.71017937287315,0.0
0.10200000000000001,1.4193384029882048,-0.1588564863776073,0.3788563272722807,0.0,5.779268141944411,5.322961768055288,59.329023362772936,57.71017937287315,0.0
0.10300000000000001,1.3879058020909911,-0.15405932855145932,0.46325545413519564,0.0,5.748995465832381,5.277285687926222,59.083428765478295,57.71017937287315,0.0
0.10400000000000001,1.3646945162245716,-0.15434728745743276,0.5723202588564649,0.0,5.717262096376569,5.2465420008859045,58.91006271379975,57.71017937287315,0.0
0.105,1.3499614957102803,-0.15925318704395086,0.6470044512864699,0.0,5.686164464527762,5.224212478122032,58.77921674464296,57.71017937287315,0.0
0.106,1.3411752527032057,-0.16724464122637883,0.701737062147169,0.0,5.6567736445516505,5.207099046245678,58.67017805793913,57.71017937287315,0.0
0.107,1.336032706189759,-0.1771252753241579,0.7466564186484224,0.0,5.629617518594445,5.193629496352289,58.59801662332403,57.71017937287315,0.0
0.108,1.3331186429212245,-0.18792041132626658,0.7738587634514658,0.0,5.604918708862878,5.181603474710245,58.55324978390378,57.71017937287315,0.0
0.109,1.331072753807791,-0.19888981181369636,0.7878114790512833,0.0,5.58258586063386,5.169768856696988,58.52360143793209,57.71017937287315,0.0
0.11,1.3289194555874664,-0.2096194837487234,0.7945014313865375,0.0,5.5623734053343945,5.157697187176141,58.50329147461562,57.71017937287315,0.0
0.111,1.3261653127598056,-0.2199401446575422,0.7967252920273482,0.0,5.544003004593412,5.145270586953405,58.4886072800904,57.71017937287315,0.0
0.112,1.3226178385357292,-0.22982796645569037,0.7962831102177876,0.0,5.527211437692961,5.132541408809755,58.4941020342695,57.71017937287315,0.0
0.113,1.318188441301876,-0.23946325001483415,0.7856965065142723,0.0,5.5117871126417155,5.11869764615462,58.427081414676785,57.71017937287315,0.0
0.114,1.3126350856398155,-0.2487454742035461,0.8120377958925948,0.0,5.497445535655247,5.10826581027901,58.59059906392968,57.71017937287315,0.0
0.115,1.3069268470000743,-0.25944257947544724,0.7214747743555818,0.0,5.484578792117888,5.087790027723213,59.3393697570821,57.71017937287315,0.0
0.116,1.297994382911841,-0.2676021405728445,0.3307975239372807,0.0,5.4717417253466785,5.026931770401924,59.497350785800954,57.71017937287315,0.0
0.117,1.276687245540562,-0.2626141154176399,0.23393529544857716,0.0,5.453472261142416,4.966382019976027,59.09005719218956,57.71017937287315,0.0
0.11800000000000001,1.249523205131271,-0.2569837467126418,0.42378331406110914,0.0,5.4304053080099886,4.934687175575867,58.710947802476646,57.71017937287315,0.0
0.11900000000000001,1.2299239467672018,-0.2583016306844135,0.6033303246215322,0.0,5.406676836674737,4.923591089293957,58.53770277454174,57.71017937287315,0.0
0.12,1.2204453022052284,-0.2657911324996608,0.6816776045722981,0.0,5.385022270204777,4.918901153513869,58.51339577592284,57.71017937287315,0.0
0.121,1.2166186417268243,-0.276479785966648,0.6857989398512534,0.0,5.366165023667022,4.912510774952975,58.689809833075266,57.71017937287315,0.0
0.122,1.2132496410180915,-0.2887320868620205,0.5877956066730181,0.0,5.349795330490771,4.894384453065177,59.4936948350527,57.71017937287315,0.0
0.123,1.207871554480933,-0.29492767429339395,0.1680179510625055,0.0,5.3338089660518655,4.831796184775161,59.12744143838306,57.71017937287315,0.0
0.124,1.186858686438005,-0.28988395259898614,0.3369720287422273,0.0,5.31254564596715,4.79890846659048,58.63327466681004,57.71017937287315,0.0
0.125,1.168417208550128,-0.29083188930251264,0.5748244615893685,0.0,5.29027459632677,4.793475848939422,58.45152682277416,57.71017937287315,0.0
0.126,1.1603565737162953,-0.29929731039298074,0.6582849091082963,0.0,5.270609106838236,4.793863768040883,58.58592049765702,57.71017937287315,0.0
0.127,1.1578138518708092,-0.3112258602619737,0.5823306604190284,0.0,5.254176444483388,4.783255867507002,59.44544782641648,57.71017937287315,0.0
0.128,1.1546464196142718,-0.3190961779548173,0.13521431150386398,0.0,5.23907270775816,4.723965225227015,59.015553904450236,57.71017937287315,0.0
0.129,1.1355999007055895,-0.3141245406287873,0.3371075271712166,0.0,5.218924697194663,4.697836133472451,58.50039291683602,57.71017937287315,0.0
0.13,1.1194988547570892,-0.31635626786035365,0.5867858855386959,0.0,5.198473784880795,4.699331486965995,58.42978735586533,57.71017937287315,0.0
0.131,1.1138877917429766,-0.3264786944334578,0.6148925861941195,0.0,5.181308648798391,4.699683373839284,58.970280663428476,57.71017937287315,0.0
0.132,1.1119937623194658,-0.33769962311529433,0.3320449195069931,0.0,5.167028292900829,4.667041480681311,59.24072773574167,57.71017937287315,0.0
0.133,1.1029017867258606,-0.33721199606788677,0.18151589972170978,0.0,5.150745935015189,4.623487202760931,58.618253590634936,57.71017937287315,0.0
0.134,1.084844226470149,-0.33544930172563164,0.48367223009745985,0.0,5.131547365018905,4.619298015255403,58.39577474468607,57.71017937287315,0.0
0.135,1.0758088908154717,-0.34321205562084234,0.5880556993537625,0.0,5.1147212631435925,4.622881819134691,58.839529729725186,57.71017937287315,0.0
0.136,1.0733546427644411,-0.3540394128075085,0.3548847032656852,0.0,5.10104953359532,4.597911602105335,59.23199314459695,57.71017937287315,0.0
0.137,1.066428728145425,-0.3544129252485778,0.14343485811256584,0.0,5.0861807680955895,4.553880768945707,58.56217638685407,57.71017937287315,0.0
