timestamp,iq,id,iq_ref,id_ref,vq,vd,omega,omega_ref,r
0.0,0.0,0.0,0.0,0.0,0.0,0.0,0.0,483.5459300577846,0.0
0.001,0.0,0.0,10.0,0.0,0.0,1.0999999999999999,5.383594605668476,483.5459300577846,0.0
0.002,0.4564591291574647,-0.23986186355677033,10.0,0.0,0.1363848049912447,1.9397894957926791,9.821524790018096,483.5459300577846,0.0
0.003,0.8913768559173417,-0.4842615733877907,10.0,0.0,0.36759542850847726,2.665962163853202,14.538880311625972,483.5459300577846,0.0
0.004,1.2566509305129059,-0.6819126839233052,10.0,0.0,0.6675998815406353,3.306807656521484,19.445877807459393,483.5459300577846,0.0
0.005,1.5501652871163045,-0.8396551531603358,10.0,0.0,1.0170635990471242,3.884935206745735,24.43833413808929,483.5459300577846,0.0
0.006,1.7866118813660066,-0.9644523011242295,10.0,0.0,1.4015439614090472,4.4171223918967755,29.47031254222648,483.5459300577846,0.0
0.007,1.9801249440608937,-1.064211338176878,10.0,0.0,1.810520528646034,4.915616923814963,34.54386828698168,483.5459300577846,0.0
0.008,2.1418198943141347,-1.1457024141438816,10.0,0.0,2.236415320336985,5.3893083453641255,39.63682718943504,483.5459300577846,0.0
0.009000000000000001,2.280126523860436,-1.2138542708246107,10.0,0.0,2.673771568488968,5.844623324179906,44.734451938228375,483.5459300577846,0.0
0.01,2.4012576546852453,-1.2721882703038692,10.0,0.0,3.1186589110832412,6.286201071834038,49.826229545984035,483.5459300577846,0.0
0.011,2.5097135332403737,-1.323244020999096,10.0,0.0,3.568248086765183,6.717390943649368,54.9036143631271,483.5459300577846,0.0
0.012,2.608754065300097,-1.3688187047133822,10.0,0.0,4.020499989762082,7.140610846110342,59.95950014418546,483.5459300577846,0.0
0.013000000000000001,2.7007432135984057,-1.4101682337335792,10.0,0.0,4.473941394060467,7.557605547632694,64.9874804548419,483.5459300577846,0.0
0.014,2.787403560344757,-1.4481520270859032,10.0,0.0,4.9275028500598035,7.969632172773534,69.98142955896155,483.5459300577846,0.0
0.015,2.8700013117388634,-1.4833380844031638,10.0,0.0,5.380401451344666,8.37759313181433,74.93518598977863,483.5459300577846,0.0
0.016,2.949480107453242,-1.5160792159393768,10.0,0.0,5.832055952300934,8.782131165064897,79.84232913112294,483.5459300577846,0.0
0.017,3.0265577815632727,-1.546568237644801,10.0,0.0,6.282025187558862,9.183697088891075,84.69602966443779,483.5459300577846,0.0
0.018000000000000002,3.1017962126907532,-1.5748782827165706,10.0,0.0,6.72996330641446,9.582597893177502,89.48903217363545,483.5459300577846,0.0
0.019,3.17565144739231,-1.600992959028892,10.0,0.0,7.175587207756774,9.979030737414949,94.21336852030197,483.5459300577846,0.0
0.02,3.2485107513285585,-1.6248272637796488,10.0,0.0,7.618652630148064,10.373106716276915,98.86050240457757,483.5459300577846,0.0
0.021,3.3207180475981555,-1.6462454972972786,10.0,0.0,8.058936770825852,10.764867429941518,103.4213627708528,483.5459300577846,0.0
0.022,3.3925920224756507,-1.665075176324013,10.0,0.0,8.496225651160088,11.15429642203361,107.87413507018589,483.5459300577846,0.0
0.023,3.4644635950035942,-1.681076630451332,10.0,0.0,8.930300405833849,11.54132426972062,112.20505574937565,483.5459300577846,0.0
0.024,3.5366613350583016,-1.693991171046382,10.0,0.0,9.360931054733113,11.925833772425564,116.42909557379228,483.5459300577846,0.0
0.025,3.6094295946079655,-1.7036945098386367,10.0,0.0,9.787887810874144,12.307672858600025,120.52666036040821,483.5459300577846,0.0
0.026000000000000002,3.683082346446995,-1.7099521251186895,10.0,0.0,10.2109241043114,12.686649591664349,124.4892122073731,483.5459300577846,0.0
0.027,3.7579264372774057,-1.7125552790644534,10.0,0.0,10.6297782124926,13.062535958293012,128.30488173335473,483.5459300577846,0.0
0.028,3.834272577511666,-1.7113077794736338,10.0,0.0,11.044172290024095,13.435069464559461,131.96292804882265,483.5459300577846,0.0
0.029,3.912431599335107,-1.7060345861530435,10.0,0.0,11.453812734159733,13.803954996954179,135.452763501096,483.5459300577846,0.0
0.03,3.9927105309010056,-1.6965882573790565,10.0,0.0,11.85839132288934,14.16886692826897,138.76285753461377,483.5459300577846,0.0
0.031,4.075410524847348,-1.682850326951348,10.0,0.0,12.257586536818163,14.529451315306812,141.8862739630108,483.5459300577846,0.0
0.032,4.160813220506884,-1.6647505107781857,10.0,0.0,12.651067067583114,14.88532948845066,144.81809701040387,483.5459300577846,0.0
0.033,4.249180100152373,-1.642262663278864,10.0,0.0,13.038494697522761,15.236101567552213,147.55313876406754,483.5459300577846,0.0
0.034,4.3407512724476724,-1.6154004309640089,10.0,0.0,13.41952680529896,15.581350041581551,150.08686719273797,483.5459300577846,0.0
0.035,4.435738861609838,-1.584221194138473,10.0,0.0,13.793819455972809,15.920643955900683,152.41484265059393,483.5459300577846,0.0
0.036000000000000004,4.534325580645923,-1.548820968076138,10.0,0.0,14.161030000512586,16.253543080652943,154.71056432365228,483.5459300577846,0.0
0.037,4.636360518501381,-1.5098358986813931,10.0,0.0,14.520875047700812,16.579635371410216,156.48479209754214,483.5459300577846,0.0
0.038,4.743117323311534,-1.4655028116012523,10.0,0.0,14.872858030361074,16.89838003866002,158.1686965027537,483.5459300577846,0.0
0.039,4.852789357173261,-1.4191273995767608,10.0,0.0,15.216859217028398,17.20945218177418,159.6267699808767,483.5459300577846,0.0
0.04,4.967115900806556,-1.368147688473111,10.0,0.0,15.552423485239256,17.51233802978262,160.8788175967365,483.5459300577846,0.0
0.041,5.084947177610103,-1.3146718109110256,10.0,0.0,15.87934736200907,17.80667354479923,161.93747416675447,483.5459300577846,0.0
0.042,5.2068052567941,-1.258046943809009,10.0,0.0,16.197318425997963,18.09204182004896,162.79482287415382,483.5459300577846,0.0
0.043000000000000003,5.332340207020716,-1.1989797202270192,10.0,0.0,16.506098065189946,18.368080110439525,163.46361380990845,483.5459300577846,0.0
0.044,5.46148488520022,-1.137669011254019,10.0,0.0,16.80545006375058,18.63444197061275,163.94931701457318,483.5459300577846,0.0
0.045,5.594047718375909,-1.0744589126379949,10.0,0.0,17.095163044714432,18.890812379757183,164.2606128145903,483.5459300577846,0.0
0.046,5.729821038908518,-1.0096664496099006,10.0,0.0,17.375046698549422,19.136907609156736,164.40683034759402,483.5459300577846,0.0
0.047,5.868570499599146,-0.9435988332606486,10.0,0.0,17.64493199677272,19.372476973529178,164.39831614728487,483.5459300577846,0.0
0.048,6.010037887172421,-0.8765512093418897,10.0,0.0,17.904671139143367,19.59730401326055,166.8426165123994,483.5459300577846,0.0
0.049,6.139115442276329,-0.8341102118260295,10.0,0.0,18.156921037762533,19.81283840607017,170.96854368267404,483.5459300577846,0.0
0.05,6.213396756452331,-0.880810491004004,10.0,0.0,18.41106082648547,20.025164180452407,175.43843785120146,483.5459300577846,0.0
0.051000000000000004,6.265320437242644,-0.95813404107101,10.0,0.0,18.669057801489938,20.23670256452355,180.13790794700623,483.5459300577846,0.0
0.052000000000000005,6.310392205178829,-1.0398308356144863,10.0,0.0,18.930622329300185,20.44844815002294,185.0099885504211,483.5459300577846,0.0
0.053,6.348036471024485,-1.1271432807940065,10.0,0.0,19.195992363903656,20.66148547818976,190.04170036562252,483.5459300577846,0.0
0.054,6.3799934228448025,-1.2173768400127067,10.0,0.0,19.465181694925725,20.876617254958468,195.4135861969683,483.5459300577846,0.0
0.055,6.406301840145199,-1.3105179581111526,10.0,0.0,19.738308457921097,21.09458043076767,199.0009467230625,483.5459300577846,0.0
0.056,6.420431183302121,-1.4181123463513465,10.0,0.0,20.016822833723282,21.316768821721226,205.77107846827528,483.5459300577846,0.0
0.057,6.432127366188192,-1.5228377091241523,10.0,0.0,20.300148457063223,21.54344452447375,211.4392793855928,483.5459300577846,0.0
0.058,6.443615270794641,-1.6195409924528028,10.0,0.0,20.587399195882853,21.774638511607176,216.87117270489307,483.5459300577846,0.0
0.059000000000000004,6.436923194377782,-1.7399761158458111,10.0,0.0,20.881325090273794,22.012289181361137,223.1768811728918,483.5459300577846,0.0
0.06,6.435801805237562,-1.8414363533972815,10.0,0.0,21.179579737097768,22.255623805620047,229.0412037078089,483.5459300577846,0.0
0.061,6.418142206173511,-1.962091650816368,10.0,0.0,21.484599862005823,22.5063817741411,235.23175194648886,483.5459300577846,0.0
0.062,6.404233060306959,-2.0655312466848748,10.0,0.0,21.794365573846523,22.763919368355538,241.00155673878922,483.5459300577846,0.0
0.063,6.373965442029897,-2.1865760798704716,10.0,0.0,22.111189009616336,23.029870120884425,247.5688223953426,483.5459300577846,0.0
0.064,6.347300413980934,-2.2896137794763565,10.0,0.0,22.43304887568683,23.30353861864,253.39772136207654,483.5459300577846,0.0
0.065,6.310577217677876,-2.398069819033714,10.0,0.0,22.76098939228109,23.585799154539934,259.4040698944964,483.5459300577846,0.0
0.066,6.274439434714654,-2.4934706813736556,10.0,0.0,23.09377144526774,23.87623561267221,265.0563597954235,483.5459300577846,0.0
0.067,6.235049882974626,-2.5826384294834064,10.0,0.0,23.43117338243762,24.174878103151705,270.8405624508738,483.5459300577846,0.0
0.068,6.196664379991045,-2.659010569418111,10.0,0.0,23.772208632850194,24.481225048111032,276.1628907405795,483.5459300577846,0.0
0.069,6.160560263696047,-2.7215482255146872,10.0,0.0,24.115890473488705,24.794628421378288,281.241229441942,483.5459300577846,0.0
0.07,6.129748244627065,-2.7668933891616887,10.0,0.0,24.46090705883031,25.114087922317317,285.8184637334215,483.5459300577846,0.0
0.07100000000000001,6.107291878227424,-2.792141637475859,10.0,0.0,24.805691791409735,25.43826521180987,289.3662756705497,483.5459300577846,0.0
0.07200000000000001,6.094566203619693,-2.79790653115769,10.0,0.0,25.148797435502324,25.76567850615396,292.6528740098949,483.5459300577846,0.0
0.073,6.096346425725682,-2.7795647150614755,10.0,0.0,25.488258595912676,26.094337954295174,294.791526327106,483.5459300577846,0.0
0.074,6.113255549670054,-2.7397239018308936,10.0,0.0,25.822440513801716,26.42223537225048,296.6715160603478,483.5459300577846,0.0
0.075,6.149667680540865,-2.6750686018955045,10.0,0.0,26.149280306836776,26.746924997042807,297.2556919682537,483.5459300577846,0.0
0.076,6.206028822481884,-2.5886336457399035,10.0,0.0,26.467043790869823,27.06599403435461,297.6027694521214,483.5459300577846,0.0
0.077,6.281883386026832,-2.484945537972414,10.0,0.0,26.774396487937864,27.377152125768,296.4711651289268,483.5459300577846,0.0
0.078,6.386279178494794,-2.3522130643533794,10.0,0.0,27.06856603342003,27.67720468621082,296.07496444263364,483.5459300577846,0.0
0.079,6.498395936087882,-2.2271924495245483,10.0,0.0,27.350898937503274,27.965380059747027,292.74407540968565,483.5459300577846,0.0
0.08,6.656152098563485,-2.049962914325181,10.0,0.0,27.61557104580817,28.236739176041553,290.7920467395593,483.5459300577846,0.0
0.081,6.803251669512269,-1.9129517000583525,10.0,0.0,27.86761291669467,28.49282620035749,288.23313631905495,483.5459300577846,0.0
0.082,6.99981003614212,-1.7196566753130262,10.0,0.0,28.100166962344804,28.728358284710694,283.25249267916473,483.5459300577846,0.0
0.083,7.189541679272112,-1.5598174136830174,10.0,0.0,28.317369443333387,28.9446876681156,281.7160334249256,483.5459300577846,0.0
0.084,7.403760211509043,-1.3832998979284343,10.0,0.0,28.51666608044691,29.139437639164107,275.87765373849584,483.5459300577846,0.0
0.085,7.6418155435169846,-1.1876059889405108,10.0,0.0,28.695746896122802,29.310598375620604,270.6652165558668,483.5459300577846,0.0
0.08600000000000001,7.864960780288427,-1.0355503330547036,10.0,0.0,28.859266520819194,29.460385697274265,268.3476407834989,483.5459300577846,0.0
0.08700000000000001,8.106840507816871,-0.8705282737248783,10.0,0.0,29.0047810452439,29.58717093157179,263.3662905388864,483.5459300577846,0.0
0.088,8.36950116725043,-0.6841468840072802,10.0,0.0,29.129570908380234,29.689355219619618,263.4795938828308,483.5459300577846,0.0
0.089,8.548304957620582,-0.6496477544197548,10.0,0.0,29.250169123650277,29.776758254829925,272.0717904713871,483.5459300577846,0.0
0.09,8.589075346787887,-0.8240009131067152,10.0,0.0,29.38697165966579,29.8647841031415,279.6822779588363,483.5459300577846,0.0
0.091,8.608367792686213,-1.0026843373064653,10.0,0.0,29.536808171985992,29.955973155066314,285.43221581457504,483.5459300577846,0.0
0.092,8.588878468583584,-1.2159419601885397,10.0,0.0,29.7024514425417,30.055363703140962,292.85777114610613,483.5459300577846,0.0
0.093,8.541654760060181,-1.4478888154256024,10.0,0.0,29.88485101869655,30.166379238160253,302.26629351329836,483.5459300577846,0.0
0.094,8.495970414503185,-1.6469760736381849,10.0,0.0,30.079692320588865,30.289086218219133,308.57260920140703,483.5459300577846,0.0
0.095,8.410179715213152,-1.886206829786547,10.0,0.0,30.291644700892032,30.4279867639277,319.08644665734676,483.5459300577846,0.0
0.096,8.320523371034898,-2.1031832113894975,10.0,0.0,30.517766992150584,30.583196783962418,325.1414821831092,483.5459300577846,0.0
0.097,8.215938253110698,-2.315175001833764,10.0,0.0,30.757947389419588,30.756105830649403,335.1794909747827,483.5459300577846,0.0
0.098,8.090980379327014,-2.5326919704605055,10.0,0.0,31.01320760027488,30.948441527331564,342.23631351761946,483.5459300577846,0.0
0.099,7.968023333323558,-2.7158465644753926,10.0,0.0,31.280147195368244,31.159345371753577,350.9199027982984,483.5459300577846,0.0
0.1,7.827106945356151,-2.900800610555021,10.0,0.0,31.559996614523072,31.390124023459098,357.51593649269716,483.5459300577846,0.0
0.101,7.696644269336465,-3.0403500765364946,10.0,0.0,31.84843985773015,31.638751482392053,364.41411178271443,483.5459300577846,0.0
0.10200000000000001,7.562638085564318,-3.1623633544616427,10.0,0.0,32.14492748842174,31.904796573207143,369.4585330094737,483.5459300577846,0.0
0.10300000000000001,7.444885749461416,-3.238698077336571,10.0,0.0,32.445547551862695,32.185498613143494,374.7004322644291,483.5459300577846,0.0
0.10400000000000001,7.345478536270411,-3.2730175455033104,10.0,0.0,32.74718760722278,32.4779497255203,376.4013714956895,483.5459300577846,0.0
0.105,7.270015722155344,-3.26501670697973,10.0,0.0,33.046685481365266,32.77862656961615,379.7725185641639,483.5459300577846,0.0
0.106,7.237065717812884,-3.1937830075221454,10.0,0.0,33.338545553947995,33.082055389053195,377.92997754044563,483.5459300577846,0.0
0.107,7.226469141547469,-3.1032388407283453,10.0,0.0,33.62231497986342,33.38516345715059,378.60776585907644,483.5459300577846,0.0
0.108,7.284614325135742,-2.9275936140053007,10.0,0.0,33.889602736725436,33.67983572507241,373.9052920922829,483.5459300577846,0.0
0.109,7.358458014330333,-2.7615336878618457,10.0,0.0,34.125044417704686,33.94353593240957,371.70703902986526,483.5459300577846,0.0
0.11,7.503729101599289,-2.5155189860515157,10.0,0.0,34.149944403321435,33.993169963362625,362.13627734999903,483.5459300577846,0.0
0.111,7.620641519883024,-2.300651411340676,10.0,0.0,34.18016448151433,34.082854568651896,355.79268599937996,483.5459300577846,0.0
0.112,7.796701683640528,-2.061344362741657,10.0,0.0,34.226664495142494,34.20155758464145,347.85568397790786,483.5459300577846,0.0
0.113,8.017769190619056,-1.8254334978338536,10.0,0.0,34.2984014388566,34.33953895857477,340.9280193399412,483.5459300577846,0.0
0.114,8.272006157524423,-1.6009251406646325,10.0,0.0,34.40117299422476,34.48892586527653,334.8450059140559,483.5459300577846,0.0
0.115,8.582017071591086,-1.335472360323478,10.0,0.0,34.5356404424542,34.64266549306134,325.99795701165255,483.5459300577846,0.0
0.116,8.899661030447081,-1.0936763099654487,10.0,0.0,34.70409821224456,34.79654986105521,318.54007437849214,483.5459300577846,0.0
0.117,9.23469303445014,-0.8511706646548238,10.0,0.0,34.9057764863573,34.94686372996496,313.70907941909076,483.5459300577846,0.0
0.11800000000000001,9.58903874995717,-0.595186633405326,10.0,0.0,35.138634894983106,35.09072243351597,322.7367197782693,483.5459300577846,0.0
0.11900000000000001,9.787605412677205,-0.5981555805630783,10.0,0.0,35.242845127727335,35.14343359937593,329.65167929763845,483.5459300577846,0.0
0.12,9.816405927781066,-0.8370201122156931,10.0,0.0,35.31899463143031,35.17144615428193,338.50796805781147,483.5459300577846,0.0
0.121,9.777190618132384,-1.1460235015787323,10.0,0.0,35.42193216776697,35.20887409328002,348.3918523616003,483.5459300577846,0.0
0.122,9.705388643620354,-1.4576044687396785,10.0,0.0,35.54950261686383,35.260359056111795,358.17281841961125,483.5459300577846,0.0
0.123,9.602894025042666,-1.7669713675212657,10.0,0.0,35.70037906652858,35.33000895586851,368.2954350616479,483.5459300577846,0.0
0.124,9.465927031199932,-2.08203754759937,10.0,0.0,35.87469647202329,35.421822933752956,378.5533963990531,483.5459300577846,0.0
0.125,9.309012365592391,-2.378235108839865,10.0,0.0,36.07019460469265,35.537778197676815,388.7101556802908,483.5459300577846,0.0
0.126,9.12334797866608,-2.6716073730318755,10.0,0.0,36.28704742393618,35.68054168438107,398.7716236706753,483.5459300577846,0.0
0.127,8.92939822360388,-2.9279653807859276,10.0,0.0,36.521756968136806,35.8501919335268,407.89203393666764,483.5459300577846,0.0
0.128,8.717733094147746,-3.166584386846207,10.0,0.0,36.77364509342103,36.047691778867595,416.4474687325258,483.5459300577846,0.0
0.129,8.514874691904817,-3.347225176347837,10.0,0.0,37.00460416182708,36.19596000941665,422.69198800972777,483.5459300577846,0.0
0.13,8.295332788962673,-3.4734017293567767,10.0,0.0,36.929962478024535,35.76361530068111,421.140323615587,483.5459300577846,0.0
0.131,7.932177920600679,-3.4517729756193436,10.0,0.0,36.759248757023464,35.43398328867385,418.54718497100663,483.5459300577846,0.0
0.132,7.620877941990079,-3.375567032924549,10.0,0.0,36.5247424813058,35.20184297975049,414.50722529199476,483.5459300577846,0.0
0.133,7.399130612091806,-3.2878438143815614,10.0,0.0,36.259130727929815,35.05637409070304,408.9475422513929,483.5459300577846,0.0
0.134,7.27825026201548,-3.1837414366434693,10.0,0.0,35.98976741381162,34.98488789151708,402.16669384679216,483.5459300577846,0.0
0.135,7.2509733101630065,-3.062567528039902,10.0,0.0,35.73834670817734,34.974077742679036,394.5902599098283,483.5459300577846,0.0
0.136,7.306608521462917,-2.922592277054349,10.0,0.0,35.52084975968582,35.01106379543555,386.3443422155771,483.5459300577846,0.0
0.137,7.433609561965519,-2.762800906744732,10.0,0.0,35.34807754491103,35.084028713828424,377.7743629347891,483.5459300577846,0.0
0.138,7.620229766813898,-2.5839237058109106,10.0,0.0,35.22649231668162,35.18260579205106,369.40317524827657,483.5459300577846,0.0
0.139,7.856172091539885,-2.3864522441346696,10.0,0.0,35.15903940080942,35.298034740439306,360.68724257888533,483.5459300577846,0.0
0.14,8.134066082442375,-2.168405457913243,10.0,0.0,35.14587510961926,35.423109526026025,352.3935172682865,483.5459300577846,0.0
0.14100000000000001,8.44043127553191,-1.940178350492895,10.0,0.0,35.185717458626854,35.55225198793876,343.7288490790809,483.5459300577846,0.0
0.14200000000000002,8.778467329947128,-1.6870528544286318,10.0,0.0,35.275243539170916,35.68082135756756,335.4848237557663,483.5459300577846,0.0
0.14300000000000002,9.127070009666765,-1.4356914233865834,10.0,0.0,35.411624170682956,35.80586108507929,327.5907676536937,483.5459300577846,0.0
0.14400000000000002,9.496880102635608,-1.162850495179395,10.0,0.0,35.590355589181726,35.92454786134202,323.9230558702313,483.5459300577846,0.0
0.145,9.870414425640273,-0.8916035820951631,10.0,0.0,35.8081074679937,36.03559333707607,332.9419020919028,483.5459300577846,0.0
0.146,9.980481176928603,-1.0287514569400402,10.0,0.0,36.086067359945886,36.15893305399679,344.42492649283867,483.5459300577846,0.0
0.147,9.997848243852768,-1.2532463200430044,10.0,0.0,36.428574076614495,36.30431010319496,356.8360839438675,483.5459300577846,0.0
0.148,9.980522989838825,-1.4656016144088255,10.0,0.0,36.83705955562491,36.47660988804045,367.1283880153909,483.5459300577846,0.0
0.149,9.898343107794867,-1.7167209287232508,10.0,0.0,37.317952969414506,36.68214603547211,381.84056530369486,483.5459300577846,0.0
0.15,9.768619885581096,-1.976377351262523,10.0,0.0,37.64322058599136,36.84389856350002,392.6592867052269,483.5459300577846,0.0
0.151,9.624452588913929,-2.2384741325655853,10.0,0.0,37.78975676481181,36.96282717982443,403.0887737017079,483.5459300577846,0.0
