timestamp,iq,id,iq_ref,id_ref,vq,vd,omega,omega_ref,r
0.0,0.0,0.0,0.0,0.0,0.0,0.0,0.0,425.6587192788407,0.0
0.001,0.0,0.0,10.0,0.0,0.0,1.0999999999999999,18.76495442812073,425.6587192788407,0.0
0.002,0.44049721676807957,-0.22194190440370729,10.0,0.0,0.13441360948440786,1.941545306155511,36.32839262915109,425.6587192788407,0.0
0.003,0.8476693398121011,-0.4031655868914517,10.0,0.0,0.35725557466554075,2.6719934812767496,54.20748744136196,425.6587192788407,0.0
0.004,1.1817425176995147,-0.5431410083793907,10.0,0.0,0.6444432203794801,3.319004707066803,72.65060844471431,425.6587192788407,0.0
0.005,1.4532512329005949,-0.6460735615937189,10.0,0.0,0.9775360507397274,3.9035083479560018,91.3948263270334,425.6587192788407,0.0
0.006,1.6762184298495855,-0.7202308506158693,10.0,0.0,1.3428979384131634,4.441059603279925,110.27431253974657,425.6587192788407,0.0
0.007,1.8623050143594622,-0.7728264667056569,10.0,0.0,1.7305227077313035,4.943152069512204,129.16096548627922,425.6587192788407,0.0
0.008,2.0204867643355726,-0.809201937971644,10.0,0.0,2.1330695924192176,5.418258639400794,147.93678785587346,425.6587192788407,0.0
0.009000000000000001,2.1575138949121966,-0.8331879301692106,10.0,0.0,2.545147150056271,5.872618073905651,166.48699764850423,425.6587192788407,0.0
0.01,2.27847727123835,-0.8474629851246529,10.0,0.0,2.962783291503228,6.310813620633615,184.69439296419458,425.6587192788407,0.0
0.011,2.387282321170421,-0.8538348248922114,10.0,0.0,3.3830335253031643,6.736194305104216,202.45126867968943,425.6587192788407,0.0
0.012,2.4869829082566612,-0.853507241914804,10.0,0.0,3.803697051644976,7.151182930427581,219.63539814531651,425.6587192788407,0.0
0.013000000000000001,2.5801016030395822,-0.8471660545377374,10.0,0.0,4.223098833103241,7.557492995297532,236.08823565856417,425.6587192788407,0.0
0.014,2.6688477967804234,-0.8350799797620456,10.0,0.0,4.639925386551116,7.95628133746265,251.6704853154802,425.6587192788407,0.0
0.015,2.7551432036401473,-0.8174018657513199,10.0,0.0,5.053124387077293,8.348268467938885,266.2496061862219,425.6587192788407,0.0
0.016,2.840775906619811,-0.7941542768315683,10.0,0.0,5.461821746957412,8.733820142160946,279.70302537676116,425.6587192788407,0.0
0.017,2.9274320312350133,-0.7653330998424299,10.0,0.0,5.865266684692117,9.113010538270942,291.9257080001874,425.6587192788407,0.0
0.018000000000000002,3.0167030591519683,-0.7309815989859595,10.0,0.0,6.262795714940031,9.485673136718693,302.8366936614581,425.6587192788407,0.0
0.019,3.11007040075952,-0.6912417923810712,10.0,0.0,6.653810238289955,9.851444681048797,312.38388948604273,425.6587192788407,0.0
0.02,3.2088747486982268,-0.6463835416607249,10.0,0.0,7.0377634542247085,10.209805718423704,320.54656189621164,425.6587192788407,0.0
0.021,3.314279905213147,-0.5968100720888518,10.0,0.0,7.414152953157775,10.560119449917343,327.33529354972814,425.6587192788407,0.0
0.022,3.4272395312419923,-0.5430417210966749,10.0,0.0,7.782516091433477,10.901669250856898,332.78961649730144,425.6587192788407,0.0
0.023,3.5484729464515183,-0.48568291843693356,10.0,0.0,8.142426111192915,11.23369430611731,336.97384917133616,425.6587192788407,0.0
0.024,3.678453208398656,-0.4253796415328639,10.0,0.0,8.4934878620696,11.555422363165532,339.9726375946749,425.6587192788407,0.0
0.025,3.8174058756201754,-0.36277871906658166,10.0,0.0,8.835333174861189,11.866098798821705,358.3434814930505,425.6587192788407,0.0
0.026000000000000002,3.9420020899268464,-0.3309522960800031,10.0,0.0,9.171186702635374,12.167576065289904,379.0110458160144,425.6587192788407,0.0
0.027,4.026737730918087,-0.35046380415512424,10.0,0.0,9.50606713439709,12.464415999522728,401.1754392488882,425.6587192788407,0.0
0.028,4.096046363303191,-0.38208132725508404,10.0,0.0,9.84042632886616,12.758283390355993,424.4555789253257,425.6587192788407,0.0
0.029,4.152239834995861,-0.41929223597630294,4.127502122003891,0.0,10.174513367699987,12.404736999410925,438.45219202322295,425.6587192788407,0.0
0.03,3.934265856474436,-0.34753741805598226,-2.998739154388551,0.0,10.431571924497476,11.419331462174823,439.1224922248195,425.6587192788407,0.0
0.031,3.411943495113828,-0.15801206398916467,-3.468526984646612,0.0,10.54425383112346,10.633033805742066,437.8661519466319,425.6587192788407,0.0
0.032,2.9299841315137893,-0.005752425324089483,-2.962431172230713,0.0,10.552184474731076,10.044794829665916,436.0150194266091,425.6587192788407,0.0
0.033,2.5566639616319256,0.09458335577053734,-2.140427913697018,0.0,10.490983816836561,9.637777840923693,433.8945594561048,425.6587192788407,0.0
0.034,2.2927270387715826,0.1492954436398073,-1.1625563302174946,0.0,10.3901865540026,9.389988186679474,431.83332684321346,425.6587192788407,0.0
0.035,2.124403291497077,0.16856117346944932,-0.19368609941555714,0.0,10.273117942625044,9.269571024101285,429.8807584652786,425.6587192788407,0.0
0.036000000000000004,2.032294899199445,0.1639455058750372,0.7403776976875047,0.0,10.156414856861113,9.250995717696476,428.03799275990315,425.6587192788407,0.0
0.037,1.99967218010522,0.14471246460583587,1.6379678155645938,0.0,10.051594026896755,9.31466932352859,426.26514201877,425.6587192788407,0.0
0.038,2.013887483577571,0.11777908213613508,2.5183289587318707,0.0,9.966392982171023,9.447467399777786,424.6165253676522,425.6587192788407,0.0
0.039,2.0662022787090026,0.08725116391610777,3.3530592234026733,0.0,9.906080586722288,9.63586980718187,422.99149803722315,425.6587192788407,0.0
0.04,2.149490078008795,0.05701405408948579,4.192245101033359,0.0,9.873660474457568,9.874725368221675,421.47038475359386,425.6587192788407,0.0
0.041,2.2603260275050565,0.02838830964188943,4.994685088100472,0.0,9.871214390314263,10.154970825280515,419.8859679560929,425.6587192788407,0.0
0.042,2.395057393328389,0.0037882017115820066,5.844621000078439,0.0,9.899457214719032,10.478703587920442,418.1840278138658,425.6587192788407,0.0
0.043000000000000003,2.5544826606849202,-0.018697000896729987,6.770337985841739,0.0,9.959476404154927,10.85002740030005,417.0071300763523,425.6587192788407,0.0
0.044,2.7404993250167142,-0.03983528022118765,7.4453027466233515,0.0,10.052726414584804,11.236342123810704,415.55083578867215,425.6587192788407,0.0
0.045,2.941826287405367,-0.05351349252693477,8.274528725365126,0.0,10.176576116883144,11.657529786847622,414.16705578453053,425.6587192788407,0.0
0.046,3.164903124863097,-0.06374014951008417,9.081335362379034,0.0,10.331147765400438,12.106914941598326,412.79470450275716,425.6587192788407,0.0
0.047,3.409468103281748,-0.0700190746137381,9.896151151026558,0.0,10.515789179732636,12.583709036855307,411.4337795362691,425.6587192788407,0.0
0.048,3.676125996593098,-0.07239701566962285,10.0,0.0,10.729844646422423,13.007676361040351,409.0809549275196,425.6587192788407,0.0
0.049,3.933987939182987,-0.057085604787784794,10.0,0.0,10.963183264254175,13.383915776234357,429.92946483324596,425.6587192788407,0.0
0.05,4.142491413128057,-0.07586844259464967,1.538779796164098,0.0,11.213031188089724,12.794774126562135,439.8757157866611,425.6587192788407,0.0
0.051000000000000004,3.9007912857522937,0.01144670107265855,-3.5765156456216713,0.0,11.36918766039303,11.8401331864334,441.4015555097112,425.6587192788407,0.0
0.052000000000000005,3.42773299267204,0.16240493403913792,-4.4968638694554395,0.0,11.398532137263487,10.996106048309079,440.27906820229657,425.6587192788407,0.0
0.053,2.967592927434662,0.28398857692161145,-4.081823704982676,0.0,11.328674834247057,10.340158796259884,438.59609409730484,425.6587192788407,0.0
0.054,2.5993720616508442,0.3541712163978823,-3.369710400671453,0.0,11.19370428241379,9.852905495527324,436.8249023478853,425.6587192788407,0.0
0.055,2.326553118635767,0.3803424185962914,-2.5957763566521344,0.0,11.02132844984353,9.505219956557523,435.0580898727424,425.6587192788407,0.0
0.056,2.133999913605038,0.375014490485476,-1.806363825019702,0.0,10.832269430747491,9.272614089390283,433.324499119722,425.6587192788407,0.0
0.057,2.00588953064766,0.34906979405464345,-1.0162262469183183,0.0,10.641656364170615,9.13555052537999,431.6245130169454,425.6587192788407,0.0
0.058,1.9293219085588993,0.31086938076093457,-0.22589113291105534,0.0,10.460340846348398,9.079308832473023,429.95079907592367,425.6587192788407,0.0
0.059000000000000004,1.8947487999493624,0.2664232879724452,0.5680450396289807,0.0,10.296039777091499,9.093026750640014,428.2998577308344,425.6587192788407,0.0
0.06,1.895445270698379,0.21985941553912502,1.3671043276536832,0.0,10.154218171616769,9.168477587153449,426.6772883770264,425.6587192788407,0.0
0.061,1.9267188266198525,0.17392122685779599,2.168203313575821,0.0,10.038711372371472,9.298898348595387,425.0560545451522,425.6587192788407,0.0
0.062,1.9852472482247272,0.13057652986060675,2.984846876849795,0.0,9.952105863977774,9.48042076525219,423.5219393300584,425.6587192788407,0.0
0.063,2.0690205637209855,0.09032637519860309,3.773272283884535,0.0,9.896307218131977,9.705060968056493,421.9649614736527,425.6587192788407,0.0
0.064,2.175320788223781,0.054854900670735285,4.588698790139262,0.0,9.872051817802635,9.972614656073107,420.4828877229662,425.6587192788407,0.0
0.065,2.304029150306709,0.023711093948868944,5.381493981041248,0.0,9.880048430302013,10.276945723607701,418.7768512010823,425.6587192788407,0.0
0.066,2.4536244759284056,-0.0024286227115866144,6.303330922760782,0.0,9.920242419070343,10.629949055121351,417.48750284281016,425.6587192788407,0.0
0.067,2.6292314650915403,-0.02646681207440027,7.029717266257164,0.0,9.99410014577651,11.004534765176144,416.08644389990343,425.6587192788407,0.0
0.068,2.8217167412782986,-0.04419289220943523,7.825969491499901,0.0,10.09974015773877,11.409954247748901,414.703754933014,425.6587192788407,0.0
0.069,3.034077830950315,-0.05734186483606751,8.626863618402876,0.0,10.236627242949655,11.844096747865457,413.3311839467341,425.6587192788407,0.0
0.07,3.2671090791544977,-0.06623097725431948,9.436424464863904,0.0,10.40408618229085,12.306046631927385,411.97183155139334,425.6587192788407,0.0
0.07100000000000001,3.5216072071912627,-0.07109023119485247,10.0,0.0,10.601439842913397,12.766780640315599,410.2562397859626,425.6587192788407,0.0
0.07200000000000001,3.7872473233258446,-0.06703244470728986,10.0,0.0,10.824636589259464,13.168865427081444,414.1850182344693,425.6587192788407,0.0
0.073,4.04391574927876,-0.03667964147027347,9.384883996313967,0.0,11.062423909156323,13.459821523706381,437.93441353125144,425.6587192788407,0.0
0.074,4.175915323395037,-0.09395126814679577,-2.6125705946012188,0.0,11.312131513692773,12.419938628801432,442.291601754997,425.6587192788407,0.0
0.075,3.735095852948458,0.06529343809126487,-4.957493531235551,0.0,11.41479043433213,11.420857944210287,441.2166546186278,425.6587192788407,0.0
0.076,3.208843818054778,0.2272736149132113,-4.575599316448827,0.0,11.391050022060407,10.650888342268914,439.4148021869101,425.6587192788407,0.0
0.077,2.7749951776307187,0.3301171856599907,-3.8122339296706755,0.0,11.28299369980779,10.078153739789947,437.6007681311734,425.6587192788407,0.0
0.078,2.4512418437207177,0.3782594374485002,-3.024637390325668,0.0,11.124202337543272,9.662163311119645,435.80746093308323,425.6587192788407,0.0
0.079,2.219620569880283,0.38699925817244096,-2.229471207822999,0.0,10.939211110876425,9.373725910555109,434.05708596807983,425.6587192788407,0.0
0.08,2.0610751618540593,0.3694744328799399,-1.4382673922136893,0.0,10.745890395809226,9.189837667416821,432.3502587921872,425.6587192788407,0.0
0.081,1.9601246039966707,0.3357644558387529,-0.6517691994008477,0.0,10.55704577715652,9.093128047423013,430.67445284199925,425.6587192788407,0.0
0.082,1.9052582801139228,0.29316095204734727,0.1359764400615493,0.0,10.381763944016347,9.071017756024576,429.0215143197612,425.6587192788407,0.0
0.083,1.8884114419164202,0.24668650102608408,0.9288177507713735,0.0,10.226485419624776,9.114229887198322,427.3906798948391,425.6587192788407,0.0
0.084,1.9040364165642711,0.19970253991454476,1.7269153570724467,0.0,10.09575945200179,9.215568060808318,425.79816459026523,425.6587192788407,0.0
0.085,1.9482459245889496,0.15439123108780056,2.521778556245127,0.0,9.992754302861934,9.368447000004762,424.21191784680934,425.6587192788407,0.0
0.08600000000000001,2.018057042362839,0.11240943567880693,3.3293699422933845,0.0,9.919502446962424,9.569386822966278,422.6314633983039,425.6587192788407,0.0
0.08700000000000001,2.111962136149991,0.07429835270027696,4.1498697253514845,0.0,9.877442160122568,9.815455091178753,421.1566038662189,425.6587192788407,0.0
0.088,2.229049842847802,0.040206443469086584,4.932320645520184,0.0,9.867563727973588,10.09863451047508,419.6566719287256,425.6587192788407,0.0
0.089,2.3669167757219727,0.011893241850095437,5.742307087767999,0.0,9.88976461405492,10.419787658523273,417.92318672297716,425.6587192788407,0.0
0.09,2.5260504784872273,-0.0126076471170109,6.686405016200846,0.0,9.944272692103123,10.790670450104471,416.75191040973584,425.6587192788407,0.0
0.091,2.7117888221742903,-0.03561125373892682,7.361111261512555,0.0,10.032703629343372,11.175852597254407,415.326919052321,425.6587192788407,0.0
0.092,2.912265736464738,-0.0508454316986553,8.17692494248518,0.0,10.152255411083939,11.594156988732173,413.95656160211547,425.6587192788407,0.0
0.093,3.133470837814475,-0.06207167742551034,8.97912524435519,0.0,10.30276499904858,12.040342223626622,412.5953525923269,425.6587192788407,0.0
0.094,3.375640829123237,-0.06912238326291908,9.79036341611462,0.0,10.48350546689105,12.513747441672466,411.2447884441441,425.6587192788407,0.0
0.095,3.6395525982908383,-0.07215597547864849,10.0,0.0,10.693775597839213,12.946225232512415,409.0463752035985,425.6587192788407,0.0
0.096,3.899224326634612,-0.05948547622870404,10.0,0.0,10.924842403936903,13.328461119098193,426.84072570638443,425.6587192788407,0.0
0.097,4.1210807361467285,-0.0645087246708338,2.916665464666596,0.0,11.171705380404537,12.894605810985599,438.67705238617066,425.6587192788407,0.0
0.098,3.9446131593956557,-0.004936253004074409,-3.1316812062998167,0.0,11.34389332404638,11.955967540415791,441.07728198021726,425.6587192788407,0.0
0.099,3.4900836736688974,0.14172785040616498,-4.485981630336886,0.0,11.389461319608602,11.088155878995172,440.1316145087652,425.6587192788407,0.0
0.1,3.0219755619316273,0.2693887126383234,-4.157876846910104,0.0,11.331115295661105,10.408263311123982,438.4742732161179,425.6587192788407,0.0
0.101,2.6408620377576413,0.3463232022791509,-3.4573617399592322,0.0,11.203428432083069,9.901542418117252,436.71447401194325,425.6587192788407,0.0
0.10200000000000001,2.356603688880181,0.3776226336011923,-2.688019685202923,0.0,11.035164573013148,9.537804686141861,434.95385322349046,425.6587192788407,0.0
0.10300000000000001,2.1547623460208967,0.3758338961148934,-1.9006606304230216,0.0,10.847863082089399,9.291890381160993,433.22490164004944,425.6587192788407,0.0
0.10400000000000001,2.0192230174696415,0.3521557816222767,-1.1118466623146008,0.0,10.657287014979252,9.143624216242005,431.5306227791054,425.6587192788407,0.0
0.105,1.9366435024506206,0.3152750353654139,-0.32342626684522147,0.0,10.474762039031555,9.077693518291028,429.86340608893,425.6587192788407,0.0
0.106,1.8970534448535092,0.27148435301080276,0.46813521014158255,0.0,10.308344658479966,9.082820062239726,428.21885710134956,425.6587192788407,0.0
0.107,1.8934089031061598,0.22512420848979076,1.2648083257067118,0.0,10.163743379452177,9.150515640696932,426.6007276469031,425.6587192788407,0.0
0.108,1.920804110241842,0.1790907824723632,2.064452969249304,0.0,10.044971861589586,9.27392579483727,424.9866806899537,425.6587192788407,0.0
0.109,1.975799739900289,0.1354361060761774,2.8781968336128925,0.0,9.9547601910707,9.448857593230812,423.4763712113015,425.6587192788407,0.0
0.11,2.0561774816772176,0.09472553860635702,3.655175053614372,0.0,9.895104483100772,9.666313614990763,421.87958289045565,425.6587192788407,0.0
0.111,2.158892426206083,0.059046345195423844,4.491360577921153,0.0,9.866677553704339,9.929774222771051,420.4322915147443,425.6587192788407,0.0
0.112,2.284983846767244,0.02698414191269871,5.267270543417796,0.0,9.870609428452564,10.228191410978788,418.7271963085363,425.6587192788407,0.0
0.113,2.431297771463097,0.0003134349651177093,6.18913337622484,0.0,9.906602990278154,10.575972262283454,417.4334833295848,425.6587192788407,0.0
0.114,2.6038681849225567,-0.02408417274472574,6.918242225193136,0.0,9.976192310830253,10.946038123465069,416.03755567248163,425.6587192788407,0.0
0.115,2.7933768911223797,-0.042372154097956805,7.712417689808321,0.0,10.077596987317063,11.347004289654336,414.66011947379366,425.6587192788407,0.0
0.116,3.0026789983822266,-0.05605558671309002,8.511121787202779,0.0,10.21028011054825,11.776801858204008,413.2916534090713,425.6587192788407,0.0
0.117,3.232536341581641,-0.06545300574668056,9.319025478261665,0.0,10.373571560078833,12.234579060585032,411.9368444997259,425.6587192788407,0.0
0.11800000000000001,3.483757825377155,-0.07082675569068056,10.0,0.0,10.566808723197958,12.704400058376125,410.39728687866216,425.6587192788407,0.0
0.11900000000000001,3.7512198602099054,-0.0695969367229256,10.0,0.0,10.787515252198386,13.11284431848899,410.3222151072275,425.6587192788407,0.0
0.12,4.009081146946794,-0.04296857977846093,10.0,0.0,11.024078733235848,13.476824684297881,435.57686244861014,425.6587192788407,0.0
0.121,4.183146250872878,-0.09747691607611683,-1.5277667579887075,0.0,11.27964610331264,12.543440469686367,441.6272819067725,425.6587192788407,0.0
0.122,3.7937899358357563,0.04542653146323544,-4.712662113349209,0.0,11.400053852328297,11.538460437727268,441.0808247241912,425.6587192788407,0.0
0.123,3.273616926600701,0.2086358363188881,-4.593654576512053,0.0,11.39139883418775,10.744284434336814,439.40804673228433,425.6587192788407,0.0
0.124,2.829193004601612,0.31806884762038645,-3.8947588550930625,0.0,11.293786179327602,10.148033884786622,437.62944492208356,425.6587192788407,0.0
0.125,2.492374118083919,0.37253823640648,-3.1251652064251068,0.0,11.141412432344994,9.711919307141674,435.8486325132812,425.6587192788407,0.0
0.126,2.2491494659534337,0.38607475437540406,-2.336658134368324,0.0,10.959720279207433,9.406605176871704,434.1014875004079,425.6587192788407,0.0
0.127,2.0810522677026415,0.3718387587350632,-1.547513310147366,0.0,10.767367253056756,9.20863254954499,432.39611964034964,425.6587192788407,0.0
0.128,1.9723863072494185,0.340182550784635,-0.7622033837333109,0.0,10.57779208970662,9.09998680966657,430.72238019779763,425.6587192788407,0.0
0.129,1.9112146585151497,0.2987147407621705,0.024029728353122337,0.0,10.400554765726623,9.06752289226258,429.0719274425763,425.6587192788407,0.0
0.13,1.889066243038689,0.25273186968163874,0.8151240243264422,0.0,10.24243822012286,9.101564284852259,427.4429865045247,425.6587192788407,0.0
0.131,1.900086298066733,0.2058034508447244,1.6117518210953952,0.0,10.108239765699697,9.194674308099593,425.84719490098627,425.6587192788407,0.0
0.132,1.940189118550759,0.16026366859154473,2.407762866643154,0.0,10.001312250903064,9.34034731091948,424.2603950090891,425.6587192788407,0.0
0.133,2.0063298241174534,0.1177970729866793,3.2151460552892486,0.0,9.923860715562082,9.534737852865808,422.70448406375033,425.6587192788407,0.0
0.134,2.0968144235536386,0.07905853359252712,4.022643880109543,0.0,9.877429961327147,9.773403217044871,421.20139617184714,425.6587192788407,0.0
0.135,2.2101510875580512,0.04460757419480865,4.8187610571310735,0.0,9.862911039073413,10.05149469356057,419.7352685609551,425.6587192788407,0.0
0.136,2.3449736613626904,0.015335924144838309,5.611059369755952,0.0,9.880528528608146,10.365819656339387,417.9911316641747,425.6587192788407,0.0
0.137,2.5003700612460746,-0.009437891303817114,6.559803694292807,0.0,9.930249168666139,10.731167386117466,416.7892349204472,425.6587192788407,0.0
0.138,2.682719095581311,-0.03287154897955058,7.249446909740493,0.0,10.013862481885983,11.112821287599377,415.3828017043712,425.6587192788407,0.0
0.139,2.880464583613157,-0.04898133302826868,8.055422693523179,0.0,10.128817593600639,11.526503520976549,414.01517668400476,425.6587192788407,0.0
