timestamp,iq,id,iq_ref,id_ref,vq,vd,omega,omega_ref,r
0.0,0.0,0.0,0.0,0.0,0.0,0.0,0.0,451.4321916624744,0.0
0.001,0.0,0.0,10.0,0.0,0.0,1.0999999999999999,5.886845832469266,451.4321916624744,0.0
0.002,0.35170477202241573,-0.20926894184714223,10.0,0.0,0.13301958360318564,1.9513124750775344,10.520914805736542,451.4321916624744,0.0
0.003,0.7755070351006825,-0.44853677055555363,10.0,0.0,0.3620952280932599,2.687694459789248,14.984946792528087,451.4321916624744,0.0
0.004,1.174210965179386,-0.6792393446664049,10.0,0.0,0.6648861114706077,3.333726400800924,20.118558485742756,451.4321916624744,0.0
0.005,1.5193056142158248,-0.8780973605836242,10.0,0.0,1.0215684566211738,3.911460863955945,25.121179612541756,451.4321916624744,0.0
0.006,1.8062055341021994,-1.0425890494360162,10.0,0.0,1.4164615191867767,4.438982070613384,30.191077630518063,451.4321916624744,0.0
0.007,2.0406247120142615,-1.1778329832260415,10.0,0.0,1.8378493119899417,4.930323352490176,35.36859770245921,451.4321916624744,0.0
0.008,2.2328250090276973,-1.288740146631102,10.0,0.0,2.2770798023371253,5.395871444567248,40.55557663786205,451.4321916624744,0.0
0.009000000000000001,2.3924466506809994,-1.3809847805319,10.0,0.0,2.7279798909523363,5.843151398859604,45.70919198271431,451.4321916624744,0.0
0.01,2.527938696313868,-1.4589672020450708,10.0,0.0,3.1861735861627007,6.277485457981159,50.835272508839644,451.4321916624744,0.0
0.011,2.645543925202424,-1.5268740346403156,10.0,0.0,3.648671245134531,6.7026238259901865,55.99052045917265,451.4321916624744,0.0
0.012,2.7502730120862022,-1.5873167166729416,10.0,0.0,4.113402601707716,7.121153975827161,61.13903805071789,451.4321916624744,0.0
0.013000000000000001,2.845783173885062,-1.6421887885452877,10.0,0.0,4.578945338692913,7.534845419408722,66.32968552916506,451.4321916624744,0.0
0.014,2.9345739488345104,-1.693020264362477,10.0,0.0,5.044345687958915,7.944910108704194,71.36291150482641,451.4321916624744,0.0
0.015,3.019002043752448,-1.7398438433801138,10.0,0.0,5.508854750161628,8.352109181305243,76.3350534654344,451.4321916624744,0.0
0.016,3.0997031843792566,-1.7843755235086303,10.0,0.0,5.9720630624281394,8.757006408346687,81.34284310273247,451.4321916624744,0.0
0.017,3.1780309378680496,-1.8262321097074627,10.0,0.0,6.433599173852729,9.159925702433142,86.2344992283248,451.4321916624744,0.0
0.018000000000000002,3.2547629596619387,-1.8653950541845,10.0,0.0,6.89316296157399,9.561049433390968,91.05500697722307,451.4321916624744,0.0
0.019,3.330179283427758,-1.9022809555932425,10.0,0.0,7.3505485633291,9.960488694628834,95.84741342835075,451.4321916624744,0.0
0.02,3.404850474474448,-1.9365471670923846,10.0,0.0,7.805539955283304,10.35826292214095,100.5692497031365,451.4321916624744,0.0
0.021,3.47917075239325,-1.967973654597757,10.0,0.0,8.257923882303897,10.754330347436673,105.2156755277216,451.4321916624744,0.0
0.022,3.5534441345827608,-1.9963893214137851,10.0,0.0,8.707487617626715,11.148602553643224,109.78963093532676,451.4321916624744,0.0
0.023,3.6280293471665086,-2.0214754327569593,10.0,0.0,9.153997515617494,11.540942273199082,114.44061726289219,451.4321916624744,0.0
0.024,3.703139730134994,-2.043133055544435,10.0,0.0,9.597221873157968,11.93118272059774,118.68874812550494,451.4321916624744,0.0
0.025,3.7798076261280817,-2.0598892979644274,10.0,0.0,10.036774450122588,12.319039194281023,122.64137202598148,451.4321916624744,0.0
0.026000000000000002,3.857291481183453,-2.0732407889624622,10.0,0.0,10.47245851834466,12.704308733196283,126.64573178726843,451.4321916624744,0.0
0.027,3.9363205433070743,-2.0822776821059836,10.0,0.0,10.903961676971855,13.086701366759176,130.5505786573224,451.4321916624744,0.0
0.028,4.017646909262239,-2.086059274561628,10.0,0.0,11.330879389331304,13.465849443194669,134.18708720624414,451.4321916624744,0.0
0.029,4.101407223871786,-2.0846911484381376,10.0,0.0,11.752831828300222,13.841374112275057,137.59839754928944,451.4321916624744,0.0
0.03,4.1877550694725105,-2.078291441946618,10.0,0.0,12.16945120382745,14.21288089847431,140.84172011077698,451.4321916624744,0.0
0.031,4.2771017282458805,-2.066580611934448,10.0,0.0,12.580335126185464,14.579934289597304,143.89642249477185,451.4321916624744,0.0
0.032,4.369839486430175,-2.0493262014505365,10.0,0.0,12.985055118566859,14.942063047031265,146.71849477729026,451.4321916624744,0.0
0.033,4.466249845749456,-2.026491996712228,10.0,0.0,13.383176769037135,15.29877316601668,149.28075604564899,451.4321916624744,0.0
0.034,4.56655024534387,-1.9981572044592872,10.0,0.0,13.77426878125849,15.649555497788391,151.57395710202306,451.4321916624744,0.0
0.035,4.670916396038967,-1.9644713593865275,10.0,0.0,14.157907730399407,15.993891525024557,153.60280738575426,451.4321916624744,0.0
0.036000000000000004,4.779448695625077,-1.925700422023289,10.0,0.0,14.533688442690615,16.331262953003666,155.04665766578702,451.4321916624744,0.0
0.037,4.893209166619992,-1.8805019211950285,10.0,0.0,14.901044100833143,16.661046980600407,156.032607956941,451.4321916624744,0.0
0.038,5.0117194355416,-1.8300101113279488,10.0,0.0,15.259540481843995,16.982689646380308,156.70991200468256,451.4321916624744,0.0
0.039,5.135525077188969,-1.7736659823399563,10.0,0.0,15.608658555241739,17.295584165791308,157.15381893650067,451.4321916624744,0.0
0.04,5.264609981049753,-1.7117615790650127,10.0,0.0,15.947908230170448,17.599139757592773,157.52241276041647,451.4321916624744,0.0
0.041,5.399078679112554,-1.6443358564378678,10.0,0.0,16.276790711330197,17.892764049958657,158.015731070933,451.4321916624744,0.0
0.042,5.538804022937236,-1.5717396127005072,10.0,0.0,16.594836044025723,18.17588906036383,158.78230041901472,451.4321916624744,0.0
0.043000000000000003,5.683382138505328,-1.4947214841337502,10.0,0.0,16.90164331278724,18.44799976372381,160.66086806796804,451.4321916624744,0.0
0.044,5.831709196414971,-1.4151421142264349,10.0,0.0,17.19699737560447,18.70870992840956,163.3123585763904,451.4321916624744,0.0
0.045,5.981652642471499,-1.336590481056711,10.0,0.0,17.481042162658948,18.957873974421332,165.93165916394952,451.4321916624744,0.0
0.046,6.131290640452097,-1.262367841244354,10.0,0.0,17.7542199015615,19.19556534922008,167.44457954174504,451.4321916624744,0.0
0.047,6.281213325656358,-1.191542848374807,10.0,0.0,18.016800481236146,19.42181024503655,165.51104529051833,451.4321916624744,0.0
0.048,6.431648884183443,-1.1236508118298745,10.0,0.0,18.26898761843372,19.63664002465289,163.19015800318454,451.4321916624744,0.0
0.049,6.557703105582787,-1.1004012880083915,10.0,0.0,18.51556049261826,19.84284393125869,169.96985575451941,451.4321916624744,0.0
0.05,6.643697205378477,-1.1411902728061163,10.0,0.0,18.76281575361089,20.04488592585885,178.31803322586603,451.4321916624744,0.0
0.051000000000000004,6.69909236103111,-1.2281834692149647,10.0,0.0,19.01471104972127,20.246215720974416,184.58611990723358,451.4321916624744,0.0
0.052000000000000005,6.740144467734355,-1.3331169472641609,10.0,0.0,19.2722225463535,20.448640286008633,189.6323974019534,451.4321916624744,0.0
0.053,6.771471632416722,-1.4475316444427087,10.0,0.0,19.535761631735067,20.65353807715463,194.6394961714039,451.4321916624744,0.0
0.054,6.796126327909487,-1.5659427426433226,10.0,0.0,19.805317661523368,20.861901252866794,199.96065479048238,451.4321916624744,0.0
0.055,6.813944805585183,-1.6885568245132951,10.0,0.0,20.081057843927734,21.074670228397174,206.5313525549801,451.4321916624744,0.0
0.056,6.8264653380067095,-1.8125928679811252,10.0,0.0,20.362918729607465,21.29253725082534,211.23344121538503,451.4321916624744,0.0
0.057,6.832586041938817,-1.939737165643383,10.0,0.0,20.651125741270217,21.516255587470354,215.36798622065896,451.4321916624744,0.0
0.058,6.833816865694013,-2.0669365111983495,10.0,0.0,20.94560437046561,21.746348608043377,217.22146139386268,451.4321916624744,0.0
0.059000000000000004,6.823172767788805,-2.206142353913364,10.0,0.0,21.247685088041873,21.984063348485773,221.12596430817393,451.4321916624744,0.0
0.06,6.796971913328605,-2.3637977451429077,10.0,0.0,21.55927924251285,22.23099033965313,229.98598709223512,451.4321916624744,0.0
0.061,6.764118175712429,-2.5235046791227336,10.0,0.0,21.88039788947895,22.487735949744025,241.07395807475484,451.4321916624744,0.0
0.062,6.733880320728268,-2.6673521390627757,10.0,0.0,22.209305384011135,22.753916490194527,249.54136186995558,451.4321916624744,0.0
0.063,6.70640640246422,-2.793594105956041,10.0,0.0,22.544388324894012,23.029089478512404,249.71941289321703,451.4321916624744,0.0
0.064,6.668487181359143,-2.9250908642501816,10.0,0.0,22.8866824942638,23.3141498372257,254.97042461523736,451.4321916624744,0.0
0.065,6.60604397829349,-3.0873660026056657,10.0,0.0,23.239788580204117,23.611423137130817,266.64043223122763,451.4321916624744,0.0
0.066,6.558503190915119,-3.210993514905935,10.0,0.0,23.599287662510378,23.91888477022042,271.22163236146554,451.4321916624744,0.0
0.067,6.514293904162713,-3.31495209761652,10.0,0.0,23.963782168870143,24.235937761900672,275.2831476892794,451.4321916624744,0.0
0.068,6.454952586199636,-3.4327016391566216,10.0,0.0,24.33544538750425,24.563820357157283,285.4329104918131,451.4321916624744,0.0
0.069,6.415574192287071,-3.5051299159210414,10.0,0.0,24.709520158829303,24.899819224902405,283.8813355119965,451.4321916624744,0.0
0.07,6.3849979339498955,-3.552308152762787,10.0,0.0,25.084252663081315,25.24259528748347,290.31256157657157,451.4321916624744,0.0
0.07100000000000001,6.3380017907856425,-3.620895870093633,10.0,0.0,25.462862389704206,25.593430807396338,299.5489027856055,451.4321916624744,0.0
0.07200000000000001,6.339384656921282,-3.6043706907315256,10.0,0.0,25.836191048752948,25.94642167127364,291.3751624018449,451.4321916624744,0.0
0.073,6.346251796474289,-3.577125118134639,10.0,0.0,26.204654167092514,26.300704757978615,299.47210707119876,451.4321916624744,0.0
0.074,6.350438873910435,-3.5589302871261275,10.0,0.0,26.569970306583645,26.6560139407246,306.7870203002409,451.4321916624744,0.0
0.075,6.413748535201715,-3.451363320778725,10.0,0.0,26.92263533241215,27.005401627177427,298.55251155795906,451.4321916624744,0.0
0.076,6.493796679746983,-3.3269924972199725,10.0,0.0,27.26236750337507,27.346944848280735,295.44070253477787,451.4321916624744,0.0
0.077,6.567718912893193,-3.229693352789098,10.0,0.0,27.59282158170024,27.680976000169395,303.02338504649884,451.4321916624744,0.0
0.078,6.695118500163892,-3.0665400218974246,10.0,0.0,27.906659492427984,28.00137471243338,305.1932692143575,451.4321916624744,0.0
0.079,6.861157244097968,-2.861980266381968,10.0,0.0,28.200283443511562,28.304127078583704,297.58913257749634,451.4321916624744,0.0
0.08,7.048155433905795,-2.6471056747544695,10.0,0.0,28.473229628577947,28.58705718978782,289.2835918975115,451.4321916624744,0.0
0.081,7.246392489915795,-2.4402487418697745,10.0,0.0,28.72656868955708,28.84905281411516,282.74405110855093,451.4321916624744,0.0
0.082,7.463133524075105,-2.2308636142753637,10.0,0.0,28.959809612164467,29.088323638910243,278.222723355159,451.4321916624744,0.0
0.083,7.701112101930277,-2.013564793274807,10.0,0.0,29.171844505956518,29.30298124026409,275.4190228940141,451.4321916624744,0.0
0.084,7.95901859418103,-1.7885386372527832,10.0,0.0,29.36156178155233,29.491386642492728,273.31152358910623,451.4321916624744,0.0
0.085,8.232502953759067,-1.5605578292342792,10.0,0.0,29.528320242489627,29.65241901742699,273.67959307638415,451.4321916624744,0.0
0.08600000000000001,8.512495507343893,-1.3421792095107938,10.0,0.0,29.672764254737196,29.78595966366303,272.54588826280724,451.4321916624744,0.0
0.08700000000000001,8.786787802488577,-1.1517888234169675,10.0,0.0,29.797358774110535,29.893218419570136,268.93798530195824,451.4321916624744,0.0
0.088,9.039636111228633,-1.0146688179113201,10.0,0.0,29.907040420392565,29.97714036081391,268.2799406748495,451.4321916624744,0.0
0.089,9.148398168911555,-1.1184842941002235,10.0,0.0,30.026936998606615,30.05420292930379,274.3844230796897,451.4321916624744,0.0
0.09,9.196580798758939,-1.3022214569182493,10.0,0.0,30.161723108996338,30.131336430059704,283.48212822362694,451.4321916624744,0.0
0.091,9.198258345872086,-1.5352952812505531,10.0,0.0,30.314544707471054,30.214532487895035,292.5836596829887,451.4321916624744,0.0
0.092,9.16426915658798,-1.7968051951189572,10.0,0.0,30.486839104164027,30.308446686086675,300.49803840750616,451.4321916624744,0.0
0.093,9.10155374018638,-2.0740671245811058,10.0,0.0,30.679179194109025,30.41675770803979,307.4309192856222,451.4321916624744,0.0
0.094,9.012077393014804,-2.363630074742697,10.0,0.0,30.89219568247799,30.54268688081695,315.3902921932279,451.4321916624744,0.0
0.095,8.89592767242425,-2.665604630234142,10.0,0.0,31.126825010890215,30.689206490946532,328.8066347658725,451.4321916624744,0.0
0.096,8.760436867458992,-2.9670089672897495,10.0,0.0,31.382778098995377,30.858279564244658,345.1378402671382,451.4321916624744,0.0
0.097,8.625446361736639,-3.2314941034457694,10.0,0.0,31.65612250722644,31.049534686603277,350.9539555410766,451.4321916624744,0.0
0.098,8.48791168153256,-3.462850718138272,10.0,0.0,31.94406236312488,31.262777647314383,350.8433744858864,451.4321916624744,0.0
0.099,8.315074538875313,-3.720376856157726,10.0,0.0,32.2505468385398,31.501127036434475,364.5737577077057,451.4321916624744,0.0
0.1,8.13404484720089,-3.960611434667052,10.0,0.0,32.57406834758106,31.764474828841664,374.09435321186277,451.4321916624744,0.0
0.101,7.986334007982629,-4.11263344382639,10.0,0.0,32.90589256018135,32.04827788830953,373.05090572482743,451.4321916624744,0.0
0.10200000000000001,7.8360772239247165,-4.241892293436212,10.0,0.0,33.24561291083389,32.35193420094481,384.5066903186586,451.4321916624744,0.0
0.10300000000000001,7.693041998019691,-4.341198126759341,10.0,0.0,33.59135791085415,32.67342822439079,388.59741044867394,451.4321916624744,0.0
0.10400000000000001,7.619763116312447,-4.313126901369907,10.0,0.0,33.930596920090906,33.00397767022296,380.0605447240766,451.4321916624744,0.0
0.105,7.545236465094089,-4.286990098385777,10.0,0.0,34.266372636912855,33.34286121521252,391.0520855543511,451.4321916624744,0.0
0.106,7.523080569056423,-4.1890086661139705,10.0,0.0,34.591942547031486,33.6831258594373,389.87886207843695,451.4321916624744,0.0
0.107,7.588705042990191,-3.970494515738059,10.0,0.0,34.73498251929458,33.81499316181789,374.9517171789032,451.4321916624744,0.0
0.108,7.6437037717064875,-3.739869226324083,10.0,0.0,34.72807898307348,33.82862591544601,367.34821494082513,451.4321916624744,0.0
0.109,7.70671150067365,-3.5007518501010924,10.0,0.0,34.714078914078904,33.894177120020196,370.0037991594252,451.4321916624744,0.0
0.11,7.833610045564132,-3.232415871163948,10.0,0.0,34.708230676685496,33.99934082853628,365.73538045955814,451.4321916624744,0.0
0.111,8.042808376311507,-2.922521328059938,10.0,0.0,34.72117621969176,34.131627493944364,356.89682250786956,451.4321916624744,0.0
0.112,8.300301190776787,-2.6214125983565935,10.0,0.0,34.76226596660179,34.28054581236613,349.29605130430554,451.4321916624744,0.0
0.113,8.600338143218053,-2.3265765371714253,10.0,0.0,34.836918775443685,34.437426060226684,341.51305978700805,451.4321916624744,0.0
0.114,8.930297545006429,-2.0429468205861707,10.0,0.0,34.94793315743804,34.595684893186395,334.48127463269367,451.4321916624744,0.0
0.115,9.286673281638194,-1.7613925317956256,10.0,0.0,35.09553674157886,34.75027698479088,322.1782111774603,451.4321916624744,0.0
0.116,9.66376304946739,-1.477816592825584,10.0,0.0,35.27844572325348,34.897557572476394,305.942346974058,451.4321916624744,0.0
0.117,10.074759854566526,-1.1584301415363307,10.0,0.0,35.492983925421875,35.03404640868614,315.97869134941067,451.4321916624744,0.0
0.11800000000000001,10.28585012117599,-1.1746071666493805,10.0,0.0,35.75757737870113,35.17243592890001,330.7110605675938,451.4321916624744,0.0
0.11900000000000001,10.371039600319197,-1.3596319589306622,10.0,0.0,36.06675808846215,35.31648548304692,345.6926088609778,451.4321916624744,0.0
0.12,10.374026853385967,-1.629498338733835,10.0,0.0,36.157379325592046,35.35408018571917,358.7868962559257,451.4321916624744,0.0
0.121,10.313130995480186,-1.9794362782571415,10.0,0.0,36.278492418825714,35.403705958737504,369.10378898263167,451.4321916624744,0.0
0.122,10.206229586702705,-2.360088059859933,10.0,0.0,36.4308290966189,35.471630660163825,376.69890051708893,451.4321916624744,0.0
0.123,10.058067230924276,-2.753773692477085,10.0,0.0,36.61422347854728,35.563225404274704,383.0417147238522,451.4321916624744,0.0
0.124,9.869767793184376,-3.154909339873021,10.0,0.0,36.82862596158129,35.68323142676091,392.70042889405926,451.4321916624744,0.0
0.125,9.642627229198332,-3.560884883979533,10.0,0.0,37.07423475193826,35.83577956296296,413.3460805568999,451.4321916624744,0.0
0.126,9.405925707713648,-3.920969299689368,10.0,0.0,37.346087007166766,36.02139952630398,422.5249343224884,451.4321916624744,0.0
0.127,9.185641901430957,-4.1899818078130195,10.0,0.0,37.63530656494303,36.23750692231,422.6812180425325,451.4321916624744,0.0
0.128,8.929938745633772,-4.4639166046678795,10.0,0.0,37.70250932714441,35.95145689866442,427.95268068498046,451.4321916624744,0.0
0.129,8.579859356612873,-4.582785638702182,10.0,0.0,37.5832558626583,35.52857012273142,425.78042957456637,451.4321916624744,0.0
0.13,8.206968184528218,-4.554602529488414,10.0,0.0,37.37217703173789,35.21303748684464,418.3852527986739,451.4321916624744,0.0
0.131,7.859001434073421,-4.50634048876349,10.0,0.0,37.10380887459025,34.998394131799586,423.96362159333313,451.4321916624744,0.0
0.132,7.601590965605536,-4.422060109797831,10.0,0.0,36.80930905860637,34.87447091520648,413.2997920610939,451.4321916624744,0.0
0.133,7.494755265524923,-4.233470981247525,10.0,0.0,36.51167851022745,34.8275803334737,396.25357407717627,451.4321916624744,0.0
0.134,7.444315710008097,-4.09904109316464,10.0,0.0,36.23725281564956,34.842103797861945,394.7764352468615,451.4321916624744,0.0
0.135,7.4898933290580985,-3.9450893060149475,10.0,0.0,36.002296545015525,34.90405440105943,396.08608994570653,451.4321916624744,0.0
0.136,7.657571175145668,-3.7072096451770182,10.0,0.0,35.81419778671761,34.99964555553601,381.61026431235933,451.4321916624744,0.0
0.137,7.890439186754688,-3.454987488832395,10.0,0.0,35.679497359625955,35.11739935475477,368.86250021274833,451.4321916624744,0.0
0.138,8.168344930255472,-3.204117844508169,10.0,0.0,35.60185619344625,35.24798376986396,359.01328842168147,451.4321916624744,0.0
0.139,8.493921154815773,-2.9338534368949754,10.0,0.0,35.58088970173153,35.38360525014448,352.6039170771803,451.4321916624744,0.0
0.14,8.855058213545522,-2.648054592659064,10.0,0.0,35.61436439976536,35.51841483829188,348.6180202698921,451.4321916624744,0.0
0.14100000000000001,9.239888084385441,-2.3535924958027645,10.0,0.0,35.69904272168327,35.648179122834186,341.40946140795586,451.4321916624744,0.0
0.14200000000000002,9.633381272180593,-2.0658175143981428,10.0,0.0,35.83155338964443,35.77024297780069,327.09102904869366,451.4321916624744,0.0
0.14300000000000002,10.043194836419925,-1.7651225707661187,10.0,0.0,36.007067993214875,35.882172981571564,325.1947858803374,451.4321916624744,0.0
0.14400000000000002,10.380251668676216,-1.5928811522117536,10.0,0.0,36.22863282270028,35.98846771297917,332.6908952094915,451.4321916624744,0.0
0.145,10.522372556953762,-1.7060853727679648,10.0,0.0,36.51337630876219,36.10826480859705,344.9523488604819,451.4321916624744,0.0
0.146,10.568094086364084,-1.9232079418342884,10.0,0.0,36.86564100115565,36.249493062135016,357.0977340903688,451.4321916624744,0.0
0.147,10.539780947085905,-2.197695405374332,10.0,0.0,37.28985566653701,36.41927639344853,369.0357247727911,451.4321916624744,0.0
0.148,10.446733997700756,-2.507889227638901,10.0,0.0,37.791565673024465,36.62394498597595,381.844477959459,451.4321916624744,0.0
0.149,10.29127359729848,-2.844583936887944,10.0,0.0,38.37798223138612,36.86905397632888,400.71922350390497,451.4321916624744,0.0
0.15,10.079489541907868,-3.190432392146421,10.0,0.0,38.55153978812394,37.014758969119676,422.13869128336734,451.4321916624744,0.0
