timestamp,iq,id,vq,vd,omega,r
0.0,0.0,0.0,0.0,0.0,0.0,289.33933847031744
0.01,0.0,0.0,-32.48152361527819,0.0,42.29888255495376,289.33933847031744
0.02,-23.084378296155833,-0.7089935806141581,-26.199663023892224,0.07160835164202997,86.16404158730921,289.33933847031744
0.03,-22.99552388367148,-2.13380197991293,-22.034679917604173,0.2162229935518201,126.09731954535891,289.33933847031744
0.04,-21.16171486605481,-3.2578811435205934,-18.39924260946172,0.331888791056107,163.43465187268603,289.33933847031744
0.05,-16.99334026777625,-3.60408857877371,-15.223651386443208,0.37011362316019236,197.67659232774378,289.33933847031744
0.06,-13.23434548901294,-3.5621428911914914,-12.286145097710822,0.36948119729316203,227.39598654534504,289.33933847031744
0.07,-9.753902227919227,-3.0677548174563793,-9.746770230039916,0.3231101447371072,251.146436987493,289.33933847031744
0.08,-6.82790055841485,-2.212739614221792,-7.727997763461338,0.23982136402787027,268.26019598720376,289.33933847031744
0.09,-4.686743615642126,-1.1618221094501593,-6.2794204634288,0.13589143566015716,279.0685507975203,289.33933847031744
0.1,-3.436335479180808,-0.11391768129650924,-5.362740049383756,0.03121491052608865,284.491807861793,289.33933847031744
0.11,-3.0284370807129424,0.7583787993197784,-4.895297702696186,-0.05677311633485989,285.23750326578204,289.33933847031744
0.12,-2.953777358168492,-3.625234882853477,-4.861615914086145,0.38521348676531914,284.1787445343975,289.33933847031744
0.13,-2.338352507047653,-3.0362810589454226,-5.0641313458182795,0.3293543854334591,286.954052456074,289.33933847031744
0.14,-2.0193122106952206,-2.3550032618531285,-4.8511426376870785,0.26358160898608285,291.37487330059497,289.33933847031744
0.15,-1.528018530687893,-1.4451626339596055,-4.486894007296217,0.17404270883069012,295.4165144752647,289.33933847031744
0.16,-1.1787476742801712,-0.4489414833953029,-4.14266458879932,0.07486953525765518,297.82093539363746,289.33933847031744
0.17,-1.1712175370220574,0.49707639188903474,-3.9255837439991605,-0.02022932866266762,298.01430234293093,289.33933847031744
0.18,-1.5873211736092583,1.2547422564325303,-3.8866351680199274,-0.0972506573734497,295.4302779546202,289.33933847031744
0.19,-1.7459781934444576,-3.790235447513948,-4.153598277959786,0.4110373484687121,293.1004936289885,289.33933847031744
0.2,-1.468267374487519,-2.7602448589410877,-4.441383952828316,0.31079853447036715,294.3577073332532,289.33933847031744
0.21,-1.256940392041992,-2.057914648186154,-4.362784246936853,0.24262342804305992,297.2121091088333,289.33933847031744
0.22,-0.9697676327529678,-1.1176035558949418,-4.129480149452422,0.14970992236983363,299.8114741737405,289.33933847031744
0.23,-0.842008798311688,-0.12704218517268417,-3.903264020233623,0.05078082748278055,300.97595441451745,289.33933847031744
0.24,-1.0474376926709394,0.776826796770502,-3.7858464105662626,-0.040382897508308584,300.1025971577216,289.33933847031744
0.25,-1.6454743046183238,1.460841291175207,-3.8332278652668816,-0.11024518823995427,296.41895876273696,289.33933847031744
0.26,-1.4508051451575366,-3.7385049266097377,-4.244789931323838,0.41342793846514997,295.0725549028043,289.33933847031744
0.27,-1.3828251945395085,-2.5658281080540113,-4.411375295873565,0.2987260847176313,296.8376965406689,289.33933847031744
0.28,-1.1183797361193883,-1.7956571228137328,-4.284950125119114,0.2235046433164172,299.65714514826334,289.33933847031744
0.29,-0.8721958431234063,-0.8182836593367353,-4.048691913507992,0.1265855806280542,301.8328089924736,289.33933847031744
0.3,-0.8429427802843595,0.16896536465181727,-3.852970383839674,0.027691712864547097,302.3636738238569,289.33933847031744
0.31,-1.177289576758366,1.0251173240691522,-3.7845028967867003,-0.05894860040125556,300.7313233611302,289.33933847031744
0.32,-1.9026575414044555,1.6243052873399206,-3.894163323256218,-0.12049170201567233,296.77278027952053,289.33933847031744
0.33,-1.272245507019911,-3.5535992447533022,-4.376613850841752,0.40085235043840334,296.6183005589325,289.33933847031744
0.34,-1.3398336319422544,-2.3434617799520425,-4.408944999680197,0.28218206573822935,298.95536732910756,289.33933847031744
0.35000000000000003,-1.0290882516855098,-1.4961266096932913,-4.227926095343268,0.19894467532204752,301.7275130659484,289.33933847031744
0.36,-0.8325078130166689,-0.49105627316691214,-3.9894043388553118,0.09892869794257651,303.4426363082805,289.33933847031744
0.37,-0.9135087813403153,0.4769152475250677,-3.827028710752108,0.0016546306258534635,303.2882575810604,289.33933847031744
0.38,-1.3834911924219564,1.266056357323611,-3.812389546533997,-0.07852553671132449,300.78888044574364,289.33933847031744
0.39,-1.712317150550752,-3.7081446353799965,-4.048538804479741,0.4226027071944163,297.88552952047235,289.33933847031744
0.4,-1.357105498422001,-2.8167725222010143,-4.396750582913109,0.33628226839871905,298.7273891680337,289.33933847031744
0.41000000000000003,-1.1839156418633587,-2.0958217653357005,-4.35156951897504,0.2662830144775234,301.33895984195556,289.33933847031744
0.42,-0.9157606240235074,-1.1384759645151081,-4.136567721306076,0.17168691035997927,303.7992202380757,289.33933847031744
0.43,-0.8044508614364346,-0.12503586506828968,-3.9186608703992585,0.0704679362803657,304.8555564370079,289.33933847031744
0.44,-1.0285184113327417,0.80039043324649,-3.8063270927156867,-0.022875083984358766,303.85747118967936,289.33933847031744
0.45,-1.6518035878944721,1.4981741090326075,-3.8598893499663385,-0.09415162567200314,300.09031801738706,289.33933847031744
0.46,-1.4296597881279665,-3.759433372257116,-4.278894253961623,0.43536855582922634,298.80445857642525,289.33933847031744
0.47000000000000003,-1.3637151981104974,-2.559098776859379,-4.435502859088174,0.31789419506631206,300.61022056148363,289.33933847031744
0.48,-1.091367498822061,-1.7602083089386134,-4.302054299783228,0.23976535658317408,303.3974266147521,289.33933847031744
0.49,-0.854410961819479,-0.7554449457238323,-4.064369040125487,0.1400444652074198,305.4516085668993,289.33933847031744
0.5,-0.852723622513546,0.250055928732268,-3.8744045608927085,0.039244321833077495,305.77658091023545,289.33933847031744
0.51,-1.229922733028844,1.1090101941335122,-3.8187697367602986,-0.04776011490118044,304.2240426988948,289.33933847031744
0.52,-1.9524590060462177,-1.097897335227367,-3.917183657474854,0.17402853537013488,300.3043236162772,289.33933847031744
0.53,-1.2794004804414145,-3.23313518239485,-4.396471732856771,0.3907854552692781,300.4334509885906,289.33933847031744
0.54,-1.2631927589664604,-2.279072110891923,-4.405076922613269,0.29765822022987726,302.83914656127956,289.33933847031744
0.55,-0.968946282935016,-1.3637232679024083,-4.211715177997549,0.20748705919882818,305.4646322244365,289.33933847031744
0.56,-0.8072700138663749,-0.3353109345005072,-3.980650807506062,0.10498113679313859,306.8718918438902,289.33933847031744
0.5700000000000001,-0.9546310261760298,0.6343569927614912,-3.838949110030155,0.007379987074177252,306.2953365878052,289.33933847031744
0.58,-1.5046750126910335,1.3980761087457658,-3.8553875209524247,-0.07039000063299597,302.9652436556074,289.33933847031744
0.59,-1.5689172294309681,-3.8585800593953654,-4.199028921012818,0.45913419624051255,300.8653062469296,289.33933847031744
0.6,-1.3731349646911841,-2.69871251292589,-4.4479549212203375,0.3458461541064909,302.23610589009803,289.33933847031744
0.61,-1.1358513210470922,-1.9317702527058207,-4.35282233836682,0.2710836983371898,304.9715181370094,289.33933847031744
0.62,-0.8787852181895592,-0.9295052962417656,-4.120725503182254,0.171786707987026,307.21411553329125,289.33933847031744
0.63,-0.8272472917698175,0.09875508396310945,-3.9151638546018344,0.0688619148825754,307.8298449598593,289.33933847031744
0.64,-1.1453514123981354,1.0024456474723424,-3.8343901641062974,-0.02250958711582024,306.2358574224941,289.33933847031744
0.65,-1.8718631349308268,1.6435480816763566,-3.9346163106508305,-0.08826337861789803,302.34729379083166,289.33933847031744
0.66,-1.295284743781755,-3.628256334658013,-4.399077978500156,0.442545319350197,302.0123400786671,289.33933847031744
0.67,-1.3233531276039294,-2.3795654459183844,-4.448021070454607,0.3200557959221525,304.27264501212187,289.33933847031744
0.68,-1.0139686080921921,-1.5057706122882033,-4.26923025812857,0.23418208317142258,306.99202692397205,289.33933847031744
0.6900000000000001,-0.8227582891106092,-0.465883942353856,-4.030183260408315,0.13065930012034171,308.61023670543796,289.33933847031744
0.7000000000000001,-0.9234560717126441,0.5318312325841299,-3.870341947085293,0.030355951393958976,308.27915182808925,289.33933847031744
0.71,-1.4295368041837548,1.336791611201852,-3.8647169504884453,-0.051476878079015104,305.42103974713945,289.33933847031744
0.72,-1.6696979781301469,-3.8328982284767976,-4.141007278306253,0.4693250041173267,302.81432740897253,289.33933847031744
0.73,-1.3619004508724826,-2.7833575153692376,-4.449870483794049,0.3671542903219399,303.8867755765428,289.33933847031744
0.74,-1.1530994312939418,-2.024675504936866,-4.380053122869685,0.2933107647836396,306.5497004789263,289.33933847031744
0.75,-0.8886156464225848,-1.0218320038936601,-4.154355088847243,0.1940482466832127,308.863342960951,289.33933847031744
0.76,-0.8145097350454782,0.021373452505300983,-3.942305464058082,0.08970632759081128,309.60756813708394,289.33933847031744
0.77,-1.1052556811856937,0.9512087599105029,-3.8496764660766187,-0.004228411909619423,308.1551828560428,289.33933847031744
0.78,-1.8104142495770976,1.6237123465780794,-3.9360157425269318,-0.07310248292295515,304.2603665066784,289.33933847031744
0.79,-1.3343281409246917,-3.6885492887417923,-4.389097241578041,0.4618122298977738,303.6665012430689,289.33933847031744
0.8,-1.3304084666728446,-2.434239654629532,-4.465465224145095,0.33881550614117734,305.81829373635964,289.33933847031744
0.81,-1.0258153923341944,-1.5638289059295154,-4.2954852550298135,0.2533382601771052,308.54434918681056,289.33933847031744
0.8200000000000001,-0.8246692438715694,-0.5149626383078366,-4.055206470203363,0.14896659605324514,310.2203438542622,289.33933847031744
0.8300000000000001,-0.9107456792385994,0.49888867995272607,-3.889447549386337,0.04708257554723614,309.9535260170621,289.33933847031744
0.84,-1.4050860500001514,1.3235282945883344,-3.876916023637431,-0.03670491421091303,307.2354622587969,289.33933847031744
0.85,-1.708607100934036,-3.8016725980648256,-4.1310081037876545,0.4796168476524678,304.4683755708216,289.33933847031744
0.86,-1.3577194245047495,-2.814997637863505,-4.458563939805924,0.38376434927019926,305.4504181495858,289.33933847031744
0.87,-1.1561697632283399,-2.049646233643025,-4.395491411564093,0.3092788550817943,308.0864657538426,289.33933847031744
0.88,-0.8891546971632177,-1.0395811799409758,-4.171193065194804,0.20931193089153033,310.40088862892185,289.33933847031744
0.89,-0.8121452639439385,0.014563689500719623,-3.957816689978453,0.10388288025786006,311.1426955959394,289.33933847031744
0.9,-1.102732910266921,0.9557667817293818,-3.8639088431601625,0.008806804253264466,309.6690632116445,289.33933847031744
0.91,-1.8126723444060007,1.6369164533196627,-3.9503747159768015,-0.06094507935908329,305.7651223870132,289.33933847031744
0.92,-1.337835388058394,-3.6989632881247303,-4.402731589339716,0.47634185807348073,305.17868565775456,289.33933847031744
0.93,-1.3291087919796616,-2.4340154966993373,-4.477322608507071,0.3522810944276408,307.33812944242004,289.33933847031744
0.9400000000000001,-1.0215084933697811,-1.5532087004515913,-4.305358763617378,0.26575362350331777,310.0507872745064,289.33933847031744
0.9500000000000001,-0.8228320687521654,-0.49372915314657284,-4.064664225406585,0.1602993979259625,311.68221611253637,289.33933847031744
0.96,-0.9180416644334267,0.5275691266119917,-3.900975491280212,0.05764200082349407,311.33768325793864,289.33933847031744
0.97,-1.4272443686087073,1.353781352574934,-3.8933190702670384,-0.026333003125375093,308.4759481931356,289.33933847031744
0.98,-1.6885567923822602,-3.843554901996788,-4.164774991324566,0.49724417723379394,305.8525150520262,289.33933847031744
0.99,-1.36123732198036,-2.794027399175253,-4.474217120343159,0.3950854543508157,306.9347729902585,289.33933847031744
1.0,-1.1455050766793144,-2.015893845999903,-4.401063635012283,0.31928799287928056,309.590080936664,289.33933847031744
1.01,-0.8804741538649958,-0.991390591101409,-4.173141881776458,0.21782905798053256,311.8455274407384,289.33933847031744
1.02,-0.8178514319357559,0.0705639619323083,-3.962770148394688,0.11156303871522852,312.4692901964025,289.33933847031744
1.03,-1.1326844003767516,1.0101375204663294,-3.8768817700305522,0.016595545341360082,310.8300069741332,289.33933847031744
1.04,-1.8709464602281838,1.6795514227089838,-3.9758575258576636,-0.052025396305614355,306.9196419425279,289.33933847031744
1.05,-1.3087997905196542,-3.6656603389623728,-4.436458581837682,0.4861614402004837,306.5715757492879,289.33933847031744
1.06,-1.3193367440309816,-2.3850238094902974,-4.483899096642738,0.3604828110627665,308.83638555158166,289.33933847031744
1.07,-1.00282704611067,-1.4816432110437774,-4.300805917152932,0.27162639442915826,311.51330427008423,289.33933847031744
1.08,-0.8185522635007259,-0.41034884793406623,-4.060782811916939,0.16490730696612116,313.0062848970993,289.33933847031744
1.09,-0.9445796520186556,0.6099718137351784,-3.906502561051285,0.06226526898546153,312.45604333279334,289.33933847031744
1.1,-1.492552109164905,1.4212953212061772,-3.9143526106365782,-0.020288377082844533,309.2036817076417,289.33933847031744
1.11,-1.61953889808069,-3.9009067550555567,-4.237641661683916,0.5158327372983844,306.99351487777125,289.33933847031744
1.12,-1.3717057829981611,-2.730479590052683,-4.496653257172982,0.4015205003881497,308.3376684168919,289.33933847031744
1.1300000000000001,-1.125283871377638,-1.9295539798139316,-4.398992429652398,0.32335749334408853,311.0455997609506,289.33933847031744
1.1400000000000001,-0.8671627213820365,-0.8854591560364025,-4.163671010287499,0.219833470122372,313.1848364041635,289.33933847031744
1.1500000000000001,-0.8351374627290432,0.18033416706785965,-3.9604998827967384,0.11307380364487793,313.5865375578519,289.33933847031744
1.16,-1.1958436940018975,1.1055222980840362,-3.8910461037077337,0.019449468245176238,311.65218666580677,289.33933847031744
1.17,-1.9826086405841905,1.7443287154263176,-4.013740954829013,-0.04617550220447822,307.66024413959343,289.33933847031744
1.18,-1.2576494604927198,-3.5909212853948103,-4.498088092474262,0.4909404191630294,307.77166288729507,289.33933847031744
1.19,-1.3160149427037835,-2.295585525826691,-4.493596556525857,0.36370242873204417,310.23825014743863,289.33933847031744
1.2,-0.9836453137778991,-1.359182678095541,-4.290524787239359,0.2714213266370247,312.86920220067526,289.33933847031744
1.21,-0.8232803291294506,-0.27666858454846216,-4.051342620896532,0.16344658586686528,314.15122631873834,289.33933847031744
1.22,-0.9975302295056584,0.73392919272494,-3.912133955407159,0.061652878946800105,313.2909225064226,289.33933847031744
1.23,-1.6027362109561287,1.5144949002387698,-3.94431819346708,-0.01791818670482162,309.618613113104,289.33933847031744
1.24,-1.524331868259337,-3.8780088345091173,-4.329818205294672,0.5252101956044762,308.0219598917738,289.33933847031744
1.25,-1.374062503645523,-2.6345442841710676,-4.516687434528079,0.4034982848548423,309.71974479297245,289.33933847031744
1.26,-1.0929566232705556,-1.7946214619330307,-4.38577792247493,0.32130062409297167,312.46920250334034,289.33933847031744
1.27,-0.8502929097263938,-0.7293936030923885,-4.1433471380686,0.21550723181199982,314.4184372437053,289.33933847031744
1.28,-0.8665500818874441,0.3341407981430581,-3.9530788701537904,0.10881965089031209,314.49547507757364,289.33933847031744
1.29,-1.2929879119362,1.2315343314459364,-3.9085084228367517,0.017848763228578313,312.5780647397533,289.33933847031744
1.3,-1.9218523928096178,-2.7952993368314942,-4.044430358486139,0.4233274293931529,309.04596047208025,289.33933847031744
1.31,-1.316659661640438,-3.0331062180285144,-4.469368040361946,0.4501412237308834,309.5385613997991,289.33933847031744
1.32,-1.190901619162751,-2.175314675221227,-4.4435241963510155,0.36653738412537595,312.0306975851762,289.33933847031744
1.33,-0.9054448429185243,-1.1650254049711284,-4.231487301492006,0.2666734825053372,314.41144711269874,289.33933847031744
1.34,-0.7991870850158043,-0.07946801694499667,-4.010392047344067,0.158197211719669,315.28554418163486,289.33933847031744
1.35,-1.0571088854446127,0.9071121193678547,-3.902410930793125,0.05863208596901599,313.9320169834145,289.33933847031744
1.36,-1.7482511589568202,1.6369698058767814,-3.974533686174615,-0.015990652487753443,310.0383749696783,289.33933847031744
1.37,-1.398459876197209,-3.7733170118926207,-4.4090083986830155,0.5288113463010794,309.18064318692785,289.33933847031744
1.3800000000000001,-1.3405452536003333,-2.489226250800661,-4.511620727800646,0.4028914964426841,311.23006181032974,289.33933847031744
1.3900000000000001,-1.0317946591677667,-1.597993573557044,-4.346858677131788,0.3153662222918795,313.9284799619982,289.33933847031744
1.4000000000000001,-0.8236781781749509,-0.5133003571128129,-4.104640016312054,0.20741020100456914,315.5554992938693,289.33933847031744
1.41,-0.9142599190165935,0.5372037223373147,-3.937971925034964,0.10182258933721908,315.16340263600745,289.33933847031744
1.42,-1.431002051688547,1.388746859804212,-3.9304748819293374,0.015279528730725106,312.2374036327383,289.33933847031744
1.43,-1.7101161002322516,-3.8646187163312464,-4.202780463750346,0.5444807050606022,309.6571800922733,289.33933847031744
1.44,-1.3689101589366586,-2.7931037495517517,-4.5054643048017535,0.44012231213220454,310.79028498453266,289.33933847031744
1.45,-1.137854635209318,-1.989579412831585,-4.424896863841007,0.3617594578730194,313.4433657071092,289.33933847031744
1.46,-0.8712326742944756,-0.9362238845171857,-4.19349913068464,0.25736012892609667,315.6088735184799,289.33933847031744
1.47,-0.8251931313184235,0.14917559187354967,-3.986678550383417,0.14867100569514957,316.04975067817963,289.33933847031744
1.48,-1.1744622077776838,1.099016989092251,-3.911999319088324,0.0525878489841872,314.1348734663884,289.33933847031744
1.49,-1.9589007858675807,1.7611504277756378,-4.0305106803348245,-0.015386645311927155,310.26159013420016,289.33933847031744
1.5,-1.280749832756536,-3.621455091392176,-4.495676705087236,0.5264953616962464,310.2587689783364,289.33933847031744
1.51,-1.3067523103503562,-2.30603099090741,-4.503357781441835,0.39725898263867726,312.66532651765453,289.33933847031744
1.52,-0.9753853726434816,-1.3594517363774878,-4.303760099389279,0.3039605089220625,315.2544826704726,289.33933847031744
1.53,-0.8162510641507512,-0.26088058079893717,-4.066246422913395,0.19436427394500638,316.4783250999688,289.33933847031744
1.54,-0.998129116195249,0.7641673190690612,-3.9297556670021425,0.09109531663913747,315.524888074069,289.33933847031744
1.55,-1.6186769254398494,1.5534678282969203,-3.9674594617086636,0.010611797888054608,311.81776329593356,289.33933847031744
1.56,-1.5231978204263588,-3.875546605647703,-4.355940809288235,0.5573887878881647,310.3238871480093,289.33933847031744
1.57,-1.372328089327121,-2.6133314660361164,-4.530282386364949,0.43378060539304214,312.07962781528806,289.33933847031744
1.58,-1.0804143129342618,-1.7530841675355184,-4.392300876416276,0.3495089597105179,314.8079194618349,289.33933847031744
1.59,-0.8421400654945023,-0.6694970525355415,-4.149207315268922,0.2418197452630557,316.65521671589903,289.33933847031744
1.6,-0.8777529019039327,0.40494799858716557,-3.9649394544384093,0.1339702921521978,316.5620270744821,289.33933847031744
1.61,-1.3350406621287063,1.3016773133494448,-3.9321885136184154,0.04299568336262041,314.3293874429827,289.33933847031744
1.62,-1.868834747358933,-3.3661265932810474,-4.107432767591537,0.5131422006189508,311.10789310924594,289.33933847031744
1.6300000000000001,-1.3419978348954302,-2.9323686322310145,-4.491376926612753,0.4726987731461784,311.8273290039027,289.33933847031744
