timestamp,iq,id,iq_ref,id_ref,vq,vd,omega,omega_ref,r
0.0,0.0,0.0,0.0,0.0,0.0,0.0,0.0,182.69013600783356,0.0
0.001,0.0,0.0,10.0,0.0,0.0,1.0999999999999999,7.376681069751261,182.69013600783356,0.0
0.002,0.48903968576334955,-0.2665398795799349,10.0,0.0,0.13931938675379285,1.9362056345660315,15.659935014160546,182.69013600783356,0.0
0.003,0.9059443102858196,-0.49963939051931644,10.0,0.0,0.371302945696342,2.6617535325110007,24.13734642253211,182.69013600783356,0.0
0.004,1.238042191135955,-0.6850725445851811,10.0,0.0,0.6707095903769846,3.3055832759074377,32.84839227673696,182.69013600783356,0.0
0.005,1.5021204127702985,-0.831360462453699,10.0,0.0,1.018795884354085,3.8892430838610186,41.781286131938515,182.69013600783356,0.0
0.006,1.7150855099287723,-0.948206365866132,10.0,0.0,1.401829699925516,4.428560161945864,50.87515377245838,182.69013600783356,0.0
0.007,1.8901462747210027,-1.0432491132252288,10.0,0.0,1.8097780849236644,4.9351218806238055,60.01988522744459,182.69013600783356,0.0
0.008,2.0369748336882534,-1.1223560460523554,10.0,0.0,2.235339138427186,5.417421732095295,69.22063962686768,182.69013600783356,0.0
0.009000000000000001,2.1629236732898676,-1.1893475486873417,10.0,0.0,2.673152067689081,5.88166161700348,78.45682794312903,182.69013600783356,0.0
0.01,2.2733413799915936,-1.2470325845830248,10.0,0.0,3.119283131437779,6.3323723470058635,87.68543410304264,182.69013600783356,0.0
0.011,2.371998120947659,-1.2976797109097487,10.0,0.0,3.57086649534883,6.772877045944729,96.9091056070183,182.69013600783356,0.0
0.012,2.4622011302014615,-1.3419932427092416,10.0,0.0,4.02571000999734,7.205553847772455,105.9897028170139,182.69013600783356,0.0
0.013000000000000001,2.5451647167024642,-1.3825398732302587,10.0,0.0,4.482353847403088,7.632223356459686,114.94047787310562,182.69013600783356,0.0
0.014,2.6235328920658247,-1.418243760479318,10.0,0.0,4.939522213229168,8.054099434593809,123.80462412214906,182.69013600783356,0.0
0.015,2.6985409710089105,-1.4495386961790724,10.0,0.0,5.39624675434054,8.472037534567027,132.54794946040008,182.69013600783356,0.0
0.016,2.7712297039866067,-1.4765900196819668,10.0,0.0,5.851755347566414,8.886608598815936,141.13398061216859,182.69013600783356,0.0
0.017,2.8425529844884956,-1.4992954588003893,10.0,0.0,6.305397272962589,9.298154742437116,149.52923968097426,182.69013600783356,0.0
0.018000000000000002,2.913378300166383,-1.5174257618873996,10.0,0.0,6.756596899129651,9.706832912316246,157.69896081352945,182.69013600783356,0.0
0.019,2.984509462085458,-1.5306923833563797,10.0,0.0,7.204822404998638,10.11264705316985,165.60539899301386,182.69013600783356,0.0
0.02,3.0566981113348954,-1.5388042638584094,10.0,0.0,7.649566415006621,10.515472890726745,173.20467671345088,182.69013600783356,0.0
0.021,3.1306372714164223,-1.5415315064990647,7.849328231171038,0.0,8.090337485654947,10.67850522984109,178.47507572338617,182.69013600783356,0.0
0.022,3.1033406017137013,-1.4844400962070665,5.256279329047866,0.0,8.497027355591348,10.609324805831687,181.24740771394238,182.69013600783356,0.0
0.023,2.9725560252025156,-1.3598137486426576,3.884540616708673,0.0,8.842992212004003,10.476883978599991,183.2530806952549,182.69013600783356,0.0
0.024,2.8178361657083437,-1.2124533940080533,2.8760746791781955,0.0,9.126153124518058,10.310781192507008,181.80627091705605,182.69013600783356,0.0
0.025,2.6528823502328374,-1.0801034871303603,3.6083182191853975,0.0,9.351302780961213,10.296833946158198,181.85991323407893,182.69013600783356,0.0
0.026000000000000002,2.590505934760688,-0.9614294932401677,3.5897992884115046,0.0,9.540812106866024,10.302648739850566,183.8393896745345,182.69013600783356,0.0
0.027,2.5447390413633375,-0.8898653174329724,2.5885685315167173,0.0,9.705266660149707,10.221293386932473,179.60795120840064,182.69013600783356,0.0
0.028,2.4864388431576616,-0.7881376638961254,4.735109612577972,0.0,9.834665822682227,10.416606203988898,183.70618055602588,182.69013600783356,0.0
0.029,2.5541746572632444,-0.7575267668235126,2.6758344932834244,0.0,9.96830642852452,10.349308040126246,179.19918030100496,182.69013600783356,0.0
0.03,2.528254163661512,-0.6807238417645274,4.964244177862174,0.0,10.073710944610552,10.57795018216794,182.59113670747587,182.69013600783356,0.0
0.031,2.628961652798031,-0.6634027392586532,3.2692559676302952,0.0,10.190301931267099,10.573598732901749,178.2771622824979,182.69013600783356,0.0
0.032,2.648001086771215,-0.602080966343562,5.470372917372638,0.0,10.28822649033577,10.839327010956115,181.34558893205636,182.69013600783356,0.0
0.033,2.7755739105600132,-0.6039879172614483,3.949605063351179,0.0,10.403754403633128,10.885136667395095,178.16013719647867,182.69013600783356,0.0
0.034,2.8332784040871615,-0.546463583592797,5.587630919253572,0.0,10.505963745031917,11.128236906159291,179.24803134869995,182.69013600783356,0.0
0.035,2.955955417914798,-0.5526709516345949,5.078104889734266,0.0,10.623520229988532,11.271902506795035,179.9690538889737,182.69013600783356,0.0
0.036000000000000004,3.0615666902781262,-0.5165453163556228,4.744804440785996,0.0,10.739651732951955,11.370998936952054,176.1436355934127,182.69013600783356,0.0
0.037,3.1398325773440297,-0.47578569570427054,6.722978592710694,0.0,10.849957426715875,11.685177900737296,177.74301743893406,182.69013600783356,0.0
0.038,3.307275753523499,-0.4942524265721555,5.9727588556390145,0.0,10.983089384083915,11.859027534414194,180.99613699398236,182.69013600783356,0.0
0.039,3.4223628063430622,-0.491516172660001,4.363139068253377,0.0,11.11980745384382,11.848264277170147,184.44960849916382,182.69013600783356,0.0
0.04,3.4118906685556416,-0.49729485195645307,2.618808590749347,0.0,11.242440408165063,11.678771803659718,185.02939120071161,182.69013600783356,0.0
0.041,3.298512773153938,-0.49198806490784874,2.305524688046667,0.0,11.33521928633483,11.533840795526517,189.5329248740831,182.69013600783356,0.0
0.042,3.1830578151104834,-0.49757219070628866,-0.0146700373015749,0.0,11.404894497582609,11.17215846169309,189.89600250879835,182.69013600783356,0.0
0.043000000000000003,2.9850899120693186,-0.4394426914111398,-0.268267519668842,0.0,11.424983868141819,10.869540026314967,190.23942560253732,182.69013600783356,0.0
0.044,2.7957411896894344,-0.4152681889243195,-0.5154719624853681,0.0,11.410724557826697,10.593384538075803,191.0396631479456,182.69013600783356,0.0
0.045,2.6326005317106924,-0.39647582735015385,-0.9990860065906215,0.0,11.368450214970881,10.3087451523595,191.49233149647984,182.69013600783356,0.0
0.046,2.471733306860343,-0.3856633904287574,-1.3134421357442072,0.0,11.300937923383406,10.034663225317153,191.6677805061212,182.69013600783356,0.0
0.047,2.3219263612607888,-0.3784430916980971,-1.4909430855477686,0.0,11.212082559759287,9.779726810400877,191.56756487182076,182.69013600783356,0.0
0.048,2.1856547184306243,-0.37880234255311573,-1.52960955703742,0.0,11.106730811587305,9.55241200950332,191.3287789253181,182.69013600783356,0.0
0.049,2.067280009838143,-0.38644360753577534,-1.4966030129609282,0.0,10.990019704782307,9.3529693999585,190.97890239281892,182.69013600783356,0.0
0.05,1.9662073763917045,-0.4010865059463129,-1.404552410561199,0.0,10.866569753878665,9.18152968410405,190.63325320090811,182.69013600783356,0.0
0.051000000000000004,1.8817462954491093,-0.42135804405122024,-1.3111589865365398,0.0,10.740404266687374,9.03252170793262,190.2724577677464,182.69013600783356,0.0
0.052000000000000005,1.8103066251631383,-0.44532139276928195,-1.2065844875548124,0.0,10.61438778357601,8.90338099422898,189.8991609637359,182.69013600783356,0.0
0.053,1.749686827769703,-0.4713935285690538,-1.0920263351085895,0.0,10.49068717885621,8.792062136374247,189.520564185914,182.69013600783356,0.0
0.054,1.6980770807880026,-0.49873163945509014,-0.971032227978438,0.0,10.370971219662383,8.69673974828692,189.13867315348895,182.69013600783356,0.0
0.055,1.6542009727977043,-0.5263142246477649,-0.8445720832224688,0.0,10.256455320841539,8.61598895234991,188.76494847602044,182.69013600783356,0.0
0.056,1.6170152383415028,-0.553513574987605,-0.7184578691700798,0.0,10.148032034994534,8.548121277933001,188.40656135794978,182.69013600783356,0.0
0.057,1.585535771887976,-0.5796580703688292,-0.5964285636359161,0.0,10.046268211279076,8.491451007806644,188.0799787521279,182.69013600783356,0.0
0.058,1.5588995562292116,-0.6040683107136,-0.4870356881679103,0.0,9.95143742440664,8.443699494625442,187.79175142696727,182.69013600783356,0.0
0.059000000000000004,1.5360520829877573,-0.6260123108482278,-0.39393817977893786,0.0,9.86348430251469,8.402633711143197,187.51523102204376,182.69013600783356,0.0
0.06,1.5159765091796995,-0.6448798532418382,-0.3039289274592889,0.0,9.782075904125657,8.367829074877722,187.14573621333756,182.69013600783356,0.0
0.061,1.4981713208774385,-0.661203373981922,-0.16373752516122497,0.0,9.70693479380646,8.344642839104656,186.61284821888654,182.69013600783356,0.0
0.062,1.484972162027763,-0.6767080746790791,0.06347934995375315,0.0,9.638531452811158,8.341126913707079,186.07333164466297,182.69013600783356,0.0
0.063,1.4810281149974827,-0.6923452968469002,0.2994056806972436,0.0,9.578181900807119,8.355103827965202,185.65804928811227,182.69013600783356,0.0
0.064,1.4848946932081828,-0.7093877400188631,0.47736772616980905,0.0,9.526983291956533,8.378399893218173,185.01919733440005,182.69013600783356,0.0
0.065,1.4937022002487226,-0.7239911087918023,0.7735030897602537,0.0,9.484670096649609,8.424111600608661,184.60464661097936,182.69013600783356,0.0
0.066,1.5147521856537756,-0.7354332564555032,0.9616333454391404,0.0,9.452271994167699,8.47652636889403,184.32858754559751,182.69013600783356,0.0
0.067,1.536291560787153,-0.7499057724562929,1.0832783627524227,0.0,9.42983273404597,8.529800668039723,183.90962322792714,182.69013600783356,0.0
0.068,1.5619052763282435,-0.7534498231820936,1.2805656493866733,0.0,9.41520995027081,8.593386647657123,185.3622106030663,182.69013600783356,0.0
0.069,1.5902409344148924,-0.7577103667423958,0.5275512158647659,0.0,9.408841262119287,8.561486505147393,184.2813746695828,182.69013600783356,0.0
0.07,1.5707944773966374,-0.746685624404269,1.0520567959890301,0.0,9.398664101439142,8.599787733075246,182.13518747459713,182.69013600783356,0.0
0.07100000000000001,1.5856659853494441,-0.7335987547586347,2.130699878814223,0.0,9.39200547138216,8.744816475006836,183.12921983860647,182.69013600783356,0.0
0.07200000000000001,1.6561213845313059,-0.7392128519619805,1.6292928585018227,0.0,9.40126399791286,8.801133897846476,184.21530074705456,182.69013600783356,0.0
0.073,1.684069000752363,-0.7414052496453467,1.0710007568855717,0.0,9.415413436847587,8.793977686288063,181.04019934349796,182.69013600783356,0.0
0.074,1.6839962109116693,-0.7159092219322019,2.675050825307226,0.0,9.424605823707722,8.971267951366197,181.46898433459916,182.69013600783356,0.0
0.075,1.770361977440358,-0.7159207268133975,2.4728698464889716,0.0,9.450864224203723,9.083967058051744,183.1945005721764,182.69013600783356,0.0
0.076,1.8288662043180333,-0.720964329574656,1.605068082056924,0.0,9.486321376573601,9.089013902527729,179.64385969631533,182.69013600783356,0.0
0.077,1.8391849546269992,-0.6932513636361717,3.410851283102638,0.0,9.515638635873243,9.303865927287248,180.81097876757144,182.69013600783356,0.0
0.078,1.945598394040006,-0.6937958910844445,2.846083319877204,0.0,9.563846399397574,9.408379876703183,181.6550823760908,182.69013600783356,0.0
0.079,2.002827430636363,-0.693593298759531,2.434382051934951,0.0,9.61765705108084,9.462392688057093,177.7292505237138,182.69013600783356,0.0
0.08,2.0426897956964467,-0.6600192473613192,4.446906832964649,0.0,9.667796799000614,9.738067452245982,181.13575044148098,182.69013600783356,0.0
0.081,2.1770987151714905,-0.6757543692567243,2.7592007297445855,0.0,9.74255665246978,9.771029438151807,178.08569160127715,182.69013600783356,0.0
0.082,2.210817591235083,-0.6503388599791795,4.3302745939120655,0.0,9.810183661943123,9.995501409732341,180.01978391503627,182.69013600783356,0.0
0.083,2.328049609737058,-0.6418420315986946,3.389931957960477,0.0,9.892814671598108,10.072582123231225,177.75493548183158,182.69013600783356,0.0
0.084,2.3791271639106415,-0.6229604578139888,4.571708179822842,0.0,9.972898646804971,10.28517046633602,179.4876121772949,182.69013600783356,0.0
0.085,2.4972754958783967,-0.6075424106563007,3.737395070396573,0.0,10.06472588935213,10.368430627420793,176.43007738231168,182.69013600783356,0.0
0.08600000000000001,2.555296363010575,-0.5841587034900708,5.328763054143398,0.0,10.153278396436344,10.630740293893352,179.29631856097564,182.69013600783356,0.0
0.08700000000000001,2.6957526591768795,-0.5833148751501255,3.9295806392799992,0.0,10.259347635413656,10.69098051504767,175.47486498382784,182.69013600783356,0.0
0.088,2.7571371357352463,-0.5406312935640726,5.912460138093953,0.0,10.356147216917602,10.982564477542692,178.04602830231522,182.69013600783356,0.0
0.089,2.905347365601581,-0.5560996975788246,4.673319555905447,0.0,10.474553596778142,11.082846462390023,177.21620470456398,182.69013600783356,0.0
0.09,2.9950811354212172,-0.5109100313696864,5.142970667813764,0.0,10.586021989814206,11.240605302488976,174.63905350259085,182.69013600783356,0.0
0.091,3.0883951225958346,-0.4965567666928521,6.5120570938527536,0.0,10.700992465104202,11.530270892735835,177.07793053462564,182.69013600783356,0.0
0.092,3.2526309025811404,-0.5004855026609868,5.348740632567441,0.0,10.834008145493145,11.643678500558599,177.8703518390864,182.69013600783356,0.0
0.093,3.3521325649759084,-0.4587054628588785,5.000727822024533,0.0,10.960427926887556,11.723095846027539,178.98945534628922,182.69013600783356,0.0
0.094,3.378004096016304,-0.4869158327724125,4.4781828750385655,0.0,11.085668405777932,11.7513627672355,184.55245036001892,182.69013600783356,0.0
0.095,3.35835420177414,-0.530569853590658,1.6780622246518595,0.0,11.205731367490937,11.488959425816068,187.0788297413376,182.69013600783356,0.0
0.096,3.2144578300818174,-0.48781774196028166,0.370985596657488,0.0,11.282408426403176,11.164657594078106,186.83434493622477,182.69013600783356,0.0
0.097,3.0146145331034537,-0.4501481029626225,0.4517859099299848,0.0,11.315271457076953,10.922956251095771,188.41164237870504,182.69013600783356,0.0
0.098,2.854514499386818,-0.4330479719386715,-0.39407787501886604,0.0,11.319173732362465,10.630470896740999,189.40174249961024,182.69013600783356,0.0
0.099,2.686185690945747,-0.40698085849039767,-0.9562440003892316,0.0,11.290740863514873,10.331159838000355,189.77891464168601,182.69013600783356,0.0
0.1,2.514649238787164,-0.3902075902905154,-1.2157178577656453,0.0,11.233635787310472,10.053201856844346,190.02466315244186,182.69013600783356,0.0
0.101,2.359934520727385,-0.3786490821006749,-1.4119373845896512,0.0,11.15334171739203,9.793643011271616,190.01749186847573,182.69013600783356,0.0
0.10200000000000001,2.2192696963392833,-0.37617913392582686,-1.4816253012130076,0.0,11.05496506069082,9.560233151206072,189.81859016099233,182.69013600783356,0.0
0.10300000000000001,2.0964687914636757,-0.3809543434462324,-1.453458989002895,0.0,10.943635056182174,9.356223236278746,189.54567802401021,182.69013600783356,0.0
0.10400000000000001,1.9919290298913244,-0.3935511946548773,-1.3855583406736045,0.0,10.824374962169406,9.178940085311613,189.2113237065642,182.69013600783356,0.0
0.105,1.9037478302164699,-0.41206299809814634,-1.283593058937904,0.0,10.701222892327873,9.026650948896062,188.8872758036276,182.69013600783356,0.0
0.106,1.8300057921517414,-0.4350465036832563,-1.183540505427545,0.0,10.577500183408869,8.89449145939707,188.54657955868916,182.69013600783356,0.0
0.107,1.7674899545523037,-0.4606539995748638,-1.0717568184668798,0.0,10.455520785924094,8.780610649741929,188.20431600303343,182.69013600783356,0.0
0.108,1.714369136677306,-0.487829070453809,-0.9557668405910116,0.0,10.337084430060042,8.68277917359082,187.86071551150306,182.69013600783356,0.0
0.109,1.669089261551235,-0.5154934823094013,-0.8356723898625233,0.0,10.223479896762619,8.599387277354912,187.5226500842922,182.69013600783356,0.0
0.11,1.630470225460338,-0.5429252346104918,-0.7149648170216774,0.0,10.115637475805908,8.528846301136797,187.19531319233823,182.69013600783356,0.0
0.111,1.5975262340957548,-0.5694676761652808,-0.596348142889743,0.0,10.014170550371071,8.469653587560124,186.892999009728,182.69013600783356,0.0
0.112,1.5694511451035495,-0.5944921984293464,-0.4872196816035643,0.0,9.919418319155554,8.419810236673296,186.63237962111128,182.69013600783356,0.0
0.113,1.545335620357047,-0.6172705499054063,-0.3963324234279897,0.0,9.831412349412629,8.376754268372238,186.3836855893015,182.69013600783356,0.0
0.114,1.5239435307738844,-0.6372230965603379,-0.3089209033377809,0.0,9.74986837643117,8.340021669161844,186.12736610436244,182.69013600783356,0.0
0.115,1.5051159331030557,-0.654137974147232,-0.21513346183353477,0.0,9.674466651894832,8.310107550786869,185.66896353409405,182.69013600783356,0.0
0.116,1.488654695097236,-0.6692561239928363,-0.015720451961944715,0.0,9.605107535681775,8.29826468867052,185.14953832851089,182.69013600783356,0.0
0.117,1.48008598866936,-0.6847585851224878,0.2193981276228627,0.0,9.543054134104192,8.305317060127125,184.73147280092414,182.69013600783356,0.0
0.11800000000000001,1.4807233280668681,-0.7006430695253729,0.40801752348533116,0.0,9.489503578503054,8.323700007631325,184.26420999726648,182.69013600783356,0.0
0.11900000000000001,1.4860845711026314,-0.7169790064175938,0.6259081854198325,0.0,9.444784481426561,8.356388020339207,183.6801586382693,182.69013600783356,0.0
0.12,1.5002906632441473,-0.7283240475281618,0.9080336386140684,0.0,9.40889069048175,8.408681157595463,183.4056412853845,182.69013600783356,0.0
0.121,1.5223547541351539,-0.7420592145465429,1.038137262280959,0.0,9.383213010317956,8.461360757026426,183.0650299838746,182.69013600783356,0.0
0.122,1.546287252182856,-0.7498697730507387,1.204693973275489,0.0,9.366092867878919,8.520812896594311,184.13599268236771,182.69013600783356,0.0
0.123,1.5734889903587992,-0.7536715874574734,0.6547540572835953,0.0,9.356970047640273,8.507695983873573,183.83995547295999,182.69013600783356,0.0
0.124,1.5613907908993816,-0.7494720138948939,0.7912744673361951,0.0,9.34694784691747,8.517097943989047,181.55055055436006,182.69013600783356,0.0
0.125,1.563053789437669,-0.7332562271160863,1.9473727811708943,0.0,9.337126321468446,8.650059186608175,181.86443313805486,182.69013600783356,0.0
0.126,1.626272645925333,-0.7363827376113897,1.7986885180212784,0.0,9.34208914684851,8.733888456107422,183.61609053919327,182.69013600783356,0.0
0.127,1.6671368784672214,-0.7428869629027851,0.9136002721384799,0.0,9.355622816317595,8.710095339764411,180.7689198726928,182.69013600783356,0.0
0.128,1.6578961778369035,-0.7204773787659515,2.356397766740118,0.0,9.362893710697502,8.85901862826237,180.0770330500285,182.69013600783356,0.0
0.129,1.7301826634012438,-0.714845152892882,2.7284722076503263,0.0,9.383934395484548,9.012232970484252,182.18930948900916,182.69013600783356,0.0
0.13,1.8060218119810516,-0.7269468454893032,1.6773422533482345,0.0,9.419579954459413,9.025265466092181,179.77855805995318,182.69013600783356,0.0
0.131,1.8180742884087606,-0.7085755063261285,2.9118337473550273,0.0,9.45082234286367,9.186297250999322,179.4884162363102,182.69013600783356,0.0
0.132,1.901339836284416,-0.6956214512292915,3.0889218568917522,0.0,9.493802438249197,9.332446187863098,181.32788018067419,182.69013600783356,0.0
0.133,1.974550806834781,-0.7013672888340193,2.182812442981354,0.0,9.547861000470034,9.359614772671758,177.81098213461283,182.69013600783356,0.0
0.134,1.9986357028504744,-0.6718681683176729,3.9900530047442397,0.0,9.595928203316813,9.595412682298436,179.91739716206254,182.69013600783356,0.0
0.135,2.1160300123720597,-0.6735579023056258,2.964572879477093,0.0,9.663249338785416,9.668889776762889,178.7675964783611,182.69013600783356,0.0
0.136,2.1619503413661043,-0.6617729786170174,3.578698616622539,0.0,9.72987283120798,9.8156826145723,178.01479974843133,182.69013600783356,0.0
0.137,2.249346637712391,-0.6329423813958223,4.001850344181446,0.0,9.801459741711783,9.985709561194898,178.9920416580542,182.69013600783356,0.0
