timestamp,iq,id,iq_ref,id_ref,vq,vd,omega,omega_ref,r
0.0,0.0,0.0,0.0,0.0,0.0,0.0,0.0,392.14965934203207,0.0
0.001,0.0,0.0,10.0,0.0,0.0,1.0999999999999999,8.016211468870177,392.14965934203207,0.0
0.002,0.477890838803517,-0.2653177609986438,10.0,0.0,0.1391849537098508,1.937432007731613,15.680663163259352,392.14965934203207,0.0
0.003,1.1690581720911364,-0.6543286627481281,10.0,0.0,0.38833263440433474,2.6337898117874463,23.769412950531496,392.14965934203207,0.0
0.004,1.9348046234962495,-1.0864283627031286,10.0,0.0,0.7258421854125089,3.208106167185459,32.11944269103306,392.14965934203207,0.0
0.005,2.682343808571714,-1.508421949903897,10.0,0.0,1.1291307144522014,3.6841699963002372,40.60966448842092,392.14965934203207,0.0
0.006,3.3565368133045466,-1.8888758587449967,10.0,0.0,1.5773267675999159,4.086270456737652,49.13153502410403,392.14965934203207,0.0
0.007,3.9310869591917648,-2.212355074981539,10.0,0.0,2.0526914361742086,4.43652189044583,57.62394231475096,392.14965934203207,0.0
0.008,4.399665272754973,-2.475264295180327,10.0,0.0,2.5412300033213913,4.7534865346075375,66.1290486866426,392.14965934203207,0.0
0.009000000000000001,4.768828132697596,-2.681485871155557,10.0,0.0,3.0326664593253145,5.051686439609738,74.34954965083676,392.14965934203207,0.0
0.01,5.052923041668868,-2.8380392211730197,10.0,0.0,3.519937912971232,5.341651188324694,82.45952115890984,392.14965934203207,0.0
0.011,5.26874250376062,-2.9545905289657575,10.0,0.0,3.998733806481082,5.6304474157923705,90.42518724598789,392.14965934203207,0.0
0.012,5.433511622358524,-3.040330519089484,10.0,0.0,4.466795619222397,5.922277201439409,98.23135812706185,392.14965934203207,0.0
0.013000000000000001,5.562916051954673,-3.1033147380150705,10.0,0.0,4.923305093434862,6.219143393726278,105.84941981781967,392.14965934203207,0.0
0.014,5.670021485758182,-3.1502416916315332,10.0,0.0,5.368382362163321,6.521486360783283,113.27914232924427,392.14965934203207,0.0
0.015,5.76520047279184,-3.1859236605630583,10.0,0.0,5.802641947770939,6.828704123771767,120.50625928678552,392.14965934203207,0.0
0.016,5.856143358196582,-3.21353349555557,10.0,0.0,6.226877613276505,7.139574141497977,127.50822140686533,392.14965934203207,0.0
0.017,5.948321866558551,-3.2346239849163125,10.0,0.0,6.641820569483888,7.452550516936355,134.2762071028944,392.14965934203207,0.0
0.018000000000000002,6.045177824508447,-3.249852444266137,10.0,0.0,7.048031093249247,7.765991180160762,140.78786662679286,392.14965934203207,0.0
0.019,6.148846190634292,-3.258857173505402,10.0,0.0,7.445802866583333,8.078273868744924,147.02002398486084,392.14965934203207,0.0
0.02,6.26046453634361,-3.260736106811083,10.0,0.0,7.835142366813656,8.387864131437313,152.92611234261256,392.14965934203207,0.0
0.021,6.38064775372415,-3.2540986806005874,10.0,0.0,8.215758037073979,8.693325347428724,158.46986348315906,392.14965934203207,0.0
0.022,6.50971933916685,-3.2373380077577156,10.0,0.0,8.587080962156794,8.993305966622138,163.61904361151397,392.14965934203207,0.0
0.023,6.647783482737146,-3.20898693677718,10.0,0.0,8.948318645571241,9.28652447646619,168.34486030510564,392.14965934203207,0.0
0.024,6.79498597230468,-3.167602125808682,10.0,0.0,9.298485593131918,9.57173327125055,172.6081543005825,392.14965934203207,0.0
0.025,6.951303321348731,-3.112285823522817,10.0,0.0,9.636485780273206,9.84771499781337,176.4299629476039,392.14965934203207,0.0
0.026000000000000002,7.117269528509644,-3.041567592647427,10.0,0.0,9.96105827898321,10.113205461136781,179.573029325614,392.14965934203207,0.0
0.027,7.290296616878465,-2.959423260324475,10.0,0.0,10.271393879907786,10.367230810349888,182.7141783690042,392.14965934203207,0.0
0.028,7.477503595348355,-2.854311493390011,10.0,0.0,10.56535760462165,10.608024687986145,186.26665292522054,392.14965934203207,0.0
0.029,7.662014528695998,-2.7538525139364123,10.0,0.0,10.844004974557205,10.835711417446618,187.73653453734696,392.14965934203207,0.0
0.03,7.875327311648871,-2.6074184597003263,10.0,0.0,11.102453124273815,11.046874914163261,188.24394093046166,392.14965934203207,0.0
0.031,8.088117051731624,-2.4621367321025893,10.0,0.0,11.341656159197044,11.241493132600326,189.3685402913367,392.14965934203207,0.0
0.032,8.309125369359068,-2.3046195219631485,10.0,0.0,11.56052663663229,11.418386815147816,190.26592142042355,392.14965934203207,0.0
0.033,8.537210313503842,-2.136767074660127,10.0,0.0,11.758310837476827,11.576598916504434,189.72877358878674,392.14965934203207,0.0
0.034,8.772605088189158,-1.9579926127328582,10.0,0.0,11.9341511620336,11.715155652035905,190.66336796016782,392.14965934203207,0.0
0.035,9.01214489990914,-1.7730302519384389,10.0,0.0,12.08770501261973,11.833445314927559,190.4035006321169,392.14965934203207,0.0
0.036000000000000004,9.25269349343948,-1.5864875537816845,10.0,0.0,12.219062371247112,11.931196449417527,189.09758581710813,392.14965934203207,0.0
0.037,9.495442908598635,-1.3956031891737601,10.0,0.0,12.327927254335446,12.008011256589022,188.38615076921803,392.14965934203207,0.0
0.038,9.738040799004182,-1.2030506230820688,10.0,0.0,12.414315191208097,12.063772797559196,183.23392338432524,392.14965934203207,0.0
0.039,9.978034207210808,-1.0115890356298474,10.0,0.0,12.478505239531671,12.098623682120941,192.02926572940004,392.14965934203207,0.0
0.04,10.131681636181979,-0.9600216865280613,10.0,0.0,12.536003578952384,12.121907199954101,194.86608250003346,392.14965934203207,0.0
0.041,10.219143044978303,-1.0084617227280033,10.0,0.0,12.595924513687358,12.140527919268141,198.228461947795,392.14965934203207,0.0
0.042,10.273790821187774,-1.0974735285153674,10.0,0.0,12.661022325154843,12.158142018829183,202.48918264120408,392.14965934203207,0.0
0.043000000000000003,10.297951202921118,-1.2203749683451584,10.0,0.0,12.734000805755095,12.178393325352307,208.0187891512327,392.14965934203207,0.0
0.044,10.29425961840252,-1.3721691682209345,10.0,0.0,12.817174916535667,12.204565027397516,213.72584127284887,392.14965934203207,0.0
0.045,10.26749527886764,-1.54563266946648,10.0,0.0,12.91221182958096,12.239344131819921,218.29417699093798,392.14965934203207,0.0
0.046,10.220756568538203,-1.7372471005262389,10.0,0.0,13.02056591416807,12.285022631845493,222.18641873938162,392.14965934203207,0.0
0.047,10.158897493355008,-1.9408497301181562,10.0,0.0,13.143132585243551,12.343305801494084,226.8839428633861,392.14965934203207,0.0
0.048,10.084146961245612,-2.1547741110145804,10.0,0.0,13.280766561779023,12.415621289065562,232.26167335034808,392.14965934203207,0.0
0.049,9.998010868248254,-2.3784497817619576,10.0,0.0,13.434333769391348,12.503196090442056,238.3669194621303,392.14965934203207,0.0
0.05,9.902571157582504,-2.60993852736644,10.0,0.0,13.604528741689109,12.607007139685395,244.91331679821755,392.14965934203207,0.0
0.051000000000000004,9.799229541841196,-2.8479843259042523,10.0,0.0,13.791955472064537,12.727869761859054,251.80037583777857,392.14965934203207,0.0
0.052000000000000005,9.689880481058687,-3.0899468239139494,10.0,0.0,13.996961208415483,12.86638377538156,258.90734315677935,392.14965934203207,0.0
0.053,9.576097843457278,-3.3332479332697083,10.0,0.0,14.219661269532615,13.022969560715236,266.1541376569357,392.14965934203207,0.0
0.054,9.459578463742188,-3.574719101111991,10.0,0.0,14.459878720440503,13.197846079019907,273.4655157702472,392.14965934203207,0.0
0.055,9.342304564784456,-3.810458905592493,10.0,0.0,14.717078744902494,13.3909916256731,280.74909919334254,392.14965934203207,0.0
0.056,9.226695853382125,-4.035745570132503,10.0,0.0,14.990297456638206,13.60208683937185,287.88962070554305,392.14965934203207,0.0
0.057,9.115741377880655,-4.24501610041307,10.0,0.0,15.278070710255685,13.830443308065433,294.7506279956189,392.14965934203207,0.0
0.058,9.013092256098794,-4.431935319768888,10.0,0.0,15.578370694207104,14.074923313892395,301.7084521136213,392.14965934203207,0.0
0.059000000000000004,8.923303185884501,-4.589218442269564,10.0,0.0,15.888520631627593,14.333835624037562,307.1058131775368,392.14965934203207,0.0
0.06,8.85043322273792,-4.711258972072953,10.0,0.0,16.20539843337392,14.60498950215424,312.18374208658264,392.14965934203207,0.0
0.061,8.801034887064466,-4.789230030591689,10.0,0.0,16.525060253896307,14.885420889926493,316.4208494080105,392.14965934203207,0.0
0.062,8.780323224737245,-4.8175990467312095,10.0,0.0,16.843139912333847,15.171559620473023,319.6608583979361,392.14965934203207,0.0
0.063,8.794048603746413,-4.791043354371899,10.0,0.0,17.15482066166136,15.459175535494378,321.7997395149723,392.14965934203207,0.0
0.064,8.847330604430967,-4.7062123493279255,10.0,0.0,17.455029073927008,15.743474167661127,322.77421888533746,392.14965934203207,0.0
0.065,8.94444476507148,-4.561796298770554,10.0,0.0,17.738609052671904,16.019214040174163,322.55076461996595,392.14965934203207,0.0
0.066,9.088385928832274,-4.358826404203476,10.0,0.0,18.00052249289681,16.2808755369031,321.11998065671423,392.14965934203207,0.0
0.067,9.280586582113784,-4.100637076632147,10.0,0.0,18.236039611684937,16.52285956775828,318.4786679808964,392.14965934203207,0.0
0.068,9.520727661972632,-3.792648953647091,10.0,0.0,18.440906621427132,16.739703395155097,315.1156998763219,392.14965934203207,0.0
0.069,9.807198725375313,-3.4411264463164395,10.0,0.0,18.611383718358265,16.92623913461074,309.74742503843663,392.14965934203207,0.0
0.07,10.134879565139101,-3.056368632562523,10.0,0.0,18.74465854510222,17.077988828073945,304.98051534875304,392.14965934203207,0.0
0.07100000000000001,10.501405887233245,-2.642424210507813,10.0,0.0,18.83809455022963,17.190849947832504,300.0415844095314,392.14965934203207,0.0
0.07200000000000001,10.897883129784773,-2.211639860183628,10.0,0.0,18.890226232505043,17.26182132266823,296.1707014006527,392.14965934203207,0.0
0.073,11.313525311373034,-1.778016819279541,10.0,0.0,18.900851193040275,17.289152860698717,289.2106925089662,392.14965934203207,0.0
0.074,11.74196960159296,-1.3468868260664604,10.0,0.0,18.87005874248063,17.271841290871382,280.76181504320493,392.14965934203207,0.0
0.075,12.177539257638717,-0.9208027385737583,10.0,0.0,18.79805643030215,17.20955341370798,272.1526226169364,392.14965934203207,0.0
0.076,12.612507369113533,-0.5044184962218669,10.0,0.0,18.6854841358414,17.102803297341293,284.84710204542483,392.14965934203207,0.0
0.077,12.801116055324462,-0.4919283782609851,10.0,0.0,18.576283988637886,16.979073688796753,292.0714809858705,392.14965934203207,0.0
0.078,12.88236696169866,-0.6354181347594701,10.0,0.0,18.481539669694705,16.84974551354725,297.46255471657815,392.14965934203207,0.0
0.079,12.883506563151744,-0.8746134610359098,10.0,0.0,18.40821355344631,16.724562876832287,303.5301717561388,392.14965934203207,0.0
0.08,12.814409619148961,-1.1833822401288898,10.0,0.0,18.361274397588723,16.61217795201883,309.84274036397153,392.14965934203207,0.0
0.081,12.684566582907168,-1.542168324761342,10.0,0.0,18.344169446354197,16.519929368647514,316.4538301419841,392.14965934203207,0.0
0.082,12.503728656522814,-1.9353524384011864,10.0,0.0,18.35921252356005,16.45378889002975,323.4868558494742,392.14965934203207,0.0
0.083,12.281433184357327,-2.3504466132348045,10.0,0.0,18.407865763278835,16.418410889668696,330.8892693226895,392.14965934203207,0.0
0.084,12.02694773515385,-2.7768354474289576,10.0,0.0,18.490867709002657,16.417206458006362,337.989241841966,392.14965934203207,0.0
0.085,11.748191766012262,-3.206663852579199,10.0,0.0,18.608466253212445,16.452540966196178,345.2733398348131,392.14965934203207,0.0
0.08600000000000001,11.454596237304456,-3.6292229648022665,10.0,0.0,18.760021612113277,16.525609826454442,352.3454712885564,392.14965934203207,0.0
0.08700000000000001,11.15439880529103,-4.035254513308,10.0,0.0,18.944166200363252,16.636613098811353,359.5500396147528,392.14965934203207,0.0
0.088,10.855927898316516,-4.414893453917276,10.0,0.0,19.15869662500588,16.784760328204644,367.64201562533117,392.14965934203207,0.0
0.089,10.571022150951581,-4.752027508721158,10.0,0.0,19.399877086745917,16.96790080026325,374.46068457902237,392.14965934203207,0.0
0.09,10.310984675383247,-5.031624345657878,10.0,0.0,19.6626378610328,17.18260033612888,379.1897829192777,392.14965934203207,0.0
0.091,10.085830722769977,-5.241843444384205,10.0,0.0,19.94092064396809,17.424272555868402,383.46750886013706,392.14965934203207,0.0
0.092,9.902918144863966,-5.377059085465824,10.0,0.0,20.228313900115523,17.687474675971036,386.2712262675742,392.14965934203207,0.0
0.093,9.781115753448056,-5.4141355877996205,10.0,0.0,20.51601430150437,17.96466504695484,387.68171604676087,392.14965934203207,0.0
0.094,9.721446887007993,-5.361117501490643,9.717252676001511,0.0,20.796460945335397,18.21714976673356,386.4813887453806,392.14965934203207,0.0
0.095,9.730854828831069,-5.189182380867731,10.0,0.0,21.05572871435575,18.504728795532387,383.6871906109195,392.14965934203207,0.0
0.096,9.821828937996361,-4.933766157005515,10.0,0.0,21.29145117593535,18.776736152523444,379.74382040643985,392.14965934203207,0.0
0.097,10.003216673846929,-4.5845305437131465,10.0,0.0,21.49494037183255,19.026072110121433,373.67308286682976,392.14965934203207,0.0
0.098,10.262590949348876,-4.167742158493375,10.0,0.0,21.660659877658578,19.244106098602643,367.74408209906034,392.14965934203207,0.0
0.099,10.60546711602958,-3.6791686212881753,10.0,0.0,21.782035626509753,19.421786003238466,359.6520868017763,392.14965934203207,0.0
0.1,11.014622971296847,-3.147400038757723,10.0,0.0,21.855432982233083,19.552257109883232,350.75925305553494,392.14965934203207,0.0
0.101,11.48097022040415,-2.585454346355596,10.0,0.0,21.878041372709646,19.629814202586736,341.6709147364735,392.14965934203207,0.0
0.10200000000000001,11.991172111163232,-2.0095072827627574,10.0,0.0,21.848409913337697,19.6504176895751,333.63096070555986,392.14965934203207,0.0
0.10300000000000001,12.530804016656575,-1.4343877420713467,10.0,0.0,21.766298269761656,19.61174019123077,322.26573457813373,392.14965934203207,0.0
0.10400000000000001,13.087865221467384,-0.8684118834787098,10.0,0.0,21.632023891670514,19.51283886488901,316.34415434879827,392.14965934203207,0.0
0.105,13.644105860612214,-0.32816243893950237,10.0,0.0,21.447519138440924,19.354784375114495,331.6311788462544,392.14965934203207,0.0
0.106,13.861866777374097,-0.34603076614207673,10.0,0.0,21.273027421994513,19.175693564542108,337.42886861596287,392.14965934203207,0.0
0.107,13.95542939259189,-0.5435414852838587,10.0,0.0,21.119623291969074,18.988948384875982,344.402064944541,392.14965934203207,0.0
0.108,13.940699696752679,-0.8688854089481106,10.0,0.0,20.99669778139122,18.808093202868417,351.56061574241403,392.14965934203207,0.0
0.109,13.829113636095618,-1.2876385450740506,10.0,0.0,20.91078870940761,18.645158157717706,359.0566815095547,392.14965934203207,0.0
0.11,13.634322938628111,-1.7703444280406968,10.0,0.0,20.866087155872354,18.51023682599856,367.0483806310222,392.14965934203207,0.0
0.111,13.370305831881844,-2.293289214245207,10.0,0.0,20.865060492171544,18.411431446865222,375.4086578331531,392.14965934203207,0.0
0.112,13.051172778803275,-2.8367126919324446,10.0,0.0,20.908803091611023,18.35486840404631,383.953092447385,392.14965934203207,0.0
0.113,12.69114352306784,-3.3830694721906402,10.0,0.0,20.9971801378762,18.344747813053353,392.4539964818406,392.14965934203207,0.0
0.114,12.30475923835146,-3.915390556353713,8.014138756239022,0.0,21.128799171870924,18.164934227733944,398.7898233751984,392.14965934203207,0.0
0.115,11.814099144926068,-4.364680751805452,4.779823669228449,0.0,21.27337365459228,17.730456624642024,401.40376856232376,392.14965934203207,0.0
0.116,11.138056355826887,-4.653657286047205,3.3803099834628565,0.0,21.387337445544393,17.30173898143399,401.57454477759916,392.14965934203207,0.0
0.117,10.344020842632508,-4.783742302285944,3.2006730214694876,0.0,21.458452679524342,17.00210803124073,400.1463335636391,392.14965934203207,0.0
0.11800000000000001,9.54162684814351,-4.787322650770853,3.8348118862334593,0.0,21.49158628325791,16.89142632847062,397.98835921663544,392.14965934203207,0.0
0.11900000000000001,8.840142629698015,-4.705033418901377,4.855412060989241,0.0,21.50125073735062,16.97019011101048,394.43717408325045,392.14965934203207,0.0
0.12,8.319219441834688,-4.571085371993339,6.608129480269552,0.0,21.503913731446858,17.274923583559413,391.634788204042,392.14965934203207,0.0
0.121,8.046737564194695,-4.429166704037278,8.014471131253668,0.0,21.522512200382288,17.711384190340304,389.6381955505919,392.14965934203207,0.0
0.122,8.034131668059375,-4.282779747943382,9.037882095893139,0.0,21.568213504611478,18.20323220273562,387.3474367977896,392.14965934203207,0.0
0.123,8.258940112715928,-4.113400649952867,10.0,0.0,21.64136164843928,18.72120941624612,383.3324814341331,392.14965934203207,0.0
0.124,8.674804356583651,-3.932344874910827,10.0,0.0,21.740770354960627,19.141585561368398,382.4701574765286,392.14965934203207,0.0
0.125,9.225090804196007,-3.6762431488133167,10.0,0.0,21.84591517322176,19.4734920958319,374.14543113408973,392.14965934203207,0.0
0.126,9.844682083510003,-3.3556265232349904,10.0,0.0,21.94102935155049,19.720070282426743,365.8115320979244,392.14965934203207,0.0
0.127,10.501196030000168,-2.967180901045266,10.0,0.0,22.01176707852074,19.885481446874195,357.10005589085466,392.14965934203207,0.0
0.128,11.173125724175577,-2.5167373268577533,10.0,0.0,22.04630781229999,19.974078140679545,347.8942245842669,392.14965934203207,0.0
0.129,11.843861306556752,-2.019836765454915,10.0,0.0,22.036099516069406,19.9902076213621,337.7901978570405,392.14965934203207,0.0
0.13,12.503916396146032,-1.490863376301209,10.0,0.0,21.97530693033726,19.937804620322332,326.93963291343994,392.14965934203207,0.0
0.131,13.14432485553554,-0.9479140534826511,10.0,0.0,21.86091861145585,19.820718281176376,315.4793110111285,392.14965934203207,0.0
0.132,13.756943705231365,-0.40892360723781174,10.0,0.0,21.692401034689233,19.642917755184232,332.64058095311674,392.14965934203207,0.0
0.133,14.029475787342012,-0.38452127520750956,10.0,0.0,21.525660810939176,19.442193183579423,341.33984213984695,392.14965934203207,0.0
0.134,14.137748194485969,-0.5710929134307161,10.0,0.0,21.37628905592851,19.235682402795362,348.4261893571731,392.14965934203207,0.0
0.135,14.123691021823717,-0.887844729838771,10.0,0.0,21.25418038176315,19.037514537652925,356.09448717873806,392.14965934203207,0.0
0.136,14.003409450463472,-1.3014861214714113,10.0,0.0,21.166798823415593,18.860042992731202,363.47528505119897,392.14965934203207,0.0
0.137,13.794074755215785,-1.783119491413613,10.0,0.0,21.119251523187938,18.71340444723053,371.5207293291732,392.14965934203207,0.0
0.138,13.512685978231607,-2.3082417042893733,10.0,0.0,21.114742208149895,18.605534444772957,380.0319575428303,392.14965934203207,0.0
0.139,13.175347643401215,-2.8562526619341106,10.0,0.0,21.154926807582058,18.542293840118838,388.67544720894574,392.14965934203207,0.0
0.14,12.797308480146498,-3.4091284909351147,10.0,0.0,21.240105118219255,18.52760668048305,397.24424737295743,392.14965934203207,0.0
0.14100000000000001,12.39420046672471,-3.9484428817571064,5.758191731542091,0.0,21.369092706529564,18.09686864818805,401.47506953144324,392.14965934203207,0.0
0.14200000000000002,11.782507906440335,-4.346620022562611,3.5495265504050746,0.0,21.48051407435973,17.584823192210145,402.937507702534,392.14965934203207,0.0
0.14300000000000002,10.990852261747838,-4.580837337099171,2.7104289812546796,0.0,21.55137089300005,17.145875533131207,402.3292070086148,392.14965934203207,0.0
0.14400000000000002,10.117241227979527,-4.669962034382637,2.912783851548454,0.0,21.578708807424267,16.876738990515612,400.4036052190204,392.14965934203207,0.0
0.145,9.280440926237034,-4.6527492201313665,3.7930452875757688,0.0,21.573614619604026,16.815367025718047,398.0209637532693,392.14965934203207,0.0
0.146,8.585378687498455,-4.569075477749467,4.9256529763389345,0.0,21.553860670566557,16.94349591326571,394.46211040053424,392.14965934203207,0.0
0.147,8.09863895563083,-4.449161989714892,6.681955142121448,0.0,21.53654125892761,17.28529442662136,391.7518315441133,392.14965934203207,0.0
