timestamp,iq,id,iq_ref,id_ref,vq,vd,omega,omega_ref,r
0.0,0.0,0.0,0.0,0.0,0.0,0.0,0.0,241.27316965915975,0.0
0.001,0.0,0.0,10.0,0.0,0.0,1.0999999999999999,7.737850934809859,241.27316965915975,0.0
0.002,0.6420078475962474,-0.34298600269149043,10.0,0.0,0.14772846029606387,1.9193791367644126,15.418682895125242,241.27316965915975,0.0
0.003,1.3386013281157305,-0.7162924202206219,10.0,0.0,0.4002558341402523,2.60138800150081,23.434098597392545,241.27316965915975,0.0
0.004,1.9442403449737033,-1.03635488154429,10.0,0.0,0.7272051636439738,3.1807943600988042,31.62723804132192,241.27316965915975,0.0
0.005,2.427671510989795,-1.2855048143053367,10.0,0.0,1.1036060640476009,3.68783397769418,39.96985555147251,241.27316965915975,0.0
0.006,2.801137657298585,-1.471261663999705,10.0,0.0,1.511012590309173,4.145562759136575,48.32426799634336,241.27316965915975,0.0
0.007,3.0890300466888925,-1.6077946470408095,10.0,0.0,1.936612401726405,4.570325813691041,56.662415517198106,241.27316965915975,0.0
0.008,3.3150786476894227,-1.7088664656019792,10.0,0.0,2.3718811076686785,4.973186121715631,64.96542247156789,241.27316965915975,0.0
0.009000000000000001,3.4982840437061014,-1.7855356495485164,10.0,0.0,2.811331865867691,5.361395161980159,73.15951583941359,241.27316965915975,0.0
0.01,3.6526983695874278,-1.8455231550398072,10.0,0.0,3.2514903860378315,5.739574852151356,81.36270645167772,241.27316965915975,0.0
0.011,3.788003266435117,-1.8941302384303007,10.0,0.0,3.6901979273261194,6.110613029928015,89.40130622432665,241.27316965915975,0.0
0.012,3.9106966784346393,-1.9347133405821209,10.0,0.0,4.126116602666039,6.476274917704365,97.31027216024462,241.27316965915975,0.0
0.013000000000000001,4.025049221702792,-1.96928476952678,10.0,0.0,4.558406625411997,6.837610638597572,104.95210759885504,241.27316965915975,0.0
0.014,4.133829321643961,-1.9989936524941467,10.0,0.0,4.986523480809642,7.195219504115207,112.6419145255545,241.27316965915975,0.0
0.015,4.239086135807937,-2.024022802700726,10.0,0.0,5.410045654912337,7.549388720062217,120.17636541351419,241.27316965915975,0.0
0.016,4.34208324059194,-2.0445297693429647,10.0,0.0,5.828638008028041,7.900216118440192,127.50972453355412,241.27316965915975,0.0
0.017,4.443823450522843,-2.060315498426322,10.0,0.0,6.241985226202724,8.247658560247386,134.61418544690684,241.27316965915975,0.0
0.018000000000000002,4.545166131763772,-2.0709727186918485,10.0,0.0,6.649756403679031,8.591561186854133,141.48299929279204,241.27316965915975,0.0
0.019,4.646904114285917,-2.0759761005155624,10.0,0.0,7.051584525866334,8.931672917282809,148.083940802993,241.27316965915975,0.0
0.02,4.749786191002685,-2.074780003083402,10.0,0.0,7.447059404341999,9.267656638273726,154.40294764465577,241.27316965915975,0.0
0.021,4.854490439846997,-2.0669427920046197,10.0,0.0,7.835735034824846,9.599100828407407,160.40607479238176,241.27316965915975,0.0
0.022,4.96166613417698,-2.052100667041897,10.0,0.0,8.217133259637666,9.925525878688154,166.04492893394502,241.27316965915975,0.0
0.023,5.072151425465952,-2.0296254844349453,10.0,0.0,8.590710318160138,10.246366621323617,171.30683664639312,241.27316965915975,0.0
0.024,5.186669455445797,-1.99912669101885,10.0,0.0,8.95588362964421,10.560988865162894,176.18260768010853,241.27316965915975,0.0
0.025,5.305883425505332,-1.960355325886384,10.0,0.0,9.312041972133393,10.868697859359898,180.66766120210332,241.27316965915975,0.0
0.026000000000000002,5.430392386523611,-1.913192033174697,10.0,0.0,9.658555131246398,11.168747942374704,184.76613263676117,241.27316965915975,0.0
0.027,5.560709863224155,-1.8576567749830353,10.0,0.0,9.994784737275612,11.460354500172452,188.4931130201552,241.27316965915975,0.0
0.028,5.697243889035701,-1.793912821535948,10.0,0.0,10.320095556184423,11.742707794721081,191.869238112992,241.27316965915975,0.0
0.029,5.840360586835308,-1.7221318215232273,10.0,0.0,10.633852152190283,12.01497934520589,194.8708957647768,241.27316965915975,0.0
0.03,5.9901151023980175,-1.6429055667580434,10.0,0.0,10.935463165619996,12.2763575705089,197.29300505935208,241.27316965915975,0.0
0.031,6.1446386243469595,-1.5599040635604093,10.0,0.0,11.224712997432949,12.526259032365818,198.79639509903032,241.27316965915975,0.0
0.032,6.304034128363409,-1.473500160449923,10.0,0.0,11.501353577940128,12.764107060996029,200.24058535148535,241.27316965915975,0.0
0.033,6.47191036496676,-1.3780318989582003,10.0,0.0,11.764477433526618,12.988961913827726,201.43995880797775,241.27316965915975,0.0
0.034,6.645045498993569,-1.2787803027257612,10.0,0.0,12.013811395866984,13.200277564557998,202.08138912123513,241.27316965915975,0.0
0.035,6.8231880187751734,-1.176199479265534,10.0,0.0,12.249052152428035,13.397530720613558,202.0839159138644,241.27316965915975,0.0
0.036000000000000004,7.0057596849976225,-1.0710542754197068,10.0,0.0,12.469953984750097,13.580281178633022,201.97781028353222,241.27316965915975,0.0
0.037,7.192149476376229,-0.9639809680133733,10.0,0.0,12.676314067865665,13.748169613693317,201.56612262604622,241.27316965915975,0.0
0.038,7.3819006319538785,-0.8551842511055403,10.0,0.0,12.8679300803899,13.900896484359386,204.44346247235842,241.27316965915975,0.0
0.039,7.54485825486938,-0.7949666332659895,10.0,0.0,13.050121207935055,14.041484442246345,210.89389648078375,241.27316965915975,0.0
0.04,7.633908641441246,-0.8509071514694315,10.0,0.0,13.234907651695162,14.178066750805371,217.07547843796257,241.27316965915975,0.0
0.041,7.69436745287582,-0.9411362330295701,10.0,0.0,13.42423947572474,14.313709507492424,223.22205270811634,241.27316965915975,0.0
0.042,7.733426737091346,-1.0527908317032124,10.0,0.0,13.619582108058566,14.451029237764363,229.8799416046395,241.27316965915975,0.0
0.043000000000000003,7.759692503875652,-1.171778592548208,10.0,0.0,13.821094557892415,14.591652616738378,236.74520806691447,241.27316965915975,0.0
0.044,7.773759096949862,-1.2979706326961922,7.612980245517303,0.0,14.029209347448111,14.474508062234955,241.95263482381282,241.27316965915975,0.0
0.045,7.6179408433915485,-1.3615061971705846,5.0024722154216,0.0,14.210525194288598,14.143884430193904,245.51092662658388,241.27316965915975,0.0
0.046,7.271426300044363,-1.337145403396125,3.1809487443618263,0.0,14.337332050280997,13.726750661757992,248.08272977987315,241.27316965915975,0.0
0.047,6.802236237759511,-1.268317550701504,1.8269515665100577,0.0,14.402417387971893,13.281432262329675,249.93437093410742,241.27316965915975,0.0
0.048,6.284084973412833,-1.1763566353986983,0.8145189766434457,0.0,14.407034929794518,12.84163136196176,250.76873425199386,241.27316965915975,0.0
0.049,5.7638450210094465,-1.085628310334176,0.3023816717718839,0.0,14.358150120794015,12.452106410296597,250.9161469769184,241.27316965915975,0.0
0.05,5.286873505445065,-1.015695146325171,0.1322455361320225,0.0,14.268415932736696,12.130316338214277,250.74927023037495,241.27316965915975,0.0
0.051000000000000004,4.880238188911803,-0.9745287364719528,0.12092290369160352,0.0,14.151647182833118,11.87214789598543,250.37464460430778,241.27316965915975,0.0
0.052000000000000005,4.548884168766277,-0.9612310619201774,0.21722096727370932,0.0,14.019687383594848,11.671208025358213,249.87564430312167,241.27316965915975,0.0
0.053,4.28785878689897,-0.9709619839925945,0.3806963714271401,0.0,13.88203295539117,11.519584727494905,249.3101798126916,241.27316965915975,0.0
0.054,4.087906037379535,-0.9973879232816829,0.5830585151068659,0.0,13.7457911843226,11.409367946989253,248.69934281725654,241.27316965915975,0.0
0.055,3.938759688062349,-1.0340621415945215,0.8142152812434231,0.0,13.615921816931847,11.334358861195234,248.03470604163996,241.27316965915975,0.0
0.056,3.831440865206397,-1.0754542324873686,1.0789183052269067,0.0,13.495724865515848,11.290983119239339,247.3230062521214,241.27316965915975,0.0
0.057,3.759474356857146,-1.1177481885883562,1.3742698340565784,0.0,13.387448449308044,11.276610021958724,246.5781916065731,241.27316965915975,0.0
0.058,3.718715486922667,-1.1576714851383358,1.6936269373565818,0.0,13.292530988052444,11.288786169469391,245.91409099929405,241.27316965915975,0.0
0.059000000000000004,3.7050047254507517,-1.1947399817304578,1.979268027594772,0.0,13.212001189333105,11.3195805000592,245.38980930979503,241.27316965915975,0.0
0.06,3.7130176265055783,-1.2249040394206987,2.2002424758379293,0.0,13.145551164924695,11.35967466939171,244.5234719521392,241.27316965915975,0.0
0.061,3.7349278751401607,-1.2453407534701533,2.6009081317360465,0.0,13.0917019578589,11.42864789867723,243.23604479167878,241.27316965915975,0.0
0.062,3.780484593762665,-1.26000132611263,3.2249929606410683,0.0,13.051543290278417,11.545189422386064,242.45965898572868,241.27316965915975,0.0
0.063,3.8650068126910155,-1.2752823025021462,3.601320970350428,0.0,13.028588943503298,11.672374282849049,241.75391032687546,241.27316965915975,0.0
0.064,3.9698702803614405,-1.2872260200475152,3.9493878930998836,0.0,13.021809516618077,11.808379544739108,240.72568690989843,241.27316965915975,0.0
0.065,4.091416648532034,-1.286808328576657,4.46897442908101,0.0,13.02914317537314,11.971458721660008,240.29226567924798,241.27316965915975,0.0
0.066,4.236698367013238,-1.2811806760897375,4.695494084205355,0.0,13.05143652108593,12.123919118116966,239.76146947643693,241.27316965915975,0.0
0.067,4.385037497219472,-1.265764387624799,4.976009187438106,0.0,13.085107056666864,12.277089787165991,238.6891169733518,241.27316965915975,0.0
0.068,4.537918443259837,-1.2398043848390476,5.538025965838757,0.0,13.128026168172823,12.46199362469757,236.89793860737007,241.27316965915975,0.0
0.069,4.716853456875705,-1.209335090995098,6.477367459347515,0.0,13.182051729986366,12.712252344091205,236.77119916578053,241.27316965915975,0.0
0.07,4.946241458418894,-1.1920800275174852,6.585756885076074,0.0,13.254107243513825,12.921973839588293,236.17734943846736,241.27316965915975,0.0
0.07100000000000001,5.173948444938266,-1.1623517468329188,6.9336399509395825,0.0,13.336831794997721,13.132358091374423,235.25711540483385,241.27316965915975,0.0
0.07200000000000001,5.405818588451844,-1.1213560498103825,7.453917510299594,0.0,13.428110072646204,13.36049942807999,234.47594183935348,241.27316965915975,0.0
0.073,5.652957104007152,-1.0785891247705974,7.9124765712378435,0.0,13.528780251416237,13.59532664471351,233.02267785152594,241.27316965915975,0.0
0.074,5.915873423992274,-1.0309966257960061,8.721613483227951,0.0,13.638058628335822,13.874708217227399,231.90141901571505,241.27316965915975,0.0
0.075,6.212521468402445,-0.9959158976200659,9.375960407567845,0.0,13.760964369705231,14.170964141054082,231.26136084479623,241.27316965915975,0.0
0.076,6.539777146694546,-0.9605044546349024,9.79610758117089,0.0,13.897660677873754,14.456526122319941,230.22805160734922,241.27316965915975,0.0
0.077,6.874292822213687,-0.9215478817211067,10.0,0.0,14.045312444761345,14.711904063087056,229.01654685486614,241.27316965915975,0.0
0.078,7.199624799137515,-0.8671882515308542,10.0,0.0,14.198146835445097,14.92202910157149,227.52222496014625,241.27316965915975,0.0
0.079,7.50003329425039,-0.7927308483665209,10.0,0.0,14.349063572862747,15.096633460582682,225.90100854947224,241.27316965915975,0.0
0.08,7.776220806046085,-0.701621316287962,10.0,0.0,14.493071597942752,15.241492516088124,228.0633810741776,241.27316965915975,0.0
0.081,8.00200851114071,-0.6508150737216747,10.0,0.0,14.632487134703794,15.364191696108572,234.75287408817465,241.27316965915975,0.0
0.082,8.116982217796147,-0.7399336371332856,8.603466160207294,0.0,14.780542140191713,15.32455455874473,239.51966041881926,241.27316965915975,0.0
0.083,8.089818615173298,-0.8293796220236684,6.237608087288394,0.0,14.918775804098289,15.061545319397972,243.43936365950236,241.27316965915975,0.0
0.084,7.87000931035254,-0.8579783837726767,4.256094526943416,0.0,15.019136581623014,14.668259846971848,246.32567646697822,241.27316965915975,0.0
0.085,7.495759057227003,-0.8380488590738304,2.7624130551273014,0.0,15.067654498818293,14.218818608040094,248.63777047022595,241.27316965915975,0.0
0.08600000000000001,7.036346971362207,-0.7885447141059492,1.5327200453927787,0.0,15.06113033970139,13.74563669528227,249.8504021176394,241.27316965915975,0.0
0.08700000000000001,6.537386377156247,-0.732441888966793,0.8406318971012592,0.0,15.002264135904765,13.305579336177829,250.5671072827142,241.27316965915975,0.0
0.088,6.053354423061635,-0.69022538489464,0.38933993832830804,0.0,14.901196029380815,12.909173767630405,250.91623304172938,241.27316965915975,0.0
0.089,5.6116270598180265,-0.6685047291374508,0.11834642499502124,0.0,14.768627069561946,12.560755268822245,250.92690491779132,241.27316965915975,0.0
0.09,5.222759929239672,-0.6694466488224546,0.016473134377738674,0.0,14.614793973567075,12.263783707809637,250.70591125676282,241.27316965915975,0.0
0.091,4.890844671087755,-0.6918585053100978,0.03264254891595897,0.0,14.449102916087215,12.016545368895102,250.3573653591886,241.27316965915975,0.0
0.092,4.614310396498623,-0.7322372006279556,0.11607354070277687,0.0,14.27947466838398,11.81357709069849,249.93894510460495,241.27316965915975,0.0
0.093,4.387392367342199,-0.7855794170741093,0.23862591354015006,0.0,14.1119762744873,11.64878490710677,249.44882635373068,241.27316965915975,0.0
0.094,4.202933743207956,-0.8462725660128061,0.4019287220315775,0.0,13.950891325839917,11.518481156053443,248.92959409057065,241.27316965915975,0.0
0.095,4.055027179246261,-0.9098442223621326,0.5849806092974861,0.0,13.799270447660977,11.418027100549489,248.41596364818213,241.27316965915975,0.0
0.096,3.9376921820101467,-0.9730859669359353,0.7703678906015208,0.0,13.65908712708916,11.342446228905176,247.84961463220623,241.27316965915975,0.0
0.097,3.8456399413888,-1.0324872662069904,0.9877779488590068,0.0,13.531265776884172,11.291418742459385,247.2029694811287,241.27316965915975,0.0
0.098,3.7767634557149323,-1.0863183609252622,1.2518025261780856,0.0,13.416451220481402,11.266236363578109,246.49712566248581,241.27316965915975,0.0
0.099,3.7313398425347213,-1.1340886734650402,1.552484875466262,0.0,13.315316305262979,11.266833412186276,245.85506249158897,241.27316965915975,0.0
0.1,3.7092912435269882,-1.1763548214116533,1.8276975325903937,0.0,13.228526159575937,11.286494942961607,245.21752050217594,241.27316965915975,0.0
0.101,3.7071403044547346,-1.2111012364543794,2.107025018866743,0.0,13.155780625710367,11.323501320317725,244.66019703191768,241.27316965915975,0.0
0.10200000000000001,3.722726708440188,-1.2377688069244623,2.3518164802682984,0.0,13.09659625156825,11.37193027861396,243.672119371532,241.27316965915975,0.0
0.10300000000000001,3.752326545648782,-1.2547722140977795,2.8218658133374106,0.0,13.049776909754335,11.455755297636859,243.36720171158348,241.27316965915975,0.0
0.10400000000000001,3.808915937681104,-1.2693371320803977,2.9533843227874375,0.0,13.017454110930451,11.530353588533416,241.3994407507693,241.27316965915975,0.0
0.105,3.8741803474222505,-1.2671544519675442,3.9360020922784367,0.0,12.995437677086374,11.694419348856234,240.54465366084975,241.27316965915975,0.0
0.106,3.997859812435108,-1.274612347386798,4.370680797221307,0.0,12.992871657956233,11.864913272557168,240.38827604654713,241.27316965915975,0.0
0.107,4.146886692980024,-1.2817350683368722,4.45771854049874,0.0,13.008320553459516,12.008172404476271,240.18674765989238,241.27316965915975,0.0
0.108,4.290486891456684,-1.2726788621280072,4.569346953818792,0.0,13.035483062711902,12.13575350775924,238.0709355814768,241.27316965915975,0.0
0.109,4.422949581456034,-1.249330807693815,5.659275333803415,0.0,13.070209707441672,12.3589336953891,237.69616329266077,241.27316965915975,0.0
0.11,4.619247212454822,-1.2269110353814685,5.882431541876414,0.0,13.12154901205144,12.556648315307255,237.4547747477987,241.27316965915975,0.0
0.111,4.81689282948612,-1.2093378450248033,6.041309763421062,0.0,13.185816994975932,12.735192404420305,234.72274294247802,241.27316965915975,0.0
0.112,5.011953544152977,-1.174046148829974,7.472829933248216,0.0,13.257806233841421,13.038707096936994,235.57068461261642,241.27316965915975,0.0
0.113,5.286728693641777,-1.1557673650931384,7.105883948644451,0.0,13.351290268822925,13.236115324786779,234.3900967935745,241.27316965915975,0.0
0.114,5.5257049950480965,-1.1195546578416913,7.76500858682127,0.0,13.451366113130964,13.475764661735417,233.05149504969955,241.27316965915975,0.0
0.115,5.784969805785266,-1.0754318593223973,8.516526204853339,0.0,13.560907925938457,13.75140297485473,232.586265167418,241.27316965915975,0.0
0.116,6.074648612293885,-1.0394255255165947,8.836010190911537,0.0,13.683539920043687,14.00878767962036,231.6089499265596,241.27316965915975,0.0
0.117,6.37117049260591,-0.9947767282474382,9.421310008666733,0.0,13.815095880853406,14.284164634643206,230.74009891679367,241.27316965915975,0.0
0.11800000000000001,6.6851579442890525,-0.9491523309490613,9.96106622097336,0.0,13.956461745354305,14.567106274538892,229.84397282574537,241.27316965915975,0.0
0.11900000000000001,7.01503968136264,-0.9024677368276834,10.0,0.0,14.107306126014324,14.801628373903704,228.37237543179816,241.27316965915975,0.0
0.12,7.32808160288318,-0.8384701751572479,10.0,0.0,14.25994539270228,14.996257569611235,226.88162148631204,241.27316965915975,0.0
0.121,7.616647927949818,-0.7568377607705004,10.0,0.0,14.408444062326353,15.15807589587469,224.80741680380984,241.27316965915975,0.0
0.122,7.885158388523423,-0.6578640461994558,10.0,0.0,14.548203913155426,15.291911769061784,230.3629358785481,241.27316965915975,0.0
0.123,8.054747622850737,-0.6838867004855316,10.0,0.0,14.691223595337476,15.410370328842802,237.61438000444983,241.27316965915975,0.0
0.124,8.1483145726767,-0.7901521540084517,7.057548349043104,0.0,14.843216138624076,15.199018847121074,240.48829339669007,241.27316965915975,0.0
0.125,8.004067241911494,-0.84388469582233,5.628440415547681,0.0,14.963722204474152,14.913027287607694,244.9693814543435,241.27316965915975,0.0
0.126,7.726676685019594,-0.8522500750572681,3.350934268769125,0.0,15.043961374085582,14.460521381770427,247.3776091189925,241.27316965915975,0.0
0.127,7.296880770404407,-0.8116668626246142,2.0857760418463016,0.0,15.0663782289922,13.98940128502305,248.9894675718776,241.27316965915975,0.0
0.128,6.806431166046062,-0.7537087101275961,1.2026838362765648,0.0,15.03347182408308,13.532797820430908,249.90447668088328,241.27316965915975,0.0
0.129,6.310377250044223,-0.7034017380104232,0.6588662115564965,0.0,14.953241527797731,13.11723647986017,250.48969385783505,241.27316965915975,0.0
0.13,5.847852975690854,-0.6717723498424322,0.27409238109385736,0.0,14.836501964106539,12.744238429633135,250.7013236019759,241.27316965915975,0.0
0.131,5.432539168770385,-0.6619460658509069,0.07399596959527077,0.0,14.693371954404373,12.419762637117188,250.60727087626915,241.27316965915975,0.0
0.132,5.07125114537446,-0.6739259554939696,0.02768132027754966,0.0,14.53352341712148,12.145916320076992,250.33217360113812,241.27316965915975,0.0
0.133,4.765785061271258,-0.7055901297497724,0.07463991842328088,0.0,14.365638362134568,11.919086762319132,249.95876443549366,241.27316965915975,0.0
0.134,4.512676017163847,-0.7527645289003267,0.1744885534821723,0.0,14.196731399034565,11.733452752724169,249.5291216581606,241.27316965915975,0.0
0.135,4.305419540372267,-0.810324597476827,0.3067504221587001,0.0,14.03201159483697,11.583308888988531,249.01081561045427,241.27316965915975,0.0
0.136,4.137260468509541,-0.8725498758470388,0.4885269864989139,0.0,13.875018564620532,11.466805167734341,248.51284854981648,241.27316965915975,0.0
0.137,4.003249582335099,-0.9365604461221668,0.6651137279112413,0.0,13.728493375246881,11.376918898256445,247.9880871026808,241.27316965915975,0.0
0.138,3.896908103758496,-0.9984982287571726,0.8603452770438755,0.0,13.593805128249906,11.311435793561117,247.39899341710864,241.27316965915975,0.0
0.139,3.8144921260444695,-1.0556292337561464,1.0936338822504625,0.0,13.471702428206628,11.270743948479803,246.72696547497162,241.27316965915975,0.0
0.14,3.7549109566350958,-1.106967432344855,1.375109895160854,0.0,13.362816705454318,11.256270262128256,246.01608074054965,241.27316965915975,0.0
