timestamp,iq,id,iq_ref,id_ref,vq,vd,omega,omega_ref,r
0.0,0.0,0.0,0.0,0.0,0.0,0.0,0.0,164.75138476119093,0.0
0.001,0.0,0.0,10.0,0.0,0.0,1.0999999999999999,10.25214667051417,164.75138476119093,0.0
0.002,0.355410702417876,-0.20433570379405172,10.0,0.0,0.13247692741734565,1.9509048227340335,19.557812924939952,164.75138476119093,0.0
0.003,0.7772427377605364,-0.439103606977023,10.0,0.0,0.3605777566785463,2.6871194390728848,29.07781941624834,164.75138476119093,0.0
0.004,1.172968642162949,-0.6605142616599442,10.0,0.0,0.6614974576308037,3.333211147573131,39.01591877762155,164.75138476119093,0.0
0.005,1.5134548990012906,-0.8501871590507728,10.0,0.0,1.015584271504022,3.911289426110385,49.15392431043539,164.75138476119093,0.0
0.006,1.7952774371885036,-1.0061422104017639,10.0,0.0,1.4073285585183455,4.439372941549028,59.41377721376275,164.75138476119093,0.0
0.007,2.0253823123920593,-1.132519960573588,10.0,0.0,1.8250487703804903,4.931329223254717,69.78171152501561,164.75138476119093,0.0
0.008,2.213848398102046,-1.2347296179120733,10.0,0.0,2.260171874032505,5.397431677299991,80.13426056472979,164.75138476119093,0.0
0.009000000000000001,2.370087941320263,-1.3184998229366145,10.0,0.0,2.7065855387031603,5.845134507409035,90.41651144267735,164.75138476119093,0.0
0.01,2.5020147420677747,-1.388622214964316,10.0,0.0,3.160003880990456,6.279758868324195,100.73827622966554,164.75138476119093,0.0
0.011,2.6165853691384484,-1.4475246303756732,10.0,0.0,3.6173208669155112,6.7049791264062675,110.92545520572857,164.75138476119093,0.0
0.012,2.7184141533273056,-1.4980449169534304,10.0,0.0,4.076396387425707,7.1233535972825734,120.99006916299156,164.75138476119093,0.0
0.013000000000000001,2.81114891304339,-1.5417840975276165,10.0,0.0,4.535707909969898,7.536615637395386,130.8965635028202,164.75138476119093,0.0
0.014,2.8975576945339796,-1.5796449223571971,10.0,0.0,4.994141783196462,7.9459050073845345,140.6026552716056,164.75138476119093,0.0
0.015,2.979741661864779,-1.6120696914194297,10.0,0.0,5.450849322447835,8.351932679105943,150.07040684695082,164.75138476119093,0.0
0.016,3.059536568204394,-1.638840298924468,9.864020269101253,0.0,5.905109394081143,8.740114967157435,159.08583421128847,164.75138476119093,0.0
0.017,3.133387589552489,-1.6573532785213987,5.412962092431451,0.0,6.35453040903688,8.63932276815752,163.5191749104934,164.75138476119093,0.0
0.018000000000000002,3.0517753171396285,-1.579751017467936,3.2086138413359597,0.0,6.740208724085205,8.405300024878265,165.46021903792456,164.75138476119093,0.0
0.019,2.8665227829461033,-1.4401238773184593,2.231003434853046,0.0,7.049333970494861,8.167315381266759,166.44095603644013,164.75138476119093,0.0
0.02,2.6470397732574464,-1.2780895275195894,1.7237392228427701,0.0,7.287320720826022,7.960309373124882,166.87404899884507,164.75138476119093,0.0
0.021,2.4370691487218332,-1.1171205341564554,1.485966099263758,0.0,7.464721949537922,7.797622177958756,166.8330976909906,164.75138476119093,0.0
0.022,2.260138922237252,-0.9686720530694759,1.4856246238929969,0.0,7.593394692876082,7.688646612793383,164.70845083481666,164.75138476119093,0.0
0.023,2.1222462798138864,-0.8481990550274005,2.5483773912437093,0.0,7.686535060390131,7.7337409860423785,162.9069804570789,164.75138476119093,0.0
0.024,2.058459901165742,-0.7747458258137082,3.4675566231537083,0.0,7.7679957032445905,7.879759721781531,164.80672097910556,164.75138476119093,0.0
0.025,2.0690873812582433,-0.7363780855161457,2.5171329999612313,0.0,7.852426236246924,7.903777370765287,164.98878261971004,164.75138476119093,0.0
0.026000000000000002,2.0768310567950308,-0.6920197615925453,2.4237282010738035,0.0,7.926319742618778,7.932320486997083,164.63042395478675,164.75138476119093,0.0
0.027,2.0869431152861577,-0.6481213409240444,2.6041171415994886,0.0,7.9912929669423285,7.985140584010934,164.12938015271638,164.75138476119093,0.0
0.028,2.1089844356236016,-0.6093333814830527,2.860859088719419,0.0,8.051223187203082,8.063290293881478,163.50228542957615,164.75138476119093,0.0
0.029,2.146994445706816,-0.5777231500236387,3.186897443605683,0.0,8.10988611055869,8.168954166451554,162.81287953106502,164.75138476119093,0.0
0.03,2.20304565853084,-0.5539237218704169,3.5509854451625045,0.0,8.170947294053487,8.300921707412765,162.25193289686675,164.75138476119093,0.0
0.031,2.277112301286702,-0.537487781867775,3.8564532809048835,0.0,8.237529154176165,8.448172375968516,161.8326705117612,164.75138476119093,0.0
0.032,2.364897180711199,-0.5262315013963131,4.095271615951958,0.0,8.311104063690319,8.601655831869587,161.58982955323427,164.75138476119093,0.0
0.033,2.461473259658423,-0.516968536704486,4.248307647294988,0.0,8.391763464531774,8.751848693339271,161.4315551389364,164.75138476119093,0.0
0.034,2.561379286854166,-0.5066818077802205,4.360643150666466,0.0,8.478337300901304,8.89589085160151,161.36465534546517,164.75138476119093,0.0
0.035,2.6613172496622948,-0.4936788905205636,4.427960341559341,0.0,8.569330515850782,9.03047359800204,161.2446459392296,164.75138476119093,0.0
0.036000000000000004,2.75882343131327,-0.477023409376653,4.523032432896739,0.0,8.662980610192134,9.160755849042125,161.1648577572282,164.75138476119093,0.0
0.037,2.854763664776054,-0.45736125420933305,4.59879179393707,0.0,8.758297637946395,9.285179329349008,161.0899150596471,164.75138476119093,0.0
0.038,2.949152533859779,-0.43500990110121607,4.672877839743055,0.0,8.854263283665693,9.404660662564293,160.9568881034533,164.75138476119093,0.0
0.039,3.0426489703750272,-0.41012873922243576,4.777336284417325,0.0,8.950067083859011,9.523199276160252,165.35394545558464,164.75138476119093,0.0
0.04,3.119468366574985,-0.4132189123671641,2.572782001407725,0.0,9.048733096057298,9.388403683621306,169.0183345430574,164.75138476119093,0.0
0.041,3.0876284539447916,-0.4148086849423249,0.6979179598526826,0.0,9.12419692103368,9.097035334166446,170.1721891408308,164.75138476119093,0.0
0.042,2.9600264101504132,-0.38633556384850354,0.066782617169582,0.0,9.159829587520871,8.805391780566199,170.5013341225173,164.75138476119093,0.0
0.043000000000000003,2.7945550788153515,-0.3460437753496768,-0.15528936728693754,0.0,9.158587266475386,8.545285110120222,170.76086622427806,164.75138476119093,0.0
0.044,2.626872790451428,-0.3101206341626075,-0.34515023279818546,0.0,9.127909882844255,8.309191237659304,170.8276494158576,164.75138476119093,0.0
0.045,2.4701840683717116,-0.28371268545740036,-0.43930447513461823,0.0,9.074145207384447,8.100739592624597,170.67510286839592,164.75138476119093,0.0
0.046,2.330988671575729,-0.2687186074599208,-0.422268382475834,0.0,9.00352656587448,7.9243167635899745,170.41606508685976,164.75138476119093,0.0
0.047,2.2128066164381366,-0.2658372745002584,-0.34939629496444,0.0,8.922160499766457,7.777927994104655,170.16168955879274,164.75138476119093,0.0
0.048,2.1156798099137335,-0.27414620036088677,-0.2763115789069506,0.0,8.835234958494976,7.654854221014589,169.9613197208087,164.75138476119093,0.0
0.049,2.0365866951422884,-0.29131375748975963,-0.22822600951109973,0.0,8.746499936067197,7.547682811138959,169.81022817000624,164.75138476119093,0.0
0.05,1.9710480798018837,-0.31446178081672216,-0.2032686681980289,0.0,8.65829588188932,7.451037808398327,169.7504849092362,164.75138476119093,0.0
0.051000000000000004,1.9148398583218214,-0.34093752753530593,-0.2233880392934644,0.0,8.571928584760936,7.358301714489744,169.60452882430846,164.75138476119093,0.0
0.052000000000000005,1.8635109642098224,-0.3683265556010763,-0.1989414374607663,0.0,8.487672443574583,7.274176916309252,169.4109754381253,164.75138476119093,0.0
0.053,1.8164801287134353,-0.3963156249648646,-0.14876065113852555,0.0,8.406234344038172,7.199974507268775,169.2807790233649,164.75138476119093,0.0
0.054,1.7739771339734571,-0.4246381583866091,-0.12895638638006224,0.0,8.328355401534111,7.130930211505346,169.19868533785478,164.75138476119093,0.0
0.055,1.734494602898744,-0.4521854091924198,-0.13238254939164973,0.0,8.254106895958534,7.064345578959812,169.09125739168874,164.75138476119093,0.0
0.056,1.6963951970236721,-0.4780876952448885,-0.12206730261360743,0.0,8.183198556643674,7.001959607222489,168.92358068497023,164.75138476119093,0.0
0.057,1.6593919546031142,-0.5026194424597852,-0.07995090849214526,0.0,8.11558192341968,6.946940412220501,168.85021627275927,164.75138476119093,0.0
0.058,1.6251078821025997,-0.5253137957114916,-0.08425701750234693,0.0,8.05147609540343,6.893167853014826,168.64148330011977,164.75138476119093,0.0
0.059000000000000004,1.5913885516701445,-0.546498650379206,-0.018791516571887268,0.0,7.990506984749171,6.848972518743114,168.5194556900168,164.75138476119093,0.0
0.06,1.5611686990693503,-0.5659126795149381,0.0045415791913416825,0.0,7.933138946391413,6.807998782839558,168.31562750201792,164.75138476119093,0.0
0.061,1.5325446679195942,-0.5843431957063467,0.07081324578251191,0.0,7.8792435547687765,6.775288613958444,168.16336354877257,164.75138476119093,0.0
0.062,1.507630020788142,-0.6008275993248128,0.11282543452937199,0.0,7.829095664656408,6.746872917772385,168.00154672642566,164.75138476119093,0.0
0.063,1.4846860809539622,-0.6167183809561827,0.16123222605047816,0.0,7.782704135879938,6.7234633142839915,168.00050031449376,164.75138476119093,0.0
0.064,1.4641657916475972,-0.6310884245147284,0.12926427648339778,0.0,7.740032596607402,6.695782768324559,167.78898211447412,164.75138476119093,0.0
0.065,1.4438581428967077,-0.6409257529639987,0.20464740296038575,0.0,7.6997985623600105,6.677243584911488,167.50801547446218,164.75138476119093,0.0
0.066,1.4267661078402174,-0.6484020645403219,0.31756441583364303,0.0,7.662458034184954,6.669879003934982,167.08805611759414,164.75138476119093,0.0
0.067,1.4145267287448942,-0.6556091385098831,0.5041773807036354,0.0,7.6288331157506395,6.680090495595504,166.65075764823726,164.75138476119093,0.0
0.068,1.4096983000949495,-0.6649289671471149,0.7038328865116097,0.0,7.60054494873621,6.706423055597265,166.37527934917327,164.75138476119093,0.0
0.069,1.413144170069371,-0.6763835789775058,0.8253330901637816,0.0,7.578885663438371,6.738234680257376,166.73195325723157,164.75138476119093,0.0
0.07,1.4214238947363358,-0.6882976232087517,0.6271904511742266,0.0,7.563769467883457,6.7408122105827,167.17611453694346,164.75138476119093,0.0
0.07100000000000001,1.4252439641346428,-0.6877994631540926,0.38086251356075507,0.0,7.550248706868246,6.716168311185269,165.87540309870786,164.75138476119093,0.0
0.07200000000000001,1.4164802775224128,-0.6789318897498497,1.0199780493033832,0.0,7.5346451805408865,6.7664049201552094,165.0803971162612,164.75138476119093,0.0
0.073,1.4252925917102413,-0.6816626655418871,1.4141909169760145,0.0,7.526014728814431,6.845972784255204,165.88257726352987,164.75138476119093,0.0
0.074,1.4510125250022377,-0.6938744056688079,1.0017889183182893,0.0,7.527520092326661,6.864673398723234,166.60043319065872,164.75138476119093,0.0
0.075,1.4702759907474128,-0.6872154264783075,0.6243704704591855,0.0,7.529890375822241,6.842400696918712,165.04676954804978,164.75138476119093,0.0
0.076,1.4711874609459137,-0.6680885229630874,1.3982484438950664,0.0,7.527758991193045,6.911585428136354,163.69682030886716,164.75138476119093,0.0
0.077,1.4914377444973659,-0.6641861901599888,2.0837687080096146,0.0,7.532521230575345,7.039088580598879,163.95319104356548,164.75138476119093,0.0
0.078,1.5381096611363518,-0.6779973579553066,1.963565277836708,0.0,7.551115813051183,7.129308653798441,165.39148550797006,164.75138476119093,0.0
0.079,1.5903181609788908,-0.6801206955053389,1.238017038166628,0.0,7.57696840005194,7.128481690047362,165.2296673152373,164.75138476119093,0.0
0.08,1.6147057977471677,-0.6603945560679801,1.3141433089925478,0.0,7.597961923263907,7.143791498512933,163.19125897758977,164.75138476119093,0.0
0.081,1.6300194161400277,-0.6381662363799266,2.3489487356523218,0.0,7.616139221229922,7.27129639102193,161.89577170477406,164.75138476119093,0.0
0.082,1.676886511377863,-0.637004672597953,3.0252485026243434,0.0,7.645343789831099,7.44691119988472,163.00660209819168,164.75138476119093,0.0
0.083,1.7549148593266721,-0.6492875565770323,2.4872811325455286,0.0,7.690552115333956,7.533831129020967,163.61254037976906,164.75138476119093,0.0
0.084,1.819444939162696,-0.6463732225851981,2.195700435571057,0.0,7.739488195621258,7.583567669524997,163.61590999840809,164.75138476119093,0.0
0.085,1.8649467761989063,-0.6306405876401073,2.205370373879372,0.0,7.786802875426193,7.632843762915391,163.48811405311454,164.75138476119093,0.0
0.08600000000000001,1.9032869124804375,-0.6076582990687742,2.281901053606907,0.0,7.831942971196276,7.686482993713577,163.33963796600943,164.75138476119093,0.0
0.08700000000000001,1.9416500497859488,-0.5811504617340717,2.3702565651112764,0.0,7.875246941248064,7.744389566736367,162.64556321014027,164.75138476119093,0.0
0.088,1.9830899210842097,-0.5532894093610402,2.7383521585563666,0.0,7.917211534209269,7.836268085156225,160.9513147462827,164.75138476119093,0.0
0.089,2.0362302106252748,-0.5339393375117598,3.6234770906342373,0.0,7.962317622336647,8.011406964487794,158.38028773294874,164.75138476119093,0.0
0.09,2.1216718556357073,-0.5333410125866223,4.972701567583632,0.0,8.020554674561174,8.304238829786861,160.0559146514754,164.75138476119093,0.0
0.091,2.260750364716139,-0.5571880845935641,4.181842809417457,0.0,8.104880369263167,8.458680286061956,160.70611417231717,164.75138476119093,0.0
0.092,2.37814494867534,-0.5634267147337493,3.8971957548853116,0.0,8.196665418717823,8.57118495861816,160.72259177544376,164.75138476119093,0.0
0.093,2.4714865940483395,-0.5532174024021179,3.929244883179489,0.0,8.289337019824751,8.678895908370455,160.57873533524634,164.75138476119093,0.0
0.094,2.5531511102616617,-0.5339313784795223,4.042899597537647,0.0,8.381493186288047,8.78923477022493,160.39652297009854,164.75138476119093,0.0
0.095,2.631598181267397,-0.5106673107353918,4.177554398022466,0.0,8.473101435077835,8.90361831080154,160.09210575714152,164.75138476119093,0.0
0.096,2.711313100074101,-0.48611699282061394,4.376355794541471,0.0,8.564519318753119,9.028261757453029,159.96033655971993,164.75138476119093,0.0
0.097,2.7964642176613284,-0.46245257275636753,4.490150875266975,0.0,8.656902175698104,9.151542618974986,159.85747066163168,164.75138476119093,0.0
0.098,2.8849209974043446,-0.43881516054668734,4.590522965306695,0.0,8.750011361958364,9.2727579245405,159.73090104109355,164.75138476119093,0.0
0.099,2.975601899027293,-0.414539462122001,4.7040126127767365,0.0,8.84349720744453,9.393552427115699,162.38736815920132,164.75138476119093,0.0
0.1,3.063937821026524,-0.39761192090859865,3.3994192197427475,0.0,8.938094646090374,9.358165751869874,166.14728468632518,164.75138476119093,0.0
0.101,3.070980284447931,-0.4070121830921063,1.5055019569294736,0.0,9.020896977599369,9.14060121127773,168.2291801216619,164.75138476119093,0.0
0.10200000000000001,2.9854568625124305,-0.392665799181538,0.4297762856564047,0.0,9.07199051704625,8.863160707730913,168.80316397099594,164.75138476119093,0.0
0.10300000000000001,2.8421539245474454,-0.35938331928579853,0.10226656889133379,0.0,9.086713043244341,8.60821288530884,169.26908443582727,164.75138476119093,0.0
0.10400000000000001,2.6844646215922805,-0.3251473956870465,-0.17587066027069342,0.0,9.071035407783507,8.36882489365402,169.5431081706874,164.75138476119093,0.0
0.105,2.5292957230821496,-0.2968782460317002,-0.3607997617957195,0.0,9.030219489477172,8.149738794549036,169.53923091763244,164.75138476119093,0.0
0.106,2.385516114475469,-0.27749505157196513,-0.4067395968326586,0.0,8.96972709319696,7.959539690646736,169.3472904521507,164.75138476119093,0.0
0.107,2.2592874076394733,-0.26895348149442977,-0.35672842100138835,0.0,8.895518285390606,7.800719246864342,169.0999587915902,164.75138476119093,0.0
0.108,2.1534033912453996,-0.2716974984198362,-0.276548331025136,0.0,8.813235571549214,7.669064619553617,168.891737453105,164.75138476119093,0.0
0.109,2.0669002027477568,-0.2843929448079611,-0.21384118870167534,0.0,8.727384725294334,7.556899678916444,168.73994742637822,164.75138476119093,0.0
0.11,1.9960691512873263,-0.3044614103766943,-0.17783180199015525,0.0,8.6409830463499,7.457626492608208,168.62806234297872,164.75138476119093,0.0
0.111,1.9364900080408027,-0.3291612191816725,-0.16065603610828316,0.0,8.555810510981948,7.367015092658749,168.5919736492972,164.75138476119093,0.0
0.112,1.8844430427577934,-0.3561705596021898,-0.18101757814857833,0.0,8.472818118514052,7.27966542663286,168.42818056554103,164.75138476119093,0.0
0.113,1.8361186913144305,-0.38359568691862433,-0.1358889943139987,0.0,8.392136669290961,7.2027144566109165,168.29679340349585,164.75138476119093,0.0
0.114,1.7922264787700173,-0.41152556741671986,-0.10564949971446191,0.0,8.314626303569607,7.132610397101909,168.22172311323177,164.75138476119093,0.0
0.115,1.7518891292604206,-0.4391699558677632,-0.10281773810283057,0.0,8.240618152394124,7.065772992123568,168.15159439973803,164.75138476119093,0.0
0.116,1.713480483364212,-0.465530087396876,-0.10175547774142912,0.0,8.169950246422047,7.002128621102637,168.01552328598618,164.75138476119093,0.0
0.117,1.6760779745004648,-0.49051805045049635,-0.0663613061134547,0.0,8.10246976856569,6.945394822378105,167.96848887152683,164.75138476119093,0.0
0.11800000000000001,1.641125591644296,-0.5137372358615702,-0.07501513998714038,0.0,8.038368189387203,6.889751229323541,167.78542399789347,164.75138476119093,0.0
0.11900000000000001,1.6065842927194658,-0.5354303864114123,-0.01382309553748784,0.0,7.977266463527471,6.843529519937957,167.69406792725104,164.75138476119093,0.0
0.12,1.575372920335032,-0.5554173312410919,0.002428108123127881,0.0,7.919634371740928,6.800083358836169,167.5103112995205,164.75138476119093,0.0
0.121,1.5455389588799857,-0.574373272722244,0.0667171566050977,0.0,7.8653061571374865,6.765097509998525,167.3828937747093,164.75138476119093,0.0
0.122,1.519346448508463,-0.591470592188823,0.10411082887552503,0.0,7.81460332483714,6.734230674575547,167.2260700250302,164.75138476119093,0.0
0.123,1.4950898817487208,-0.6078911632519862,0.15777585107667802,0.0,7.767519381846812,6.709315752424111,167.22413691042055,164.75138476119093,0.0
0.124,1.4735353737711319,-0.6229436581630448,0.13401488688920282,0.0,7.724143909669955,6.681162002116087,167.08486465976242,164.75138476119093,0.0
0.125,1.452070514050457,-0.6346961113664289,0.18031621323255687,0.0,7.683432854583245,6.658962424650324,166.9085220029417,164.75138476119093,0.0
0.126,1.433017093761776,-0.6434483797636397,0.24691616922540316,0.0,7.64541817225029,6.6436559089527965,166.56460555713338,164.75138476119093,0.0
0.127,1.4176313195601908,-0.6498621357422233,0.40074218417014484,0.0,7.610292297054549,6.643835339635005,166.10274335493423,164.75138476119093,0.0
0.128,1.40813011887494,-0.6578377729261351,0.6181596993322833,0.0,7.5795101349770455,6.663753180581166,165.73770656665477,164.75138476119093,0.0
0.129,1.4075120905321596,-0.6684524385628966,0.7908148754173792,0.0,7.554885830050116,6.695391886553556,165.6266719992071,164.75138476119093,0.0
0.13,1.4140124180702718,-0.6810666731569359,0.8375792867610479,0.0,7.537169245362093,6.724100608610343,167.06547111341268,164.75138476119093,0.0
0.131,1.423409055061919,-0.6902187353459324,0.09503886613604062,0.0,7.5249757758434015,6.665051082816764,165.79088949835813,164.75138476119093,0.0
0.132,1.4080698890459002,-0.6760514410509324,0.7219346262916475,0.0,7.50644677770288,6.688852375105715,164.47856659448797,164.75138476119093,0.0
0.133,1.4054184768814724,-0.672498272846938,1.3808242598937541,0.0,7.491901633045817,6.774767804124326,164.4073239859693,164.75138476119093,0.0
0.134,1.4284770012399275,-0.6841365189854037,1.419886171905307,0.0,7.488718284513594,6.845782137959546,165.5714343177059,164.75138476119093,0.0
0.135,1.4607046906829189,-0.6926956790224479,0.8296305104718602,0.0,7.493779829360805,6.840743501085081,165.43796687904862,164.75138476119093,0.0
0.136,1.4741527852054765,-0.6809070823993564,0.889498408621922,0.0,7.4964490188069375,6.848045894290572,163.57485588828663,164.75138476119093,0.0
