timestamp,iq,id,iq_ref,id_ref,vq,vd,omega,omega_ref,r
0.0,0.0,0.0,0.0,0.0,0.0,0.0,0.0,192.2537440995802,0.0
0.001,0.0,0.0,10.0,0.0,0.0,1.0999999999999999,4.2833329711730475,192.2537440995802,0.0
0.002,0.5089996484158504,-0.2845915621712897,10.0,0.0,0.14130507183884192,1.934010038674256,8.518523266932434,192.2537440995802,0.0
0.003,1.267359328741553,-0.7136048126617476,10.0,0.0,0.39622618229346257,2.620420012313302,12.961705670116773,192.2537440995802,0.0
0.004,2.1299206590188677,-1.2026735784221874,10.0,0.0,0.7438036107952695,3.176382950106658,17.565481619740297,192.2537440995802,0.0
0.005,2.992119061415347,-1.691621015430013,10.0,0.0,1.1611131206394882,3.62529112601002,22.176241102097798,192.2537440995802,0.0
0.006,3.785764833587408,-2.141699456093161,10.0,0.0,1.6262016511924895,3.9923603843925073,26.817697572573834,192.2537440995802,0.0
0.007,4.473274987233976,-2.5309460234867456,10.0,0.0,2.1198045925351012,4.301541910812641,31.52673680144795,192.2537440995802,0.0
0.008,5.0402378530049985,-2.8508650861726315,10.0,0.0,2.626264023606977,4.573674765026676,36.05125746930442,192.2537440995802,0.0
0.009000000000000001,5.488308725066726,-3.1030813949329694,10.0,0.0,3.133835400329847,4.8256221096574174,40.50590466848071,192.2537440995802,0.0
0.01,5.830195692308316,-3.2942435967762203,10.0,0.0,3.6343500529586583,5.070004999821411,44.95872402390242,192.2537440995802,0.0
0.011,6.084448865681968,-3.43378466021232,10.0,0.0,4.122689424300527,5.315452086833204,49.23149869248506,192.2537440995802,0.0
0.012,6.26976277841774,-3.5352223895441073,10.0,0.0,4.596502306801524,5.567346403610805,53.45356266125882,192.2537440995802,0.0
0.013000000000000001,6.406662100086572,-3.6073568852055464,10.0,0.0,5.055043749959621,5.828226790704529,57.58810702722502,192.2537440995802,0.0
0.014,6.511758898092287,-3.6604314206468422,10.0,0.0,5.498935941453207,6.098681628840752,61.67547484080225,192.2537440995802,0.0
0.015,6.599149074222993,-3.7018739933596,10.0,0.0,5.929512335255049,6.377918250918394,65.74603943018396,192.2537440995802,0.0
0.016,6.679421466879316,-3.7374586858551933,10.0,0.0,6.348454642331861,6.664332788737562,69.9250499088077,192.2537440995802,0.0
0.017,6.760390480203113,-3.7704505616970456,10.0,0.0,6.757417431900553,6.9558962359434435,74.1164773696734,192.2537440995802,0.0
0.018000000000000002,6.846974272180576,-3.802760140193308,10.0,0.0,7.157864422109135,7.250485090401321,77.37517878470777,192.2537440995802,0.0
0.019,6.939439783760242,-3.8391569220927555,10.0,0.0,7.551406148966624,7.546354390080281,81.2018509723788,192.2537440995802,0.0
0.02,7.0418004159341825,-3.874311085555027,10.0,0.0,7.938683623268116,7.841655918053758,84.75076761770603,192.2537440995802,0.0
0.021,7.152174901799238,-3.9102691144561486,10.0,0.0,8.320367344481305,8.135037453536617,88.31074002405049,192.2537440995802,0.0
0.022,7.2705816439190825,-3.944351414916354,10.0,0.0,8.696610319883073,8.42532821081798,91.84709119662384,192.2537440995802,0.0
0.023,7.396895348907532,-3.973373193554977,10.0,0.0,9.067109646118446,8.71150374978385,94.95189376527833,192.2537440995802,0.0
0.024,7.525628112078648,-4.003030181574632,10.0,0.0,9.432148644522647,8.993214200577736,98.51817180499252,192.2537440995802,0.0
0.025,7.662759884753219,-4.020083348363683,10.0,0.0,9.790434066632415,9.269460338770157,101.26500101646438,192.2537440995802,0.0
0.026000000000000002,7.79909163335272,-4.037119986610719,10.0,0.0,10.142219058889733,9.540285230735115,104.57224364927141,192.2537440995802,0.0
0.027,7.9416565486640245,-4.040335941599523,10.0,0.0,10.486091429784109,9.804887309531061,107.28863931243977,192.2537440995802,0.0
0.028,8.08575457278246,-4.035973174292314,10.0,0.0,10.821524707514962,10.06299128403694,109.91199491976768,192.2537440995802,0.0
0.029,8.233472300247945,-4.019630704524102,10.0,0.0,11.14747101092189,10.314020219085288,112.3946862008,192.2537440995802,0.0
0.03,8.384024049800136,-3.9921009816691804,10.0,0.0,11.463060732676595,10.557457375793414,114.73881662427027,192.2537440995802,0.0
0.031,8.537909175596532,-3.9524319246157713,10.0,0.0,11.767346898879321,10.79268794266411,117.02046122835505,192.2537440995802,0.0
0.032,8.69530112188827,-3.900461598733285,10.0,0.0,12.059407459872308,11.019049806633891,118.96324983191354,192.2537440995802,0.0
0.033,8.856704228457117,-3.835645381298679,10.0,0.0,12.338288070503985,11.235801118046329,120.69109701332809,192.2537440995802,0.0
0.034,9.0222737844032,-3.7580883533286813,10.0,0.0,12.603072640311387,11.442166739292315,122.22252714635435,192.2537440995802,0.0
0.035,9.192221202130366,-3.667819200947646,10.0,0.0,12.852861278780438,11.637335735003912,123.54600422061594,192.2537440995802,0.0
0.036000000000000004,9.366636901089848,-3.5650275388041046,10.0,0.0,13.086783561661761,11.820480442282989,124.65550505445506,192.2537440995802,0.0
0.037,9.54547735109588,-3.4500503410883243,10.0,0.0,13.304008511855557,11.990774614611215,125.5472929188828,192.2537440995802,0.0
0.038,9.728558892534867,-3.323359234424387,10.0,0.0,13.503754134506922,12.147411299667773,126.219143571773,192.2537440995802,0.0
0.039,9.915551360728395,-3.1855579005666583,10.0,0.0,13.685297627741093,12.28962052239691,126.67053271031146,192.2537440995802,0.0
0.04,10.105977364542085,-3.0373780065706257,10.0,0.0,13.84798591892378,12.416686236438984,126.90265194933639,192.2537440995802,0.0
0.041,10.299214953193587,-2.87967548419021,10.0,0.0,13.991246473870518,12.52796233348159,126.91697224310033,192.2537440995802,0.0
0.042,10.494498964061092,-2.7134334761135848,10.0,0.0,14.114598987362216,12.622888011005696,126.70907518816104,192.2537440995802,0.0
0.043000000000000003,10.690917489230298,-2.539776992942884,10.0,0.0,14.217669024189144,12.701003174466624,126.27543078585114,192.2537440995802,0.0
0.044,10.88750105393868,-2.3598380657258864,10.0,0.0,14.300186856517309,12.761953818397933,125.636615650258,192.2537440995802,0.0
0.045,11.083292580793005,-2.1746508902795973,10.0,0.0,14.36197676997887,12.805489948862022,124.63501481104453,192.2537440995802,0.0
0.046,11.27665914540147,-1.9862989411381506,10.0,0.0,14.403074462489581,12.831539050787475,123.86881550843242,192.2537440995802,0.0
0.047,11.46822755783254,-1.7931052584367286,10.0,0.0,14.423299510336037,12.839954152050126,122.76321952740625,192.2537440995802,0.0
0.048,11.65476899318654,-1.599652820359685,10.0,0.0,14.42299573216264,12.83094637420652,121.84446232951176,192.2537440995802,0.0
0.049,11.836352724068798,-1.4051588328811224,10.0,0.0,14.402361739780353,12.80470020028643,121.40073567291938,192.2537440995802,0.0
0.05,12.010675035742182,-1.2127168261072168,10.0,0.0,14.361942848373943,12.761655627544869,119.55069104864862,192.2537440995802,0.0
0.051000000000000004,12.175768028450522,-1.024945620010926,10.0,0.0,14.302530976231164,12.702456616855642,117.78452618099669,192.2537440995802,0.0
0.052000000000000005,12.332572105640862,-0.8396859738218314,10.0,0.0,14.224639541213904,12.6276388014572,115.81783803238291,192.2537440995802,0.0
0.053,12.479912656389388,-0.6582658252699476,10.0,0.0,14.128951848279709,12.537874204286446,113.81748073892814,192.2537440995802,0.0
0.054,12.616517239742633,-0.482283419293271,10.0,0.0,14.016312601749942,12.433964198877977,111.71047503604854,192.2537440995802,0.0
0.055,12.741532804937393,-0.31274776744452115,10.0,0.0,13.88765718168871,12.316795603019486,109.51281851240157,192.2537440995802,0.0
0.056,12.85429987619012,-0.15044839886884454,10.0,0.0,13.743992870022915,12.18732410255487,111.28174678627298,192.2537440995802,0.0
0.057,12.868333155960588,-0.14158091696685826,10.0,0.0,13.602395410153775,12.056017330907912,110.89643895139127,192.2537440995802,0.0
0.058,12.841404971863438,-0.1874471856823403,10.0,0.0,13.466960983484581,11.926783923487125,110.88198377991868,192.2537440995802,0.0
0.059000000000000004,12.789241438173708,-0.2611673534636063,10.0,0.0,13.339797214509005,11.802399121006395,110.88264899947887,192.2537440995802,0.0
0.06,12.716269630283563,-0.3561665168127819,10.0,0.0,13.222624048473513,11.685241685407199,110.89798226349144,192.2537440995802,0.0
0.061,12.627024331533441,-0.46687453802503054,10.0,0.0,13.116680346181509,11.577169941547993,110.99164026886253,192.2537440995802,0.0
0.062,12.525584966094012,-0.5892525473920411,10.0,0.0,13.022878340551028,11.479576879056337,111.17436547664128,192.2537440995802,0.0
0.063,12.415617288108873,-0.7203318558133418,10.0,0.0,12.94189217306711,11.39344497317477,111.4529511748225,192.2537440995802,0.0
0.064,12.300359974830247,-0.8579063898472272,10.0,0.0,12.874213837402936,11.319406268813767,111.84712374292572,192.2537440995802,0.0
0.065,12.182575376298125,-1.0003670800255726,10.0,0.0,12.820194395448365,11.257807334028193,112.37344306387224,192.2537440995802,0.0
0.066,12.064567566185119,-1.1465022952455328,10.0,0.0,12.780067270983096,11.208769361652825,113.05613192460117,192.2537440995802,0.0
0.067,11.948157589865462,-1.2954485518649692,10.0,0.0,12.753971797802766,11.172247493362507,113.72433889034556,192.2537440995802,0.0
0.068,11.834697724080801,-1.4466367827791888,10.0,0.0,12.741974927945794,11.148084750056295,114.4263305063728,192.2537440995802,0.0
0.069,11.725303276526347,-1.599398382968336,10.0,0.0,12.74405336445557,11.136037384668155,115.29917593807848,192.2537440995802,0.0
0.07,11.620573150708026,-1.7535051490046838,10.0,0.0,12.760143349037664,11.13582896883428,116.08436819985813,192.2537440995802,0.0
0.07100000000000001,11.520463480747903,-1.9094760952292358,10.0,0.0,12.790219230002492,11.147215155479426,116.93869929272003,192.2537440995802,0.0
0.07200000000000001,11.425246785772082,-2.0669476283987063,10.0,0.0,12.83418830072175,11.169943051304282,118.08427016345136,192.2537440995802,0.0
0.073,11.333919999455638,-2.2275782092327416,10.0,0.0,12.89212790251162,11.20388884416363,119.50546391952973,192.2537440995802,0.0
0.074,11.247811794737379,-2.388704470290577,10.0,0.0,12.963785706316457,11.248792652571876,121.45714798033639,192.2537440995802,0.0
0.075,11.166489574887276,-2.5506238676996436,10.0,0.0,13.04896798168605,11.304456222656105,123.63249690062081,192.2537440995802,0.0
0.076,11.089316300177288,-2.713940336444586,10.0,0.0,13.14754400411496,11.37074750128847,125.1508675211516,192.2537440995802,0.0
0.077,11.018028419072134,-2.874955310424543,10.0,0.0,13.258970034614574,11.447337188474963,127.01924499826279,192.2537440995802,0.0
0.078,10.94776856203572,-3.0417154642634294,10.0,0.0,13.383645897965343,11.534426215455712,129.37411742303377,192.2537440995802,0.0
0.079,10.88229795493804,-3.206986135024185,10.0,0.0,13.521075249924406,11.631773094283846,132.09588721753377,192.2537440995802,0.0
0.08,10.819369699949283,-3.3741219261171174,10.0,0.0,13.671228584882988,11.739395622402862,133.88507126526224,192.2537440995802,0.0
0.081,10.760627167171661,-3.5396119637458674,10.0,0.0,13.833661385385852,11.857103627261488,136.11113653054193,192.2537440995802,0.0
0.082,10.702032994908489,-3.7100619283691025,10.0,0.0,14.008716302056555,11.985142045305702,139.0313812662719,192.2537440995802,0.0
0.083,10.64750627996928,-3.8780146039604,10.0,0.0,14.195839863533424,12.123294110133255,141.89531456829596,192.2537440995802,0.0
0.084,10.595161203088862,-4.046214360533134,10.0,0.0,14.394888721812448,12.271556015933188,144.59682573858763,192.2537440995802,0.0
0.085,10.545689565621249,-4.212918260165477,10.0,0.0,14.605514316237386,12.429815046333662,147.5517659410648,192.2537440995802,0.0
0.08600000000000001,10.498668892918614,-4.378349597549068,10.0,0.0,14.827433662375762,12.597988290759202,150.694115030149,192.2537440995802,0.0
0.08700000000000001,10.454838245530242,-4.540708705351533,10.0,0.0,15.060183586827279,12.775887309841712,153.06642928911845,192.2537440995802,0.0
0.088,10.413251764750468,-4.701185665162036,10.0,0.0,15.303477295243034,12.963407625873025,156.41251955896396,192.2537440995802,0.0
0.089,10.375329122514108,-4.856864819390244,10.0,0.0,15.55671360178734,13.160260906980975,159.55244171844123,192.2537440995802,0.0
0.09,10.342891321359918,-5.004117612296538,10.0,0.0,15.818952621465419,13.365941422337164,161.99771625594866,192.2537440995802,0.0
0.091,10.314826707481688,-5.144481820603104,10.0,0.0,16.089503325695976,13.580040517640603,165.3540096985782,192.2537440995802,0.0
0.092,10.293632866764703,-5.273318077002226,10.0,0.0,16.367177215154648,13.801835450176839,168.68354202822096,192.2537440995802,0.0
0.093,10.276867945113931,-5.394611130873018,10.0,0.0,16.651317082282873,14.030850481379733,171.71177363260807,192.2537440995802,0.0
0.094,10.270952717595398,-5.4971803825494545,10.0,0.0,16.940014152964267,14.265861021985696,175.01941681149114,192.2537440995802,0.0
0.095,10.273820390398773,-5.5844332802724805,10.0,0.0,17.231914696870895,14.505865619315639,177.44344665665156,192.2537440995802,0.0
0.096,10.287554021185906,-5.6529024164472546,10.0,0.0,17.525284722121835,14.749577788644704,179.715924083779,192.2537440995802,0.0
0.097,10.31188911717977,-5.703254385799241,10.0,0.0,17.818542987047564,14.9957162193145,182.72131372574228,192.2537440995802,0.0
0.098,10.3521958341122,-5.72673356285794,10.0,0.0,18.109168458330636,15.24237624550726,184.94583901854108,192.2537440995802,0.0
0.099,10.40788483907141,-5.724694798662949,10.0,0.0,18.394938329272644,15.487710092832863,186.87533533172996,192.2537440995802,0.0
0.1,10.479980672373829,-5.6959999801490735,10.0,0.0,18.673528555458436,15.729713890906435,190.12115014475097,192.2537440995802,0.0
0.101,10.57282179093371,-5.6340461530280574,9.213484914593424,0.0,18.941932166034828,15.879368107687942,188.557794397972,192.2537440995802,0.0
0.10200000000000001,10.642564805901324,-5.525299280014638,10.0,0.0,19.187118219471472,16.12853575363689,191.48502586588785,192.2537440995802,0.0
0.10300000000000001,10.754702560870346,-5.393585209996393,8.57555128767801,0.0,19.41930135318747,16.201113008228205,188.74623161351144,192.2537440995802,0.0
0.10400000000000001,10.824877953670018,-5.202969244811745,9.980023538726902,0.0,19.615873283520866,16.45178936981231,190.89386956779452,192.2537440995802,0.0
0.105,10.96422970188005,-4.998373721288454,8.919803306903216,0.0,19.79725630904362,16.551759401885143,190.903083760214,192.2537440995802,0.0
0.106,11.094697425857975,-4.752411355427111,8.928702814087139,0.0,19.945488130211878,16.658493949255973,190.6120473707802,192.2537440995802,0.0
0.107,11.238047109575273,-4.472645992173378,9.090637976092038,0.0,20.061255657701082,16.772638308786117,188.5511309467452,192.2537440995802,0.0
0.108,11.408064833410497,-4.172180675356859,10.0,0.0,20.1466073371771,16.968087003337295,187.2061005782294,192.2537440995802,0.0
0.109,11.645514202561536,-3.885729371909844,10.0,0.0,20.214463727949642,17.119013122773605,186.62212642045716,192.2537440995802,0.0
0.11,11.930806716537502,-3.595278845024881,10.0,0.0,20.26154204666567,17.232624586497696,184.80899022588906,192.2537440995802,0.0
0.111,12.249895208165576,-3.2925386357905277,10.0,0.0,20.284876762135593,17.30733592678166,183.07253724609538,192.2537440995802,0.0
0.112,12.585223416932175,-2.9812841453287495,10.0,0.0,20.28213854822845,17.343214386536168,180.68062658186338,192.2537440995802,0.0
0.113,12.927040032255888,-2.659091090780792,10.0,0.0,20.25093331059182,17.34098463332657,177.96159301476598,192.2537440995802,0.0
0.114,13.264796432888488,-2.3303977529840734,10.0,0.0,20.189691284785738,17.302122293757918,175.28327063805526,192.2537440995802,0.0
0.115,13.595111237412992,-1.9926227685660112,10.0,0.0,20.096818912695365,17.228064921074154,172.08782274200374,192.2537440995802,0.0
0.116,13.912635355428352,-1.6497701879727205,10.0,0.0,19.97149200652459,17.120501543513285,168.66297963879978,192.2537440995802,0.0
0.117,14.214064074682941,-1.305067111184668,10.0,0.0,19.81345264057404,16.98117989515358,164.93467570136826,192.2537440995802,0.0
0.11800000000000001,14.496600965588476,-0.9625317756251208,10.0,0.0,19.623053190238913,16.811921704227718,160.93301554645433,192.2537440995802,0.0
0.11900000000000001,14.758454832678405,-0.6254672656508837,10.0,0.0,19.401116123103137,16.614570830890095,156.9240347908051,192.2537440995802,0.0
0.12,14.997893428603655,-0.29748125363362327,10.0,0.0,19.14892985912503,16.391041631291785,152.9525204484558,192.2537440995802,0.0
0.121,15.21244211458452,0.016468458438011258,10.0,0.0,18.86835469337718,16.14344075575685,148.8257714211118,192.2537440995802,0.0
0.122,15.40148162569076,0.31455102867743695,10.0,0.0,18.561427371045014,15.873893591838744,147.61064291721172,192.2537440995802,0.0
0.123,15.532035576354797,0.540279999145577,10.0,0.0,18.236388703505146,15.588137872617251,147.1568403884384,192.2537440995802,0.0
0.124,15.491450042861953,0.5055930738227211,10.0,0.0,17.921351182287307,15.304223806754774,146.88822621198867,192.2537440995802,0.0
0.125,15.39548995446709,0.4053950112918189,10.0,0.0,17.620100924230183,15.027347149745268,146.27510480707534,192.2537440995802,0.0
0.126,15.255722301832613,0.25965556793182737,10.0,0.0,17.33631738442211,14.762447973536842,145.69077378479847,192.2537440995802,0.0
0.127,15.08109632705701,0.08125731011369819,10.0,0.0,17.072588694900393,14.513471541667423,145.05702012398652,192.2537440995802,0.0
0.128,14.879879369066268,-0.12013122174564983,10.0,0.0,16.830703987070258,14.283407489663999,144.3662755677414,192.2537440995802,0.0
0.129,14.659533134646326,-0.3374898046635595,10.0,0.0,16.611896903625162,14.074387288284191,143.86949769586704,192.2537440995802,0.0
0.13,14.426630620888425,-0.5658704441526599,10.0,0.0,16.417016792901222,13.887804212867028,143.59058689105555,192.2537440995802,0.0
0.131,14.187183434567743,-0.8012193740945854,10.0,0.0,16.246570961606675,13.724401599276879,143.62738776034232,192.2537440995802,0.0
0.132,13.946380834379717,-1.0403625023251113,10.0,0.0,16.10078170688852,13.584388478073764,143.67599893440274,192.2537440995802,0.0
0.133,13.707780911409765,-1.2821449471655963,10.0,0.0,15.979774703172007,13.467635709043963,143.92950431000716,192.2537440995802,0.0
0.134,13.474650201380424,-1.5249480491041076,10.0,0.0,15.883483639688997,13.373715895419018,144.41103454681513,192.2537440995802,0.0
0.135,13.249418531394902,-1.7675754338673397,10.0,0.0,15.811690682496366,13.302003133406382,145.0597996153921,192.2537440995802,0.0
0.136,13.033470186172819,-2.009681818559672,10.0,0.0,15.76411117329026,13.251784353150322,145.8020797594102,192.2537440995802,0.0
0.137,12.827776614412189,-2.2507706899480273,10.0,0.0,15.74036644898495,13.222296309440704,146.90508680564955,192.2537440995802,0.0
0.138,12.632508422334457,-2.49101280049952,10.0,0.0,15.740063136185995,13.21280516308246,148.25505719973543,192.2537440995802,0.0
0.139,12.448413919715984,-2.7289442305040352,10.0,0.0,15.762611076226086,13.222530513447396,149.71716033588237,192.2537440995802,0.0
0.14,12.275103581047318,-2.9646365086844297,10.0,0.0,15.807423593598463,13.250761315007223,151.35555915232555,192.2537440995802,0.0
0.14100000000000001,12.111866068251992,-3.1984209799519383,10.0,0.0,15.87393730844721,13.296873311169104,153.37043359705535,192.2537440995802,0.0
0.14200000000000002,11.958110318669906,-3.4302116844632344,10.0,0.0,15.961569984210835,13.360306236525743,155.6674790258759,192.2537440995802,0.0
0.14300000000000002,11.814406272069583,-3.6577211316124902,10.0,0.0,16.069490817075067,13.440429024553293,157.97381506579652,192.2537440995802,0.0
0.14400000000000002,11.67937153554353,-3.8820489913849543,10.0,0.0,16.197032815559112,13.536748397616382,160.38390070510965,192.2537440995802,0.0
0.145,11.55267037207944,-4.102478005461798,10.0,0.0,16.343456464451783,13.648776813837348,162.8632691465041,192.2537440995802,0.0
0.146,11.433976518616234,-4.31830842894753,10.0,0.0,16.507977646519947,13.776034065571805,165.81158369928428,192.2537440995802,0.0
0.147,11.323460152123737,-4.5280200701003315,10.0,0.0,16.689682411846704,13.917987572119173,168.25647459638648,192.2537440995802,0.0
0.148,11.220794933949234,-4.731052853297766,10.0,0.0,16.887648541035702,14.074104214878743,171.2779710858384,192.2537440995802,0.0
0.149,11.126104201951593,-4.926161552228347,10.0,0.0,17.100861350632144,14.243795134619253,174.15857584095536,192.2537440995802,0.0
