timestamp,iq,id,iq_ref,id_ref,vq,vd,omega,omega_ref,r
0.0,0.0,0.0,0.0,0.0,0.0,0.0,0.0,362.33416302417555,0.0
0.001,0.0,0.0,10.0,0.0,0.0,1.0999999999999999,4.6984468583181735,362.33416302417555,0.0
0.002,0.3779087341177643,-0.20868927571505855,10.0,0.0,0.1329558203286565,1.948430039247046,10.862116229662904,362.33416302417555,0.0
0.003,0.7480310650445479,-0.41596200453286175,10.0,0.0,0.3581721699619594,2.6883782875414837,17.539218320822574,362.33416302417555,0.0
0.004,1.0601321448945595,-0.5918894903245492,10.0,0.0,0.6521410056102837,3.3462234504955743,24.445076111998063,362.33416302417555,0.0
0.005,1.3139625402783606,-0.7351441449243118,10.0,0.0,0.9964962111372418,3.9428806480253717,31.504072457042362,362.33416302417555,0.0
0.006,1.5201176087828663,-0.8514672213006049,10.0,0.0,1.3774446077198779,4.494168892773227,38.680984871705796,362.33416302417555,0.0
0.007,1.6897424218261843,-0.9468692446211588,10.0,0.0,1.7847579809205347,5.011825973954839,45.95056365077749,362.33416302417555,0.0
0.008,1.8319197726833585,-1.0264640917820804,10.0,0.0,2.2109071378737823,5.5045054238745035,53.267909673435135,362.33416302417555,0.0
0.009000000000000001,1.953387624704669,-1.094527921725867,10.0,0.0,2.6504003969458783,5.97859215428375,60.60846966586284,362.33416302417555,0.0
0.01,2.059568863898223,-1.1535459881043517,10.0,0.0,3.099164352153885,6.4387542797682045,67.97388885304252,362.33416302417555,0.0
0.011,2.1544508779508944,-1.2053567117906063,10.0,0.0,3.5541771233312405,6.888401379071155,75.36173329297289,362.33416302417555,0.0
0.012,2.240564100704588,-1.2519776809427678,10.0,0.0,4.0132635266910315,7.33006141119917,82.72295799178195,362.33416302417555,0.0
0.013000000000000001,2.3202104333986093,-1.2941204262437762,10.0,0.0,4.474776785219231,7.765564116081553,90.07148055908806,362.33416302417555,0.0
0.014,2.3946364694008353,-1.3330545577359456,10.0,0.0,4.937550315393978,8.196277475695211,97.3238137054111,362.33416302417555,0.0
0.015,2.46528952320414,-1.3688113979875167,10.0,0.0,5.400661739625371,8.623169276806644,104.48870514248817,362.33416302417555,0.0
0.016,2.5333207873383987,-1.401280893086985,10.0,0.0,5.863365277603191,9.046906131713332,111.57882876454494,362.33416302417555,0.0
0.017,2.5995241208220974,-1.4305012957123462,10.0,0.0,6.3250616966116935,9.46793760088527,118.5859851381136,362.33416302417555,0.0
0.018000000000000002,2.6645564766703433,-1.4564258374349492,10.0,0.0,6.785251116199772,9.8865440392324,125.49317451037551,362.33416302417555,0.0
0.019,2.7290223774096,-1.4788812553659476,10.0,0.0,7.24349308821894,10.302867850180785,132.27350735063237,362.33416302417555,0.0
0.02,2.7929208805609718,-1.4985709974171426,10.0,0.0,7.699484561577348,10.716999300896987,138.8470638536393,362.33416302417555,0.0
0.021,2.8575257411658095,-1.5139889738320822,10.0,0.0,8.152789112656672,11.128849204242394,145.27292720586416,362.33416302417555,0.0
0.022,2.9232029825830557,-1.525089116933966,10.0,0.0,8.60301503493966,11.53826612441134,151.59415462438378,362.33416302417555,0.0
0.023,2.991128343801371,-1.5304791616019329,10.0,0.0,9.049641960493704,11.944948927471861,157.8377820769969,362.33416302417555,0.0
0.024,3.0599777987690104,-1.532912152700439,10.0,0.0,9.492488202372545,12.348731956347464,163.53866732733195,362.33416302417555,0.0
0.025,3.1304845897766462,-1.5317995107645117,10.0,0.0,9.931281402427128,12.749354054062229,168.73534561882462,362.33416302417555,0.0
0.026000000000000002,3.20431022641265,-1.5250119052431428,10.0,0.0,10.36552198205974,13.146377509891092,173.66924420562881,362.33416302417555,0.0
0.027,3.281858428760303,-1.5124937120396318,10.0,0.0,10.794731724114802,13.539330632208452,178.32111553460396,362.33416302417555,0.0
0.028,3.3631001694053926,-1.494949027934442,10.0,0.0,11.218511070876561,13.927748307052092,182.57518544398195,362.33416302417555,0.0
0.029,3.4486076418686356,-1.4721192192524089,10.0,0.0,11.636418418332532,14.311108744523045,186.45718875211665,362.33416302417555,0.0
0.03,3.5388413354223647,-1.4439133945561542,10.0,0.0,12.047996732160236,14.688853241426216,189.97802431926348,362.33416302417555,0.0
0.031,3.6340168252970506,-1.4106256493144484,10.0,0.0,12.452812070565864,15.060414153071166,193.11595915511737,362.33416302417555,0.0
0.032,3.7344130736480716,-1.3724200630703545,10.0,0.0,12.850432229260988,15.425208674972321,195.88191433712535,362.33416302417555,0.0
0.033,3.840220390654871,-1.329557729402825,10.0,0.0,13.240437023435728,15.78265091816563,198.28538621553477,362.33416302417555,0.0
0.034,3.951548164016338,-1.2823726661390376,10.0,0.0,13.622423828889984,16.132161434557396,200.34047950503998,362.33416302417555,0.0
0.035,4.068460199981773,-1.2312013257362489,10.0,0.0,13.996006008626324,16.473172533632823,202.07155229707726,362.33416302417555,0.0
0.036000000000000004,4.190942141457893,-1.1764250422430131,10.0,0.0,14.360817402516341,16.805136847571625,203.51357158166542,362.33416302417555,0.0
0.037,4.318968965056339,-1.1183500595204847,10.0,0.0,14.716503603146696,17.12752773832448,204.76823232377888,362.33416302417555,0.0
0.038,4.452485028073343,-1.0572313748475217,10.0,0.0,15.062717967302497,17.439841661369197,205.98521439240304,362.33416302417555,0.0
0.039,4.591354780580745,-0.9933458931329169,10.0,0.0,15.399126071205306,17.741605116379368,202.64647419134502,362.33416302417555,0.0
0.04,4.727434884428709,-0.9406382965586153,10.0,0.0,15.726910729412833,18.033252922380612,212.9066068953424,362.33416302417555,0.0
0.041,4.83725287626943,-0.9378489875313532,10.0,0.0,16.051301954372466,18.317795235538483,214.1437712280309,362.33416302417555,0.0
0.042,4.910100607471328,-0.9911322134263121,10.0,0.0,16.377597336090652,18.599407369362734,228.418914835816,362.33416302417555,0.0
0.043000000000000003,4.950132953500693,-1.094230414343055,10.0,0.0,16.710232362861337,18.88181274722516,231.63554663091398,362.33416302417555,0.0
0.044,5.003778626612988,-1.1660840313312995,10.0,0.0,17.04471734060072,19.163740389396356,245.71616846652105,362.33416302417555,0.0
0.045,5.026820994423335,-1.2826794216728945,10.0,0.0,17.386053541550986,19.448925561396347,247.67281856590748,362.33416302417555,0.0
0.046,5.054292171764366,-1.383006651185609,10.0,0.0,17.731644680949223,19.736934430461964,263.50140431572817,362.33416302417555,0.0
0.047,5.0762167069211,-1.4826556686427588,10.0,0.0,18.08143571293934,20.028564539467013,272.66697575145264,362.33416302417555,0.0
0.048,5.071116953890487,-1.619058233009487,10.0,0.0,18.43941844453672,20.326790958955506,277.0660841366693,362.33416302417555,0.0
0.049,5.076657589690853,-1.724689184156576,10.0,0.0,18.80168092390573,20.630332542186537,291.86368958601594,362.33416302417555,0.0
0.05,5.0697754487519,-1.8377235380486627,10.0,0.0,19.1694487830776,20.940558656892655,303.75325921980254,362.33416302417555,0.0
0.051000000000000004,5.042953908738965,-1.9710385998769964,10.0,0.0,19.544996781065088,21.259420494037386,314.0851072645665,362.33416302417555,0.0
0.052000000000000005,5.013124332718063,-2.0936873564194194,10.0,0.0,19.92703437556969,21.58696398522856,323.5779646162791,362.33416302417555,0.0
0.053,4.9773004232861116,-2.2092399945878984,10.0,0.0,20.315106862376048,21.92359922102838,332.5669570206763,362.33416302417555,0.0
0.054,4.933533691449865,-2.3208305776837257,10.0,0.0,20.709155061840608,22.26983428333652,341.57552593849766,362.33416302417555,0.0
0.055,4.8886334470708,-2.4169190217784537,10.0,0.0,21.10787577060899,22.625352018923643,350.04897807067005,362.33416302417555,0.0
0.056,4.846740840606966,-2.4913706444614725,10.0,0.0,21.509504976113433,22.989349236096114,358.6779974518577,362.33416302417555,0.0
0.057,4.8082252054667505,-2.546117807206763,7.519377328616239,0.0,21.91264865445984,23.088058952050364,365.78523202892603,362.33416302417555,0.0
0.058,4.686779746595098,-2.526599377567091,3.9312493500345784,0.0,22.2826544376792,22.860298057438158,369.6780679836467,362.33416302417555,0.0
0.059000000000000004,4.44434886785072,-2.418406849661526,1.911392323079527,0.0,22.58117755934219,22.53146377950304,366.9545454615564,362.33416302417555,0.0
0.06,4.167364146489038,-2.2480712486302674,3.2269497597508785,0.0,22.79930995021099,22.45831914039347,362.33287429954834,362.33416302417555,0.0
0.061,4.004764093740791,-2.088100541916402,5.537798228001178,0.0,22.972421216353737,22.670456120011245,357.0059697917089,362.33416302417555,0.0
0.062,3.999068940884399,-1.9658105610442562,8.254532414245574,0.0,23.13758286301519,23.153423270372617,357.35423213485785,362.33416302417555,0.0
0.063,4.153193022028619,-1.8784046624298776,8.130200551564265,0.0,23.326133311007776,23.546755423152188,360.42311308845814,362.33416302417555,0.0
0.064,4.319418616922382,-1.795546649685306,6.614870574121296,0.0,23.526921607063308,23.73742285193427,358.19391634678556,362.33416302417555,0.0
0.065,4.425389861604738,-1.6877646288159918,7.770871411731487,0.0,23.7156703742233,24.061421178389125,346.4561096346358,362.33416302417555,0.0
0.066,4.600759826322775,-1.5580542007283869,10.0,0.0,23.904753770431856,24.587307701575767,345.814076191237,362.33416302417555,0.0
0.067,4.892243964100491,-1.4328592583245197,10.0,0.0,24.115043139954654,25.02691307067355,345.776544186341,362.33416302417555,0.0
0.068,5.1589721342960475,-1.3547697881740772,10.0,0.0,24.340926217142446,25.417161582470104,332.9672983784804,362.33416302417555,0.0
0.069,5.449627890479462,-1.2240633516178132,10.0,0.0,24.569649024471428,25.761668699327558,335.5554182841134,362.33416302417555,0.0
0.07,5.731045945730582,-1.0940600954368136,10.0,0.0,24.79695696893891,26.066547956716377,321.13194203074823,362.33416302417555,0.0
0.07100000000000001,6.011565065670989,-0.9578893252683501,10.0,0.0,25.018343292541807,26.335627160172127,323.34955469868027,362.33416302417555,0.0
0.07200000000000001,6.286570820107376,-0.8290047634326597,10.0,0.0,25.23168331002975,26.572491633853986,327.95085365243716,362.33416302417555,0.0
0.073,6.457551234017149,-0.8673937200109034,10.0,0.0,25.45288740397904,26.790945873930752,344.1780466317839,362.33416302417555,0.0
0.074,6.498651430884875,-1.0823739370325796,10.0,0.0,25.697080446847696,27.006863881878417,352.8968883186994,362.33416302417555,0.0
0.075,6.533076145028548,-1.2680178187641897,10.0,0.0,25.956717011044496,27.22223367673105,371.8182627949117,362.33416302417555,0.0
0.076,6.507856442392308,-1.5143626806574813,1.604940286026797,0.0,26.237168394297846,26.521691994412475,373.29872486139413,362.33416302417555,0.0
0.077,6.148104881313361,-1.5889399873850738,0.7550636344133812,0.0,26.42526052611508,25.94903425880568,381.91155978674885,362.33416302417555,0.0
0.078,5.747541274383472,-1.6347837429655758,-3.7471277958897113,0.0,26.541574711236507,25.00617370027557,389.5959733744698,362.33416302417555,0.0
0.079,5.196049696484238,-1.6324350736276803,-7.861952693253124,0.0,26.5512546308098,23.818280229203285,390.55706954835046,362.33416302417555,0.0
0.08,4.542208790014622,-1.5530993639219417,-8.624729845435205,0.0,26.432473769944295,22.77379444336183,390.80127711859956,362.33416302417555,0.0
0.081,3.934375587385567,-1.4670174374377587,-9.031504771503997,0.0,26.21244676176498,21.845084922896724,389.67504156977606,362.33416302417555,0.0
0.082,3.4023963855112536,-1.384999417204553,-8.74179578254825,0.0,25.913390339396276,21.075618771885903,387.0375877891294,362.33416302417555,0.0
0.083,2.9679431266096685,-1.315579494046498,-7.6701031398744695,0.0,25.56047693281831,20.51065276100428,383.32789047221536,362.33416302417555,0.0
0.084,2.6523264353273848,-1.263201232094184,-6.025191755897838,0.0,25.1812908562268,20.16748863981575,378.9359744062883,362.33416302417555,0.0
0.085,2.460209750711863,-1.2366410015437639,-3.9952518367554477,0.0,24.803309132434563,20.0455432687477,374.245864867763,362.33416302417555,0.0
0.08600000000000001,2.3887918712280003,-1.2365731486818454,-1.7693140859286478,0.0,24.451189182405436,20.128482815703833,369.347983589325,362.33416302417555,0.0
0.08700000000000001,2.4284575391868377,-1.2579603145546892,0.6094883476388464,0.0,24.144928448849477,20.402247900875274,364.70708420055877,362.33416302417555,0.0
0.088,2.568580151477363,-1.295859277837451,2.9062088302581293,0.0,23.900625311468623,20.831844802254057,359.9077546392712,362.33416302417555,0.0
0.089,2.790720291682285,-1.3439549865187668,5.330137694750947,0.0,23.72862371628586,21.41468248072526,354.8823277963598,362.33416302417555,0.0
0.09,3.0931002672552643,-1.3904193374659433,7.91736946848482,0.0,23.636736169985866,22.151352042385888,355.4948512977847,362.33416302417555,0.0
0.091,3.471343344714505,-1.4371269482501008,7.679500835036277,0.0,23.63237752815872,22.714545087068984,357.7997359563148,362.33416302417555,0.0
0.092,3.7981003141485683,-1.4534399863935907,6.572402776449827,0.0,23.686101413070535,23.069420027127876,352.25268141515346,362.33416302417555,0.0
0.093,4.036171801465347,-1.4260770023882414,9.44674486312072,0.0,23.766767344875042,23.698508177881216,341.42770666007857,362.33416302417555,0.0
0.094,4.38279000096988,-1.3768012517431742,10.0,0.0,23.897128795843532,24.269121463857363,345.0194956872037,362.33416302417555,0.0
0.095,4.739585561009877,-1.3105058524152244,10.0,0.0,24.064715693893156,24.754395685354595,340.0944700522437,362.33416302417555,0.0
0.096,5.049675044519123,-1.266070956969625,10.0,0.0,24.259846439781807,25.177359286921448,330.3704463924021,362.33416302417555,0.0
0.097,5.382273705698744,-1.1376362345229323,10.0,0.0,24.464077000723595,25.544054645025803,331.29981127223783,362.33416302417555,0.0
0.098,5.670235578063468,-1.0467503787230643,10.0,0.0,24.675840944468124,25.86615370406559,319.780720425891,362.33416302417555,0.0
0.099,5.9792002639757555,-0.8999222129316977,10.0,0.0,24.883396160063132,26.146112754849153,317.18613368123897,362.33416302417555,0.0
0.1,6.25253484065599,-0.7991196203735069,10.0,0.0,25.0885717556535,26.391854265538143,332.1211692243525,362.33416302417555,0.0
0.101,6.408920057087093,-0.8760320839781124,10.0,0.0,25.307272339675826,26.61907015667666,338.6791445458568,362.33416302417555,0.0
0.10200000000000001,6.453434812300057,-1.093388153181427,10.0,0.0,25.549964497386078,26.842101746194444,356.192196662146,362.33416302417555,0.0
0.10300000000000001,6.488058825846503,-1.2834341214834015,8.419078996525272,0.0,25.809422094098284,26.88983458821127,365.5297866576835,362.33416302417555,0.0
0.10400000000000001,6.398868249060513,-1.5095729559336433,3.71832776242145,0.0,26.070682027447436,26.467623683562877,372.7053005550793,362.33416302417555,0.0
0.105,6.134808568653597,-1.6010318188123762,0.026859438414496672,0.0,26.271393963568997,25.78286051849142,384.2170096517986,362.33416302417555,0.0
0.106,5.700229627230927,-1.6614072125844188,-5.947823576221385,0.0,26.389285094257417,24.61150750192182,385.023111132694,362.33416302417555,0.0
0.107,5.071443645521436,-1.6015035404241371,-6.577763797754265,0.0,26.371058652344665,23.624352974429577,387.6448832477256,362.33416302417555,0.0
0.108,4.473081669836448,-1.5374512778713787,-8.141757057505568,0.0,26.249492689714764,22.627883356646215,388.79039641721397,362.33416302417555,0.0
0.109,3.8963372271375785,-1.4654425360197005,-8.979075976180136,0.0,26.033155922591362,21.699897224861544,387.52372235466913,362.33416302417555,0.0
0.11,3.3730743894471997,-1.3856102517798934,-8.597634538212652,0.0,25.737592755153972,20.945199244625112,384.6967319380504,362.33416302417555,0.0
0.111,2.947370804123124,-1.3155777347412538,-7.4077650190420306,0.0,25.389210852404833,20.40508074440643,381.05840528346454,362.33416302417555,0.0
0.112,2.6431386950807854,-1.2649008990589798,-5.775844114341994,0.0,25.01678116315407,20.08095700440142,376.7260470341972,362.33416302417555,0.0
0.113,2.460108193326143,-1.2407910607122044,-3.753583829808553,0.0,24.64703675496655,19.975223125826094,372.1700006831627,362.33416302417555,0.0
0.114,2.3960302299999925,-1.24264096511517,-1.5739190308811626,0.0,24.30413798760805,20.067846990274557,367.33713865450716,362.33416302417555,0.0
0.115,2.440362483080544,-1.264202422153951,0.7924822271432923,0.0,24.007144744660486,20.349908754463616,362.8474974246141,362.33416302417555,0.0
0.116,2.583115923742694,-1.3028835862520423,3.032169498085426,0.0,23.77209631590699,20.781507049220377,358.08313860245187,362.33416302417555,0.0
0.117,2.805422792841772,-1.3504141779787067,5.456859153383789,0.0,23.608554112953463,21.36773343980524,353.2879029116022,362.33416302417555,0.0
0.11800000000000001,3.1083043140815136,-1.3955043209908973,7.944939599934354,0.0,23.524473379167848,22.097331024958454,354.33409067414823,362.33416302417555,0.0
0.11900000000000001,3.4817663721317773,-1.4420079970370492,7.5018464421616144,0.0,23.526424980211075,22.633887715224134,356.5575173039683,362.33416302417555,0.0
0.12,3.797295104562618,-1.453061994717204,6.447899584453639,0.0,23.58258799316091,22.974507133810555,350.2901351365058,362.33416302417555,0.0
0.121,4.026825898261607,-1.4221999741420386,9.702030947061601,0.0,23.66369128443432,23.633081730314668,339.95276472650164,362.33416302417555,0.0
0.122,4.382547577735663,-1.3745719114867865,10.0,0.0,23.79761123954448,24.19731040168772,344.13518476602997,362.33416302417555,0.0
0.123,4.735471506589175,-1.3129228370399888,10.0,0.0,23.96825694871834,24.680264095525935,338.3575771130139,362.33416302417555,0.0
0.124,5.043359686238278,-1.268480400496763,10.0,0.0,24.165861279083337,25.101648530424864,329.61751947846403,362.33416302417555,0.0
0.125,5.374882882282266,-1.1379947207749705,10.0,0.0,24.37193461949777,25.467266285102042,329.8811872863992,362.33416302417555,0.0
0.126,5.658533802971572,-1.0507301690307171,10.0,0.0,24.585668157443827,25.789043229037567,319.11752476390836,362.33416302417555,0.0
0.127,5.967266128451115,-0.901314222707938,10.0,0.0,24.794642927410763,26.068891785778284,315.75497099892624,362.33416302417555,0.0
0.128,6.237439042161137,-0.8029745898359288,10.0,0.0,25.00138187590239,26.31502126658832,331.0499334638091,362.33416302417555,0.0
0.129,6.395434049440519,-0.8753075117529372,10.0,0.0,25.220999895365438,26.54253397250288,337.36932724437,362.33416302417555,0.0
0.13,6.440339036368464,-1.090618158125951,10.0,0.0,25.46436822535551,26.765897611283012,354.98483280506895,362.33416302417555,0.0
0.131,6.475130398143817,-1.2796480443849942,8.427562776142755,0.0,25.724376267249347,26.814915624633823,364.0293591921817,362.33416302417555,0.0
0.132,6.387273171850362,-1.5040130882444114,3.888347620906324,0.0,25.986075162250838,26.411455554511555,371.40788746125656,362.33416302417555,0.0
0.133,6.130930727806332,-1.5967363975178346,0.10834624199807585,0.0,26.189214074321427,25.73142247735601,383.05632822990447,362.33416302417555,0.0
0.134,5.700114279930796,-1.6577528845856642,-5.923095794383164,0.0,26.309820367954117,24.558874373736096,383.6919355352647,362.33416302417555,0.0
0.135,5.071989470208427,-1.5973335231757082,-6.454477172174167,0.0,26.29385492723579,23.582289743238956,386.3186291325007,362.33416302417555,0.0
0.136,4.477866593715568,-1.534187451904031,-8.007668631875418,0.0,26.175485693313796,22.595302053247455,387.5803899641996,362.33416302417555,0.0
0.137,3.9053904108501305,-1.46396213308449,-8.891011317125106,0.0,25.963161289427404,21.67057157943272,386.40807791472315,362.33416302417555,0.0
0.138,3.3842043329476335,-1.3847777904613396,-8.545594441292366,0.0,25.671588254047844,20.915516702545546,383.70462096853083,362.33416302417555,0.0
0.139,2.9577922940050794,-1.3159976202289578,-7.407570547639759,0.0,25.32689305921818,20.370231932857234,380.09651763002034,362.33416302417555,0.0
0.14,2.650775986522061,-1.2653377590392703,-5.781142424442963,0.0,24.95725412387412,20.04204064870363,375.86211352221284,362.33416302417555,0.0
0.14100000000000001,2.465325667174383,-1.2403248454737454,-3.7992198755195825,0.0,24.589515131768792,19.928781170633997,371.3823269398973,362.33416302417555,0.0
0.14200000000000002,2.396820334853121,-1.2421565877092253,-1.6498082235190443,0.0,24.247675711848593,20.01237088075348,366.5938380386215,362.33416302417555,0.0
0.14300000000000002,2.435941867647932,-1.2634710019301532,0.7018394769743952,0.0,23.9507054730743,20.28561638647262,362.11163707480137,362.33416302417555,0.0
