timestamp,iq,id,iq_ref,id_ref,vq,vd,omega,omega_ref,r
0.0,0.0,0.0,0.0,0.0,0.0,0.0,0.0,63.129832218625225,0.0
0.001,0.0,0.0,10.0,0.0,0.0,1.0999999999999999,15.222488390856288,63.129832218625225,0.0
0.002,0.45632930358308393,-0.25433008823415026,10.0,0.0,0.13797630970575656,1.9398037766058602,34.3031123969489,63.129832218625225,0.0
0.003,1.0797271556823582,-0.6077082989821277,10.0,0.0,0.38246366840145946,2.645414335826621,54.833305996249706,63.129832218625225,0.0
0.004,1.7355188651057787,-0.9818204888780475,4.792027211884383,0.0,0.7106819059307394,2.6661324587865756,67.94241811310263,63.129832218625225,0.0
0.005,2.1100819964929527,-1.1990895792589393,-1.8106547054868547,0.0,1.0283086100460257,2.008741282815427,69.20491326918348,63.129832218625225,0.0
0.006,2.017372944173669,-1.150741069762738,-2.5026530940328597,0.0,1.240942499204278,1.4527025183555666,65.91510092026675,63.129832218625225,0.0
0.007,1.6747890328167014,-0.9560605891182696,-0.8855996065909121,0.0,1.3557777552247887,1.1950840264876657,63.73409193406492,63.129832218625225,0.0
0.008,1.3083810767703261,-0.7440136438316796,0.19886228935560668,0.0,1.4119892772813787,1.114710219139835,62.850204968229725,63.129832218625225,0.0
0.009000000000000001,1.0119602004975965,-0.5708880903154612,0.6436020447771594,0.0,1.4376189249636084,1.1150139156988885,63.39089097538369,63.129832218625225,0.0
0.01,0.803916975200126,-0.44725077641338085,0.370648453632592,0.0,1.4488471285394533,1.103298460810136,63.98649318859474,63.129832218625225,0.0
0.011,0.6539074706517988,-0.3580466700349595,0.06428073732737094,0.0,1.4492048877062336,1.0773270721330557,64.35257132324364,63.129832218625225,0.0
0.012,0.5398861850602007,-0.2912984321651045,-0.13098572104326045,0.0,1.4404794669867276,1.0466152113522373,63.10807379711147,63.129832218625225,0.0
0.013000000000000001,0.4510576462186831,-0.2394989613997182,0.4914806262379593,0.0,1.4245249428555964,1.0971568837788412,62.33965073712497,63.129832218625225,0.0
0.014,0.415186142149706,-0.21667003720696865,0.8835939710462134,0.0,1.4132268514266904,1.18101432106494,63.38573078352442,63.129832218625225,0.0
0.015,0.42809691474724276,-0.22046535402423065,0.3579949621974949,0.0,1.4120900869611108,1.191840281031678,64.12878874530682,63.129832218625225,0.0
0.016,0.4411151085038846,-0.22535057469867917,-0.023523583960520122,0.0,1.4126490160447798,1.163456024979034,64.14918078600512,63.129832218625225,0.0
0.017,0.4372227216484855,-0.22254630262120484,-0.04391308998346777,0.0,1.409956304479551,1.1400967717307378,63.15343581720664,63.129832218625225,0.0
0.018000000000000002,0.42562440630253623,-0.21452168523739684,0.45372335842995626,0.0,1.4043422735545714,1.1749849678559554,62.45447396937715,63.129832218625225,0.0
0.019,0.43358357523348157,-0.21643640105381806,0.8099578648371841,0.0,1.403069330248256,1.2390408807609496,63.72148398413383,63.129832218625225,0.0
0.02,0.4660240909896879,-0.2308172087857297,0.17053633980375527,0.0,1.4098920142554174,1.2191763301831902,64.46140303229981,63.129832218625225,0.0
0.021,0.4783326312025619,-0.23399837452216743,-0.21273889241598065,0.0,1.4142520949577757,1.165184908504233,63.713781438676186,63.129832218625225,0.0
0.022,0.4622422814565058,-0.22424308811968408,0.1552324121953233,0.0,1.4116721322603651,1.1632312567670429,62.75680877332506,63.129832218625225,0.0
0.023,0.45169173045886557,-0.2155033761201305,0.6374489793238869,0.0,1.4082909852030505,1.211578740384139,62.2942448214506,63.129832218625225,0.0
0.024,0.46585773391648033,-0.2189094063860464,0.8770868292328655,0.0,1.410544761662423,1.2746275928621822,64.22434979539682,63.129832218625225,0.0
0.025,0.5007803910563543,-0.23440413815263367,-0.0989108335079611,0.0,1.4205484059153282,1.2181409840869675,64.19022826048159,63.129832218625225,0.0
0.026000000000000002,0.4982820170210791,-0.23086653046432898,-0.0924540264689101,0.0,1.423358940702042,1.1793976737315484,62.93818866680586,63.129832218625225,0.0
0.027,0.48046338874760525,-0.2175415941828952,0.5354822058871498,0.0,1.4205837240604677,1.215753230748847,62.27247552926304,63.129832218625225,0.0
0.028,0.4848173744468316,-0.21473022111463547,0.8769123415521799,0.0,1.421545583110087,1.2788165382902021,64.01470887562041,63.129832218625225,0.0
0.029,0.5136736318495219,-0.22573291931686054,-0.00305309819645877,0.0,1.4299559975418066,1.2323285527960792,64.06421169213542,63.129832218625225,0.0
0.03,0.5116004056052267,-0.22168609449074,-0.03714830118906154,0.0,1.4323213942680466,1.19689620682374,62.73131283719937,63.129832218625225,0.0
0.031,0.4956903053152065,-0.20875757677569867,0.6332863200932207,0.0,1.429525348024035,1.2410617742616947,62.10127411918982,63.129832218625225,0.0
0.032,0.5048441538878532,-0.20763524637640784,0.9585912600923505,0.0,1.4314312919814494,1.3084443531726435,64.29908761249084,63.129832218625225,0.0
0.033,0.5384977395863977,-0.22075615332537746,-0.1520080404968155,0.0,1.4413394225025962,1.2402499401823255,63.6872700355863,63.129832218625225,0.0
0.034,0.5303626870428614,-0.2133110990957095,0.1483263697858413,0.0,1.442487133637843,1.2252399513169125,62.430395001580955,63.129832218625225,0.0
0.035,0.519471817471934,-0.20226237516526813,0.7837582589589575,0.0,1.4408781656829723,1.2798565412851484,62.84409967365542,63.129832218625225,0.0
0.036000000000000004,0.5363647880613859,-0.2042188811129862,0.5797632483714223,0.0,1.4452174564139662,1.2980896699441646,64.19431724151129,63.129832218625225,0.0
0.037,0.5541534239553447,-0.2087454601324266,-0.10599038578537046,0.0,1.451424489570423,1.2397526449165657,63.01476991100676,63.129832218625225,0.0
0.038,0.5405691456422054,-0.1977257086078541,0.48493390254307733,0.0,1.4499196784505768,1.261401390738454,61.81412470091748,63.129832218625225,0.0
0.039,0.5423675412711745,-0.19190456911779452,1.0984135827647934,0.0,1.450200095196244,1.3419746365049563,63.947754408076385,63.129832218625225,0.0
0.04,0.5775134484351655,-0.2041236008969595,0.02341950729083031,0.0,1.4599120997346022,1.2862863884332718,63.40238311337223,63.129832218625225,0.0
0.041,0.5756587643488331,-0.19913470669394137,0.2933796456954371,0.0,1.4624131103318332,1.2781391959229746,61.87814589758722,63.129832218625225,0.0
0.042,0.5711112466848485,-0.19215128449060304,1.0680151167983243,0.0,1.4631310131179744,1.3540488042628764,63.305915185303526,63.129832218625225,0.0
0.043000000000000003,0.6020155224918906,-0.1991305305123218,0.3523696432733867,0.0,1.4722056377439139,1.3325269397332162,64.48410254625239,63.129832218625225,0.0
0.044,0.611343955794209,-0.19864687903901396,-0.2502667404773155,0.0,1.4780976193320128,1.2542140917366038,61.81513520945041,63.129832218625225,0.0
0.045,0.5847617370816458,-0.17866578882279438,1.097363898015421,0.0,1.4733760345525888,1.3416047891615754,62.945899713924234,63.129832218625225,0.0
0.046,0.606139369824824,-0.18120565899322566,0.5338209708255192,0.0,1.4783448746145142,1.341700868201415,64.06348052301762,63.129832218625225,0.0
0.047,0.6191969862381711,-0.1827594337134745,-0.0343059167650962,0.0,1.4829719550917544,1.2842031335023583,61.53619305148057,63.129832218625225,0.0
0.048,0.6042585301193206,-0.1687972990494462,1.245274210674872,0.0,1.4798351814911186,1.3811267695524412,63.21455729694339,63.129832218625225,0.0
0.049,0.6371363420259353,-0.17746038631201455,0.4052448371602822,0.0,1.4877970098010787,1.3590793884055319,63.24320340178917,63.129832218625225,0.0
0.05,0.6479809766223659,-0.17833331612265418,0.38978807290575446,0.0,1.4927673085718955,1.3458688461849158,61.638527476799034,63.129832218625225,0.0
0.051000000000000004,0.6506832913674315,-0.17223599757575783,1.2070390828190827,0.0,1.4952400889053046,1.4243397585204611,63.894713800268114,63.129832218625225,0.0
0.052000000000000005,0.6861331297831641,-0.18230136200884944,0.07129710526811361,0.0,1.5064808457120358,1.3582342709477733,62.37835652072665,63.129832218625225,0.0
0.053,0.6800289548989638,-0.17361377909696155,0.8369905020178328,0.0,1.5089306903161868,1.396473058852426,62.785750616394914,63.129832218625225,0.0
0.054,0.6941306997197888,-0.17108473176318534,0.6367342702060027,0.0,1.5147681098727914,1.3998355992810967,64.12624472715771,63.129832218625225,0.0
0.055,0.7036743053326495,-0.16972287971125238,-0.043476910260721036,0.0,1.520233528264228,1.3297161809201337,60.822781969095274,63.129832218625225,0.0
0.056,0.6815806425356385,-0.15020232647594117,1.6313249712657971,0.0,1.5160068206450594,1.4607113039707942,63.820414983190354,63.129832218625225,0.0
0.057,0.7241096657307685,-0.16295725090111515,0.12560263657260623,0.0,1.526900543311996,1.390907639143521,61.848156749506174,63.129832218625225,0.0
0.058,0.721268522182989,-0.15582443930551604,1.1245485081058866,0.0,1.528812368709744,1.4548527983034687,63.248550121467474,63.129832218625225,0.0
0.059000000000000004,0.748633742850163,-0.15997780958706118,0.42316464309681395,0.0,1.5374557263306377,1.422414354511999,62.13099272169038,63.129832218625225,0.0
0.06,0.7516074298756128,-0.15540310953663444,0.9919317379547079,0.0,1.5414461531019334,1.4636088565800969,63.058059493015534,63.129832218625225,0.0
0.061,0.7731275704004015,-0.15594244945659708,0.5291160795482293,0.0,1.5492620617946096,1.4421480791577506,62.22790972382748,63.129832218625225,0.0
0.062,0.7769206719514385,-0.15146690820574676,0.9532101890902337,0.0,1.553652598938989,1.474691439215226,62.93024518120135,63.129832218625225,0.0
0.063,0.7953990042659763,-0.15012082329688742,0.6040383307775374,0.0,1.560755104447213,1.4597749859324853,62.18322151523893,63.129832218625225,0.0
0.064,0.8000784189375227,-0.14591127128922937,0.9870162707926122,0.0,1.5652061242045865,1.4923497682229026,62.98356515320231,63.129832218625225,0.0
0.065,0.8192749123305266,-0.14469869016699954,0.5883071224651479,0.0,1.5723782318118953,1.4723595684173283,61.822165699794915,63.129832218625225,0.0
0.066,0.8223653497010323,-0.1395206380425303,1.1820835143571502,0.0,1.5762766487554472,1.5242401107676118,63.331873604075376,63.129832218625225,0.0
0.067,0.8486457301817276,-0.14209045217836125,0.4252091483624181,0.0,1.5853077383158585,1.4792685589197099,61.28717661514933,63.129832218625225,0.0
0.068,0.8462480330513583,-0.13302664312010914,1.4659841988602014,0.0,1.5879158465976715,1.5622778209164903,63.902940476513265,63.129832218625225,0.0
0.069,0.8816326841316924,-0.14080270442635967,0.15037118559935214,0.0,1.5995100750852522,1.4782054969879632,60.85441622581681,63.129832218625225,0.0
0.07,0.8691345741196249,-0.12550986767090677,1.6973874708756624,0.0,1.5997776756750595,1.5887563884261793,64.08358159563039,63.129832218625225,0.0
0.07100000000000001,0.9092574265033193,-0.1362730541887539,0.07326729219882144,0.0,1.6124104842342253,1.489617073410012,60.599906653636715,63.129832218625225,0.0
0.07200000000000001,0.8940234236572331,-0.1187299364330251,1.8404040188455448,0.0,1.611828705617549,1.6143581813061925,64.14675018747981,63.129832218625225,0.0
0.073,0.9380962284501444,-0.13191441865388648,0.0568130722354514,0.0,1.6254049398740102,1.5077002806018287,60.580024117881294,63.129832218625225,0.0
0.074,0.9226707726061448,-0.11352282282672466,1.8656741880421488,0.0,1.6248028402711934,1.6320139537891545,63.9045390129923,63.129832218625225,0.0
0.075,0.9662049323000252,-0.12667081935875257,0.19566967254297396,0.0,1.6383225135241848,1.5371039297097224,60.83521869997471,63.129832218625225,0.0
0.076,0.9557815792974349,-0.11014855162367643,1.753275964238275,0.0,1.6390502876277555,1.6426555230322317,63.5438650151475,63.129832218625225,0.0
0.077,0.9943103329259437,-0.12096222309358096,0.3948124786866558,0.0,1.65161517019226,1.568375291676054,61.16619064222506,63.129832218625225,0.0
0.078,0.9898224139437111,-0.10673768664498445,1.6032860809118785,0.0,1.6538227056406516,1.650175261436566,63.17889772068571,63.129832218625225,0.0
0.079,1.0217993355955934,-0.11447987108524443,0.5964418866609486,0.0,1.6649833701731702,1.5976160498044822,61.395547295742794,63.129832218625225,0.0
0.08,1.0228659685172223,-0.10218937966467795,1.5054599483612314,0.0,1.6683426711885634,1.6616916941135376,62.66628769457306,63.129832218625225,0.0
0.081,1.0505051322151622,-0.10817132029310222,0.8747251941866215,0.0,1.6785545249166551,1.6381950588394611,62.88811239821785,63.129832218625225,0.0
0.082,1.0588161304526014,-0.10507780883763007,0.7662300405682994,0.0,1.6849954240781444,1.6118043349401927,62.257294704585206,63.129832218625225,0.0
0.083,1.0494385189292206,-0.10281905544884018,1.0903642625250214,0.0,1.687935633175345,1.6265511365483682,64.70702576473862,63.129832218625225,0.0
0.084,1.0496241609734243,-0.1045860458619094,-0.1502732030128182,0.0,1.6922734580029688,1.5002916187366215,61.068424492068544,63.129832218625225,0.0
0.085,0.9949055847072328,-0.081100111496267,1.689641510587785,0.0,1.6809504258823045,1.60790972814998,64.40089795921548,63.129832218625225,0.0
0.08600000000000001,1.0051241141415044,-0.09315851685527843,0.010694119608412378,0.0,1.6830827918481897,1.4988791392657663,61.67018691552617,63.129832218625225,0.0
0.08700000000000001,0.9660473906162793,-0.0787919191033693,1.3906460944840586,0.0,1.672397952522765,1.5739496618947952,64.30246748650598,63.129832218625225,0.0
0.088,0.9725294429750524,-0.09077229549007704,0.06277945631535009,0.0,1.671750156772843,1.4794760053863476,61.650445814657914,63.129832218625225,0.0
0.089,0.9375827519301814,-0.07988154976517886,1.4035841562790539,0.0,1.6604019891534623,1.5590610748699698,64.49665473997436,63.129832218625225,0.0
0.09,0.94915329545588,-0.09487087428727087,-0.033188531592660775,0.0,1.6599048783990609,1.4564775512794905,61.528463629728705,63.129832218625225,0.0
0.091,0.9137284605069775,-0.08486175347494296,1.466920709419132,0.0,1.6479482298264752,1.5474948496422702,64.7221716233744,63.129832218625225,0.0
0.092,0.9304022119759263,-0.10215197838404272,-0.14585668145120367,0.0,1.64829099189555,1.4336197868945848,61.45859724043365,63.129832218625225,0.0
0.093,0.8928635418218853,-0.09198852542223934,1.5026428598010853,0.0,1.6359210894080594,1.5329252213066646,64.8559131520761,63.129832218625225,0.0
0.094,0.9122175905694085,-0.1100422381375607,-0.21327590535464924,0.0,1.636806263538829,1.4133227303853655,61.462813887192084,63.129832218625225,0.0
0.095,0.8733447467107728,-0.09991436740939302,1.4999439104016894,0.0,1.62434806825714,1.5158519266659534,64.87475291627963,63.129832218625225,0.0
0.096,0.8936326344441541,-0.11781204335948309,-0.22347481111862888,0.0,1.6254586351934701,1.3975537301762562,61.59364612846019,63.129832218625225,0.0
0.097,0.8553800466567034,-0.10851610027340264,1.4324404436927411,0.0,1.6134267952882286,1.4949919388075703,64.79228694503803,63.129832218625225,0.0
0.098,0.8741849695595625,-0.12509590425253192,-0.1835045118603047,0.0,1.6142586981052078,1.3847189775290905,61.87782248422946,63.129832218625225,0.0
0.099,0.8380015299174619,-0.11716129124094149,1.2862478158879365,0.0,1.6029415090415737,1.4675569358576526,64.57163837880574,63.129832218625225,0.0
0.1,0.8520557148455741,-0.13092906755288852,-0.07507819300200991,0.0,1.6026336362415896,1.3746282004531056,62.192833133648826,63.129832218625225,0.0
0.101,0.8200104042288734,-0.12525619611964428,1.1236944204262134,0.0,1.5923019835603733,1.4401053248921374,64.30037628882002,63.129832218625225,0.0
0.10200000000000001,0.8293947530054699,-0.13633641812935554,0.05821740213866888,0.0,1.5908267617265825,1.3674586420016395,62.530874229501414,63.129832218625225,0.0
0.10300000000000001,0.8028712764686453,-0.13355036091872358,0.9489580116892091,0.0,1.5818171252738547,1.4135767683570641,63.93565664984663,63.129832218625225,0.0
0.10400000000000001,0.8075267892193831,-0.14200506341833957,0.23850855720438835,0.0,1.579278142949006,1.3663479311748883,62.998779400071605,63.129832218625225,0.0
0.105,0.788743269904305,-0.1431042073777125,0.7082577102774359,0.0,1.5723065339489586,1.384477723113494,63.288945794857185,63.129832218625225,0.0
0.106,0.7861764038383727,-0.14792625416276983,0.5615833771223266,0.0,1.56836449874954,1.3793602268545442,64.29888945490974,63.129832218625225,0.0
0.107,0.7811087316954418,-0.15504393485378692,0.04492097473320322,0.0,1.5650396418523291,1.3195259310453575,62.237336093721126,63.129832218625225,0.0
0.108,0.7525434695345443,-0.14873519758221498,1.0846226165765516,0.0,1.5552987031571373,1.3879678858702982,64.35620520397185,63.129832218625225,0.0
0.109,0.7646574053694084,-0.16088020049467716,0.012924331597721439,0.0,1.554775091507046,1.3186895380136765,63.098424013900306,63.129832218625225,0.0
0.11,0.7410057411677471,-0.1592333689881097,0.6421290086807443,0.0,1.5470734047414543,1.33893898352716,63.09706973010823,63.129832218625225,0.0
0.111,0.7360428823763643,-0.16266494913701546,0.6431337754619519,0.0,1.542560773335215,1.3505211912128736,64.57350237924892,63.129832218625225,0.0
0.112,0.7371085587646016,-0.17127068733491502,-0.10951925071463031,0.0,1.5405699412384517,1.2775251814515365,62.643816897801884,63.129832218625225,0.0
0.113,0.7057232949434932,-0.1645118718571693,0.860183643217122,0.0,1.5306490642906996,1.3292865738351194,63.55377851110726,63.129832218625225,0.0
0.114,0.7092639415894693,-0.1717034877787323,0.4009633736396132,0.0,1.5277550801822304,1.3139651569234572,64.2362702396253,63.129832218625225,0.0
0.115,0.7035905551165207,-0.17787495926386876,0.04865312917059361,0.0,1.5242252984975915,1.266384038074781,62.607227866561935,63.129832218625225,0.0
0.116,0.6796715957734452,-0.17342163921000936,0.8684003592229083,0.0,1.5157388031757728,1.3194777023559625,63.80789040102263,63.129832218625225,0.0
0.117,0.6880237780555063,-0.18302523369056917,0.26128851016858556,0.0,1.514511252407654,1.2902756453358875,64.14450534364651,63.129832218625225,0.0
0.11800000000000001,0.6793019732483935,-0.1874661431974253,0.08283430760643151,0.0,1.510878715115289,1.2513551155013174,62.823291466381875,63.129832218625225,0.0
0.11900000000000001,0.6571722751535358,-0.1832698761567296,0.746506653761185,0.0,1.5032113800991576,1.293098933765976,63.645168128572145,63.129832218625225,0.0
0.12,0.6614629461829968,-0.19074877870141568,0.3304149635665806,0.0,1.5013498023614273,1.2768015565254116,64.48137174025756,63.129832218625225,0.0
0.121,0.6559010556027192,-0.19594753054842265,-0.10120223749244905,0.0,1.4985417183511385,1.2192854986947086,62.81036325441508,63.129832218625225,0.0
0.122,0.627317244042216,-0.18883040702978424,0.7374966950708913,0.0,1.4894279658532876,1.2669018932044576,63.31551130876895,63.129832218625225,0.0
0.123,0.6303192534507199,-0.19512880825796178,0.48306587699252046,0.0,1.4867512234264821,1.271854834548652,64.5567045298672,63.129832218625225,0.0
0.124,0.6335639103947167,-0.20329282614247704,-0.15179945666902783,0.0,1.4856725073317925,1.2084270368240053,63.34280570798187,63.129832218625225,0.0
0.125,0.6072703261251087,-0.1979582264577923,0.4530202193800742,0.0,1.4776904369299457,1.2270377058034676,62.75815488648307,63.129832218625225,0.0
0.126,0.5991085792176346,-0.19904798808432428,0.7490624034508946,0.0,1.472540860241996,1.2701404006492245,64.07391852685443,63.129832218625225,0.0
0.127,0.6122560453861451,-0.21089319482350408,0.08173972018292353,0.0,1.4735085858324608,1.2305241125938147,64.3056282675486,63.129832218625225,0.0
0.128,0.6021841392276917,-0.21318721852405567,-0.04587311065339583,0.0,1.4705518005980074,1.1888414256827915,63.08956865039839,63.129832218625225,0.0
0.129,0.577660337068508,-0.2065856160317901,0.5625593336039764,0.0,1.4629733086847423,1.221831925292026,63.090115443423386,63.129832218625225,0.0
0.13,0.5763586900670057,-0.21035172140179323,0.5626831048434974,0.0,1.4599320035393497,1.2445927592913566,64.23957354165125,63.129832218625225,0.0
0.131,0.5846335350810226,-0.21982162269251226,-0.023143357500696737,0.0,1.4604749403967088,1.199407981384402,64.09741033682089,63.129832218625225,0.0
0.132,0.5692327180651076,-0.21869916387513305,0.038262463732530616,0.0,1.4562269362948175,1.1731857182348664,63.14464797135832,63.129832218625225,0.0
0.133,0.5480380603803742,-0.2130033104652895,0.5144954889364839,0.0,1.449166187001253,1.2031098597253593,63.06186200208857,63.129832218625225,0.0
