timestamp,iq,id,iq_ref,id_ref,vq,vd,omega,omega_ref,r
0.0,0.0,0.0,0.0,0.0,0.0,0.0,0.0,89.97599287679431,0.0
0.001,0.0,0.0,10.0,0.0,0.0,1.0999999999999999,4.500675240526756,89.97599287679431,0.0
0.002,0.387696251296049,-0.22209330056190563,10.0,0.0,0.13443026306180966,1.947353412357435,8.84306508767243,89.97599287679431,0.0
0.003,0.8078091889560678,-0.46149349472386386,10.0,0.0,0.36426592940537805,2.6810790491556666,13.397432751891387,89.97599287679431,0.0
0.004,1.180506246433692,-0.6736032422309481,10.0,0.0,0.6654286630785725,3.3276201419624907,18.093563998042722,89.97599287679431,0.0
0.005,1.489553270565324,-0.8491940775157435,10.0,0.0,1.0183231270713866,3.9093551967762497,22.90468812651052,89.97599287679431,0.0
0.006,1.7406894171924532,-0.9912961743942915,10.0,0.0,1.4079769724500875,4.443671686620248,27.79319154234482,89.97599287679431,0.0
0.007,1.9451076857204055,-1.1065387935271487,10.0,0.0,1.8233527494111472,4.943547263945911,32.68356064474589,89.97599287679431,0.0
0.008,2.113732617274429,-1.201587181999808,10.0,0.0,2.2564814029493308,5.41846830144945,37.63113789826278,89.97599287679431,0.0
0.009000000000000001,2.255994392824673,-1.2812617732375478,10.0,0.0,2.701603016035474,5.87524755456147,42.604491475869075,89.97599287679431,0.0
0.01,2.378924083348296,-1.3496315031050146,10.0,0.0,3.1546143174972503,6.318761395468803,47.561781431185864,89.97599287679431,0.0
0.011,2.487622015486514,-1.409885739665327,10.0,0.0,3.612620141626542,6.752497506801612,52.449123051776624,89.97599287679431,0.0
0.012,2.585584680408801,-1.4646832450483955,10.0,0.0,4.073624177702717,7.178971675594004,57.40737987126657,89.97599287679431,0.0
0.013000000000000001,2.6763688104402514,-1.5141230658091596,10.0,0.0,4.536065632280369,7.599892203460536,62.296400359415436,89.97599287679431,0.0
0.014,2.7614255009927695,-1.5601221038964515,10.0,0.0,4.9989204901689055,8.016516429337717,67.16570309422447,89.97599287679431,0.0
0.015,2.8422597189187564,-1.6032254874574015,10.0,0.0,5.461433666667136,8.429722521349698,72.00413413448803,89.97599287679431,0.0
0.016,2.9199757774622084,-1.6437479526810996,10.0,0.0,5.92304257205574,8.840118897549786,76.8717553660116,89.97599287679431,0.0
0.017,2.994952737082825,-1.6825980274216779,9.300338823951849,0.0,6.383398508094719,9.171203492330598,81.29406545008672,89.97599287679431,0.0
0.018000000000000002,3.042131851162496,-1.7024510027396422,7.176003056181363,0.0,6.832622636545449,9.284094965590393,84.58713998681255,89.97599287679431,0.0
0.019,3.00364833781223,-1.6735756267158777,5.583354316718268,0.0,7.244838678361294,9.281376678315373,87.33634162384351,89.97599287679431,0.0
0.02,2.901398723777451,-1.6038907223352443,4.235150010732294,0.0,7.608184701546419,9.198638460095937,89.5309218191223,89.97599287679431,0.0
0.021,2.7558283571265623,-1.5101254377941529,3.1423106236696197,0.0,7.917304968335377,9.068768620691175,91.16161777836781,89.97599287679431,0.0
0.022,2.5904974357892905,-1.4009489341394024,2.315106395031128,0.0,8.17145446194835,8.919464418306763,91.9739294418009,89.97599287679431,0.0
0.023,2.422599896185865,-1.2882747899854234,1.8889711976645156,0.0,8.37395619514119,8.788718176241156,94.09165615100466,89.97599287679431,0.0
0.024,2.269600188859608,-1.186793202739697,0.7889512103205365,0.0,8.533096897652701,8.589706877477076,92.91468204513845,89.97599287679431,0.0
0.025,2.11215924549489,-1.0741220359163046,1.3480513715701985,0.0,8.645043387558536,8.514800503148313,92.76802473556087,89.97599287679431,0.0
0.026000000000000002,2.0035316378191683,-0.9922515049537187,1.3934597077713216,0.0,8.73042554430326,8.468357958023319,91.02714367410964,89.97599287679431,0.0
0.027,1.9299661129527466,-0.9299940220681742,2.2533887305237847,0.0,8.79659561305323,8.536241923884605,91.43817225331277,89.97599287679431,0.0
0.028,1.910153579677722,-0.906414916158498,2.0332526471570334,0.0,8.860965944693117,8.572583964048482,91.94838244364524,89.97599287679431,0.0
0.029,1.903797512413342,-0.886230092120103,1.7584236563222877,0.0,8.920548907600283,8.584200047268133,92.28100106698493,89.97599287679431,0.0
0.03,1.8952219967463235,-0.8630584671012904,1.5690642627505396,0.0,8.972988152027007,8.583411321122725,92.76062017445913,89.97599287679431,0.0
0.031,1.8835018801191208,-0.8367820819606874,1.301408436036788,0.0,9.017445913281243,8.561600302704052,92.78848664737144,89.97599287679431,0.0
0.032,1.8668482713800545,-0.803519161102177,1.2593502618748627,0.0,9.051880639125153,8.546181017157023,93.29671313689852,89.97599287679431,0.0
0.033,1.8505538852639982,-0.7740748909056687,0.9720298145102828,0.0,9.078423723316945,8.506188311665982,92.86051836475991,89.97599287679431,0.0
0.034,1.8306957316314967,-0.7375894862723282,1.1612819456999297,0.0,9.094594276732748,8.498561577086143,93.4031051699547,89.97599287679431,0.0
0.035,1.821587717281854,-0.7088110928442031,0.8557174201709321,0.0,9.105584332118227,8.458613252227916,91.9356490320811,89.97599287679431,0.0
0.036000000000000004,1.8078364179388455,-0.6756125887997815,1.5698489275548626,0.0,9.108116497968727,8.506790439245817,92.59842258862052,89.97599287679431,0.0
0.037,1.8235479652731856,-0.6616038292364976,1.2122378521668908,0.0,9.114004187424452,8.502058807580255,91.27106334155118,89.97599287679431,0.0
0.038,1.8331423291506104,-0.6419296652249196,1.8629667710539914,0.0,9.116805874322406,8.572647135305107,92.04733186204543,89.97599287679431,0.0
0.039,1.8656288951623825,-0.638452714352389,1.4541191209543598,0.0,9.12620050234719,8.581498689624924,90.13949122573084,89.97599287679431,0.0
0.04,1.8877272797502105,-0.6227456746132423,2.406404455622289,0.0,9.1338478181389,8.697138457985163,89.25493061838843,89.97599287679431,0.0
0.041,1.9405337849813116,-0.6286754320651615,2.8558953818775517,0.0,9.153103722904557,8.836312397900398,88.84202480831172,89.97599287679431,0.0
0.042,2.0155462533244726,-0.6388491874290072,3.0736879676007316,0.0,9.18541124670068,8.975233503002244,89.41933195313068,89.97599287679431,0.0
0.043000000000000003,2.0954021471829085,-0.650819284021667,2.790601004427888,0.0,9.229595101698932,9.062141734526271,89.80545457062037,89.97599287679431,0.0
0.044,2.1567763137132534,-0.6520039350083914,2.599245078744782,0.0,9.278062004992371,9.120606646824555,90.66843437961474,89.97599287679431,0.0
0.045,2.1993189647349167,-0.6452195185913103,2.160830759219394,0.0,9.326770576870551,9.127693792384315,90.78654344440385,89.97599287679431,0.0
0.046,2.2163087525718357,-0.6267230384390845,2.0936707211487438,0.0,9.36935023746431,9.134496169431554,91.50463627761566,89.97599287679431,0.0
0.047,2.22415452755123,-0.6061081576813373,1.7193378705346238,0.0,9.406269497621592,9.10367812427723,88.62075720453149,89.97599287679431,0.0
0.048,2.222182428138778,-0.5694979482143845,3.174829763799339,0.0,9.432594053013926,9.243776635104496,88.43039312502232,89.97599287679431,0.0
0.049,2.2785631218061946,-0.5614896057700637,3.285467801071642,0.0,9.469781188375546,9.363891418258032,90.04100594652343,89.97599287679431,0.0
0.05,2.3466950074335937,-0.56204948702185,2.4795112596237976,0.0,9.515402758878494,9.379021136218046,90.5513190192372,89.97599287679431,0.0
0.051000000000000004,2.3761217065236426,-0.5531243317199954,2.2186014618424834,0.0,9.556987778231434,9.37400390904726,87.96982650703207,89.97599287679431,0.0
0.052000000000000005,2.3912100102681273,-0.5269091230333864,3.529409381642671,0.0,9.591118151529491,9.519079429263693,88.75306024661835,89.97599287679431,0.0
0.053,2.4570051749180513,-0.5211854898233049,3.150021838151291,0.0,9.635975591953137,9.591133140732182,89.94402056810765,89.97599287679431,0.0
0.054,2.5088684101698027,-0.5177380904216371,2.5548614004935084,0.0,9.68323068187919,9.593746448157555,87.46842299729792,89.97599287679431,0.0
0.055,2.532359538417156,-0.4992944812943506,3.817735884693335,0.0,9.72402727054519,9.743626339716863,88.62178283486516,89.97599287679431,0.0
0.056,2.605830305334306,-0.4920201812541404,3.2545980663290077,0.0,9.775116452587367,9.800177123046346,88.8911051375736,89.97599287679431,0.0
0.057,2.6526976214367806,-0.48851342371452666,3.1307857923669924,0.0,9.826438794429322,9.843773077192825,87.02373955213163,89.97599287679431,0.0
0.058,2.6956190342114925,-0.4666651093009988,4.093991118334606,0.0,9.874620250491636,9.991079696460716,89.09206164849124,89.97599287679431,0.0
0.059000000000000004,2.767241872187017,-0.4705214204036452,3.0686693824378324,0.0,9.933356900239938,9.99860705715017,85.81382991947783,89.97599287679431,0.0
0.06,2.8029272453801,-0.4493113552216872,4.749406876517703,0.0,9.984600950801308,10.203180525781775,89.21693829233796,89.97599287679431,0.0
0.061,2.8957426761443115,-0.45842892378399314,3.0554432359322012,0.0,10.052392976363375,10.179424833549014,85.8257473260368,89.97599287679431,0.0
0.062,2.92668026776007,-0.43357391759901986,4.792541174590353,0.0,10.108205003779991,10.370369341983906,89.0103254104692,89.97599287679431,0.0
0.063,3.0124813247078137,-0.43902340256804684,3.2099088070374022,0.0,10.178378272706876,10.347211322151466,87.03210729652051,89.97599287679431,0.0
0.064,3.044283966671775,-0.4076898512871616,4.22845671981449,0.0,10.235717227267244,10.45861274522941,87.69411024541847,89.97599287679431,0.0
0.065,3.098528026744934,-0.4028180384064155,3.9202740716792666,0.0,10.298239864775297,10.514873530844543,89.63346928869824,89.97599287679431,0.0
0.066,3.1428410212671594,-0.39424166734167065,2.9540197859203445,0.0,10.359241634405738,10.464222367900124,88.09256666780499,89.97599287679431,0.0
0.067,3.1261020360281293,-0.39714965746225883,3.7433053584568623,0.0,10.409483753402611,10.523504872371316,91.11479273074288,89.97599287679431,0.0
0.068,3.130849040914767,-0.4205682673848117,2.2208043284484322,0.0,10.463176878137187,10.40582580887886,89.87279711967919,89.97599287679431,0.0
0.069,3.083187851396909,-0.4116931189590425,2.8428340915514263,0.0,10.498522331623002,10.39422244934635,92.60666769481254,89.97599287679431,0.0
0.07,3.048384148495825,-0.42739754580532674,1.449592055804568,0.0,10.530989142244332,10.231188844976437,91.29754050173956,89.97599287679431,0.0
0.07100000000000001,2.9732417924066192,-0.4090205295628435,2.0909401760916064,0.0,10.541727395311401,10.180103617835485,93.35989143274328,89.97599287679431,0.0
0.07200000000000001,2.9181698635163373,-0.41631848372317104,1.0259257250302567,0.0,10.547269845477729,10.016942156512757,91.61424379813617,89.97599287679431,0.0
0.073,2.8374637651136405,-0.4019241544726275,1.882367033120393,0.0,10.534285548735987,9.983836726274857,94.53997443064357,89.97599287679431,0.0
0.074,2.7940119696952554,-0.4110543399944604,0.37386190132820296,0.0,10.520437402344538,9.782216068320528,92.12121594777454,89.97599287679431,0.0
0.075,2.7012348879146924,-0.40224678528522273,1.5617889120529123,0.0,10.486751871923568,9.754900645061804,93.03791544073793,89.97599287679431,0.0
0.076,2.6631850875236793,-0.4087683878680759,1.0728199399317817,0.0,10.454508804050024,9.66454006127149,94.19151481964879,89.97599287679431,0.0
0.077,2.613439599285691,-0.4252322450264594,0.45386503104781006,0.0,10.418199792846405,9.521887384519093,92.78843870306788,89.97599287679431,0.0
0.078,2.546949558760855,-0.42510507945291187,1.1272786310755265,0.0,10.371077788303227,9.476950568988821,92.54980111961088,89.97599287679431,0.0
0.079,2.5109295058439676,-0.4382629431697249,1.2208593403758643,0.0,10.325622939325928,9.438652281995621,94.59427857421045,89.97599287679431,0.0
0.08,2.487181734180803,-0.4592513916627725,0.15243775610191612,0.0,10.283060897244106,9.283428211794655,94.15358561907301,89.97599287679431,0.0
0.081,2.421315220875193,-0.4671864386682967,0.3310083062478473,0.0,10.229895623036047,9.17680515951138,93.18864938552515,89.97599287679431,0.0
0.082,2.3633187073515787,-0.4719812745138928,0.7813498579344684,0.0,10.171832652493423,9.12900070157424,93.05958650990881,89.97599287679431,0.0
0.083,2.329814265869319,-0.48762952172931606,0.8150453594114944,0.0,10.11646889204659,9.082479005449969,92.85311972629175,89.97599287679431,0.0
0.084,2.304040672124824,-0.5093121485287588,0.8895074827250498,0.0,10.064217944507796,9.045427032340232,92.92419130540979,89.97599287679431,0.0
0.085,2.285817128988553,-0.5306939318262482,0.8244897088798746,0.0,10.01562206430664,9.00070543923903,93.93245682646693,89.97599287679431,0.0
0.08600000000000001,2.266250448809406,-0.5505362177135429,0.2807923088545783,0.0,9.969382446430103,8.898409980551847,94.97814302538431,89.97599287679431,0.0
0.08700000000000001,2.222028392776398,-0.562980902131912,-0.29207229209001184,0.0,9.918707736899654,8.748810733203918,94.58881738339731,89.97599287679431,0.0
0.088,2.152657938231318,-0.5625273168696527,-0.14353771616254196,0.0,9.857966232364424,8.63835991843883,94.08896910577326,89.97599287679431,0.0
0.089,2.0908860687520447,-0.5630399174631325,0.06525666035969513,0.0,9.792314718724112,8.560463271452168,93.9104912837295,89.97599287679431,0.0
0.09,2.044446621455493,-0.5704764059685216,0.1151505873122236,0.0,9.726251579478824,8.491682146507529,93.80608981727408,89.97599287679431,0.0
0.091,2.007281244069647,-0.5815666261651853,0.12905035113513286,0.0,9.66106220100018,8.42782665192329,93.7585168404494,89.97599287679431,0.0
0.092,1.975185733046454,-0.5943499857348801,0.11501159991092269,0.0,9.597301478261675,8.365313361115417,93.69391802323875,89.97599287679431,0.0
0.093,1.9451923845971177,-0.6072773355660285,0.11013175705180411,0.0,9.534959673601964,8.305257245131417,93.6077379708041,89.97599287679431,0.0
0.094,1.9165732761856278,-0.6199909395255399,0.11690433232903441,0.0,9.474115660747058,8.248614510429697,93.49847863658748,89.97599287679431,0.0
0.095,1.8893868580773916,-0.6325404531903386,0.13630914183941112,0.0,9.414945086171002,8.19632276611382,93.37256789813388,89.97599287679431,0.0
0.096,1.86396713006928,-0.64511427281403,0.16529876085281425,0.0,9.357720019642924,8.148862254668108,93.23959783208949,89.97599287679431,0.0
0.097,1.840569953832432,-0.6578526642840383,0.19914774432205906,0.0,9.302746893488548,8.106178271811613,93.11278644706638,89.97599287679431,0.0
0.098,1.8192225953860093,-0.6707678508265249,0.23118550113088987,0.0,9.250295968268928,8.067565275706347,92.99124217071527,89.97599287679431,0.0
0.099,1.7996287957671784,-0.6837174406263247,0.2618051463672384,0.0,9.200524138973304,8.032558114471163,92.84268348417382,89.97599287679431,0.0
0.1,1.7814656334000365,-0.6965802285999083,0.3074175835641677,0.0,9.153514187262816,8.002587667933431,92.70244191476647,89.97599287679431,0.0
0.101,1.7651475997469666,-0.7095228949065626,0.3502738778881216,0.0,9.109503251483599,7.976784690960253,92.56307906342124,89.97599287679431,0.0
0.10200000000000001,1.7504498015044563,-0.7224743662736115,0.3940844416944651,0.0,9.068608346772297,7.955005094652079,92.42659529594907,89.97599287679431,0.0
0.10300000000000001,1.7372196590597122,-0.7353681160167647,0.4378203012390032,0.0,9.030913770659383,7.93699514410192,92.30904855960604,89.97599287679431,0.0
0.10400000000000001,1.7253099876488835,-0.7481020914900726,0.47326311258240095,0.0,8.996459456907377,7.921655844078561,92.1928993941256,89.97599287679431,0.0
0.105,1.7142396770985746,-0.7604773101465084,0.5091686301493061,0.0,8.96515057882571,7.90909885894769,92.0901038223129,89.97599287679431,0.0
0.106,1.703809923273164,-0.7725987430660292,0.5394253066004733,0.0,8.936926495473706,7.8986724335709875,92.1090509323806,89.97599287679431,0.0
0.107,1.6935874967807534,-0.7846478739053055,0.5086211710107607,0.0,8.911686367982355,7.883795390093286,92.21864710493132,89.97599287679431,0.0
0.108,1.6815610009193072,-0.7945909088155565,0.4313965424540287,0.0,8.888455791424105,7.860916060708712,92.28242971912275,89.97599287679431,0.0
0.109,1.6663368286228621,-0.800306117609378,0.3764408669350321,0.0,8.865789582201446,7.834283122579245,92.31916328912928,89.97599287679431,0.0
0.11,1.6486574632509845,-0.8029480632877152,0.334642377808416,0.0,8.842960162024779,7.805791068759659,92.14107803950286,89.97599287679431,0.0
0.111,1.6293182338037184,-0.8040072351909215,0.40203415099454065,0.0,8.819654567936391,7.787646879831588,91.8869727012266,89.97599287679431,0.0
0.112,1.6131104538400205,-0.8063654513569649,0.5099770218883486,0.0,8.797113926423267,7.781775811955475,91.58372887082075,89.97599287679431,0.0
0.113,1.6024367740611332,-0.8111248895764168,0.6455215771510077,0.0,8.776740198316322,7.789080286061658,91.29438249489132,89.97599287679431,0.0
0.114,1.5977389886325097,-0.819617393014934,0.7770108689347506,0.0,8.760020871426736,7.807135336089472,91.75495116454331,89.97599287679431,0.0
0.115,1.5984240897718371,-0.8310013202546547,0.5289369512312649,0.0,8.747946289190875,7.792987585580713,93.03905623383619,89.97599287679431,0.0
0.116,1.5909998963031415,-0.8326787548199148,-0.14374621698559253,0.0,8.7357350686575,7.7083562548653735,92.23285561819169,89.97599287679431,0.0
0.117,1.5566012319747864,-0.8149495796941357,0.23678546342268336,0.0,8.714314853496447,7.683261862836744,91.32298961627126,89.97599287679431,0.0
0.11800000000000001,1.5330046877551136,-0.8057338815300719,0.6782484969881313,0.0,8.691690785601843,7.705542138603866,90.71787876305076,89.97599287679431,0.0
0.11900000000000001,1.5298262242100604,-0.810456822218457,0.9733850647358142,0.0,8.674168832530773,7.751496037669166,91.0645981755844,89.97599287679431,0.0
0.12,1.5422745777060038,-0.8236610417590781,0.7891393054810978,0.0,8.664399699415927,7.76648284880533,92.31636254687358,89.97599287679431,0.0
0.121,1.5492323187191979,-0.8312613191456963,0.13985342313571314,0.0,8.657810149043303,7.708774208074457,92.34029428921538,89.97599287679431,0.0
0.122,1.5320005571020439,-0.814894347222143,0.10424453784060161,0.0,8.644232319949396,7.660718429008416,90.95711263404428,89.97599287679431,0.0
0.123,1.5062775870142602,-0.7991874225458824,0.7860241678536519,0.0,8.625642603863124,7.69411950218746,89.66745369334761,89.97599287679431,0.0
0.124,1.5074124165484222,-0.7998325473941464,1.4339390300364532,0.0,8.612479999683453,7.786392274030316,90.21802998158518,89.97599287679431,0.0
0.125,1.5367956679028896,-0.8204651862152974,1.156230514869762,0.0,8.612124072127884,7.827873613627106,91.60273915722188,89.97599287679431,0.0
0.126,1.5604922833452683,-0.830454198897991,0.4476084642471361,0.0,8.616844336294433,7.78768709090672,91.7469749118195,89.97599287679431,0.0
0.127,1.553868746526642,-0.8170984977209781,0.3577807665980688,0.0,8.615504904515985,7.750161975844328,90.87810290360345,89.97599287679431,0.0
0.128,1.5385331310634387,-0.7950901314203178,0.7831956704380068,0.0,8.608259541127845,7.765570027841983,89.5906557696515,89.97599287679431,0.0
0.129,1.5344681051838247,-0.7899286488231716,1.4307726084854062,0.0,8.602931839855605,7.845985849139998,89.62267422796396,89.97599287679431,0.0
0.13,1.5590923881010383,-0.8006488028734624,1.4182965658174849,0.0,8.607409322611893,7.907229862727351,90.48601713452669,89.97599287679431,0.0
0.131,1.584728768036969,-0.8146828319008119,0.9815248699587933,0.0,8.619000000103792,7.912303338150043,91.25130451448898,89.97599287679431,0.0
0.132,1.5972097248687347,-0.8055099124665471,0.5861280636007025,0.0,8.628789595960729,7.877786060586714,91.62247758295321,89.97599287679431,0.0
0.133,1.5896549060270155,-0.7826679420748467,0.3840766823069983,0.0,8.631727616926899,7.830383626127595,90.02369086171237,89.97599287679431,0.0
0.134,1.568236009859132,-0.758549340201941,1.1829930630782384,0.0,8.627206965848428,7.880197083298826,88.45752756858442,89.97599287679431,0.0
0.135,1.5787400646255907,-0.751519566356205,1.9812593627243087,0.0,8.627587636490633,8.003027623812454,88.8783236626971,89.97599287679431,0.0
0.136,1.6238815086126073,-0.7684664046631613,1.7818380078089437,0.0,8.642147744072203,8.078833647010883,88.98673111942641,89.97599287679431,0.0
0.137,1.6629291505885597,-0.7838406030173154,1.7375268970179676,0.0,8.664354136651344,8.141791243832287,90.1368079728525,89.97599287679431,0.0
0.138,1.699413819931443,-0.7856916755998193,1.1608803193443429,0.0,8.69068552565524,8.134062870585314,90.38306077276326,89.97599287679431,0.0
