timestamp,iq,id,iq_ref,id_ref,vq,vd,omega,omega_ref,r
0.0,0.0,0.0,0.0,0.0,0.0,0.0,0.0,30.919383124145938,0.0
0.001,0.0,0.0,10.0,0.0,0.0,1.0999999999999999,5.071512294908787,30.919383124145938,0.0
0.002,0.45162374742098454,-0.24638858770307542,10.0,0.0,0.13710274464733824,1.9403213877836911,12.325284885167958,30.919383124145938,0.0
0.003,0.9337633781696105,-0.515848727012283,9.867760328620589,0.0,0.3717040830552939,2.6472554254938743,20.090295729512455,30.919383124145938,0.0
0.004,1.3492546889277617,-0.7515330155246035,6.093545780394676,0.0,0.6767693617367354,2.8522323418068662,25.89580976921379,30.919383124145938,0.0
0.005,1.516708104159874,-0.8520698456278389,3.2410244940933293,0.0,0.9805280126075648,2.776917935777864,29.48364148563879,30.919383124145938,0.0
0.006,1.4768124334138566,-0.8344017211036933,1.4614660522659024,0.0,1.2434304957897226,2.578347677635225,31.432802955998262,30.919383124145938,0.0
0.007,1.3180696719441287,-0.7469912075300361,0.481751118767642,0.0,1.45074722959154,2.35301438241274,32.3774427926351,30.919383124145938,0.0
0.008,1.1163974533471286,-0.6337048280157909,-0.005149396235668902,0.0,1.6032115638800968,2.1477806992082784,32.66792577699261,30.919383124145938,0.0
0.009000000000000001,0.9194501406887553,-0.5224764002977105,-0.16787631494289057,0.0,1.7088038331655053,1.9849333440518064,32.584077644513954,30.919383124145938,0.0
0.01,0.7526116782642985,-0.42807622787416816,-0.1425991939072423,0.0,1.7782804053173165,1.8697204615806229,32.15999846918612,30.919383124145938,0.0
0.011,0.6254123226000331,-0.35551419674805845,0.057034240306272466,0.0,1.8222502103071916,1.8070069756236944,31.84233381357674,30.919383124145938,0.0
0.012,0.5420702108939809,-0.304472215732554,0.20663706121665482,0.0,1.8506626886019426,1.7773174334504755,32.132043717898775,30.919383124145938,0.0
0.013000000000000001,0.49197834386143846,-0.27237681681898285,0.04965550311810918,0.0,1.8702448907795586,1.7393507779806292,32.63611942324353,30.919383124145938,0.0
0.014,0.4521875670939218,-0.24882084886525743,-0.21954971254524347,0.0,1.881802004706654,1.6829723169076476,32.668673579629456,30.919383124145938,0.0
0.015,0.4097153546698959,-0.2272513037133132,-0.25331969529304244,0.0,1.884428470846565,1.6366388029880168,32.06974337975633,30.919383124145938,0.0
0.016,0.37352407576999275,-0.2080813731054544,0.03464180208741541,0.0,1.8802659420651775,1.630771070168417,31.54532307979391,30.919383124145938,0.0
0.017,0.35866022974302136,-0.19847257249346278,0.2905925525121468,0.0,1.8750676241187274,1.6516219355995228,31.422467582540328,30.919383124145938,0.0
0.018000000000000002,0.36331624116581807,-0.19828298686348145,0.3469894565549938,0.0,1.8725494580968554,1.6728512349165607,31.814892459626336,30.919383124145938,0.0
0.019,0.37435391392684275,-0.202438889291961,0.14182192465718602,0.0,1.8728650837323073,1.667405806261037,32.27473099590706,30.919383124145938,0.0
0.02,0.37547394757299385,-0.20327445566733515,-0.10165082220078914,0.0,1.8726549572156672,1.6377933292257447,32.138249027233385,30.919383124145938,0.0
0.021,0.36243548216455,-0.198602968469823,-0.045598496894824536,0.0,1.8689823763916817,1.6211670020259434,31.577251023445392,30.919383124145938,0.0
0.022,0.35144692073206074,-0.19293308835436218,0.22832182600617767,0.0,1.8634374489893895,1.6364851188332636,31.13466139379525,30.919383124145938,0.0
0.023,0.35519973325094667,-0.1934599528624662,0.4474638581347563,0.0,1.8600934799051048,1.6705606565333544,31.36137874051266,30.919383124145938,0.0
0.024,0.37209742457626593,-0.1995894518336255,0.3296852286123836,0.0,1.8611604377410034,1.6839259560656643,31.899731119833888,30.919383124145938,0.0
0.025,0.38319859162735875,-0.20488269854653904,0.05070555899488993,0.0,1.8639781918952527,1.6654992926032652,32.20284794218506,30.919383124145938,0.0
0.026000000000000002,0.3781046779470844,-0.20354811083323207,-0.11368750036108699,0.0,1.864471767172244,1.6345749732448904,31.772566753031317,30.919383124145938,0.0
0.027,0.3625695407443718,-0.19673153826532802,0.0929212579269304,0.0,1.8610870758803628,1.6328212633107888,31.210320548802297,30.919383124145938,0.0
0.028,0.357129453230778,-0.19271435367165865,0.3711349857948766,0.0,1.8574917581446344,1.659884935977971,31.08535155042348,30.919383124145938,0.0
0.029,0.36784516975561915,-0.19537402991761785,0.4319598007215105,0.0,1.8572950756821895,1.686558172275245,31.585540078961923,30.919383124145938,0.0
0.03,0.38293728599500737,-0.20143421979393092,0.17520396690412832,0.0,1.860425409219651,1.6801400512062834,32.097500522100376,30.919383124145938,0.0
0.031,0.3844910640912112,-0.20254768643297252,-0.09255742864464223,0.0,1.862662776728002,1.6477705859975849,31.88364799782812,30.919383124145938,0.0
0.032,0.37001617883540205,-0.1969625222886418,0.0047261847546635205,0.0,1.860813958242381,1.6338483906491044,31.264561268301364,30.919383124145938,0.0
0.033,0.3595173713356358,-0.1907784825853542,0.31081776807648753,0.0,1.857133409344556,1.6548408909907322,30.921986469398693,30.919383124145938,0.0
0.034,0.3657911651319127,-0.19139397736239502,0.48207913407529557,0.0,1.8560497101931837,1.6883488154424786,31.340609130961937,30.919383124145938,0.0
0.035,0.3827010935218258,-0.1974596383890875,0.26855554322551345,0.0,1.859086241167289,1.6914000146955208,31.931653471610225,30.919383124145938,0.0
0.036000000000000004,0.38894528899960323,-0.2005321625056951,-0.03708933057327363,0.0,1.8624015600118475,1.6624462846926444,31.911858962608783,30.919383124145938,0.0
0.037,0.37733480650654005,-0.19646389792387514,-0.03711683445718067,0.0,1.8620117396264966,1.6411124779142843,31.281839276099923,30.919383124145938,0.0
0.038,0.3643366594257827,-0.1894492821270683,0.27426844727770916,0.0,1.8587965955100143,1.6574394171588545,30.824957534135034,30.919383124145938,0.0
0.039,0.36773438784295864,-0.18853154867905414,0.5036535741602626,0.0,1.8575048552083233,1.693426927610355,31.213064738617753,30.919383124145938,0.0
0.04,0.38488129155725354,-0.19414819651638265,0.3066631557741851,0.0,1.8605680485785379,1.699871533570841,31.839768221369372,30.919383124145938,0.0
0.041,0.3926072889363932,-0.19780521339050675,-0.015892436573858748,0.0,1.8643154885855604,1.6717883966233136,31.860585960034186,30.919383124145938,0.0
0.042,0.38184396233431606,-0.1940977506786685,-0.03571333426514817,0.0,1.864435479830084,1.6491948004486996,31.19995658248386,30.919383124145938,0.0
0.043000000000000003,0.36858066192358596,-0.18685526810969424,0.2917956199266353,0.0,1.8615245138772254,1.666448086733168,30.74893476243874,30.919383124145938,0.0
0.044,0.3723881214757805,-0.1857099515359138,0.5190110135662676,0.0,1.8605764131506732,1.7028520979974966,31.20679154351226,30.919383124145938,0.0
0.045,0.3897761054591415,-0.19131699744795175,0.28720853883584424,0.0,1.8639917518392712,1.7058758682633468,31.86691797038727,30.919383124145938,0.0
0.046,0.39601792341677355,-0.19436875637294554,-0.05233002306407408,0.0,1.8676475567082238,1.673394858174279,31.711638777652578,30.919383124145938,0.0
0.047,0.3828538709936291,-0.1896385004373598,0.017387016768205754,0.0,1.8671388343392092,1.657102253527685,30.982699359685693,30.919383124145938,0.0
0.048,0.3719055298921664,-0.18268713866709496,0.3812235633962505,0.0,1.8643343765070632,1.6827855638365414,30.72778969405726,30.919383124145938,0.0
0.049,0.380259497033776,-0.18312033011044404,0.5105943305113533,0.0,1.8644958601654897,1.7151840964510854,31.37067283092964,30.919383124145938,0.0
0.05,0.3969575957224109,-0.18921310149619333,0.18463986500732738,0.0,1.8685469216575261,1.7054569741090917,31.887914831934335,30.919383124145938,0.0
0.051000000000000004,0.3971973774699346,-0.19025678142309974,-0.08366645257290478,0.0,1.8712740418442615,1.670994124866374,31.354189968955893,30.919383124145938,0.0
0.052000000000000005,0.38169180203870634,-0.1836230448418114,0.17884791046821663,0.0,1.8695420172648411,1.6735179267918372,30.629552427913445,30.919383124145938,0.0
0.053,0.37841865565838584,-0.17930132279947109,0.5440649879517654,0.0,1.8678265232770648,1.713369871307114,30.91852805264115,30.919383124145938,0.0
0.054,0.39545093072654103,-0.18335647548737632,0.39958572630296085,0.0,1.8707570571556862,1.727613900694581,31.66895480024807,30.919383124145938,0.0
0.055,0.40623594871422003,-0.18844423842989827,0.016876635738479806,0.0,1.8753380429819908,1.6990573439575962,31.565196733893245,30.919383124145938,0.0
0.056,0.39631267957257055,-0.1851283832279388,0.0622975328184191,0.0,1.876189652850326,1.6838373408468368,30.88322595199249,30.919383124145938,0.0
0.057,0.38681734210862306,-0.1787112041411469,0.40364449549033127,0.0,1.874761370273223,1.7082637103867149,30.686478799805382,30.919383124145938,0.0
0.058,0.39512718729516494,-0.17856384268388212,0.5043471148272907,0.0,1.875966514938388,1.7367593968700823,31.441518913521435,30.919383124145938,0.0
0.059000000000000004,0.4097337519145937,-0.18389426944664175,0.1216057000755093,0.0,1.8804885343438493,1.7178938236992918,31.725018408478835,30.919383124145938,0.0
0.06,0.4050591399476915,-0.18314387105612556,-0.02820040024651982,0.0,1.8825359464011013,1.6893760258607755,30.957454511258756,30.919383124145938,0.0
0.061,0.3911746798231081,-0.17583248648312613,0.35520083449239126,0.0,1.8807300891496506,1.7090674903303709,30.54517431654849,30.919383124145938,0.0
0.062,0.3963619293583987,-0.17375569605807595,0.5650830199234991,0.0,1.8809186309692798,1.745152808627767,31.287643718000982,30.919383124145938,0.0
0.063,0.4136147814166335,-0.17935650919099483,0.1901657132587024,0.0,1.885333707785557,1.7324627824588954,31.72724996836274,30.919383124145938,0.0
0.064,0.41235041000117917,-0.1803639174772737,-0.03771608036434526,0.0,1.888093081083481,1.7004770517329328,30.94513926789285,30.919383124145938,0.0
0.065,0.397951833446699,-0.1733157674822542,0.35308170843313214,0.0,1.8865925733967017,1.7188036058201497,30.48362136525503,30.919383124145938,0.0
0.066,0.40256955792994237,-0.1706252465289916,0.5881982773409509,0.0,1.886849296082413,1.7564503629631518,31.278606127061565,30.919383124145938,0.0
0.067,0.42027541690111,-0.17628073563439006,0.18711366640852684,0.0,1.8914940312249795,1.7419861765267841,31.65460194890067,30.919383124145938,0.0
0.068,0.4182320038929364,-0.17723036144062118,-0.008236432758572887,0.0,1.894275778157285,1.7123570514698634,30.801629313806217,30.919383124145938,0.0
0.069,0.4048553398563439,-0.17012950214322814,0.41942742289205076,0.0,1.8930258471098917,1.7364165376390488,30.527970619183307,30.919383124145938,0.0
0.07,0.41236870455186136,-0.16830754292948405,0.5601708952531319,0.0,1.8941774508636184,1.7681899887329149,31.399649596495102,30.919383124145938,0.0
0.07100000000000001,0.4279838011675637,-0.17390866481956785,0.11952874187374257,0.0,1.8990255823514057,1.7453806565166519,31.412780556412205,30.919383124145938,0.0
0.07200000000000001,0.4217468968394344,-0.17295518404709692,0.10802928759252867,0.0,1.900947073364915,1.729320762675906,30.597430623199575,30.919383124145938,0.0
0.073,0.413573115433381,-0.16649823861663077,0.5189237792083073,0.0,1.9003696967033727,1.7612091428525178,30.756881127122593,30.919383124145938,0.0
0.074,0.4257513520343203,-0.16716824097442257,0.4408235472170315,0.0,1.9031771654393068,1.7757296330699524,31.56302765781301,30.919383124145938,0.0
0.075,0.4347540799978513,-0.17137960578800132,0.03131383653515274,0.0,1.9076124864293074,1.7439452375741644,31.070765209500394,30.919383124145938,0.0
0.076,0.42296996781058205,-0.16717177183665904,0.27593123983791595,0.0,1.9079208603879456,1.748172104817312,30.320421599115644,30.919383124145938,0.0
0.077,0.42251618141950603,-0.16221825711138838,0.6570926602805938,0.0,1.9081182753947683,1.7914207803288213,31.190694645612766,30.919383124145938,0.0
0.078,0.44116480963984467,-0.16740653987017717,0.2192430218173646,0.0,1.9132410627027796,1.7763333683863327,31.50489204179028,30.919383124145938,0.0
0.079,0.4389159423560529,-0.16845502910132737,0.056289234552163336,0.0,1.9164062810735791,1.750154417837774,30.512267801217142,30.919383124145938,0.0
0.08,0.4274717798987281,-0.16111289815003976,0.5566725080680209,0.0,1.9158189632554898,1.7848179513380156,30.747463610602036,30.919383124145938,0.0
0.081,0.44012101909843077,-0.16117985404818644,0.44079379851101286,0.0,1.9188375170275416,1.7967000509834543,31.542157198353262,30.919383124145938,0.0
0.082,0.4479728565282612,-0.16499382671997176,0.037219263893326526,0.0,1.923161292821848,1.763724174603894,30.813793563969924,30.919383124145938,0.0
0.083,0.4355631924884401,-0.1600535057606044,0.402456976686756,0.0,1.9231735283665197,1.780133738613854,30.38207884630537,30.919383124145938,0.0
0.084,0.44073728048359423,-0.1562483923927276,0.6236873782974391,0.0,1.9244563374968473,1.8148932905066597,31.437197791178633,30.919383124145938,0.0
0.085,0.45668567175375674,-0.1618438102555076,0.09094975919047998,0.0,1.9297403680020069,1.7837891438455793,31.03218397767678,30.919383124145938,0.0
0.08600000000000001,0.4469988252062679,-0.15939360481037523,0.29232865740609804,0.0,1.9310601040129503,1.7850279069288364,30.249253087453727,30.919383124145938,0.0
0.08700000000000001,0.4461067367263567,-0.15411734774954727,0.6904954028845466,0.0,1.9318158565088854,1.82806058159265,31.244653340946307,30.919383124145938,0.0
0.088,0.4643571174491039,-0.1592187767624792,0.18954257397025293,0.0,1.9374132209836392,1.8057626226400183,31.216081961025285,30.919383124145938,0.0
0.089,0.4587286052505323,-0.15904917192942258,0.20086127556197053,0.0,1.9401513822938883,1.7933104216434268,30.26827921113114,30.919383124145938,0.0
0.09,0.45324810209945343,-0.15187854088221336,0.6812736896391907,0.0,1.9405834340065917,1.8356560056347297,31.156886310442633,30.919383124145938,0.0
0.091,0.47013213530699255,-0.1552274466299408,0.23459510812047735,0.0,1.9456469248898762,1.817959419606002,31.222751787095984,30.919383124145938,0.0
0.092,0.4657712301533231,-0.15586681460580487,0.19862868316430177,0.0,1.9484712495018277,1.8036978602374618,30.22449635067261,30.919383124145938,0.0
0.093,0.46001162067641976,-0.14866222124290068,0.7047052691107222,0.0,1.9487880867660532,1.8477629259615624,31.168527018017805,30.919383124145938,0.0
0.094,0.4775677322275327,-0.15235808845515914,0.23019849649940566,0.0,1.953958338203242,1.828207889627574,31.123096099912374,30.919383124145938,0.0
0.095,0.47268128518984853,-0.15276311271472906,0.25087682579445697,0.0,1.956663654859744,1.818858136308929,30.20753433882029,30.919383124145938,0.0
0.096,0.4691619476715367,-0.14592650276782676,0.7157761941937545,0.0,1.9574073871819762,1.8619842998754086,31.2840749333608,30.919383124145938,0.0
0.097,0.4866105432868252,-0.15034187300612986,0.17385897883135226,0.0,1.9629434194543152,1.8346577940507407,30.91375688820883,30.919383124145938,0.0
0.098,0.47859807799203113,-0.1490549150693323,0.3590742637667076,0.0,1.9650074788415228,1.8374662526708665,30.255036966258793,30.919383124145938,0.0
0.099,0.47974173990039337,-0.14311976161243506,0.6950776863205979,0.0,1.9665059808511316,1.8751025675364084,31.430903017353735,30.919383124145938,0.0
0.1,0.4953339876267228,-0.14865020720275443,0.10202946184104866,0.0,1.9722859646958384,1.8388260515672545,30.599616901313784,30.919383124145938,0.0
0.101,0.4837439348402234,-0.14448182526767303,0.5208701820893459,0.0,1.9733464720903964,1.8601889753353724,30.539546723303193,30.919383124145938,0.0
0.10200000000000001,0.4917993355727392,-0.1408860560735238,0.5547036351030687,0.0,1.9760833703303051,1.8780529354867195,31.39691736080883,30.919383124145938,0.0
0.10300000000000001,0.49998138296819356,-0.14569860589397302,0.1212429739836221,0.0,1.9808983129335478,1.8455657109874721,30.205918796988435,30.919383124145938,0.0
0.10400000000000001,0.48931887132246743,-0.1389957685020427,0.7238768991653939,0.0,1.9811976012152255,1.8886877383346476,30.970122458753853,30.919383124145938,0.0
0.105,0.5060042200498664,-0.1406069151225835,0.34126767493660587,0.0,1.9860234179056313,1.8774721243818175,30.99316346143545,30.919383124145938,0.0
0.106,0.5041814654860131,-0.14242148524589787,0.32900937022291166,0.0,1.9894285827790732,1.8707056887063904,30.172677182451835,30.919383124145938,0.0
0.107,0.503285922587121,-0.1358400996214336,0.7467195691316605,0.0,1.991074489477704,1.911107400186189,31.395557327054526,30.919383124145938,0.0
0.108,0.5194304516559293,-0.14147129586372317,0.1305177548012293,0.0,1.9972812220973473,1.8738893759958775,30.384189954750653,30.919383124145938,0.0
0.109,0.507963005170846,-0.13656252313090367,0.6415533726471186,0.0,1.9985492020729623,1.9048126279969617,30.792859700157926,30.919383124145938,0.0
0.11,0.5198685326612204,-0.13495689512764503,0.43848373418336206,0.0,2.0026551778980943,1.9038980538972343,31.059957326457763,30.919383124145938,0.0
0.111,0.5207147361014844,-0.13778131219759726,0.30352917901032556,0.0,2.0065858408884676,1.8906972030020714,30.12382603060601,30.919383124145938,0.0
0.112,0.5178956760046856,-0.13052200975803727,0.7795503978716006,0.0,2.007976585051236,1.9332399417669839,31.365147240765467,30.919383124145938,0.0
0.113,0.5344268036783192,-0.13619769335950319,0.1544321516256777,0.0,2.014179446894776,1.8962976471509492,30.260611990545712,30.919383124145938,0.0
0.114,0.5234946858471643,-0.13100423915819923,0.7132874880715572,0.0,2.0154397562942004,1.9327629818905416,30.93790064578105,30.919383124145938,0.0
0.115,0.5376402070338724,-0.13097428561206176,0.3744579852375376,0.0,2.0202692078795796,1.9211826869110664,30.7257121216924,30.919383124145938,0.0
0.116,0.5348988577692257,-0.13195358202949928,0.4824889573063975,0.0,2.023565706949852,1.9269580721749702,30.40222002659328,30.919383124145938,0.0
0.117,0.539605827475128,-0.12663083382576418,0.6494066358314838,0.0,2.026514799372903,1.9492210235762855,31.244362337930678,30.919383124145938,0.0
0.11800000000000001,0.5483107393215239,-0.13194179831680802,0.22508568802493767,0.0,2.0320327112698324,1.920297637429759,30.032142445421556,30.919383124145938,0.0
0.11900000000000001,0.5404937631330025,-0.12411277587615044,0.8400680410667424,0.0,2.0331921912490336,1.9676565658994445,31.288501063465066,30.919383124145938,0.0
0.12,0.5582294967127502,-0.12900423920181234,0.20819755265179596,0.0,2.039587967267512,1.93271087180836,30.190238327268474,30.919383124145938,0.0
0.121,0.5484241353680581,-0.12421661062686731,0.7646203687188664,0.0,2.041274042498534,1.9706804864634735,31.04637200730176,30.919383124145938,0.0
0.122,0.5633149074859315,-0.12509049289406585,0.3352836398706659,0.0,2.0467324750071074,1.9504944402957927,30.39993985948644,30.919383124145938,0.0
0.123,0.5577091444278862,-0.12375108451832836,0.66369414642492,0.0,2.0494703859040513,1.974056906662751,30.84121228965133,30.919383124145938,0.0
0.124,0.5686302914265481,-0.12177268237193578,0.443839639687421,0.0,2.054086522195651,1.9668114328756063,30.587329003044633,30.919383124145938,0.0
0.125,0.5667156335423094,-0.12278568591490763,0.5741018242017828,0.0,2.0576477118905667,1.9775993292975445,30.611884623259247,30.919383124145938,0.0
0.126,0.5738561743707286,-0.11847864108986217,0.5648989991033431,0.0,2.0614476672920006,1.9845450163708396,30.837343924306403,30.919383124145938,0.0
0.127,0.5764759784306652,-0.12187627514137245,0.45298974057816044,0.0,2.065979006054537,1.9787413670518537,30.29122602832467,30.919383124145938,0.0
0.128,0.5781085318845531,-0.11515426119049849,0.7323302595272401,0.0,2.068703448133809,2.005664383371342,31.121424764987896,30.919383124145938,0.0
0.129,0.5878265653419377,-0.12087615286475825,0.31521047478720676,0.0,2.074544375860781,1.980438302610142,30.032386809500235,30.919383124145938,0.0
0.13,0.5826824595257829,-0.11273260128353024,0.8685994156774948,0.0,2.0763255931482574,2.0240259360174413,31.265642569904127,30.919383124145938,0.0
0.131,0.59836572275395,-0.1191949304563979,0.24850894101796656,0.0,2.0830797437725446,1.9879124861780477,29.943374757956548,30.919383124145938,0.0
0.132,0.5895485052251181,-0.11101238724493742,0.9194029306536502,0.0,2.084582431305474,2.0372117665519958,31.291364698999608,30.919383124145938,0.0
