timestamp,iq,id,iq_ref,id_ref,vq,vd,omega,omega_ref,r
0.0,0.0,0.0,0.0,0.0,0.0,0.0,0.0,357.1928741251816,0.0
0.001,0.0,0.0,10.0,0.0,0.0,1.0999999999999999,10.190248830382075,357.1928741251816,0.0
0.002,0.3758227279600709,-0.2061375162931439,10.0,0.0,0.13267512679224577,1.9486594999243918,20.664073481005428,357.1928741251816,0.0
0.003,0.8188354752957833,-0.4530064201966092,10.0,0.0,0.3620428951641561,2.680747387608241,31.615516553370785,357.1928741251816,0.0
0.004,1.2360545674315404,-0.6849269592363836,10.0,0.0,0.6647252457226006,3.3210992906993217,43.00767211557866,357.1928741251816,0.0
0.005,1.5949704512769776,-0.8832626025149991,10.0,0.0,1.020672266904559,3.8923756822354973,54.59894747960752,357.1928741251816,0.0
0.006,1.891229028495822,-1.0458434638530545,10.0,0.0,1.4140527634363382,4.413119852080632,66.45451704989512,357.1928741251816,0.0
0.007,2.1322670483853945,-1.1764651958635026,10.0,0.0,1.832912209207222,4.897576058178767,78.27618803314523,357.1928741251816,0.0
0.008,2.3283099420916415,-1.2817350916581327,10.0,0.0,2.2686048022281353,5.356318250135387,90.16871233126214,357.1928741251816,0.0
0.009000000000000001,2.4900495047899143,-1.3668312763500583,10.0,0.0,2.7149102365007862,5.796924559238688,101.94747965816639,357.1928741251816,0.0
0.01,2.6260560703169444,-1.4368786888487664,10.0,0.0,3.1675000117844405,6.224757454277934,113.68096305232469,357.1928741251816,0.0
0.011,2.7435119758888677,-1.4950875557618875,10.0,0.0,3.62331660027911,6.643505953383976,125.33193704640587,357.1928741251816,0.0
0.012,2.8477115674849687,-1.5440005884328956,10.0,0.0,4.080224724759596,7.055673865409032,136.75179810894423,357.1928741251816,0.0
0.013000000000000001,2.9425234178956194,-1.5854513789553166,10.0,0.0,4.536729284625294,7.46292849105042,147.99512862876256,357.1928741251816,0.0
0.014,3.03116812967292,-1.6200107090478524,10.0,0.0,4.991695869473517,7.866305310322842,158.9784661155849,357.1928741251816,0.0
0.015,3.115914945391551,-1.6481519237709752,10.0,0.0,5.444253418082779,8.266405403541567,169.6485004611599,357.1928741251816,0.0
0.016,3.198649897207721,-1.6698324235072257,10.0,0.0,5.893668663976744,8.663497865756751,179.97859557970503,357.1928741251816,0.0
0.017,3.2809697906951785,-1.6847335260507732,10.0,0.0,6.339273947785256,9.05759476757436,189.9835481945754,357.1928741251816,0.0
0.018000000000000002,3.3643060097432853,-1.692346517238446,10.0,0.0,6.780416811399888,9.44849872243064,199.49541515091533,357.1928741251816,0.0
0.019,3.449796247316071,-1.6923893384680433,10.0,0.0,7.216464364562064,9.835856004220231,208.09510933303912,357.1928741251816,0.0
0.02,3.538355709929308,-1.6848331657008306,10.0,0.0,7.646811283370291,10.219195674635348,216.2243701285519,357.1928741251816,0.0
0.021,3.631637178217722,-1.66840326130448,10.0,0.0,8.070725749583282,10.597860703004185,223.6174832406734,357.1928741251816,0.0
0.022,3.73033929147631,-1.6433671067353415,10.0,0.0,8.487525594053217,10.971126257381878,230.36283330543807,357.1928741251816,0.0
0.023,3.8355596650186614,-1.609373570148771,10.0,0.0,8.896483082035093,11.338158020811726,236.35683089085828,357.1928741251816,0.0
0.024,3.948037445211493,-1.5666428057614743,10.0,0.0,9.296887548845028,11.69806200461098,241.63850330912663,357.1928741251816,0.0
0.025,4.068482741758198,-1.515411740974332,10.0,0.0,9.688033857871186,12.049891831893099,246.17212995323663,357.1928741251816,0.0
0.026000000000000002,4.1973932971369425,-1.456181670653545,10.0,0.0,10.069245521635526,12.39267759922343,249.983674464932,357.1928741251816,0.0
0.027,4.335108241655735,-1.3895886268950128,10.0,0.0,10.43988166164623,12.725446417853878,253.03188405991057,357.1928741251816,0.0
0.028,4.4817900260171175,-1.3163865951002267,10.0,0.0,10.799344776459069,13.047244121787786,255.3346501554339,357.1928741251816,0.0
0.029,4.63741706623895,-1.2374220033112753,10.0,0.0,11.147087265405181,13.357156210228803,257.4815026075259,357.1928741251816,0.0
0.03,4.801573080247955,-1.1539570708874929,10.0,0.0,11.482655217652056,13.654350447581553,261.03086836449137,357.1928741251816,0.0
0.031,4.975148972802856,-1.064791753443324,10.0,0.0,11.805412262814896,13.937930268382768,265.3104575608536,357.1928741251816,0.0
0.032,5.1545914480691515,-0.9758724108626382,10.0,0.0,12.115362111032141,14.207424898266403,272.38660204645913,357.1928741251816,0.0
0.033,5.262416374489996,-1.011463297202046,10.0,0.0,12.426070628339165,14.470898732829768,285.39641863436697,357.1928741251816,0.0
0.034,5.341094291469018,-1.091560152899055,10.0,0.0,12.7405104226351,14.731519714064012,300.22721962322373,357.1928741251816,0.0
0.035,5.401684742577862,-1.1929763524456303,10.0,0.0,13.059923149018017,14.991644406152247,314.052047472415,357.1928741251816,0.0
0.036000000000000004,5.446604900783619,-1.3083364311175596,10.0,0.0,13.385082518629918,15.253362588778412,329.06948422569286,357.1928741251816,0.0
0.037,5.473722781756431,-1.43911742765393,10.0,0.0,13.717130078375519,15.518891124778184,345.09500748375626,357.1928741251816,0.0
0.038,5.486050717677037,-1.5780788877826537,10.0,0.0,14.05650368639534,15.78998666901101,361.8793044945308,357.1928741251816,0.0
0.039,5.483025722366568,-1.7237548320726035,2.138806596479494,0.0,14.403684227307059,15.203634774078628,365.58211111574616,357.1928741251816,0.0
0.04,5.164598440851327,-1.7310477597674836,0.20351091596616921,0.0,14.65685698723792,14.611362282922979,370.12659109935726,357.1928741251816,0.0
0.041,4.712525432710404,-1.665797523772986,-2.1980662455811357,0.0,14.81823476682378,13.905357543991256,372.6264974302519,357.1928741251816,0.0
0.042,4.172745845545387,-1.5482620420130195,-3.6023556440791618,0.0,14.880597893924229,13.210490019198723,371.62116093517193,357.1928741251816,0.0
0.043000000000000003,3.616927076976817,-1.4037647452501032,-3.2439702646390782,0.0,14.852518608009062,12.700553113989773,369.57094067588235,357.1928741251816,0.0
0.044,3.138314353524694,-1.2742078628596794,-2.3426408005012984,0.0,14.763447276069193,12.381453569864997,367.3189126343892,357.1928741251816,0.0
0.045,2.7784525528434907,-1.1785828218742356,-1.317887164846808,0.0,14.642149937226344,12.223865123079744,364.7396762937425,357.1928741251816,0.0
0.046,2.5418424351115836,-1.1192228729871672,-0.10373701620905118,0.0,14.511650143621532,12.215643262026036,361.9651605375545,357.1928741251816,0.0
0.047,2.4224734380317803,-1.0934006523840076,1.2357979977612246,0.0,14.391131298494349,12.34116544626903,359.42366471195334,357.1928741251816,0.0
0.048,2.409424208186734,-1.0946025876168926,2.48423800469408,0.0,14.295606991385839,12.566258303510079,357.8945884416388,357.1928741251816,0.0
0.049,2.482565876960242,-1.1140021024045887,3.2417589966867757,0.0,14.234266327986592,12.821956277502498,355.60974034308236,357.1928741251816,0.0
0.05,2.6114236128957957,-1.1288719967457115,4.400014383785987,0.0,14.206071221556165,13.152340336151564,357.32993466204715,357.1928741251816,0.0
0.051000000000000004,2.7865607072323098,-1.1540570726035988,3.538546618934938,0.0,14.216355691034643,13.322545967270411,349.7955144709576,357.1928741251816,0.0
0.052000000000000005,2.9383805998015964,-1.13354644782945,7.379730311021962,0.0,14.240124257193422,13.892955548764048,353.4369425303106,357.1928741251816,0.0
0.053,3.2179183665150517,-1.155109844346885,5.596575597294164,0.0,14.321134004750348,14.144911217880484,347.5780889880652,357.1928741251816,0.0
0.054,3.4455537354021035,-1.1371981528109152,8.622150219788034,0.0,14.417052424429091,14.708172537542133,349.2377892991099,357.1928741251816,0.0
0.055,3.770866062412891,-1.1295911725585726,7.871850912526386,0.0,14.559047483193734,15.078402894899456,347.84748649647986,357.1928741251816,0.0
0.056,4.068961987304589,-1.1009069770800664,8.660456190128434,0.0,14.720786880117524,15.490521867538368,344.06579826394056,357.1928741251816,0.0
0.057,4.382723079871514,-1.0515057126926988,10.0,0.0,14.902416937485,15.985533887982179,342.30997533640425,357.1928741251816,0.0
0.058,4.729084344761081,-1.0169342360645577,10.0,0.0,15.112076341374896,16.400850145807457,340.38138814502565,357.1928741251816,0.0
0.059000000000000004,5.081758684486618,-0.9512794203030168,10.0,0.0,15.335425115690846,16.76027015351828,333.3523423213289,357.1928741251816,0.0
0.06,5.4191219514467,-0.8698760442948235,10.0,0.0,15.564083190142984,17.07249982192127,328.0421121074196,357.1928741251816,0.0
0.061,5.736267266627946,-0.7824239096696224,10.0,0.0,15.792292722941525,17.344859978928838,349.8466844038037,357.1928741251816,0.0
0.062,5.921807935667154,-0.8738956119331442,8.293014954783452,0.0,16.035853726756205,17.407798698099175,366.18968351781774,357.1928741251816,0.0
0.063,5.9798256817999365,-0.9873017600029035,0.03154730385006488,0.0,16.27291246137149,16.592581509199228,368.229215276768,357.1928741251816,0.0
0.064,5.659897348529654,-0.9819155250098216,-1.0985819871409293,0.0,16.40301705630531,15.876664661272185,373.6732329410684,357.1928741251816,0.0
0.065,5.2042499111460465,-0.9504423909338374,-3.9853944074500056,0.0,16.44511132455463,14.986023819086645,375.52976606300655,357.1928741251816,0.0
0.066,4.635147891326801,-0.8800947996998306,-5.097029887797319,0.0,16.38650857806547,14.153289457115743,376.4630520933715,357.1928741251816,0.0
0.067,4.0456699890091325,-0.8048502849672413,-5.756374682661702,0.0,16.242919249319893,13.395708233118167,375.5388828130611,357.1928741251816,0.0
0.068,3.4861759080693497,-0.738002576509517,-5.477750129385287,0.0,16.031329928266096,12.792417917335042,373.7808239587917,357.1928741251816,0.0
0.069,3.006730766812727,-0.6955208990492556,-4.76460020058669,0.0,15.776566000303315,12.351101972388761,371.57182620039947,357.1928741251816,0.0
0.07,2.6302271758672955,-0.6836032456318367,-3.803890842142754,0.0,15.502260745540866,12.063608702873102,369.11051276461205,357.1928741251816,0.0
0.07100000000000001,2.361330543677667,-0.7012753283540591,-2.69241051064335,0.0,15.228699794936716,11.915903571344664,366.694147216868,357.1928741251816,0.0
0.07200000000000001,2.1941786672243557,-0.7441623579954896,-1.5792404676881744,0.0,14.97226527867348,11.882644499406705,364.40120274052396,357.1928741251816,0.0
0.073,2.1152706926211082,-0.8037662170839414,-0.5048515156695883,0.0,14.744275861046077,11.94112732577053,362.94498520357587,357.1928741251816,0.0
0.074,2.108936534640767,-0.8712852292720813,0.16573614202051346,0.0,14.55176472056761,12.033891358192767,360.61728516732677,357.1928741251816,0.0
0.075,2.1466776047333473,-0.9338240967227529,1.2953420497236112,0.0,14.39398518267691,12.211463787305382,357.82669543373606,357.1928741251816,0.0
0.076,2.2334602360204396,-0.9938206838019288,2.6842987034334205,0.0,14.27571507739074,12.48782151380806,356.2054125031851,357.1928741251816,0.0
0.077,2.3778974504220662,-1.0517793505012714,3.5048147849288807,0.0,14.202683242749595,12.786063392287947,357.5257730933774,357.1928741251816,0.0
0.078,2.554177905622084,-1.1003343952385356,2.841305500150769,0.0,14.171540247674653,12.948040239387197,351.7419450625611,357.1928741251816,0.0
0.079,2.6983712166226033,-1.1099964454190072,5.7877288061851075,0.0,14.160286511889616,13.407348299122535,353.6478100219113,357.1928741251816,0.0
0.08,2.937594653214349,-1.1332502667827438,4.8702469675427125,0.0,14.19855025550482,13.664340299079734,348.55554755947674,357.1928741251816,0.0
0.081,3.1458379677297756,-1.1284939456978216,7.502751464417049,0.0,14.257931091221245,14.17769525621456,349.5959200460457,357.1928741251816,0.0
0.082,3.4390811656032345,-1.1328238680880514,7.058534761923923,0.0,14.363233193753285,14.540289600343632,348.2101218612541,357.1928741251816,0.0
0.083,3.7185325072157216,-1.1127155520124077,7.841261376959004,0.0,14.492009306452804,14.939889599393153,344.3945837816372,357.1928741251816,0.0
0.084,4.008445473455563,-1.082435257709439,9.877013320202892,0.0,14.644738058574747,15.499416744543884,343.4676903109997,357.1928741251816,0.0
0.085,4.366022569153104,-1.0634059278671482,10.0,0.0,14.836356226659952,15.975000714872657,341.61331427789975,357.1928741251816,0.0
0.08600000000000001,4.72905533944247,-1.0309893418371523,10.0,0.0,15.052995443804642,16.38460040440425,338.43875619126726,357.1928741251816,0.0
0.08700000000000001,5.080099066472727,-0.9732930653220211,10.0,0.0,15.28290828363165,16.73991956442671,334.6949163208386,357.1928741251816,0.0
0.088,5.412936769389877,-0.8950185744574257,10.0,0.0,15.517328524248253,17.049596382379043,330.4530576669503,357.1928741251816,0.0
0.089,5.730926876002102,-0.7982190452384008,10.0,0.0,15.749409219292978,17.320097007899637,351.213841534313,357.1928741251816,0.0
0.09,5.922217113359629,-0.8731739854263578,7.134991541317322,0.0,15.994544946098165,17.253742684874336,363.3276482311255,357.1928741251816,0.0
0.091,5.938399292263504,-0.9563519604919002,1.0167404518516312,0.0,16.21693169577562,16.57431269427184,366.61284066004987,357.1928741251816,0.0
0.092,5.644103995490697,-0.9679842995858539,-0.7200554279592253,0.0,16.349584548974775,15.887733646246843,372.40250998680494,357.1928741251816,0.0
0.093,5.214128483907306,-0.9439933924676925,-3.766986449952996,0.0,16.397558888877573,15.009637688029501,374.2671063037113,357.1928741251816,0.0
0.094,4.660335133141695,-0.8799844851898134,-4.870026930191457,0.0,16.346125128238967,14.189901130486266,375.4230889435606,357.1928741251816,0.0
0.095,4.082046530324533,-0.8090429505710643,-5.6303203982998955,0.0,16.210697608174613,13.43246678874618,374.71318765721577,357.1928741251816,0.0
0.096,3.526658875002195,-0.7440659987490035,-5.450572890447836,0.0,16.00663135658845,12.819918045775765,372.89046926720283,357.1928741251816,0.0
0.097,3.0445254022395316,-0.7012213077576508,-4.69618964686158,0.0,15.757653709373033,12.376883039110409,370.9383166677766,357.1928741251816,0.0
0.098,2.665310581948262,-0.6887244661813755,-3.8575677725744013,0.0,15.488324120549144,12.074850637630187,368.5963505047939,357.1928741251816,0.0
0.099,2.3889959931889506,-0.7042415031408563,-2.8006194548791954,0.0,15.217556092940928,11.910569070179815,366.1833311924631,357.1928741251816,0.0
0.1,2.211940869262841,-0.7439360149385533,-1.6840143693865874,0.0,14.96164793727665,11.864608850685169,363.86351224689673,357.1928741251816,0.0
0.101,2.123569595563941,-0.8009008807253555,-0.5908112778205683,0.0,14.732603765347905,11.914690415658516,362.34009536924304,357.1928741251816,0.0
0.10200000000000001,2.1096967144443877,-0.8669513823676432,0.1194249485656611,0.0,14.538168073632155,12.00469566511464,360.1297827915865,357.1928741251816,0.0
0.10300000000000001,2.142859823356147,-0.9295716456272295,1.1952121507298958,0.0,14.378404199975723,12.173704379636288,357.2810034815207,357.1928741251816,0.0
0.10400000000000001,2.224122579563399,-0.9898933450389052,2.6187205121993875,0.0,14.257526769439783,12.447056610986456,356.0034234436756,357.1928741251816,0.0
0.105,2.365277511323992,-1.047989881914319,3.2694050379369965,0.0,14.181859707154638,12.723611675432856,357.0150594649534,357.1928741251816,0.0
0.106,2.531001896244066,-1.0966050122060613,2.765365173900374,0.0,14.146181556505981,12.886175163881102,350.2316932908541,357.1928741251816,0.0
0.107,2.671438990884821,-1.1062184307316534,6.22666006929332,0.0,14.130898894501913,13.40090648899196,353.3510881646641,357.1928741251816,0.0
0.108,2.92695957050984,-1.1408709941876944,4.705380491993498,0.0,14.172333279004253,13.633979820122073,348.8515506973634,357.1928741251816,0.0
0.109,3.1331329459502535,-1.1379922344240851,7.038562459922023,0.0,14.232268368960804,14.099628203332351,349.4405134999157,357.1928741251816,0.0
0.11,3.4089888179968098,-1.1342637436313088,6.821604664898524,0.0,14.332393441853162,14.449225667914666,346.64495015772843,357.1928741251816,0.0
0.111,3.673128675986457,-1.1133423903091901,8.324865575666696,0.0,14.45520168995701,14.915107345804321,345.9754968464601,357.1928741251816,0.0
0.112,3.9818742444865975,-1.0888613140464662,8.771766004088082,0.0,14.609833576183757,15.349487504778951,344.3586511273873,357.1928741251816,0.0
0.113,4.304026609577069,-1.052425982492509,9.708531093602417,0.0,14.788677213976994,15.822118687566212,339.09129678190544,357.1928741251816,0.0
0.114,4.646080163560718,-1.019973126989797,10.0,0.0,14.993694145479864,16.25366067737535,337.9431279393061,357.1928741251816,0.0
0.115,4.997618619419862,-0.9643071763581508,10.0,0.0,15.21556485679891,16.624386777685224,334.2103239004324,357.1928741251816,0.0
0.116,5.3360594929573395,-0.8905742372323138,10.0,0.0,15.444767143219519,16.946514227565487,329.8307728575229,357.1928741251816,0.0
0.117,5.659472288734162,-0.8003675122174112,10.0,0.0,15.674076535625701,17.227158162299702,348.30484134681984,357.1928741251816,0.0
0.11800000000000001,5.882111917027863,-0.8394269749025067,8.328033849019201,0.0,15.913717990410206,17.29749613503868,357.1386377994437,357.1928741251816,0.0
0.11900000000000001,5.946809649539208,-0.9531371987181676,3.9116779859646518,0.0,16.148546626983027,16.910794618262727,367.39250579621,357.1928741251816,0.0
0.12,5.780250965270367,-1.0183885707047597,-1.3172523291287836,0.0,16.327262796901334,16.07419577338659,372.188864014907,357.1928741251816,0.0
0.121,5.353094379105287,-0.9876099645014107,-3.8653913373745272,0.0,16.40040930493797,15.156444079869281,374.30956548118684,357.1928741251816,0.0
0.122,4.7814527014799175,-0.9137227217450736,-5.096908984074507,0.0,16.366646182178048,14.286405674129965,375.4582489454764,357.1928741251816,0.0
0.123,4.1748344738390974,-0.8278021716699493,-5.853904464422229,0.0,16.240543143039478,13.490052058581567,374.71311203542064,357.1928741251816,0.0
0.124,3.590791242542011,-0.7496147622438909,-5.656538388496744,0.0,16.039673636723823,12.84818229699571,372.8082137308028,357.1928741251816,0.0
0.125,3.084368486855479,-0.6965914642464497,-4.860242632244027,0.0,15.789653416195678,12.385897504177965,370.812509440753,357.1928741251816,0.0
0.126,2.687100598272438,-0.6776724993749822,-3.998586840374847,0.0,15.51685588528269,12.070293588319528,368.45421544298625,357.1928741251816,0.0
0.127,2.398050354527606,-0.6898021082086452,-2.9320532546695253,0.0,15.241301162495573,11.89549529539063,366.02759325795694,357.1928741251816,0.0
0.128,2.21207261173993,-0.7281021067709794,-1.8070893534826205,0.0,14.979913786447803,11.841269102018616,363.6547644145733,357.1928741251816,0.0
0.129,2.117093547959578,-0.7855967626560688,-0.6852938346847299,0.0,14.745183940829342,11.887062578022887,362.03280958440456,357.1928741251816,0.0
0.13,2.0992243632768117,-0.8533963669837195,0.07728422580742134,0.0,14.545389437290341,11.978485173008341,359.94097999025433,357.1928741251816,0.0
0.131,2.1311860297421026,-0.9195652439285144,1.0957179642318073,0.0,14.38131722402444,12.141493513605102,357.10986054466844,357.1928741251816,0.0
0.132,2.209916865336624,-0.9824988750422364,2.512107822829888,0.0,14.256214076797866,12.409071570626397,356.0593789758423,357.1928741251816,0.0
0.133,2.3479763007561463,-1.0424689230101987,3.0486835587363386,0.0,14.176346418961419,12.667841710046432,356.6126677734915,357.1928741251816,0.0
0.134,2.505513974252497,-1.0915502013162284,2.7778412234286387,0.0,14.135141780984602,12.841641105767506,350.386412465629,357.1928741251816,0.0
0.135,2.646996235672074,-1.1031101271733081,5.959033493955423,0.0,14.116218325438798,13.33259199920862,353.499326970064,357.1928741251816,0.0
0.136,2.893279060605549,-1.1381048414346648,4.439511713289115,0.0,14.15201612410186,13.547919851043996,347.95851021822904,357.1928741251816,0.0
0.137,3.0894471204652127,-1.1331205405966998,7.3022637282761105,0.0,14.204868707847362,14.056276978682147,349.3524285048069,357.1928741251816,0.0
0.138,3.3741271623947116,-1.138560982299627,6.6837090411909355,0.0,14.303920037577829,14.39306199218814,347.4351783168971,357.1928741251816,0.0
0.139,3.6382994029206173,-1.118441833750114,7.73991109322866,0.0,14.424477224928378,14.802229263873032,345.7047335348677,357.1928741251816,0.0
0.14,3.9272187372919904,-1.0850003101362589,8.720014890146496,0.0,14.57041804460033,15.250645519889485,341.09305507739424,357.1928741251816,0.0
