timestamp,iq,id,iq_ref,id_ref,vq,vd,omega,omega_ref,r
0.0,0.0,0.0,0.0,0.0,0.0,0.0,0.0,445.9607266864979,0.0
0.001,0.0,0.0,10.0,0.0,0.0,1.0999999999999999,23.900445460754415,445.9607266864979,0.0
0.002,0.7582874659361836,-0.4222222645233553,10.0,0.0,0.15644444909756902,1.9065883787470195,43.86586563481909,445.9607266864979,0.0
0.003,1.3063841612078466,-0.719210911884093,10.0,0.0,0.4063498197245309,2.595454602708573,65.47148402930034,445.9607266864979,0.0
0.004,1.7192047780355335,-0.9406290801052389,10.0,0.0,0.7215373877156704,3.2004954404383383,87.579457502227,445.9607266864979,0.0
0.005,2.0376404053553387,-1.1063483864183512,10.0,0.0,1.0817252246929034,3.7456512383573397,110.04190877266075,445.9607266864979,0.0
0.006,2.287823626938935,-1.2328172048092825,10.0,0.0,1.4726642347241845,4.2479744420811665,132.64572212139143,445.9607266864979,0.0
0.007,2.488590213138018,-1.3308710218898483,10.0,0.0,1.8842628958196734,4.719576734169675,155.21539767035,445.9607266864979,0.0
0.008,2.6537237675129752,-1.4074010002076154,10.0,0.0,2.3092996794586127,5.169021638039626,177.5753832849409,445.9607266864979,0.0
0.009000000000000001,2.7932299612574387,-1.4669658969983004,10.0,0.0,2.742564113984451,5.602331384118337,199.5404473831768,445.9607266864979,0.0
0.01,2.9146353831677576,-1.5122841848702882,10.0,0.0,3.180222442363588,6.023677064569069,220.90715511115073,445.9607266864979,0.0
0.011,3.0238364636867616,-1.5447374805963086,10.0,0.0,3.6193661856010273,6.435855945174656,241.45360665182713,445.9607266864979,0.0
0.012,3.125694693288941,-1.5647672076204298,10.0,0.0,4.057692179590674,6.840618917592377,260.94417504854613,445.9607266864979,0.0
0.013000000000000001,3.2244289162638933,-1.5722163415829447,10.0,0.0,4.493280978888764,7.238896009936066,279.1389341097849,445.9607266864979,0.0
0.014,3.323855746704289,-1.5666188466725242,10.0,0.0,4.924448391711642,7.630954663856501,295.8047555702594,445.9607266864979,0.0
0.015,3.4277412898702506,-1.5470560923097096,10.0,0.0,5.349609000613471,8.016491052223333,310.74611283229353,445.9607266864979,0.0
0.016,3.5391157064041314,-1.513515004773586,10.0,0.0,5.767313295376455,8.394777532256592,323.8047355949456,445.9607266864979,0.0
0.017,3.6606677834319,-1.4663029929127718,10.0,0.0,6.176217898237137,8.764748809455114,334.87289996164344,445.9607266864979,0.0
0.018000000000000002,3.7947975428856227,-1.4058765557552957,10.0,0.0,6.575054380562889,9.125074666450214,343.89745946757694,445.9607266864979,0.0
0.019,3.943315288608015,-1.333179226401205,10.0,0.0,6.962647358498202,9.474255931543457,350.8842476902051,445.9607266864979,0.0
0.02,4.1073795515054154,-1.249568145654445,10.0,0.0,7.337928919560703,9.810716476459413,355.88631866130794,445.9607266864979,0.0
0.021,4.287475469967513,-1.1566882811441113,10.0,0.0,7.699947704719882,10.132889214588172,359.1698853240656,445.9607266864979,0.0
0.022,4.483917336913846,-1.0555137226138274,10.0,0.0,8.047781482382792,10.439238911240498,360.7369694995835,445.9607266864979,0.0
0.023,4.6961053823224015,-0.9475192411139086,10.0,0.0,8.380599204564955,10.728360749668402,385.5416696949067,445.9607266864979,0.0
0.024,4.81663465476071,-0.9956105966092428,10.0,0.0,8.715417332291178,11.0107158369576,411.52864946530065,445.9607266864979,0.0
0.025,4.880931995361071,-1.100420907073534,10.0,0.0,9.056037376569815,11.292449813548847,439.8204346886306,445.9607266864979,0.0
0.026000000000000002,4.919852850101739,-1.2215553118636637,6.322303634202789,0.0,9.403045495501985,11.171887476055673,462.78069410489127,445.9607266864979,0.0
0.027,4.6556519095244315,-1.216476235286285,-5.32602574811148,0.0,9.701526526320206,9.88299422781934,459.6662757353198,445.9607266864979,0.0
0.028,3.576686917952301,-0.8021494387781658,-3.9058720538139653,0.0,9.795744972382856,9.141582747351498,460.2702436488926,445.9607266864979,0.0
0.029,2.8756431762050516,-0.6183546703246381,-4.350951180224299,0.0,9.790326269227647,8.486899180365066,458.05162059904563,445.9607266864979,0.0
0.03,2.300867248348784,-0.4805370836196372,-3.3625485944263063,0.0,9.706659092836302,8.066532090110357,456.2512106153732,445.9607266864979,0.0
0.031,1.9280974847206487,-0.424483685883734,-2.565248441878855,0.0,9.584534227174721,7.792910896884755,453.86014960761753,445.9607266864979,0.0
0.032,1.6901179767566652,-0.4099824157169967,-1.448712167212204,0.0,9.446225123015756,7.671735373343173,451.85941923420177,445.9607266864979,0.0
0.033,1.5788244646594576,-0.43243559390960157,-0.5073339059813615,0.0,9.312244239221384,7.65109522897963,449.6666924776964,445.9607266864979,0.0
0.034,1.55249827152326,-0.4683611006844065,0.551969814359329,0.0,9.1933247033334,7.7280135834221815,447.7555054820945,445.9607266864979,0.0
0.035,1.6039422588440322,-0.5135119642273773,1.4896155242043099,0.0,9.098596296400444,7.871974039174573,445.4124753687692,445.9607266864979,0.0
0.036000000000000004,1.7108188238651088,-0.5548324777634688,2.666613094044253,0.0,9.031830523589568,8.100916901963263,443.3929352578821,445.9607266864979,0.0
0.037,1.877083652452526,-0.6095817686441056,3.7020610637739786,0.0,9.000244831200156,8.385197836669464,443.20472544657645,445.9607266864979,0.0
0.038,2.089138738905398,-0.6562645832643874,3.823725981826006,0.0,9.004833418219725,8.619257358730582,440.2637097246962,445.9607266864979,0.0
0.039,2.280670738101611,-0.6509563049614131,5.351204012384154,0.0,9.031318359983924,8.978227752421372,437.44956166649825,445.9607266864979,0.0
0.04,2.555410861848158,-0.6845152210704226,6.8433896916831145,0.0,9.094796410495798,9.424509151716645,436.99864305590586,445.9607266864979,0.0
0.041,2.90269350189434,-0.7267237069586312,7.158469833285233,0.0,9.200862140172628,9.81679348574921,434.6286966402573,445.9607266864979,0.0
0.042,3.22704254767629,-0.7250535532480643,8.45676334157191,0.0,9.334943928517987,10.287911875206163,432.7705790960779,445.9607266864979,0.0
0.043000000000000003,3.613941045540079,-0.7340729558972661,9.517723589565827,0.0,9.503738212803025,10.789733952441223,430.9401632209657,445.9607266864979,0.0
0.044,4.037189218811887,-0.7374911883381134,10.0,0.0,9.706121087925066,11.258005738967833,428.13566784312644,445.9607266864979,0.0
0.045,4.453596294772411,-0.7129307686324046,10.0,0.0,9.932357025695525,11.65329357362671,432.0874081574839,445.9607266864979,0.0
0.046,4.830229120841503,-0.6610508383164061,10.0,0.0,10.170036965017124,11.994410678488753,459.047292128748,445.9607266864979,0.0
0.047,5.001956568145032,-0.8437542652243923,-3.3444472953677655,0.0,10.438676797155805,10.842171173363598,464.5471833578756,445.9607266864979,0.0
0.048,4.0948619336523775,-0.5354160320742554,-6.280257476645356,0.0,10.529484455652508,9.744022639245198,461.16064479633917,445.9607266864979,0.0
0.049,3.194970276189492,-0.2701141154862449,-4.738987376975549,0.0,10.475296666394518,9.05358467314075,460.4796311609878,445.9607266864979,0.0
0.05,2.616082430885143,-0.18193171271774677,-4.543669604044774,0.0,10.350436814313234,8.487522725155484,459.01047772035787,445.9607266864979,0.0
0.051000000000000004,2.166461182630564,-0.14565317517735343,-3.9395903940683974,0.0,10.178347937539792,8.073745980983675,457.3111006367712,445.9607266864979,0.0
0.052000000000000005,1.8443479492753925,-0.15692009260667283,-3.203405591777789,0.0,9.983692420319139,7.790013802890424,455.58618256408863,445.9607266864979,0.0
0.053,1.628862282394919,-0.19816862760817,-2.437201114212419,0.0,9.784553906687098,7.612592226417024,453.6910719167433,445.9607266864979,0.0
0.054,1.4977502810450187,-0.25533296742042066,-1.566949242842199,0.0,9.593462678800254,7.533332080782508,451.8146148226551,445.9607266864979,0.0
0.055,1.4415009190832655,-0.3218131036360631,-0.6872595771596663,0.0,9.420295730724241,7.5358284812364325,449.89043060088414,445.9607266864979,0.0
0.056,1.4465137840304874,-0.39001877497073933,0.2355354945819359,0.0,9.271532939985882,7.6123551993083005,447.9906574015528,445.9607266864979,0.0
0.057,1.5068589375892039,-0.4550489679365729,1.1651227870970469,0.0,9.15177036464144,7.752791779716408,446.10272368249366,445.9607266864979,0.0
0.058,1.6143519285298162,-0.5150711164589115,2.1076696766666703,0.0,9.06397983928005,7.9503719520088865,444.19492979649243,445.9607266864979,0.0
0.059000000000000004,1.7653020625687343,-0.5670831620187895,3.0792245885673393,0.0,9.009847487210411,8.201331041114477,441.16710855759123,445.9607266864979,0.0
0.06,1.9538610103103002,-0.6172051494441361,4.641071389307005,0.0,8.991217577419487,8.564636602153726,442.55293883588047,445.9607266864979,0.0
0.061,2.2237422900356023,-0.6822898258541316,3.982234128668561,0.0,9.017439309242421,8.773856698139959,438.7400675155909,445.9607266864979,0.0
0.062,2.405721316912372,-0.6550546233227496,5.960876380522411,0.0,9.058314158439142,9.17169709786098,436.00924394732687,445.9607266864979,0.0
0.063,2.7105029560720495,-0.6922053128463445,7.425802992046142,0.0,9.139244490561195,9.643490257239847,435.6699082650987,445.9607266864979,0.0
0.064,3.082459962882093,-0.7326997384681333,7.698379017374226,0.0,9.263343985332087,10.053663776206374,433.28152186043997,445.9607266864979,0.0
0.065,3.425577456237909,-0.7281750457615916,9.019364267964164,0.0,9.415148222068614,10.543789155863912,431.42844834893185,445.9607266864979,0.0
0.066,3.832388070191085,-0.7353469608456729,10.0,0.0,9.601618730683551,11.053424506646104,429.49160728874597,445.9607266864979,0.0
0.067,4.269375552407442,-0.7326537416469212,10.0,0.0,9.82003775025251,11.476936498986937,425.85407828371547,445.9607266864979,0.0
0.068,4.663995491132356,-0.6854776598934218,10.0,0.0,10.053803630297764,11.840900875613013,446.2964368403292,445.9607266864979,0.0
0.069,4.938703545686533,-0.7547985273512732,2.928997604210611,0.0,10.30868641623899,11.387763452430455,463.2551523051033,445.9607266864979,0.0
0.07,4.529632560989281,-0.6828454552716015,-5.7233043843625016,0.0,10.484159134664498,10.172129744237372,461.3255197808215,445.9607266864979,0.0
0.07100000000000001,3.5623640734013193,-0.36526336196073217,-4.912136053164822,0.0,10.486306710884755,9.373667038811327,460.3068689505336,445.9607266864979,0.0
0.07200000000000001,2.8884171819018736,-0.2263558681026655,-4.546272060661247,0.0,10.396289255549094,8.751860190602386,459.4221387342038,445.9607266864979,0.0
0.073,2.3830783285869694,-0.1680522054037944,-4.238521072973413,0.0,10.248068532967814,8.262274055351048,457.80510243614674,445.9607266864979,0.0
0.074,1.997498233398599,-0.1552383148559326,-3.548446681441358,0.0,10.064884777786254,7.917015556495933,456.14078428812144,445.9607266864979,0.0
0.075,1.7306424134221536,-0.1820996821103014,-2.8180881834449427,0.0,9.868576437540796,7.686901562117981,454.3060786397861,445.9607266864979,0.0
0.076,1.5573071797240967,-0.2307096782774752,-1.9841888788101598,0.0,9.673966017787933,7.560991789190169,452.4459996098018,445.9607266864979,0.0
0.077,1.4649687612102453,-0.2924874444062411,-1.1190020930510394,0.0,9.492535117030066,7.523467378666544,450.5271881490138,445.9607266864979,0.0
0.078,1.4397435000895769,-0.3591768868927324,-0.20526097728220227,0.0,9.332212926307852,7.565263368534613,448.632639573383,445.9607266864979,0.0
0.079,1.473498702377301,-0.42617825676438814,0.7152941816643361,0.0,9.198805809905688,7.675005871807231,446.7651501315897,445.9607266864979,0.0
0.08,1.5583158334250706,-0.48790843167021875,1.6409946681100873,0.0,9.095833961011923,7.844062582639556,444.67705883711045,445.9607266864979,0.0
0.081,1.6884527578025075,-0.5413130282880548,2.6978769938435754,0.0,9.025322171969668,8.07944959809446,442.6388365065491,445.9607266864979,0.0
0.082,1.865166410942429,-0.5964224938535561,3.7502070609237252,0.0,8.990928258623159,8.371297084619515,442.04300874961825,445.9607266864979,0.0
0.083,2.0836465545840097,-0.6486373911845983,4.087298118757959,0.0,8.994351029314563,8.634811467579198,439.71215263033946,445.9607266864979,0.0
0.084,2.293498633004705,-0.6596248676531863,5.315211918958939,0.0,9.02446943467103,8.983117369565962,437.0815368359767,445.9607266864979,0.0
0.085,2.565681648022167,-0.6830966287947678,6.719311714645534,0.0,9.088878608651418,9.413934750545497,435.93820103278364,445.9607266864979,0.0
0.08600000000000001,2.902723726294953,-0.7193248639426255,7.391204872779204,0.0,9.193678991586564,9.83362576180312,434.05666439428245,445.9607266864979,0.0
0.08700000000000001,3.2463799963909943,-0.7267951793582766,8.451013814951953,0.0,9.330427889698203,10.297255993358329,432.0616365391269,445.9607266864979,0.0
0.088,3.629391951818225,-0.7331932703194564,9.587518644003447,0.0,9.500494008005774,10.803920780947083,430.32141584856004,445.9607266864979,0.0
0.089,4.056095970155116,-0.7377535383334681,10.0,0.0,9.70465764181339,11.267826280014035,427.4752395582115,445.9607266864979,0.0
0.09,4.470062925643012,-0.7112463897330277,10.0,0.0,9.931834073120756,11.660363454074792,433.60710418854563,445.9607266864979,0.0
0.091,4.837119535808254,-0.6714993235589517,9.223094888539109,0.0,10.17143947291031,11.91466843403621,458.4449292987074,445.9607266864979,0.0
0.092,4.946344411983018,-0.8249951234407353,-3.320659692663866,0.0,10.429796839365792,10.787115332885156,463.96851067944027,445.9607266864979,0.0
0.093,4.054930583598754,-0.5256970777851,-6.2625282229597286,0.0,10.515105416039685,9.699133055858255,460.5251473184881,445.9607266864979,0.0
0.094,3.164677215619756,-0.2651886077842798,-4.68649074880355,0.0,10.457421956099962,9.020276403855421,459.899880885942,445.9607266864979,0.0
0.095,2.595467505583982,-0.18124189356639553,-4.513249074524949,0.0,10.330992123089967,8.460543814912125,458.409664107933,445.9607266864979,0.0
0.096,2.1514097084167796,-0.14663165568807668,-3.8926300597347865,0.0,10.158264355462206,8.053831437034324,456.7352296263651,445.9607266864979,0.0
0.097,1.8348417052626678,-0.1594513500991036,-3.1631578483495013,0.0,9.963894395573437,7.774935175661289,455.01417531762326,445.9607266864979,0.0
0.098,1.6231492474475548,-0.20123952737856388,-2.3931651802898415,0.0,9.765540308092877,7.602016506137514,453.13636954757874,445.9607266864979,0.0
0.099,1.4953391276984027,-0.2587864052197951,-1.526018723878391,0.0,9.575642037197731,7.526182666936975,451.2728946291412,445.9607266864979,0.0
0.1,1.4415429145670016,-0.3252412468051061,-0.6474029440860583,0.0,9.403884773268015,7.53155813802698,449.36407337089105,445.9607266864979,0.0
0.101,1.4485175770407062,-0.3933065842618218,0.27297421819508827,0.0,9.256663421544664,7.610370490664598,447.49744009344454,445.9607266864979,0.0
0.10200000000000001,1.5102375000725765,-0.4582976308723947,1.190923722848877,0.0,9.138513802010003,7.751630701846454,445.5891644709432,445.9607266864979,0.0
0.10300000000000001,1.6184861878909307,-0.5171682266838802,2.148777156255084,0.0,9.052131020620154,7.951844156155104,443.7162331352164,445.9607266864979,0.0
0.10400000000000001,1.771114831798674,-0.5693344602194498,3.1076877596313155,0.0,8.999557442530946,8.203592954979559,440.96677268343416,445.9607266864979,0.0
0.105,1.9600736967346013,-0.6191827461173169,4.532357525553065,0.0,8.98237775124652,8.5527748956264,441.6900621713031,445.9607266864979,0.0
0.106,2.2215175598265673,-0.677029695127565,4.213419426770537,0.0,9.007698904687365,8.789121548264063,438.36837279208805,445.9607266864979,0.0
0.107,2.419779386069047,-0.6623831835681501,5.950187655322164,0.0,9.051933022286256,9.179405174854795,435.7647427815662,445.9607266864979,0.0
0.108,2.72095846814792,-0.6947646652190587,7.3539624996324005,0.0,9.134480518881524,9.640984320368702,435.1334620942419,445.9607266864979,0.0
0.109,3.0858021493586723,-0.730640654387824,7.777875489217114,0.0,9.258553724360713,10.060131967289568,432.8985376350831,445.9607266864979,0.0
0.11,3.4348659556223464,-0.7290151800196152,9.025959609310679,0.0,9.411596811911876,10.548073711503818,431.02880713086984,445.9607266864979,0.0
0.111,3.8406308376259175,-0.7352164869531215,10.0,0.0,9.59882816363572,11.056045692868889,429.073454991958,445.9607266864979,0.0
0.112,4.2765636516423315,-0.7317133716542029,10.0,0.0,9.817686222571464,11.478308246641173,425.42924365178686,445.9607266864979,0.0
0.113,4.67046127428872,-0.6840363163401272,10.0,0.0,10.05167528605931,11.841260940578866,446.7034524486019,445.9607266864979,0.0
0.114,4.939307582182392,-0.7607658171269728,2.5471525941263558,0.0,10.307477728231833,11.345869939183636,462.8662108678089,445.9607266864979,0.0
0.115,4.500630436627954,-0.6735132469238425,-5.703281457290237,0.0,10.477795748317364,10.143521959638013,460.9426762192089,445.9607266864979,0.0
0.116,3.5421508997674414,-0.36041173125472076,-4.891333628317364,0.0,10.477278527418209,9.351305159355801,459.9205206465169,445.9607266864979,0.0
0.117,2.873950397601872,-0.22417982555950505,-4.519853781571532,0.0,10.385736854110966,8.734918881733815,459.0513540607242,445.9607266864979,0.0
0.11800000000000001,2.3732708349389915,-0.16772630551798118,-4.216176762417446,0.0,10.236863152224636,8.249099485054057,457.4358113380514,445.9607266864979,0.0
0.11900000000000001,1.990885289676973,-0.15588201947912272,-3.523156247596589,0.0,10.053556544595102,7.907225758644586,455.78417709501224,445.9607266864979,0.0
0.12,1.7267128718858968,-0.1834166788470481,-2.7955736301621554,0.0,9.857540480478434,7.6795477373870895,453.95596783793036,445.9607266864979,0.0
0.121,1.5552561004268655,-0.23229572649560193,-1.96142141313554,0.0,9.663459569295343,7.555735350224838,452.10733945075214,445.9607266864979,0.0
0.122,1.4644426286302727,-0.29420952646801685,-1.0985733471889711,0.0,9.48272723803482,7.519742789927395,450.19844197722597,445.9607266864979,0.0
0.123,1.4402913906843562,-0.36084497237612945,-0.18650176333316848,0.0,9.323179644920774,7.562724147554405,448.3154364604534,445.9607266864979,0.0
0.124,1.4749417741632125,-0.4275241863284345,0.7314538973135689,0.0,9.190553305956502,7.673253962377755,446.4507799037223,445.9607266864979,0.0
0.125,1.5601493174826282,-0.4892316186052541,1.658881643506856,0.0,9.08836360778192,7.84327933136679,444.3979110334589,445.9607266864979,0.0
0.126,1.690855894562244,-0.5426104221256769,2.7009442351689508,0.0,9.018650010388178,8.077910153214802,442.35523368043454,445.9607266864979,0.0
0.127,1.8672118426961868,-0.596757572152157,3.758337841741771,0.0,8.984793253386322,8.369907115421082,441.71613263599977,445.9607266864979,0.0
0.128,2.085634090930845,-0.6489488114504806,4.120334304464135,0.0,8.988721433127829,8.636301492715814,439.43691338907786,445.9607266864979,0.0
0.129,2.297130518268885,-0.6612337051063466,5.325182060899292,0.0,9.01972565853382,8.984282154311028,436.8603576411348,445.9607266864979,0.0
0.13,2.5693602094014056,-0.6838964022468729,6.70446362532446,0.0,9.084797575307634,9.41240736505854,435.65063207740855,445.9607266864979,0.0
0.131,2.9045224308316984,-0.718947937108295,7.412427353278472,0.0,9.189803863342167,9.834164893393362,433.8146529265848,445.9607266864979,0.0
0.132,3.2495408661106593,-0.7269974633753664,8.45187766628947,0.0,9.327020207947497,10.296906789183447,431.8106439692352,445.9607266864979,0.0
0.133,3.632005065408552,-0.7330579287127204,9.595382972136916,0.0,9.497375263595735,10.80386633279818,430.0846530539626,445.9607266864979,0.0
0.134,4.058890756961859,-0.7376717473409413,10.0,0.0,9.70183768343636,11.267105463544851,427.23953368283355,445.9607266864979,0.0
0.135,4.472416665320337,-0.7109149138274773,10.0,0.0,9.92918838449482,11.659201759918382,433.75026223161734,445.9607266864979,0.0
0.136,4.837400428665756,-0.6739501871918965,9.037017008567107,0.0,10.169215093490006,11.892882412818373,458.1329554117908,445.9607266864979,0.0
0.137,4.932051929479456,-0.8201853009259279,-3.2760518687725604,0.0,10.425062706652778,10.775628097278805,463.7514695808535,445.9607266864979,0.0
0.138,4.047574319472373,-0.5243577828840194,-6.263216382247455,0.0,10.509596748823363,9.688465619009541,460.2761045995925,445.9607266864979,0.0
0.139,3.158630236751542,-0.2642643828472694,-4.668687670747897,0.0,10.451309140126343,9.012681669183184,459.672322686627,445.9607266864979,0.0
0.14,2.591828267448105,-0.1813289974878618,-4.503912674266451,0.0,10.32474993892722,8.454286091763894,458.18162091405924,445.9607266864979,0.0
