timestamp,iq,id,iq_ref,id_ref,vq,vd,omega,omega_ref,r
0.0,0.0,0.0,0.0,0.0,0.0,0.0,0.0,322.92808233730324,0.0
0.001,0.0,0.0,10.0,0.0,0.0,1.0999999999999999,4.026608806518185,322.92808233730324,0.0
0.002,0.6028202401007912,-0.3327357440486699,10.0,0.0,0.14660093184535375,1.923689773588913,9.466643674181716,322.92808233730324,0.0
0.003,1.3659256078025042,-0.7630351394185261,10.0,0.0,0.4049163239152606,2.601757274957289,15.27346708023684,322.92808233730324,0.0
0.004,2.1107828293293864,-1.1865889990033207,10.0,0.0,0.7474948575156437,3.163546324704878,21.13540453546134,322.92808233730324,0.0
0.005,2.754920123050352,-1.5540304319875702,10.0,0.0,1.1481774617631666,3.6400077927437104,27.03144112658951,322.92808233730324,0.0
0.006,3.2738185207617234,-1.8497604860551917,10.0,0.0,1.5852938440074158,4.05825392359237,32.961146580046226,322.92808233730324,0.0
0.007,3.673881512306234,-2.0772278604250185,10.0,0.0,2.042587311752112,4.439569134487805,38.91268237909306,322.92808233730324,0.0
0.008,3.975590650334008,-2.247954564580354,10.0,0.0,2.5087882175252694,4.7992947958005585,44.82450534195225,322.92808233730324,0.0
0.009000000000000001,4.202673491738981,-2.376313055504453,10.0,0.0,2.9767537658124845,5.147705960385081,50.700671595774054,322.92808233730324,0.0
0.01,4.377919303601064,-2.4740948751420095,10.0,0.0,3.4422362909803215,5.491066352449093,56.5533559354473,322.92808233730324,0.0
0.011,4.519197237875823,-2.5519523776644943,10.0,0.0,3.9030931099188724,5.8328508431718875,62.35358412210374,322.92808233730324,0.0
0.012,4.639685768775518,-2.617865793792261,10.0,0.0,4.358514596784678,6.174701607660038,68.08413897627247,322.92808233730324,0.0
0.013000000000000001,4.74909774674249,-2.6760908016039213,10.0,0.0,4.808324628110723,6.517079012118582,73.7366330059517,322.92808233730324,0.0
0.014,4.852913738426194,-2.7304101507341954,10.0,0.0,5.252784275076231,6.859874039958338,79.2944362729442,322.92808233730324,0.0
0.015,4.955054217304734,-2.7816527137640934,10.0,0.0,5.6921709485711505,7.20263823695087,84.78877425800778,322.92808233730324,0.0
0.016,5.057084235962071,-2.8308676400976522,10.0,0.0,6.126796590682221,7.544862784330116,90.19379842229023,322.92808233730324,0.0
0.017,5.160253952770844,-2.8773006733194264,10.0,0.0,6.556797607711173,7.885999072520156,95.53238466416046,322.92808233730324,0.0
0.018000000000000002,5.26481929736321,-2.9205816663990287,10.0,0.0,6.9822087307627685,8.225551342857012,100.79270844678999,322.92808233730324,0.0
0.019,5.370843896230299,-2.9600671645248537,10.0,0.0,7.402944563405937,8.563072446035884,105.96176421650418,322.92808233730324,0.0
0.02,5.4784311614824155,-2.994875245953083,10.0,0.0,7.818792957078522,8.898140668972127,111.04803236462729,322.92808233730324,0.0
0.021,5.587871526938006,-3.0238748584217405,10.0,0.0,8.229405210234743,9.230324341434413,116.12148693700281,322.92808233730324,0.0
0.022,5.700109012092153,-3.0450141434816325,10.0,0.0,8.634209930553471,9.559099152253687,120.98571957416034,322.92808233730324,0.0
0.023,5.813546435930789,-3.0606774612661702,10.0,0.0,9.032923232027956,9.884121212252198,125.74590932396728,322.92808233730324,0.0
0.024,5.929235069140071,-3.0691053087333233,10.0,0.0,9.425037839398385,10.204921020983676,130.21550182359886,322.92808233730324,0.0
0.025,6.047070358495415,-3.070603622284716,10.0,0.0,9.8101015029209,10.52104731408205,134.25066752754051,322.92808233730324,0.0
0.026000000000000002,6.16868688512365,-3.062724420647845,10.0,0.0,10.187389734085428,10.831867879187286,138.05652264182092,322.92808233730324,0.0
0.027,6.294952941261326,-3.044388719335526,10.0,0.0,10.556093063516046,11.136662109989592,141.7207462904345,322.92808233730324,0.0
0.028,6.4258103097378685,-3.0161329246775805,10.0,0.0,10.915480702684578,11.434715600683687,145.05002745376143,322.92808233730324,0.0
0.029,6.561085514766881,-2.9787491555653185,10.0,0.0,11.2649052703499,11.725330807356798,148.13355790864838,322.92808233730324,0.0
0.03,6.70335897724198,-2.9285263847152674,10.0,0.0,11.603298234813613,12.007529621307159,151.05448095584043,322.92808233730324,0.0
0.031,6.849964902506925,-2.870313693175331,10.0,0.0,11.930170615865103,12.28064393315446,153.48057922740486,322.92808233730324,0.0
0.032,7.003570294576125,-2.8002767053782325,10.0,0.0,12.244545248253889,12.54370351804722,155.7740385093824,322.92808233730324,0.0
0.033,7.16333171112824,-2.720200350604205,10.0,0.0,12.545680346745904,12.795856905789543,157.9145980648012,322.92808233730324,0.0
0.034,7.3297411566170805,-2.6296590516156293,10.0,0.0,12.832758494821942,13.036201039768583,160.5646766414249,322.92808233730324,0.0
0.035,7.509123438784686,-2.5184542797815648,10.0,0.0,13.103836129576422,13.263150618573771,160.47132248818326,322.92808233730324,0.0
0.036000000000000004,7.668677400915285,-2.4407203951937166,10.0,0.0,13.363062279149649,13.4787558899612,159.13919171686243,322.92808233730324,0.0
0.037,7.867305564263817,-2.3004707342224338,10.0,0.0,13.603276217043334,13.678469690820178,163.72990052106877,322.92808233730324,0.0
0.038,8.047323655297102,-2.1911558608823336,10.0,0.0,13.828818001775849,13.86441779700245,159.30392240816533,322.92808233730324,0.0
0.039,8.2394541982549,-2.063256903831511,10.0,0.0,14.037424682111148,14.03499109222472,163.77826576325074,322.92808233730324,0.0
0.04,8.44022684996647,-1.921694134401597,10.0,0.0,14.227935108868369,14.189204039699598,159.9737603152654,322.92808233730324,0.0
0.041,8.628904463390114,-1.8003408344473373,10.0,0.0,14.402882552396683,14.328299924143227,162.83791412186352,322.92808233730324,0.0
0.042,8.841104181909184,-1.640146175040241,10.0,0.0,14.557836960481287,14.449525771592466,158.793365582258,322.92808233730324,0.0
0.043000000000000003,9.030639173918125,-1.5164884952474775,10.0,0.0,14.697418114319223,14.555397623169448,161.7551974293883,322.92808233730324,0.0
0.044,9.241537958801015,-1.356216751613939,10.0,0.0,14.817235022929303,14.643336888555488,155.3317861899106,322.92808233730324,0.0
0.045,9.437416796998669,-1.2184475992073818,10.0,0.0,14.920312277888595,14.715026233911024,159.38680981122815,322.92808233730324,0.0
0.046,9.631341238776344,-1.0814188554756878,10.0,0.0,15.00655527160109,14.770481470013372,158.95060547954603,322.92808233730324,0.0
0.047,9.800125862478346,-0.9832131039739451,10.0,0.0,15.080287144324696,14.81238841768729,160.97962919437327,322.92808233730324,0.0
0.048,9.849935053979696,-1.0766488254709534,10.0,0.0,15.162096511423023,14.853686693038048,167.0572568413496,322.92808233730324,0.0
0.049,9.898477356688424,-1.1586302018371022,10.0,0.0,15.247938363531894,14.894194516180615,165.48214587230726,322.92808233730324,0.0
0.05,9.901677258986252,-1.3025220285280836,10.0,0.0,15.344255099916483,14.939369175994136,174.0477847360179,322.92808233730324,0.0
0.051000000000000004,9.903366128385137,-1.434593536839138,10.0,0.0,15.448546576291271,14.989504266853864,171.84956602948526,322.92808233730324,0.0
0.052000000000000005,9.876396859160263,-1.603505175383555,10.0,0.0,15.564681979271333,15.048038504573839,180.5495900030699,322.92808233730324,0.0
0.053,9.857351497466514,-1.7483392622245608,10.0,0.0,15.68929989889245,15.11415815591387,180.49223015691118,322.92808233730324,0.0
0.054,9.804376182448618,-1.9443542714463486,10.0,0.0,15.828181301831444,15.191764465117044,185.77059470912775,322.92808233730324,0.0
0.055,9.778557332314463,-2.0864319312107567,10.0,0.0,15.97460358787872,15.277808604058373,191.99949034666946,322.92808233730324,0.0
0.056,9.712288734516328,-2.294238952763768,10.0,0.0,16.1364260549886,15.37692191496676,191.18798350990565,322.92808233730324,0.0
0.057,9.662039071871607,-2.4700518783034044,10.0,0.0,16.309238958072154,15.487170918408227,200.07270113848213,322.92808233730324,0.0
0.058,9.610475622051196,-2.643461896830628,10.0,0.0,16.4931124439741,15.608845794667715,205.67790322823433,322.92808233730324,0.0
0.059000000000000004,9.532134014872037,-2.8602084377415866,10.0,0.0,16.69287408822672,15.744842474182933,205.37254610194336,322.92808233730324,0.0
0.06,9.462626702089114,-3.0574261160671026,10.0,0.0,16.905785715212303,15.89407803850623,212.3802847817725,322.92808233730324,0.0
0.061,9.405175086105974,-3.2275312905872413,10.0,0.0,17.129069128345627,16.055305813726072,220.69737190551226,322.92808233730324,0.0
0.062,9.32405075088652,-3.4332174990940554,10.0,0.0,17.367071408878147,16.23108831345157,226.5270037529313,322.92808233730324,0.0
0.063,9.237129505053947,-3.6432858954962706,10.0,0.0,17.61990237284914,16.421842884947157,228.7290871592199,322.92808233730324,0.0
0.064,9.149084989436396,-3.848622585410676,10.0,0.0,17.887012049499155,16.62762077994989,231.9461136138659,322.92808233730324,0.0
0.065,9.079230631271265,-4.013904399894128,10.0,0.0,18.164116180678477,16.846335387359343,239.50718431160098,322.92808233730324,0.0
0.066,9.003896930525425,-4.179840981528007,10.0,0.0,18.451981565315695,17.078477110646173,245.8752624529802,322.92808233730324,0.0
0.067,8.922291478624837,-4.34856124031709,10.0,0.0,18.75117444646834,17.324414462769642,250.6987408961348,322.92808233730324,0.0
0.068,8.84882567614394,-4.49551768231793,10.0,0.0,19.059519780750275,17.582942551549927,255.4312126189206,322.92808233730324,0.0
0.069,8.787387174200413,-4.6143475791005395,10.0,0.0,19.374485114708122,17.852475942069358,260.5470749669189,322.92808233730324,0.0
0.07,8.736602370824752,-4.708607893666725,10.0,0.0,19.69408758995658,18.131524470284518,265.38537818968166,322.92808233730324,0.0
0.07100000000000001,8.701279311936576,-4.772100656376001,10.0,0.0,20.015676271254062,18.418006081646947,270.0316883982578,322.92808233730324,0.0
0.07200000000000001,8.685260103541374,-4.800849818817431,10.0,0.0,20.33628172579951,18.709407282337473,274.58256424755507,322.92808233730324,0.0
0.073,8.690577278643476,-4.79461925293484,10.0,0.0,20.65299390108797,19.00298382706831,278.64972049591626,322.92808233730324,0.0
0.074,8.719776984346828,-4.752919835256792,10.0,0.0,20.962867883034892,19.295715138978554,281.231300813962,322.92808233730324,0.0
0.075,8.773810709590723,-4.678319172858021,10.0,0.0,21.263238519291075,19.58450900517268,279.4446034779812,322.92808233730324,0.0
0.076,8.858218821892086,-4.566009189703046,10.0,0.0,21.550843387017995,19.865715993272296,273.4634137683112,322.92808233730324,0.0
0.077,8.991360662062974,-4.389430332814692,10.0,0.0,21.81950789235601,20.133761248038866,276.7529168124121,322.92808233730324,0.0
0.078,9.178069537820411,-4.14352512489843,10.0,0.0,22.06282668833498,20.382661869930963,281.82350184396915,322.92808233730324,0.0
0.079,9.377510796493667,-3.8979379466968886,10.0,0.0,22.282148129382243,20.610932859535264,277.9834778716541,322.92808233730324,0.0
0.08,9.586465227147647,-3.6624152635118365,10.0,0.0,22.47891290191688,20.817318319498657,266.72727811727606,322.92808233730324,0.0
0.081,9.851091564930714,-3.3633422512361806,10.0,0.0,22.64609693867592,20.995722357869578,271.4961605002511,322.92808233730324,0.0
0.082,10.169451861072188,-3.0013227533566194,10.0,0.0,22.777571560952147,21.14063102688158,269.3984214626215,322.92808233730324,0.0
0.083,10.457557626081615,-2.711335314205976,10.0,0.0,22.88211116457418,21.255688260030375,259.0923641971922,322.92808233730324,0.0
0.084,10.806829838705855,-2.34562839876979,10.0,0.0,22.95037464484242,21.334154844487934,262.59513404089563,322.92808233730324,0.0
0.085,11.149395212405992,-2.0083905828637207,10.0,0.0,22.98621934493428,21.377411649545778,249.50027928625778,322.92808233730324,0.0
0.08600000000000001,11.501273537325758,-1.6711413387302354,10.0,0.0,22.989080216827112,21.384646282102864,252.35825866485357,322.92808233730324,0.0
0.08700000000000001,11.86099009647068,-1.3314449326240505,10.0,0.0,22.958384352556035,21.355393500336763,239.69791273715953,322.92808233730324,0.0
0.088,12.218191054422146,-1.0007593128917915,10.0,0.0,22.89485434242597,21.290301470536964,238.41031130132538,322.92808233730324,0.0
0.089,12.55149773138365,-0.7105436974911638,10.0,0.0,22.802551268832175,21.19227391781788,237.2875831187542,322.92808233730324,0.0
0.09,12.82522943414014,-0.5168699644138426,10.0,0.0,22.69127379284135,21.06804139247773,240.7311845555506,322.92808233730324,0.0
0.091,12.851185471510751,-0.7123947171549464,10.0,0.0,22.6021452720479,20.944986524989318,246.9277596656205,322.92808233730324,0.0
0.092,12.839954422997552,-0.9316805440375551,10.0,0.0,22.531790310014618,20.826819267880545,248.4163831104124,322.92808233730324,0.0
0.093,12.737592672806713,-1.2597647197875852,10.0,0.0,22.490550519537468,20.724580722315196,253.90509421954394,322.92808233730324,0.0
0.094,12.62223732358287,-1.5654978132373505,10.0,0.0,22.47356065207348,20.640107523171377,259.18125347567684,322.92808233730324,0.0
0.095,12.445433957168396,-1.9369774522640357,10.0,0.0,22.487627880799945,20.580677474008887,261.4842610552902,322.92808233730324,0.0
0.096,12.272492269816581,-2.2681418917502287,10.0,0.0,22.527058673690725,20.54585270457985,271.71434542097103,322.92808233730324,0.0
0.097,12.07125910006113,-2.6197828498221654,10.0,0.0,22.594432771342568,20.538859723182384,273.9948338135797,322.92808233730324,0.0
0.098,11.843228283951547,-2.9960645224532803,10.0,0.0,22.69224473549819,20.562374507764343,277.4742877305151,322.92808233730324,0.0
0.099,11.63118384283519,-3.3252722149975242,10.0,0.0,22.81507701115,20.614363590665373,287.1106385695341,322.92808233730324,0.0
0.1,11.409322585332502,-3.6535994972050254,10.0,0.0,22.963648891644105,20.695721286755603,295.2446204640868,322.92808233730324,0.0
0.101,11.165867476739704,-4.004582385273065,10.0,0.0,23.14082419856325,20.80836185065642,298.2231106350317,322.92808233730324,0.0
0.10200000000000001,10.927625293109632,-4.332774887426019,10.0,0.0,23.344137377536697,20.951227977972444,301.30588198278156,322.92808233730324,0.0
0.10300000000000001,10.710461497450341,-4.609683607337784,10.0,0.0,23.56858388551317,21.121644406140426,308.3982569175716,322.92808233730324,0.0
0.10400000000000001,10.505532383696522,-4.850729268855277,10.0,0.0,23.811373321076594,21.31783440684559,316.3642298071343,322.92808233730324,0.0
0.105,10.30257242649084,-5.076056308637929,10.0,0.0,24.071878330915112,21.538960655191655,321.72400391871344,322.92808233730324,0.0
0.106,10.118723130657116,-5.2596581175202255,8.564405010141954,0.0,24.346388393183616,21.624303153772253,325.9796647095041,322.92808233730324,0.0
0.107,9.886218394729767,-5.329274331385214,6.406058791024611,0.0,24.607803464519648,21.52923730251097,329.07494430480546,322.92808233730324,0.0
0.108,9.531528991499767,-5.2699751905411425,4.796950373698913,0.0,24.826351375964453,21.351091866790792,326.88073708456625,322.92808233730324,0.0
0.109,9.095916415744146,-5.075992802943254,5.854527436345887,0.0,24.984484881465434,21.389410816152356,322.19426888689975,322.92808233730324,0.0
0.11,8.77185474287254,-4.8387412623897,8.205099669683172,0.0,25.106479085767567,21.71898905442682,319.65028421266607,322.92808233730324,0.0
0.111,8.722261512198672,-4.607908364445084,9.509869988046384,0.0,25.226212590098548,22.150042540636033,322.1470297261043,322.92808233730324,0.0
0.112,8.891740939884176,-4.421626823325249,8.269307757439268,0.0,25.358895452073625,22.381315810754877,326.52814809453673,322.92808233730324,0.0
0.113,9.099034261421561,-4.190025714579439,6.042747915650706,0.0,25.477824048312236,22.3491066086764,320.0067266090661,322.92808233730324,0.0
0.114,9.186480502912461,-3.8921230639564017,9.33267221566839,0.0,25.551185584238066,22.70862230450085,307.87503327929375,322.92808233730324,0.0
0.115,9.49549935749965,-3.5908436920653446,10.0,0.0,25.62300083175196,23.04691178602204,308.1743131041613,322.92808233730324,0.0
0.116,9.966929922590397,-3.240820589943262,10.0,0.0,25.68597375515207,23.30311339268508,311.6143287636348,322.92808233730324,0.0
0.117,10.441972568807572,-2.953063733946459,10.0,0.0,25.740116523740056,23.492451745588852,295.5347011549565,322.92808233730324,0.0
0.11800000000000001,10.938969048595869,-2.634257923454947,10.0,0.0,25.775587780165516,23.618351353746515,294.8939504401303,322.92808233730324,0.0
0.11900000000000001,11.478509039618675,-2.2188676325762575,10.0,0.0,25.777596997872454,23.68082869251631,287.37625045140453,322.92808233730324,0.0
0.12,11.942623636192005,-1.8883621391700407,10.0,0.0,25.753451326319784,23.691602013467,279.94738106802805,322.92808233730324,0.0
0.121,12.452007577140648,-1.4516530250771655,10.0,0.0,25.68806460640129,23.647492347628727,272.54148320046596,322.92808233730324,0.0
0.122,12.890649783849408,-1.099750762398286,10.0,0.0,25.590463434137078,23.55809817305395,267.5460976744541,322.92808233730324,0.0
0.123,13.354787447183579,-0.6823319477129992,10.0,0.0,25.451285914653216,23.42121457781057,262.2016175895701,322.92808233730324,0.0
0.124,13.75234263666816,-0.3524249416403631,10.0,0.0,25.280222205072256,23.245011895933164,267.060774031631,322.92808233730324,0.0
0.125,13.82770645553706,-0.5292207529794366,10.0,0.0,25.13139120756968,23.065008643104683,272.61609646471373,322.92808233730324,0.0
0.126,13.823634817694863,-0.785046871704087,10.0,0.0,25.005815899480833,22.889324134160113,275.8588160674266,322.92808233730324,0.0
0.127,13.707178348988151,-1.1671620567292953,10.0,0.0,24.91470408047195,22.73142004048044,280.71926384239435,322.92808233730324,0.0
0.128,13.55481683719028,-1.547885630146678,10.0,0.0,24.85497147522164,22.595790375878543,287.68470777333766,322.92808233730324,0.0
0.129,13.335504602044258,-1.9864077374351448,10.0,0.0,24.832079360103727,22.490351147959878,290.29510654874434,322.92808233730324,0.0
0.13,13.10083036766643,-2.4028940786348523,10.0,0.0,24.84236081016482,22.416787674751404,298.29437315534204,322.92808233730324,0.0
0.131,12.844560641383458,-2.8150591355304537,10.0,0.0,24.88543106074548,22.377451621417222,306.7287882987285,322.92808233730324,0.0
0.132,12.54908515565446,-3.2620889975989047,10.0,0.0,24.965312315193227,22.3762958046419,309.4137014389083,322.92808233730324,0.0
0.133,12.255022582954153,-3.679190429318379,10.0,0.0,25.07850072138713,22.412635823128625,315.01109203697683,322.92808233730324,0.0
0.134,11.967700025046684,-4.059027324705561,10.0,0.0,25.221615332985714,22.485325536028874,324.49191672713675,322.92808233730324,0.0
0.135,11.677819675487855,-4.420131551468906,7.6713881870708125,0.0,25.39361055070455,22.33792405224915,332.25690262487825,322.92808233730324,0.0
0.136,11.235130010828655,-4.71047193046982,3.695607035324315,0.0,25.561992497696004,21.854209489673387,332.694281648564,322.92808233730324,0.0
0.137,10.53702997394378,-4.804713826954721,3.379255530368825,0.0,25.67262799855406,21.513027831437448,332.35513649783036,322.92808233730324,0.0
0.138,9.798957971499387,-4.781915036870776,3.4545575641303827,0.0,25.734631497628637,21.30268154777426,333.1068731184194,322.92808233730324,0.0
0.139,9.132292984322028,-4.703302771817618,2.9769013460247002,0.0,25.76098065717443,21.132227466620687,333.62577442995257,322.92808233730324,0.0
0.14,8.542182526650798,-4.596910496853774,2.6104737693316205,0.0,25.756732465054792,21.004168738753926,331.4830358196474,322.92808233730324,0.0
0.14100000000000001,8.05561788535113,-4.444950519102956,3.596293539660765,0.0,25.724451544557482,21.04821652093126,328.0391275879646,322.92808233730324,0.0
0.14200000000000002,7.750839624850075,-4.290931832621129,5.267137202995565,0.0,25.684381038592157,21.287226000346784,323.998562073022,322.92808233730324,0.0
0.14300000000000002,7.688529682518093,-4.154522266170802,7.276715163109656,0.0,25.6587536657202,21.706478931254942,324.7981643284114,322.92808233730324,0.0
0.14400000000000002,7.884347740645719,-4.05173249967145,6.8582132155038735,0.0,25.66767154457583,21.992949752129952,328.23630617256964,322.92808233730324,0.0
0.145,8.162730001587303,-3.9203511781056135,5.086060055072097,0.0,25.690920669926143,22.032249582509287,325.03764944913434,322.92808233730324,0.0
0.146,8.344761279502416,-3.7331410803131098,6.664292745671439,0.0,25.696495568237836,22.24403185199472,315.09421204459795,322.92808233730324,0.0
0.147,8.634153110783874,-3.4815403206421514,10.0,0.0,25.696887221081035,22.75632606677111,310.3984679039363,322.92808233730324,0.0
