timestamp,iq,id,iq_ref,id_ref,vq,vd,omega,omega_ref,r
0.0,0.0,0.0,0.0,0.0,0.0,0.0,0.0,192.2063268635521,0.0
0.001,0.0,0.0,10.0,0.0,0.0,1.0999999999999999,6.785328471802488,192.2063268635521,0.0
0.002,1.0615524448058347,-0.5930437334115135,10.0,0.0,0.17523481067526647,1.8732292310713585,13.701753561165196,192.2063268635521,0.0
0.003,2.0897477960956916,-1.1820452892398454,10.0,0.0,0.4691287971971437,2.484173055909281,20.55158736565576,192.2063268635521,0.0
0.004,2.8866467181017237,-1.6369539570711662,10.0,0.0,0.8388777054537874,2.986034969007835,27.55161664283153,192.2063268635521,0.0
0.005,3.4518320414952566,-1.9581032706271466,10.0,0.0,1.2526152520074665,3.4204841852689687,34.66967765452237,192.2063268635521,0.0
0.006,3.84243395658903,-2.1788809289922044,10.0,0.0,1.689498014816488,3.815547877132977,41.76577498663359,192.2063268635521,0.0
0.007,4.117489520612366,-2.33352290847655,10.0,0.0,2.1370017116906355,4.188443383199857,48.87625140623087,192.2063268635521,0.0
0.008,4.322022117022707,-2.44754819514088,10.0,0.0,2.5880409512222884,4.549051678382562,55.8417052296824,192.2063268635521,0.0
0.009000000000000001,4.485446833546514,-2.5383382525854525,10.0,0.0,3.038883749771307,4.902771675146647,62.905781473077674,192.2063268635521,0.0
0.01,4.626720307956538,-2.6144212748330107,10.0,0.0,3.4874755000146167,5.252298117069358,69.78300559860101,192.2063268635521,0.0
0.011,4.754553532591033,-2.6840940241123246,10.0,0.0,3.933063891624118,5.599082169858436,76.74205431714834,192.2063268635521,0.0
0.012,4.876608876130584,-2.746640207940306,10.0,0.0,4.37495520207986,5.94359890098655,83.48387929019954,192.2063268635521,0.0
0.013000000000000001,4.9935855636952535,-2.8071152188019313,10.0,0.0,4.81313584395934,6.286206207850708,90.13020852205362,192.2063268635521,0.0
0.014,5.108957987058674,-2.8625751806784843,10.0,0.0,5.247254998035088,6.626849648522072,96.65251070097885,192.2063268635521,0.0
0.015,5.222539079644928,-2.9146690329781175,10.0,0.0,5.677202304904595,6.965500464583015,103.10713859369827,192.2063268635521,0.0
0.016,5.335929691004869,-2.961270647730658,10.0,0.0,6.102625201793027,7.301943773401088,109.51269298715918,192.2063268635521,0.0
0.017,5.449298911459455,-3.0023744198180204,10.0,0.0,6.52320553865651,7.63594833288979,115.69590159655775,192.2063268635521,0.0
0.018000000000000002,5.5628882674865165,-3.0377779609826527,10.0,0.0,6.938611649589749,7.96724933315754,121.84165738451607,192.2063268635521,0.0
0.019,5.678310902516537,-3.0649944505981863,10.0,0.0,7.348247027902502,8.295400248198806,127.80643539254858,192.2063268635521,0.0
0.02,5.795183934938925,-3.0849486075938386,10.0,0.0,7.751656752261471,8.619997802351058,133.4925008580145,192.2063268635521,0.0
0.021,5.914513159669014,-3.0963378292862593,10.0,0.0,8.14823853241598,8.940519089127896,138.7261128606012,192.2063268635521,0.0
0.022,6.036863239778109,-3.0986713711982894,10.0,0.0,8.537357060626123,9.256381208677803,143.82886364511953,192.2063268635521,0.0
0.023,6.1642346458797626,-3.089150258629188,10.0,0.0,8.918079290168517,9.566781615223645,148.67018762287643,192.2063268635521,0.0
0.024,6.2961117882298385,-3.0692193668327024,10.0,0.0,9.289672150439335,9.870981432471643,153.235933886551,192.2063268635521,0.0
0.025,6.434090582689744,-3.0368930242022576,10.0,0.0,9.651169117636488,10.16806165805484,158.171020864684,192.2063268635521,0.0
0.026000000000000002,6.580667620523241,-2.9886958390883454,10.0,0.0,10.00124598373602,10.456839871582346,161.8377078205179,192.2063268635521,0.0
0.027,6.726538351865815,-2.940659677139523,10.0,0.0,10.340390978615115,10.737167940297702,165.41006208485888,192.2063268635521,0.0
0.028,6.895846286498721,-2.8537083466623376,10.0,0.0,10.664569996144836,11.006212536133248,166.8395374617193,192.2063268635521,0.0
0.029,7.044056320990159,-2.801569399567718,10.0,0.0,10.978369800629501,11.266160549690474,171.58726725624774,192.2063268635521,0.0
0.03,7.233036586265677,-2.683553944046945,10.0,0.0,11.274324115385088,11.512188013505055,173.63507008061163,192.2063268635521,0.0
0.031,7.390176116835621,-2.618622971697455,10.0,0.0,11.559323492643333,11.747812616703794,174.97834575835867,192.2063268635521,0.0
0.032,7.605203333297845,-2.4606172832423914,10.0,0.0,11.82265407648907,11.966293098803344,173.3083406989146,192.2063268635521,0.0
0.033,7.782033244134145,-2.366271354924754,10.0,0.0,12.072701654929796,12.17195757305014,177.7369241140253,192.2063268635521,0.0
0.034,7.988212745908069,-2.2261557674453196,10.0,0.0,12.303841667611565,12.361148911629556,178.9307678586699,192.2063268635521,0.0
0.035,8.207008005291517,-2.0660162431591615,10.0,0.0,12.514572621086419,12.53252943410477,173.0317523463614,192.2063268635521,0.0
0.036000000000000004,8.411274151077688,-1.9307314233445916,10.0,0.0,12.708088596524565,12.687563676237305,175.55737675228076,192.2063268635521,0.0
0.037,8.612875717030672,-1.8010024908737692,10.0,0.0,12.88483906425851,12.826312580903439,177.1509540347443,192.2063268635521,0.0
0.038,8.829495942829757,-1.6462044161479144,10.0,0.0,13.04205887679053,12.94704943269797,177.48749280186712,192.2063268635521,0.0
0.039,9.048292369430769,-1.4863667563234464,10.0,0.0,13.179596231415378,13.04953317589814,177.34461953196882,192.2063268635521,0.0
0.04,9.26558474077518,-1.3270255514947036,10.0,0.0,13.297699068964839,13.133808083658902,176.2664192914787,192.2063268635521,0.0
0.041,9.48093538283854,-1.1679818951707657,10.0,0.0,13.396517723388083,13.199950137485011,174.73790115182643,192.2063268635521,0.0
0.042,9.690631689450399,-1.0144010243038957,10.0,0.0,13.476765258519498,13.248446764064157,175.3124885013638,192.2063268635521,0.0
0.043000000000000003,9.83778735463648,-0.9620928345885291,10.0,0.0,13.549619610635666,13.286028321394184,178.86344834557244,192.2063268635521,0.0
0.044,9.8777909405925,-1.071414891877681,10.0,0.0,13.63149519147218,13.324208320399524,182.83829425504078,192.2063268635521,0.0
0.045,9.88336897024529,-1.215680521832689,10.0,0.0,13.723777212847729,13.36654433018573,186.8539825942242,192.2063268635521,0.0
0.046,9.872130898555307,-1.3685695868824768,8.364388013708957,0.0,13.826439773920276,13.235249590821287,188.8003087690258,192.2063268635521,0.0
0.047,9.672849641890581,-1.4373286874102078,7.425285107253415,0.0,13.911741215356678,13.062213939169558,188.8382186987391,192.2063268635521,0.0
0.048,9.3592108181617,-1.4766122262755528,7.440011224044898,0.0,13.974842545754171,12.958530356781793,189.56744749927748,192.2063268635521,0.0
0.049,9.070137714134207,-1.5620140565532323,7.101785617418455,0.0,14.030266750815032,12.862834840981467,194.6419425335691,192.2063268635521,0.0
0.05,8.796460820196765,-1.6702178657980458,4.5401819435724695,0.0,14.081627384503932,12.531070876503309,197.77371636065138,192.2063268635521,0.0
0.051000000000000004,8.32261005579183,-1.615770184756912,2.9186211350603424,0.0,14.087604275369149,12.134250534789146,194.70323121477645,192.2063268635521,0.0
0.052000000000000005,7.699133313540202,-1.5383412757998083,4.428894664485562,0.0,14.045328739801558,12.023899546658454,197.99763886567223,192.2063268635521,0.0
0.053,7.3243202654678115,-1.608965562258605,2.7237777190164723,0.0,14.004788619577694,11.752685172353667,198.37296988102335,192.2063268635521,0.0
0.054,6.904575681033094,-1.5976015535745538,2.4744457811661977,0.0,13.939224790125907,11.536586653555224,198.34226792455036,192.2063268635521,0.0
0.055,6.501341390270653,-1.6418631593776172,2.4284373487927136,0.0,13.863589908464627,11.373132321648384,199.21100230462525,192.2063268635521,0.0
0.056,6.181680678911665,-1.6886914075841015,1.924023404344533,0.0,13.78388157302348,11.194564820542402,199.6064786582227,192.2063268635521,0.0
0.057,5.862441327069036,-1.7494576214204045,1.6522837095991045,0.0,13.700503322055773,11.03295573061449,199.87728625164084,192.2063268635521,0.0
0.058,5.573923164976294,-1.7934391054037893,1.4401703190091473,0.0,13.613532288291855,10.887099252876931,200.1860560209446,192.2063268635521,0.0
0.059000000000000004,5.302126486390682,-1.8514569028064096,1.2059881427833457,0.0,13.526614853005032,10.750504867081288,199.99444312348874,192.2063268635521,0.0
0.06,5.05599234348809,-1.8917150309990651,1.2239134289119074,0.0,13.438577938794495,10.647548568506357,200.29105715943984,192.2063268635521,0.0
0.061,4.843537382584314,-1.9508216176603816,0.994759107977476,0.0,13.355148229398333,10.541606684474178,199.7370673646785,192.2063268635521,0.0
0.062,4.650656285485301,-1.9841178555948276,1.1964466003468868,0.0,13.27253882284474,10.481485556347437,200.83826450568824,192.2063268635521,0.0
0.063,4.497025341076668,-2.0458573184213007,0.5595286534206512,0.0,13.198636622665404,10.362008344206389,199.26535858764888,192.2063268635521,0.0
0.064,4.315781253235636,-2.0436405382982317,1.2753912951993671,0.0,13.119315680848098,10.350603243544864,200.09059170976667,192.2063268635521,0.0
0.065,4.223989033542694,-2.0853789969810617,0.7839320856783241,0.0,13.051399721402706,10.279472122590464,199.34592967347146,192.2063268635521,0.0
0.066,4.104352030748484,-2.0991887413958406,1.0848670757267351,0.0,12.984263933105215,10.25892210689794,198.03667274947753,192.2063268635521,0.0
0.067,4.030667887714915,-2.1134292888764397,1.681192078864445,0.0,12.923215084846936,10.303208800095334,197.7036824380314,192.2063268635521,0.0
0.068,4.043404808174188,-2.1393978494692716,1.7927136788427216,0.0,12.875413926924633,10.341128162432536,200.71864257077542,192.2063268635521,0.0
0.069,4.0681310968738265,-2.1712740184057444,0.2001104553984776,0.0,12.83943151400536,10.191581379612774,196.58971551795736,192.2063268635521,0.0
0.07,3.911317389799524,-2.104906195982085,2.2207400952634533,0.0,12.784473441940072,10.309083097067816,194.85123920112952,192.2063268635521,0.0
0.07100000000000001,3.9882220223481464,-2.093465781700172,3.0635291303016006,0.0,12.746166581480045,10.471811686375284,199.40544028689624,192.2063268635521,0.0
0.07200000000000001,4.166193077121464,-2.150985815034708,0.7144374531847992,0.0,12.734404873806387,10.328800986173194,194.50865255481935,192.2063268635521,0.0
0.073,4.0714056138399375,-2.0747056707083154,3.1398080623105704,0.0,12.700552250670636,10.501403200507648,193.07453386367018,192.2063268635521,0.0
0.074,4.236595060004313,-2.049310547960735,3.8481853378839723,0.0,12.685314449222934,10.687909011606003,197.98958944235488,192.2063268635521,0.0
0.075,4.465973859700585,-2.101687310352994,1.332824922753594,0.0,12.69626640412046,10.546887269524728,190.4464671735624,192.2063268635521,0.0
0.076,4.409849467198107,-1.9813724990346087,5.121984654049728,0.0,12.678262592451162,10.871491542907453,193.88658356247797,192.2063268635521,0.0
0.077,4.7398404265319645,-2.004391506784304,3.3851238926026914,0.0,12.698254828252717,10.896028477261085,191.45573078112588,192.2063268635521,0.0
0.078,4.866104362242506,-1.9790928715841818,4.608056244102997,0.0,12.715688493959973,11.061412984704198,190.72269524065356,192.2063268635521,0.0
0.079,5.1132381017469966,-1.919803637388683,4.98941033056814,0.0,12.741648414431307,11.215799961981496,191.9526728704594,192.2063268635521,0.0
0.08,5.339886266371508,-1.9273135670931087,4.376958055596153,0.0,12.781870025192683,11.263700981752974,186.93334567354378,192.2063268635521,0.0
0.081,5.516362465743729,-1.7998744121265622,6.939351465954041,0.0,12.808766170511703,11.581675958227834,190.72235237047587,192.2063268635521,0.0
0.082,5.88675851399382,-1.8596157040698802,5.059687862418758,0.0,12.872616132609737,11.599177317780859,186.25344875582726,192.2063268635521,0.0
0.083,6.086566671826404,-1.7236842555508491,7.353668450820312,0.0,12.916281362196742,11.87417310146883,187.53790334792583,192.2063268635521,0.0
0.084,6.42611577425688,-1.7536097460006297,6.758125389927289,0.0,12.98773076562851,12.002233967475426,188.6211007177956,192.2063268635521,0.0
0.085,6.732174383255877,-1.6534626640534658,6.252378966449972,0.0,13.053525881399077,12.04468605528538,181.68581797324723,192.2063268635521,0.0
0.08600000000000001,6.911119323159548,-1.5337492202986458,9.825225427627208,0.0,13.104819686380026,12.470919663556252,185.2742978674636,192.2063268635521,0.0
0.08700000000000001,7.423491632977349,-1.6099363018525377,8.100305770479912,0.0,13.20318518509844,12.579618159919239,186.86948527638805,192.2063268635521,0.0
0.088,7.768899140876069,-1.5222835361263758,7.356080481889323,0.0,13.2921803085359,12.589796668573586,182.3747797320457,192.2063268635521,0.0
0.089,7.957887155392903,-1.349773177412636,9.701748725375555,0.0,13.355194158693791,12.855987991857777,178.34593955902247,192.2063268635521,0.0
0.09,8.337064924107873,-1.3177970365019571,10.0,0.0,13.436733484251274,13.071392851189685,178.12325637101145,192.2063268635521,0.0
0.091,8.74102702572815,-1.2928071743036424,10.0,0.0,13.529230239753499,13.229784590906826,178.0903044786422,192.2063268635521,0.0
0.092,9.106814558914088,-1.2262739459232366,10.0,0.0,13.621247737177347,13.345389824568226,177.23285894482922,192.2063268635521,0.0
0.093,9.424203171493211,-1.1235107774337667,10.0,0.0,13.704985391974917,13.427381412554029,175.39770390160467,192.2063268635521,0.0
0.094,9.699995170658227,-0.997981655620026,10.0,0.0,13.775767868376695,13.482384373438645,174.62392934776685,192.2063268635521,0.0
0.095,9.918900185551736,-0.9047472437051082,10.0,0.0,13.83597189913425,13.51764365422834,177.89217732819418,192.2063268635521,0.0
0.096,9.987418907686035,-1.0133686436741647,10.0,0.0,13.906562153010768,13.55004940072899,182.0026141399735,192.2063268635521,0.0
0.097,9.999455383228547,-1.1721598264513373,10.0,0.0,13.989714772255493,13.58563477287888,187.23012378175744,192.2063268635521,0.0
0.098,9.98361663776649,-1.345400142762045,8.080360717024133,0.0,14.085579189757143,13.41667917536717,192.50368935040265,192.2063268635521,0.0
0.099,9.750907292465087,-1.408397545286471,5.440604307833023,0.0,14.160158916872039,13.028468407704063,193.1207347970269,192.2063268635521,0.0
0.1,9.230415018503397,-1.3285874111839204,5.122937505186152,0.0,14.179050505732604,12.732917962002283,191.7147876431816,192.2063268635521,0.0
0.101,8.705338958412911,-1.2872781246380243,5.830826474312501,0.0,14.162751970957917,12.60240961825744,192.31662745596802,192.2063268635521,0.0
0.10200000000000001,8.349756985235722,-1.3605110759052577,5.528803561995138,0.0,14.143501172791067,12.47688410181203,196.02730217980897,192.2063268635521,0.0
0.10300000000000001,8.058658156842348,-1.4736137687377433,3.635256446912093,0.0,14.125331869495263,12.185181155050012,197.56931462074354,192.2063268635521,0.0
0.10400000000000001,7.648092220923841,-1.4675019831744356,2.8106203488728934,0.0,14.078005878512549,11.891308337668237,195.8625628167459,192.2063268635521,0.0
0.105,7.170891327316528,-1.4788878512688741,3.6274338913397717,0.0,14.007338768235954,11.768572492515734,198.25385103569107,192.2063268635521,0.0
0.106,6.855760951355596,-1.568884603403555,2.371314540145801,0.0,13.941250568525636,11.534594589214446,198.4912085237338,192.2063268635521,0.0
0.107,6.499325472385583,-1.5968971573209885,2.1897869795226175,0.0,13.860554811865791,11.346055417042734,198.7493443840581,192.2063268635521,0.0
0.108,6.157152398765841,-1.6594052486666664,1.9952888741554062,0.0,13.775670478163606,11.182795753746525,199.2013683780627,192.2063268635521,0.0
0.109,5.860610232342933,-1.7139211638114793,1.6993264620079982,0.0,13.688320281254494,11.025960646697493,199.4396722756918,192.2063268635521,0.0
0.11,5.576697176075346,-1.7793316674905353,1.507841059072053,0.0,13.60067158958464,10.886235274986179,199.71321602326682,192.2063268635521,0.0
0.111,5.323314389753181,-1.83162791391317,1.2960002936873964,0.0,13.512913711980332,10.755362917048824,199.91030415593184,192.2063268635521,0.0
0.112,5.080664088568669,-1.8905488159223365,1.1204164544310906,0.0,13.426802723099508,10.635763897747498,199.59364007338618,192.2063268635521,0.0
0.113,4.861580982295193,-1.9320777039977033,1.204875363605578,0.0,13.34132189984483,10.552232638568217,199.91122421754457,192.2063268635521,0.0
0.114,4.6776946807932,-1.9924709334847652,0.9690343179864591,0.0,13.262263999360517,10.459755980974034,199.29568522325278,192.2063268635521,0.0
0.115,4.509481387262131,-2.02013075231932,1.2059102315353512,0.0,13.184302870942144,10.4137005593108,201.2939769794478,192.2063268635521,0.0
0.116,4.379217682188264,-2.0751389667875957,0.11588785227888643,0.0,13.115306618602457,10.254830220741175,199.11462747521466,192.2063268635521,0.0
0.117,4.165839375646362,-2.0450089528239372,1.136479598278826,0.0,13.033458573959084,10.250281583315969,198.59506075832826,192.2063268635521,0.0
0.11800000000000001,4.073778042549946,-2.0730066485917713,1.3323756177742654,0.0,12.962721516711625,10.257338613428631,197.49732352504742,192.2063268635521,0.0
0.11900000000000001,4.03803983489303,-2.1096843001436785,1.8283342677997316,0.0,12.903518432913213,10.312223315624426,198.0136692043583,192.2063268635521,0.0
0.12,4.07413865054627,-2.148280651182332,1.512088004736225,0.0,12.859602949812952,10.31162431198513,200.28731820552312,192.2063268635521,0.0
0.121,4.0596440115675225,-2.178400248050357,0.2944535907341095,0.0,12.822946306803889,10.177871735934337,195.64443118554811,192.2063268635521,0.0
0.122,3.9130530198109534,-2.104742601568783,2.581516057501652,0.0,12.768176533408997,10.333562031375603,195.65285837328486,192.2063268635521,0.0
0.123,4.027976031517393,-2.113497584113813,2.5428371485359538,0.0,12.73615239144249,10.42697357407408,199.39968822136288,192.2063268635521,0.0
0.124,4.139230644287438,-2.158187045054766,0.5974886109188349,0.0,12.721500108820536,10.283151220970186,193.38184267619692,192.2063268635521,0.0
0.125,4.032203357505473,-2.0589584360493403,3.5946562253753642,0.0,12.682568777550374,10.514273345554594,194.14886806650273,192.2063268635521,0.0
0.126,4.24699339065505,-2.0641560355694146,3.1917181181929557,0.0,12.67220681390294,10.619398080104645,196.96801091771295,192.2063268635521,0.0
0.127,4.405069584756529,-2.098480195018335,1.734529852046239,0.0,12.677117201619433,10.541472335610965,189.7768863028944,192.2063268635521,0.0
0.128,4.397707611744132,-1.9870661778728964,5.354386565062083,0.0,12.66114519263442,10.886976904403888,194.67298754494203,192.2063268635521,0.0
0.129,4.755441397930578,-2.0364148239421946,2.8816693372243742,0.0,12.68786333266628,10.84871201701608,190.7103007931137,192.2063268635521,0.0
0.13,4.830213307022683,-1.9816898539483387,4.8779729738429225,0.0,12.701569936796156,11.05661843253839,191.61083858043094,192.2063268635521,0.0
0.131,5.097812838443324,-1.9391320468633835,4.433658963015517,0.0,12.730562412985867,11.147579059998904,190.31178102545377,192.2063268635521,0.0
0.132,5.270397738433045,-1.9170754047507077,5.102133198885085,0.0,12.763751051741114,11.294009834701603,189.41545197452896,192.2063268635521,0.0
0.133,5.522550682211942,-1.8341531758773604,5.578206473237719,0.0,12.799363025336165,11.44878873881387,188.7119465631301,192.2063268635521,0.0
0.134,5.7577016663386775,-1.8265769757463832,5.964902981941364,0.0,12.846887532257266,11.606081754272136,188.81819154768772,192.2063268635521,0.0
0.135,6.050421082518446,-1.742190802784712,5.945661842821205,0.0,12.89618217300761,11.71656680254793,184.534400094376,192.2063268635521,0.0
0.136,6.270491455982626,-1.6927691899776733,8.164276837168828,0.0,12.947003338831337,12.04389232392135,189.3729155605917,192.2063268635521,0.0
0.137,6.710915547155102,-1.7095405293488413,5.773353217090576,0.0,13.027814003668935,12.01213371529339,183.6506527121143,192.2063268635521,0.0
0.138,6.885287365200551,-1.545423168740426,8.720041382843661,0.0,13.079147118099336,12.324900309372332,182.90452366854456,192.2063268635521,0.0
0.139,7.2733939753921355,-1.5688094643999384,9.186123936578605,0.0,13.160837246623226,12.592377745799114,186.21319173466773,192.2063268635521,0.0
0.14,7.724891835075349,-1.562860218673626,7.5917212548058615,0.0,13.260217825950914,12.615447632440013,184.4177204751975,192.2063268635521,0.0
0.14100000000000001,7.967116299252576,-1.4075814410401648,8.567342948424518,0.0,13.334946162927508,12.747281289002714,179.6144143968403,192.2063268635521,0.0
