timestamp,iq,id,iq_ref,id_ref,vq,vd,omega,omega_ref,r
0.0,0.0,0.0,0.0,0.0,0.0,0.0,0.0,72.89152387002883,0.0
0.001,0.0,0.0,10.0,0.0,0.0,1.0999999999999999,10.662902558960756,72.89152387002883,0.0
0.002,0.39625297899622053,-0.20950478815344237,10.0,0.0,0.1330455266968787,1.9464121723104155,19.234329593591095,72.89152387002883,0.0
0.003,0.839120939670747,-0.45932268185051095,10.0,0.0,0.36281263838025385,2.6767347341752417,28.482694481104364,72.89152387002883,0.0
0.004,1.2460943017658224,-0.6831703347822657,10.0,0.0,0.664760357967297,3.3166633607982106,38.11580149746873,72.89152387002883,0.0
0.005,1.5886242988085093,-0.8714143956796355,10.0,0.0,1.0189745384273254,3.88918533066384,47.90746897225156,72.89152387002883,0.0
0.006,1.8682898144298576,-1.0234447061534515,10.0,0.0,1.4098603913710601,4.412538614840988,57.78255671179021,72.89152387002883,0.0
0.007,2.095042646358401,-1.144944598552781,8.792049024494094,0.0,1.8258376724973246,4.7676243922332215,66.42833911741585,72.89152387002883,0.0
0.008,2.23269846588085,-1.2174886392791577,4.533789669207405,0.0,2.2424906488060934,4.659595688844195,70.96691231913428,72.89152387002883,0.0
0.009000000000000001,2.1662139085926233,-1.1783840556473644,2.283749183857133,0.0,2.601648512538323,4.407803153086217,73.27216622127499,72.89152387002883,0.0
0.01,1.974270318693212,-1.0643205052409261,1.1273158092743185,0.0,2.8875553916131405,4.132847340242703,75.11403716236688,72.89152387002883,0.0
0.011,1.733823618730441,-0.9228762538540359,0.18415520580498912,0.0,3.1029577693476313,3.8463241650521365,74.35924118293514,72.89152387002883,0.0
0.012,1.4823244675811886,-0.7764339290797803,0.5468760223918001,0.0,3.253473378578317,3.6845848806401076,75.97667183126953,72.89152387002883,0.0
0.013000000000000001,1.2851080556755106,-0.6575452459053684,-0.2926907813878026,0.0,3.361150166543288,3.4772703428088576,74.48653605721879,72.89152387002883,0.0
0.014,1.1019367342093143,-0.5511702865616379,0.43642698376566913,0.0,3.426815463232572,3.408230241004133,75.90296979907578,72.89152387002883,0.0
0.015,0.985188586516311,-0.4779213071987741,-0.301904346453296,0.0,3.472016581935977,3.2751636381047553,74.21358902635419,72.89152387002883,0.0
0.016,0.8759840883601484,-0.41442582782709114,0.5295653883442462,0.0,3.4931389155418473,3.2696138048158256,75.32213382482342,72.89152387002883,0.0
0.017,0.8231408748469689,-0.37802417424030793,-0.04901311043831935,0.0,3.508224805357407,3.1994935645072053,73.84365475916083,72.89152387002883,0.0
0.018000000000000002,0.7704331233480622,-0.34659369796099215,0.6807051135016593,0.0,3.5116967463056934,3.2292181473619737,74.98760701612821,72.89152387002883,0.0
0.019,0.7582053837812424,-0.33366968265293645,0.08776815355697476,0.0,3.516686614523535,3.18461519203014,73.53789349638835,72.89152387002883,0.0
0.02,0.7346249127708457,-0.3183915366872081,0.8061612171633092,0.0,3.5151658444832594,3.2323957000648935,74.67953849585234,72.89152387002883,0.0
0.021,0.7423305120966913,-0.31711183913947044,0.21745857117307832,0.0,3.5185872169798924,3.2022214379612084,73.28805908416533,72.89152387002883,0.0
0.022,0.7334241635035103,-0.30915757133451355,0.9092329248752211,0.0,3.5177868535334262,3.2584456990232016,74.6111542592642,72.89152387002883,0.0
0.023,0.7502121512362069,-0.3130121774834066,0.23048903343343197,0.0,3.5231925018922334,3.2254521839022012,73.15721085452579,72.89152387002883,0.0
0.024,0.7443823700970247,-0.30581743077148005,0.9548038659576676,0.0,3.523928265703258,3.283569811423902,74.55190769491774,72.89152387002883,0.0
0.025,0.7627668310585463,-0.31048780537902876,0.24085160751279933,0.0,3.530987904559301,3.2480907673032,73.03308059459121,72.89152387002883,0.0
0.026000000000000002,0.7569706012690237,-0.3022331852264816,0.998849590430442,0.0,3.5328389631548136,3.3082063220720226,74.59799482319801,72.89152387002883,0.0
0.027,0.7757059581191799,-0.30708297387967765,0.19932776659535234,0.0,3.541132494321035,3.264849195221067,72.84827101515795,72.89152387002883,0.0
0.028,0.7676519128654722,-0.29641732585662894,1.074622199164091,0.0,3.5430392405164697,3.3320080385391497,74.46812400432809,72.89152387002883,0.0
0.029,0.7876843696950723,-0.3020697130065303,0.2489297032360278,0.0,3.55219961549089,3.2907784425634,72.75603809140284,72.89152387002883,0.0
0.03,0.7814352307200079,-0.291182072971226,1.106327517484911,0.0,3.5550668290949106,3.358046258064879,74.32220247088874,72.89152387002883,0.0
0.031,0.8018401658832979,-0.2972557826459673,0.3089385417333632,0.0,3.565151087353253,3.3202802136437413,72.72420391027508,72.89152387002883,0.0
0.032,0.7974923642005681,-0.286175988764651,1.109611021637731,0.0,3.569170800919952,3.384029369574279,74.13130807743924,72.89152387002883,0.0
0.033,0.817043030481043,-0.2918945197726187,0.3936610959815452,0.0,3.579903295072726,3.3528503133395295,72.71884650741532,72.89152387002883,0.0
0.034,0.8151427142757183,-0.2810584729909147,1.1016186546196414,0.0,3.585195483730681,3.4113017842956763,73.94288792504861,72.89152387002883,0.0
0.035,0.833505122315945,-0.2861410525002669,0.47908430525279977,0.0,3.5964710448323007,3.386840104958791,72.70917700531068,72.89152387002883,0.0
0.036000000000000004,0.8339198710204029,-0.27556492613406003,1.0977632337689465,0.0,3.6029586821946946,3.440370177019113,73.78391057175827,72.89152387002883,0.0
0.037,0.8511851793623263,-0.28011925153001005,0.5514725835278566,0.0,3.6147573000840953,3.4210222083673933,72.69810555647899,72.89152387002883,0.0
0.038,0.8534418961660221,-0.26947653106933867,1.0963092743029934,0.0,3.6222250168147534,3.4701082550924753,73.61130801487779,72.89152387002883,0.0
0.039,0.8695847676608334,-0.27355017595583775,0.632510203655104,0.0,3.6344090946869745,3.4568130554427046,72.7135029034406,72.89152387002883,0.0
0.04,0.8740287255802743,-0.2630757200208961,1.0831929690395832,0.0,3.642852318205287,3.499951471787712,73.3951376981513,72.89152387002883,0.0
0.041,0.888758322045197,-0.2663567232901626,0.7373394334030069,0.0,3.6552307159252395,3.4954938362442354,72.75451183635158,72.89152387002883,0.0
0.042,0.8960836280771398,-0.2568118124573624,1.0590224846396392,0.0,3.664842760094547,3.530904987320632,73.16793065405493,72.89152387002883,0.0
0.043000000000000003,0.909318379560479,-0.2588177359967996,0.8495490079477057,0.0,3.6773508156522294,3.536094745154993,72.9076830862156,72.89152387002883,0.0
0.044,0.919651849001279,-0.2503857499110115,0.9795111997055026,0.0,3.6881794637327494,3.557402574498309,72.69356771667852,72.89152387002883,0.0
0.045,0.9293744541111416,-0.24968337749907135,1.0885484460075474,0.0,3.7000630888350936,3.587390809023316,73.18509589339963,72.89152387002883,0.0
0.046,0.9463702508059542,-0.24633682683107416,0.8398486374132802,0.0,3.7133960780303434,3.5853489196123345,72.1072231172235,72.89152387002883,0.0
0.047,0.952703583276681,-0.23934725221869985,1.3866280330294014,0.0,3.724456191664288,3.646950541060861,73.23574967881143,72.89152387002883,0.0
0.048,0.9767335045992741,-0.2443552859840506,0.8189224941476093,0.0,3.7411912355400037,3.633002650473995,72.50380094987968,72.89152387002883,0.0
0.049,0.9844007293980126,-0.23342350911014714,1.1887740878149784,0.0,3.7536054101756777,3.6678806885109783,72.63653534953359,72.89152387002883,0.0
0.05,0.9977366099619648,-0.2343552112412825,1.1249567731929744,0.0,3.7684777761546484,3.688403645048689,72.93281248097512,72.89152387002883,0.0
0.051000000000000004,1.0135534142105325,-0.22840517844259067,0.9764053213627477,0.0,3.783251380560324,3.6910525663137177,72.05026076346272,72.89152387002883,0.0
0.052000000000000005,1.0209695079156407,-0.22146303843185844,1.4260938111846084,0.0,3.796108381578742,3.7452076020264435,72.87575017574932,72.89152387002883,0.0
0.053,1.043353279740554,-0.22431043136296525,1.0135068419841033,0.0,3.813477820689119,3.7429633287957733,72.46576421590136,72.89152387002883,0.0
0.054,1.054725655223831,-0.21477496097212145,1.2227574184493573,0.0,3.827808512893089,3.7687967363174804,72.20371954501931,72.89152387002883,0.0
0.055,1.0673253473370414,-0.21324318978235085,1.3606577971404765,0.0,3.843216336501865,3.8052841658211634,72.80370928310161,72.89152387002883,0.0
0.056,1.0879433902664728,-0.2108037302437858,1.0615410739685986,0.0,3.8604790978627874,3.8032398035984323,72.01271352480764,72.89152387002883,0.0
0.057,1.0979258114429686,-0.20072801831442078,1.4658270565677975,0.0,3.8747272131485015,3.849696893151579,72.17107880924252,72.89152387002883,0.0
0.058,1.117054932747284,-0.20382064526288146,1.3938488649582212,0.0,3.892637171944581,3.878968245243226,72.71125528355837,72.89152387002883,0.0
0.059000000000000004,1.1387825511051406,-0.20009311797040952,1.1255633136649976,0.0,3.9112423157985616,3.876113082472836,71.85485533626081,72.89152387002883,0.0
0.06,1.1488483913507466,-0.18942809451878756,1.5641299726514581,0.0,3.9265655516833524,3.925439172122889,71.98920607802512,72.89152387002883,0.0
0.061,1.1691289960182931,-0.1927958626245655,1.5059777796893412,0.0,3.94576617767082,3.9584523604697432,72.65149951076944,72.89152387002883,0.0
0.062,1.1926547687468134,-0.1899676391271315,1.177231306909775,0.0,3.9660032776284515,3.9521186735510665,72.0521435403381,72.89152387002883,0.0
0.063,1.2027291870913912,-0.17810019227590018,1.4853030954223558,0.0,3.982306161979789,3.9847444984935803,71.63519629214265,72.89152387002883,0.0
0.064,1.2178771364466991,-0.1766475221122205,1.7063399952989384,0.0,4.000200221140753,4.035405840232638,72.33866773137706,72.89152387002883,0.0
0.065,1.2445322151573976,-0.17785712861317365,1.3601328370682535,0.0,4.021518591976269,4.0397167181451215,72.34198907077058,72.89152387002883,0.0
0.066,1.2603434904195485,-0.16892270272273124,1.3639675153640745,0.0,4.040141330606522,4.048139542053025,71.5802121776528,72.89152387002883,0.0
0.067,1.2712551626088682,-0.1605611434092708,1.7579690788467266,0.0,4.056913650498965,4.099842011445093,71.72409921478894,72.89152387002883,0.0
0.068,1.2950501622407935,-0.1624953753386168,1.6976998068310563,0.0,4.077475366446733,4.134973497093031,72.2820107022939,72.89152387002883,0.0
0.069,1.3207493605258411,-0.16052248772422395,1.424839194755922,0.0,4.099257699407643,4.1366470693478075,72.07083749956568,72.89152387002883,0.0
0.07,1.3351864688951387,-0.15034427475196566,1.538632659824663,0.0,4.1179292817471325,4.154246315013738,71.29824218721336,72.89152387002883,0.0
0.07100000000000001,1.3491194802831163,-0.14347205162921617,1.940863132828979,0.0,4.1358394680054875,4.213671951557827,71.43914911093917,72.89152387002883,0.0
0.07200000000000001,1.3775137868017038,-0.14710161663626464,1.8849334185569715,0.0,4.1583691736744175,4.2557874261702135,72.1205454975285,72.89152387002883,0.0
0.073,1.4078967534541356,-0.14690854592845104,1.5519450089873115,0.0,4.182799922809763,4.25681671271173,73.1447509408123,72.89152387002883,0.0
0.074,1.417135126780448,-0.14895114200464066,1.0373100166375744,0.0,4.205117141961186,4.206193789050487,73.17739689749384,72.89152387002883,0.0
0.075,1.3997021316634457,-0.141210007785048,1.0181283080221573,0.0,4.219268396106425,4.167911254842444,72.94637208226798,72.89152387002883,0.0
0.076,1.3745150375603654,-0.13623145034880613,1.1330922335126912,0.0,4.227706041440545,4.150306198760009,73.36591492097027,72.89152387002883,0.0
0.077,1.3543873558037332,-0.13723004265843075,0.9185769036521345,0.0,4.23369904736143,4.112521261331865,74.4859757689148,72.89152387002883,0.0
0.078,1.3319435611001655,-0.13324951952809716,0.34260196069101023,0.0,4.2348664154799796,4.020169568411329,73.68234491215333,72.89152387002883,0.0
0.079,1.2883724595897195,-0.11960952627390153,0.7365091786505016,0.0,4.225221283467962,3.990827708218971,73.48001704842308,72.89152387002883,0.0
0.08,1.258871070616497,-0.11755274633375379,0.8317881787316825,0.0,4.213516632777037,3.9728065804459325,73.76646943926684,72.89152387002883,0.0
0.081,1.2406305149895394,-0.12165784074934982,0.679812527617421,0.0,4.201652462563018,3.939458435986959,74.17900279977408,72.89152387002883,0.0
0.082,1.22359940669261,-0.1221691140252481,0.46067105806634845,0.0,4.187655084040697,3.887363900169399,73.70809141841221,72.89152387002883,0.0
0.083,1.1985268383965781,-0.12146688595745492,0.6879610732634511,0.0,4.169765631968634,3.8688600678781464,73.74989316394802,72.89152387002883,0.0
0.084,1.1825008216581547,-0.1274874430815175,0.6584765075563559,0.0,4.152484025438978,3.8464136073873285,73.87889046857418,72.89152387002883,0.0
0.085,1.1702560802082689,-0.13295255839805187,0.5841041892578185,0.0,4.135226890626784,3.8177841843289624,73.94217579198454,72.89152387002883,0.0
0.08600000000000001,1.1565731882206371,-0.13824098654980987,0.541955008333084,0.0,4.117359602933499,3.7877819740806182,73.94499630629105,72.89152387002883,0.0
0.08700000000000001,1.1419345124588955,-0.14294990151038306,0.5300100268172085,0.0,4.098743919348855,3.7595742253441946,73.91623256840408,72.89152387002883,0.0
0.088,1.1274965145968492,-0.14792013259047643,0.5341448087769372,0.0,4.079668665518239,3.7343417519608884,73.91271652364078,72.89152387002883,0.0
0.089,1.1142405473089694,-0.15352328340597043,0.5256909046224685,0.0,4.060544334011254,3.710067499679307,73.91578085312574,72.89152387002883,0.0
0.09,1.1018568770090267,-0.15935955570612043,0.5139161700490211,0.0,4.041490968871673,3.686327201773766,73.90948830055277,72.89152387002883,0.0
0.091,1.0899245866808571,-0.1653549690109311,0.506882802030268,0.0,4.0225700431960245,3.6635883892415912,73.9053121738882,72.89152387002883,0.0
0.092,1.0784567226387463,-0.17149346991859032,0.49883298232395457,0.0,4.003882609801515,3.6415583610489133,73.90216443579519,72.89152387002883,0.0
0.093,1.067350950582724,-0.17767174342456793,0.49030044571280096,0.0,3.985479142003772,3.6201114677916304,73.90180792720713,72.89152387002883,0.0
0.094,1.0564813868734602,-0.18386462881333393,0.4803758594350457,0.0,3.9673907663177794,3.5990471322433186,73.90014113440388,72.89152387002883,0.0
0.095,1.0457526924200131,-0.18995453434380039,0.4711230831929196,0.0,3.949612755400017,3.5784332939101677,73.90336177143125,72.89152387002883,0.0
0.096,1.0350976352563737,-0.19599928559526353,0.4593943856652113,0.0,3.9321551853230723,3.5579701786963955,73.89920143906647,72.89152387002883,0.0
0.097,1.0244663074955358,-0.2018082190607074,0.4513977761572231,0.0,3.9149755959011294,3.5381081734077613,73.91071280178316,72.89152387002883,0.0
0.098,1.0138571792619824,-0.2076648103995366,0.4354502054813352,0.0,3.8981139006051353,3.51790083385461,73.89463847983824,72.89152387002883,0.0
0.099,1.0032128600456631,-0.2129826168426468,0.43345622035570486,0.0,3.8814440336787777,3.499032979901572,73.93550780193102,72.89152387002883,0.0
0.1,0.992585344362322,-0.2188507384794901,0.4025817199902886,0.0,3.8651466833653747,3.478071252995269,73.91100906113137,72.89152387002883,0.0
0.101,0.9818052454598902,-0.22311355250793075,0.404636238479092,0.0,3.848793123719441,3.459190241508112,73.97087666269974,72.89152387002883,0.0
0.10200000000000001,0.9705564370704467,-0.22899212730108248,0.36390890976819756,0.0,3.8327908339763486,3.437190991795806,73.92065058489695,72.89152387002883,0.0
0.10300000000000001,0.9593547485126465,-0.2321486268973948,0.3787306815209116,0.0,3.816477277443996,3.4189488039177913,73.92701518629433,72.89152387002883,0.0
0.10400000000000001,0.9478155639656274,-0.23789327401692562,0.36519346765956684,0.0,3.8005712039642634,3.400419461346663,73.9188976575736,72.89152387002883,0.0
0.105,0.9377095148880478,-0.24132383676739022,0.358978494144485,0.0,3.7847227190067474,3.382600444289692,73.90023922214857,72.89152387002883,0.0
0.106,0.9267240727810793,-0.2468441177684363,0.3582205583357998,0.0,3.7692501061218957,3.3660645953798527,73.89360287088235,72.89152387002883,0.0
0.107,0.917354718660047,-0.2504267640251875,0.3515179439603765,0.0,3.7540100579127773,3.349826136381545,73.87453680027083,72.89152387002883,0.0
0.108,0.9071694690290238,-0.25587018762030495,0.35122084996371417,0.0,3.7392331187576353,3.334748548184481,73.88872812183739,72.89152387002883,0.0
0.109,0.8984571783408826,-0.25944745098351046,0.3341531466623503,0.0,3.7247651794323033,3.3186830479478107,73.83979564812378,72.89152387002883,0.0
0.11,0.8885014546653343,-0.26446118192228507,0.3491366657382037,0.0,3.7106532217854693,3.3056041746310605,73.8711314701521,72.89152387002883,0.0
0.111,0.8803976711310197,-0.26800626536956046,0.3236726787228157,0.0,3.6969843944414587,3.290262978070871,73.83132731087258,72.89152387002883,0.0
0.112,0.8707981613885699,-0.27278239918659086,0.33417672395413445,0.0,3.683638254061228,3.2774740115142222,73.86239842593378,72.89152387002883,0.0
0.113,0.8628524073772996,-0.2758189949058808,0.30893242086448747,0.0,3.670634095254309,3.2625254516268596,73.82157065716221,72.89152387002883,0.0
0.114,0.853224739631058,-0.2802883980119329,0.32004583737893566,0.0,3.657896764723818,3.250225836606999,73.84773094062747,72.89152387002883,0.0
0.115,0.84541388878755,-0.28278986286847113,0.2974036249403196,0.0,3.645433672847549,3.236043589418007,73.79820327940321,72.89152387002883,0.0
0.116,0.8359413576499234,-0.2869847390998137,0.3131006614587062,0.0,3.6332350871768897,3.2249502238183996,73.82619847249043,72.89152387002883,0.0
0.117,0.8285975264674309,-0.2891680180494295,0.28975631889047937,0.0,3.621345235435479,3.2117345842826954,73.77069712473963,72.89152387002883,0.0
0.11800000000000001,0.8195292847630544,-0.2931673371281237,0.30871526021877416,0.0,3.609740897223799,3.2018945187738717,73.80372077286931,72.89152387002883,0.0
0.11900000000000001,0.8127579720094745,-0.2951046673672149,0.28308146712552695,0.0,3.598486099417918,3.1895228813270733,73.73690775012098,72.89152387002883,0.0
0.12,0.8041202715646092,-0.29886140836822467,0.3080341396987728,0.0,3.587513485855668,3.1811464936797558,73.78131608473299,72.89152387002883,0.0
0.121,0.7979832704016054,-0.30061934303950744,0.27693205024572354,0.0,3.5769563002887383,3.169428419998857,73.74089410046366,72.89152387002883,0.0
0.122,0.7899411066153096,-0.30374572893606744,0.28864934007604004,0.0,3.5666093490123227,3.160249625910084,73.71325903578942,72.89152387002883,0.0
0.123,0.7832537495006245,-0.3055226770183702,0.29424952075555555,0.0,3.5565434138847585,3.152108050723743,73.67127288248379,72.89152387002883,0.0
0.124,0.7766069768617267,-0.3083242035283501,0.3074451072838207,0.0,3.546960313186593,3.1458338236737258,73.71112910301223,72.89152387002883,0.0
0.125,0.7713087318050784,-0.3104598989977756,0.2793209446897692,0.0,3.537915011089777,3.1365194347381076,73.67429127634314,72.89152387002883,0.0
0.126,0.7648445772117854,-0.31255275783675207,0.2899121839611689,0.0,3.529051657826675,3.1293363069868594,73.67150241111402,72.89152387002883,0.0
0.127,0.758997507832908,-0.3142513792649775,0.2835068311648775,0.0,3.520522246883474,3.121753191569865,73.6482682588515,72.89152387002883,0.0
0.128,0.7530646831453702,-0.31584819063808495,0.28755646340790963,0.0,3.5122461285296516,3.115179099696784,73.5829692369531,72.89152387002883,0.0
0.129,0.7475506893632177,-0.3172514463165193,0.3132915206878656,0.0,3.504278602834801,3.1117723762231564,73.56623896355886,72.89152387002883,0.0
0.13,0.7433021306783607,-0.31907394593582317,0.31490950644968785,0.0,3.496953599763411,3.10824240190592,73.52109146579716,72.89152387002883,0.0
0.131,0.7394471436538591,-0.3208991753536219,0.3311875793728566,0.0,3.4901906498072037,3.106488895863046,73.49172232541326,72.89152387002883,0.0
0.132,0.7363479879109301,-0.32284669568938446,0.33987016501095824,0.0,3.484124619185083,3.1053291063812747,73.52278507374074,72.89152387002883,0.0
0.133,0.7337400956866198,-0.32467612592711487,0.31802617881010353,0.0,3.4787309747997903,3.1014449050342385,73.43678764082591,72.89152387002883,0.0
0.134,0.7301645220177868,-0.3259306412756889,0.35557225755954414,0.0,3.4736079771042903,3.1021255020891516,73.55711884182907,72.89152387002883,0.0
0.135,0.7281276617347727,-0.32708276724648655,0.2887507073399649,0.0,3.469179527587133,3.0946882072518194,73.37387756197421,72.89152387002883,0.0
0.136,0.7230685164998281,-0.3276397175904333,0.3755478103479385,0.0,3.4644999368160834,3.098303831152591,73.54613808695585,72.89152387002883,0.0
