timestamp,iq,id,iq_ref,id_ref,vq,vd,omega,omega_ref,r
0.0,0.0,0.0,0.0,0.0,0.0,0.0,0.0,169.77283592900227,0.0
0.001,0.0,0.0,10.0,0.0,0.0,1.0999999999999999,7.151433326605428,169.77283592900227,0.0
0.002,0.7332380156896401,-0.4160407682936565,10.0,0.0,0.15576448451230226,1.9093438182741391,14.518883050345618,169.77283592900227,0.0
0.003,1.3288511151655786,-0.7487367672092448,10.0,0.0,0.4093230545985663,2.5951446423866384,22.21543177298123,169.77283592900227,0.0
0.004,1.7826173444481084,-0.999342988552278,10.0,0.0,0.7303455744460315,3.1937630868701934,30.071773932220978,169.77283592900227,0.0
0.005,2.12960966985969,-1.1884288036135084,10.0,0.0,1.0974210642004107,3.7309904453876928,38.13569286362603,169.77283592900227,0.0
0.006,2.400635387315556,-1.3335087016727216,10.0,0.0,1.4955796714670033,4.22485971136285,46.25407636785697,169.77283592900227,0.0
0.007,2.61790715743069,-1.4477789219014756,10.0,0.0,1.914428269849023,4.687968273929045,54.34491606290933,169.77283592900227,0.0
0.008,2.7971065957957104,-1.5403880462288988,10.0,0.0,2.346747166123189,5.129111619557824,62.52298219848238,169.77283592900227,0.0
0.009000000000000001,2.949513747320262,-1.6170973329567102,10.0,0.0,2.7874604376296013,5.554399727967086,70.5599412526661,169.77283592900227,0.0
0.01,3.0825049856018847,-1.6827085494377418,10.0,0.0,3.233081333771935,5.968125387990334,78.67993009659098,169.77283592900227,0.0
0.011,3.2018162718160568,-1.7395105931660237,10.0,0.0,3.6811048189476607,6.373246242524747,86.77975161831598,169.77283592900227,0.0
0.012,3.311123381138007,-1.7896283932270933,10.0,0.0,4.129782978628688,6.771826690960015,94.79004153471088,169.77283592900227,0.0
0.013000000000000001,3.413140633045029,-1.8342824026323632,10.0,0.0,4.577862130219111,7.165288083903312,102.49690570022433,169.77283592900227,0.0
0.014,3.5097524351421123,-1.8743559272032193,10.0,0.0,5.024441053553561,7.554604126999705,110.20713915008513,169.77283592900227,0.0
0.015,3.6028795636809017,-1.9094759195235076,10.0,0.0,5.468756152773729,7.940368592001613,117.7726701166699,169.77283592900227,0.0
0.016,3.6936421814363323,-1.9398247275179652,10.0,0.0,5.910203357528258,8.322935503757638,125.15699342752133,169.77283592900227,0.0
0.017,3.783028542065424,-1.9652839165689033,10.0,0.0,6.348259555698595,8.70246557132187,132.3265940113039,169.77283592900227,0.0
0.018000000000000002,3.8719372096722613,-1.9855477752971897,10.0,0.0,6.782437573377926,9.078962162116245,139.26089177328384,169.77283592900227,0.0
0.019,3.9612277688065727,-2.0001742777817437,10.0,0.0,7.2122537250547785,9.452294020770413,145.9754062240233,169.77283592900227,0.0
0.02,4.051781891872727,-2.008576972599328,10.0,0.0,7.637199478834449,9.822206260780916,152.56756831596093,169.77283592900227,0.0
0.021,4.14451532605728,-2.0100683189898194,10.0,0.0,8.056721902391985,10.188326715638695,158.91317877022394,169.77283592900227,0.0
0.022,4.239959936857214,-2.00459874195316,8.697401325735118,0.0,8.470287562141603,10.406929940351162,164.16174681644327,169.77283592900227,0.0
0.023,4.245468642517447,-1.9390853111140791,6.12922819375104,0.0,8.857205196765577,10.375904839277126,166.78955638220776,169.77283592900227,0.0
0.024,4.089048955610767,-1.7735256807276016,4.845156206336739,0.0,9.184772132785625,10.28836907709349,168.32607573259085,169.77283592900227,0.0
0.025,3.8985762799334815,-1.5823413680741518,4.091364133109309,0.0,9.451454120897294,10.191654974004784,170.04966875058628,169.77283592900227,0.0
0.026000000000000002,3.7204629107770577,-1.40404026702166,3.2267992958957556,0.0,9.664095221899686,10.061404012525337,170.50008234634717,169.77283592900227,0.0
0.027,3.551137314006866,-1.2217351227636355,2.99432003384186,0.0,9.824176561796033,9.96535986879343,171.04992089299648,169.77283592900227,0.0
0.028,3.422525757860833,-1.0756855411466377,2.7066299108772625,0.0,9.944402950794265,9.87806116772715,168.51385760871355,169.77283592900227,0.0
0.029,3.322213041519059,-0.952935116402788,3.9872513362216155,0.0,10.031834779880395,9.965008516920978,165.5434783305006,169.77283592900227,0.0
0.03,3.3697365533020487,-0.8830179061268458,5.514734551313111,0.0,10.112754772094377,10.200990540051109,168.10254384445565,169.77283592900227,0.0
0.031,3.5421641110558273,-0.8784970659246769,4.2519047151810465,0.0,10.209382847080498,10.248788449729101,169.0023659673953,169.77283592900227,0.0
0.032,3.597690296545416,-0.8285425247348845,3.8096983533272972,0.0,10.295678114406947,10.261071369668995,165.57247199172232,169.77283592900227,0.0
0.033,3.620759168272059,-0.7585513838425897,5.566648980536581,0.0,10.367372666908487,10.47645984292407,166.2359661437278,169.77283592900227,0.0
0.034,3.7953377350751656,-0.7385217647523863,5.270270602386583,0.0,10.451933264794384,10.608334842604123,166.83356027135153,169.77283592900227,0.0
0.035,3.9188110585530134,-0.7224960155376121,5.00086629515123,0.0,10.53966276663697,10.69697143217584,163.23836084227253,169.77283592900227,0.0
0.036000000000000004,4.019089729870835,-0.6724518589080342,6.863810760558028,0.0,10.622138377515366,10.98333932663156,166.3999779487601,169.77283592900227,0.0
0.037,4.251487787507494,-0.6893958419428694,5.316730787116665,0.0,10.727367496451617,11.035948751370078,163.20613463917513,169.77283592900227,0.0
0.038,4.3383393753624375,-0.637705007477789,6.979319454807419,0.0,10.821479214346592,11.284946004621089,165.70244497819218,169.77283592900227,0.0
0.039,4.549386436189511,-0.633338694117217,5.771868194806997,0.0,10.93111609965216,11.346662518247115,162.24529037835993,169.77283592900227,0.0
0.04,4.647743596914131,-0.5741273215456877,7.575720950229546,0.0,11.029491359940506,11.614960567666134,164.55085021343316,169.77283592900227,0.0
0.041,4.872237095513942,-0.585930792800178,6.475160889848617,0.0,11.14674939470563,11.703455490737232,166.75284298606806,169.77283592900227,0.0
0.042,4.9549250987126685,-0.6021229340758252,5.404364432960511,0.0,11.26279421912913,11.681193969957986,169.71093216109935,169.77283592900227,0.0
0.043000000000000003,4.898468896982756,-0.6489336817826792,3.9259388831238957,0.0,11.369995669867356,11.52788130000815,172.37155440446773,169.77283592900227,0.0
0.044,4.7557418499833775,-0.6186121478489679,2.5696405766850514,0.0,11.447342232326992,11.281346897069845,173.10929963471125,169.77283592900227,0.0
0.045,4.52058952533117,-0.5937329155958342,2.167403324506202,0.0,11.48986719803833,11.060956961237798,174.5156644433543,169.77283592900227,0.0
0.046,4.315698992913523,-0.5582623540339045,1.416792635041158,0.0,11.502447704146046,10.808500147560139,175.95193172849284,169.77283592900227,0.0
0.047,4.088050697975035,-0.5411591256110035,0.6368680344769819,0.0,11.486997828764327,10.527253873812667,175.9350123066385,169.77283592900227,0.0
0.048,3.852801304778402,-0.5091478044955744,0.5837059816277894,0.0,11.441618100507563,10.298139610396246,176.73718064379688,169.77283592900227,0.0
0.049,3.6566986819789102,-0.5049162720453484,0.11297836590065424,0.0,11.377719563376463,10.05536917787027,176.8584269179682,169.77283592900227,0.0
0.05,3.462804087730377,-0.5012733848587716,-0.018500681074661518,0.0,11.295575434439856,9.840097895013121,176.97671875842866,169.77283592900227,0.0
0.051000000000000004,3.2924951054274265,-0.5095532077961091,-0.14968542959916142,0.0,11.201065799506166,9.641818837790922,177.00114039909684,169.77283592900227,0.0
0.052000000000000005,3.140137657061036,-0.5259691784145553,-0.23417929463419762,0.0,11.097902180882283,9.460990474626234,176.92737044043804,169.77283592900227,0.0
0.053,3.004899098881933,-0.5474211379999832,-0.26883966041915475,0.0,10.989167643652529,9.298313551245672,176.83325503850878,169.77283592900227,0.0
0.054,2.885609208552915,-0.5738500464831846,-0.2923861505495906,0.0,10.877731528144993,9.150556858578096,176.68725195342034,169.77283592900227,0.0
0.055,2.779110446189483,-0.6032292606785026,-0.2885287682495523,0.0,10.765630779398107,9.017613965537514,176.49726905067112,169.77283592900227,0.0
0.056,2.6842836017784206,-0.6346796631236877,-0.2607816480916303,0.0,10.654611568348871,8.899134861582258,176.2614350682724,169.77283592900227,0.0
0.057,2.6003862920946554,-0.6672816687750642,-0.20775064828496603,0.0,10.54611808460623,8.795238121315863,175.97306931383855,169.77283592900227,0.0
0.058,2.527155995904498,-0.7003606347391138,-0.12557010491640863,0.0,10.441396941410742,8.706607615958395,175.699127860998,169.77283592900227,0.0
0.059000000000000004,2.4644512448307974,-0.7342599660020367,-0.04786229781609297,0.0,10.341682998778342,8.630259319820683,175.43268278284043,169.77283592900227,0.0
0.06,2.409880266527208,-0.7678090026041153,0.028761772724312795,0.0,10.247657021509008,8.564601788824595,175.16192723450575,169.77283592900227,0.0
0.061,2.361964990960035,-0.8000180345948062,0.11024863383661643,0.0,10.159675392019954,8.509029697747492,174.8880808912517,169.77283592900227,0.0
0.062,2.3201458411524367,-0.8303704942899269,0.19601935584115449,0.0,10.077951396618651,8.46295751736173,174.64166388549836,169.77283592900227,0.0
0.063,2.2841074756922626,-0.8584030391734992,0.2705395791528584,0.0,10.002572638059144,8.424205701521203,174.10650656108334,169.77283592900227,0.0
0.064,2.2521815114775485,-0.8837749458556132,0.4947815350395599,0.0,9.933367158057727,8.40886407673221,173.78009141046894,169.77283592900227,0.0
0.065,2.235357050977792,-0.9118707368104157,0.6179165555320902,0.0,9.872384881515769,8.400969930130115,173.70976733163454,169.77283592900227,0.0
0.066,2.2237824952639054,-0.9376770171305975,0.613709280922969,0.0,9.819269150893465,8.387177776645634,173.75360501796118,169.77283592900227,0.0
0.067,2.208004076612251,-0.9544940461560049,0.5519827468700602,0.0,9.771677588374537,8.364325299942186,173.36930520892622,169.77283592900227,0.0
0.068,2.184216811207469,-0.9630618702519971,0.708167958588299,0.0,9.727334224797463,8.359255368294738,173.17518672561297,169.77283592900227,0.0
0.069,2.171879229627481,-0.9719253242890635,0.7712036922788155,0.0,9.687807506116464,8.356749433362847,172.8855840457039,169.77283592900227,0.0
0.07,2.1632393529269827,-0.9768899282831368,0.8848775510663396,0.0,9.65244033770936,8.363242197807024,172.50325236065882,169.77283592900227,0.0
0.07100000000000001,2.1617319889399016,-0.9799438374093377,1.0487392292723108,0.0,9.621545446551321,8.382516426252431,172.16842002987315,169.77283592900227,0.0
0.07200000000000001,2.1703545924091276,-0.9828608922027877,1.1921995536564385,0.0,9.595957804289647,8.4099522016162,171.81203686454123,169.77283592900227,0.0
0.073,2.1861076149659326,-0.9844532231554856,1.3499991269670089,0.0,9.575818489647377,8.446362378591186,171.44737822010165,169.77283592900227,0.0
0.074,2.20911537042823,-0.9848942092476456,1.515583026275801,0.0,9.561366709327444,8.49138051672003,171.0787722985611,169.77283592900227,0.0
0.075,2.2391341449458824,-0.9841606840666189,1.6868266233504943,0.0,9.552776823221553,8.544560632046801,170.71426962710154,169.77283592900227,0.0
0.076,2.2758261275472553,-0.9821948302558107,1.8596636220992755,0.0,9.55015502859155,8.605127450780953,170.35918894487355,169.77283592900227,0.0
0.077,2.3186039265814293,-0.9789005406917962,2.0313404330545586,0.0,9.553509381984028,8.672192849328535,170.00914379587834,169.77283592900227,0.0
0.078,2.366696395274453,-0.9743395352954713,2.203999928883402,0.0,9.562766072194062,8.74530052622634,169.58205610660335,169.77283592900227,0.0
0.079,2.4194667798486567,-0.9690272521848579,2.41945157174489,0.0,9.577869119984673,8.828672372595609,168.72278139979628,169.77283592900227,0.0
0.08,2.4800949959282312,-0.9640084687621842,2.8595894704404854,0.0,9.599300104287758,8.945336591611898,167.52860187768647,169.77283592900227,0.0
0.081,2.5661734239651777,-0.964213675075579,3.4791215720085464,0.0,9.630327172590864,9.107362294419135,166.78975820975313,169.77283592900227,0.0
0.082,2.689007297238808,-0.9707686279313583,3.8783741831677068,0.0,9.675173097095383,9.281359658208054,167.16608520586223,169.77283592900227,0.0
0.083,2.8229112256979723,-0.9772331840220561,3.716278192344557,0.0,9.73357971716976,9.407117699568618,168.33813443394752,169.77283592900227,0.0
0.084,2.9210810976460975,-0.9670412533765491,3.1446005932524623,0.0,9.797535721440848,9.455417376178971,168.6044967446239,169.77283592900227,0.0
0.085,2.965583823788282,-0.9208138399798919,3.0231028297580536,0.0,9.854942996778682,9.493721106405767,168.73509104431406,169.77283592900227,0.0
0.08600000000000001,2.995596385370175,-0.874803088127547,2.968183128759856,0.0,9.905841009035619,9.526252647156227,166.69275658786574,169.77283592900227,0.0
0.08700000000000001,3.0241819671246417,-0.8295229705225653,4.020151150395379,0.0,9.95038166872389,9.67404222607005,164.17962568777708,169.77283592900227,0.0
0.088,3.144252047174868,-0.8093732715635323,5.332648702851966,0.0,10.003483554625268,9.932440110627208,166.20993961829896,169.77283592900227,0.0
0.089,3.3501866301492456,-0.8308443187828611,4.353120700698057,0.0,10.079678352575941,10.027983236230611,167.2411410334234,169.77283592900227,0.0
0.09,3.4490389407101665,-0.8063976407208077,3.862836942091631,0.0,10.154904138232869,10.068641187311615,164.58228215571734,169.77283592900227,0.0
0.091,3.496642617987781,-0.7586464254952198,5.244171918677506,0.0,10.221664973538006,10.265357725465798,164.2757810137521,169.77283592900227,0.0
0.092,3.6624355447059362,-0.7368449132335251,5.4523930388126285,0.0,10.29950072493152,10.44040848161786,165.3635112843265,169.77283592900227,0.0
0.093,3.8143491837247256,-0.7359296664218486,4.952621149972181,0.0,10.387175314774222,10.533628047295377,163.0279459288875,169.77283592900227,0.0
0.094,3.911859458693754,-0.7029738184714305,6.187852727692829,0.0,10.471788411393979,10.75795931397068,164.58404861611209,169.77283592900227,0.0
0.095,4.107654358944285,-0.6862308028344888,5.461689257209441,0.0,10.568861151778725,10.855526129832192,163.4549169899402,169.77283592900227,0.0
0.096,4.210712389133002,-0.6612605439120236,6.08943425968601,0.0,10.663404001386052,11.01997868880502,163.30537637202048,169.77283592900227,0.0
0.097,4.372681441190583,-0.6183303148897888,6.228879164215684,0.0,10.760465199326704,11.16971575089036,162.3736922746039,169.77283592900227,0.0
0.098,4.512228735700375,-0.6071882456784669,6.76871264946795,0.0,10.861997658358803,11.358441949018173,163.35219745513504,169.77283592900227,0.0
0.099,4.698359484773648,-0.5761984125327482,6.343666443941057,0.0,10.968952030346557,11.467216446322977,161.49003993734726,169.77283592900227,0.0
0.1,4.815951006380236,-0.5526243266750767,7.357573162751496,0.0,11.073805163753129,11.6805153723345,168.1893927668123,169.77283592900227,0.0
0.101,4.949154181279656,-0.6440622229315661,4.023731179640883,0.0,11.199796785866988,11.492631599732382,167.67793003305178,169.77283592900227,0.0
0.10200000000000001,4.799695863357513,-0.6154347665606563,4.300411605480643,0.0,11.290337469345884,11.417681079995775,172.43856522841713,169.77283592900227,0.0
0.10300000000000001,4.682847832690808,-0.6350770511442516,1.8934367148038174,0.0,11.366775958371134,11.103104338541987,171.6019749504076,169.77283592900227,0.0
0.10400000000000001,4.4194032846505635,-0.5691671085517558,2.293440463594534,0.0,11.396666407817468,10.923509701387609,174.4111702649334,169.77283592900227,0.0
0.105,4.2291532834181265,-0.565455556478961,0.8424594629723252,0.0,11.405859177301654,10.61954867999212,173.90207245796336,169.77283592900227,0.0
0.106,3.979773803849264,-0.5170625674246891,1.0557160011677307,0.0,11.378450454422625,10.410400309632559,174.99369015928042,169.77283592900227,0.0
0.107,3.7889852498266077,-0.5155848352435596,0.4576986082064183,0.0,11.333189146146161,10.17000437156016,175.2676018651465,169.77283592900227,0.0
0.108,3.5942768660279545,-0.5062769867956297,0.26579509591193373,0.0,11.267405288882642,9.9535027207222,175.68895410741482,169.77283592900227,0.0
0.109,3.418560984726042,-0.5105212826586586,-0.00404220700634772,0.0,11.187109603291095,9.741691444148845,175.76422417226806,169.77283592900227,0.0
0.11,3.2522863779606013,-0.5198567898430505,-0.10159112186562691,0.0,11.09464682143302,9.551532766999507,175.77331038927133,169.77283592900227,0.0
0.111,3.1056340473045028,-0.5366380889601036,-0.16613897496995378,0.0,10.994167037876847,9.379487914990928,175.7510365881124,169.77283592900227,0.0
0.112,2.9761858481056724,-0.5592909271247134,-0.2147840809815964,0.0,10.888854746682375,9.222666865302667,175.67302049656234,169.77283592900227,0.0
0.113,2.8606801004869555,-0.5855924587067094,-0.234777880882163,0.0,10.781058219730895,9.080694974780908,175.55906859536086,169.77283592900227,0.0
0.114,2.7575270852382423,-0.6147185115240584,-0.2356642569450047,0.0,10.672785006916476,8.95243483144944,175.3883093488681,169.77283592900227,0.0
0.115,2.6653008411815238,-0.6453654664137063,-0.20643936789728112,0.0,10.565593005560036,8.838510339419308,175.15261766337193,169.77283592900227,0.0
0.116,2.5839435122651624,-0.6769199813106507,-0.1423913424928953,0.0,10.460892282225998,8.740039174100783,174.90927921684482,169.77283592900227,0.0
0.117,2.5136529078735625,-0.7097098768420235,-0.07208655210776849,0.0,10.360105858052997,8.654956492862937,174.67118747667507,169.77283592900227,0.0
0.11800000000000001,2.4525959796315893,-0.7429180358162087,-0.0020241974996215717,0.0,10.264214806705352,8.581320604497323,174.42918438026672,169.77283592900227,0.0
0.11900000000000001,2.3990022355527274,-0.7754604517139301,0.07241386619191115,0.0,10.173796855814919,8.518231505859745,174.1796971580675,169.77283592900227,0.0
0.12,2.3519804368586934,-0.8066484493237215,0.15308886500086194,0.0,10.089217045727874,8.465175851644513,173.92755863082775,169.77283592900227,0.0
0.121,2.311106368660977,-0.8360604723413659,0.23761090160248965,0.0,10.010713093783849,8.421484385394992,173.7135774698462,169.77283592900227,0.0
0.122,2.2760311936491573,-0.8631842440030308,0.30519406668482363,0.0,9.938379885061885,8.384350126938388,173.15678519470106,169.77283592900227,0.0
0.123,2.2446176862681178,-0.88750750992151,0.549750711600407,0.0,9.871970892900869,8.373026106806932,172.88048378305345,169.77283592900227,0.0
0.124,2.2298864535532594,-0.9156136725889205,0.6568249388836991,0.0,9.813918843177042,8.36683248854935,172.82216902516183,169.77283592900227,0.0
0.125,2.2190759888927523,-0.9407331956047958,0.655488986867915,0.0,9.763534722504913,8.355277168936084,173.00213924815492,169.77283592900227,0.0
0.126,2.204518467894084,-0.9566457943596864,0.5332108421798427,0.0,9.718532672571545,8.327894955484647,172.54368266613554,169.77283592900227,0.0
0.127,2.1771527157742674,-0.9626312920802038,0.7347306658182005,0.0,9.67579188504808,8.325005377955312,172.37626598930777,169.77283592900227,0.0
0.128,2.16551753612518,-0.971078445395007,0.79240470362903,0.0,9.637905550411453,8.323465837589573,172.06587928700696,169.77283592900227,0.0
0.129,2.15742223225036,-0.9755527117299114,0.9246676211993852,0.0,9.604061592965607,8.333037929981113,171.71125758861217,169.77283592900227,0.0
0.13,2.157894839280317,-0.9789059376415443,1.0825942538006834,0.0,9.574883352690426,8.354184777987317,171.40100732354557,169.77283592900227,0.0
0.131,2.1677811506816704,-0.9818854816727501,1.22143767238855,0.0,9.551031838827702,8.382909858700181,171.0578950193409,169.77283592900227,0.0
0.132,2.1842659307506356,-0.9833464062935674,1.3801432335875043,0.0,9.532568890690516,8.420731994807918,170.71212253224226,169.77283592900227,0.0
0.133,2.2080100646127896,-0.9837223211713125,1.5436366111044184,0.0,9.519761192368163,8.466875831481886,170.36156280419507,169.77283592900227,0.0
0.134,2.2385654004105513,-0.9828817269315971,1.713029206376084,0.0,9.5127524230303,8.520999120761807,170.01634162154153,169.77283592900227,0.0
0.135,2.275640680225222,-0.9807954275287544,1.8832047407774648,0.0,9.511635772562297,8.582261859589748,169.6800811221903,169.77283592900227,0.0
0.136,2.318607942897423,-0.9773657187363806,2.0522625385211977,0.0,9.516400656050754,8.649825615800095,169.3449447125396,169.77283592900227,0.0
0.137,2.3667089391533698,-0.972709108981403,2.224109655511182,0.0,9.526967496826282,8.723460652668285,168.9053358832809,169.77283592900227,0.0
