timestamp,iq,id,iq_ref,id_ref,vq,vd,omega,omega_ref,r
0.0,0.0,0.0,0.0,0.0,0.0,0.0,0.0,217.5569539823043,0.0
0.001,0.0,0.0,10.0,0.0,0.0,1.0999999999999999,11.669789837081252,217.5569539823043,0.0
0.002,0.861444731585413,-0.48434536810630013,10.0,0.0,0.16327799049169295,1.8952410795256043,29.06592759860846,217.5569539823043,0.0
0.003,1.9660027540419351,-1.1056996803932424,10.0,0.0,0.4532578105572778,2.5143989149934542,49.836189011576245,217.5569539823043,0.0
0.004,3.030627785734198,-1.7043169941304193,10.0,0.0,0.8357897935513092,2.994575775659494,72.50677320325312,217.5569539823043,0.0
0.005,3.916345242347542,-2.201255081858006,10.0,0.0,1.2767632808252039,3.378205478647788,96.07357448809695,217.5569539823043,0.0
0.006,4.582003200085339,-2.571732144134415,10.0,0.0,1.7477854856436679,3.703204359279617,119.84821763895374,217.5569539823043,0.0
0.007,5.043491074542512,-2.8230664040551874,10.0,0.0,2.2281473560119895,3.9986984857171994,143.33463230544956,217.5569539823043,0.0
0.008,5.343765975635047,-2.976872578759239,10.0,0.0,2.704427788605475,4.284264026172249,166.27916283332615,217.5569539823043,0.0
0.009000000000000001,5.532080737662107,-3.058972489907712,10.0,0.0,3.1691296604644075,4.571189181029089,188.3410692846884,217.5569539823043,0.0
0.01,5.654321695236341,-3.0901243743456823,10.0,0.0,3.618659568799825,4.8643286498732445,209.1841745865522,217.5569539823043,0.0
0.011,5.7471866141248364,-3.0847967668692453,5.86846201514008,0.0,4.051652877519327,4.709645252829941,223.728449982743,217.5569539823043,0.0
0.012,5.487178904482373,-2.860390960359319,-1.4653906429597132,0.0,4.401247153021221,3.8778506110700994,225.6277266124586,217.5569539823043,0.0
0.013000000000000001,4.5242766331409525,-2.2230086482594427,-2.4957366841190494,0.0,4.564834540531054,3.2275144958410316,220.6752557752157,217.5569539823043,0.0
0.014,3.33248431831884,-1.457379756941165,-0.05068428342672138,0.0,4.569184222842986,3.059298087290622,214.53211766329295,217.5569539823043,0.0
0.015,2.440781857818569,-0.8596682583573854,3.0511331357247684,0.0,4.49818532013765,3.3112570274329953,211.19662968274247,217.5569539823043,0.0
0.016,2.1040142313838675,-0.569203896206902,4.7824803689956275,0.0,4.43350823686637,3.7184776190616917,211.30651892107463,217.5569539823043,0.0
0.017,2.246285225082326,-0.536945567631371,4.7900401004418445,0.0,4.415377148563284,4.043009055755591,214.05673094499733,217.5569539823043,0.0
0.018000000000000002,2.6129756478535833,-0.6252256741540139,3.449936318853565,0.0,4.441545707763142,4.146873990092762,216.07081941248273,217.5569539823043,0.0
0.019,2.9343924264789636,-0.6890153508846216,2.4577534308090763,0.0,4.4816179678518715,4.1155412656261126,215.86394565862227,217.5569539823043,0.0
0.02,3.1192792007528807,-0.675116669396595,2.5781203909761286,0.0,4.512382977754076,4.097387856729944,213.8766670709827,217.5569539823043,0.0
0.021,3.232717708317114,-0.6195528385865533,3.6085625539091266,0.0,4.532283111202217,4.185641889945247,211.5647431317123,217.5569539823043,0.0
0.022,3.393653151219785,-0.5777470736712047,4.824446632050247,0.0,4.554975638794488,4.373934846506375,210.52427976817768,217.5569539823043,0.0
0.023,3.668519686633923,-0.5773133380513595,5.415005055958827,0.0,4.594598556014613,4.5698443815526195,212.48813473079588,217.5569539823043,0.0
0.024,4.014655758971485,-0.6063597445956059,4.483765767164811,0.0,4.653049577093418,4.6064570462068355,213.23269108084102,217.5569539823043,0.0
0.025,4.270446420905289,-0.5948934298636313,4.154730221156871,0.0,4.707765003843802,4.593696417241235,210.91470798838873,217.5569539823043,0.0
0.026000000000000002,4.435099502683262,-0.5366018168805564,5.380144227322175,0.0,4.74943541074177,4.710215357609255,207.97111775782494,217.5569539823043,0.0
0.027,4.660612434815152,-0.4876891446483067,6.947797704848861,0.0,4.793793193171027,4.956277295379825,210.3318188766634,217.5569539823043,0.0
0.028,5.030380948704464,-0.4931483152534968,5.839698496486045,0.0,4.859411026623307,5.006181962714582,218.7518424009262,217.5569539823043,0.0
0.029,5.268929217395765,-0.5555243014501099,1.617737850168425,0.0,4.930264310239412,4.581780643232631,216.1694058745664,217.5569539823043,0.0
0.03,5.037871433235125,-0.47549529949279856,2.9228315944257037,0.0,4.942165183468441,4.420486541336546,215.3531424941588,217.5569539823043,0.0
0.031,4.759164705129296,-0.38713158248726565,3.3530013995109615,0.0,4.927826840333923,4.339126840319814,217.67082045683054,217.5569539823043,0.0
0.032,4.514009858021067,-0.347255906173777,2.193023753429823,0.0,4.903283674186756,4.156750001872372,219.21225815178315,217.5569539823043,0.0
0.033,4.207135939621019,-0.31063454759173514,1.4057518642587317,0.0,4.85932754812867,3.9464609818598704,218.34693713492322,217.5569539823043,0.0
0.034,3.8488584575625886,-0.2625989297361697,1.8305125411625038,0.0,4.7938204282968515,3.843743428436363,217.6310990438305,217.5569539823043,0.0
0.035,3.554104543721172,-0.24920990104330198,2.187690136093609,0.0,4.723599828128204,3.8086290027473813,217.77201436969068,217.5569539823043,0.0
0.036000000000000004,3.3549325542856083,-0.2846825397783119,2.1150818692896496,0.0,4.660925725955303,3.777406654012184,218.4533380737749,217.5569539823043,0.0
0.037,3.2154774138834226,-0.3499577038242483,1.7654561763328402,0.0,4.6082223407838745,3.71865473192589,219.09076510349473,217.5569539823043,0.0
0.038,3.086900051755671,-0.4186446628043534,1.4314045502610133,0.0,4.561816915768314,3.6400072000227848,219.39917213983594,217.5569539823043,0.0
0.039,2.946004636515527,-0.4767990061074281,1.2587788505150925,0.0,4.517897388237533,3.5631482901522356,219.4530736242448,217.5569539823043,0.0
0.04,2.797163931706736,-0.5248073028591977,1.2128669118912532,0.0,4.475383291682442,3.5012227856410667,219.4443720386719,217.5569539823043,0.0
0.041,2.654230381185937,-0.5686925309162933,1.1983435241140312,0.0,4.435275346450504,3.4543342521654488,219.48705174313386,217.5569539823043,0.0
0.042,2.525772303662272,-0.6123964708298842,1.1577026942747555,0.0,4.398857923504122,3.4164995731320458,219.58218983318338,217.5569539823043,0.0
0.043000000000000003,2.412055141109734,-0.6557935087537238,1.0898812907412063,0.0,4.366635409721526,3.382976980722591,219.66623659184887,217.5569539823043,0.0
0.044,2.3093623753559864,-0.6967765909198643,1.0267650853130137,0.0,4.338357056735279,3.353478860221442,219.70449346118937,217.5569539823043,0.0
0.045,2.2153841479123977,-0.7338306319753584,0.9861612558539128,0.0,4.313622840691986,3.3295781346468223,219.69304352948578,217.5569539823043,0.0
0.046,2.130289084481216,-0.7665901417043973,0.9705253262338953,0.0,4.2922049793552,3.312700820764718,219.6753625287131,217.5569539823043,0.0
0.047,2.055487333864446,-0.7956166881584359,0.9581817411561491,0.0,4.274106497776537,3.301545259008327,219.63336583961754,217.5569539823043,0.0
0.048,1.9911387671522864,-0.820524560962111,0.9584159671307939,0.0,4.259151908723963,3.296174930809866,219.52439599243883,217.5569539823043,0.0
0.049,1.9377248428576188,-0.8409919681351776,0.993226470618805,0.0,4.247158081817802,3.298905035655222,219.32753802344195,217.5569539823043,0.0
0.05,1.897732944288992,-0.857639322190664,1.073949614705869,0.0,4.2382631829611634,3.312559157739724,219.32864126741353,217.5569539823043,0.0
0.051000000000000004,1.8741243054558945,-0.8736589585030676,1.0556811198689842,0.0,4.2332188726524524,3.3233386431431384,219.08174575667945,217.5569539823043,0.0
0.052000000000000005,1.8590075878029606,-0.8831613802876471,1.163880957492271,0.0,4.230642011948131,3.3460471686157636,218.88010976249709,217.5569539823043,0.0
0.053,1.8589623811114493,-0.8901296191249143,1.2514673967815273,0.0,4.231265171915758,3.3746334709758163,218.68664461784306,217.5569539823043,0.0
0.054,1.8733673136916404,-0.8943792592682532,1.336903062753153,0.0,4.235082424150022,3.407360523309876,218.3947265973742,217.5569539823043,0.0
0.055,1.9005514692536847,-0.8952526950513175,1.4744843468368891,0.0,4.241844237928969,3.448629972437428,217.77466172760245,217.5569539823043,0.0
0.056,1.9435888824016656,-0.8935183590085859,1.7823397042697766,0.0,4.2518573039202465,3.5144746606162416,217.37617948416673,217.5569539823043,0.0
0.057,2.0172690860135463,-0.8956588259579055,1.9833885709690136,0.0,4.26770632685513,3.5860985600730624,217.3241317266763,217.5569539823043,0.0
0.058,2.1141288178921074,-0.8995085900281343,2.0117406722705002,0.0,4.28953490682044,3.6433354458833396,217.32924179946596,217.5569539823043,0.0
0.059000000000000004,2.2142297792715717,-0.8946620796107451,2.0114627577040594,0.0,4.31433270358363,3.6866749010608393,217.16063375789335,217.5569539823043,0.0
0.06,2.306731246358915,-0.8755163044587527,2.099729980734474,0.0,4.338927096025707,3.7286982123101047,216.77346787788034,217.5569539823043,0.0
0.061,2.3959044205798787,-0.8449226357909468,2.3011477817852213,0.0,4.362090534546563,3.781367883070496,216.26345454522104,217.5569539823043,0.0
0.062,2.494314897515736,-0.8103885750606853,2.569089442485703,0.0,4.384711786297722,3.8486129145527457,215.7493891697669,217.5569539823043,0.0
0.063,2.612742586598786,-0.7783023024730745,2.8441977783381382,0.0,4.408611266644654,3.9269351273688735,215.30091185678174,217.5569539823043,0.0
0.064,2.754690324898216,-0.7508644514251338,3.090996856085952,0.0,4.435255719349111,4.009781907809709,214.91466596321897,217.5569539823043,0.0
0.065,2.9167214237506323,-0.7264875151359571,3.3105426830581917,0.0,4.465113320345874,4.0922865621756035,214.53023760894888,217.5569539823043,0.0
0.066,3.0926519251466273,-0.7021910857866415,3.5330240239267883,0.0,4.497806788814017,4.174071956265373,214.08493074708525,217.5569539823043,0.0
0.067,3.278423617140128,-0.6761275303791117,3.7903976872107927,0.0,4.5327854230429905,4.258358866240208,213.5670216403574,217.5569539823043,0.0
0.068,3.474281787988277,-0.6485780316851322,4.089251563994182,0.0,4.569925075544285,4.34832845658043,213.02538878478924,217.5569539823043,0.0
0.069,3.683040031218669,-0.6210056742286931,4.405383643753417,0.0,4.609590257496205,4.443796218095578,212.5243006727101,217.5569539823043,0.0
0.07,3.906232220493418,-0.5942749047900204,4.706254232888932,0.0,4.652171036340757,4.5411546072738,212.06478585875522,217.5569539823043,0.0
0.07100000000000001,4.1417446862708385,-0.5677056405310204,4.990933321101863,0.0,4.697574264844572,4.637666779887953,211.5559062492594,217.5569539823043,0.0
0.07200000000000001,4.386044795692907,-0.5400475599255964,5.305383603180216,0.0,4.745311691535416,4.736292910858908,210.91585499196907,217.5569539823043,0.0
0.073,4.639711568678321,-0.5114214908551671,5.691820221728737,0.0,4.795265701862576,4.8437333526872335,210.28717493001972,217.5569539823043,0.0
0.074,4.9090639818076705,-0.48367319031434747,6.078858043226259,0.0,4.84820230297107,4.957042847830308,218.94990728582957,217.5569539823043,0.0
0.075,5.173548948983792,-0.49385942462869126,1.7335623322860814,0.0,4.9085741622630055,4.55606232489345,215.8204897424214,217.5569539823043,0.0
0.076,4.9599274604488786,-0.4304916897795604,3.3156357463890007,0.0,4.915738470155515,4.444841286250795,213.76783179214857,217.5569539823043,0.0
0.077,4.740647024328059,-0.3646658833496222,4.379855943426966,0.0,4.904457082035705,4.4686869028827445,217.39453717275745,217.5569539823043,0.0
0.078,4.621745399567744,-0.3715840828015327,2.568127421217994,0.0,4.89810765439508,4.28997385398858,220.93830044408256,217.5569539823043,0.0
0.079,4.388209865505883,-0.3677028686167895,0.7624323209376587,0.0,4.874025749074263,3.972487883910224,219.11296489004894,217.5569539823043,0.0
0.08,3.9806055490339483,-0.2979971640501625,1.6595399888770195,0.0,4.812974621917209,3.8435822342550474,217.37744523334175,217.5569539823043,0.0
0.081,3.6334746646073297,-0.25611698398025173,2.5290949047202433,0.0,4.741228279748318,3.8422503550352527,217.64180860681097,217.5569539823043,0.0
0.082,3.429798359916097,-0.2853725730751322,2.3960646717405654,0.0,4.680160300475474,3.829481239406121,218.84017533814097,217.5569539823043,0.0
0.083,3.3014568499657027,-0.3547141938718752,1.7840490925171997,0.0,4.631257229963692,3.7579716290754765,219.7287555329422,217.5569539823043,0.0
0.084,3.167739859925159,-0.42173201846714015,1.3180409796102102,0.0,4.5867720499675375,3.657007389904138,219.93177272428085,217.5569539823043,0.0
0.085,3.004671731257925,-0.4706689542478715,1.1927841965211146,0.0,4.541351848743793,3.5691732158925786,219.77923334162782,217.5569539823043,0.0
0.08600000000000001,2.8335515845694217,-0.5094826015849907,1.2468310942543956,0.0,4.4954703820905415,3.5099707005904164,219.66693403483177,217.5569539823043,0.0
0.08700000000000001,2.6800856744124086,-0.5500933416346314,1.281880947127144,0.0,4.452335855504488,3.470585353642199,219.73740519192177,217.5569539823043,0.0
0.088,2.5522228554710154,-0.5963368908451223,1.224840856485971,0.0,4.414256929894876,3.4367304312129265,219.91362402704183,217.5569539823043,0.0
0.089,2.4427447165883343,-0.6443580058668765,1.1131647384785612,0.0,4.381420291763586,3.4015031034788974,220.06212553880198,217.5569539823043,0.0
0.09,2.3416273536553667,-0.6886525343904537,1.0138622670335122,0.0,4.352736771659398,3.366736462560059,220.1083892913652,217.5569539823043,0.0
0.091,2.24445750996968,-0.7267793480532562,0.965216037661293,0.0,4.327195943691419,3.337897582382288,220.06407704118536,217.5569539823043,0.0
0.092,2.153640549506431,-0.7591512742049681,0.9623009321624036,0.0,4.304504954242519,3.318572475328442,219.99998203324608,217.5569539823043,0.0
0.093,2.0737087883638745,-0.7878501530173181,0.9699181556226217,0.0,4.284983710440967,3.3076621497917524,219.96346011675988,217.5569539823043,0.0
0.094,2.0065442796388155,-0.814005226245126,0.96411405252117,0.0,4.268913627732836,3.3017648872011462,219.88781948592006,217.5569539823043,0.0
0.095,1.9510453781901949,-0.836282026237438,0.9786257129049196,0.0,4.256049724303334,3.301937900344111,219.6994126982672,217.5569539823043,0.0
0.096,1.9077381080555484,-0.8541007535991807,1.0514045195717232,0.0,4.246226804540947,3.312876584659664,219.56865174918485,217.5569539823043,0.0
0.097,1.8802944007498623,-0.8701137471788666,1.0966680164440898,0.0,4.240063287206503,3.3285760402589952,219.45578472483862,217.5569539823043,0.0
0.098,1.866310290931188,-0.8832889756201616,1.134113221191861,0.0,4.237375212358179,3.3470193511254775,219.29694536787127,217.5569539823043,0.0
0.099,1.8633103381578544,-0.8915179804932268,1.1961329858198653,0.0,4.237573714332962,3.369987399188961,219.07808877493812,217.5569539823043,0.0
0.1,1.8712603351154509,-0.894838463080001,1.2903499343601021,0.0,4.24033213395243,3.3995176601436534,218.79238241625148,217.5569539823043,0.0
0.101,1.8919234633565223,-0.8944728769575144,1.4208488293639499,0.0,4.24569431840608,3.4375900017929024,218.2759187812323,217.5569539823043,0.0
0.10200000000000001,1.9280188092392538,-0.8922424647767584,1.6718909988842663,0.0,4.25408582910063,3.494937120655096,217.6737067210044,217.5569539823043,0.0
0.10300000000000001,1.9908806616292685,-0.8915279822689711,1.9718295016112073,0.0,4.267316611657896,3.571317642001212,217.51180335413167,217.5569539823043,0.0
0.10400000000000001,2.085295109994801,-0.8965391075345941,2.0532326913293013,0.0,4.287420736698344,3.637581184513857,217.54827592784648,217.5569539823043,0.0
0.105,2.1910556552598823,-0.8971641630765715,2.0350831850164774,0.0,4.312159448342973,3.6857287921921866,217.4766589979135,217.5569539823043,0.0
0.106,2.2903643556825974,-0.8839822854617563,2.0716945998268788,0.0,4.337782792497921,3.72587790936557,217.16629174597253,217.5569539823043,0.0
0.107,2.381420760436139,-0.8564661543996438,2.2307848481606762,0.0,4.361963758314029,3.77268514488706,216.67153493565536,217.5569539823043,0.0
0.108,2.4754786289009845,-0.8214037163487907,2.487017443785751,0.0,4.384825644225703,3.834388634989837,216.12381735031363,217.5569539823043,0.0
0.109,2.5861238140415757,-0.7868085152244568,2.775207602776522,0.0,4.408116842813318,3.91011616452542,215.62754634582816,217.5569539823043,0.0
0.11,2.720733864990555,-0.7570407923910503,3.0426371813840154,0.0,4.4337231769953,3.993434759270141,215.21472629964836,217.5569539823043,0.0
0.111,2.878295478776269,-0.7317867580096207,3.2724694813004764,0.0,4.462620470679931,4.077603708156385,214.83953784967844,217.5569539823043,0.0
0.112,3.052498921867347,-0.7079714919333138,3.487237867611698,0.0,4.4946777909601465,4.159984928415375,214.42298539385723,217.5569539823043,0.0
0.113,3.2373110727362753,-0.6827385687473819,3.7268537814067706,0.0,4.529230032348546,4.242956523166164,213.92177738156235,217.5569539823043,0.0
0.114,3.431081285477135,-0.6554497969599982,4.0138095535616305,0.0,4.565874773408435,4.330788556486993,213.364549391417,217.5569539823043,0.0
0.115,3.6363961267177163,-0.6274670826808448,4.334347594543178,0.0,4.604833032841585,4.425244556959092,212.8291962380754,217.5569539823043,0.0
0.116,3.85629162995008,-0.6003102608670772,4.649301748656262,0.0,4.646633643121903,4.523455002926766,212.35961917081005,217.5569539823043,0.0
0.117,4.090166532462549,-0.5739271977836453,4.936063630403885,0.0,4.691444668249921,4.620891446532766,211.88846290852607,217.5569539823043,0.0
0.11800000000000001,4.333854292526144,-0.5468299717188005,5.228326672283659,0.0,4.738801370989437,4.717879759498395,211.28637184498385,217.5569539823043,0.0
0.11900000000000001,4.585260001380956,-0.5182468676606751,5.592078025427973,0.0,4.788248065565818,4.821777179495095,210.5908120833279,217.5569539823043,0.0
0.12,4.8497273183863445,-0.4896753818310964,6.009519325245709,0.0,4.840282800283562,4.935933208616228,213.73054319672642,217.5569539823043,0.0
0.121,5.130269529899034,-0.46816940367780946,4.477917876402231,0.0,4.8964497217030765,4.84301156582972,220.081713412698,217.5569539823043,0.0
0.122,5.175271243225552,-0.504229239665811,1.2770851741124982,0.0,4.941889428442201,4.4260784303495875,216.7227442400145,217.5569539823043,0.0
0.123,4.84375968774314,-0.4044679683638621,2.964911857877154,0.0,4.929757512756306,4.309968129564719,215.25318571968933,217.5569539823043,0.0
0.124,4.546395254071256,-0.32728932869447047,3.7227288006658865,0.0,4.8997357209099,4.300132236307949,217.69211434097863,217.5569539823043,0.0
0.125,4.354437834171825,-0.3234236473921037,2.5019128864344897,0.0,4.872079080375892,4.16455150505109,220.09073994811533,217.5569539823043,0.0
0.126,4.120017838234518,-0.3283911594818376,1.2772622232080324,0.0,4.834215113912491,3.9411263944080304,219.58002840233672,217.5569539823043,0.0
0.127,3.793450087304503,-0.3012396867558562,1.5123872518970107,0.0,4.774758695910373,3.8079459106139177,218.57490976693873,217.5569539823043,0.0
0.128,3.491169911403936,-0.2869483229066113,2.0047670117496623,0.0,4.706629336032896,3.7639334985356685,218.37235378037406,217.5569539823043,0.0
0.129,3.2788717731876815,-0.31587315638873803,2.0978910070513024,0.0,4.644236316256868,3.743159227006932,218.9534181986613,217.5569539823043,0.0
0.13,3.1389797626530083,-0.37917035360012297,1.793394155744112,0.0,4.592678614664001,3.6970623268333105,219.68504982597304,217.5569539823043,0.0
0.131,3.019342462449167,-0.44988687270054417,1.4062973836515535,0.0,4.54881283834199,3.62264485301773,220.1003234842791,217.5569539823043,0.0
0.132,2.885994982729145,-0.5091308802348897,1.1732268594787736,0.0,4.507701567908397,3.5429876087805914,220.1652989751781,217.5569539823043,0.0
0.133,2.738136823391455,-0.5546858366465595,1.1146556641005345,0.0,4.467154305224389,3.478003758403875,220.08641856544256,217.5569539823043,0.0
0.134,2.5922647633507676,-0.5937958009748739,1.128801223136925,0.0,4.428009930283107,3.432172635255313,220.0431034960718,217.5569539823043,0.0
0.135,2.4621962043416983,-0.6330603730697003,1.1255972626846242,0.0,4.392124883808247,3.399365116577953,220.08512129721268,217.5569539823043,0.0
0.136,2.351168207911636,-0.6739397808191999,1.0793066889651044,0.0,4.360651679244632,3.372102315633435,220.14976876302603,217.5569539823043,0.0
0.137,2.254873928613155,-0.7141263545776868,1.0210548082512116,0.0,4.333611244078865,3.347955763944206,220.180394883268,217.5569539823043,0.0
