timestamp,iq,id,iq_ref,id_ref,vq,vd,omega,omega_ref,r
0.0,0.0,0.0,0.0,0.0,0.0,0.0,0.0,101.53049008887372,0.0
0.001,0.0,0.0,10.0,0.0,0.0,1.0999999999999999,8.960926141082044,101.53049008887372,0.0
0.002,0.9135452533168124,-0.5277181219959888,10.0,0.0,0.1680489934195588,1.8895100221351504,19.547560871757607,101.53049008887372,0.0
0.003,1.837843946642063,-1.0517988484521499,10.0,0.0,0.45061578840089456,2.5243365376661324,30.689234471781234,101.53049008887372,0.0
0.004,2.581165941177958,-1.4686308571652087,10.0,0.0,0.8090192691310696,3.0514146486764533,42.083147461178534,101.53049008887372,0.0
0.005,3.128389124711889,-1.7717833304847153,10.0,0.0,1.2134686648672746,3.508863966415387,53.60612015056959,101.53049008887372,0.0
0.006,3.5196812096390993,-1.9850001678983193,10.0,0.0,1.6436403801860537,3.923443394447394,65.13356924788937,101.53049008887372,0.0
0.007,3.8021723198645088,-2.1354183035915155,10.0,0.0,2.0866666933282714,4.312420949932555,76.59959578890876,101.53049008887372,0.0
0.008,4.014156019381918,-2.2449030536122,10.0,0.0,2.534827271850127,4.686310085338761,88.01733833767044,101.53049008887372,0.0
0.009000000000000001,4.182526040112816,-2.328654374823672,8.28964339689879,0.0,2.9836785038934717,4.863086273430172,97.5343052312464,101.53049008887372,0.0
0.01,4.170451158681951,-2.3061416340295415,3.571121798687078,0.0,3.4020083168421555,4.5681480933092065,102.36283072450513,101.53049008887372,0.0
0.011,3.7167319900183435,-2.025783111873444,1.1485356457014022,0.0,3.7183970204546433,4.175025811387588,103.73239566801632,101.53049008887372,0.0
0.012,3.0635609333756895,-1.633014661423244,0.44173411815437946,0.0,3.923433681185761,3.8666439460631183,104.19079431726422,101.53049008887372,0.0
0.013000000000000001,2.4601841364850316,-1.2690780342768702,0.18593175124652594,0.0,4.041023144829719,3.64837342535136,104.3925421587086,101.53049008887372,0.0
0.014,1.9912343908542423,-0.9873652683210384,0.05643730982599093,0.0,4.09767757205443,3.4975532422384727,104.06233280702553,101.53049008887372,0.0
0.015,1.6624564189232545,-0.7807165051572044,0.19622355848600614,0.0,4.113670301956916,3.415628031382253,103.10877099156241,101.53049008887372,0.0
0.016,1.4626440407979369,-0.6488058041483573,0.6572216571906784,0.0,4.107427548304196,3.411498124847294,102.6077010164458,101.53049008887372,0.0
0.017,1.3861615855444838,-0.589558873673826,0.8969845354732613,0.0,4.0961980240211435,3.4353358155212224,102.37919012449831,101.53049008887372,0.0
0.018000000000000002,1.3822719495769922,-0.5721451275660623,1.002752981090762,0.0,4.08715217846668,3.4645667203384423,102.19383584950111,101.53049008887372,0.0
0.019,1.4096857353235348,-0.5721264585397917,1.0887966609830857,0.0,4.082106091817573,3.4953226576586776,102.09433967174247,101.53049008887372,0.0
0.02,1.448746549422263,-0.5778116119925387,1.1329062540337171,0.0,4.081265761135465,3.5224674593252314,101.96916032130913,101.53049008887372,0.0
0.021,1.4876536184925713,-0.5823906601937502,1.1911092269260342,0.0,4.083670787455828,3.5488858093878224,101.92866584895732,101.53049008887372,0.0
0.022,1.5247883989465159,-0.5849342916348739,1.207374705501103,0.0,4.088711155126926,3.5704142448312917,101.76504004589549,101.53049008887372,0.0
0.023,1.5563916202715917,-0.5834131453934019,1.2868421074618022,0.0,4.095207567174287,3.5957676263862326,101.73802369465328,101.53049008887372,0.0
0.024,1.5884911976741434,-0.5819729599003598,1.2982749470251118,0.0,4.103446467230587,3.616483328021742,101.31663228217094,101.53049008887372,0.0
0.025,1.6171446145209079,-0.5767616396574257,1.5111092313333074,0.0,4.112374204073016,3.6564179122984815,100.8313823599348,101.53049008887372,0.0
0.026000000000000002,1.6610372418348716,-0.5775856962263197,1.7607252697407647,0.0,4.1245453850838825,3.714039578377458,100.43300287964178,101.53049008887372,0.0
0.027,1.7253858455137718,-0.5855307509486689,1.9708898819795992,0.0,4.142127330055332,3.781098722780283,100.55217800532155,101.53049008887372,0.0
0.028,1.8035195040261807,-0.5978373510702262,1.921085439975234,0.0,4.165931270436064,3.8276787960975254,100.73572572463192,101.53049008887372,0.0
0.029,1.8668007442768957,-0.601337724073743,1.8372592239624677,0.0,4.19227479913962,3.8570788169373014,101.11956989762757,101.53049008887372,0.0
0.03,1.9095832324285527,-0.5927087332990669,1.6494463393771035,0.0,4.217939784341547,3.8622787721250185,101.05491034668015,101.53049008887372,0.0
0.031,1.9263195641539532,-0.5672540112317356,1.6865319122727516,0.0,4.238844537022396,3.874069600570253,101.29797885222393,101.53049008887372,0.0
0.032,1.9402165985138122,-0.5419809699070214,1.5673227718673548,0.0,4.256312409954635,3.8719266498031697,101.3915873632613,101.53049008887372,0.0
0.033,1.9430309413284381,-0.5127214884162603,1.5219075436047993,0.0,4.268853387966207,3.867770590335179,101.08280561506936,101.53049008887372,0.0
0.034,1.942246691579174,-0.48374385648794616,1.6807752624388095,0.0,4.276829717532617,3.8833282468700787,100.70798947008554,101.53049008887372,0.0
0.035,1.9598633155742242,-0.46407536194862997,1.8764083411186037,0.0,4.283690421715833,3.9161130610376187,99.87508032124407,101.53049008887372,0.0
0.036000000000000004,1.999700666843871,-0.4561290989675677,2.3094170132156333,0.0,4.292466132914958,3.9877741449508908,99.08349094117355,101.53049008887372,0.0
0.037,2.08411370072114,-0.46223471088502366,2.7296816947278946,0.0,4.308281461326227,4.086158659624322,99.7874515412728,101.53049008887372,0.0
0.038,2.2037522889131185,-0.48478744719254563,2.395131780154278,0.0,4.334773453238366,4.122967003890972,100.47971441891993,101.53049008887372,0.0
0.039,2.2787758754624883,-0.4862530904815936,2.0595080980302543,0.0,4.362232773784676,4.118114398395754,100.72417741277935,101.53049008887372,0.0
0.04,2.300828937118726,-0.4635190432384705,1.9453397278614835,0.0,4.3839455000972,4.105615100690672,99.90854833865085,101.53049008887372,0.0
0.041,2.299344496262528,-0.4309488600198125,2.369373682427967,0.0,4.398881644326341,4.144706243202095,98.56666485180203,101.53049008887372,0.0
0.042,2.3402586957678495,-0.41230537874049666,3.069953678223091,0.0,4.414508207275174,4.249689939522942,99.23417456699664,101.53049008887372,0.0
0.043000000000000003,2.4546762538862428,-0.4240608756851082,2.759161975844556,0.0,4.440550023037908,4.292368245889028,100.08721397899696,101.53049008887372,0.0
0.044,2.535008080296896,-0.4254916022784829,2.347075030943167,0.0,4.468295312816801,4.283468930955423,99.91920712059864,101.53049008887372,0.0
0.045,2.5568642515286335,-0.40360707894260783,2.447191289825075,0.0,4.489954537291566,4.291766873847706,98.1935556177721,101.53049008887372,0.0
0.046,2.578613975110919,-0.37564650212067996,3.3433863859493593,0.0,4.507420815391029,4.396807335001355,98.76167740120081,101.53049008887372,0.0
0.047,2.6899658544692557,-0.3792227409975295,3.0870136211117343,0.0,4.5343175038405805,4.44389621326261,99.74605210350171,101.53049008887372,0.0
0.048,2.7738256068579012,-0.3811240321555376,2.612670649815006,0.0,4.5634067909099185,4.431240819379266,98.77979928035872,101.53049008887372,0.0
0.049,2.795502854713626,-0.35767849245072103,3.123303969471653,0.0,4.585723587604878,4.482127088726145,97.70229887231433,101.53049008887372,0.0
0.05,2.8613220675704043,-0.33715258769485046,3.7003360856594405,0.0,4.608873937438931,4.581500269456229,99.33434831883062,101.53049008887372,0.0
0.051000000000000004,2.9779039895398443,-0.35042766987101537,2.906272780101726,0.0,4.641312088449523,4.567968063035416,98.50229637793534,101.53049008887372,0.0
0.052000000000000005,3.010529940028267,-0.3315364643572789,3.352580687658751,0.0,4.666942420288703,4.613644359910562,97.48595575038829,101.53049008887372,0.0
0.053,3.0775567600433895,-0.3075737848555533,3.9011963448171314,0.0,4.692130365941427,4.706154012797183,99.14737894049048,101.53049008887372,0.0
0.054,3.188407017274928,-0.31862424403906986,3.094315861249865,0.0,4.725505659622744,4.686165225101113,98.36175865221615,101.53049008887372,0.0
0.055,3.2103735161818987,-0.30362669517144303,3.5188133197536056,0.0,4.75178431019905,4.724968558506413,99.80905575236015,101.53049008887372,0.0
0.056,3.2469498978722564,-0.31489677211008704,2.812379113046742,0.0,4.78070511301018,4.676762949309153,101.60138147463398,101.53049008887372,0.0
0.057,3.1994636981101525,-0.32170918967290074,1.9155073380522243,0.0,4.802549939782995,4.550267673921139,100.22103720572919,101.53049008887372,0.0
0.058,3.0644464905634843,-0.2814033167085497,2.6187740013360656,0.0,4.805058986138023,4.539311490292889,101.27729283877783,101.53049008887372,0.0
0.059000000000000004,3.0062441943467153,-0.2739128343248969,2.093178157312707,0.0,4.805800615162161,4.469905700695933,102.35258317109765,101.53049008887372,0.0
0.06,2.91661749423342,-0.27305622357395465,1.5473120603305557,0.0,4.799508179965425,4.362002254783583,101.2867768387886,101.53049008887372,0.0
0.061,2.7918059408491267,-0.2482092370697353,2.082652358985933,0.0,4.780330041289172,4.341439007635843,101.43285565644024,101.53049008887372,0.0
0.062,2.7345739939343714,-0.25430708339191366,2.010589294484447,0.0,4.761932624726252,4.312781329880316,102.47020195381572,101.53049008887372,0.0
0.063,2.691542404758014,-0.2744285263939972,1.482519027147288,0.0,4.744661562311079,4.23194373482223,102.03023121640933,101.53049008887372,0.0
0.064,2.6095792781612257,-0.2742215649531008,1.6975069845751234,0.0,4.720809866443095,4.194977799052751,101.98155200787251,101.53049008887372,0.0
0.065,2.553621530596186,-0.28592562842258995,1.717335969653548,0.0,4.696936263181016,4.164690317023957,102.13511529465299,101.53049008887372,0.0
0.066,2.512674692673653,-0.3048649364180154,1.6345080742055142,0.0,4.674387555287065,4.129679439217592,102.36563343085528,101.53049008887372,0.0
0.067,2.471776626200059,-0.324677313784298,1.5108975726845526,0.0,4.652582598832209,4.087235221122514,102.51178492157936,101.53049008887372,0.0
0.068,2.423966744782658,-0.34061942822586455,1.4280088789954561,0.0,4.630269225028243,4.043823384192047,102.60960262610203,101.53049008887372,0.0
0.069,2.372777519570591,-0.35399766628512963,1.3683089013618388,0.0,4.607158189953728,4.001935998930575,102.7156103225689,101.53049008887372,0.0
0.07,2.3215407694805275,-0.36698567759726575,1.3034538507914493,0.0,4.58346441872426,3.960513343159179,102.80878974824672,101.53049008887372,0.0
0.07100000000000001,2.2706701015554334,-0.37961703107408895,1.2440811413588104,0.0,4.559257327809931,3.92006453428095,102.8876090808106,101.53049008887372,0.0
0.07200000000000001,2.2207158266103764,-0.3921466114821348,1.1911002851575008,0.0,4.534678005409326,3.8809919936759965,102.95017475428334,101.53049008887372,0.0
0.073,2.172191694842657,-0.40478478462858036,1.145620601767038,0.0,4.509914264430317,3.843733930025542,102.99973785820254,101.53049008887372,0.0
0.074,2.125598515465132,-0.4177439493141337,1.106146572114151,0.0,4.485200217568108,3.808477960628166,103.04113116119989,101.53049008887372,0.0
0.075,2.081199836445394,-0.4311084379449567,1.0703435098922145,0.0,4.460772480554917,3.7751505098348193,103.07844689590141,101.53049008887372,0.0
0.076,2.0389453057746727,-0.4447976109977815,1.0362060744711765,0.0,4.436826936313214,3.7435199547289777,103.11384405579284,101.53049008887372,0.0
0.077,1.9985496384630088,-0.45861014236747033,1.0026739548562698,0.0,4.413495377705234,3.7133317200036946,103.14788463985113,101.53049008887372,0.0
0.078,1.9596478473303103,-0.4723091482516054,0.9694797173173513,0.0,4.390846916819083,3.6843883483084894,103.18018699746132,101.53049008887372,0.0
0.079,1.921921965322597,-0.48568931914958524,0.9368315694263796,0.0,4.368903793591961,3.6565759429110942,103.21003379960607,101.53049008887372,0.0
0.08,1.8851645165557356,-0.4986091623408757,0.9051127312466829,0.0,4.347661123189876,3.6298539355541477,103.23675889785815,101.53049008887372,0.0
0.081,1.8492848492148748,-0.5109925947044861,0.8746874940307954,0.0,4.327103498220389,3.6042294631005634,103.25991168891836,101.53049008887372,0.0
0.082,1.814282078367814,-0.52281307465342,0.8458168825002428,0.0,4.307215606973236,3.579731668618953,103.27926456182945,101.53049008887372,0.0
0.083,1.7802080435531078,-0.5340729055000505,0.8186527013151428,0.0,4.287987101996281,3.5563936267668823,103.29473620849934,101.53049008887372,0.0
0.084,1.7471356395879953,-0.5447858238436506,0.7932744167839394,0.0,4.269413466041142,3.534243793203756,103.30453348991489,101.53049008887372,0.0
0.085,1.7151442913607802,-0.5549570302467045,0.7706353420657557,0.0,4.251493913846104,3.513403388293082,103.30981171513923,101.53049008887372,0.0
0.08600000000000001,1.6843845560166038,-0.5646445100744449,0.7502030131909283,0.0,4.234246187096522,3.493897560630509,103.31005951218802,101.53049008887372,0.0
0.08700000000000001,1.6549470292507218,-0.5738715599799962,0.7322834204333921,0.0,4.217690750946977,3.475781241735462,103.30451215333312,101.53049008887372,0.0
0.088,1.6269227019061734,-0.5826626653551222,0.7173168792162472,0.0,4.201853977615088,3.4591421882488937,103.29212255069781,101.53049008887372,0.0
0.089,1.6004267489863002,-0.5910576079659642,0.7058953559156609,0.0,4.186772508901173,3.4441109721746432,103.27146121031292,101.53049008887372,0.0
0.09,1.5756133009063384,-0.5991209231480376,0.6988163148937141,0.0,4.172499080695146,3.4308747713166143,103.24080208070234,101.53049008887372,0.0
0.091,1.5526890587066013,-0.6069512079246027,0.6970427597807198,0.0,4.159110073397518,3.4196840792327454,103.198924231528,101.53049008887372,0.0
0.092,1.5319199049324421,-0.6146860164600898,0.7012973429413476,0.0,4.146713423712406,3.4108146598194615,103.14787688574535,101.53049008887372,0.0
0.093,1.5135990097378222,-0.6224806770603877,0.710647147863956,0.0,4.13544956163515,3.4043860570225415,103.0422331779981,101.53049008887372,0.0
0.094,1.4978539166629035,-0.6304654345418942,0.7483515708463362,0.0,4.125469602202895,3.4030766680627185,103.02114212839972,101.53049008887372,0.0
0.095,1.4869148203013538,-0.6398946994429189,0.7439905752502673,0.0,4.11731407138218,3.401089317979283,103.04907782530816,101.53049008887372,0.0
0.096,1.476568803160285,-0.6483135163157314,0.7148368494317014,0.0,4.110607135842191,3.396350520859939,103.14341255120628,101.53049008887372,0.0
0.097,1.4636668935992838,-0.6539703390710914,0.6515402618593149,0.0,4.104635076478631,3.3860595724040543,103.24984015278905,101.53049008887372,0.0
0.098,1.4452588112115738,-0.6547330464632554,0.5811329604287789,0.0,4.0982584577914185,3.370984545542803,103.2210067675984,101.53049008887372,0.0
0.099,1.421154438796917,-0.6510049012369484,0.5786444862368576,0.0,4.090594275237988,3.3596771004938857,103.16100324016581,101.53049008887372,0.0
0.1,1.3990337703238065,-0.6469069936972573,0.5923411184402292,0.0,4.082152278057907,3.3524577257867034,103.06492479732576,101.53049008887372,0.0
0.101,1.3817638898725082,-0.6441448643785774,0.6250359927757352,0.0,4.073569687975458,3.350254038852015,102.9657513133736,101.53049008887372,0.0
0.10200000000000001,1.3709308597409522,-0.6435810014041298,0.6602701225068148,0.0,4.065590584573782,3.351980201639572,102.87884175649495,101.53049008887372,0.0
0.10300000000000001,1.3658873151769106,-0.6448154090494576,0.6902413842699284,0.0,4.05872343126176,3.3561267949055664,102.89137279814679,101.53049008887372,0.0
0.10400000000000001,1.3650111605232502,-0.6466544157129963,0.6703670363512777,0.0,4.053147599264075,3.356732064191338,102.80352517063068,101.53049008887372,0.0
0.105,1.362313249743812,-0.6464243032232206,0.7015604992917639,0.0,4.048146174954225,3.360637256390607,102.71766603988961,101.53049008887372,0.0
0.106,1.3619100440276104,-0.645946276868324,0.7326183051521404,0.0,4.043985130521146,3.366773584475187,102.62861120771873,101.53049008887372,0.0
0.107,1.364273370010372,-0.6454756702195816,0.7661645100491268,0.0,4.040806836872022,3.374995681872801,102.50364278599658,101.53049008887372,0.0
0.108,1.3690881030859885,-0.6455457181385962,0.8189171939389774,0.0,4.038780993665149,3.3870390859661637,102.44873422879694,101.53049008887372,0.0
0.109,1.3784796728881359,-0.6456274803489341,0.8371890311395644,0.0,4.038170368552248,3.39817301523519,102.3201315740318,101.53049008887372,0.0
0.11,1.387801918866061,-0.645644393019064,0.8935939436705496,0.0,4.03873524164915,3.4132227797128754,102.23044865061975,101.53049008887372,0.0
0.111,1.4010342599763679,-0.6451673326907763,0.931435819759117,0.0,4.040695958121316,3.4290602772345595,102.11671757303087,101.53049008887372,0.0
0.112,1.4155094936277262,-0.6450187528563179,0.9824390837119858,0.0,4.044032779519928,3.4472820846346757,101.98992370898776,101.53049008887372,0.0
0.113,1.4326643762823372,-0.6444150428261625,1.0412416795323995,0.0,4.048793177213718,3.4682313615798654,101.82143744047414,101.53049008887372,0.0
0.114,1.452757444215481,-0.6441331277974991,1.1225753402732044,0.0,4.055147489279797,3.4938817386771,101.62929343615198,101.53049008887372,0.0
0.115,1.4773920200089938,-0.6454225253318757,1.2176593089615013,0.0,4.0635760607280575,3.5247395365615692,101.5386496628807,101.53049008887372,0.0
0.116,1.507168983563904,-0.6491778084413435,1.2628995998570722,0.0,4.074647741986636,3.5543508838809403,101.60280591133059,101.53049008887372,0.0
0.117,1.537126555974192,-0.6519004701170775,1.2300983174075584,0.0,4.087835329804532,3.575050157286249,101.62620448112307,101.53049008887372,0.0
0.11800000000000001,1.559704424611035,-0.6482853379365232,1.2174418885888265,0.0,4.101349195024551,3.5917500779613,101.62101133416877,101.53049008887372,0.0
0.11900000000000001,1.5767106742285812,-0.6396298938176248,1.2191332496130252,0.0,4.114265718258799,3.6067990983201366,101.56101224216249,101.53049008887372,0.0
0.12,1.5912349702192066,-0.6278211525992949,1.248827574083277,0.0,4.126183084112678,3.6234567209852053,101.49144881852544,101.53049008887372,0.0
0.121,1.6072616542235794,-0.6153585631280667,1.2839996986052846,0.0,4.137321678218025,3.6415946161413,101.39853946039639,101.53049008887372,0.0
0.122,1.626126296261197,-0.6030292406863562,1.3317738839545823,0.0,4.147928602854572,3.6620211765514283,101.32129839400282,101.53049008887372,0.0
0.123,1.6488337765713823,-0.591533171741057,1.3724863341000757,0.0,4.15837621670891,3.6831572246329642,101.24987886897497,101.53049008887372,0.0
0.124,1.6743287001015572,-0.5802444470751811,1.4110022088129879,0.0,4.168765874962176,3.704476684223529,101.22301953344804,101.53049008887372,0.0
0.125,1.7016272732423567,-0.5688506615917018,1.4275065821307127,0.0,4.179108084192647,3.7233855921879986,101.2386901568436,101.53049008887372,0.0
0.126,1.7281485698771888,-0.5561849426736386,1.4225892697532316,0.0,4.189027672070363,3.7380875252859447,101.2745696274354,101.53049008887372,0.0
0.127,1.7513869225743854,-0.5415208658718319,1.4072087390717178,0.0,4.197939103211087,3.7483775327803337,101.27663595339583,101.53049008887372,0.0
0.128,1.7703898335423296,-0.5249189663413215,1.408714117446283,0.0,4.205308823806839,3.7569911428878693,101.13180755340164,101.53049008887372,0.0
0.129,1.7872725886696215,-0.507908561122559,1.4851151427980946,0.0,4.211097807775011,3.7722023490948593,100.86174322903959,101.53049008887372,0.0
0.13,1.810342796501443,-0.4937666438163768,1.6268347735774626,0.0,4.216443507115571,3.798927586899951,100.64111180283436,101.53049008887372,0.0
0.131,1.8460650490012875,-0.4858899558451145,1.7460442695404712,0.0,4.223202143798808,3.8315119734100644,100.3111698847669,101.53049008887372,0.0
0.132,1.8904173026961786,-0.4838851576555408,1.9232084306152704,0.0,4.232401594543591,3.8752882223146465,99.3198094368009,101.53049008887372,0.0
0.133,1.9492001401179013,-0.4840742634390236,2.440995461119,0.0,4.245099574722436,3.9647691335684714,99.12360357666027,101.53049008887372,0.0
0.134,2.052710834511872,-0.50011837040957,2.5631672563114454,0.0,4.2672388087177,4.044034430871809,99.95402591254415,101.53049008887372,0.0
0.135,2.1581947105701738,-0.5184430925239709,2.1637207301328005,0.0,4.296945927406654,4.061858166590293,100.43991066025623,101.53049008887372,0.0
0.136,2.2101096424987476,-0.508090378550147,1.9316841505629365,0.0,4.324142662040293,4.054684878363363,100.64336644392094,101.53049008887372,0.0
