timestamp,iq,id,iq_ref,id_ref,vq,vd,omega,omega_ref,r
0.0,0.0,0.0,0.0,0.0,0.0,0.0,0.0,65.94602335560879,0.0
0.001,0.0,0.0,10.0,0.0,0.0,1.0999999999999999,6.813777756083601,65.94602335560879,0.0
0.002,0.9253921771826671,-0.5056103616485546,10.0,0.0,0.16561713978134093,1.8882068605099065,16.541023027068675,65.94602335560879,0.0
0.003,1.9922368762190317,-1.1046579129147471,10.0,0.0,0.4543323786583343,2.506055753824783,26.803800542161373,65.94602335560879,0.0
0.004,2.9316156275759213,-1.6393528588964044,10.0,0.0,0.8287869515244362,2.9983280660369767,36.823584238505596,65.94602335560879,0.0
0.005,3.656399941200809,-2.0557578329736836,10.0,0.0,1.2554808960138313,3.408486117329393,46.67404150862025,65.94602335560879,0.0
0.006,4.17374511398889,-2.3525643001661303,10.0,0.0,1.7090059128339252,3.7706376320710677,56.534535850841586,65.94602335560879,0.0
0.007,4.5267810851732255,-2.5541200865159492,5.892223731473533,0.0,2.172596651272732,3.6564106023802743,63.628109110764115,65.94602335560879,0.0
0.008,4.388397504964322,-2.481788290787759,2.368616243960715,0.0,2.5684335575049806,3.2721988420961203,67.06676341013059,65.94602335560879,0.0
0.009000000000000001,3.7989322885776673,-2.152764460169209,0.6380816937322589,0.0,2.85079629367483,2.874326560814047,67.82204724660241,65.94602335560879,0.0
0.01,3.0150454017254638,-1.7100749382607394,0.2416795365864135,0.0,3.0197299189957403,2.598511794883284,66.85823578097698,65.94602335560879,0.0
0.011,2.2865630828462713,-1.2924276977758693,0.7144631451454446,0.0,3.102674403957233,2.495436272798829,65.52903833643275,65.94602335560879,0.0
0.012,1.774028706130914,-0.9911638334442872,1.3832317176093225,0.0,3.138054335542506,2.5288934165543027,66.19160464116784,65.94602335560879,0.0
0.013000000000000001,1.5164121104813668,-0.8227823016670279,1.0494927523861848,0.0,3.1577326584926153,2.5423563489478687,67.69957946268224,65.94602335560879,0.0
0.014,1.3776663202486934,-0.7333496670677905,0.27796978055825283,0.0,3.168635667898928,2.4875965541173466,68.28742806346744,65.94602335560879,0.0
0.015,1.2473252109158872,-0.661153330732,-0.03936856691293755,0.0,3.165925126230612,2.425161115331238,66.94944784584655,65.94602335560879,0.0
0.016,1.124961560133172,-0.5933222128770963,0.6195872969951328,0.0,3.1505026352498353,2.4565132852542795,65.54421341159778,65.94602335560879,0.0
0.017,1.095757791150199,-0.5667937294399894,1.3262226135596271,0.0,3.1375177883599066,2.5563170933502533,66.06536805714173,65.94602335560879,0.0
0.018000000000000002,1.1723768672634542,-0.5919445886168889,1.0644518437723254,0.0,3.1388436863124003,2.6002607620430993,67.64029460854618,65.94602335560879,0.0
0.019,1.2456422966590388,-0.625159464710892,0.2600458555407217,0.0,3.147833489117499,2.546782696181925,67.83751838094194,65.94602335560879,0.0
0.02,1.230663398044342,-0.6188989767068053,0.14251901908951048,0.0,3.149555702614581,2.497047858201635,66.42858663867727,65.94602335560879,0.0
0.021,1.1803389410190723,-0.5875142098334932,0.8421592573911607,0.0,3.142742491487903,2.5359803212334073,65.25943185431726,65.94602335560879,0.0
0.022,1.193129053818541,-0.5791473278555965,1.4336025645840849,0.0,3.139897338428234,2.6264904212793465,66.50190449752947,65.94602335560879,0.0
0.023,1.2791980008453847,-0.6073694787055217,0.8068074315587732,0.0,3.1495758160923972,2.623463415265053,67.9883471099606,65.94602335560879,0.0
0.024,1.3132013126625914,-0.6207442040545013,0.04316288779968813,0.0,3.159172743668602,2.541094334305733,66.98428762195014,65.94602335560879,0.0
0.025,1.2546377633501957,-0.5887453447414317,0.5348099891415021,0.0,3.155919448613327,2.536421504327693,65.24629290994817,65.94602335560879,0.0
0.026000000000000002,1.2252126724690862,-0.55952433423429,1.4108046495990971,0.0,3.1496298775031217,2.6259846939826446,65.75836714843834,65.94602335560879,0.0
0.027,1.2926948608861548,-0.5728214790307354,1.1566440924257155,0.0,3.154680478502112,2.661527708032743,67.36767644502655,65.94602335560879,0.0
0.028,1.3529927853820087,-0.5946189598097226,0.3377729132374341,0.0,3.165045072243937,2.6005293068283812,66.97847328079975,65.94602335560879,0.0
0.029,1.3253766342060993,-0.5779795646365882,0.5220499960989242,0.0,3.1662250582143097,2.5787671518995943,65.25342745240192,65.94602335560879,0.0
0.03,1.2963367758351751,-0.5480628052643103,1.3914988693299053,0.0,3.161986380515547,2.6560140391965565,65.56701983034971,65.94602335560879,0.0
0.031,1.3536032088165644,-0.5540354350398814,1.2384927156086034,0.0,3.166852416185392,2.6929974981406333,67.18522891497096,65.94602335560879,0.0
0.032,1.410337278542938,-0.5723230959037591,0.41699611770435374,0.0,3.1768821105799305,2.632266567184945,66.45928042911208,65.94602335560879,0.0
0.033,1.3818728665022058,-0.5537610535432957,0.7748377898987604,0.0,3.177611041171157,2.62988767470645,64.68491522212678,65.94602335560879,0.0
0.034,1.3707435721752088,-0.5291542736987068,1.6746314747262347,0.0,3.1755080640961104,2.724158031399568,65.89158988153604,65.94602335560879,0.0
0.035,1.4507799447427119,-0.5454014841394472,1.0718384797623326,0.0,3.1850756813448085,2.7245705944958694,67.44909991656563,65.94602335560879,0.0
0.036000000000000004,1.485192399772868,-0.5548545051862631,0.27805269663796706,0.0,3.194605153389009,2.6416251504857287,65.287224119441,65.94602335560879,0.0
0.037,1.4292742873276705,-0.5183335271488023,1.3655785875619562,0.0,3.1907752960331863,2.701988020833176,64.45804915382622,65.94602335560879,0.0
0.038,1.463561000616169,-0.5053131443714818,1.7950458123871733,0.0,3.1922976791225603,2.7879670346456455,66.91206355848666,65.94602335560879,0.0
0.039,1.5529137177193102,-0.5337717529210848,0.5583782080281738,0.0,3.205526376052474,2.715686344909601,65.9169463614791,65.94602335560879,0.0
0.04,1.529027233397031,-0.5186294104956838,1.0562275764732503,0.0,3.208253890563502,2.7226077408591847,64.0273240803884,65.94602335560879,0.0
0.041,1.531208036301054,-0.4941776586965894,2.0202257097708087,0.0,3.2088625239447377,2.829692296480528,66.30351985440511,65.94602335560879,0.0
0.042,1.627024481190491,-0.5178449607494373,0.8785528577744888,0.0,3.222966670293789,2.7803872639164906,66.18602324077908,65.94602335560879,0.0
0.043000000000000003,1.623891606107024,-0.5130869012829491,0.9349011657358013,0.0,3.229969839189689,2.7563409723475463,63.889727965558116,65.94602335560879,0.0
0.044,1.6091171057680353,-0.4799400428864501,2.1036117572467896,0.0,3.230269488210154,2.8649881750981345,66.115990578675,65.94602335560879,0.0
0.045,1.6990060145925434,-0.4977989714971638,0.9887807784576874,0.0,3.2436998433347757,2.818446583919715,65.80770968199087,65.94602335560879,0.0
0.046,1.695663040211181,-0.49162592046987647,1.1443043635359287,0.0,3.2502753789299854,2.807424707788292,63.7842248896086,65.94602335560879,0.0
0.047,1.693775721881194,-0.4612135991922516,2.1776647443870654,0.0,3.2518075485222644,2.9104511541448597,66.36196721738428,65.94602335560879,0.0
0.048,1.7831210759090745,-0.4818697606864493,0.8846341418814736,0.0,3.2660654467681107,2.8409143406145057,64.88409878288182,65.94602335560879,0.0
0.049,1.7619022209493256,-0.4642586326209514,1.6341876048599706,0.0,3.2698000881341907,2.878365712800313,64.30498331323642,65.94602335560879,0.0
0.05,1.7957489892245824,-0.4452674570348239,1.940155740106395,0.0,3.2749934845484243,2.9346710390915938,66.34939962359218,65.94602335560879,0.0
0.051000000000000004,1.8566150205026979,-0.46202020892133744,0.9139138222486825,0.0,3.2873307884137404,2.863562084320517,63.61085169626036,65.94602335560879,0.0
0.052000000000000005,1.8278828162473975,-0.42991332226257883,2.306539502508074,0.0,3.2876241813640874,2.968018202201054,65.47327367136631,65.94602335560879,0.0
0.053,1.9127187605798286,-0.43903089520979377,1.3800560117975227,0.0,3.2996578486982355,2.9365993308886957,64.74312791454633,65.94602335560879,0.0
0.054,1.9210836619156622,-0.4356808948883226,1.7571578446181368,0.0,3.306886586402899,2.9601999702547457,64.0890096196034,65.94602335560879,0.0
0.055,1.957945872199987,-0.4175075181326632,2.1027871294496574,0.0,3.3137869428337936,3.0124404283400006,65.85993007199544,65.94602335560879,0.0
0.056,2.016347861504454,-0.43358945366911106,1.218187836089774,0.0,3.3271720561066895,2.9533290644212675,63.108479297772725,65.94602335560879,0.0
0.057,2.000234115682183,-0.40015454226091896,2.62228866377949,0.0,3.329468862050157,3.0671209641346606,65.86626397584727,65.94602335560879,0.0
0.058,2.094999162434103,-0.4195194341792584,1.24419391853983,0.0,3.3453796645957166,2.9935466316168666,63.29659822143295,65.94602335560879,0.0
0.059000000000000004,2.0765727418159923,-0.39489546774031015,2.5555210470887504,0.0,3.3494396684074728,3.089922300933698,65.42112987088228,65.94602335560879,0.0
0.06,2.160134189726347,-0.402393892743813,1.4985041572113498,0.0,3.3638023051845116,3.038305251051698,63.38710417643626,65.94602335560879,0.0
0.061,2.153322722851073,-0.38475027188299893,2.541106196226086,0.0,3.369551190750923,3.1201274388613816,65.23030288294991,65.94602335560879,0.0
0.062,2.2307604991090333,-0.3885041089110234,1.6266640476958478,0.0,3.3834967648233505,3.0747413696611345,63.1890470513857,65.94602335560879,0.0
0.063,2.2270772758434787,-0.37074066669986083,2.674861726520186,0.0,3.389517657555004,3.160914163265927,65.29941656557402,65.94602335560879,0.0
0.064,2.30897530515965,-0.3781146909536278,1.626143037326373,0.0,3.4045425174639963,3.104185118726407,62.790009886268464,65.94602335560879,0.0
0.065,2.299860975919406,-0.3538313543320002,2.9124065116725544,0.0,3.409647079657221,3.208429190211344,65.52415921428049,65.94602335560879,0.0
0.066,2.392313498233122,-0.3702690362736296,1.5495504890798257,0.0,3.4267165711594125,3.1297215927915376,62.32774392148378,65.94602335560879,0.0
0.067,2.373205212371099,-0.33469133049550026,3.18394092981943,0.0,3.430130429314394,3.2570296496391746,65.61149832559053,65.94602335560879,0.0
0.068,2.476766931874142,-0.3628150526179661,1.5454089780662366,0.0,3.4493830938298924,3.163782995513344,62.16539934879396,65.94602335560879,0.0
0.069,2.4553970326511982,-0.31840663764875365,3.3062647065326702,0.0,3.452219663613421,3.2952520290100393,65.32570383085005,65.94602335560879,0.0
0.07,2.5571693380311924,-0.3519367787309864,1.7323156607522154,0.0,3.4720518794370046,3.211706211230875,62.44744935224461,65.94602335560879,0.0
0.07100000000000001,2.547657249569183,-0.30676275078510384,3.2064286400885744,0.0,3.476241847415442,3.3184541677814106,64.6236828059869,65.94602335560879,0.0
0.07200000000000001,2.630797299823486,-0.3352616510214582,2.1315353187136474,0.0,3.494274233556548,3.272726403917538,63.13087889890837,65.94602335560879,0.0
0.073,2.6476474564220984,-0.2991514868032936,2.9060887168199177,0.0,3.5016734976307946,3.328302345336298,63.4598714636548,65.94602335560879,0.0
0.074,2.698690208343405,-0.3122381863025805,2.766453953366243,0.0,3.515691068026597,3.3505090599142813,64.31173603510092,65.94602335560879,0.0
0.075,2.757349302783648,-0.3002078924195686,2.3568645408482607,0.0,3.529073353518491,3.3222962994623924,62.05559560199858,65.94602335560879,0.0
0.076,2.7629455979603943,-0.27816915161028755,3.523839034935532,0.0,3.5359921758658164,3.4306771305546206,64.54214478703422,65.94602335560879,0.0
0.077,2.863041759528648,-0.3061530530936445,2.29460322810346,0.0,3.556355815658895,3.3710714622592173,62.98700363063864,65.94602335560879,0.0
0.078,2.874826265655529,-0.2663223885895387,3.101764003550951,0.0,3.564061312532841,3.420247434081935,62.46331433354524,65.94602335560879,0.0
0.079,2.918909582075766,-0.2744008402694307,3.398435742318285,0.0,3.5772007932314915,3.4851073221747466,64.62439181448914,65.94602335560879,0.0
0.08,3.0083779784885527,-0.2838643504140781,2.3311133172575307,0.0,3.596472516268671,3.4150222949425837,62.685372907589866,65.94602335560879,0.0
0.081,2.996638404269077,-0.24692836909825067,3.333229275187359,0.0,3.6026509712327295,3.4769649594885133,63.644645830096344,65.94602335560879,0.0
0.082,3.027701644111804,-0.28434139523593416,2.876606589189244,0.0,3.618890639843278,3.46954719591227,65.72847960356313,65.94602335560879,0.0
0.083,3.040480012887248,-0.2890103302107938,1.8368651399763074,0.0,3.632904017821005,3.353594854834394,63.124542868735354,65.94602335560879,0.0
0.084,2.9395473225207036,-0.25098155613138107,3.16704831225893,0.0,3.6296909693946886,3.4185870287333695,65.40352515950457,65.94602335560879,0.0
0.085,2.936367457952541,-0.28119458516788276,2.0329821488353654,0.0,3.637002164135709,3.3380500288992296,64.86745457953919,65.94602335560879,0.0
0.08600000000000001,2.8725638145172416,-0.25235858380158005,2.3118031265787526,0.0,3.632054448978556,3.315295419840814,64.14089988108772,65.94602335560879,0.0
0.08700000000000001,2.8104554724933912,-0.2572305536243522,2.6931317105496966,0.0,3.6261503211254444,3.339673315820167,66.36805613785472,65.94602335560879,0.0
0.088,2.8062675889720134,-0.27225243948730493,1.5753332543437355,0.0,3.624878083402277,3.234091477161021,63.81074997086589,65.94602335560879,0.0
0.089,2.7120700579513985,-0.24744316854997206,2.8753390716855796,0.0,3.610295646923775,3.3034390726421896,66.45391156386364,65.94602335560879,0.0
0.09,2.7229108874156682,-0.28637519604296746,1.5486793931041565,0.0,3.608636829374843,3.2033265755587403,64.37073415859555,65.94602335560879,0.0
0.091,2.648817135562063,-0.2632818133779202,2.6060209877083333,0.0,3.5942030515043752,3.250892339619555,66.2319828688335,65.94602335560879,0.0
0.092,2.64753510659195,-0.3001803725907659,1.6725370374571138,0.0,3.5902590031670987,3.1784015846817435,64.82091408230508,65.94602335560879,0.0
0.093,2.592278971167867,-0.28687371705681386,2.38932252345436,0.0,3.5776275664689026,3.2070120979731396,66.34131941346548,65.94602335560879,0.0
0.094,2.5841089671371384,-0.3192861172277033,1.6251668972955904,0.0,3.572818755343807,3.140619581617282,64.94304824868725,65.94602335560879,0.0
0.095,2.529446349888409,-0.30809794763153686,2.3343322307539243,0.0,3.560296751038347,3.1719663665835567,66.72699443558018,65.94602335560879,0.0
0.096,2.525171208627379,-0.3399083484311569,1.4345494265077436,0.0,3.5557726514439785,3.0927821501872206,64.83201561133427,65.94602335560879,0.0
0.097,2.459118037384146,-0.3260988817852941,2.393178916073444,0.0,3.541945394830374,3.1427341147899153,67.16832539485233,65.94602335560879,0.0
0.098,2.46783865689149,-0.35998085219526343,1.212801003921978,0.0,3.5383611717499543,3.0452604921804225,64.74107035130966,65.94602335560879,0.0
0.099,2.3888014758808818,-0.34489185904824815,2.4384780557363053,0.0,3.5233893997663546,3.112585360451167,67.43768857804872,65.94602335560879,0.0
0.1,2.409736087443023,-0.37885982830561393,1.0752522901423751,0.0,3.520534658357971,3.00637578088106,64.91139966532506,65.94602335560879,0.0
0.101,2.3249745564225712,-0.3667946027981608,2.3487429834070412,0.0,3.505677578635022,3.07375103357005,67.39099799502829,65.94602335560879,0.0
0.10200000000000001,2.3465645381822338,-0.3951266615852663,1.094494072161235,0.0,3.5022809108749224,2.978978252544392,65.43193087178501,65.94602335560879,0.0
0.10300000000000001,2.26860272563351,-0.39092349685704475,2.0791685586211095,0.0,3.489000963080292,3.0229914646662914,67.00364560788475,65.94602335560879,0.0
0.10400000000000001,2.275325951579332,-0.40798222380337723,1.2827349680484816,0.0,3.4833688228886928,2.962301747989421,66.18449395348425,65.94602335560879,0.0
0.105,2.2179129269271414,-0.415960459656027,1.689926089269977,0.0,3.472937943722894,2.9662558131723684,66.30722819262446,65.94602335560879,0.0
0.106,2.199965230766847,-0.4202200576723929,1.6249469213297127,0.0,3.4643343324152447,2.958951880565908,67.38699624037628,65.94602335560879,0.0
0.107,2.1779034455675106,-0.4427759015226279,1.0706531686061314,0.0,3.4582992358210767,2.8934427783794616,65.69558478080472,65.94602335560879,0.0
0.108,2.1121177116060843,-0.4312102029676952,1.9188632841399493,0.0,3.444818953388135,2.9397429398719623,67.50295461967352,65.94602335560879,0.0
0.109,2.1216224042726353,-0.45403377539016476,0.9996090520649048,0.0,3.4399429652997573,2.868761616755389,66.48521190840636,65.94602335560879,0.0
0.11,2.0576703311350943,-0.4565955364631228,1.5030885221705095,0.0,3.4285100017023633,2.8760958861457997,66.37338287309824,65.94602335560879,0.0
0.111,2.038507810000601,-0.460073463099844,1.5547294446496744,0.0,3.419310715723059,2.8836674956025,67.8712018244263,65.94602335560879,0.0
0.112,2.0306449700248614,-0.48410949356548283,0.786568184297471,0.0,3.414397703372207,2.8052211548380517,66.19331208896257,65.94602335560879,0.0
0.113,1.9561328785812395,-0.47401440507323134,1.6230401646957944,0.0,3.4007805381411926,2.8419393790213423,66.92188884962314,65.94602335560879,0.0
0.114,1.9559649133273562,-0.48629221300703407,1.2489931294253642,0.0,3.3936484216092477,2.823387525842963,67.77801220830308,65.94602335560879,0.0
0.115,1.932688898502962,-0.5058303538507541,0.8026115615584528,0.0,3.387400748826132,2.763174826194715,66.29345837004857,65.94602335560879,0.0
0.116,1.8689686623986002,-0.49598063262267256,1.5414141305413114,0.0,3.3744777226129767,2.8008671933229996,67.14159055120635,65.94602335560879,0.0
0.117,1.8731558563654973,-0.5111243267044862,1.1053923680064455,0.0,3.3683805392952464,2.777049807851075,67.871695695782,65.94602335560879,0.0
0.11800000000000001,1.8475327993211934,-0.5280952278953552,0.7210830723168906,0.0,3.3622266979522735,2.719951045908609,66.50830356948269,65.94602335560879,0.0
0.11900000000000001,1.7847378853292046,-0.5181982797865752,1.3971563333278028,0.0,3.349719991245476,2.752809137662864,67.04746491078863,65.94602335560879,0.0
0.12,1.7848438129027717,-0.5306424949425841,1.1165612471230335,0.0,3.343217597533035,2.742864956305369,68.07878760605405,65.94602335560879,0.0
0.121,1.7706126552174233,-0.548933347433338,0.5795722569858728,0.0,3.3382585766785087,2.678568602280462,66.89494121129682,65.94602335560879,0.0
0.122,1.7045817880272738,-0.5400314362439643,1.1620062758076048,0.0,3.3262037037512067,2.696764697358418,66.71692464519131,65.94602335560879,0.0
0.123,1.6905693486512758,-0.5449399493866889,1.2433055459645357,0.0,3.3178028831820234,2.7159353348243522,67.96533046307306,65.94602335560879,0.0
0.124,1.6976586977109356,-0.566478215175856,0.5989095659490198,0.0,3.3144793325217323,2.6597323231931758,67.69269773523399,65.94602335560879,0.0
0.125,1.6457934388694144,-0.5676681668848902,0.7177591860723014,0.0,3.305783347794457,2.6341107476359675,66.681156320478,65.94602335560879,0.0
0.126,1.598887980017739,-0.5592752251605713,1.2161785638016072,0.0,3.294459680877422,2.6684603143960137,67.24440762744021,65.94602335560879,0.0
0.127,1.6063269755973248,-0.5743483209898165,0.9215690676021855,0.0,3.2894453072865555,2.6595639753268503,68.26508672776707,65.94602335560879,0.0
0.128,1.5972925695550626,-0.5903770791284697,0.3880388837171731,0.0,3.285655169584818,2.596381782160604,67.4338012518446,65.94602335560879,0.0
0.129,1.5332248429459976,-0.5810195553672781,0.7888038427160502,0.0,3.274736211141512,2.5955153477361104,66.68112292368434,65.94602335560879,0.0
0.13,1.5023340493621897,-0.577268134977424,1.1577920111154236,0.0,3.264503424094815,2.6329820198718052,67.40655227900379,65.94602335560879,0.0
0.131,1.519635037310119,-0.5964256470119935,0.780472044221749,0.0,3.2611854234940596,2.6182716514368534,68.34741904752735,65.94602335560879,0.0
0.132,1.509976874318187,-0.6109041237549552,0.28602470304078187,0.0,3.258129243431264,2.555319919732943,67.55177390637091,65.94602335560879,0.0
0.133,1.4459086314867036,-0.5990426869218549,0.6677897681113816,0.0,3.247633965385285,2.5522472988442635,66.74404152622743,65.94602335560879,0.0
0.134,1.41259420053431,-0.5927348109185544,1.0636757764769338,0.0,3.2373057010630064,2.5911861274858072,67.22754060091444,65.94602335560879,0.0
0.135,1.4301950080137278,-0.6099211913266613,0.8091110666803756,0.0,3.2338577266420327,2.5909680355374323,68.23310158127686,65.94602335560879,0.0
0.136,1.4345309348756197,-0.6265910976642687,0.2834597942424859,0.0,3.2323945663613753,2.5348500185915808,67.957227919365,65.94602335560879,0.0
