timestamp,iq,id,iq_ref,id_ref,vq,vd,omega,omega_ref,r
0.0,0.0,0.0,0.0,0.0,0.0,0.0,0.0,131.4256688430151,0.0
0.001,0.0,0.0,10.0,0.0,0.0,1.0999999999999999,8.295524890638825,131.4256688430151,0.0
0.002,0.41875691282864985,-0.21487483684362274,10.0,0.0,0.13363623205279848,1.9439367395888483,18.574491414161567,131.4256688430151,0.0
0.003,0.7798691693759293,-0.40565136024398335,10.0,0.0,0.35713918406480527,2.6813086493321783,29.44041854637181,131.4256688430151,0.0
0.004,1.0710031370210653,-0.5595683076298302,10.0,0.0,0.647052130828384,3.338880049426882,40.62972469410076,131.4256688430151,0.0
0.005,1.3056061068007083,-0.6816497285994718,10.0,0.0,0.9856207097578776,3.936790617189165,52.08297379653669,131.4256688430151,0.0
0.006,1.4971852432147537,-0.7790980712145503,10.0,0.0,1.359621991048612,4.49003931076042,63.726369614329755,131.4256688430151,0.0
0.007,1.656306662174239,-0.8579871254813853,10.0,0.0,1.7592513261105998,5.009775698382219,75.4917713563052,131.4256688430151,0.0
0.008,1.790946481347958,-0.9228461185101897,10.0,0.0,2.1772369651190693,5.504282214828524,87.32116516800127,131.4256688430151,0.0
0.009000000000000001,1.9070753528095383,-0.9769593030157311,10.0,0.0,2.6081785522366427,5.979708865862008,99.16424477618655,131.4256688430151,0.0
0.01,2.009170757945338,-1.0226654411491751,10.0,0.0,3.0480551890954315,6.440617804653582,110.97475792928344,131.4256688430151,0.0
0.011,2.1006167380627367,-1.0615874954518238,10.0,0.0,3.493859420739455,6.890385409490317,122.70755252492039,131.4256688430151,0.0
0.012,2.1840066427648046,-1.094803578099582,6.287675189746893,0.0,3.943324538250977,6.923142518163887,130.96269513822838,131.4256688430151,0.0
0.013000000000000001,2.1082193608594437,-1.044443026145729,2.164733620140762,0.0,4.345247033337303,6.590340603223721,134.7628873781253,131.4256688430151,0.0
0.014,1.8807221730328725,-0.9108749015704027,0.23126531484120205,0.0,4.659508199237233,6.183825849241183,135.67908720937234,131.4256688430151,0.0
0.015,1.6205820596019966,-0.7577572611014978,-0.2693687844458912,0.0,4.886184513943087,5.839994059977436,135.22588909663062,131.4256688430151,0.0
0.016,1.3991036654616877,-0.6231373509063354,-0.08077193061118781,0.0,5.042533004535204,5.600726298246465,134.63254183900287,131.4256688430151,0.0
0.017,1.2398316672893441,-0.5203888914272095,0.18383296824281214,0.0,5.1493637384542605,5.443545867940948,134.13324775683375,131.4256688430151,0.0
0.018000000000000002,1.1324429032658776,-0.4469797195571529,0.4064042201891831,0.0,5.222745831639943,5.3448233868443085,133.64177163534333,131.4256688430151,0.0
0.019,1.0630462546546229,-0.39533234708078807,0.6299812530111117,0.0,5.2739703481436955,5.292238867973852,133.157832238602,131.4256688430151,0.0
0.02,1.0224841215466265,-0.35968868792320585,0.8546293174259099,0.0,5.3114096323274556,5.276278637553994,132.60105479840456,131.4256688430151,0.0
0.021,1.0047358324108127,-0.3344803338699259,1.1212641779707333,0.0,5.341092482696569,5.2942884030841375,132.77635982212402,131.4256688430151,0.0
0.022,1.0046893544728888,-0.3203206787815407,1.0201047563199142,0.0,5.368302546062596,5.2994992217929555,132.51622194242805,131.4256688430151,0.0
0.023,1.0032560051930937,-0.306955031253019,1.1392681651737722,0.0,5.3919840602856475,5.321186737799323,131.8546501251075,131.4256688430151,0.0
0.024,1.0085150656265212,-0.2980843440996869,1.4657642610131227,0.0,5.4146240555754535,5.377203759940674,131.79383726614307,131.4256688430151,0.0
0.025,1.0327726684053187,-0.2895114877619488,1.4924890062640557,0.0,5.439747446224791,5.426942094714747,132.01064645945573,131.4256688430151,0.0
0.026000000000000002,1.0540480251173554,-0.285609651234123,1.3782346334433213,0.0,5.466988857831922,5.459285993403022,131.6585340091417,131.4256688430151,0.0
0.027,1.0687565227862565,-0.27824613454811664,1.5519622069390673,0.0,5.493969549676982,5.50996703901946,131.38761123447387,131.4256688430151,0.0
0.028,1.0913108689916342,-0.27121762996014787,1.6878041703583986,0.0,5.522620776561365,5.5691494963940285,131.3737205841531,131.4256688430151,0.0
0.029,1.1177200947246924,-0.2669236487765225,1.6952689781074062,0.0,5.553923073610449,5.622062068569193,131.18701814626903,131.4256688430151,0.0
0.03,1.142444251396164,-0.26144760325368877,1.7910067040168998,0.0,5.586826972976463,5.6808145500277725,131.04761010048227,131.4256688430151,0.0
0.031,1.1698334686208236,-0.2556883210714023,1.8644913143356039,0.0,5.62173696996691,5.74134253082506,130.96084225300459,131.4256688430151,0.0
0.032,1.198377192624197,-0.25005582048490205,1.912523503974553,0.0,5.658646783095351,5.8009914905306355,130.82358353491233,131.4256688430151,0.0
0.033,1.2269303846052644,-0.2439841765170629,1.9871737161017082,0.0,5.697218955050906,5.863242323138212,130.6961069191949,131.4256688430151,0.0
0.034,1.2569651905035455,-0.23762739051106202,2.0582076431986236,0.0,5.737520463050684,5.927174222810976,130.59539322798545,131.4256688430151,0.0
0.035,1.2881696845840664,-0.23118730786370933,2.116867244953645,0.0,5.779540168986609,5.9913531539486495,130.47003971685356,131.4256688430151,0.0
0.036000000000000004,1.3198941865378226,-0.2245604017483417,2.189100291781206,0.0,5.823111238596496,6.057497551425522,130.34291982626664,131.4256688430151,0.0
0.037,1.35291591409535,-0.21775889664911374,2.263487727242153,0.0,5.868257744493318,6.125529758536335,130.2326896266057,131.4256688430151,0.0
0.038,1.387240095665578,-0.21094331460363114,2.330532619236721,0.0,5.915011121537526,6.194459016593389,130.10234295357648,131.4256688430151,0.0
0.039,1.4224110859789942,-0.20410572545825612,2.408939214645711,0.0,5.963298107697485,6.265599396005429,129.9798450987991,131.4256688430151,0.0
0.04,1.4590660134788338,-0.1971852807389658,2.484646379476561,0.0,6.01317756015498,6.338317826147715,129.8603786824428,131.4256688430151,0.0
0.041,1.496912410838787,-0.1903171930948242,2.5600324892604283,0.0,6.064654625187295,6.412491204514845,129.7489435051682,131.4256688430151,0.0
0.042,1.5359759506260349,-0.1833185670100752,2.6325173312762047,0.0,6.117700153560211,6.487695897669395,129.63727543961429,131.4256688430151,0.0
0.043000000000000003,1.5760427710732157,-0.17621160628488874,2.70623529808717,0.0,6.172249818992366,6.5640520874235095,129.5324184735254,131.4256688430151,0.0
0.044,1.6172001325839664,-0.168943994668749,2.777596284826504,0.0,6.228251769186193,6.641213512056934,131.17122233112258,131.4256688430151,0.0
0.045,1.6532503515486472,-0.17181464576670324,1.9607388211468455,0.0,6.286758114560917,6.622137107903238,132.29508134062456,131.4256688430151,0.0
0.046,1.641876571572694,-0.17337101332578142,1.3901151914197587,0.0,6.337648678903316,6.557830572056197,134.3185313230936,131.4256688430151,0.0
0.047,1.6050567479272557,-0.16946508552599804,0.34946157538445766,0.0,6.3765743174932075,6.4002145275627305,134.35187933104982,131.4256688430151,0.0
0.048,1.5298427714635783,-0.1495382015379949,0.3035254665260003,0.0,6.393692889814079,6.275511554738074,135.059140323051,131.4256688430151,0.0
0.049,1.465266371488172,-0.13481153768987097,-0.08643974427494938,0.0,6.395208643436983,6.128905188561106,135.2566131828057,131.4256688430151,0.0
0.05,1.3953417833298942,-0.12145477592370324,-0.2234856175502038,0.0,6.380590207924107,5.992981581109515,135.3133002685176,131.4256688430151,0.0
0.051000000000000004,1.3319188905039367,-0.11141408921074258,-0.2907054746611788,0.0,6.3528703472965935,5.869442037631614,135.3072859016918,131.4256688430151,0.0
0.052000000000000005,1.2762174542794313,-0.10633165568282898,-0.3265144618350555,0.0,6.315109857563097,5.757710601477168,135.2009640607427,131.4256688430151,0.0
0.053,1.2279239771810733,-0.10538887706575961,-0.31110649353777786,0.0,6.26989939187491,5.660184494467832,135.07515539875791,131.4256688430151,0.0
0.054,1.1874630477057924,-0.10838592643116207,-0.2846970281028103,0.0,6.2197964652709725,5.574608680576783,134.9447489323057,131.4256688430151,0.0
0.055,1.1535103204872403,-0.11455115534775984,-0.2546845957696162,0.0,6.166794454625496,5.4989476190160325,134.81668644404675,131.4256688430151,0.0
0.056,1.1247126469010609,-0.12301621275813579,-0.22456352765045162,0.0,6.112396042914466,5.431393872538882,134.69671208007037,131.4256688430151,0.0
0.057,1.0998733140212997,-0.13305670197835207,-0.19728677803281292,0.0,6.057701900966944,5.370299241196003,134.57559489201537,131.4256688430151,0.0
0.058,1.077956651460806,-0.14407719148325132,-0.168227444495318,0.0,6.003479559033225,5.314930857538465,134.4793832877689,131.4256688430151,0.0
0.059000000000000004,1.058399323128068,-0.155678909466896,-0.15065878681962452,0.0,5.950308597010274,5.263251176553254,134.38943998629287,131.4256688430151,0.0
0.06,1.0401902880457214,-0.16739423672125797,-0.135324847514382,0.0,5.898459431909243,5.214740834786824,134.30169509914415,131.4256688430151,0.0
0.061,1.0229539650643114,-0.17895628480947678,-0.12021266650131412,0.0,5.848098821158829,5.169119516382447,134.21646830573243,131.4256688430151,0.0
0.062,1.0065093136199068,-0.19024044699300208,-0.10550726442262714,0.0,5.799337777002326,5.126127289591063,134.13258402754215,131.4256688430151,0.0
0.063,0.9907275249597108,-0.20115929295899276,-0.09063427717275596,0.0,5.7522418460167595,5.085618705878042,134.04884826858358,131.4256688430151,0.0
0.064,0.9755442305954187,-0.2116559048066331,-0.07499819194915691,0.0,5.706850088602026,5.047534971433335,133.9645928924496,131.4256688430151,0.0
0.065,0.9609458049498842,-0.22169694746596913,-0.05825974437650405,0.0,5.6631886820583475,5.011859296949748,133.87808061773802,131.4256688430151,0.0
0.066,0.9469437602900616,-0.23126717073867964,-0.03952772476794997,0.0,5.621278162854081,4.978672427597489,133.7910189707343,131.4256688430151,0.0
0.067,0.9335955331814323,-0.2403683496812285,-0.019650402543288203,0.0,5.581145436085971,4.94794066304401,133.70331526226332,131.4256688430151,0.0
0.068,0.9209165389996955,-0.24899096153996841,0.001424987499728081,0.0,5.54281028105436,4.9196495290404565,133.61457151138168,131.4256688430151,0.0
0.069,0.9089261651088941,-0.25712415803663086,0.023907836256878978,0.0,5.5062879536216,4.893808503583125,133.52471256448794,131.4256688430151,0.0
0.07,0.8976544206040112,-0.2647624032176505,0.04784687248902153,0.0,5.471592631391327,4.870427801582844,133.4337423595525,131.4256688430151,0.0
0.07100000000000001,0.8871326125053828,-0.2719032810892021,0.07325123979137005,0.0,5.438737885298113,4.8495154090463,133.34153726406362,131.4256688430151,0.0
0.07200000000000001,0.8773902208722286,-0.2785470146487484,0.10019510332532433,0.0,5.407736776473403,4.831085007468462,133.247713689401,131.4256688430151,0.0
0.073,0.8684568538135753,-0.28469876696934965,0.12888644219277645,0.0,5.37860299379305,4.815169390266137,133.15623985407893,131.4256688430151,0.0
0.074,0.8603863738066218,-0.2903377788691085,0.15731764974316942,0.0,5.351349801446267,4.801570895088056,133.05692369907325,131.4256688430151,0.0
0.075,0.8530911402145548,-0.295497277758631,0.19066317868542848,0.0,5.325973233575205,4.790712397196309,132.95591769981496,131.4256688430151,0.0
0.076,0.8467555820896374,-0.30024195320712543,0.22586368974657556,0.0,5.3025187920125125,4.782564652291752,132.83318526136514,131.4256688430151,0.0
0.077,0.8413911033680911,-0.3046118909195203,0.2731547447879831,0.0,5.281028266509511,4.778262985743447,132.70623593009114,131.4256688430151,0.0
0.078,0.837441834371192,-0.30883267511295415,0.3238237395542254,0.0,5.261677213786136,4.777723886975988,132.58954262588688,131.4256688430151,0.0
0.079,0.8349697581740873,-0.31284562664059673,0.3705316538276384,0.0,5.244606573284458,4.780167209127064,132.49116425280138,131.4256688430151,0.0
0.08,0.8336698433015142,-0.31649104384599025,0.40906588627252327,0.0,5.229848195425371,4.784549091313078,132.40050476674395,131.4256688430151,0.0
0.081,0.8330882322446164,-0.31957509456674016,0.4446472700639512,0.0,5.217306634978023,4.790596535454724,132.30115105551494,131.4256688430151,0.0
0.082,0.8331033980485536,-0.3219989042482112,0.48556930355345995,0.0,5.206859753547327,4.7989232046343995,132.19289245880532,131.4256688430151,0.0
0.083,0.8339863909002598,-0.32386310361165876,0.5320263657503668,0.0,5.198471051010834,4.809976597704155,132.08457909331972,131.4256688430151,0.0
0.084,0.8360238387210802,-0.325207477166764,0.5795939459901206,0.0,5.192155797132394,4.823638355085916,131.99394951876988,131.4256688430151,0.0
0.085,0.8392916612700401,-0.32592582370798856,0.6192259265074913,0.0,5.1879038187639575,4.838847167393993,131.91069112998468,131.4256688430151,0.0
0.08600000000000001,0.8431746862372531,-0.3262299471535566,0.6560048980303939,0.0,5.185624189576773,4.855364813175861,131.8067768296751,131.4256688430151,0.0
0.08700000000000001,0.8476002574716239,-0.3259934422342354,0.7041509683185855,0.0,5.185195231110911,4.874483026891187,131.69091867522297,131.4256688430151,0.0
0.088,0.8531360180835225,-0.32538360687463164,0.7594275472225702,0.0,5.186656273022807,4.896680808409984,131.5701587474251,131.4256688430151,0.0
0.089,0.8600435121723277,-0.32456424184976757,0.818362612077409,0.0,5.190106957096252,4.922030540569434,131.4284900743316,131.4256688430151,0.0
0.09,0.8683867734839524,-0.32357531453216404,0.8891687363109968,0.0,5.19564695762361,4.95154100713404,131.06482194069744,131.4256688430151,0.0
0.091,0.8789847449192342,-0.32187414049146434,1.0746112721512482,0.0,5.203406764883392,4.997262700550248,131.4650966913745,131.4256688430151,0.0
0.092,0.8960120602976138,-0.32248022517807257,0.8740796183291263,0.0,5.21504644181475,5.013508273094708,131.43841240930593,131.4256688430151,0.0
0.093,0.9015996160295066,-0.31876741999156966,0.8872943237005042,0.0,5.2267322388900395,5.032307832230208,131.03526380294065,131.4256688430151,0.0
0.094,0.9073215715646428,-0.313371472905192,1.0927726772838877,0.0,5.238572986043711,5.072292947448599,130.75821616063703,131.4256688430151,0.0
0.095,0.9229615535560326,-0.3088670174734136,1.2379710252594756,0.0,5.252786639377224,5.121717482138296,131.00175262422124,131.4256688430151,0.0
0.096,0.9421206217017555,-0.30847278449323723,1.120441955655311,0.0,5.270523059772852,5.151289649880045,130.8782690226293,131.4256688430151,0.0
0.097,0.9543567127404669,-0.3039545444241033,1.1876577546551403,0.0,5.288949990825292,5.187092892140404,130.62764832674583,131.4256688430151,0.0
0.098,0.969117998685215,-0.2978738979326157,1.320948307759568,0.0,5.308490864285148,5.233646925587925,130.57526097711147,131.4256688430151,0.0
0.099,0.9875074327753889,-0.29500566390172817,1.3556460612357835,0.0,5.33047835446529,5.278108265497546,130.42378196753796,131.4256688430151,0.0
0.1,1.006449400727034,-0.2905415116305135,1.4414044347773083,0.0,5.354250855208856,5.327508941855248,130.33532426034526,131.4256688430151,0.0
0.101,1.0273752509532947,-0.28645298753823173,1.496536734200358,0.0,5.3801810773863945,5.3774413460072825,130.24133627235625,131.4256688430151,0.0
0.10200000000000001,1.0489757996339266,-0.28193751892992036,1.5553740539014513,0.0,5.408055701455393,5.428727512282151,130.14548273082946,131.4256688430151,0.0
0.10300000000000001,1.071409906712614,-0.2770270049565112,1.6161026857867045,0.0,5.437776477893985,5.48151255435495,130.0518325875017,131.4256688430151,0.0
0.10400000000000001,1.094772027374816,-0.27181289452903495,1.6766661200057134,0.0,5.46927923388871,5.53570036910751,129.95776252889507,131.4256688430151,0.0
0.105,1.11906330815331,-0.26632101989209306,1.73838021245023,0.0,5.502498530653431,5.591364174131982,129.8634130172047,131.4256688430151,0.0
0.106,1.1443391283997661,-0.26058641281650224,1.801177526553525,0.0,5.53738639021218,5.648536664538071,129.76958437468528,131.4256688430151,0.0
0.107,1.1706384986592966,-0.254645591251498,1.8646526924965292,0.0,5.573906568554268,5.707194814446041,129.6758698222395,131.4256688430151,0.0
0.108,1.197974003132996,-0.24852280734049542,1.9290079589271798,0.0,5.612026446038385,5.7673395830558505,129.5821863658562,131.4256688430151,0.0
0.109,1.22636460445101,-0.2422390234085922,1.9942845118904207,0.0,5.651718824241672,5.828969119614497,129.48875463274496,131.4256688430151,0.0
0.11,1.2558268248458546,-0.23581471244471341,2.0603695205487376,0.0,5.692961081913787,5.892064587530139,129.3953647961051,131.4256688430151,0.0
0.111,1.2863683015352048,-0.22926757305352624,2.1273674793377664,0.0,5.7357327183868625,5.9566187195697555,129.30179386857125,131.4256688430151,0.0
0.112,1.31800039428067,-0.2226138210644846,2.1953916928491286,0.0,5.78001616309171,6.022633170515973,129.20806965989064,131.4256688430151,0.0
0.113,1.3507381695718528,-0.21586945611328506,2.2644297890206793,0.0,5.825797365795952,6.090103634927231,129.10092351601082,131.4256688430151,0.0
0.114,1.384538294704299,-0.20914266497558814,2.3412503142306305,0.0,5.873074991295263,6.1597744139675115,128.99814390411598,131.4256688430151,0.0
0.115,1.4197999895561066,-0.2024068199177294,2.4169153695670444,0.0,5.92191825710368,6.231220043306226,128.90088583848924,131.4256688430151,0.0
0.116,1.4563407572239184,-0.19571690884657045,2.4907922324256693,0.0,5.972353227497881,6.304108373158055,128.808931570703,131.4256688430151,0.0
0.117,1.4940663078085188,-0.1889273798802441,2.562936739041908,0.0,6.0243535847622605,6.378164091275693,128.7186376381183,131.4256688430151,0.0
0.11800000000000001,1.5328390413573858,-0.18202626013961565,2.635154017383226,0.0,6.07786825023016,6.453348983674859,128.63180234210043,131.4256688430151,0.0
0.11900000000000001,1.572665634599815,-0.17497685785766182,2.706510330401313,0.0,6.1328435153375755,6.529500677108295,128.54633569385442,131.4256688430151,0.0
0.12,1.613492437973977,-0.16777855827025112,2.778036986015926,0.0,6.189215104345799,6.606596414257822,130.3329798649294,131.4256688430151,0.0
0.121,1.646676169395114,-0.17504275485947318,1.895641790259292,0.0,6.24853015278884,6.580599056081261,131.78672673002285,131.4256688430151,0.0
0.122,1.633135136171482,-0.17362323017237075,1.1651577788424894,0.0,6.299085170888448,6.4934250002371865,133.21083205918123,131.4256688430151,0.0
0.123,1.5851460149923968,-0.16836127195840636,0.4352534821016385,0.0,6.335302661437021,6.35218261225762,133.6181144641325,131.4256688430151,0.0
0.124,1.5166882573290945,-0.1481156656167753,0.20968782341482717,0.0,6.351599767017344,6.2182234947738975,134.188103936271,131.4256688430151,0.0
0.125,1.4486388803263126,-0.13357195570439268,-0.10293126358698301,0.0,6.351473898264317,6.07395841050692,134.36132735754046,131.4256688430151,0.0
0.126,1.3798252670413944,-0.11979650452307809,-0.21889955936696404,0.0,6.335564245429071,5.941365929816874,134.424624981428,131.4256688430151,0.0
0.127,1.3179375382294198,-0.11053632968895591,-0.28053793269486094,0.0,6.307105445088405,5.820940707840506,134.40675643236185,131.4256688430151,0.0
0.128,1.2638528901563888,-0.10599499515300803,-0.301414534055253,0.0,6.269043057533557,5.713362519611258,134.31092536110526,131.4256688430151,0.0
0.129,1.217503464112984,-0.10570161910716669,-0.28235156360786284,0.0,6.224042231891586,5.6195991945963115,134.19954239293898,131.4256688430151,0.0
0.13,1.1787882258466225,-0.1092496482389421,-0.25439881502396067,0.0,6.1745583732772715,5.537391474107284,134.08619180624586,131.4256688430151,0.0
0.131,1.1463286777931732,-0.11581587157143527,-0.2243287513097103,0.0,6.1224889327507395,5.464667717231671,133.97719388178507,131.4256688430151,0.0
0.132,1.1187597511413447,-0.12454327348913552,-0.19534503946701265,0.0,6.069248412566924,5.399604886107688,133.87686626237567,131.4256688430151,0.0
0.133,1.094892897235492,-0.13472066665101995,-0.16969320395591891,0.0,6.015857900517721,5.3406058155286384,133.77597313167544,131.4256688430151,0.0
0.134,1.0737297756268331,-0.14577374791397044,-0.14274968149240808,0.0,5.9630205976228385,5.286964144756346,133.69876124090936,131.4256688430151,0.0
0.135,1.0547320176830326,-0.15732808533365694,-0.12687466008831105,0.0,5.911263304243754,5.23675785005934,133.62712628680023,131.4256688430151,0.0
0.136,1.0369507948091332,-0.16894266793933796,-0.11307175747159781,0.0,5.860823171445302,5.189521981504614,133.55712862050225,131.4256688430151,0.0
