timestamp,iq,id,iq_ref,id_ref,vq,vd,omega,omega_ref,r
0.0,0.0,0.0,0.0,0.0,0.0,0.0,0.0,146.95116012236,0.0
0.001,0.0,0.0,10.0,0.0,0.0,1.0999999999999999,5.396085342422527,146.95116012236,0.0
0.002,0.8854497655545751,-0.504256778152474,10.0,0.0,0.16546824559677217,1.8926005257889966,10.613553295171025,146.95116012236,0.0
0.003,1.5029244934923758,-0.8524173902838931,10.0,0.0,0.42690481876569814,2.563420101141159,16.071275264940283,146.95116012236,0.0
0.004,1.9609729925608002,-1.108097174176333,10.0,0.0,0.7539228622598017,3.1490907886568484,21.661417048872412,146.95116012236,0.0
0.005,2.309437875615271,-1.3008174611997219,10.0,0.0,1.1254486038897125,3.6751455596250726,27.33184294211378,146.95116012236,0.0
0.006,2.5815235841633415,-1.4499143468864841,10.0,0.0,1.5269007030087645,4.159302648549722,33.061961906753005,146.95116012236,0.0
0.007,2.800480786216645,-1.568116668779047,10.0,0.0,1.9481345876596907,4.6138248033534275,38.794395521869106,146.95116012236,0.0
0.008,2.981387392495788,-1.6659698133750949,10.0,0.0,2.382279122012534,5.047307976471683,44.59362695847884,146.95116012236,0.0
0.009000000000000001,3.136382801260937,-1.7478163833123463,10.0,0.0,2.8243821114890566,5.465616856812023,50.32411752506216,146.95116012236,0.0
0.01,3.2734283369304507,-1.8174209048192527,10.0,0.0,3.2709437217183477,5.872780093229985,56.04402284946804,146.95116012236,0.0
0.011,3.396551774537492,-1.879920189004892,10.0,0.0,3.719744370611857,6.271710044249002,61.69846137871076,146.95116012236,0.0
0.012,3.509197312776953,-1.9377122162248055,10.0,0.0,4.16929007987025,6.664467290225199,67.32954242518646,146.95116012236,0.0
0.013000000000000001,3.615243056460097,-1.9898895820466542,10.0,0.0,4.618318532768629,7.052364806106862,72.93157839854906,146.95116012236,0.0
0.014,3.715484545635245,-2.0390744388919653,10.0,0.0,5.066122452560102,7.436409309317763,78.52007570927047,146.95116012236,0.0
0.015,3.8123787215253317,-2.08382391305594,10.0,0.0,5.511981024283102,7.817173809730566,84.01863593242703,146.95116012236,0.0
0.016,3.9065390124105037,-2.125020637354475,10.0,0.0,5.955414333806281,8.195059027035915,89.41199927456783,146.95116012236,0.0
0.017,3.9992577121376143,-2.161824414780793,10.0,0.0,6.395929282381585,8.570241599501916,94.72074405794085,146.95116012236,0.0
0.018000000000000002,4.0904188105110615,-2.195410037451518,10.0,0.0,6.833237374065478,8.942856875755044,99.9313512568293,146.95116012236,0.0
0.019,4.18044256888069,-2.2257878124130768,10.0,0.0,7.267081883225359,9.312950431114325,105.02450207438046,146.95116012236,0.0
0.02,4.2700433795539725,-2.2523176802996443,10.0,0.0,7.697165804723086,9.680463230263294,109.98451542203348,146.95116012236,0.0
0.021,4.3597957548401185,-2.274514906910003,10.0,0.0,8.123169010234212,10.0452563884724,114.79684319064017,146.95116012236,0.0
0.022,4.45020639373413,-2.2919696528840587,10.0,0.0,8.544749260806176,10.40712290488623,119.44816127556673,146.95116012236,0.0
0.023,4.541791949961225,-2.3042429844939436,10.0,0.0,8.961533656979675,10.765790489919832,123.92407530338656,146.95116012236,0.0
0.024,4.635086419269937,-2.3108737905811343,10.0,0.0,9.373113027392678,11.120923220005732,128.21175125676035,146.95116012236,0.0
0.025,4.730650384064266,-2.311375702889755,10.0,0.0,9.779036636066042,11.472121522690054,132.30204520666229,146.95116012236,0.0
0.026000000000000002,4.8290656213195255,-2.3052521804473156,10.0,0.0,10.17880910754875,11.818922319523146,136.19290946571914,146.95116012236,0.0
0.027,4.930916956457614,-2.2920274385942294,9.277963490647668,0.0,10.571890925187084,12.081376773299812,139.3356195731471,146.95116012236,0.0
0.028,4.973736151111056,-2.2366384833485267,7.782763842425809,0.0,10.945949468780752,12.195950769191262,141.37700046113198,146.95116012236,0.0
0.029,4.911154639501099,-2.110907021108626,6.817814995045653,0.0,11.280782986310264,12.252593001346963,143.21092269891034,146.95116012236,0.0
0.03,4.820022631658807,-1.9620058489644308,5.938256250390973,0.0,11.572675560988937,12.259351094348384,145.1785677444014,146.95116012236,0.0
0.031,4.711930733685169,-1.8007753423569723,4.972159651425033,0.0,11.819808343494502,12.2081263857765,145.98928197681258,146.95116012236,0.0
0.032,4.583095790038103,-1.6239591577563084,4.576421316674914,0.0,12.019267901652327,12.165958100300951,146.9655258822003,146.95116012236,0.0
0.033,4.484652895290099,-1.4671488199434044,4.0881557063826515,0.0,12.1790837001334,12.107741134389904,147.5696771423703,146.95116012236,0.0
0.034,4.389753315054408,-1.3298452557511402,3.7798949060975486,0.0,12.30356093349224,12.051755937868073,146.2460345885025,146.95116012236,0.0
0.035,4.3150310120168225,-1.2091357286113373,4.448767438370016,0.0,12.39808691151956,12.09774602841891,143.4469883039602,146.95116012236,0.0
0.036000000000000004,4.353822418363865,-1.1203545127226773,5.883332298825164,0.0,12.479200462322877,12.294688839316187,145.18792268123914,146.95116012236,0.0
0.037,4.532206130798254,-1.0981616555405835,5.030497484596905,0.0,12.57034353700444,12.352656951730092,145.5528771768839,146.95116012236,0.0
0.038,4.5901746370500565,-1.045353855481405,4.86200306622929,0.0,12.652582186024558,12.399343823929254,142.1145478141554,146.95116012236,0.0
0.039,4.65106832241408,-0.9692489407445124,6.629533870675584,0.0,12.72342219474211,12.639580586155756,144.61752778674983,146.95116012236,0.0
0.04,4.878453284849373,-0.9732960378764519,5.40138020773447,0.0,12.812408108642435,12.685702053049138,141.82389041929594,146.95116012236,0.0
0.041,4.9433951108454135,-0.9144196236259456,6.849471588492059,0.0,12.890590701303196,12.902811801920748,144.01683192366565,146.95116012236,0.0
0.042,5.160003216358827,-0.9012081533115159,5.782344118294145,0.0,12.981801511992959,12.950986426295412,140.55445875933327,146.95116012236,0.0
0.043000000000000003,5.238087958033638,-0.8309713526093245,7.577497714090601,0.0,13.061114770677111,13.205179599012075,142.5915760071472,146.95116012236,0.0
0.044,5.479399659017337,-0.8537871021381935,6.60253493133576,0.0,13.161128121219717,13.290923898573036,141.99697637918968,146.95116012236,0.0
0.045,5.606382775891856,-0.7754727932311059,6.949376582746231,0.0,13.250871835189088,13.414442286868502,139.00117758375796,146.95116012236,0.0
0.046,5.746275206082917,-0.7415642165137744,8.526775805848107,0.0,13.341046216241235,13.690510369606187,140.2447855472891,146.95116012236,0.0
0.047,6.015839755055768,-0.7721486349567068,7.972035569833249,0.0,13.453513339257828,13.842940487897561,140.80697049880197,146.95116012236,0.0
0.048,6.194360592035208,-0.7349351303768592,7.7523849903123905,0.0,13.565577432113688,13.955818498696308,143.06326070007054,146.95116012236,0.0
0.049,6.297347564088095,-0.7468414312619003,6.663118883901,0.0,13.679404744906993,13.94144899323469,145.3151870674039,146.95116012236,0.0
0.05,6.251779745196766,-0.7683805297563344,5.553515430783877,0.0,13.78266261370034,13.834777780618372,145.31021133114768,146.95116012236,0.0
0.051000000000000004,6.114927222244594,-0.7705700817192231,5.572412786824114,0.0,13.864953034083696,13.776872319174451,146.97823791700807,146.95116012236,0.0
0.052000000000000005,6.005918837969004,-0.8219759019502524,4.738128715947439,0.0,13.938856610990104,13.651648621597207,150.88518304136608,146.95116012236,0.0
0.053,5.861668134739709,-0.8207993792781045,2.7453159245783763,0.0,13.992203984751907,13.350248578638963,149.58316046516094,146.95116012236,0.0
0.054,5.56887789815405,-0.7621711274367255,3.3700072092529334,0.0,14.00363927436587,13.203731865572744,151.54194469955422,146.95116012236,0.0
0.055,5.399341783784472,-0.7954135537984994,2.3447072462843517,0.0,14.003522313130025,12.969701514216059,151.6995305928576,146.95116012236,0.0
0.056,5.185209219001166,-0.7691533850013172,2.2184305949276872,0.0,13.97679297005079,12.777284290834377,152.83665061410764,146.95116012236,0.0
0.057,4.99293783632267,-0.7959800211051,1.5910156793851904,0.0,13.936708370600694,12.552691507733625,152.62337742223582,146.95116012236,0.0
0.058,4.792261851517599,-0.7909150002166419,1.6409301023223426,0.0,13.877347534126768,12.37846592317823,153.72586026306297,146.95116012236,0.0
0.059000000000000004,4.628918601674069,-0.8256279059816425,1.0219416805017376,0.0,13.810369292687723,12.163099940436078,153.56004930277345,146.95116012236,0.0
0.06,4.441692890625278,-0.8335047940105125,1.0387582688423622,0.0,13.729071605743904,11.989573836476847,154.04595465510246,146.95116012236,0.0
0.061,4.288166039997001,-0.8649827435656554,0.7248576473504311,0.0,13.641934882669313,11.80558903643026,154.27616915207483,146.95116012236,0.0
0.062,4.1305468036668005,-0.8891649198903735,0.5365003085671001,0.0,13.547458611797689,11.62951159051966,154.55193712821793,146.95116012236,0.0
0.063,3.9812051883778063,-0.9143626874762856,0.32260855043697045,0.0,13.447352156093377,11.454801127424968,154.6877193383803,146.95116012236,0.0
0.064,3.835770780780549,-0.9363063939380942,0.17735185319557978,0.0,13.34194712968496,11.28821611463687,154.67480519035342,146.95116012236,0.0
0.065,3.698584294159688,-0.959244584210277,0.10657247652908541,0.0,13.232727868503902,11.135052105478165,154.57649976850274,146.95116012236,0.0
0.066,3.5737682503158785,-0.985320073304015,0.07947179099299895,0.0,13.121753054422667,10.996367189431526,154.42130803749302,146.95116012236,0.0
0.067,3.4620163956798713,-1.0139715679826566,0.08236617734653029,0.0,13.010898139668605,10.872087216507198,154.22277688997718,146.95116012236,0.0
0.068,3.362736320759043,-1.044439626316959,0.1089155834282769,0.0,12.901765690567503,10.76184452990029,153.99012181223745,146.95116012236,0.0
0.069,3.2750667493659957,-1.076036501314672,0.15485350539937048,0.0,12.795693193382224,10.665151396503987,153.72498343820894,146.95116012236,0.0
0.07,3.198086768190196,-1.1082154197878489,0.2196844592551357,0.0,12.693782344857915,10.58178345464862,153.43863891049153,146.95116012236,0.0
0.07100000000000001,3.131182263256094,-1.140632533094692,0.2979819352325217,0.0,12.59696988027953,10.511115330676313,153.12866114617196,146.95116012236,0.0
0.07200000000000001,3.073474249253712,-1.172876732617199,0.3911958071541868,0.0,12.50599454057615,10.45298216028592,152.7942420171408,146.95116012236,0.0
0.073,3.024479767683095,-1.204872194070175,0.4999745527219668,0.0,12.421500476568674,10.407410609090213,152.47161147008748,146.95116012236,0.0
0.074,2.9838666702632226,-1.2367889638843754,0.6060853127713459,0.0,12.344089553907406,10.372508698663562,152.13964556737713,146.95116012236,0.0
0.075,2.949730507358777,-1.2680556532124636,0.7201834096763498,0.0,12.274049700597551,10.348194417017801,151.95267133715092,146.95116012236,0.0
0.076,2.923710769439489,-1.2953417756753574,0.7636554126415467,0.0,12.21127121103174,10.325469327104823,151.83892774420715,146.95116012236,0.0
0.077,2.8996017079050245,-1.313207504351704,0.7716495328949566,0.0,12.15419043036098,10.301575329814389,151.56766049483485,146.95116012236,0.0
0.078,2.8706258485960072,-1.3295114956635656,0.8611181538563581,0.0,12.102043109785797,10.287070515197787,151.32099532144625,146.95116012236,0.0
0.079,2.8527225097185958,-1.3369108539067307,0.9407523885597993,0.0,12.0543109293001,10.278346138276515,150.76587613907233,146.95116012236,0.0
0.08,2.83538287996716,-1.3491565489765145,1.180164819579633,0.0,12.011752562046087,10.292988331947834,150.36602344207773,146.95116012236,0.0
0.081,2.837597511255892,-1.3648248130062877,1.3459425348797556,0.0,11.976515302977191,10.31733488816016,150.0186822651478,146.95116012236,0.0
0.082,2.8463810290157534,-1.3811083429412108,1.48893790191685,0.0,11.948870931088956,10.348850735424744,149.78235285926672,146.95116012236,0.0
0.083,2.8586292415871735,-1.3971575889551913,1.5787906774883154,0.0,11.928745162878197,10.381644944211281,150.6334616734632,146.95116012236,0.0
0.084,2.871245342860748,-1.4075711189260254,1.1164132548790509,0.0,11.914896388203816,10.356121822040977,151.1475661052827,146.95116012236,0.0
0.085,2.8473202867385305,-1.368917096323188,0.8173969791400717,0.0,11.89552410099382,10.306256035701246,149.86413185599122,146.95116012236,0.0
0.08600000000000001,2.804888086700661,-1.3187199346477052,1.4299843864494965,0.0,11.867967316312576,10.334242668278858,148.78528529889513,146.95116012236,0.0
0.08700000000000001,2.827227803734907,-1.3067000025724835,1.951066413232188,0.0,11.845144652445704,10.404986417129443,147.8076629395811,146.95116012236,0.0
0.088,2.8861301264775086,-1.315384975448444,2.431312564716997,0.0,11.83275417618768,10.50773392277244,147.1812861306514,146.95116012236,0.0
0.089,2.968057355482815,-1.3380711917836008,2.742199709098936,0.0,11.834286132187868,10.619939782629343,146.97233073245212,146.95116012236,0.0
0.09,3.0546548270912264,-1.359934217656811,2.8464657020976474,0.0,11.849063549256428,10.720732190299739,147.25986225064668,146.95116012236,0.0
0.091,3.1313666872084363,-1.3664753186174745,2.6996129217175024,0.0,11.872943356232112,10.788154303241338,147.50762181701444,146.95116012236,0.0
0.092,3.182496952898289,-1.3476052985585918,2.5701685215870773,0.0,11.899036280588305,10.833594618751096,147.52598356972723,146.95116012236,0.0
0.093,3.217799330815015,-1.3129032620234542,2.5552394107570082,0.0,11.923435420241576,10.873380478041547,147.2567994531756,146.95116012236,0.0
0.094,3.252350276177781,-1.272296720756762,2.6867750757246665,0.0,11.945253532684582,10.922798299412289,146.76461010512904,146.95116012236,0.0
0.095,3.2986344048892615,-1.2353030539926397,2.9347352499202586,0.0,11.966168378088977,10.990670667697454,146.04306103485342,146.95116012236,0.0
0.096,3.363731775731509,-1.2058643309148829,3.304590775933131,0.0,11.988910652910535,11.085353920308478,145.0715038106593,146.95116012236,0.0
0.097,3.454131714770319,-1.1859452448685575,3.809165951147202,0.0,12.016950313276718,11.215354769568123,144.04536447806987,146.95116012236,0.0
0.098,3.5771304969583193,-1.1753986446347964,4.351293573884815,0.0,12.054225157367007,11.377121920037132,143.66567568301326,146.95116012236,0.0
0.099,3.7297585309923447,-1.1694154050876546,4.573992815806587,0.0,12.103396541747308,11.52995638433042,144.09284357686042,146.95116012236,0.0
0.1,3.874558055937891,-1.1554547151290235,4.3889920343380044,0.0,12.161458390618934,11.635445794847977,144.90145604517915,146.95116012236,0.0
0.101,3.976507648345593,-1.123288789342556,4.005182840950449,0.0,12.22086435071823,11.686056985827605,145.0283353484121,146.95116012236,0.0
0.10200000000000001,4.02690547846854,-1.0784837884885135,3.960971437073451,0.0,12.27478394306948,11.731998225837163,142.7002735691205,146.95116012236,0.0
0.10300000000000001,4.077543314234697,-1.0302285304203986,5.167511192251647,0.0,12.32304567180761,11.906832604556211,141.73536820837884,146.95116012236,0.0
0.10400000000000001,4.256506337442763,-1.0060249484996726,5.702121791762286,0.0,12.381784824113225,12.096571932476325,143.52199746184704,146.95116012236,0.0
0.105,4.438666184193101,-1.0107349424516323,4.843098791633319,0.0,12.45438412913422,12.155124653915244,141.818515374558,146.95116012236,0.0
0.106,4.505832583475633,-0.9687907079891376,5.746166282755862,0.0,12.52091781006661,12.317442982283564,141.33040233041362,146.95116012236,0.0
0.107,4.679021049803012,-0.9302143159012728,6.046430382747511,0.0,12.593205994957554,12.475802154692964,142.1361833876955,146.95116012236,0.0
0.108,4.831238150013296,-0.9296780173065389,5.691689621453218,0.0,12.674428049675798,12.56851810724837,139.63077524513793,146.95116012236,0.0
0.109,4.951107935668755,-0.8636966367521197,7.017597541504224,0.0,12.749546905302724,12.79781844341861,141.21914209354202,146.95116012236,0.0
0.11,5.163573605039197,-0.8890766853258021,6.2807342975903575,0.0,12.843535528132625,12.895214069729297,140.1391997187732,146.95116012236,0.0
0.111,5.294261512441283,-0.8185154578231855,6.888825089010635,0.0,12.929849315799586,13.054276602066745,138.74303344332424,146.95116012236,0.0
0.112,5.450010154253344,-0.8149497651930704,7.668989493525474,0.0,13.023751364019308,13.26997596499427,140.53559025006845,146.95116012236,0.0
0.113,5.672281753221687,-0.805319810533194,6.836866788876281,0.0,13.128809505623526,13.35126806542606,139.63547627325772,146.95116012236,0.0
0.114,5.793570159977571,-0.7258388116705151,7.360080615772668,0.0,13.222844432782201,13.48969250922672,136.85726450326163,146.95116012236,0.0
0.115,5.9494916100800035,-0.6931653369194654,8.850125456961697,0.0,13.31851903937109,13.766412320181306,137.4482826150826,146.95116012236,0.0
0.116,6.21988094306136,-0.7267436536948572,8.649645176123986,0.0,13.436318515989353,13.959890719268358,141.3918181008247,146.95116012236,0.0
0.117,6.354609639767774,-0.8352368748986752,6.733470853468287,0.0,13.573284356019153,13.924910590116884,145.36184679289738,146.95116012236,0.0
0.11800000000000001,6.278860269684234,-0.8523878409971071,4.764349640726575,0.0,13.693857273189625,13.719363185384763,145.99491840023992,146.95116012236,0.0
0.11900000000000001,6.058185969759388,-0.7928508416987872,4.457376254276504,0.0,13.775097578586031,13.555868631751707,145.856568757308,146.95116012236,0.0
0.12,5.861709775410199,-0.7865439544631817,4.537496989392988,0.0,13.831766010476562,13.448136217128077,149.31392087457672,146.95116012236,0.0
0.121,5.718924062756283,-0.8177871653931413,2.7851933232364576,0.0,13.87549417979033,13.177030942975914,149.0501595436102,146.95116012236,0.0
0.122,5.464028780647176,-0.7584229051111562,2.8960839945072214,0.0,13.880896504017183,12.993740647577157,149.92262308470455,146.95116012236,0.0
0.123,5.266853659372459,-0.7790209211032653,2.430137594336595,0.0,13.870288990643425,12.796096913928615,150.57885448888337,146.95116012236,0.0
0.124,5.082887909075448,-0.7720498856842123,2.0657449485819552,0.0,13.840005061186176,12.599997556596168,151.70430539964687,146.95116012236,0.0
0.125,4.8912584170144,-0.7962341161720464,1.4554880404273343,0.0,13.795869564649255,12.37623499523553,151.421085586675,146.95116012236,0.0
0.126,4.6923268677199585,-0.7910199850247764,1.5523986922701236,0.0,13.732955964898888,12.207164056643293,152.42690207243538,146.95116012236,0.0
0.127,4.5352739979868915,-0.825596277643359,0.9947330298891739,0.0,13.66328216476385,12.0016830227326,152.31814888581113,146.95116012236,0.0
0.128,4.35705632899481,-0.8371788681257618,0.9954397355667903,0.0,13.580955963278125,11.833470521339624,152.74747426584372,146.95116012236,0.0
0.129,4.209213884656123,-0.8686090727792851,0.7228139041156556,0.0,13.493382628408735,11.658331233608298,152.99464934443427,146.95116012236,0.0
0.13,4.059618924000909,-0.8942032760493827,0.538791472599641,0.0,13.399553758566329,11.489409353239612,153.26787514387254,146.95116012236,0.0
0.131,3.9167455621759375,-0.9197921623457556,0.3390114226653762,0.0,13.300774423131196,11.32208131294013,153.3920849661773,146.95116012236,0.0
0.132,3.7775759115619834,-0.9421692924971276,0.21249726307482852,0.0,13.197345812663317,11.163569314020757,153.38037895494523,146.95116012236,0.0
0.133,3.646948100358795,-0.9658212406538,0.154058080365008,0.0,13.09078680634601,11.018379848170568,153.28695174506055,146.95116012236,0.0
0.134,3.528430250272567,-0.9924068306979685,0.13741376908034297,0.0,12.9830526494987,10.88753763125691,153.14251586076483,146.95116012236,0.0
0.135,3.4226399824133944,-1.0214445934311729,0.1477181538441532,0.0,12.875935984644972,10.77075789675039,152.96182134512355,146.95116012236,0.0
0.136,3.3288125241863353,-1.052157591489475,0.17795879943715676,0.0,12.770941064985047,10.667431014103133,152.74889080634176,146.95116012236,0.0
0.137,3.2459095172898014,-1.0837884547768661,0.22644676198823444,0.0,12.669285214007418,10.577149653355644,152.5115200622275,146.95116012236,0.0
0.138,3.17312923677738,-1.115821199453428,0.2895285346466885,0.0,12.571974105334345,10.499361759739461,152.2482242091753,146.95116012236,0.0
0.139,3.1096382359808423,-1.1477896277079047,0.368205820304635,0.0,12.479811517828193,10.433901435595871,151.95779592724983,146.95116012236,0.0
0.14,3.054928781536998,-1.1795876336688096,0.4633536032184722,0.0,12.393497253031448,10.380833498360827,151.66575516106656,146.95116012236,0.0
