timestamp,iq,id,vq,vd,omega,r
0.0,0.0,0.0,0.0,0.0,0.0,1353.1354656647345
0.01,0.0,0.0,-144.66823739523994,0.0,42.29888255495376,1353.1354656647345
0.02,-23.084378296155833,-0.7089935806141581,-139.4982107803183,0.07160835164202997,92.0035006924349,1353.1354656647345
0.03,-23.12534670259446,-0.6961472445786394,-135.8421689162732,0.07101986528305675,157.03181792753202,1353.1354656647345
0.04,-24.128940435339516,2.0847712973162835,-130.49140963158732,-0.20915676020375185,242.09999166954464,1353.1354656647345
0.05,-26.54453947917173,2.549222420622492,-122.9079064344963,-0.25815109495499516,325.94707121462784,1353.1354656647345
0.06,-26.126291752349424,-5.341160022151499,-115.64639492714977,0.5362283093445553,406.88028034160527,1353.1354656647345
0.07,-22.225557583308102,-14.735525142395378,-108.94741516022057,1.4904003465113387,485.00038251505254,1353.1354656647345
0.08,-22.2926671337756,-6.6466757187259,-102.05470506621823,0.6881620798631168,556.8787593057295,1353.1354656647345
0.09,-22.69298237020705,-14.004987049497151,-95.68050433405968,1.4379981999897393,587.3047028865611,1353.1354656647345
0.1,-17.21997670800687,-14.167118242182243,-94.01390330719425,1.4683784375004305,654.7917948778298,1353.1354656647345
0.11,-17.148458908063734,-17.684350223587046,-88.0335625752128,1.8377859858644978,723.5065669738733,1353.1354656647345
0.12,-22.444341156873065,-8.488303073641971,-81.31964075505067,0.9266695739436324,738.550785727921,1353.1354656647345
0.13,-10.30521242971343,-21.413815618436917,-81.71336137828615,2.240634644041564,798.0682003285142,1353.1354656647345
0.14,-11.861097500429267,-20.066960087175016,-76.2291337706663,2.1260160510025488,837.9019833151584,1353.1354656647345
0.15,-16.912927396230746,-19.199630812046728,-72.31875454760215,2.0584827543017665,885.0362668272307,1353.1354656647345
0.16,-14.075494915200311,-16.266229833002274,-68.42291220535583,1.7814088862303237,943.2693777214172,1353.1354656647345
0.17,-13.57437414210101,-14.227956893796584,-63.125769829533894,1.591809549203551,954.8554285698532,1353.1354656647345
0.18,-5.591264298541776,-20.41736620032286,-63.237921821077634,2.231167846056502,1007.8159411869706,1353.1354656647345
0.19,-8.986626653413689,-14.191461445171962,-58.01837503362076,1.6227688319865838,1014.9986261043438,1353.1354656647345
0.2,-2.5844954797841115,-22.02631663741895,-58.35557601392817,2.4282806678487017,1064.7922681892228,1353.1354656647345
0.21,-7.878241322358912,-14.115528769138013,-53.20695927772701,1.651317409789746,1070.2522247452591,1353.1354656647345
0.22,-1.4622158416147153,-21.18080564621473,-53.66364166454258,2.3790259031436323,1106.1918826982671,1353.1354656647345
0.23,-6.939512243236171,-22.079950362500377,-49.84157129884767,2.491020325134697,1123.4896936628518,1353.1354656647345
0.24,-2.2973224988630836,-19.326127556571805,-48.88296362402109,2.234964172098412,1138.796828500637,1353.1354656647345
0.25,-5.529238248502336,-22.63822842810238,-47.31746079813732,2.588812487679572,1176.6301664114155,1353.1354656647345
0.26,-3.541866800269439,-19.234374573802768,-43.98538434999398,2.2676614768234136,1176.6053713475633,1353.1354656647345
0.27,-2.572898817707692,-24.499615416278708,-44.33827640588902,2.8186851764872864,1218.9468733465517,1353.1354656647345
0.28,-2.920365615508686,-15.442907213232461,-40.280165309050844,1.9284572633958939,1219.595671900048,1353.1354656647345
0.29,3.5347497327524025,-21.365126411195124,-41.07738977476225,2.542044309603355,1229.9463116136726,1353.1354656647345
0.3,-1.274832989373252,-23.1012096110442,-39.76279097623822,2.738753839199307,1257.503362728072,1353.1354656647345
0.31,0.9034389156691489,-18.599477093189414,-37.400931120414086,2.3071800645070177,1253.7607886361216,1353.1354656647345
0.32,1.806590494336536,-24.399318565132354,-38.0461722145789,2.911563530266444,1278.820150022008,1353.1354656647345
0.33,-1.3416717881475577,-24.123448572790288,-35.3778464349683,2.908099979605028,1286.3937495558578,1353.1354656647345
0.34,3.867415710444658,-18.649517649971013,-35.29146040045134,2.3793564049730715,1277.7681758270287,1353.1354656647345
0.35000000000000003,1.8627491836359629,-23.334610832131755,-36.11024657611084,2.8712003340212773,1311.331458288296,1353.1354656647345
0.36,-1.8797178248194493,-22.537761542086123,-32.49902818988391,2.8140531665588,1308.5577543969455,1353.1354656647345
0.37,5.370390966288342,-19.47471637575838,-33.63079305103855,2.5272233663017842,1300.091038251713,1353.1354656647345
0.38,2.5478717781113973,-22.976312488429972,-34.3302495337704,2.9003592900573736,1335.6428841777085,1353.1354656647345
0.39,-1.418922095823424,-14.518787228256754,-30.473868324083604,2.0691255512683084,1332.681762845432,1353.1354656647345
0.4,6.733796588096626,-19.982416144706008,-31.69185210168405,2.6354708590579397,1323.6283271562536,1353.1354656647345
0.41000000000000003,3.4834846034379563,-22.830891827728404,-32.384576720328425,2.9431493191879077,1355.3440964425686,1353.1354656647345
0.42,-0.462907475103993,-13.751678609498484,-28.895078932814677,2.0489796759744143,1351.8324635574002,1353.1354656647345
0.43,7.314591641449085,-19.668552715842406,-30.112003138623393,2.660335639324649,1339.6952108421287,1353.1354656647345
0.44,4.444926016059024,-22.66250077956632,-31.136052711993244,2.982392946476607,1369.4216768853441,1353.1354656647345
0.45,-0.6254001975955773,-18.554283824912766,-27.718837669102932,2.5901255348361643,1365.2482591388657,1353.1354656647345
0.46,7.357902427940125,-18.82839390682298,-29.00913466176286,2.6363649369340085,1348.8771206256247,1353.1354656647345
0.47000000000000003,5.457493638914473,-22.456498731139924,-30.54531973308909,3.0216319180968427,1374.6806677310344,1353.1354656647345
0.48,-0.5529428171091828,-23.797257756480523,-27.421193473289886,3.179505078387383,1374.9637833049408,1353.1354656647345
0.49,7.188407302406865,-17.85603363642955,-28.23174675734185,2.603238700018715,1359.3654706603743,1353.1354656647345
0.5,6.692554439111824,-22.216871347048027,-29.82184056075385,3.061539342427611,1372.0984838572301,1353.1354656647345
0.51,1.7877977634808566,-24.44389631776167,-28.120260706274166,3.308685735816737,1378.6753581005876,1353.1354656647345
0.52,6.152303334304165,-15.970068982866273,-27.959001770844043,2.4772730713100635,1364.835307705485,1353.1354656647345
0.53,8.03868780276383,-21.99236183629382,-29.60736334693909,3.1014947184891124,1369.6782583672457,1353.1354656647345
0.54,3.037956203508811,-23.73402506649744,-28.68886451993675,3.299395066575972,1383.1790078703,1353.1354656647345
0.55,4.656524110715526,-14.307088788219714,-27.554619776670446,2.3710085275364188,1373.358804094671,1353.1354656647345
0.56,8.764591843400968,-21.11900615556211,-29.015358233299033,3.0733192704262207,1368.0073882754875,1353.1354656647345
0.5700000000000001,4.093036762769899,-23.074941860899553,-29.151940676386587,3.2919877828208643,1388.7002713334375,1353.1354656647345
0.58,2.6017117838711483,-13.017930710129683,-26.979910985366054,2.299304598454007,1383.2285445933448,1353.1354656647345
0.59,8.481490508958371,-19.802078318626325,-28.172809320809513,2.9975214376222974,1370.1027128284022,1353.1354656647345
0.6,5.235296919483575,-22.546364552566985,-29.228413521616528,3.294496425568931,1394.6726594255133,1353.1354656647345
0.61,0.45305569294189674,-20.19979753228077,-26.331457949369295,3.0800395210725897,1389.839286161932,1353.1354656647345
0.62,7.79339362156525,-18.47505130627375,-27.599270456235065,2.9260399497781613,1372.486859305444,1353.1354656647345
0.63,6.540124058100462,-22.168846541856414,-29.27574388938863,3.3175883198782845,1390.222818131425,1353.1354656647345
0.64,0.8904373627981883,-24.589339514122287,-26.98033328875794,3.5842269566189944,1393.9149358996863,1353.1354656647345
0.65,6.633416354581019,-15.973515652959296,-27.23062012391875,2.7386180861556544,1378.875192942416,1353.1354656647345
0.66,8.292837856293259,-21.79163184196645,-28.96245122943033,3.3422213368983362,1383.6401708447536,1353.1354656647345
0.67,3.1952172334855193,-23.757138594526452,-28.028238367979043,3.562529150748863,1396.5906052452372,1353.1354656647345
0.68,4.679377804152852,-13.84540466732468,-26.922178317245038,2.58520116269601,1386.8368076658535,1353.1354656647345
0.6900000000000001,9.052379847617765,-20.64200680614995,-28.389561828184526,3.285503383384687,1379.2499578428692,1353.1354656647345
0.7000000000000001,4.535728588648787,-22.91169402061373,-28.754362757509604,3.535383798851679,1401.3386606853946,1353.1354656647345
0.71,1.9697864737696178,-12.452361030435844,-26.322002119000494,2.501902860864326,1396.2596257269336,1353.1354656647345
0.72,8.643919584878113,-19.113496565928145,-27.54218059905173,3.1871299109794844,1380.7952572479087,1353.1354656647345
0.73,5.968387928722008,-22.31587485791603,-28.878729979026314,3.529683615036189,1400.6874145889972,1353.1354656647345
0.74,0.45302395323474975,-23.923366154401293,-26.37021565606304,3.7143561108391165,1400.1959320870105,1353.1354656647345
0.75,7.278840905059624,-16.970281785236182,-27.141500730470145,3.036017955707842,1383.960477215064,1353.1354656647345
0.76,7.676684950418558,-21.89895640981603,-28.86103497734871,3.5507843745756427,1393.1411712492093,1353.1354656647345
0.77,2.6122985403159866,-24.07846587191853,-27.478476626876596,3.7928137866578115,1402.9219983225478,1353.1354656647345
0.78,5.377767681498882,-14.25821629492146,-26.81186489098916,2.825047045253026,1391.2797761992836,1353.1354656647345
0.79,9.27494489267839,-21.00615829891049,-28.416279541875113,3.520847403950839,1385.9159679277286,1353.1354656647345
0.8,4.278558132982488,-23.072655803758025,-28.503868868017705,3.7505698102393508,1406.0712750287837,1353.1354656647345
0.81,2.5179377407190406,-12.543715304040278,-26.341186681484032,2.7102194755716162,1400.9086408007615,1353.1354656647345
0.8200000000000001,8.744212107705124,-19.27776618470836,-27.52038169728052,3.4029023298231325,1386.101623072738,1353.1354656647345
0.8300000000000001,5.8094072615254895,-22.36981818865073,-28.759793831998568,3.7344773484060205,1409.6332529128613,1353.1354656647345
0.84,0.35938272987588293,-22.34773988647068,-25.884813490375453,3.7546172580744863,1408.3502166867688,1353.1354656647345
0.85,7.499619883435488,-16.938840011357783,-26.7587499281632,3.230666110574554,1391.8528840494378,1353.1354656647345
0.86,7.845073202918546,-21.819587110980624,-28.491496519782427,3.740560407647819,1400.297217869453,1353.1354656647345
0.87,2.7357654144034598,-24.047019266227686,-27.17103779730732,3.987350642438753,1410.3215661422735,1353.1354656647345
0.88,5.236251012534808,-13.905117339676236,-26.446022509332387,2.9870655671232837,1399.32647131581,1353.1354656647345
0.89,9.362282370484952,-20.66344782033691,-28.0006377666369,3.6835620630096884,1391.9261247425745,1353.1354656647345
0.9,4.560264942540513,-22.946897122310197,-28.305578661614437,3.934853890329327,1413.2838694800882,1353.1354656647345
0.91,1.9920007408643015,-12.190477408280604,-25.934137779975906,2.8714023963346484,1408.1951048462774,1353.1354656647345
0.92,8.778228915320753,-18.84054161408553,-27.154676604059603,3.5552493585292266,1392.1144870740036,1353.1354656647345
0.93,6.264901219088589,-22.229100895041658,-28.55802813582434,3.9163343875198815,1407.069121526214,1353.1354656647345
0.9400000000000001,0.6420942078052114,-24.91496008159292,-26.52631357820102,4.209835266256601,1408.8925585533964,1353.1354656647345
0.9500000000000001,6.7816388646835435,-16.105019434897198,-26.98826765651843,3.344946221021926,1393.8687347988703,1353.1354656647345
0.96,8.2460318141004,-21.777373900146507,-28.68393547545554,3.9339590414470034,1398.1354649626817,1353.1354656647345
0.97,3.1869573475838964,-23.730445216512198,-27.788870639605076,4.152996618300085,1411.5864444670335,1353.1354656647345
0.98,4.360205598209652,-13.408787499816569,-26.586321374671776,3.1342396341303385,1403.0302976245866,1353.1354656647345
0.99,9.000167332216169,-20.23323087905114,-27.944360258531404,3.836917202932846,1389.9253039752118,1353.1354656647345
1.0,4.869460498705342,-22.734557046402685,-28.88920399024322,4.109784376714403,1414.7458632924,1353.1354656647345
1.01,0.8081408662410307,-12.094006373427677,-26.019523829790447,3.0578233157903307,1409.5573626778237,1353.1354656647345
1.02,8.389480625532082,-18.630127829873516,-27.327790066345163,3.730065589264788,1393.3132903734895,1353.1354656647345
1.03,6.556432712188835,-22.160022375077318,-28.81460157129728,4.105215066160246,1410.3526409011681,1353.1354656647345
1.04,0.9782263932851594,-24.460885381228078,-26.575919784123222,4.35976225215655,1415.4329463517472,1353.1354656647345
1.05,6.213413322118635,-15.014599648735512,-26.614631007630823,3.430148278556029,1401.8289547836487,1353.1354656647345
1.06,9.19824864777982,-21.507906480370988,-28.3133387166394,4.100986868199947,1399.8268973712206,1353.1354656647345
1.07,3.8199494773289224,-23.336278142294226,-28.01216485385479,4.307160312534566,1417.2820934283568,1353.1354656647345
1.08,3.138718724472959,-12.62729977240653,-26.21681796240092,3.2488897753182027,1411.749538667788,1353.1354656647345
1.09,8.825224517431545,-19.443780295475293,-27.368243814266556,3.9499816079205536,1397.4819556860023,1353.1354656647345
1.1,5.61469414926184,-22.43448219777923,-28.514539748872767,4.271486280348727,1421.5833766197175,1353.1354656647345
1.11,0.2383776084047149,-21.563471788848343,-25.577854151285525,4.205948711244487,1420.3241779291548,1353.1354656647345
1.12,7.439918241019153,-16.679086610660224,-26.443477560107972,3.7341892800363348,1404.1945485274612,1353.1354656647345
1.1300000000000001,8.035808579533654,-21.762735353267132,-28.152320149412294,4.264316889650292,1410.3177930557567,1353.1354656647345
1.1400000000000001,2.92503290944678,-23.89452950113528,-27.05396802959138,4.501390833938243,1422.012827138692,1353.1354656647345
1.1500000000000001,4.6333348700966805,-13.289281584488377,-26.07034560145018,3.454155323858041,1412.7900536150678,1353.1354656647345
1.16,9.207412743908302,-20.102945323884033,-27.4788870029062,4.15562464312149,1399.2239121310763,1353.1354656647345
1.17,4.958383290242849,-22.721512868025773,-28.448784684938573,4.4402029104036895,1423.7496926541517,1353.1354656647345
1.18,0.6592480298025025,-11.993739018648581,-25.575629437880465,3.3794192644846195,1418.7285311530163,1353.1354656647345
1.19,8.491697684163904,-18.318032990765946,-26.88318486110995,4.0301666946871215,1402.2766182436974,1353.1354656647345
1.2,6.911963768537574,-22.066126704713298,-28.40748520765409,4.427042192786571,1415.9757792490873,1353.1354656647345
1.21,1.6162842197328082,-24.325368444096917,-26.52607443129117,4.677291735169029,1423.1414955623957,1353.1354656647345
1.22,5.659152402914998,-14.251319631501106,-26.228732183428356,3.684138173540949,1411.0236090346075,1353.1354656647345
1.23,9.362378582202378,-20.987306498919285,-27.84161867099789,4.378724166781686,1405.1952256915356,1353.1354656647345
1.24,4.236080313086484,-23.065157955436725,-27.943309788115165,4.609574470388867,1425.5865245291275,1353.1354656647345
1.25,2.024634954315067,-12.03839583587329,-25.691894118194725,3.518936654268397,1421.3260075388077,1353.1354656647345
1.26,8.712483669950656,-18.765838451640448,-26.80654138282367,4.210446754296753,1405.480139714002,1353.1354656647345
1.27,6.31887939490807,-22.21272375661439,-28.185046017804247,4.5773480085507625,1423.5652146299403,1353.1354656647345
1.28,0.32730605248723066,-24.380742702328366,-25.786564034341826,4.818530645824488,1427.1447505338328,1353.1354656647345
1.29,6.310763198477728,-14.94076339666759,-26.038538602538463,3.889473478655078,1413.0169362140991,1353.1354656647345
1.3,9.268672987559896,-21.422116598958443,-27.775792710515326,4.559030915483122,1410.5284569437595,1353.1354656647345
1.31,3.8014326329998056,-23.329113598333205,-27.50362145265369,4.773059729018931,1428.0003695339772,1353.1354656647345
1.32,2.867160736741809,-12.25793516409119,-25.670283449518422,3.678199820758821,1422.958970230566,1353.1354656647345
1.33,8.853463002252358,-19.07533610519463,-26.79136609665609,4.379015250974359,1407.7683899763142,1353.1354656647345
1.34,5.917005308206784,-22.33557822302616,-28.047359609733405,4.727375040980538,1428.115801202277,1353.1354656647345
1.35,0.24624729692512748,-23.40660615882911,-25.450084676613834,4.857884440719662,1429.4360115385562,1353.1354656647345
1.36,6.720540833441252,-15.526292342900652,-25.97518698722685,4.085379351469717,1414.5601571807993,1353.1354656647345
1.37,8.786237007748825,-21.551820133373816,-27.695991843162123,4.709483950650408,1414.9700447671894,1353.1354656647345
1.3800000000000001,3.4534267863335266,-23.516579227339527,-27.14262813906922,4.929476439274318,1430.5108836018233,1353.1354656647345
1.3900000000000001,3.363218608549192,-12.416115068093761,-25.584782152909607,3.831846138417835,1424.4371096047466,1353.1354656647345
1.4000000000000001,8.936075869466523,-19.27077587459842,-26.76635598580676,4.5365829949429,1410.336869749988,1353.1354656647345
1.41,5.657849381026752,-22.42237157207255,-27.876303571128545,4.874164936262385,1433.7362086359694,1353.1354656647345
1.42,0.11447615410291956,-21.65070105115937,-24.980811691068688,4.818648585222227,1433.79422570626,1353.1354656647345
1.43,7.010182277586587,-15.74984763205005,-25.670196752067188,4.244313090943345,1418.446486080274,1353.1354656647345
1.44,8.682980427637133,-21.54911640252064,-27.39490191775549,4.8457890843929246,1419.6909667241885,1353.1354656647345
1.45,3.3289835939736196,-23.59057997297674,-26.751105170569122,5.073526021411512,1434.354198237139,1353.1354656647345
1.46,3.5067471324263293,-12.348250806814272,-25.304108430297433,3.9616413556020786,1427.769773886026,1353.1354656647345
1.47,9.031454812252548,-19.206294505317643,-26.528686660681633,4.666652019957734,1413.3858674368282,1353.1354656647345
1.48,5.667771098317142,-22.42472004051484,-27.655407965635867,5.0109192935179685,1436.7195809598015,1353.1354656647345
1.49,0.09796635237252538,-21.453645919009364,-24.760827482348464,4.93526552728643,1436.8743645525503,1353.1354656647345
1.5,6.941881981471497,-15.5782651935654,-25.432200169451644,4.363305719935599,1421.4863625493294,1353.1354656647345
1.51,8.8120363060757,-21.49652193261641,-27.17774814652317,4.9766279157733155,1422.0614932930084,1353.1354656647345
1.52,3.3728014204011414,-23.54440872166758,-26.590028297856463,5.204961003400101,1437.1279390891093,1353.1354656647345
1.53,3.2968982818930472,-12.161204158526553,-25.074351863359073,4.078801751244525,1430.9117244283666,1353.1354656647345
1.54,9.022861726991412,-19.018224533916726,-26.279075749464603,4.783522013317459,1416.327667491825,1353.1354656647345
1.55,5.821049607433084,-22.37290880633441,-27.439202503636253,5.141363349365561,1438.766275784072,1353.1354656647345
1.56,0.10071111776345631,-22.110569496143647,-24.61702785621961,5.137239987842628,1439.953239232614,1353.1354656647345
1.57,6.643554334388589,-15.076789745901165,-25.151689688429837,4.448938802564282,1425.1976315776963,1353.1354656647345
1.58,9.191941471236277,-21.363272721977186,-26.898481052786043,5.09895037289386,1422.992558723344,1353.1354656647345
1.59,3.6171370283110926,-23.404952104132978,-26.57453155402177,5.326523263213573,1439.4588029770316,1353.1354656647345
1.6,2.786288763987879,-11.871298400674869,-24.840531540318075,4.185029191268437,1434.2057256724756,1353.1354656647345
1.61,8.957507418833607,-18.70320235588887,-25.99009911268974,4.886922789145725,1418.5628067865193,1353.1354656647345
1.62,6.129329442230243,-22.272301648528675,-27.291540909611353,5.266105020058235,1436.9928339976022,1353.1354656647345
1.6300000000000001,0.202256721628836,-23.671998231829775,-24.85142225389666,5.429746676620175,1440.1761135407507,1353.1354656647345
1.6400000000000001,6.082388856160311,-14.49333925583462,-25.119391649394064,4.526374118276493,1426.4778692242107,1353.1354656647345
1.6500000000000001,9.482389799867661,-21.19643202557588,-26.844611521858432,5.217879827276196,1421.7894435267508,1353.1354656647345
