timestamp,iq,id,iq_ref,id_ref,vq,vd,omega,omega_ref,r
0.0,0.0,0.0,0.0,0.0,0.0,0.0,0.0,437.63973895384635,0.0
0.001,0.0,0.0,10.0,0.0,0.0,1.0999999999999999,5.632467129541443,437.63973895384635,0.0
0.002,0.44369017308699704,-0.2537455315625668,10.0,0.0,0.13791200847188226,1.9411940809604298,11.44445443684401,437.63973895384635,0.0
0.003,1.1071412671416652,-0.6281527340862378,10.0,0.0,0.38479956115459774,2.6435172360568617,17.341673608834288,437.63973895384635,0.0
0.004,1.8624347196809816,-1.0555980385024841,10.0,0.0,0.7205055855392348,3.2238490620731444,23.458149233148937,437.63973895384635,0.0
0.005,2.620860505471937,-1.4851524461785948,10.0,0.0,1.1236507218872465,3.703844406014649,29.672689104745928,437.63973895384635,0.0
0.006,3.325238084886055,-1.8839452805791554,10.0,0.0,1.5740525467019078,4.106257453319163,35.89907492785989,437.63973895384635,0.0
0.007,3.9436709873240248,-2.2337419039280957,10.0,0.0,2.0541451939899327,4.452485534900656,42.04864708704695,437.63973895384635,0.0
0.008,4.4632729132576925,-2.5273936741421648,10.0,0.0,2.5496551131973626,4.761128190224478,48.21152938749351,437.63973895384635,0.0
0.009000000000000001,4.884976015654479,-2.7646172181741093,10.0,0.0,3.049636378157804,5.047266249932351,54.310646059579135,437.63973895384635,0.0
0.01,5.217867633825683,-2.950545385805894,10.0,0.0,3.5463131855921652,5.322387583190614,60.23177655391153,437.63973895384635,0.0
0.011,5.475401185092075,-3.0933264698071503,10.0,0.0,4.034681083172739,5.5946646894089,66.07431534895717,437.63973895384635,0.0
0.012,5.673309682619541,-3.20105912609305,10.0,0.0,4.511862682968519,5.869356275548054,71.79256263743112,437.63973895384635,0.0
0.013000000000000001,5.82673319021252,-3.282122844503789,10.0,0.0,4.97663496386096,6.149399362192919,77.39132529052772,437.63973895384635,0.0
0.014,5.949313144314214,-3.3438690050882496,10.0,0.0,5.428915765808824,6.4359658083872855,82.87348997608362,437.63973895384635,0.0
0.015,6.052522074116637,-3.3922695104579508,10.0,0.0,5.869331726166163,6.728976507419749,88.23751423723589,437.63973895384635,0.0
0.016,6.14542693376589,-3.431831865000158,10.0,0.0,6.298875014336957,7.027540287321308,93.48089445878607,437.63973895384635,0.0
0.017,6.2347839578944715,-3.4656369265644864,10.0,0.0,6.718643284907484,7.330301793992139,98.59857979039795,437.63973895384635,0.0
0.018000000000000002,6.325312376510603,-3.495493279317545,10.0,0.0,7.129657027275233,7.635699421246451,103.58252333093932,437.63973895384635,0.0
0.019,6.420058589410489,-3.5221505918711555,10.0,0.0,7.532742898985007,7.942141860779283,108.548265106971,437.63973895384635,0.0
0.02,6.5213043204241,-3.544654808744754,10.0,0.0,7.9283733182076475,8.248059075247312,113.21540585074375,437.63973895384635,0.0
0.021,6.629057355025456,-3.563723181920606,10.0,0.0,8.316904895835432,8.552107233694782,117.71808134989416,437.63973895384635,0.0
0.022,6.743795022425329,-3.5779016104156494,10.0,0.0,8.698357074947882,8.853060120992314,121.89309462669976,437.63973895384635,0.0
0.023,6.8649595960355745,-3.5866648602082405,10.0,0.0,9.072581498071076,9.149882211048215,126.21785832267669,437.63973895384635,0.0
0.024,6.993949245003705,-3.5858952261795647,10.0,0.0,9.43889339564646,9.441467318760447,129.9586191320041,437.63973895384635,0.0
0.025,7.12863685196579,-3.5773005571512355,10.0,0.0,9.796794896982698,9.726999365182847,133.58614833468195,437.63973895384635,0.0
0.026000000000000002,7.269750505513246,-3.5581036802293586,10.0,0.0,10.145433743056433,10.005592731276035,136.98387548488816,437.63973895384635,0.0
0.027,7.41722373497145,-3.527129497700324,10.0,0.0,10.483852849823132,10.276379726662345,140.10820076883417,437.63973895384635,0.0
0.028,7.570997526788506,-3.4835527195142983,10.0,0.0,10.811025041676626,10.538489548381403,142.941113412346,437.63973895384635,0.0
0.029,7.731108059550362,-3.4267442243639286,10.0,0.0,11.125877829831989,10.791031186428269,145.4749638086255,437.63973895384635,0.0
0.03,7.8976675516476185,-3.3562563806051333,10.0,0.0,11.427313925114543,11.033083500682906,147.71018669661504,437.63973895384635,0.0
0.031,8.070814037470468,-3.2718396542588244,10.0,0.0,11.714230680833799,11.263693674520795,149.6373872900263,437.63973895384635,0.0
0.032,8.250584001999213,-3.1735778643385766,10.0,0.0,11.985552148737154,11.481891275306888,151.25573095370544,437.63973895384635,0.0
0.033,8.4369453664008,-3.061763202430063,10.0,0.0,12.240244235018046,11.686699212365816,152.7340582083072,437.63973895384635,0.0
0.034,8.629962761028317,-2.93655506507497,10.0,0.0,12.477293157886773,11.877127264581937,154.05387801413215,437.63973895384635,0.0
0.035,8.829131534265521,-2.7990053941898276,10.0,0.0,12.695801611266418,12.052239012753493,154.806129681676,437.63973895384635,0.0
0.036000000000000004,9.033783196168796,-2.6503709165490306,10.0,0.0,12.894996098293618,12.211170436368873,155.44216835817187,437.63973895384635,0.0
0.037,9.24342453696864,-2.49149718315637,10.0,0.0,13.074174513082855,12.35311413545648,155.87759778611579,437.63973895384635,0.0
0.038,9.45707527336953,-2.3238886171231714,10.0,0.0,13.2327812513722,12.477376138518158,155.78215848176762,437.63973895384635,0.0
0.039,9.674312558510369,-2.1479799850599433,10.0,0.0,13.37027965227216,12.583313021101123,154.47879628575717,437.63973895384635,0.0
0.04,9.896181624683514,-1.961524312083546,10.0,0.0,13.485870863633647,12.670172831088141,155.89378432771375,437.63973895384635,0.0
0.041,10.113095585233724,-1.7797900096907187,10.0,0.0,13.580462718324238,12.738263936213812,155.78912484285445,437.63973895384635,0.0
0.042,10.33230097622344,-1.5903133805308634,10.0,0.0,13.653379411874681,12.787061662892615,155.16451845815578,437.63973895384635,0.0
0.043000000000000003,10.544876543183882,-1.406904195866442,10.0,0.0,13.705603964716477,12.817080027802831,152.15227808532075,437.63973895384635,0.0
0.044,10.755285242563472,-1.2214612258970545,10.0,0.0,13.737043263915123,12.82829981024405,149.00362755130345,437.63973895384635,0.0
0.045,10.963663057223181,-1.0325815353004177,10.0,0.0,13.74753827517209,12.82072407174224,146.90383584629612,437.63973895384635,0.0
0.046,11.171103036490905,-0.8371366072476132,10.0,0.0,13.736616066273339,12.794220788643457,150.92361350266907,437.63973895384635,0.0
0.047,11.332544465567228,-0.7101011229409648,10.0,0.0,13.712116295961382,12.753591455558965,151.79017989917347,437.63973895384635,0.0
0.048,11.398663187237133,-0.7319617062137684,10.0,0.0,13.689678588375244,12.708916433658795,152.54292754060393,437.63973895384635,0.0
0.049,11.434383156798068,-0.7915277300620991,10.0,0.0,13.67135080614829,12.663197133755018,154.0849454033726,437.63973895384635,0.0
0.05,11.444723372514586,-0.8781979687949271,10.0,0.0,13.65922193817578,12.619436761585717,155.88716219290316,437.63973895384635,0.0
0.051000000000000004,11.428836938464208,-0.9931612863805377,10.0,0.0,13.655709182330686,12.580690449738812,157.70884433315774,437.63973895384635,0.0
0.052000000000000005,11.39201618676047,-1.128617406169539,10.0,0.0,13.662423610886341,12.54935891183899,159.78996872917267,437.63973895384635,0.0
0.053,11.339601961094136,-1.2773989077126222,10.0,0.0,13.680344846768298,12.52722932789097,161.79017572130547,437.63973895384635,0.0
0.054,11.272684827099143,-1.4401846387032986,10.0,0.0,13.7106796160608,12.515941568408739,164.14430295001372,437.63973895384635,0.0
0.055,11.196443935691757,-1.6107819307530749,10.0,0.0,13.753989977291402,12.516533388518843,166.2603330818035,437.63973895384635,0.0
0.056,11.110878167117159,-1.79191628115057,10.0,0.0,13.811247290033172,12.530046888370123,169.14317439724007,437.63973895384635,0.0
0.057,11.021062484716971,-1.9772061211491723,10.0,0.0,13.882700760381777,12.55695883688874,171.9430256441408,437.63973895384635,0.0
0.058,10.926218090695176,-2.1700810360044382,10.0,0.0,13.969063420781465,12.597859664108745,174.8744069338972,437.63973895384635,0.0
0.059000000000000004,10.828470967042259,-2.3685450871056775,10.0,0.0,14.070782194335772,12.653110414308319,177.7863697765316,437.63973895384635,0.0
0.06,10.728520135214522,-2.5726131646478354,10.0,0.0,14.188317013573235,12.723025087107892,181.6396726625396,437.63973895384635,0.0
0.061,10.628334881800946,-2.779591392713076,10.0,0.0,14.321816742478655,12.807722644108466,185.4790858197708,437.63973895384635,0.0
0.062,10.527615209936922,-2.9903680377437865,10.0,0.0,14.471551902866322,12.907377729670431,189.27083328198188,437.63973895384635,0.0
0.063,10.427030857387987,-3.203832479362529,10.0,0.0,14.637652377899173,13.022097904776714,193.32346845226175,437.63973895384635,0.0
0.064,10.327175800177915,-3.4186938834488116,10.0,0.0,14.82011493297267,13.151934322643267,197.73785240078863,437.63973895384635,0.0
0.065,10.22900164863165,-3.632783212774021,10.0,0.0,15.018716086510379,13.2968339603285,202.1835085063715,437.63973895384635,0.0
0.066,10.132450739826334,-3.8455645282852564,10.0,0.0,15.23321213987583,13.45674260805211,206.74913267152107,437.63973895384635,0.0
0.067,10.038328747817308,-4.054913641921404,10.0,0.0,15.463150042021956,13.631497906372845,211.3961712264232,437.63973895384635,0.0
0.068,9.947489281056866,-4.2585873113718264,10.0,0.0,15.707880296288735,13.820822586499677,216.0816665518343,437.63973895384635,0.0
0.069,9.861028893562457,-4.45395682091562,10.0,0.0,15.966523902496828,14.024290071997278,220.75929176669277,437.63973895384635,0.0
0.07,9.780348219286692,-4.637970030687876,10.0,0.0,16.237937654613386,14.241285439861326,225.39719410175724,437.63973895384635,0.0
0.07100000000000001,9.707303982968714,-4.806955227185233,10.0,0.0,16.520657807821667,14.470950705402835,230.05847147190332,437.63973895384635,0.0
0.07200000000000001,9.644592220149143,-4.956021440894345,10.0,0.0,16.812779903806316,14.712089311257998,234.08776525261194,437.63973895384635,0.0
0.073,9.59185266368282,-5.085871099863316,10.0,0.0,17.11259645112751,14.963500499709214,238.07270807865032,437.63973895384635,0.0
0.074,9.554111007487908,-5.188427263115207,10.0,0.0,17.417555143929718,15.2233764106642,241.73984598604247,437.63973895384635,0.0
0.075,9.534005522345517,-5.25998830610509,10.0,0.0,17.72485171164357,15.489594786607622,245.01370170974346,437.63973895384635,0.0
0.076,9.534475353499722,-5.296811153830189,10.0,0.0,18.031375363000247,15.759668245449705,247.73718523110992,437.63973895384635,0.0
0.077,9.558255155791592,-5.295966511309634,10.0,0.0,18.333792855950946,16.030775643602677,249.95940727889854,437.63973895384635,0.0
0.078,9.608457213858957,-5.254304295941102,10.0,0.0,18.628504942156546,16.299729622870938,251.6185393049862,437.63973895384635,0.0
0.079,9.68775527645932,-5.16972982908036,10.0,0.0,18.911754648467408,16.563038646527556,252.6538758752139,437.63973895384635,0.0
0.08,9.798239209468377,-5.041339147952137,10.0,0.0,19.179733056257366,16.816981486444618,253.04672953014366,437.63973895384635,0.0
0.081,9.94143940772705,-4.869227595260988,10.0,0.0,19.428659543275273,17.057680700670595,252.90619274605362,437.63973895384635,0.0
0.082,10.118681947397278,-4.653702152283872,10.0,0.0,19.65477661981342,17.281137964794638,251.97570799851854,437.63973895384635,0.0
0.083,10.328911504548591,-4.398688622962023,10.0,0.0,19.854731481314527,17.483508384270145,250.43973097538856,437.63973895384635,0.0
0.084,10.5714716848637,-4.107019911143289,10.0,0.0,20.025394475606227,17.661057923685068,248.30215588313038,437.63973895384635,0.0
0.085,10.844419353986014,-3.7829461663408726,10.0,0.0,20.164014699600177,17.810320166787356,245.55318132383834,437.63973895384635,0.0
0.08600000000000001,11.144882973136923,-3.4314431421016227,10.0,0.0,20.26827453028666,17.928196686563435,241.65612950500275,437.63973895384635,0.0
0.08700000000000001,11.468528779315172,-3.059008593004303,10.0,0.0,20.336443259723794,18.012115134942455,238.44708549311272,437.63973895384635,0.0
0.088,11.813558372506522,-2.667096110568979,10.0,0.0,20.3668009334782,18.059741814238027,231.5723778227246,437.63973895384635,0.0
0.089,12.174481076496999,-2.262017754458717,10.0,0.0,20.35824601343896,18.06939039147244,230.9795273829812,437.63973895384635,0.0
0.09,12.544546071371911,-1.8516580805717846,10.0,0.0,20.310422662560608,18.040120696583152,229.051139605546,437.63973895384635,0.0
0.091,12.90851801933,-1.4571734392105733,10.0,0.0,20.225164963470313,17.97265937176832,223.12940985398882,437.63973895384635,0.0
0.092,13.26984181942641,-1.0692584462209893,10.0,0.0,20.102961098992317,17.86731251099491,216.3152795730176,437.63973895384635,0.0
0.093,13.62878312723497,-0.682470914163483,10.0,0.0,19.943775456288346,17.724409643993063,210.04145366400277,437.63973895384635,0.0
0.094,13.976027325181583,-0.30669654124091417,10.0,0.0,19.748750785453684,17.54527105072497,217.80773579834556,437.63973895384635,0.0
0.095,14.16697705500004,-0.17826048239968859,10.0,0.0,19.54494449963237,17.347011821399658,218.11474536270998,437.63973895384635,0.0
0.096,14.21945560035691,-0.2563385450181973,10.0,0.0,19.3515658669371,17.144334743733666,219.79823160232795,437.63973895384635,0.0
0.097,14.207732443930231,-0.41073581367802015,10.0,0.0,19.17346030867116,16.944401843225254,221.7845249304196,437.63973895384635,0.0
0.098,14.138299803880244,-0.6249184935492949,10.0,0.0,19.01518813828021,16.754172035782318,223.83122977874902,437.63973895384635,0.0
0.099,14.019320274018177,-0.8839681570294051,10.0,0.0,18.88007384036816,16.579531413928912,225.95466090264458,437.63973895384635,0.0
0.1,13.859577699202429,-1.1751659773418972,10.0,0.0,18.770448173661556,16.425225312400755,228.23611482833758,437.63973895384635,0.0
0.101,13.667167132669256,-1.4891505238401948,10.0,0.0,18.68798078538447,16.294954990925234,230.7208991394667,437.63973895384635,0.0
0.10200000000000001,13.449648682385886,-1.8187215328236146,10.0,0.0,18.63384606931075,16.1914678866354,233.44357355718446,437.63973895384635,0.0
0.10300000000000001,13.213730622230663,-2.158578036507943,10.0,0.0,18.608864619730845,16.116691823281425,236.44946709645646,437.63973895384635,0.0
0.10400000000000001,12.965302588347004,-2.504639952801543,10.0,0.0,18.613571954528993,16.071863124430504,239.78533722297135,437.63973895384635,0.0
0.105,12.70958942894476,-2.8533303858685892,10.0,0.0,18.648221014436675,16.057632196139902,243.44028234374875,437.63973895384635,0.0
0.106,12.451229151471981,-3.2011570553708775,10.0,0.0,18.71275610483911,16.07415176559711,247.34265302749833,437.63973895384635,0.0
0.107,12.193997249789604,-3.545083693787565,10.0,0.0,18.80684330667783,16.12118479355917,251.45421238091404,437.63973895384635,0.0
0.108,11.94207752419516,-3.880306189306722,10.0,0.0,18.92966029925183,16.198062089707467,255.20333833367317,437.63973895384635,0.0
0.109,11.69637156457293,-4.2068592852415625,10.0,0.0,19.080451937780904,16.304041813800836,259.19163694671477,437.63973895384635,0.0
0.11,11.459518791119049,-4.521133860956494,10.0,0.0,19.258067057235692,16.438099474821474,263.90605424261247,437.63973895384635,0.0
0.111,11.237153967148071,-4.813684387252007,10.0,0.0,19.460364242982426,16.5986044845878,268.5784971608146,437.63973895384635,0.0
0.112,11.03235643038013,-5.079107224336992,10.0,0.0,19.68475321794751,16.783592792756924,272.928949080797,437.63973895384635,0.0
0.113,10.847938460915781,-5.312522492526961,10.0,0.0,19.928223577363045,16.990759168879055,276.8885197566865,437.63973895384635,0.0
0.114,10.687612056285886,-5.507806301454039,10.0,0.0,20.187210604749325,17.21734766814516,280.56656532824746,437.63973895384635,0.0
0.115,10.556100700846505,-5.657567363149826,10.0,0.0,20.457478658020847,17.46003900527532,283.19718344270643,437.63973895384635,0.0
0.116,10.453812796004211,-5.762457061684287,10.0,0.0,20.735029295900066,17.715424569997868,285.77970201127965,437.63973895384635,0.0
0.117,10.38939692529859,-5.810019819351748,10.0,0.0,21.014546432821696,17.97908950876529,287.6795538076553,437.63973895384635,0.0
0.11800000000000001,10.366130318691662,-5.797359121469398,10.0,0.0,21.290610045584167,18.246254835367836,288.7657134535151,437.63973895384635,0.0
0.11900000000000001,10.387504412216765,-5.721989537699894,10.0,0.0,21.55761978249483,18.511726174232543,289.0255936633073,437.63973895384635,0.0
0.12,10.456523675106425,-5.582763421659423,10.0,0.0,21.80991450267414,18.769972974919227,288.46373467432835,437.63973895384635,0.0
0.121,10.575251247231778,-5.380334058198418,10.0,0.0,22.04192946208388,19.01525472725029,287.0772092053806,437.63973895384635,0.0
0.122,10.74429275815813,-5.1176753580528285,10.0,0.0,22.248402937404347,19.241802509808572,284.93408614297147,437.63973895384635,0.0
0.123,10.963315049834316,-4.798858135771899,10.0,0.0,22.42444053599915,19.44394082466796,282.1361340892472,437.63973895384635,0.0
0.124,11.23085010874296,-4.428974212992156,10.0,0.0,22.565589146937448,19.616230434337695,278.497486762021,437.63973895384635,0.0
0.125,11.542314597099068,-4.017095150451628,10.0,0.0,22.668244000097232,19.7538202010042,274.23789247308423,437.63973895384635,0.0
0.126,11.893276704733214,-3.570774561395775,10.0,0.0,22.729415870436952,19.852425289363843,269.4039074250225,437.63973895384635,0.0
0.127,12.277488131427804,-3.0990057784881007,10.0,0.0,22.74689970234937,19.90853342006142,264.18192406313415,437.63973895384635,0.0
0.128,12.687616158101871,-2.6110659913124232,10.0,0.0,22.719290275380068,19.919507152213296,259.0557049458561,437.63973895384635,0.0
0.129,13.115303676813696,-2.1165124567632514,10.0,0.0,22.646017673394212,19.88367822166148,253.52305942173749,437.63973895384635,0.0
0.13,13.553303512364032,-1.6218831411296302,10.0,0.0,22.527025749177568,19.800201817242844,246.3095335558174,437.63973895384635,0.0
0.131,13.996537535207324,-1.1291114309376242,10.0,0.0,22.36232678197594,19.668798116687157,239.12999631287832,437.63973895384635,0.0
0.132,14.43464386512494,-0.6477788350526907,10.0,0.0,22.15293847299348,19.49030553340436,232.3523238778336,437.63973895384635,0.0
0.133,14.859072810375897,-0.1844420588896174,10.0,0.0,21.900486017161896,19.266417256873176,241.66213098291516,437.63973895384635,0.0
0.134,15.084079486791438,-0.04036498307590897,10.0,0.0,21.63967486868248,19.01916611745875,242.3746908022162,437.63973895384635,0.0
0.135,15.151403783625355,-0.1303244280258733,10.0,0.0,21.391556030812197,18.765403371250247,244.57102916601306,437.63973895384635,0.0
0.136,15.134988943000433,-0.321540684553713,10.0,0.0,21.16300699587665,18.51468389131265,246.92359184103356,437.63973895384635,0.0
0.137,15.044770209888247,-0.5893393379324428,10.0,0.0,20.959786605747283,18.275941368111347,249.46914099749932,437.63973895384635,0.0
0.138,14.89253211793364,-0.911482768086179,10.0,0.0,20.785771793093843,18.056595061001122,251.86297782929745,437.63973895384635,0.0
0.139,14.689680487507784,-1.2705759674790595,10.0,0.0,20.643502648626402,17.86257320176387,254.61302190193987,437.63973895384635,0.0
0.14,14.445543688086858,-1.655792847664478,10.0,0.0,20.53484115750846,17.698553145635643,257.5515912854022,437.63973895384635,0.0
0.14100000000000001,14.169698232848637,-2.0577275121094227,10.0,0.0,20.461004454176567,17.567970578090446,260.7199835174696,437.63973895384635,0.0
0.14200000000000002,13.870885581680952,-2.4691010206373702,10.0,0.0,20.422724903716972,17.47317353404264,264.0182900689674,437.63973895384635,0.0
0.14300000000000002,13.556899327243649,-2.8841298038355054,10.0,0.0,20.42033303496507,17.41557860083008,267.6624309723854,437.63973895384635,0.0
0.14400000000000002,13.234910370733083,-3.297360764220428,10.0,0.0,20.453725977577463,17.39578289673538,271.49952372156156,437.63973895384635,0.0
0.145,12.911226765462738,-3.703735824490433,10.0,0.0,20.522369002545002,17.413691364326016,275.6130425417882,437.63973895384635,0.0
0.146,12.591709845558022,-4.09773410589431,10.0,0.0,20.62521463212657,17.468583312791157,279.6730361693588,437.63973895384635,0.0
0.147,12.281088168911309,-4.474624579921459,10.0,0.0,20.760782862925446,17.55924384460004,283.92975270848933,437.63973895384635,0.0
0.148,11.98408250352847,-4.828715769637757,10.0,0.0,20.927041449953848,17.68395955273356,288.0945751653254,437.63973895384635,0.0
0.149,11.705683225452635,-5.153125521428284,10.0,0.0,21.121289909892546,17.84048341269109,292.31738611033904,437.63973895384635,0.0
