timestamp,iq,id,iq_ref,id_ref,vq,vd,omega,omega_ref,r
0.0,0.0,0.0,0.0,0.0,0.0,0.0,0.0,260.7908126399882,0.0
0.001,0.0,0.0,10.0,0.0,0.0,1.0999999999999999,13.7983114307175,260.7908126399882,0.0
0.002,0.5078607392313736,-0.28569376860362805,10.0,0.0,0.14142631454639912,1.9341353186845487,25.014488529210148,260.7908126399882,0.0
0.003,1.1383280712919273,-0.6360582919601869,10.0,0.0,0.38780668938979845,2.634726937820935,37.1464083828881,260.7908126399882,0.0
0.004,1.7443687473067684,-0.9751000642057152,10.0,0.0,0.7133991383759387,3.2295376314869952,49.662282646343606,260.7908126399882,0.0
0.005,2.2671690169380403,-1.2660820423028032,10.0,0.0,1.0945310116982958,3.745978877785773,62.36547490258321,260.7908126399882,0.0
0.006,2.6921905786546554,-1.5004883385184506,10.0,0.0,1.5120686951210454,4.207364817694393,75.13017613251006,260.7908126399882,0.0
0.007,3.026549782284864,-1.683413779091985,10.0,0.0,1.9517689396933138,4.631836635172269,87.89221512490846,260.7908126399882,0.0
0.008,3.2866899983624616,-1.8237349133042433,10.0,0.0,2.403552411913756,5.032559463627352,100.58832744395072,260.7908126399882,0.0
0.009000000000000001,3.4902160729980385,-1.9315738214018778,10.0,0.0,2.86068888830628,5.4186018904098345,113.15850366709493,260.7908126399882,0.0
0.01,3.6534844066433534,-2.0146897213725796,10.0,0.0,3.3187803196536008,5.79582946619869,125.53715616045778,260.7908126399882,0.0
0.011,3.7891111256519183,-2.080008462674784,10.0,0.0,3.7751392679886084,6.167857171788902,137.68473669477984,260.7908126399882,0.0
0.012,3.906960551771276,-2.1318356595428347,10.0,0.0,4.228112896291602,6.536710831970551,149.54891989966498,260.7908126399882,0.0
0.013000000000000001,4.013886355841276,-2.1733379340094143,10.0,0.0,4.676721506005104,6.903393144777829,161.09061692553843,260.7908126399882,0.0
0.014,4.114973013495719,-2.2058658677616467,10.0,0.0,5.120300535996064,7.268217812974439,172.23920221043852,260.7908126399882,0.0
0.015,4.213828083166665,-2.2298185052468256,10.0,0.0,5.558313640593435,7.631054726263226,182.96004501941533,260.7908126399882,0.0
0.016,4.312899019871998,-2.245262301959698,10.0,0.0,5.990268417323513,7.99150000634199,193.12088351257222,260.7908126399882,0.0
0.017,4.41479269684911,-2.2505885616962624,10.0,0.0,6.415503694992353,8.348878640985465,202.65433254808835,260.7908126399882,0.0
0.018000000000000002,4.5207636348542035,-2.2456593083237184,10.0,0.0,6.83335782789031,8.702405073520682,211.5393010611665,260.7908126399882,0.0
0.019,4.632427120982935,-2.2294049438252115,10.0,0.0,7.2430405031908816,9.051141001998062,219.69202592353548,260.7908126399882,0.0
0.02,4.751227027260109,-2.2009219299010168,10.0,0.0,7.643657915922459,9.39402025032856,227.04724050886506,260.7908126399882,0.0
0.021,4.878438881246691,-2.159601972528756,10.0,0.0,8.034241147042223,9.729868010223415,233.55947235096542,260.7908126399882,0.0
0.022,5.015177898402777,-2.1051599412486595,10.0,0.0,8.413775407172407,10.057420143893461,239.2128845232249,260.7908126399882,0.0
0.023,5.162669996068567,-2.03715485091997,10.0,0.0,8.781175315033224,10.375313749637835,243.92740261499662,260.7908126399882,0.0
0.024,5.321075307952005,-1.9568729186553617,10.0,0.0,9.135473631036572,10.682208322263339,247.78373830078192,260.7908126399882,0.0
0.025,5.491101634424988,-1.8646189030530673,10.0,0.0,9.47568645030853,10.976724426433433,250.76311642115843,260.7908126399882,0.0
0.026000000000000002,5.672933138657274,-1.7613296035924288,8.64689743642299,0.0,9.800890315285658,11.108667717919422,251.7163276397517,260.7908126399882,0.0
0.027,5.798200542383915,-1.61299560018832,8.261036677128713,0.0,10.091484275533826,11.219062309500316,251.4963245410207,260.7908126399882,0.0
0.028,5.897205967659222,-1.4411038960914078,8.463983107483894,0.0,10.346633551498645,11.364021630136932,250.77765846244782,260.7908126399882,0.0
0.029,6.012790845720069,-1.271110424303581,8.923447688545739,0.0,10.573783467074954,11.556787303585681,249.692217832663,260.7908126399882,0.0
0.03,6.172768609637648,-1.1190642418914445,9.577153951511397,0.0,10.78246981309105,11.803862739112462,248.85466169366532,260.7908126399882,0.0
0.031,6.394229511304639,-0.9917538100825953,10.0,0.0,10.982511382383363,12.064314346848075,261.93564272699473,260.7908126399882,0.0
0.032,6.5726891666086384,-1.0335394016461112,3.561048842329229,0.0,11.194463474910082,11.588795909843917,271.03331392511984,260.7908126399882,0.0
0.033,6.386633776991689,-0.9831031627043427,-1.090211769584644,0.0,11.33170267228448,10.75702605946993,271.7823707442851,260.7908126399882,0.0
0.034,5.849474520383349,-0.8102345517859812,-1.574655760210251,0.0,11.353529780072442,10.072607845351854,270.0894534483075,260.7908126399882,0.0
0.035,5.209885411227431,-0.6279300591621064,-0.8211835203046332,0.0,11.286407547590349,9.611523759161317,268.8248561947995,260.7908126399882,0.0
0.036000000000000004,4.637733603407826,-0.5056489303877143,-0.2692253290987532,0.0,11.168261250498478,9.29955734474382,267.9832077996683,260.7908126399882,0.0
0.037,4.183576309528693,-0.4558845491673573,0.07967491687003925,0.0,11.026481671027545,9.0840681714519,267.87585370631604,260.7908126399882,0.0
0.038,3.8442641036601772,-0.46742813420191665,0.0625015528829036,0.0,10.879098570340517,8.90335465475055,268.0600398805448,260.7908126399882,0.0
0.039,3.584849131710744,-0.5158398465666132,-0.10228380663705483,0.0,10.733592280561824,8.733162048599059,268.1215655942049,260.7908126399882,0.0
0.04,3.3724526823235257,-0.5812516359902387,-0.20635419300927405,0.0,10.59232853885881,8.576407644892205,268.0534071914865,260.7908126399882,0.0
0.041,3.1899457134861833,-0.6529049078555986,-0.2449009371650379,0.0,10.456743472966366,8.435954671470562,267.87391280536167,260.7908126399882,0.0
0.042,3.0293466590271594,-0.724950375446689,-0.22598474575636507,0.0,10.32788008503736,8.314295563600465,267.6259443014448,260.7908126399882,0.0
0.043000000000000003,2.8880778882725044,-0.7935526057024319,-0.17035181041249814,0.0,10.206562915766478,8.211780062936642,267.2886441086086,260.7908126399882,0.0
0.044,2.7640580915544186,-0.8583027943192707,-0.0666800286805973,0.0,10.093562411801582,8.130461451980624,266.8215306159906,260.7908126399882,0.0
0.045,2.6587812863750666,-0.9167844667896335,0.10656953786838397,0.0,9.989515579223154,8.074335636829332,266.2814052190977,260.7908126399882,0.0
0.046,2.5736020388946406,-0.971293948442618,0.32172631052374134,0.0,9.895672074644565,8.043669418432982,265.8256551796452,260.7908126399882,0.0
0.047,2.5106027971817233,-1.0210693843416425,0.499252904853412,0.0,9.81307650181656,8.030139953181735,265.52502938532785,260.7908126399882,0.0
0.048,2.466355510678134,-1.0650106263279517,0.6022236345586855,0.0,9.741723322005736,8.023492600595363,264.7454015250114,260.7908126399882,0.0
0.049,2.43614917115787,-1.0975111115745961,0.9524916758666797,0.0,9.679976365874623,8.05075466701556,263.9379377095201,260.7908126399882,0.0
0.05,2.4290856271057333,-1.1251703557806578,1.3247523329170123,0.0,9.629847824008845,8.107036749493624,263.1517857343354,260.7908126399882,0.0
0.051000000000000004,2.447302482372327,-1.1510373427220788,1.69421858956588,0.0,9.592929120698946,8.187521961678323,262.40126985361087,260.7908126399882,0.0
0.052000000000000005,2.490365246388247,-1.1743322890077652,2.053371957791928,0.0,9.570054583160516,8.287524254762852,265.0511582420988,260.7908126399882,0.0
0.053,2.55716249178708,-1.191457666735626,0.6858243075268673,0.0,9.56111857077159,8.214300020219959,259.59926459429965,260.7908126399882,0.0
0.054,2.562315257526075,-1.1487936118629452,3.423686611883315,0.0,9.540889436353991,8.46244610609702,259.40167056817177,260.7908126399882,0.0
0.055,2.6739312468280017,-1.1715210896067352,3.536375045665423,0.0,9.550424487066408,8.65654554345126,261.03530535786,260.7908126399882,0.0
0.056,2.829119002995394,-1.186536777210698,2.717112723642583,0.0,9.579840427302004,8.724988309095593,259.0879447472034,260.7908126399882,0.0
0.057,2.950143475719067,-1.15938890764808,3.707821707898746,0.0,9.610022627550547,8.894938189249526,256.2797998514753,260.7908126399882,0.0
0.058,3.091570832422131,-1.1489444981579893,5.157004283647928,0.0,9.653304189441341,9.18606753039267,257.93633270544916,260.7908126399882,0.0
0.059000000000000004,3.3060802042012813,-1.1634187908801454,4.357282656006375,0.0,9.72306714555171,9.327769131483837,258.18953973917826,260.7908126399882,0.0
0.06,3.497252399365225,-1.1375101813389443,4.256691868149925,0.0,9.797029276183403,9.440325249938892,256.3960642954146,260.7908126399882,0.0
0.061,3.6629251258492346,-1.0843909900624409,5.197377073477496,0.0,9.869266780652431,9.637190972114603,255.2769914359149,260.7908126399882,0.0
0.062,3.8513350360504823,-1.046816781396564,5.812051715268069,0.0,9.950365135851648,9.860732868206041,254.0647207321138,260.7908126399882,0.0
0.063,4.075848635319746,-1.0075676687798334,6.485447986247361,0.0,10.0417661848389,10.115144856780462,252.44476673090563,260.7908126399882,0.0
0.064,4.333071287475683,-0.9776487430877604,7.378885445942279,0.0,10.146569737084915,10.418750553508355,251.30202927499292,260.7908126399882,0.0
0.065,4.633964562642865,-0.9590814295614425,8.045142007548586,0.0,10.26951028854814,10.736303849220977,250.58016652128995,260.7908126399882,0.0
0.066,4.966690978440845,-0.9449457307777185,8.508179845587051,0.0,10.410542860705355,11.045076494090718,250.02059962045024,260.7908126399882,0.0
0.067,5.314954586819516,-0.9253922496822278,8.895665426202287,0.0,10.56633991420116,11.340086434412825,249.23523742362676,260.7908126399882,0.0
0.068,5.6676603662314395,-0.8959009144954517,9.403902276777643,0.0,10.733009744320002,11.637891284157911,248.38876008128932,260.7908126399882,0.0
0.069,6.0278945878674,-0.8580242704631972,9.95116147353335,0.0,10.908921558909789,11.941600068491912,258.9303585600136,260.7908126399882,0.0
0.07,6.34520069866803,-0.9040100415123852,4.6989667749709625,0.0,11.103050271729733,11.618013817070365,266.304601872888,260.7908126399882,0.0
0.07100000000000001,6.301034160329978,-0.9121067580191458,0.9567072262047653,0.0,11.245838269230777,10.995103839019496,269.80905469866656,260.7908126399882,0.0
0.07200000000000001,5.937125405177518,-0.8237869583014137,-0.885701607271304,0.0,11.302260324042615,10.323109580012508,270.1701637990852,260.7908126399882,0.0
0.073,5.393644223328307,-0.6819680163086682,-1.160049669071582,0.0,11.271123861850544,9.768346596376018,268.9014257685121,260.7908126399882,0.0
0.074,4.823089428547153,-0.5535358324320043,-0.6067867850702982,0.0,11.174915396707524,9.38687487834955,267.70984219874885,260.7908126399882,0.0
0.075,4.332283890921823,-0.4813740968332071,-0.0801852957762641,0.0,11.043527137199057,9.134606081784733,267.37125111625875,260.7908126399882,0.0
0.076,3.9533856942680505,-0.4714021007665353,0.02330586070607943,0.0,10.89967552177361,8.93731409750133,267.4169083287032,260.7908126399882,0.0
0.077,3.663763154661105,-0.5051743330362994,-0.0657837024032899,0.0,10.754294534972711,8.762600883987094,267.492121472242,260.7908126399882,0.0
0.078,3.433062203837512,-0.5628542127996884,-0.1704033624952297,0.0,10.611987389951754,8.602684505359697,267.4735704963742,260.7908126399882,0.0
0.079,3.2397240567143997,-0.6311117540239245,-0.22795545312518417,0.0,10.474850852307183,8.458204703399874,267.3224355744438,260.7908126399882,0.0
0.08,3.071936585213103,-0.7022905473686027,-0.21770422150453683,0.0,10.344127080086755,8.332685624650063,267.12855742957686,260.7908126399882,0.0
0.081,2.925298235053397,-0.7719933983564646,-0.1841425969669661,0.0,10.220879302888612,8.224687686738667,266.80812355690136,260.7908126399882,0.0
0.082,2.79670029653664,-0.8374444736133438,-0.0840987697983504,0.0,10.10565909938752,8.138513359377017,266.42472523101407,260.7908126399882,0.0
0.083,2.6863538797156865,-0.8986740457584839,0.05126126723504054,0.0,9.999424225683772,8.074175736668543,265.92103689110286,260.7908126399882,0.0
0.084,2.5957363369269966,-0.9534722637316869,0.25180319467949763,0.0,9.902794585335148,8.035218866047646,265.3651402649585,260.7908126399882,0.0
0.085,2.525593642639646,-1.004827509398448,0.4840082315019818,0.0,9.817033316802913,8.020841374173733,265.14401976822666,260.7908126399882,0.0
0.08600000000000001,2.4774007942816043,-1.051718512724919,0.5510364085855115,0.0,9.74305488384575,8.008976340121457,264.5352155966998,260.7908126399882,0.0
0.08700000000000001,2.4421064332753972,-1.0877841966869686,0.8179944647818229,0.0,9.67878610598164,8.022995521816553,263.49383902761735,260.7908126399882,0.0
0.088,2.4268644353841573,-1.1149535838506608,1.311652485446754,0.0,9.624974099821832,8.082142385424882,262.86599409033386,260.7908126399882,0.0
0.089,2.4408509432136554,-1.145479690684279,1.6048231395850463,0.0,9.585544158518902,8.155614617964805,262.16357549296544,260.7908126399882,0.0
0.09,2.4785804641680342,-1.1707873821664325,1.9423048097394844,0.0,9.559883019594954,8.24797752806936,264.4207491621141,260.7908126399882,0.0
0.091,2.5376743200429956,-1.1906674513075215,0.7774186099439042,0.0,9.547958016264559,8.190902705655304,259.8845555660925,260.7908126399882,0.0
0.092,2.545953959582638,-1.1546377084117958,3.054577978693649,0.0,9.527355958615853,8.400159435919429,259.27233636192784,260.7908126399882,0.0
0.093,2.6412331185053226,-1.1714806785639835,3.3758723435565825,0.0,9.531952803904135,8.588603162753603,260.7650672503293,260.7908126399882,0.0
0.094,2.7832062091245042,-1.186513309890893,2.6297643532524373,0.0,9.556419497091436,8.658713130472215,258.9221927526636,260.7908126399882,0.0
0.095,2.8978431340730886,-1.1613367652699322,3.5698878009585426,0.0,9.5825307715103,8.823943099050258,256.25543410555844,260.7908126399882,0.0
0.096,3.0332816014622273,-1.1524008821389393,4.948620909855418,0.0,9.62182273364688,9.10376874355066,257.91862527464167,260.7908126399882,0.0
0.097,3.23891695574533,-1.166449849391586,4.145747198967266,0.0,9.686802809248944,9.23617207623076,258.00944135027066,260.7908126399882,0.0
0.098,3.4203595526744777,-1.1400591085643628,4.1281528740499445,0.0,9.755481739395288,9.35002411245166,256.1507798295981,260.7908126399882,0.0
0.099,3.581671601771971,-1.087437648955264,5.10388396249013,0.0,9.823153527000361,9.550935301611267,252.51901594883884,260.7908126399882,0.0
0.1,3.7689936678068463,-1.0524138133648524,7.0024838697812495,0.0,9.900822847442033,9.91861892276018,253.54351844986584,260.7908126399882,0.0
0.101,4.053916329895204,-1.0563413230151075,6.562705561168972,0.0,10.008275862371862,10.160471228648735,253.54988076885223,260.7908126399882,0.0
0.10200000000000001,4.335914800904827,-1.039566610865024,6.631933720387137,0.0,10.127284312964548,10.372725880851362,252.42587215294574,260.7908126399882,0.0
0.10300000000000001,4.603223070985857,-1.0039103990110716,7.277587433210806,0.0,10.2518629475358,10.619401614712604,251.21100233674377,260.7908126399882,0.0
0.10400000000000001,4.882506119407786,-0.9635644280522584,7.980820444344234,0.0,10.38456979734912,10.896718680115685,250.2508124133099,260.7908126399882,0.0
0.105,5.1866201505325,-0.9245328158792538,8.566315408327961,0.0,10.527847651091973,11.186287126947164,249.28249832994578,260.7908126399882,0.0
0.106,5.513214940526712,-0.8863344726928495,9.165555593110437,0.0,10.68194306251491,11.4884036985679,248.20266991207086,260.7908126399882,0.0
0.107,5.861553694075835,-0.8483190864561365,9.831351229327073,0.0,10.847040880903455,11.807911957314397,255.96486240902902,260.7908126399882,0.0
0.108,6.207691241084177,-0.855276981269212,5.998514483157582,0.0,11.028725265619599,11.649117430948865,263.5776725327791,260.7908126399882,0.0
0.109,6.2569982152806345,-0.8885357190548269,2.164240822354632,0.0,11.17995064143587,11.138966668773346,268.73794291363146,260.7908126399882,0.0
0.11,6.001923876278519,-0.8293431428106681,-0.4953656708079772,0.0,11.258194632688241,10.469290789789339,269.42424059944153,260.7908126399882,0.0
0.111,5.515308034219408,-0.7003653846532492,-0.924848793307548,0.0,11.248051009282102,9.904736818522135,268.2154527669542,260.7908126399882,0.0
0.112,4.967190672862113,-0.5740146668046584,-0.39470127833352775,0.0,11.169857549708084,9.513661691241879,267.43186238548213,260.7908126399882,0.0
0.113,4.480841648400013,-0.4984303010693669,-0.06931658505244798,0.0,11.053325150311045,9.232382790920683,266.9642337361003,260.7908126399882,0.0
0.114,4.087704490462189,-0.47882044407992885,0.10276352867734184,0.0,10.918916860210109,9.021635103397912,267.031345318559,260.7908126399882,0.0
0.115,3.7821918238109546,-0.5041348970183168,0.006802410662301472,0.0,10.779855318760106,8.83591985325063,267.1421353040697,260.7908126399882,0.0
0.116,3.5362483668471856,-0.5557705438419338,-0.11210580873388087,0.0,10.641555183061588,8.666748334619147,267.21093750049266,260.7908126399882,0.0
0.117,3.3296242808147722,-0.6196961991008703,-0.2107081555504009,0.0,10.50668337468002,8.51127599321903,267.1099834941098,260.7908126399882,0.0
0.11800000000000001,3.149091970864137,-0.6874993214914908,-0.2234228609001998,0.0,10.376570599906975,8.375243424234702,266.9444234353861,260.7908126399882,0.0
0.11900000000000001,2.9903862161224772,-0.7550291500120434,-0.20217893949232257,0.0,10.252616095626157,8.257919123001948,266.66238476263305,260.7908126399882,0.0
0.12,2.850919695736105,-0.8193857532356269,-0.11987532434224146,0.0,10.135728539719535,8.162527019611897,266.31473732696924,260.7908126399882,0.0
0.121,2.730460680979685,-0.8804267066225375,-0.001290853380143453,0.0,10.027061467904893,8.089062453043862,265.8456335585059,260.7908126399882,0.0
0.122,2.6302218010062632,-0.9357278307128324,0.1827128216663576,0.0,9.927387360730975,8.040953882146175,265.3034211252417,260.7908126399882,0.0
0.123,2.5508317244272662,-0.9878875649945399,0.4086929534459136,0.0,9.838054366714768,8.018437054990107,265.0402292301225,260.7908126399882,0.0
0.124,2.494091988548305,-1.03600951032192,0.4977947351041596,0.0,9.760174806027765,8.002227475993529,264.5249148769566,260.7908126399882,0.0
0.125,2.451994929332036,-1.0750709424838443,0.7181108893174422,0.0,9.692277781594345,8.007257937129788,263.69338673285034,260.7908126399882,0.0
0.126,2.428785581040496,-1.1046024663023324,1.1048492204419427,0.0,9.63453135901631,8.047465762310548,262.90464211807745,260.7908126399882,0.0
0.127,2.4303078083922918,-1.1334012709619516,1.4780832330474976,0.0,9.589452914488524,8.11466698229918,262.22044163232545,260.7908126399882,0.0
0.128,2.458489907278573,-1.1593271732545083,1.8058871860001253,0.0,9.558166297617968,8.199881521930934,261.7448462966993,260.7908126399882,0.0
0.129,2.5072241026017945,-1.1841008124699903,2.034144517246098,0.0,9.540995637688416,8.290197272323296,262.8285006295518,260.7908126399882,0.0
0.13,2.5758960171031196,-1.1914586832008993,1.4719404709242028,0.0,9.535135248179303,8.298572794633685,259.30672131667615,260.7908126399882,0.0
0.131,2.6159099636116316,-1.1678259102222834,3.247671040595149,0.0,9.528025266117185,8.502762313918222,259.1057413743148,260.7908126399882,0.0
0.132,2.725844614036449,-1.1845429728692296,3.365011724432562,0.0,9.54412043881068,8.669279380511854,260.44007896726504,260.7908126399882,0.0
0.133,2.8678253626369807,-1.1859970172323946,2.701350264684669,0.0,9.57525057514767,8.732059554463023,258.0829316437236,260.7908126399882,0.0
0.134,2.9798794908229445,-1.1486798103477533,3.9070027364180278,0.0,9.605426282045132,8.920026964526468,255.48861391317394,260.7908126399882,0.0
0.135,3.1245793378743216,-1.1383677193982382,5.257183588961008,0.0,9.650620001323595,9.213882131441919,257.1369739078213,260.7908126399882,0.0
0.136,3.343759983830639,-1.1513608362760341,4.469541978958995,0.0,9.722212229131808,9.36006589538334,257.2891423346794,260.7908126399882,0.0
0.137,3.53990587031949,-1.1257107378570403,4.428474468583027,0.0,9.798312168558475,9.48276525461589,255.83966813927327,260.7908126399882,0.0
0.138,3.7132215891227793,-1.0752202331980172,5.202723011293246,0.0,9.87377459543743,9.669279416466264,254.31866467134464,260.7908126399882,0.0
0.139,3.90612320621916,-1.0283407028147302,6.027946224944,0.0,9.955690352517953,9.908234452201413,252.2891113467708,260.7908126399882,0.0
