timestamp,iq,id,iq_ref,id_ref,vq,vd,omega,omega_ref,r
0.0,0.0,0.0,0.0,0.0,0.0,0.0,0.0,403.914711361997,0.0
0.001,0.0,0.0,10.0,0.0,0.0,1.0999999999999999,6.381609663308679,403.914711361997,0.0
0.002,0.5631867332091991,-0.3305216375398677,10.0,0.0,0.14635738012938548,1.9280494593469877,13.146395305342804,403.914711361997,0.0
0.003,0.9837542368407671,-0.5724221143297488,10.0,0.0,0.3841878042520194,2.6472991527048353,20.1379296423346,403.914711361997,0.0
0.004,1.311009516742032,-0.7600364687455826,10.0,0.0,0.6883787295160176,3.2866145133863376,27.353333585766052,403.914711361997,0.0
0.005,1.5704024601118212,-0.9086478762449671,10.0,0.0,1.04055320960254,3.867156759554425,34.7313309604979,403.914711361997,0.0
0.006,1.7799340542138722,-1.0285929243159646,10.0,0.0,1.427272307510035,4.404407683196828,42.19291838939893,403.914711361997,0.0
0.007,1.9525350525564393,-1.1276611488964972,10.0,0.0,1.8387426422141693,4.909714630389081,49.73806070374349,403.914711361997,0.0
0.008,2.097995838916556,-1.2109188668827866,10.0,0.0,2.2677643048998015,5.391363239816331,57.32146946193908,403.914711361997,0.0
0.009000000000000001,2.223211398115508,-1.2824886583017452,10.0,0.0,2.709088762135819,5.855430050921139,64.96394854479809,403.914711361997,0.0
0.01,2.333401592527229,-1.3450478021956696,10.0,0.0,3.1588532626728583,6.306353860845767,72.45681972465482,403.914711361997,0.0
0.011,2.4318850582720826,-1.4013854546916198,10.0,0.0,3.6143052444842696,6.747430460543818,79.96967135702556,403.914711361997,0.0
0.012,2.5218616267657756,-1.452199623708029,10.0,0.0,4.073345870151192,7.181032010576348,87.5855424632692,403.914711361997,0.0
0.013000000000000001,2.606078372908157,-1.4973024400517374,10.0,0.0,4.534295756362319,7.608813391781592,94.95933821453394,403.914711361997,0.0
0.014,2.6851119796585747,-1.5390127821446862,10.0,0.0,4.996065901539643,8.032060094206301,102.35457099535006,403.914711361997,0.0
0.015,2.760755409876668,-1.5767128832796335,10.0,0.0,5.457713610145621,8.451628699649788,109.62196858098729,403.914711361997,0.0
0.016,2.8339077050737655,-1.6106863145808048,10.0,0.0,5.91851348486713,8.868114897240023,116.71282481662459,403.914711361997,0.0
0.017,2.905331768074729,-1.6410266164039198,10.0,0.0,6.377879690763042,9.28190733856525,123.61819710140954,403.914711361997,0.0
0.018000000000000002,2.9758337403074147,-1.6674626143073799,10.0,0.0,6.835293076953034,9.693216180031962,130.5110292419761,403.914711361997,0.0
0.019,3.046697004971586,-1.6887296518717183,10.0,0.0,7.290171022823743,10.102045536580267,136.81922841376476,403.914711361997,0.0
0.02,3.1173791423495554,-1.7065252317418849,10.0,0.0,7.742188953172285,10.508413349595882,143.12688672094038,403.914711361997,0.0
0.021,3.189696094163614,-1.7185313408841467,10.0,0.0,8.190784587994482,10.912098131019022,149.2839399125284,403.914711361997,0.0
0.022,3.2640710057284843,-1.7247277782898025,10.0,0.0,8.635450684499974,11.312815927028067,155.12483124030848,403.914711361997,0.0
0.023,3.3412013085819066,-1.7246576763089458,10.0,0.0,9.075652275363868,11.710187968888532,160.48899914759144,403.914711361997,0.0
0.024,3.421744599874832,-1.7179459792436949,10.0,0.0,9.510833325670053,12.103754506635655,165.95507707465293,403.914711361997,0.0
0.025,3.506050760647613,-1.7047480638302708,10.0,0.0,9.940468270995504,12.493014250866606,171.49266339026272,403.914711361997,0.0
0.026000000000000002,3.5944222189255717,-1.685313730589425,10.0,0.0,10.364059898709147,12.877433716404157,176.8738745143627,403.914711361997,0.0
0.027,3.687122880768764,-1.659979568069908,10.0,0.0,10.781141895660443,13.256457039939347,182.0683870811647,403.914711361997,0.0
0.028,3.7840606832905896,-1.6296724242800247,10.0,0.0,11.191337581078436,13.629550079157179,186.9973519410194,403.914711361997,0.0
0.029,3.8868284169520666,-1.5925289825831048,10.0,0.0,11.594040294727652,13.99601831031748,191.90598210827963,403.914711361997,0.0
0.03,3.991456854470038,-1.5558279389709408,10.0,0.0,11.98945387974761,14.355628538936314,195.7845025339408,403.914711361997,0.0
0.031,4.101771873987817,-1.514021159837272,10.0,0.0,12.37705539385887,14.707730735423482,199.11226313323868,403.914711361997,0.0
0.032,4.219316525095144,-1.4651462254878778,10.0,0.0,12.756148801220624,15.051556102246433,202.32149933669137,403.914711361997,0.0
0.033,4.342035921499992,-1.4131522693273058,10.0,0.0,13.12648481869433,15.386584586029805,204.70685582569976,403.914711361997,0.0
0.034,4.470066211286722,-1.3583295923490588,10.0,0.0,13.487779527893004,15.712287685269718,202.1923863783183,403.914711361997,0.0
0.035,4.614939740589029,-1.281706661323899,10.0,0.0,13.837634780452813,16.02689416018012,207.1981934054263,403.914711361997,0.0
0.036000000000000004,4.743674612234896,-1.2386937344739233,10.0,0.0,14.179999962604438,16.332313412267442,206.10375385172225,403.914711361997,0.0
0.037,4.909133797177266,-1.1408387735886862,10.0,0.0,14.508336635320754,16.624514095733993,205.29096564731512,403.914711361997,0.0
0.038,5.043313005601973,-1.102274018374936,10.0,0.0,14.829796135647435,16.907223257048226,209.30934193193295,403.914711361997,0.0
0.039,5.207655492761985,-1.0198814989057696,10.0,0.0,15.138703072483395,17.177071570760347,213.83083477393964,403.914711361997,0.0
0.04,5.339086596109856,-0.9977103209951723,10.0,0.0,15.442089242631505,17.43801175028819,215.46228251532375,403.914711361997,0.0
0.041,5.3862882557510865,-1.1054957187292191,10.0,0.0,15.753308919247434,17.699318657350993,229.71425139461795,403.914711361997,0.0
0.042,5.432871458072105,-1.2035842227503903,10.0,0.0,16.069249200373044,17.96096470571022,232.65305767001226,403.914711361997,0.0
0.043000000000000003,5.4826406573186155,-1.285515173486063,10.0,0.0,16.387791577762727,18.223031397452175,246.52827835924236,403.914711361997,0.0
0.044,5.497606883796742,-1.4189576228460963,10.0,0.0,16.71454574650988,18.489597064838776,248.71813745712151,403.914711361997,0.0
0.045,5.521895933094336,-1.5255794814659498,10.0,0.0,17.045675045075562,18.759659449203482,263.7995197103722,403.914711361997,0.0
0.046,5.537740901398697,-1.6350252684625945,10.0,0.0,17.381670470204575,19.03432846896777,274.5951643450888,403.914711361997,0.0
0.047,5.525941256830343,-1.7809271393165287,10.0,0.0,17.72648800272109,19.316586539854104,282.17477505834034,403.914711361997,0.0
0.048,5.505527103374785,-1.9283661212980447,10.0,0.0,18.079808858384013,19.60722811733788,288.35364300686433,403.914711361997,0.0
0.049,5.491303044436712,-2.048364445310396,10.0,0.0,18.438587212050557,19.9054981275882,299.74031621257495,403.914711361997,0.0
0.05,5.464771608876004,-2.1724786693027807,10.0,0.0,18.803767312774525,20.21259518950244,310.7569031468755,403.914711361997,0.0
0.051000000000000004,5.422340250144606,-2.3064698796799723,10.0,0.0,19.176637000519083,20.529902690402505,321.68731339495054,403.914711361997,0.0
0.052000000000000005,5.369126512991122,-2.4404064313396128,10.0,0.0,19.557343578157987,20.858195607486582,333.13327728660124,403.914711361997,0.0
0.053,5.310224251774973,-2.564806774092901,10.0,0.0,19.945153461927678,21.197677001988392,342.90321264741885,403.914711361997,0.0
0.054,5.250786453162538,-2.6712810020375324,10.0,0.0,20.33859865841694,21.547940380652193,351.6585539856336,403.914711361997,0.0
0.055,5.191152728731155,-2.761460265989381,10.0,0.0,20.736580649878924,21.908487272799867,360.59393783217405,403.914711361997,0.0
0.056,5.139383268003328,-2.82500822639821,10.0,0.0,21.136907614414923,22.27787597831471,368.7312043392272,403.914711361997,0.0
0.057,5.101365658462719,-2.856885935318101,10.0,0.0,21.53701182142592,22.65402275217387,375.4810753193724,403.914711361997,0.0
0.058,5.083006586098026,-2.8537511198916303,10.0,0.0,21.934056678335615,23.03420459121292,380.4842299481392,403.914711361997,0.0
0.059000000000000004,5.089891805684144,-2.8140138808714337,10.0,0.0,22.325075485320276,23.41513176716091,383.4144040696843,403.914711361997,0.0
0.06,5.126723777687224,-2.7381784162152516,10.0,0.0,22.707140600479296,23.793085441488095,383.99472917847146,403.914711361997,0.0
0.061,5.197469999203994,-2.627854828104307,10.0,0.0,23.07741733150951,24.164036495251654,382.02232530709557,403.914711361997,0.0
0.062,5.305721474718381,-2.4843999404777573,10.0,0.0,23.43308469305523,24.52371991665045,377.49100026824016,403.914711361997,0.0
0.063,5.454178464917598,-2.3091215985360356,10.0,0.0,23.771307591848938,24.86775397789718,374.0942957579682,403.914711361997,0.0
0.064,5.646856998409435,-2.099154227154963,10.0,0.0,24.08876797945545,25.191496854116497,374.8560992794061,403.914711361997,0.0
0.065,5.86529191744985,-1.8864280883243763,10.0,0.0,24.385556414365684,25.492510425715,374.9380476693389,403.914711361997,0.0
0.066,6.087347252933765,-1.7078409668120824,10.0,0.0,24.665250040966704,25.77085974593185,360.9436687556709,403.914711361997,0.0
0.067,6.336787331919376,-1.5228866170613324,10.0,0.0,24.926250129671846,26.02412564145354,358.55896636286855,403.914711361997,0.0
0.068,6.646954137458732,-1.2713571509515895,10.0,0.0,25.160658101284078,26.246541008474107,346.55341690147367,403.914711361997,0.0
0.069,6.918175289989359,-1.11431370288576,10.0,0.0,25.379107327810992,26.443422977230856,346.5805301514647,403.914711361997,0.0
0.07,7.2376130531102785,-0.9043977187558294,10.0,0.0,25.57387950478727,26.610035729346635,348.63042593928253,403.914711361997,0.0
0.07100000000000001,7.42127299558721,-0.9310291485955857,10.0,0.0,25.77086435640116,26.762456207907203,359.35220355330756,403.914711361997,0.0
0.07200000000000001,7.405230756188588,-1.2229033300430143,10.0,0.0,25.995232616370537,26.92293436953173,377.18570672008815,403.914711361997,0.0
0.073,7.397929717326819,-1.44814771139677,10.0,0.0,26.235070006639866,27.09044423287154,389.1608666945646,403.914711361997,0.0
0.074,7.310886808247166,-1.76383638401711,10.0,0.0,26.500147954390947,27.274688558514445,399.8517921762752,403.914711361997,0.0
0.075,7.236882626812986,-2.0080968236805674,8.781052717249462,0.0,26.780854301567988,27.340202076132577,418.15358171921537,403.914711361997,0.0
0.076,7.057785666096711,-2.2270347956490673,-0.5122307577928122,0.0,27.061681938309036,26.43612379114392,430.4039093477224,403.914711361997,0.0
0.077,6.320890012460393,-2.221461599006871,-6.902286551903579,0.0,27.22121655152679,25.119830348019285,433.17217896014944,403.914711361997,0.0
0.078,5.378952943709137,-2.049685949487542,-8.578996034098628,0.0,27.214328769629603,23.926826346454828,433.81585854375055,403.914711361997,0.0
0.079,4.542368228806572,-1.8780914759420138,-9.199847297716719,0.0,27.07167173017087,22.883512370632822,430.59134326425186,403.914711361997,0.0
0.08,3.8407407421473247,-1.7223679938058463,-7.854355976989924,0.0,26.82353535877629,22.15328982274676,426.0207665775251,403.914711361997,0.0
0.081,3.3533564804649423,-1.6279491655268639,-5.790128185781814,0.0,26.518361533443233,21.73148203025395,422.4814633829898,403.914711361997,0.0
0.082,3.07535826804249,-1.5852202575551222,-4.2061441087240885,0.0,26.197768319800097,21.500639565791012,418.6369559011937,403.914711361997,0.0
0.083,2.9404449241449484,-1.5523614138340198,-2.4311128132180126,0.0,25.882962997345377,21.452296113849656,414.00566901846435,403.914711361997,0.0
0.084,2.9348756530831057,-1.5271691698807117,-0.21637894841801497,0.0,25.592361303544337,21.602440373407735,409.1518656303581,403.914711361997,0.0
0.085,3.059534011745958,-1.519475610270696,2.158151202951502,0.0,25.345239835961657,21.93379290346902,404.4368624824145,403.914711361997,0.0
0.08600000000000001,3.3005278868099794,-1.5269199789951677,4.51043126571913,0.0,25.156861584299154,22.417040796486237,400.0047604123441,403.914711361997,0.0
0.08700000000000001,3.638120536858187,-1.5428376182818597,6.765581810250837,0.0,25.03732244373891,23.022944581551624,396.07063318287913,403.914711361997,0.0
0.088,4.053804028766594,-1.5606347037291048,8.811086206774512,0.0,24.99212609874758,23.716408794617305,392.5441978772151,403.914711361997,0.0
0.089,4.5264380066172745,-1.574583034252909,10.0,0.0,25.022152155065076,24.39849952252235,388.4913768221272,403.914711361997,0.0
0.09,5.000896530595277,-1.5680988685854216,10.0,0.0,25.116531937012667,24.956030547477315,377.54736889714934,403.914711361997,0.0
0.091,5.425696106753959,-1.5064652420038505,10.0,0.0,25.2505119859937,25.425263079993872,368.3925636880887,403.914711361997,0.0
0.092,5.858706759111351,-1.344514597705715,10.0,0.0,25.400819048721317,25.817587188159145,369.44170287795407,403.914711361997,0.0
0.093,6.235117480653039,-1.2199977153954449,10.0,0.0,25.563250465381536,26.148634518934628,353.0295368057517,403.914711361997,0.0
0.094,6.61603711899644,-1.055234570316344,10.0,0.0,25.725664696317693,26.424683205296244,352.8300969398124,403.914711361997,0.0
0.095,6.971859273831324,-0.9119098325211854,10.0,0.0,25.885324283089712,26.654037205466906,348.4384108809947,403.914711361997,0.0
0.096,7.320217291692104,-0.7686243817079261,10.0,0.0,26.037625158990092,26.841660603881373,356.17908676437077,403.914711361997,0.0
0.097,7.3817175101130985,-1.0417679101307638,10.0,0.0,26.224936929776533,27.022470306196723,377.3116162874413,403.914711361997,0.0
0.098,7.392973575214675,-1.3136554845639679,10.0,0.0,26.43877469161927,27.203307050382215,382.8754085031352,403.914711361997,0.0
0.099,7.352927945990582,-1.6088267647175578,10.0,0.0,26.679062316768864,27.391961476199107,401.55669103177377,403.914711361997,0.0
0.1,7.303454576723969,-1.8592692731380525,7.041241788415668,0.0,26.93878358510989,27.265357433002077,418.31079076904194,403.914711361997,0.0
0.101,7.012062228174663,-2.0944583373617993,-1.4797688742888706,0.0,27.183238694277527,26.301220754824953,423.87070115387934,403.914711361997,0.0
0.10200000000000001,6.269939851304847,-2.068007694788717,-4.459283964626392,0.0,27.301573163385417,25.294126240042406,429.8592815019983,403.914711361997,0.0
0.10300000000000001,5.507087395620906,-1.993506879420508,-7.713019840085877,0.0,27.29943415083948,24.147951374608276,432.16211692728353,403.914711361997,0.0
0.10400000000000001,4.70651948884222,-1.856104756413781,-9.14691160838137,0.0,27.16852232762767,23.071423303893862,430.7286867205694,403.914711361997,0.0
0.105,3.9839524936233404,-1.7103988125852014,-8.698336258610018,0.0,26.928395247074526,22.22461575449381,426.66924614615357,403.914711361997,0.0
0.106,3.4284791624132307,-1.6015603476603406,-6.896161319243675,0.0,26.61708494793323,21.686106138291947,422.23041095838556,403.914711361997,0.0
0.107,3.080195778547413,-1.5473347525396233,-4.859900721323558,0.0,26.27817828627186,21.409039809086842,418.436578911166,403.914711361997,0.0
0.108,2.9112721783111306,-1.525866729704151,-3.1082033732054715,0.0,25.943636431295413,21.313212311137228,414.341223829801,403.914711361997,0.0
0.109,2.874221162321527,-1.5087259046241521,-1.1647909572009976,0.0,25.63129520149121,21.392158145520728,409.50377489602926,403.914711361997,0.0
0.11,2.954470404749966,-1.5020183118645793,1.1980428743445426,0.0,25.35751625115302,21.663254943968415,404.9005525510556,403.914711361997,0.0
0.111,3.157399300074606,-1.5104653599912867,3.489795634940771,0.0,25.139221126914954,22.086808946826196,400.33182692627463,403.914711361997,0.0
0.112,3.457574152102427,-1.5271247506907681,5.8099872916884925,0.0,24.98685897788215,22.647491646840884,396.22671037660456,403.914711361997,0.0
0.113,3.8436528216792554,-1.5482466162279596,7.939425576377452,0.0,24.90795812505619,23.30843925156595,392.588077663695,403.914711361997,0.0
0.114,4.294063945417516,-1.566525664424079,9.87200826981525,0.0,24.904841594631538,24.04100728705174,389.3671009756031,403.914711361997,0.0
0.115,4.791072576807769,-1.5793548000502773,10.0,0.0,24.97652193523485,24.64459329111689,383.1781240825106,403.914711361997,0.0
0.116,5.226489990666041,-1.5483250746422152,10.0,0.0,25.097851281033194,25.150782982323495,369.7515505699053,403.914711361997,0.0
0.117,5.648371032592441,-1.4349330055924638,10.0,0.0,25.245503831030973,25.576433898515955,368.46857307293885,403.914711361997,0.0
0.11800000000000001,6.06183123590144,-1.2672861307693373,10.0,0.0,25.403648982108173,25.933023166144224,359.91001642059024,403.914711361997,0.0
0.11900000000000001,6.4110658916498995,-1.1641002625655732,10.0,0.0,25.571964568086287,26.235486812018138,354.10618033208516,403.914711361997,0.0
0.12,6.809933752596218,-0.9538747712681195,10.0,0.0,25.731602014693312,26.484152533755868,340.49501602000385,403.914711361997,0.0
0.121,7.158528423998776,-0.8108158370262202,10.0,0.0,25.886508060959777,26.68955869273571,356.1395763795541,403.914711361997,0.0
0.122,7.341198783681344,-0.9262362570460194,10.0,0.0,26.060590954042166,26.87330704759316,364.36567417147126,403.914711361997,0.0
0.123,7.3942696881442895,-1.1579084605304235,10.0,0.0,26.259970131485154,27.052077760379003,379.70036327897395,403.914711361997,0.0
0.124,7.353009544967092,-1.4848028076188928,10.0,0.0,26.49093011860731,27.237978644424672,389.8479877607976,403.914711361997,0.0
0.125,7.3243662856261915,-1.7284672291132037,10.0,0.0,26.74091833831531,27.43112359587373,411.85859143940985,403.914711361997,0.0
0.126,7.23800884774948,-2.0124469689714313,1.2408872701574998,0.0,27.014023358366877,26.67566335943903,419.8354823096645,403.914711361997,0.0
0.127,6.604448322698582,-2.0734204184590483,-2.906765874446493,0.0,27.188139134814875,25.72323701342178,425.73897831427877,403.914711361997,0.0
0.128,5.865881265584543,-2.0260119394282396,-6.076756546276452,0.0,27.243776031828077,24.651149208227825,430.292637333381,403.914711361997,0.0
0.129,5.088087136759115,-1.9215022020022157,-8.617365315541399,0.0,27.175618472294016,23.522238498953406,430.6011108997705,403.914711361997,0.0
0.13,4.318235046886297,-1.7751573158841747,-9.038466094113895,0.0,26.986332757687187,22.55539389530045,427.68945534884307,403.914711361997,0.0
0.131,3.677187977085775,-1.6464997357049205,-7.820385758518639,0.0,26.70660226921721,21.867321682032642,423.02154180748363,403.914711361997,0.0
0.132,3.2284589992473656,-1.5672274364637575,-5.677497292293786,0.0,26.378604231152725,21.48657028603761,419.5181977533879,403.914711361997,0.0
0.133,2.9846341564075063,-1.5372928808187862,-4.081860129159821,0.0,26.042830779166632,21.287518872052132,415.496046030825,403.914711361997,0.0
0.134,2.8751676319699904,-1.5159522379253372,-2.186597614566675,0.0,25.718681405818792,21.276920828500216,410.99019424989666,403.914711361997,0.0
0.135,2.8951833867018966,-1.503624454154198,-0.0044265529814877524,0.0,25.424744515664642,21.45275744533227,406.3016636937001,403.914711361997,0.0
0.136,3.0371242796983524,-1.504807726396239,2.315969201799758,0.0,25.178038413993445,21.7996251931935,401.66415085646264,403.914711361997,0.0
0.137,3.2877015923605666,-1.5183739385341635,4.657231225473835,0.0,24.99217014788825,22.295326325694944,397.3551225855753,403.914711361997,0.0
0.138,3.6317622489506727,-1.5391066304133674,6.877341248681713,0.0,24.87660375562904,22.90832910155356,393.52229903600664,403.914711361997,0.0
0.139,4.050160919416897,-1.5598824002349359,8.897677146725954,0.0,24.835972287943203,23.605927561967782,390.1623680808517,403.914711361997,0.0
0.14,4.523244910732606,-1.5756062249377933,10.0,0.0,24.870685676086467,24.282899932111647,386.4077460641052,403.914711361997,0.0
0.14100000000000001,4.9928688574141855,-1.5683123121180715,10.0,0.0,24.968665393772593,24.837695381300897,376.2263582189082,403.914711361997,0.0
0.14200000000000002,5.411436826113177,-1.5100257088231288,10.0,0.0,25.105988097374787,25.305463020249757,366.1772776324233,403.914711361997,0.0
0.14300000000000002,5.8386945418328065,-1.351693705298275,10.0,0.0,25.259521640156866,25.697373496621786,367.70734826128705,403.914711361997,0.0
0.14400000000000002,6.214866049130351,-1.222252432701074,10.0,0.0,25.42423765634749,26.02833999098928,351.41300964411744,403.914711361997,0.0
0.145,6.5876618446922866,-1.0659850859718625,10.0,0.0,25.58968372494156,26.30543561510025,351.9141879012616,403.914711361997,0.0
0.146,6.944347142079234,-0.9166503875794407,10.0,0.0,25.75143060573145,26.535858858902582,346.05840543035595,403.914711361997,0.0
