timestamp,iq,id,iq_ref,id_ref,vq,vd,omega,omega_ref,r
0.0,0.0,0.0,0.0,0.0,0.0,0.0,0.0,484.43245315883564,0.0
0.001,0.0,0.0,10.0,0.0,0.0,1.0999999999999999,13.372592835868389,484.43245315883564,0.0
0.002,1.0027174640074954,-0.5676927331034876,10.0,0.0,0.17244620064138355,1.879701078959175,22.583901491494657,484.43245315883564,0.0
0.003,2.1811951351994816,-1.2438841980841258,10.0,0.0,0.47432202293138176,2.4790713008955274,33.5848288089627,484.43245315883564,0.0
0.004,3.228739736007921,-1.8417248484562303,10.0,0.0,0.8649478420771403,2.9452469534902366,44.34870133984922,484.43245315883564,0.0
0.005,4.032230222411171,-2.301092902378397,10.0,0.0,1.307680723995511,3.3259591152437773,55.27833164303495,484.43245315883564,0.0
0.006,4.5925153958047,-2.6205759645374047,10.0,0.0,1.7747609901956682,3.659276884804546,66.13875694590546,484.43245315883564,0.0
0.007,4.958505094282367,-2.8284638635864017,10.0,0.0,2.248137845005686,3.971314888930644,76.79390743133229,484.43245315883564,0.0
0.008,5.191038486804598,-2.9591048891073934,10.0,0.0,2.717672448564132,4.277568001932465,87.44066876027003,484.43245315883564,0.0
0.009000000000000001,5.34354526038395,-3.0428996120415177,10.0,0.0,3.1787899123344583,4.5856988528214435,97.74277454069818,484.43245315883564,0.0
0.01,5.4558677164428175,-3.101250070192117,10.0,0.0,3.6301893179838745,4.898297962567875,107.90627880371173,484.43245315883564,0.0
0.011,5.5532651276086735,-3.1479846153603583,10.0,0.0,4.072265989429991,5.21518661123695,117.908133784631,484.43245315883564,0.0
0.012,5.649928520195987,-3.189889406698336,10.0,0.0,4.5059660401939015,5.534935063110781,127.7602322367531,484.43245315883564,0.0
0.013000000000000001,5.752370328891882,-3.229136035427683,10.0,0.0,4.932169012315652,5.855776709842948,137.6636854027479,484.43245315883564,0.0
0.014,5.862758707957501,-3.264876705405527,10.0,0.0,5.351374859308711,6.17603618550381,146.7954340985761,484.43245315883564,0.0
0.015,5.981222797919272,-3.2946893218063034,10.0,0.0,5.763608050272859,6.494263132192754,155.7822492225721,484.43245315883564,0.0
0.016,6.1071208720413255,-3.3158700507975207,10.0,0.0,6.168472370834514,6.809226556055413,164.36113679001235,484.43245315883564,0.0
0.017,6.240133004064195,-3.3254602858999913,10.0,0.0,6.565189720297627,7.119807715806676,172.5196587685449,484.43245315883564,0.0
0.018000000000000002,6.380325754725774,-3.32094115527213,10.0,0.0,6.9527004440694675,7.4249114132765754,180.120822194891,484.43245315883564,0.0
0.019,6.528545566552748,-3.2997394329158443,10.0,0.0,7.3296834670581985,7.72335356158232,187.19830469496722,484.43245315883564,0.0
0.02,6.685424106906042,-3.260706774703375,10.0,0.0,7.694730827398824,8.01387535603577,193.74660897694508,484.43245315883564,0.0
0.021,6.852480058727635,-3.2020213786370952,10.0,0.0,8.046260564165566,8.295042337781096,199.6948528691982,484.43245315883564,0.0
0.022,7.030758282130985,-3.12310788016012,10.0,0.0,8.38266039455836,8.565305549972413,205.08956811623153,484.43245315883564,0.0
0.023,7.221394968049525,-3.023457094310309,10.0,0.0,8.702274111672299,8.82299517076687,210.08317163324395,484.43245315883564,0.0
0.024,7.425402174372263,-2.9027431844636715,10.0,0.0,9.003413396929655,9.06634277535696,213.68304880854308,484.43245315883564,0.0
0.025,7.6436543566212585,-2.760658636490586,10.0,0.0,9.284351352941712,9.293501880029613,216.75987682732315,484.43245315883564,0.0
0.026000000000000002,7.872664151082656,-2.603760103606356,10.0,0.0,9.544073430682298,9.503030314267942,219.0091863093209,484.43245315883564,0.0
0.027,8.119173913700688,-2.42150772701941,10.0,0.0,9.780297367976932,9.692752136913128,213.143996086112,484.43245315883564,0.0
0.028,8.370096736628666,-2.2351362874793006,10.0,0.0,9.993192759223081,9.861987758127363,214.57246219639043,484.43245315883564,0.0
0.029,8.621321943646569,-2.051494486408709,10.0,0.0,10.183385289743674,10.010463811802095,215.76923906528233,484.43245315883564,0.0
0.03,8.887344598478649,-1.8458314607817394,10.0,0.0,10.34861965777142,10.13636127320007,215.37483617072039,484.43245315883564,0.0
0.031,9.15924570634452,-1.6307753943865784,10.0,0.0,10.488320798088992,10.238943529944093,213.7942346069435,484.43245315883564,0.0
0.032,9.43239646209202,-1.412289540149859,10.0,0.0,10.60242716674712,10.317910102991906,211.37780135605465,484.43245315883564,0.0
0.033,9.704309824638587,-1.1925376433260202,10.0,0.0,10.691031705735963,10.373211693278105,208.33895546795952,484.43245315883564,0.0
0.034,9.97251999663511,-0.9733090670306206,10.0,0.0,10.754388325430284,10.405059593140415,212.146434835204,484.43245315883564,0.0
0.035,10.170543477882408,-0.8648180981487483,10.0,0.0,10.804852352327352,10.420957883768686,215.9321711950354,484.43245315883564,0.0
0.036000000000000004,10.232007486575666,-0.9634306287878465,10.0,0.0,10.863792093656663,10.435531941880052,221.16060244475298,484.43245315883564,0.0
0.037,10.238895513424236,-1.1242981239737526,10.0,0.0,10.935004565828235,10.454399525446805,227.80060358291618,484.43245315883564,0.0
0.038,10.20819335641369,-1.3186172681140897,10.0,0.0,11.020748980042905,10.481947715413684,235.50526555381163,484.43245315883564,0.0
0.039,10.152053330024858,-1.5303541744692524,10.0,0.0,11.12202164009046,10.521183909138012,243.41028128094928,484.43245315883564,0.0
0.04,10.080954764716317,-1.747678251054416,10.0,0.0,11.238878932866509,10.573883191414708,248.69384029071483,484.43245315883564,0.0
0.041,9.998036955882132,-1.9709774392481316,10.0,0.0,11.37171009452808,10.641408248060015,250.44879758175622,484.43245315883564,0.0
0.042,9.894629683030947,-2.2204825823919068,10.0,0.0,11.523223219551898,10.726009537132239,260.18073146839305,484.43245315883564,0.0
0.043000000000000003,9.77120459544728,-2.499129024477314,10.0,0.0,11.696201218178519,10.829844696705315,272.5340372350588,484.43245315883564,0.0
0.044,9.660649945052114,-2.7493035171317395,10.0,0.0,11.886997662670913,10.951520900851374,278.27260420386693,484.43245315883564,0.0
0.045,9.548769587800946,-2.9942985604652557,10.0,0.0,12.095329792968823,11.091310421825744,285.94754675589,484.43245315883564,0.0
0.046,9.401044382907383,-3.2953955237137493,10.0,0.0,12.327478377858375,11.253085172698253,299.9463468137286,484.43245315883564,0.0
0.047,9.276522409017993,-3.547476278487434,10.0,0.0,12.57730749273884,11.434117472051359,303.42275874441503,484.43245315883564,0.0
0.048,9.1398522928972,-3.809271978550248,10.0,0.0,12.84653364552575,11.635817945991596,319.45430306709466,484.43245315883564,0.0
0.049,9.001137752583425,-4.062992977468667,10.0,0.0,13.134298583308384,11.858162886089804,327.1060404829992,484.43245315883564,0.0
0.05,8.879877164605924,-4.273450825682346,10.0,0.0,13.436134674636895,12.099001345230844,336.4734372713944,484.43245315883564,0.0
0.051000000000000004,8.754054489306863,-4.479411076236491,10.0,0.0,13.75242205182548,12.358567455993754,347.50788252341283,484.43245315883564,0.0
0.052000000000000005,8.658516316627296,-4.623613145026724,10.0,0.0,14.076839927432882,12.633056665640991,355.62877974165997,484.43245315883564,0.0
0.053,8.586045046846824,-4.721815251096202,10.0,0.0,14.405625147424006,12.919555199833301,363.0213667831552,484.43245315883564,0.0
0.054,8.555234227772797,-4.749198353915641,10.0,0.0,14.732211819084696,13.212946880005834,369.3525276411059,484.43245315883564,0.0
0.055,8.565709991201196,-4.714736269796229,10.0,0.0,15.05141433131524,13.508197617159315,371.68656171229617,484.43245315883564,0.0
0.056,8.646993505002653,-4.5793501519916955,10.0,0.0,15.353673813920771,13.797007102936629,378.2629816280895,484.43245315883564,0.0
0.057,8.763948501781723,-4.411900763095735,10.0,0.0,15.637522725242968,14.075109373889077,372.4868660313835,484.43245315883564,0.0
0.058,9.00769768094919,-4.073784207523308,10.0,0.0,15.885278645304187,14.328143449137873,368.52613268827577,484.43245315883564,0.0
0.059000000000000004,9.245413543682659,-3.788442676763668,10.0,0.0,16.10555597805633,14.556938455758901,372.9993900522467,484.43245315883564,0.0
0.06,9.602403334508484,-3.3629989523481436,10.0,0.0,16.282739683817244,14.747989976629542,364.1190997436181,484.43245315883564,0.0
0.061,10.021514560046347,-2.886016301677843,10.0,0.0,16.413096516759552,14.895122379088296,351.37702346979967,484.43245315883564,0.0
0.062,10.460352081587727,-2.4256452486867155,10.0,0.0,16.499259917331187,14.996496209481238,347.62558639308946,484.43245315883564,0.0
0.063,10.935093773710086,-1.9517487778972593,10.0,0.0,16.53941945962803,15.048515785974002,343.9848938716474,484.43245315883564,0.0
0.064,11.44787985000804,-1.448691754767935,10.0,0.0,16.53016769750812,15.047690307575621,335.9039598503699,484.43245315883564,0.0
0.065,11.969099043906708,-0.9499727150812947,10.0,0.0,16.471930039626134,14.993815950239213,325.77270087965104,484.43245315883564,0.0
0.066,12.475058049648945,-0.48102234487418843,10.0,0.0,16.367531361472786,14.889061964155589,327.40839098907213,484.43245315883564,0.0
0.067,12.90858246724592,-0.12541756536784837,10.0,0.0,16.228670130482787,14.741715412986746,329.47604808479787,484.43245315883564,0.0
0.068,12.990888230702927,-0.30825946979886343,10.0,0.0,16.112629024757386,14.590499004031486,334.095571341441,484.43245315883564,0.0
0.069,12.923190401086433,-0.6547797577730295,10.0,0.0,16.029359201341837,14.451069944291604,339.31293286848194,484.43245315883564,0.0
0.07,12.749379981463713,-1.084537082351607,10.0,0.0,15.984281557117763,14.33569897604648,345.1872553947454,484.43245315883564,0.0
0.07100000000000001,12.501672480754744,-1.5535808897409076,10.0,0.0,15.979471826058615,14.252867061085219,351.5300783687009,484.43245315883564,0.0
0.07200000000000001,12.202481601523328,-2.0416167947221378,10.0,0.0,16.015853388083304,14.20827128622254,359.21248484115597,484.43245315883564,0.0
0.073,11.867813450743872,-2.5395342346640644,10.0,0.0,16.094027775763056,14.205594832842024,372.28757600996767,484.43245315883564,0.0
0.074,11.513055142892402,-3.0353698326413556,10.0,0.0,16.21367982071486,14.246680195923405,382.1706531206505,484.43245315883564,0.0
0.075,11.171603347749429,-3.4793214842291493,10.0,0.0,16.369351523174505,14.329634341579041,390.1816134922495,484.43245315883564,0.0
0.076,10.80073740083714,-3.9519593048874984,10.0,0.0,16.56530211371029,14.457240979123995,406.12907891923527,484.43245315883564,0.0
0.077,10.466622267660773,-4.342545823319292,10.0,0.0,16.792656447767907,14.624726017148312,410.4202056983723,484.43245315883564,0.0
0.078,10.133045135927365,-4.714870641877683,10.0,0.0,17.051073717079298,14.831550317934868,425.61765260315525,484.43245315883564,0.0
0.079,9.856569125165837,-4.976891151160747,10.0,0.0,17.32943069737376,15.07061050544034,433.2212546578495,484.43245315883564,0.0
0.08,9.615334853634401,-5.17237088615798,10.0,0.0,17.62274056414619,15.33737138198556,439.4921597166486,484.43245315883564,0.0
0.081,9.462141744756956,-5.225236277771798,10.0,0.0,17.917255927623444,15.621226056814702,445.10760315688725,484.43245315883564,0.0
0.082,9.363991317146564,-5.207320991079506,10.0,0.0,18.208205886783595,15.915411416457019,444.22505513796574,484.43245315883564,0.0
0.083,9.424075890782433,-4.968252908865323,10.0,0.0,18.473361049815328,16.201682428675074,442.6944850871738,484.43245315883564,0.0
0.084,9.525883616588843,-4.719116530583237,10.0,0.0,18.71561347697681,16.475243851872154,443.7779388073735,484.43245315883564,0.0
0.085,9.823540845508756,-4.231627623834335,10.0,0.0,18.909864387782285,16.713950157542545,424.81922627608935,484.43245315883564,0.0
0.08600000000000001,10.18730635475455,-3.7239162022547236,10.0,0.0,19.057587470767988,16.9111732899986,427.58440806763826,484.43245315883564,0.0
0.08700000000000001,10.658082663278508,-3.142144883457592,10.0,0.0,19.15134282784884,17.05529867866245,420.35765161457255,484.43245315883564,0.0
0.088,11.24746402166201,-2.460968391676614,10.0,0.0,19.18102348718005,17.13426287783105,404.1488770924292,484.43245315883564,0.0
0.089,11.880509573678045,-1.7864307832353843,10.0,0.0,19.148245128484277,17.144557525877985,390.0289749989266,484.43245315883564,0.0
0.09,12.533798099994403,-1.1403384843465165,10.0,0.0,19.05544929366941,17.08501359087601,378.06041605900765,484.43245315883564,0.0
0.091,13.193792140101035,-0.5211619591868937,10.0,0.0,18.90433015405716,16.95607800674418,364.8470242053057,484.43245315883564,0.0
0.092,13.835634433647748,0.05778115381036564,10.0,0.0,18.697937392814858,16.76092135517523,372.5973752599455,484.43245315883564,0.0
0.093,14.138618738414607,0.09614385075982046,10.0,0.0,18.494237777005413,16.537731242050068,379.9423505892212,484.43245315883564,0.0
0.094,14.10841483920288,-0.3046705021682925,10.0,0.0,18.333062317255987,16.32284245061743,386.626234731027,484.43245315883564,0.0
0.095,13.913830978064247,-0.8441824772720814,10.0,0.0,18.221853698070383,16.13442717808624,393.38147106242576,484.43245315883564,0.0
0.096,13.599068618362585,-1.4512170088083773,10.0,0.0,18.164303092268167,15.986410591845413,402.059953458934,484.43245315883564,0.0
0.097,13.201909931174882,-2.0827941630995936,10.0,0.0,18.161109030078766,15.887980435642081,412.11683384792207,484.43245315883564,0.0
0.098,12.754266553516402,-2.7100093118663366,10.0,0.0,18.211069253309397,15.844343073510693,422.4667058631107,484.43245315883564,0.0
0.099,12.276624476586445,-3.320792667121908,10.0,0.0,18.312583735594274,15.858129664601213,434.6790710218227,484.43245315883564,0.0
0.1,11.78568439402304,-3.904403125751916,10.0,0.0,18.463414745656458,15.92991603312385,447.5765973724144,484.43245315883564,0.0
0.101,11.315511554589053,-4.413956935715417,10.0,0.0,18.65655610607437,16.05641647731254,457.1245862472963,484.43245315883564,0.0
0.10200000000000001,10.853434895225748,-4.881242921930333,10.0,0.0,18.88933929525337,16.23570771725979,469.6433765182569,484.43245315883564,0.0
0.10300000000000001,10.464107655143566,-5.206184852320345,10.0,0.0,19.14784404198995,16.45855338194561,475.42115773748856,484.43245315883564,0.0
0.10400000000000001,10.121820180488882,-5.44556862189095,10.0,0.0,19.425865675870313,16.718723304647707,483.7930262094605,484.43245315883564,0.0
0.105,9.906262834017857,-5.4860690550901605,7.930054224936017,0.0,19.704163348589066,16.773272796575853,477.81745423364936,484.43245315883564,0.0
0.106,9.578636554417457,-5.3048703268910655,10.0,0.0,19.939749338794858,17.13247391688207,486.9692475723221,484.43245315883564,0.0
0.107,9.605062008652517,-4.975680873949175,6.363045784580341,0.0,20.153297989469074,17.052366039969584,465.6698854008789,484.43245315883564,0.0
0.108,9.463490266266039,-4.3805690295667805,10.0,0.0,20.27531057903198,17.45389546787099,472.89986258456884,484.43245315883564,0.0
0.109,9.775986923494823,-3.8479171352745243,10.0,0.0,20.372634262500412,17.75531332006532,459.0975741193917,484.43245315883564,0.0
0.11,10.377811084354637,-3.206781623159193,10.0,0.0,20.42516897545167,17.973246064264767,440.2835815751347,484.43245315883564,0.0
0.111,11.075360435389697,-2.59020707137026,10.0,0.0,20.43283164595212,18.103926818334134,429.96518744705253,484.43245315883564,0.0
0.112,11.843866003015494,-1.942570241782799,10.0,0.0,20.387721819072723,18.14474564511812,422.3178647117074,484.43245315883564,0.0
0.113,12.658697947365468,-1.245414566497268,10.0,0.0,20.28099410157413,18.095025148333544,406.4775569565761,484.43245315883564,0.0
0.114,13.466238246486357,-0.551031778719703,10.0,0.0,20.11055655624427,17.958922816017758,389.6887818395845,484.43245315883564,0.0
0.115,14.229693062157018,0.10008507272929101,10.0,0.0,19.8788735064342,17.743482335667995,394.42899205049065,484.43245315883564,0.0
0.116,14.651928991163834,0.23132719119938017,10.0,0.0,19.640889249052943,17.487606194338166,404.1320623577578,484.43245315883564,0.0
0.117,14.664891170671783,-0.17263566979757616,10.0,0.0,19.44686413917119,17.23631576094739,411.59483540211176,484.43245315883564,0.0
0.11800000000000001,14.467555898170195,-0.757442259081051,10.0,0.0,19.30740159314974,17.01258836167776,418.1748032270285,484.43245315883564,0.0
0.11900000000000001,14.1189428617241,-1.4309558155566737,10.0,0.0,19.22775098712297,16.83366152901701,426.88758623412446,484.43245315883564,0.0
0.12,13.666409789158216,-2.139368765551022,10.0,0.0,19.209363047367418,16.71095482663744,438.2016929125077,484.43245315883564,0.0
0.121,13.152526891659384,-2.840971852568268,10.0,0.0,19.250635441421426,16.650681788519492,449.978324123925,484.43245315883564,0.0
0.122,12.606956015032418,-3.512372453584942,10.0,0.0,19.34859132749989,16.655437261072706,460.21494973356613,484.43245315883564,0.0
0.123,12.049763723818405,-4.141138569449183,10.0,0.0,19.49967743896073,16.725348218245728,477.65570417872885,484.43245315883564,0.0
0.124,11.512574140724807,-4.689505934078859,10.0,0.0,19.696678783943412,16.856895622075683,481.4204934411479,484.43245315883564,0.0
0.125,11.00965943826578,-5.147165708379239,9.707791532404366,0.0,19.931993636337562,17.01279421002495,496.4912354044504,484.43245315883564,0.0
0.126,10.551398520038562,-5.448720314161792,2.0518327282969917,0.0,20.18796127118031,16.382780594623256,485.5963951434819,484.43245315883564,0.0
0.127,9.446766353191705,-5.165163131550711,7.487613438934762,0.0,20.321123944853564,16.632787499628108,496.7684401713592,484.43245315883564,0.0
0.128,8.884114543084177,-4.923203538946533,1.778231054870881,0.0,20.44219105829963,16.239565489589758,475.14452432118514,484.43245315883564,0.0
0.129,8.126708512253744,-4.301490944721952,10.0,0.0,20.445860469958593,16.936948944994967,487.10707249121293,484.43245315883564,0.0
0.13,8.327654709466277,-4.009323524024768,6.621386624630061,0.0,20.492979995657738,17.081417693281878,467.51767690511514,484.43245315883564,0.0
0.131,8.661155784144148,-3.495609472842495,10.0,0.0,20.496247572192573,17.586909468111976,462.31997043945046,484.43245315883564,0.0
0.132,9.392308717242942,-3.145909697564383,10.0,0.0,20.516407733788178,17.931300877464754,459.4681804368438,484.43245315883564,0.0
0.133,10.341920050556476,-2.651618715336757,10.0,0.0,20.51811600986723,18.14612344470831,441.1316667984892,484.43245315883564,0.0
0.134,11.321013183263238,-2.0836152287997463,10.0,0.0,20.48359824136594,18.24143045157081,424.17650964876594,484.43245315883564,0.0
0.135,12.253706926168672,-1.4823010724087526,10.0,0.0,20.401598428063394,18.230949600504402,411.1166755953387,484.43245315883564,0.0
0.136,13.138074458871552,-0.8391875713970124,10.0,0.0,20.262021167437076,18.125363362046116,397.23431877682737,484.43245315883564,0.0
0.137,13.957754204650941,-0.19258659077854223,10.0,0.0,20.06114803616965,17.93505692466233,399.5670537588815,484.43245315883564,0.0
0.138,14.645206930704369,0.32696807116771265,10.0,0.0,19.810646571282682,17.676270815482088,403.84474526424736,484.43245315883564,0.0
0.139,14.76773713441552,0.038947010632837675,10.0,0.0,19.59619450524469,17.411709375583488,410.2088408651759,484.43245315883564,0.0
0.14,14.64190858375364,-0.4882769897306243,10.0,0.0,19.431845931255264,17.167225315680863,416.4933463757135,484.43245315883564,0.0
0.14100000000000001,14.34046419674109,-1.1349022448814723,10.0,0.0,19.325340346737484,16.96265540143432,424.2507469952249,484.43245315883564,0.0
0.14200000000000002,13.916299639663679,-1.8364398474551908,10.0,0.0,19.279731212978426,16.81153557756904,434.7979017894794,484.43245315883564,0.0
0.14300000000000002,13.415287431238808,-2.547076800840032,10.0,0.0,19.294725699055334,16.721836520070347,446.61678371279885,484.43245315883564,0.0
0.14400000000000002,12.872832079593366,-3.2359390875266727,10.0,0.0,19.367919312776372,16.697266783525965,458.13681188673235,484.43245315883564,0.0
0.145,12.31233639089185,-3.8867100525055704,10.0,0.0,19.496032774751683,16.738703354248834,470.84598927077974,484.43245315883564,0.0
0.146,11.750768678181734,-4.4886951203887335,10.0,0.0,19.675189195419097,16.844975105608047,483.03794671782634,484.43245315883564,0.0
0.147,11.239098657708938,-4.967841238853797,9.091625065356586,0.0,19.89374337150802,16.90928210621221,490.01856077019863,484.43245315883564,0.0
0.148,10.668767092345693,-5.323338615291963,5.545456963056813,0.0,20.131186080272016,16.665638854443536,492.0614648168242,484.43245315883564,0.0
