timestamp,iq,id,iq_ref,id_ref,vq,vd,omega,omega_ref,r
0.0,0.0,0.0,0.0,0.0,0.0,0.0,0.0,4.756628784058026,0.0
0.001,0.0,0.0,2.425880679869593,0.0,0.0,0.26684687478565516,0.937871286194341,4.756628784058026,0.0
0.002,0.11920430830539164,-0.06633168007428976,1.9951326117510595,0.0,0.0339811722867374,0.4222554938874172,1.915418303612781,4.756628784058026,0.0
0.003,0.22952379286340574,-0.12842927337821833,1.5347712078462918,0.0,0.0862725077176665,0.50824599434101,2.753037657775119,4.756628784058026,0.0
0.004,0.30059341769219644,-0.1684902413843798,1.135997442027952,0.0,0.1457194901985004,0.5448906142057798,3.424828795713579,4.756628784058026,0.0
0.005,0.3315094654515247,-0.1856741360234399,0.8134198729421666,0.0,0.20437585514796291,0.549629606385665,3.9405891829252795,4.756628784058026,0.0
0.006,0.3316345135906416,-0.18528118166899862,0.5637000753476437,0.0,0.25742541889508863,0.5358123389802586,4.324568746434302,4.756628784058026,0.0
0.007,0.31202933781063324,-0.17366943565165127,0.37603089396936956,0.0,0.3025149370085973,0.5126931625316326,4.596150308354754,4.756628784058026,0.0
0.008,0.28206221663024444,-0.15616365459809994,0.24184489776617638,0.0,0.33897406721017526,0.48661141934269425,4.783898589656122,4.756628784058026,0.0
0.009000000000000001,0.24862236198514195,-0.13674522440030557,0.14769805905951144,0.0,0.3672181405614798,0.4611481839962636,4.904209018022975,4.756628784058026,0.0
0.01,0.2160884218166768,-0.11791892423626227,0.08606704253643543,0.0,0.388214774326944,0.4384620709612149,4.978039793997179,4.756628784058026,0.0
0.011,0.18708320998026473,-0.10100759392393878,0.04693754444994186,0.0,0.4031711500796417,0.4193215318822548,5.0348641284385796,4.756628784058026,0.0
0.012,0.16258341265114393,-0.08685124358389484,0.015743023785436017,0.0,0.413329749114892,0.40295550758206883,5.064894803360314,4.756628784058026,0.0
0.013000000000000001,0.14231162475803724,-0.07547025941433816,-0.0023549738684540966,0.0,0.4197255410613479,0.3895480097750942,5.039678035647736,4.756628784058026,0.0
0.014,0.12611097646391287,-0.06652034279561436,0.007422917471937962,0.0,0.4232703230460967,0.3809567424008673,4.998629417205458,4.756628784058026,0.0
0.015,0.11459841727444808,-0.060033719100658585,0.025527220361602515,0.0,0.4249774706546901,0.37657714939489706,4.962984749367876,4.756628784058026,0.0
0.016,0.10744539119937259,-0.05582365375625172,0.0412859946272951,0.0,0.42567770325089194,0.3750303598670762,4.953336332425661,4.756628784058026,0.0
0.017,0.10367146593785476,-0.05337119846938186,0.04414312761472594,0.0,0.42592556420657973,0.3742085709556345,4.961212132013541,4.756628784058026,0.0
0.018000000000000002,0.1016952424804859,-0.052004090856478245,0.03815939434123089,0.0,0.42594060289100405,0.37298661036864217,4.98821629065847,4.756628784058026,0.0
0.019,0.10031868837780274,-0.0510878996547456,0.02234143995276197,0.0,0.42574483169222505,0.37033987077551644,5.003958861936084,4.756628784058026,0.0
0.02,0.0984454996714143,-0.050325435002521623,0.011996853535174379,0.0,0.4252292544542842,0.36715078827645126,4.973646738913478,4.756628784058026,0.0
0.021,0.09627948806169304,-0.04940997890307233,0.02498273549792271,0.0,0.42435325116581357,0.3659804785735823,4.933280667238463,4.756628784058026,0.0
0.022,0.09508287965774206,-0.04881478205148467,0.04339925250362625,0.0,0.4233915001432231,0.36684552437149026,4.905191543002862,4.756628784058026,0.0
0.023,0.09526705429282255,-0.04879627001073905,0.055958187031978385,0.0,0.42261634444671636,0.3686929828215119,4.9037355766701465,4.756628784058026,0.0
0.024,0.09643753373564619,-0.04920701765594536,0.05521510227221477,0.0,0.4221488175262425,0.3699439401956632,4.920448399970212,4.756628784058026,0.0
0.025,0.09762636539311613,-0.04969057796626691,0.045220494463060146,0.0,0.42190222319291437,0.3698120064410494,4.950535925487338,4.756628784058026,0.0
0.026000000000000002,0.09809656239701736,-0.04991927670012033,0.02823766029020411,0.0,0.42168741617507854,0.36786060759378697,4.960056704096158,4.756628784058026,0.0
0.027,0.09732084924098841,-0.0497997173686136,0.021442991785412646,0.0,0.42128351146049553,0.36559531315287097,4.93173216755146,4.756628784058026,0.0
0.028,0.09601552840049496,-0.04933884682635129,0.03385422622282733,0.0,0.42064396760694567,0.3650851683186458,4.895764495636367,4.756628784058026,0.0
0.029,0.09541579623927537,-0.049060773488127866,0.050446705064590286,0.0,0.41999138429354627,0.36631606124003707,4.872412871675998,4.756628784058026,0.0
0.03,0.09595445310466118,-0.04918606590419222,0.0609646761685953,0.0,0.4195437115027753,0.36828440899416753,4.876861021639284,4.756628784058026,0.0
0.031,0.09723814408062158,-0.04964832252185329,0.0575382788111396,0.0,0.4193872360702764,0.369393251834746,4.903086828133827,4.756628784058026,0.0
0.032,0.09831894261112145,-0.05009369795272199,0.04296079512310992,0.0,0.41940166119630423,0.36870025268731255,4.933740272931488,4.756628784058026,0.0
0.033,0.09838907647603178,-0.050193551429280114,0.025862957835544806,0.0,0.41935187402309865,0.36634610196263834,4.933102239092949,4.756628784058026,0.0
0.034,0.09723736540901702,-0.04987245569633512,0.0244172402044653,0.0,0.41903533142935667,0.3643617265825884,4.901116898343581,4.756628784058026,0.0
0.035,0.09590756902854819,-0.04933260693747869,0.038965029436293735,0.0,0.4184958331508393,0.3642936089641629,4.868014074631143,4.756628784058026,0.0
0.036000000000000004,0.09547043160397653,-0.04911475671042719,0.05440258838678169,0.0,0.41798490790094367,0.36576579402486153,4.8513916481607255,4.756628784058026,0.0
0.037,0.09617048141705312,-0.04926682033439977,0.06176617298096326,0.0,0.41769119918301517,0.3676139099166718,4.867174919487903,4.756628784058026,0.0
0.038,0.09741143843525285,-0.04971752418138658,0.05276907596307574,0.0,0.4176597297129895,0.3680550220557275,4.891196295165896,4.756628784058026,0.0
0.039,0.09814878384822684,-0.04996628411641838,0.03941271301300053,0.0,0.4176983749582554,0.36700094865430055,4.919494006921766,4.756628784058026,0.0
0.04,0.09785446960486519,-0.04998251604158634,0.023635204906428342,0.0,0.41762704625127023,0.3644939328762203,4.908406551269105,4.756628784058026,0.0
0.041,0.0965086943216145,-0.0495554242271394,0.027661155060647716,0.0,0.41726500641833464,0.36297620754200316,4.873798906422604,4.756628784058026,0.0
0.042,0.09534229366355593,-0.04905157950648639,0.043793276260252395,0.0,0.4167362460341436,0.36342317090788273,4.842248297711229,4.756628784058026,0.0
0.043000000000000003,0.09522121094095029,-0.04894021645165355,0.05871238547940821,0.0,0.4162978465361345,0.36525399779377216,4.835742624192231,4.756628784058026,0.0
0.044,0.09619841305859592,-0.04920983287613506,0.061174083837564994,0.0,0.4161171411137566,0.36687079470831047,4.856440974600148,4.756628784058026,0.0
0.045,0.09740136643337398,-0.0496736633216969,0.04982678672818515,0.0,0.41616451110983727,0.36691246887349455,4.885196056154212,4.756628784058026,0.0
0.046,0.09790786032582163,-0.0498457989365076,0.034163573230191605,0.0,0.41622560813600185,0.3653015473136613,4.90474221625251,4.756628784058026,0.0
0.047,0.09723493459123071,-0.04973645978107907,0.02290935885909766,0.0,0.41610575464032135,0.36285558293631714,4.88332769018272,4.756628784058026,0.0
0.048,0.09579865153038249,-0.049230650219280345,0.03234963283274549,0.0,0.415698744396231,0.36194446380729883,4.848753621568429,4.756628784058026,0.0
0.049,0.09489073832022506,-0.04882704288252696,0.04871541876478708,0.0,0.41520198455222296,0.36287509690207015,4.820381831190003,4.756628784058026,0.0
0.05,0.09511927921887427,-0.048815283014623484,0.06226378348268018,0.0,0.41485070648999095,0.3649554343316585,4.824930692663008,4.756628784058026,0.0
0.051000000000000004,0.09632015594303295,-0.049196144533424045,0.059306333660128,0.0,0.41478460234268827,0.36620199605373416,4.848668722434098,4.756628784058026,0.0
0.052000000000000005,0.09740685968363819,-0.049624426474669095,0.046516919390822115,0.0,0.4148930671806721,0.36583250147324886,4.879535129058752,4.756628784058026,0.0
0.053,0.0976219069454643,-0.04974598409537129,0.029854652628488063,0.0,0.4149628245956739,0.363793059472052,4.886966915919347,4.756628784058026,0.0
0.054,0.09663946579455192,-0.04949794829181443,0.024835377879577417,0.0,0.4147931625544575,0.3616892588569367,4.859092575422278,4.756628784058026,0.0
0.055,0.09527372571651037,-0.04896687893927143,0.037747910214469146,0.0,0.41437414938510697,0.3613898504006139,4.8265448607608965,4.756628784058026,0.0
0.056,0.0946714383275228,-0.0487064779914243,0.053322606778131304,0.0,0.4139437632763217,0.3627151669836507,4.804238535866729,4.756628784058026,0.0
0.057,0.09522061076293876,-0.04878541680181779,0.06399967170712778,0.0,0.4137002347153404,0.3648172116322725,4.818604678251315,4.756628784058026,0.0
0.058,0.09651765355545389,-0.04922856044332243,0.056196841572902,0.0,0.4137392198877809,0.36558243401305657,4.843951501508436,4.756628784058026,0.0
0.059000000000000004,0.0974023952375612,-0.049549084074997,0.042650202769837386,0.0,0.4138816549441249,0.3647785795489051,4.875719873675541,4.756628784058026,0.0
0.06,0.09727663611649574,-0.049605325499543225,0.02557510579010988,0.0,0.4139324423688028,0.3623492406772018,4.870433906640678,4.756628784058026,0.0
0.061,0.0959946049534379,-0.04921544947977017,0.027080038081714677,0.0,0.41369176838742194,0.360643973793736,4.836927900171874,4.756628784058026,0.0
0.062,0.0947313891507325,-0.0486796605492416,0.043030050154978294,0.0,0.41324959709367226,0.36095075163228885,4.805163362340529,4.756628784058026,0.0
0.063,0.09447675171208203,-0.04852260333395758,0.05842697328782559,0.0,0.41287040230877675,0.3627321739417166,4.7946543681467855,4.756628784058026,0.0
0.064,0.09536716535752593,-0.04874150429786318,0.06330121454380996,0.0,0.4127329189114961,0.3645792399731564,4.81564562254175,4.756628784058026,0.0
0.065,0.09663607976035582,-0.04921631709413421,0.05221541896149064,0.0,0.41284393085503834,0.3648289946872525,4.84430678046534,4.756628784058026,0.0
0.066,0.09725672971584969,-0.049418513687082846,0.037008060035622375,0.0,0.41298631057289753,0.36344734124719463,4.8690528863278795,4.756628784058026,0.0
0.067,0.09671717024360993,-0.04936034405950938,0.023510766081654047,0.0,0.4129678663500023,0.36095102041875216,4.851144761737229,4.756628784058026,0.0
0.068,0.0952766140954992,-0.04887038049708514,0.03151966860018704,0.0,0.41264832017096154,0.3598715050490122,4.816182797268241,4.756628784058026,0.0
0.069,0.09426591563062818,-0.04842625452324741,0.04840511070257901,0.0,0.4122088228513531,0.3607420674740749,4.785587518019461,4.756628784058026,0.0
0.07,0.09440673147821653,-0.04838046639008675,0.0634131629873549,0.0,0.41189973607130226,0.3629380585270884,4.7888698832996806,4.756628784058026,0.0
0.07100000000000001,0.09562349501789785,-0.0487491625961407,0.061449569354828426,0.0,0.4118821715385555,0.3643850301434808,4.815225761815692,4.756628784058026,0.0
0.07200000000000001,0.09679257553426796,-0.0492168684266064,0.047685660319245954,0.0,0.4120588213000133,0.3640747228659665,4.846400631983986,4.756628784058026,0.0
0.073,0.09706016008115254,-0.04934439490993136,0.031200506755839394,0.0,0.412196126212435,0.362119639995737,4.856227980282375,4.756628784058026,0.0
0.074,0.09611718321060138,-0.04911575241341842,0.0252908406444015,0.0,0.41209776640714196,0.359994987468378,4.828876790196845,4.756628784058026,0.0
0.075,0.09473744046188767,-0.04858391213888327,0.038243955625778245,0.0,0.41174056132440845,0.3596992454559444,4.796142746168333,4.756628784058026,0.0
0.076,0.09411023257689441,-0.048324417471075694,0.05421583801893118,0.0,0.4113662765379915,0.3610799284897759,4.772423279605211,4.756628784058026,0.0
0.077,0.09466964007842099,-0.04839198022752559,0.06591762634502041,0.0,0.41117751538348696,0.3633447857295031,4.788559963350844,4.756628784058026,0.0
0.078,0.09603604625074587,-0.0488512179788383,0.05752997267927576,0.0,0.4112839565934856,0.36417991073937367,4.816796028172096,4.756628784058026,0.0
0.079,0.09695984807571015,-0.049192561306818816,0.04281026782750903,0.0,0.411496221572036,0.36331892223319745,4.849274775333665,4.756628784058026,0.0
0.08,0.09680267252558253,-0.04924105709568726,0.025644434333967986,0.0,0.4116030823056096,0.3608507417684857,4.84307357983322,4.756628784058026,0.0
0.081,0.09547648286684647,-0.04883017965227706,0.027880584126438582,0.0,0.41140675744269084,0.35920200934266944,4.8085910324907655,4.756628784058026,0.0
0.082,0.09421316601872547,-0.04828685939092818,0.044602235313338484,0.0,0.41100953536916796,0.3596412407624831,4.776112362703024,4.756628784058026,0.0
0.083,0.0940111814831816,-0.04814483873448602,0.06064673442075902,0.0,0.4106857695753838,0.36160409035333896,4.768152335047803,4.756628784058026,0.0
0.084,0.0950004334406959,-0.048389725676777684,0.06451151273847218,0.0,0.41061902309028,0.363492121468923,4.79348032616413,4.756628784058026,0.0
0.085,0.09630431030914405,-0.04888610071584022,0.051479001759247356,0.0,0.410799906750119,0.36357891689759236,4.824507026688415,4.756628784058026,0.0
0.08600000000000001,0.09684264635743983,-0.04905790164954832,0.03528686907080118,0.0,0.410985315939158,0.36197813346681373,4.84615387728551,4.756628784058026,0.0
0.08700000000000001,0.09614806779130175,-0.04894724291453071,0.02356819283997859,0.0,0.4109782153960266,0.35951062324226885,4.8236783363567595,4.756628784058026,0.0
0.088,0.09466397844193879,-0.04842266277365822,0.0341354677813666,0.0,0.41066847665660794,0.358725045034495,4.788039662954161,4.756628784058026,0.0
0.089,0.09376676069713985,-0.04803133563042953,0.051640695693704344,0.0,0.4102733537860073,0.3598908061529342,4.758678365123886,4.756628784058026,0.0
0.09,0.09410265719319118,-0.04802809103833986,0.06630084879818315,0.0,0.4100378756806131,0.36229212264282495,4.768740239395459,4.756628784058026,0.0
0.091,0.09546916202059078,-0.04846241318892247,0.061148797109022435,0.0,0.4101138849172324,0.3635694758902814,4.798309931229516,4.756628784058026,0.0
0.092,0.09659513458690341,-0.04891216665010425,0.04594713972027897,0.0,0.41035515821415963,0.3629958410067634,4.832521149281826,4.756628784058026,0.0
0.093,0.09667835244015814,-0.0490131874025786,0.028082607041886212,0.0,0.41052155544120256,0.36069272068235936,4.833551348253948,4.756628784058026,0.0
0.094,0.09549709034446427,-0.04868130652093683,0.026798281913865768,0.0,0.4104034838085954,0.35880469268486054,4.800423146957408,4.756628784058026,0.0
0.095,0.09415350941066396,-0.04812568281966044,0.042924438933141906,0.0,0.4100506167411752,0.35901636212901256,4.765904879839114,4.756628784058026,0.0
0.096,0.09378904897299023,-0.04794356644786452,0.06009081153447801,0.0,0.4097397267610275,0.36092527217676773,4.752356237701245,4.756628784058026,0.0
0.097,0.0946962438673608,-0.04813362847999337,0.06690785806698042,0.0,0.4096735447709222,0.3630869775715369,4.778323521326539,4.756628784058026,0.0
0.098,0.09610333098757891,-0.04864741196617494,0.05370726888164852,0.0,0.4098847670824629,0.36335995131782683,4.8107202027018126,4.756628784058026,0.0
0.099,0.09676054103379388,-0.04886750121552522,0.03696801400757373,0.0,0.4101212365200453,0.3618592155424655,4.836455219004516,4.756628784058026,0.0
0.1,0.09615101229466594,-0.04878818295541615,0.023302241506757193,0.0,0.410173059535228,0.35926997812381584,4.81557986645061,4.756628784058026,0.0
0.101,0.09462407672285865,-0.04825443796844754,0.03315040695978404,0.0,0.4099028577410617,0.35832667029889786,4.779559576362297,4.756628784058026,0.0
0.10200000000000001,0.0936265717821703,-0.04781841122903041,0.050931244080897865,0.0,0.4095227198523542,0.35940253969360497,4.7481896275763384,4.756628784058026,0.0
0.10300000000000001,0.09387231356774012,-0.04777960427863711,0.06670061003869418,0.0,0.40928827419483915,0.3618526235982977,4.756362671503439,4.756628784058026,0.0
0.10400000000000001,0.09523152561879375,-0.048195380075342936,0.06261674920068985,0.0,0.40936840490068627,0.36328028028725085,4.787785244354694,4.756628784058026,0.0
0.105,0.09641947854808271,-0.048675296713115095,0.04659389817209547,0.0,0.40963192127703196,0.3627344266714168,4.821819654595653,4.756628784058026,0.0
0.106,0.0965407541428641,-0.048783501819012795,0.02892478434623988,0.0,0.40982160404943063,0.36048467525810945,4.8242636614269205,4.756628784058026,0.0
0.107,0.09539245628410845,-0.04846642986850484,0.027026432156917093,0.0,0.40973138343764404,0.3585742651812168,4.791510655829277,4.756628784058026,0.0
0.108,0.09404372407301857,-0.04791151112513456,0.043054116238026435,0.0,0.409401273537081,0.3587647803862822,4.756691024605893,4.756628784058026,0.0
0.109,0.09365948551474686,-0.047725631410916486,0.06046330944423951,0.0,0.4091083285659506,0.3606867464119563,4.742093983994795,4.756628784058026,0.0
0.11,0.09456485764282815,-0.04790587275111154,0.06790717775042115,0.0,0.4090585600390644,0.3629285215998961,4.76916661673581,4.756628784058026,0.0
0.111,0.09600682598444746,-0.048425457037513844,0.054245483053135535,0.0,0.40929329774176293,0.36321435452029266,4.803158289541174,4.756628784058026,0.0
0.112,0.09667595523988762,-0.04865185424327674,0.036784351595622176,0.0,0.4095528528160012,0.36165178587088365,4.829317993549478,4.756628784058026,0.0
0.113,0.09603477130214905,-0.0485622427335025,0.022977607496555696,0.0,0.40961807427974184,0.35900452058322263,4.806267036275132,4.756628784058026,0.0
0.114,0.09446695567772759,-0.048005997197752316,0.03400670361155742,0.0,0.4093517561745076,0.35814581986365174,4.770194287085831,4.756628784058026,0.0
0.115,0.0934876205530845,-0.04758414185563574,0.05190742317593016,0.0,0.40898535817556453,0.35929719430391205,4.738324175347334,4.756628784058026,0.0
0.116,0.0937817043743773,-0.047550194951314954,0.06802552513228523,0.0,0.40877122181448755,0.3618486329482188,4.7483084501221775,4.756628784058026,0.0
0.117,0.09520311393330395,-0.04798648305714548,0.06311659108422216,0.0,0.4088819741146335,0.36326893611386746,4.782162567895618,4.756628784058026,0.0
0.11800000000000001,0.09640294060545289,-0.04847360348174069,0.045934194359125935,0.0,0.4091729018669769,0.36259954305533887,4.817288194510016,4.756628784058026,0.0
0.11900000000000001,0.09645585887990901,-0.04856966257996345,0.027764786947407256,0.0,0.40937349283479174,0.3602055484863908,4.816738347633197,4.756628784058026,0.0
0.12,0.09521130247086088,-0.04821188469641989,0.027438614750064955,0.0,0.4092743090907582,0.3583542579912684,4.780995847111165,4.756628784058026,0.0
0.121,0.09385966264527161,-0.04764189393598659,0.04506619438054944,0.0,0.40894079346680345,0.35875670846930585,4.746133067655566,4.756628784058026,0.0
0.122,0.0935872597549023,-0.04747279772685233,0.06260254127237361,0.0,0.4086679737776475,0.3608547326186247,4.736027451500108,4.756628784058026,0.0
0.123,0.0946118420599012,-0.047702310649978596,0.06786136267568156,0.0,0.4086591758559744,0.3630033511870881,4.766197442702102,4.756628784058026,0.0
0.124,0.09603962980677813,-0.0482337983927372,0.052680680488244175,0.0,0.40892228810578707,0.3630669540227801,4.801793290313805,4.756628784058026,0.0
0.125,0.09658774703063479,-0.04842116014196285,0.03443111161983473,0.0,0.40918074432917495,0.36124884702907817,4.823170594881016,4.756628784058026,0.0
0.126,0.09577240593354314,-0.048269559551618824,0.023077041227999445,0.0,0.4092129945484237,0.358667112995586,4.793768315687896,4.756628784058026,0.0
0.127,0.09418751304238936,-0.047678428825235215,0.03740678550826046,0.0,0.40892033796839966,0.358202774769171,4.757550898441959,4.756628784058026,0.0
0.128,0.09338156026320625,-0.04734741067397431,0.055506272987389665,0.0,0.40858001253436155,0.3596760567640953,4.7278472889487295,4.756628784058026,0.0
0.129,0.09391443345301319,-0.04737734137203511,0.07064589268509747,0.0,0.40842765040151907,0.36238566572940945,4.746534495290572,4.756628784058026,0.0
0.13,0.09548058335282598,-0.04788689380802496,0.06140323240185093,0.0,0.4086172368394705,0.3634740409996923,4.7819491551989755,4.756628784058026,0.0
0.131,0.0965710655133724,-0.04831390080424175,0.04344269873623954,0.0,0.4089385774058791,0.36248501374769526,4.816722293346595,4.756628784058026,0.0
