timestamp,iq,id,iq_ref,id_ref,vq,vd,omega,omega_ref,r
0.0,0.0,0.0,0.0,0.0,0.0,0.0,0.0,113.00651892210634,0.0
0.001,0.0,0.0,10.0,0.0,0.0,1.0999999999999999,13.720184657180582,113.00651892210634,0.0
0.002,0.679416257361053,-0.34957171907173623,10.0,0.0,0.14845288909789103,1.9152642116902843,28.872731112254815,113.00651892210634,0.0
0.003,1.5246403416992411,-0.8128856468972793,10.0,0.0,0.4110557253251136,2.5776668044177384,43.987317886132956,113.00651892210634,0.0
0.004,2.3408850063830036,-1.2611155481815417,10.0,0.0,0.758310687065373,3.1187547492233376,59.477052940255206,113.00651892210634,0.0
0.005,3.0365751591834123,-1.6395934549845244,10.0,0.0,1.162099217847652,3.572095925561197,75.18239703492017,113.00651892210634,0.0
0.006,3.5854395891823634,-1.934307439019883,10.0,0.0,1.5994767723613477,3.9670636515716162,90.89514095755204,113.00651892210634,0.0
0.007,3.997525453817937,-2.150874986964673,10.0,0.0,2.05348863445829,4.3264315596224385,106.47811996150165,113.00651892210634,0.0
0.008,4.298572494831901,-2.3034332717339003,4.559627275518065,0.0,2.512651836995787,4.067828547519682,113.8689448157062,113.00651892210634,0.0
0.009000000000000001,4.152518199949295,-2.2189912092854036,0.8555905894797902,0.0,2.8892242083522324,3.5470382915087857,114.7000023355501,113.00651892210634,0.0
0.01,3.6158657895481046,-1.91111637133743,0.42312699542340493,0.0,3.143038505422151,3.1630248919441084,114.0734841879931,113.00651892210634,0.0
0.011,2.9754825829980245,-1.5318706333359928,0.7257164165430341,0.0,3.2944317500279316,2.94547936292311,114.24361404845749,113.00651892210634,0.0
0.012,2.4077541935852835,-1.1892962099372366,0.62828053504733,0.0,3.375040388077185,2.8071301608589674,113.70108922090265,113.00651892210634,0.0
0.013000000000000001,1.9529604060579413,-0.9162225578432093,0.8925972458367881,0.0,3.407140884618744,2.765075972541842,113.00119846832489,113.00651892210634,0.0
0.014,1.644402513213825,-0.721975287021049,1.2425958266634818,0.0,3.4131894494049377,2.7956873598312053,113.63362248842976,113.00651892210634,0.0
0.015,1.4754347949341617,-0.606850198967256,0.9201127809478085,0.0,3.4109730094637514,2.8003702141155844,113.03123545659496,113.00651892210634,0.0
0.016,1.3752118975967513,-0.5370217746902668,1.2210591315203267,0.0,3.4029166231551913,2.8500269095218567,112.94670420835584,113.00651892210634,0.0
0.017,1.3503702928885424,-0.5024623186538981,1.26392290277739,0.0,3.397528289096884,2.8973481956337275,113.3162945296948,113.00651892210634,0.0
0.018000000000000002,1.365002275973852,-0.49373181544194855,1.0760299860320246,0.0,3.3967961562626434,2.916443726987554,112.74522493968426,113.00651892210634,0.0
0.019,1.3860340697334677,-0.4885269616754574,1.3641777208615142,0.0,3.3975615609650154,2.964964494438566,113.09169924598407,113.00651892210634,0.0
0.02,1.4304485365546544,-0.4910652764420651,1.1900887644728313,0.0,3.4034337651042437,2.9820031896509294,112.85767056152474,113.00651892210634,0.0
0.021,1.4652003336303576,-0.49217248347279485,1.3085915903083134,0.0,3.4105190279764983,3.0093228831516554,112.64232804579622,113.00651892210634,0.0
0.022,1.503930231230078,-0.48927039101679287,1.419904756935676,0.0,3.4192974316711333,3.0417657828949753,112.96034967805538,113.00651892210634,0.0
0.023,1.545354286562956,-0.4891971782139737,1.2613556332466054,0.0,3.430463252486887,3.0491193506507366,112.2788030819936,113.00651892210634,0.0
0.024,1.573556000775595,-0.4808943594545933,1.609406089678622,0.0,3.4403352700611363,3.094037237146847,112.79332725902208,113.00651892210634,0.0
0.025,1.6191623483671798,-0.47671421989510715,1.354275917795226,0.0,3.453335087363624,3.099171032186332,112.17518213564342,113.00651892210634,0.0
0.026000000000000002,1.6465399880996348,-0.4679842196401376,1.6716618473491818,0.0,3.464629803807359,3.1399997065272305,112.35377676120957,113.00651892210634,0.0
0.027,1.6909970693995602,-0.45916255242339415,1.588891956175075,0.0,3.477994832649518,3.160979935208054,112.18356346550081,113.00651892210634,0.0
0.028,1.7277540134001772,-0.4525887508310506,1.6822281585955117,0.0,3.4914864799725525,3.1886946320559324,111.88303271894026,113.00651892210634,0.0
0.029,1.7692644198202065,-0.44131400934650417,1.8437283939074494,0.0,3.505225948700696,3.2276201125452375,112.2776009672227,113.00651892210634,0.0
0.03,1.8171928615248178,-0.4363389082048435,1.653733449315066,0.0,3.5210495048942185,3.2366555210768393,111.23771889688746,113.00651892210634,0.0
0.031,1.8522431316675345,-0.42248647225662206,2.191362484734874,0.0,3.5347202293786584,3.3040326424180804,112.58865173899108,113.00651892210634,0.0
0.032,1.9172252546883524,-0.4201048444061457,1.520074735514218,0.0,3.553638138844711,3.2800236504743108,110.47036726692797,113.00651892210634,0.0
0.033,1.9392123845596994,-0.4015445171163251,2.604578488097556,0.0,3.566245538446406,3.3845468758922563,112.25189720962892,113.00651892210634,0.0
0.034,2.0224378628194315,-0.4042996992271243,1.7213597338718523,0.0,3.588533193934811,3.3629444869280585,110.60311810905739,113.00651892210634,0.0
0.035,2.055898849567396,-0.3896542937321664,2.569783292288107,0.0,3.604793298552403,3.4450414276174883,112.12352063643455,113.00651892210634,0.0
0.036000000000000004,2.132060162592524,-0.38674298074905866,1.818412011456246,0.0,3.6274632964039863,3.421376473658783,110.09209655569934,113.00651892210634,0.0
0.037,2.1611180069941427,-0.3673139951229224,2.8632682754879193,0.0,3.6433917237854967,3.5223581669789805,111.8663689006104,113.00651892210634,0.0
0.038,2.24675539397688,-0.3680659840584778,1.9875336032473516,0.0,3.6681024864000484,3.498925622994446,109.87517200817582,113.00651892210634,0.0
0.039,2.282607578559421,-0.3490865712995572,3.014445518603943,0.0,3.685903663061855,3.598937700647201,111.71676713347422,113.00651892210634,0.0
0.04,2.3714014655189497,-0.35036562498236345,2.1065454738410656,0.0,3.7122564198554535,3.5711817584036525,109.51752871634098,113.00651892210634,0.0
0.041,2.4077712514758276,-0.3284160403014491,3.241054584465342,0.0,3.730771061893609,3.679598951094458,111.59290745088882,113.00651892210634,0.0
0.042,2.5019050990581606,-0.3317107147569057,2.217501331903597,0.0,3.75885786903394,3.645098914457476,109.20497702850626,113.00651892210634,0.0
0.043000000000000003,2.5388502579456094,-0.3065022096074047,3.449481962030874,0.0,3.7778801094855385,3.759488335036046,111.38941096370736,113.00651892210634,0.0
0.044,2.636619010778677,-0.3115768613766079,2.3734360740143146,0.0,3.8072493646959416,3.723271072396063,109.02779688463472,113.00651892210634,0.0
0.045,2.676684359327214,-0.28406301184506,3.5940303339253497,0.0,3.826982698155145,3.8352087881994903,111.03742156409587,113.00651892210634,0.0
0.046,2.7740805351025157,-0.28944580004435405,2.6089089677748842,0.0,3.8568037150460066,3.8070438470430332,109.0399476125104,113.00651892210634,0.0
0.047,2.821325312664336,-0.26163388623904127,3.6473116566635744,0.0,3.8777129977315603,3.904530047356525,110.56486815692449,113.00651892210634,0.0
0.048,2.9129497788689935,-0.26530445929015856,2.9092678921083497,0.0,3.9069618543535842,3.8931834714103655,109.26279192213954,113.00651892210634,0.0
0.049,2.9698185662531267,-0.2390363189791771,3.597743279500492,0.0,3.9292249665540697,3.9636698470295038,112.77226890192757,113.00651892210634,0.0
0.05,3.0304483342481614,-0.27003437505688743,1.845347289808263,0.0,3.9599828726680792,3.823584996961097,111.53873620865333,113.00651892210634,0.0
0.051000000000000004,2.974414769509817,-0.24467825283288613,2.4767914635799135,0.0,3.9705573491584283,3.794337231323905,112.98867832460513,113.00651892210634,0.0
0.052000000000000005,2.914290833428072,-0.2396916895186887,1.7519988115790261,0.0,3.976854640693703,3.689083353763262,112.44859196664163,113.00651892210634,0.0
0.053,2.8138113511850174,-0.21071927651037647,2.027621260115425,0.0,3.9688597155216137,3.643002492657141,113.05129204309677,113.00651892210634,0.0
0.054,2.7230997950505103,-0.2008793574069656,1.7258234906779526,0.0,3.9562635297848288,3.5737497223733037,112.7618481293718,113.00651892210634,0.0
0.055,2.630231512542392,-0.1873753484551992,1.872992155467781,0.0,3.936614643799677,3.5386775368799737,113.21920822668454,113.00651892210634,0.0
0.056,2.555499234709143,-0.19013492679828126,1.642185213765627,0.0,3.915862021570966,3.4855790988389033,112.99178015951207,113.00651892210634,0.0
0.057,2.4832583976287106,-0.1922938717527436,1.7560466349778037,0.0,3.8920847059225787,3.457747237429945,113.28859515996572,113.00651892210634,0.0
0.058,2.4268826747347365,-0.20580028543751472,1.6048183723723854,0.0,3.869366051753914,3.4180260286458584,113.28256322183404,113.00651892210634,0.0
0.059000000000000004,2.3735022430471844,-0.21924564584233774,1.605073898440951,0.0,3.84629106763139,3.3868535560736013,113.43758556584386,113.00651892210634,0.0
0.06,2.325924772108904,-0.23704767360762014,1.5232520599986645,0.0,3.8242301041140263,3.3521875923433164,113.55276094415404,113.00651892210634,0.0
0.061,2.2798752091573227,-0.25435715351285015,1.4602019506230957,0.0,3.802634663087292,3.317254512202724,113.63133293707128,113.00651892210634,0.0
0.062,2.233588168149238,-0.2718325726325237,1.4146678140148297,0.0,3.781454659453284,3.2839080209217393,113.7510922332627,113.00651892210634,0.0
0.063,2.1881312326352806,-0.28878860201259815,1.3473424328075572,0.0,3.760748416095189,3.249365120335187,113.81604634538334,113.00651892210634,0.0
0.064,2.1418056208783884,-0.3049871452649894,1.3067701025144642,0.0,3.7402707864782125,3.217057430889434,113.91194654228067,113.00651892210634,0.0
0.065,2.0961970111221953,-0.3207414815186961,1.2497657278640546,0.0,3.7201811424337414,3.184621680473555,113.97662022584556,113.00651892210634,0.0
0.066,2.0505229914027105,-0.33585837675214547,1.207727873044217,0.0,3.700362202865271,3.1539344764827204,114.05246661127,113.00651892210634,0.0
0.067,2.0056760214873783,-0.35057886918089,1.1593452034403597,0.0,3.6809245220693927,3.1239088103193877,114.11392607526459,113.00651892210634,0.0
0.068,1.96141172469222,-0.3648226258299363,1.117541399911487,0.0,3.661847651043875,3.0952479539489772,114.1758947697686,113.00651892210634,0.0
0.069,1.9180957560273957,-0.3786667533671324,1.0748632941828555,0.0,3.643192797946472,3.067591056103376,114.23055100524212,113.00651892210634,0.0
0.07,1.8756903553302133,-0.39207475993715346,1.0352948556147399,0.0,3.624974179821578,3.041140049937428,114.28170793087764,113.00651892210634,0.0
0.07100000000000001,1.8343279751036339,-0.4050464729653206,0.9969645027092646,0.0,3.6072251312599772,3.0158174359596175,114.32763889647407,113.00651892210634,0.0
0.07200000000000001,1.794037226746111,-0.41755800498517825,0.9607878201673743,0.0,3.589965277548656,2.9916744054899365,114.36894357929172,113.00651892210634,0.0
0.073,1.7548825613406587,-0.4295910723810341,0.9265112321866935,0.0,3.573215628254847,2.96871514055466,114.39774162223054,113.00651892210634,0.0
0.074,1.71692588855645,-0.4411058808006997,0.898199983716043,0.0,3.5569913156490944,2.947389053083773,114.42673107416168,113.00651892210634,0.0
0.075,1.680479244068667,-0.4522393773240678,0.8695031362299201,0.0,3.5413663620902027,2.9273291665264463,114.45259477539113,113.00651892210634,0.0
0.076,1.6454936867285728,-0.4629377177663587,0.842110527082345,0.0,3.5263633977148854,2.9084704996001247,114.47370889100056,113.00651892210634,0.0
0.077,1.611916668762384,-0.4731240987233307,0.8168815695886922,0.0,3.511988381585312,2.890839760098957,114.49055695984649,113.00651892210634,0.0
0.078,1.579745542352688,-0.482759259113169,0.7936171547883251,0.0,3.498245796951892,2.8744308506072502,114.50297761714465,113.00651892210634,0.0
0.079,1.548991574996484,-0.49181022954705517,0.7724422391888597,0.0,3.4851358349764725,2.8592532021785186,114.51146276071972,113.00651892210634,0.0
0.08,1.5196849912323582,-0.5002549297310044,0.7531502290151897,0.0,3.4726575116716174,2.8452881349725017,114.53411332484632,113.00651892210634,0.0
0.081,1.4919010920617197,-0.5079792189202583,0.7265490029244934,0.0,3.4607957387856234,2.83150169045949,114.53246811536863,113.00651892210634,0.0
0.082,1.464885177267328,-0.5149124885948961,0.7121121157307138,0.0,3.449426915509246,2.8192795794144474,114.51521128580033,113.00651892210634,0.0
0.083,1.439377930977899,-0.5209863541883943,0.705653606877922,0.0,3.4385715559745407,2.8091123679882966,114.52009720040654,113.00651892210634,0.0
0.084,1.4159236349997875,-0.5266811916669718,0.6880748667918173,0.0,3.4283507047173982,2.799332165525044,114.50681572862612,113.00651892210634,0.0
0.085,1.3938373697152837,-0.5316583879492469,0.6797126346168278,0.0,3.4186644615559105,2.7909587862655285,114.49870601447574,113.00651892210634,0.0
0.08600000000000001,1.3734757251791236,-0.5359050351043242,0.6688456207683233,0.0,3.409526864008855,2.7833612896603634,114.49278572806915,113.00651892210634,0.0
0.08700000000000001,1.3545540011863266,-0.539423493538945,0.6569430959119913,0.0,3.400887840512246,2.776286948559144,114.42631662179211,113.00651892210634,0.0
0.088,1.3367941074086802,-0.5421247896235676,0.6759796720536535,0.0,3.3926672432401386,2.773033558918144,114.3272147543061,113.00651892210634,0.0
0.089,1.3221242481068622,-0.544978803965831,0.7123236474746624,0.0,3.385230295347945,2.7745270056343525,114.27572844274962,113.00651892210634,0.0
0.09,1.3121924020031441,-0.5487193991981705,0.7253747080464663,0.0,3.3790693122487263,2.7771453942767987,114.2772187281372,113.00651892210634,0.0
0.091,1.3057257789694774,-0.5523204858088551,0.7119225672923699,0.0,3.374144979898527,2.777887609729077,114.26095017670357,113.00651892210634,0.0
0.092,1.2996742642444805,-0.555043768359023,0.7075125304632106,0.0,3.370050852542985,2.7783135881468524,114.17963342719985,113.00651892210634,0.0
0.093,1.2938366599494677,-0.5561505588111878,0.7364397601641395,0.0,3.366503249889012,2.782095272947892,114.12354349960619,113.00651892210634,0.0
0.094,1.2902217664535545,-0.5568216356929762,0.7533144781859713,0.0,3.363751326533016,2.7870502379304236,114.0452888264953,113.00651892210634,0.0
0.095,1.2886026951641938,-0.5570635556648185,0.7820541156975271,0.0,3.3617899924389563,2.794369075932025,113.90209580227196,113.00651892210634,0.0
0.096,1.289692357089185,-0.5570814453140074,0.8446948590075394,0.0,3.3607562242161557,2.8072269285884035,114.07681363899823,113.00651892210634,0.0
0.097,1.2966059637976437,-0.5566319981356821,0.7466329934754836,0.0,3.3610619999951665,2.806532806396558,114.01825249460856,113.00651892210634,0.0
0.098,1.2963006724768067,-0.5547601272323118,0.7657962299452967,0.0,3.3610663746495035,2.809129966781174,113.64517141176695,113.00651892210634,0.0
0.099,1.2962777344579,-0.5490792760615198,0.9459502464694949,0.0,3.360723852957114,2.8310926283145976,113.82873318182402,113.00651892210634,0.0
0.1,1.3086827721258985,-0.5468819687273017,0.845947218843784,0.0,3.3624269542922502,2.836658114797701,113.72736015782672,113.00651892210634,0.0
0.101,1.31601705936949,-0.5443841265323348,0.8894253184852288,0.0,3.3642635045740783,2.846937262782708,113.22178391311418,113.00651892210634,0.0
0.10200000000000001,1.3253588515060306,-0.5396730961982604,1.140060790931422,0.0,3.3664510797114264,2.882553017707481,113.8277980158468,113.00651892210634,0.0
0.10300000000000001,1.3522827496242913,-0.5399325380139521,0.8288409486277097,0.0,3.3720571217305837,2.8752172064039976,113.41787548427125,113.00651892210634,0.0
0.10400000000000001,1.3593402280574727,-0.534277222427494,1.0296886487938337,0.0,3.3757442992848112,2.8938739422276223,113.08835198478559,113.00651892210634,0.0
0.105,1.3757080020058958,-0.5261085082847983,1.193632067909871,0.0,3.3800864272661446,2.925329140975414,113.54397364048874,113.00651892210634,0.0
0.106,1.4028133578953565,-0.524550646821874,0.9604466928744697,0.0,3.3870501847046297,2.92396529579315,112.90673826796107,113.00651892210634,0.0
0.107,1.4156134382710008,-0.5162294615400951,1.2800621856797572,0.0,3.3922814301146733,2.959786813549469,113.11206524754876,113.00651892210634,0.0
0.108,1.4462177647320313,-0.5109990923991119,1.176343232631492,0.0,3.400079574006654,2.9747055892008425,113.08644771383989,113.00651892210634,0.0
0.109,1.4705874319116103,-0.506318146795969,1.1883527115685906,0.0,3.4081271807496387,2.988895913764697,112.12966669480443,113.00651892210634,0.0
0.11,1.4934122279208366,-0.49763899458226346,1.67551174335934,0.0,3.415881161987233,3.053672334364857,113.6123728785025,113.00651892210634,0.0
0.111,1.5480563157953318,-0.4996425329066018,0.9281001119463432,0.0,3.429644567898899,3.0198770395493213,112.15944937699047,113.00651892210634,0.0
0.112,1.554412612787051,-0.4852376142585898,1.663032558153518,0.0,3.4370475273033203,3.0790015484130793,112.80250443547057,113.00651892210634,0.0
0.113,1.5992945328030002,-0.4774481709365472,1.3435451737798252,0.0,3.4489098520747303,3.0855875173558904,112.40074027998281,113.00651892210634,0.0
0.114,1.625569948276952,-0.47017879560008885,1.5504850379449375,0.0,3.4595228044094894,3.116217904281485,112.101134328114,113.00651892210634,0.0
0.115,1.6633912229185424,-0.45901641713121266,1.7093418598192671,0.0,3.4709823323251223,3.1563538134566844,112.58066806651512,113.00651892210634,0.0
0.116,1.7091966649836738,-0.4559741947066755,1.4738334991746211,0.0,3.4850864776847,3.161467210735525,111.50712145190442,113.00651892210634,0.0
0.117,1.739784268651511,-0.4433259434670473,2.0256007811819865,0.0,3.4969306628240906,3.227622585466885,112.78951717533023,113.00651892210634,0.0
0.11800000000000001,1.8015188762968724,-0.44098493458018045,1.3865729369368436,0.0,3.5140749384575214,3.206051174747698,111.001279364777,113.00651892210634,0.0
0.11900000000000001,1.821805349872086,-0.4251129054439964,2.30074423778675,0.0,3.525625132339576,3.2936862881828937,112.46295676951885,113.00651892210634,0.0
0.12,1.893612961633404,-0.42372583096966976,1.5753411569417008,0.0,3.5447899602761304,3.2770808852033273,110.95271652528693,113.00651892210634,0.0
0.121,1.922492591016384,-0.4102980751602078,2.3509993030258567,0.0,3.5589145827267763,3.354170249078567,112.19811492189011,113.00651892210634,0.0
0.122,1.9928963897887193,-0.40654884661610463,1.7363841447264297,0.0,3.579057541738125,3.342143268366442,110.6597332642664,113.00651892210634,0.0
0.123,2.024775893549101,-0.3918894012888249,2.5290428301166803,0.0,3.5944084600765676,3.4238691811766664,112.07302123313067,113.00651892210634,0.0
0.124,2.099935254951463,-0.38896141458790107,1.8317338225743032,0.0,3.6162213937783574,3.4063782821394932,110.22541565365472,113.00651892210634,0.0
0.125,2.1320886136769803,-0.3718829297682391,2.783347644996796,0.0,3.632254590743097,3.5016831010723313,111.85387931040088,113.00651892210634,0.0
0.126,2.215913163266056,-0.3721880585877067,1.9806422127407688,0.0,3.6564192989229864,3.482347855168428,109.9803922248642,113.00651892210634,0.0
0.127,2.253012730270107,-0.3545570380462266,2.9476470224815303,0.0,3.674291548146739,3.5785174811923923,111.72292230199287,113.00651892210634,0.0
0.128,2.340066421342291,-0.35525072751380793,2.089217950118334,0.0,3.700246151097361,3.5535552131310797,109.60373041229138,113.00651892210634,0.0
0.129,2.3767942490690155,-0.3342663148450684,3.182841780067225,0.0,3.7187938446585522,3.659398020049749,111.61406696726634,113.00651892210634,0.0
0.13,2.4695351488840016,-0.3369647741200923,2.1915980221281472,0.0,3.7465777242024316,3.6267040432575035,109.27133398704886,113.00651892210634,0.0
0.131,2.5063049448738495,-0.31256272023701515,3.4003163615874605,0.0,3.7656026075928093,3.739812038458052,111.44533591688595,113.00651892210634,0.0
0.132,2.6032620854820587,-0.31716050963819997,2.3289272267211194,0.0,3.794785579537165,3.703274146740688,109.05148346347681,113.00651892210634,0.0
0.133,2.6420782004680987,-0.2899775638582179,3.5654038080119834,0.0,3.8143603631855387,3.8167344554377722,111.13645520892025,113.00651892210634,0.0
0.134,2.739856015037753,-0.295373011526079,2.5416185724221245,0.0,3.8441890280400486,3.785457671449392,109.0112462617753,113.00651892210634,0.0
0.135,2.7847674844406964,-0.2673139422190281,3.6441757725979125,0.0,3.864766695909816,3.8878480932319075,110.74365841093255,113.00651892210634,0.0
