timestamp,iq,id,iq_ref,id_ref,vq,vd,omega,omega_ref,r
0.0,0.0,0.0,0.0,0.0,0.0,0.0,0.0,358.7101457302663,0.0
0.001,0.0,0.0,10.0,0.0,0.0,1.0999999999999999,4.797110436936813,358.7101457302663,0.0
0.002,1.0587829130674282,-0.600488165144926,10.0,0.0,0.17605369816594177,1.8735338795625827,10.14888694357397,358.7101457302663,0.0
0.003,1.8215351046918746,-1.0364382458128973,10.0,0.0,0.45380504169357544,2.5140048290374866,15.68158244779639,358.7101457302663,0.0
0.004,2.366501096205292,-1.3478401372476085,10.0,0.0,0.7977230530670744,3.065885080767432,21.32145981950697,358.7101457302663,0.0
0.005,2.7646106114279188,-1.5749410055661985,10.0,0.0,1.1843043650769156,3.5586267217023777,27.04745842208253,358.7101457302663,0.0
0.006,3.064816466384991,-1.7460800461110884,10.0,0.0,1.5980559957560196,4.011710780851762,32.819781210696526,358.7101457302663,0.0
0.007,3.3002400405704653,-1.879157916186925,10.0,0.0,2.0286680445850447,4.437967062543286,38.62508677549934,358.7101457302663,0.0
0.008,3.491346133677089,-1.9884321227581647,10.0,0.0,2.4695339007223978,4.845991486448686,44.403029110284486,358.7101457302663,0.0
0.009000000000000001,3.654268253337254,-2.078745914496922,10.0,0.0,2.9159573886621066,5.241289681345731,50.22118863080424,358.7101457302663,0.0
0.01,3.7958322445278045,-2.159859130286577,10.0,0.0,3.365287663117024,5.627757587712683,55.963021541058325,358.7101457302663,0.0
0.011,3.924284717480713,-2.2317253189347404,10.0,0.0,3.8154258493565445,6.0077975987755154,61.68883345513973,358.7101457302663,0.0
0.012,4.042817956709828,-2.2981799696860064,10.0,0.0,4.265145567774556,6.383093295770343,67.38774164452356,358.7101457302663,0.0
0.013000000000000001,4.1555020525381945,-2.35836841404818,10.0,0.0,4.713379066422576,6.754621476758661,73.07721326601704,358.7101457302663,0.0
0.014,4.262312755191663,-2.416363475133437,10.0,0.0,5.159719605580379,7.123197853179353,78.70313975703701,358.7101457302663,0.0
0.015,4.367038595515538,-2.468344513924528,10.0,0.0,5.603421692120639,7.489098910464661,84.30437916506435,358.7101457302663,0.0
0.016,4.4682716034536165,-2.5184829366827413,10.0,0.0,6.044339091850898,7.852691698205516,89.83833858643699,358.7101457302663,0.0
0.017,4.568172423644252,-2.5642886340087205,10.0,0.0,6.482061272860491,8.214040187003722,95.30016098260688,358.7101457302663,0.0
0.018000000000000002,4.667435324566177,-2.6054130163397495,10.0,0.0,6.916211709732099,8.573106134123561,100.69964024739602,358.7101457302663,0.0
0.019,4.765038184827477,-2.6442000052756405,10.0,0.0,7.346709022588169,8.929936844599053,105.93057074563507,358.7101457302663,0.0
0.02,4.862957307829552,-2.677784769918401,10.0,0.0,7.773146129427526,9.284339140384988,111.20337541302965,358.7101457302663,0.0
0.021,4.963178775752522,-2.7032447075601986,10.0,0.0,8.194844500655707,9.63589974703476,116.31593353211979,358.7101457302663,0.0
0.022,5.061209308605858,-2.728536680053161,10.0,0.0,8.61205661302386,9.984692986207735,121.36506787140355,358.7101457302663,0.0
0.023,5.16493447763774,-2.740823293708583,10.0,0.0,9.023525445849662,10.329898649435258,126.29549770907265,358.7101457302663,0.0
0.024,5.266513872239076,-2.7536443861558846,10.0,0.0,9.429655415748279,10.671594147906772,130.42502581122417,358.7101457302663,0.0
0.025,5.372540317705522,-2.75644742013575,10.0,0.0,9.829522061317501,11.009085978465706,134.7179435961283,358.7101457302663,0.0
0.026000000000000002,5.483141378415782,-2.7494875295150076,10.0,0.0,10.222357607077619,11.341709438302209,138.83114760509798,358.7101457302663,0.0
0.027,5.595526017851658,-2.7379413328596085,10.0,0.0,10.60797146151948,11.669097807000222,143.0596096051857,358.7101457302663,0.0
0.028,5.716773577839475,-2.710590128965626,10.0,0.0,10.98486959692518,11.990095339068322,146.76868861559683,358.7101457302663,0.0
0.029,5.833837624451777,-2.6895873691746655,10.0,0.0,11.354140880459049,12.305018361942711,148.80357556669273,358.7101457302663,0.0
0.03,5.975102902459421,-2.628504596030796,10.0,0.0,11.711468260479053,12.611007670768325,152.53196353760427,358.7101457302663,0.0
0.031,6.086676499349497,-2.616960939615932,10.0,0.0,12.063002858905428,12.911270343835545,154.55393749262404,358.7101457302663,0.0
0.032,6.251097241327232,-2.519221489808581,10.0,0.0,12.398774361881223,13.19968966379004,155.91310775258304,358.7101457302663,0.0
0.033,6.368627509325549,-2.500092442010809,10.0,0.0,12.72868384579521,13.481560079986615,160.49057711108523,358.7101457302663,0.0
0.034,6.539830174946488,-2.3946179779103485,10.0,0.0,13.04237852236438,13.750577412416614,159.90954044371225,358.7101457302663,0.0
0.035,6.677514490649608,-2.3462863840633825,10.0,0.0,13.347343733837468,14.0106292311894,164.1712381995588,358.7101457302663,0.0
0.036000000000000004,6.855163469168772,-2.2348157049265756,10.0,0.0,13.636039147273951,14.257007844752144,164.37566564896977,358.7101457302663,0.0
0.037,7.042109280235655,-2.110039332392896,10.0,0.0,13.907892186535726,14.488830588870087,160.39761412358786,358.7101457302663,0.0
0.038,7.2074666734131405,-2.023682670710061,10.0,0.0,14.167490727223338,14.70833650736356,161.43634678611735,358.7101457302663,0.0
0.039,7.372450013465208,-1.9407227256655006,10.0,0.0,14.414817978353469,14.915357094602497,162.247753735547,358.7101457302663,0.0
0.04,7.550894798317584,-1.8375418959353937,10.0,0.0,14.64759427127461,15.108429255297317,161.8764057634371,358.7101457302663,0.0
0.041,7.738121381968201,-1.7216472140787489,10.0,0.0,14.864683544266185,15.286661352861717,161.11948934733317,358.7101457302663,0.0
0.042,7.9348927749624085,-1.591464584470287,10.0,0.0,15.064725957276682,15.44900658057598,161.14480713580014,358.7101457302663,0.0
0.043000000000000003,8.13825823116232,-1.451247334218983,10.0,0.0,15.246876580526001,15.59471904056782,163.6122968737353,358.7101457302663,0.0
0.044,8.337839406974489,-1.3177523740460684,10.0,0.0,15.412101114333057,15.72415504210807,166.68435175304882,358.7101457302663,0.0
0.045,8.520085373051689,-1.2135078440824616,10.0,0.0,15.563614846219169,15.839118652364625,163.54392972942728,358.7101457302663,0.0
0.046,8.687253096203746,-1.134521788367758,10.0,0.0,15.703827545113342,15.941171284898184,161.3270411641858,358.7101457302663,0.0
0.047,8.827854208466341,-1.097216763007855,10.0,0.0,15.83691054513901,16.033245478950434,169.64220249739446,358.7101457302663,0.0
0.048,8.867890080995391,-1.2073167208579307,10.0,0.0,15.978376710184447,16.126422618744463,175.31542241751788,358.7101457302663,0.0
0.049,8.867065821699962,-1.3707137394449824,10.0,0.0,16.131886645170823,16.22491968831142,177.8293646931734,358.7101457302663,0.0
0.05,8.859601831328698,-1.5333926214053601,10.0,0.0,16.296156000445016,16.329730840768203,180.00385887161784,358.7101457302663,0.0
0.051000000000000004,8.853127769083624,-1.6846033516433079,10.0,0.0,16.469485926944053,16.441125320449977,183.4961244587262,358.7101457302663,0.0
0.052000000000000005,8.842780325934688,-1.8348148312630355,10.0,0.0,16.65163346421714,16.5597868229374,188.5290552271001,358.7101457302663,0.0
0.053,8.825377260168489,-1.9908257223987729,10.0,0.0,16.8430914812404,16.68660779170619,195.03619172315604,358.7101457302663,0.0
0.054,8.805153109562747,-2.1454327942702913,10.0,0.0,17.043532462432722,16.8219430912094,201.08585221226946,358.7101457302663,0.0
0.055,8.790773592885724,-2.282763681341125,10.0,0.0,17.25102320231521,16.96516846420992,201.22141600303132,358.7101457302663,0.0
0.056,8.767156456807932,-2.429310635718875,10.0,0.0,17.466834261620342,17.117274463700436,205.9511551394243,358.7101457302663,0.0
0.057,8.693975291076155,-2.6576714117430162,10.0,0.0,17.699929030762892,17.283564726042126,216.7735637441949,358.7101457302663,0.0
0.058,8.659090293603088,-2.8088348254311963,10.0,0.0,17.940687716970817,17.459640977128632,215.15588401298703,358.7101457302663,0.0
0.059000000000000004,8.605115077216542,-2.984293540155266,10.0,0.0,18.192766984149365,17.64777389555505,228.09457671969994,358.7101457302663,0.0
0.06,8.53520644303294,-3.1791606932580496,10.0,0.0,18.458132416146768,17.84945164645303,226.94210898865512,358.7101457302663,0.0
0.061,8.469963304459473,-3.3548944918370984,10.0,0.0,18.734511126346902,18.063975824362192,239.28041850197422,358.7101457302663,0.0
0.062,8.40719685775639,-3.5148979848564346,10.0,0.0,19.020547429564264,18.290937333252053,243.8649903225355,358.7101457302663,0.0
0.063,8.30925805865362,-3.726240018449432,10.0,0.0,19.322323842113914,18.533951925008935,246.90276803284104,358.7101457302663,0.0
0.064,8.250490474515855,-3.8562359615194195,10.0,0.0,19.630410205986063,18.788327745109235,254.92979912342807,358.7101457302663,0.0
0.065,8.170136879694414,-4.012681915442245,10.0,0.0,19.94903461098183,19.056325839175685,260.95302795185205,358.7101457302663,0.0
0.066,8.101547053640171,-4.138186125806646,10.0,0.0,20.274837388485523,19.336127909252824,267.73576963653784,358.7101457302663,0.0
0.067,8.038182617357608,-4.2452398237163305,10.0,0.0,20.606560959912983,19.626814239803156,274.3339420774837,358.7101457302663,0.0
0.068,7.98048332954661,-4.335448921200854,10.0,0.0,20.94303327099692,19.92731757173759,280.0858203456366,358.7101457302663,0.0
0.069,7.935708427837783,-4.3991305852699325,10.0,0.0,21.282011576238673,20.23576604789683,285.47973476106125,358.7101457302663,0.0
0.07,7.910183185450557,-4.4290179606699995,10.0,0.0,21.620587693225488,20.549627534609826,289.78567922716275,358.7101457302663,0.0
0.07100000000000001,7.89811724510005,-4.439519642299591,10.0,0.0,21.957548658410186,20.867032485364902,287.674561991466,358.7101457302663,0.0
0.07200000000000001,7.911706742546627,-4.414847093556099,10.0,0.0,22.289735024973822,21.184777533440297,286.056696290409,358.7101457302663,0.0
0.073,8.008435556411058,-4.262975083082173,10.0,0.0,22.604018064023958,21.493462438813904,295.13529224621595,358.7101457302663,0.0
0.074,8.11369861054931,-4.114763467195304,10.0,0.0,22.902956732063615,21.792095509738594,299.19680911687357,358.7101457302663,0.0
0.075,8.209134144293731,-4.006634548584271,10.0,0.0,23.191452775503425,22.081313862204272,288.31431929216967,358.7101457302663,0.0
0.076,8.373450640489818,-3.8106124862717987,10.0,0.0,23.45953991217756,22.35333952452325,295.9820581383062,358.7101457302663,0.0
0.077,8.611437209967383,-3.5204123463087194,10.0,0.0,23.698059106643377,22.60043597659717,289.73802148397624,358.7101457302663,0.0
0.078,8.795996090566877,-3.3482936189661916,10.0,0.0,23.921404968261946,22.828753091739102,292.25866343048915,358.7101457302663,0.0
0.079,9.115923099945354,-2.9852903421891694,10.0,0.0,24.10703878206081,23.023226699303073,280.1709863441323,358.7101457302663,0.0
0.08,9.374079301705624,-2.750919761602735,10.0,0.0,24.271405844139437,23.19161841539067,284.82774110100684,358.7101457302663,0.0
0.081,9.671942816181277,-2.4808080997981845,10.0,0.0,24.40880679462634,23.32942424150267,283.00700143203534,358.7101457302663,0.0
0.082,10.032344566901262,-2.129857819441182,10.0,0.0,24.51034481845452,23.430524022617714,275.8901365957421,358.7101457302663,0.0
0.083,10.384382999860327,-1.8113634439554471,10.0,0.0,24.580314139511525,23.49654741788576,270.8938624594684,358.7101457302663,0.0
0.084,10.728938316639459,-1.5212962853030088,10.0,0.0,24.62116642429274,23.528584705216613,267.13010396665373,358.7101457302663,0.0
0.085,11.063105460733652,-1.2592590121789238,10.0,0.0,24.635213780871766,23.528190659609912,258.9902748848607,358.7101457302663,0.0
0.08600000000000001,11.387529279296746,-1.0194406291012519,10.0,0.0,24.624057347824937,23.49689580562079,247.66700288463142,358.7101457302663,0.0
0.08700000000000001,11.735349147200086,-0.7404957456884739,10.0,0.0,24.582601319339233,23.432598846442165,251.945540205627,358.7101457302663,0.0
0.088,11.863980473933823,-0.8142647973425818,10.0,0.0,24.549765242300328,23.35991473307115,262.8666611187933,358.7101457302663,0.0
0.089,11.791537939938417,-1.1429153246139643,10.0,0.0,24.54835822911152,23.300470415340182,268.50325808071216,358.7101457302663,0.0
0.09,11.668791954829556,-1.5035832741429127,10.0,0.0,24.57753445464397,23.25960746108545,274.28818567870195,358.7101457302663,0.0
0.091,11.538000017355039,-1.8357642771413254,10.0,0.0,24.632639993032235,23.23890807808054,280.18929786138244,358.7101457302663,0.0
0.092,11.400672095382367,-2.1441581959677354,10.0,0.0,24.710766560322103,23.2395873392572,283.4575850769876,358.7101457302663,0.0
0.093,11.249813882349812,-2.446350440351692,10.0,0.0,24.81130560469461,23.263232455259033,284.57976897120517,358.7101457302663,0.0
0.094,11.056209445038268,-2.7980530103355505,10.0,0.0,24.939820616484457,23.31435487007188,296.3414196052974,358.7101457302663,0.0
0.095,10.831195341118704,-3.1809693196648516,10.0,0.0,25.09920013690297,23.396032051640457,303.1082639556462,358.7101457302663,0.0
0.096,10.66689150874283,-3.428106095306295,10.0,0.0,25.274165305663765,23.501302747616194,309.57226961578766,358.7101457302663,0.0
0.097,10.407127636641537,-3.8199294579587706,10.0,0.0,25.482790229281402,23.640473878477803,315.7694763885824,358.7101457302663,0.0
0.098,10.22700856424355,-4.045127832348776,10.0,0.0,25.705323361179822,23.803805847857788,328.5878111501584,358.7101457302663,0.0
0.099,9.980538875980137,-4.362646158061042,10.0,0.0,25.954611408910843,23.998368408474615,330.46017005223683,358.7101457302663,0.0
0.1,9.75621067705926,-4.619876716360446,10.0,0.0,26.223547086086263,24.220614922801524,338.15622786225805,358.7101457302663,0.0
0.101,9.564617943197039,-4.799609899128347,10.0,0.0,26.50501219149831,24.466362272148913,344.9295453958105,358.7101457302663,0.0
0.10200000000000001,9.39083478493868,-4.934482214790958,10.0,0.0,26.795944144199083,24.732881617172566,353.57733922941276,358.7101457302663,0.0
0.10300000000000001,9.235419808936802,-5.032353654990124,10.0,0.0,27.093851971397434,25.017200038741557,359.7764270235375,358.7101457302663,0.0
0.10400000000000001,9.103345277285475,-5.094034516413117,7.1758933002761705,0.0,27.39620703838738,25.005199712625476,358.3621277968814,358.7101457302663,0.0
0.105,8.726578584547077,-4.930194875499298,7.886523092938075,0.0,27.64848739695199,25.171168860894774,352.14855251284524,358.7101457302663,0.0
0.106,8.600331453140372,-4.7227356139825485,10.0,0.0,27.87095451212935,25.581264809571145,355.57811637356707,358.7101457302663,0.0
0.107,8.824504393874236,-4.5394979506585456,9.354286496993833,0.0,28.09410296030615,25.85451312570153,364.08362093211906,358.7101457302663,0.0
0.108,8.953421340379986,-4.334288821986097,5.04779946569931,0.0,28.301520767757566,25.643555881915912,351.1360494693604,358.7101457302663,0.0
0.109,8.66966356203153,-3.8740760155565725,10.0,0.0,28.418529752664767,26.094745597423426,347.89404968077054,358.7101457302663,0.0
0.11,9.186238862355818,-3.5336243222512578,10.0,0.0,28.536109252432706,26.403334373708727,348.2265952006173,358.7101457302663,0.0
0.111,9.56413134370919,-3.353714391989591,10.0,0.0,28.65640410445665,26.65641980239668,339.96465548731703,358.7101457302663,0.0
0.112,10.076904166123333,-2.9085001174413074,10.0,0.0,28.7428035432493,26.843600087766198,328.94926138130734,358.7101457302663,0.0
0.113,10.485677804280783,-2.6124363334610243,10.0,0.0,28.811166193207296,26.980864916504853,330.11810621606065,358.7101457302663,0.0
0.114,10.941490438614107,-2.2411384356932107,10.0,0.0,28.84853693012869,27.065187873970356,325.0025277180783,358.7101457302663,0.0
0.115,11.433246188128063,-1.81438615180073,10.0,0.0,28.847373116853998,27.09528060327824,317.0592487009377,358.7101457302663,0.0
0.116,11.904787486378142,-1.427709222385169,10.0,0.0,28.81106801844079,27.075295693015498,307.49891798356805,358.7101457302663,0.0
0.117,12.356958791754417,-1.079192046658358,10.0,0.0,28.741924818806833,27.008655333328832,294.705036944883,358.7101457302663,0.0
0.11800000000000001,12.80574837442234,-0.7365017420116269,10.0,0.0,28.63882114141372,26.896919548607706,288.41604986819544,358.7101457302663,0.0
0.11900000000000001,13.169561470188428,-0.5307657009225561,10.0,0.0,28.515650191814498,26.75051542991181,296.29094562439116,358.7101457302663,0.0
0.12,13.138995961416228,-0.8921935489888799,10.0,0.0,28.431970349003763,26.61343496504817,307.99490417093926,358.7101457302663,0.0
0.121,12.98688794868325,-1.3482495896471125,10.0,0.0,28.3895023299795,26.49812078870273,315.54708923819675,358.7101457302663,0.0
0.122,12.791598534568879,-1.8026752132183548,10.0,0.0,28.385175953409373,26.41005198351467,321.736524361569,358.7101457302663,0.0
0.123,12.58037280391318,-2.2233510983791054,10.0,0.0,28.414205425109422,26.351639357419373,324.64013345026325,358.7101457302663,0.0
0.124,12.340071448651662,-2.6431086743405867,10.0,0.0,28.47645726153409,26.32629183287583,328.4802815821696,358.7101457302663,0.0
0.125,12.045790148510967,-3.1136468095813448,10.0,0.0,28.577510780978805,26.339672173891977,345.3001244651591,358.7101457302663,0.0
0.126,11.74805684667336,-3.547851937965721,10.0,0.0,28.71285416535054,26.39162768295169,345.1654072561126,358.7101457302663,0.0
0.127,11.462352384424316,-3.917703379987641,10.0,0.0,28.87620036952964,26.48037213737163,362.5052059256809,358.7101457302663,0.0
0.128,11.140328114941587,-4.313231106802227,6.4104883470556135,0.0,29.071895934262205,26.214296109964224,361.2645292603941,358.7101457302663,0.0
0.129,10.436210466063507,-4.480067476943491,7.005282844397735,0.0,29.235811063228166,26.169952451689642,368.05756515337686,358.7101457302663,0.0
0.13,9.955576845280335,-4.61411099507173,3.515290703675257,0.0,29.39197673676277,25.80241611348359,374.62864444348423,358.7101457302663,0.0
0.131,9.16232831511479,-4.581631847320682,0.07056607148938987,0.0,29.490859067689414,25.225681190428766,375.0212751641361,358.7101457302663,0.0
0.132,8.198359134133025,-4.354583600148049,-0.2888605831752482,0.0,29.497529157506428,24.809522431687174,372.79274043899755,358.7101457302663,0.0
0.133,7.464347932876049,-4.1264347012741025,0.6845808323067182,0.0,29.439090466063167,24.617420920379566,369.27271869507,358.7101457302663,0.0
0.134,7.053151706186271,-3.9512768241125404,2.338965974622452,0.0,29.350299615134446,24.648825115481593,365.04847564112276,358.7101457302663,0.0
0.135,6.965081906350218,-3.8189552755162706,4.387704202487511,0.0,29.26072447723482,24.88260287533761,363.5677285732323,358.7101457302663,0.0
0.136,7.172641756379831,-3.7038607367290073,5.079501908003096,0.0,29.19214744533014,25.115943429244528,370.2535030023108,358.7101457302663,0.0
0.137,7.426360306416578,-3.578123587242339,1.6211811207433762,0.0,29.14108203095094,24.905925518912795,358.38992813284574,358.7101457302663,0.0
0.138,7.276855708051723,-3.2474852039592177,7.5561707314501225,0.0,29.03900851631021,25.418217614547167,348.91298488155775,358.7101457302663,0.0
0.139,7.95366888650045,-3.0714542398756444,10.0,0.0,28.982314540480647,26.002599976974448,356.9162430392332,358.7101457302663,0.0
0.14,8.719185007945969,-3.0667251516108385,8.361071634342172,0.0,28.990968308408455,26.24071565109365,338.3567629064172,358.7101457302663,0.0
0.14100000000000001,9.256099711260518,-2.754973696606673,10.0,0.0,28.9883228977876,26.601151082322513,341.1058053479597,358.7101457302663,0.0
0.14200000000000002,9.870300417557697,-2.580878040035806,10.0,0.0,29.005952563678957,26.846696215050272,336.073556278188,358.7101457302663,0.0
0.14300000000000002,10.516232862826644,-2.2014192682390945,10.0,0.0,29.006374267922034,27.00453923917779,323.90628887176257,358.7101457302663,0.0
0.14400000000000002,11.080407096207,-1.854258023890425,10.0,0.0,28.988144954993167,27.091040290097716,315.98314473185405,358.7101457302663,0.0
0.145,11.608751685058083,-1.5064549852608664,10.0,0.0,28.945601956643415,27.114592142192937,311.21996098826395,358.7101457302663,0.0
0.146,12.113204513516017,-1.1586767450380338,10.0,0.0,28.87489086729994,27.081328144001795,304.11174372138015,358.7101457302663,0.0
0.147,12.57547595031203,-0.8533710609022389,10.0,0.0,28.77781864421899,26.998514106932443,290.12969777249606,358.7101457302663,0.0
0.148,13.03292467609984,-0.5331501097683393,10.0,0.0,28.650000991955842,26.86857760579325,293.18230881497766,358.7101457302663,0.0
