timestamp,iq,id,iq_ref,id_ref,vq,vd,omega,omega_ref,r
0.0,0.0,0.0,0.0,0.0,0.0,0.0,0.0,449.12534275981716,0.0
0.001,0.0,0.0,10.0,0.0,0.0,1.0999999999999999,5.1095126070889645,449.12534275981716,0.0
0.002,0.7564028640680289,-0.4276842567590679,10.0,0.0,0.15704526824349743,1.9067956849525165,9.97118279786433,449.12534275981716,0.0
0.003,1.282171286395833,-0.7244376917999652,10.0,0.0,0.40743161344480483,2.5983458304187534,15.032803071253545,449.12534275981716,0.0
0.004,1.6817195860209764,-0.9478441639447581,10.0,0.0,0.7235415162581232,3.207086967123009,20.270786861154644,449.12534275981716,0.0
0.005,1.9923486656069407,-1.1200882054427341,10.0,0.0,1.0856273223038648,3.756391264679967,25.589132251980082,449.12534275981716,0.0
0.006,2.239479673067726,-1.2557205258755946,10.0,0.0,1.4796320923333635,4.262895593060976,30.95599717036395,449.12534275981716,0.0
0.007,2.441017961152551,-1.3652376893025886,10.0,0.0,1.8955773829706535,4.738452063992111,36.40279500586328,449.12534275981716,0.0
0.008,2.6097615133810668,-1.4559566843334593,10.0,0.0,2.326367709456454,5.191501009029574,41.883260766713235,449.12534275981716,0.0
0.009000000000000001,2.7547859544998037,-1.53309688859381,10.0,0.0,2.76696213031575,5.628058839211094,47.24055546262356,449.12534275981716,0.0
0.01,2.8825981013752666,-1.6002549776527268,10.0,0.0,3.213768879861147,6.05241123671528,52.680667724738676,449.12534275981716,0.0
0.011,2.9979249434121673,-1.65979758192365,10.0,0.0,3.664208299781634,6.467601238268278,58.17462070757332,449.12534275981716,0.0
0.012,3.1037593918657023,-1.7140208262656755,10.0,0.0,4.116491908700287,6.875827660748509,63.59924889182969,449.12534275981716,0.0
0.013000000000000001,3.202595398768614,-1.7639159983822192,10.0,0.0,4.569316035464496,7.278646185597796,68.94131643912489,449.12534275981716,0.0
0.014,3.296225008172433,-1.8101526220175017,10.0,0.0,5.021726678915928,7.677154373673186,74.154819798416,449.12534275981716,0.0
0.015,3.385902324177876,-1.8532428123194744,10.0,0.0,5.473024631526621,8.072124598619618,79.36584758703695,449.12534275981716,0.0
0.016,3.4726516213093435,-1.8933318621253235,10.0,0.0,5.9226687049465125,8.464081946808067,84.49490436778278,449.12534275981716,0.0
0.017,3.55723128255497,-1.9304876953653372,10.0,0.0,6.370230357001603,8.853371697753959,89.58226430135171,449.12534275981716,0.0
0.018000000000000002,3.6402157571714486,-1.9647256604525527,10.0,0.0,6.8153594367729635,9.24020614321541,94.63241046614948,449.12534275981716,0.0
0.019,3.7220342719763924,-1.9960570508959081,10.0,0.0,7.257763126411234,9.62469986022548,99.6391158777346,449.12534275981716,0.0
0.02,3.803095338595861,-2.024363259300783,10.0,0.0,7.697176187806786,10.006886042318273,104.58756395666805,449.12534275981716,0.0
0.021,3.8838050322227438,-2.049426425836793,10.0,0.0,8.133340447506976,10.38672745670858,109.44298402774633,449.12534275981716,0.0
0.022,3.9645833437357347,-2.070946417340384,10.0,0.0,8.56598899007621,10.764122638299717,114.17416891586474,449.12534275981716,0.0
0.023,4.0458932763331426,-2.088524051117687,10.0,0.0,8.9948305363481,11.138906846518077,118.75858294616346,449.12534275981716,0.0
0.024,4.128197939818487,-2.1017551120678006,10.0,0.0,9.41954598918138,11.510856374884378,123.15619940544282,449.12534275981716,0.0
0.025,4.21190178778868,-2.110342804281382,10.0,0.0,9.839797185101954,11.879698119055506,127.35208109734769,449.12534275981716,0.0
0.026000000000000002,4.297400986292605,-2.1140220506961684,10.0,0.0,10.255226276031072,12.24511293504585,131.35226219909933,449.12534275981716,0.0
0.027,4.385074701870762,-2.1125779936452744,10.0,0.0,10.66545830072657,12.606740061801517,135.1531570775967,449.12534275981716,0.0
0.028,4.475322195120549,-2.1057861344438944,10.0,0.0,11.07009717168644,12.96417719124947,138.7417597344832,449.12534275981716,0.0
0.029,4.568533450499499,-2.0934604350853183,10.0,0.0,11.46872796015769,13.316983731689426,142.09984988427206,449.12534275981716,0.0
0.03,4.665088237875729,-2.075450834082784,10.0,0.0,11.860918524709115,13.664683782874917,145.2037865856762,449.12534275981716,0.0
0.031,4.765367757816463,-2.051617221713273,10.0,0.0,12.246218436573326,14.006767686077284,148.02528739982912,449.12534275981716,0.0
0.032,4.869767165458989,-2.0218000679609034,10.0,0.0,12.62415519678229,14.34269205050456,150.53395227641323,449.12534275981716,0.0
0.033,4.9787043095866235,-1.9857955115044585,10.0,0.0,12.9942283877404,14.671878562732395,152.70172706680518,449.12534275981716,0.0
0.034,5.092612598206845,-1.9433549763814697,10.0,0.0,13.35590449752651,14.993713202526306,154.50878255129015,449.12534275981716,0.0
0.035,5.211787927994237,-1.8944250372809566,10.0,0.0,13.708638572363585,15.307561785929037,155.91900394616582,449.12534275981716,0.0
0.036000000000000004,5.3359821689299185,-1.8398092145808707,10.0,0.0,14.051965656951214,15.612829305270132,157.43589113394376,449.12534275981716,0.0
0.037,5.467773773996093,-1.7755691456366034,10.0,0.0,14.38496653565732,15.908647646987973,158.75284437560632,449.12534275981716,0.0
0.038,5.604858238108951,-1.7057531564910435,10.0,0.0,14.707211802548038,16.194422867402885,160.17867945853175,449.12534275981716,0.0
0.039,5.747408671713809,-1.630277911349224,10.0,0.0,15.018205947717025,16.46953538940997,161.79286289873016,449.12534275981716,0.0
0.04,5.893997043416397,-1.5516025860344895,10.0,0.0,15.317712397236619,16.73353685718201,163.65905279549824,449.12534275981716,0.0
0.041,6.041854106846781,-1.4743990286437543,10.0,0.0,15.605962710521629,16.986290429868486,165.19565162092636,449.12534275981716,0.0
0.042,6.190441587833448,-1.3996062771967424,10.0,0.0,15.883208182661518,17.22772762434059,166.49998889396463,449.12534275981716,0.0
0.043000000000000003,6.343919230514853,-1.3202017472981593,10.0,0.0,16.148886256260255,17.45734898069438,167.5250292654386,449.12534275981716,0.0
0.044,6.493788591925803,-1.2503913540173528,10.0,0.0,16.40407356017259,17.67562515544428,165.72436720959286,449.12534275981716,0.0
0.045,6.641794930836751,-1.1873158754903947,10.0,0.0,16.649329552463527,17.88281043944432,165.5945204950364,449.12534275981716,0.0
0.046,6.824221556149409,-1.0687809779222892,10.0,0.0,16.87837038997816,18.075215928878176,166.29085971827672,449.12534275981716,0.0
0.047,6.971440133025263,-1.013077585609906,10.0,0.0,17.098805668506028,18.256915175916895,167.77914320763125,449.12534275981716,0.0
0.048,7.102877013529626,-0.9851115377241197,10.0,0.0,17.312848112540667,18.429502155017794,173.17855694416951,449.12534275981716,0.0
0.049,7.135281928029883,-1.1091992609983783,10.0,0.0,17.53667432012096,18.603984508822094,174.85700839164807,449.12534275981716,0.0
0.05,7.184853114402498,-1.191480115410939,10.0,0.0,17.76337615907629,18.77827246664801,182.07058830857497,449.12534275981716,0.0
0.051000000000000004,7.212911644065985,-1.3018867920417767,10.0,0.0,17.996158535803957,18.955211086187607,187.12027457594846,449.12534275981716,0.0
0.052000000000000005,7.231450670432642,-1.4209944967925394,10.0,0.0,18.23535431756908,19.135975373842303,191.19759159337235,449.12534275981716,0.0
0.053,7.238747438173995,-1.5523347417194393,10.0,0.0,18.481963299817615,19.32196555672017,193.88323959098298,449.12534275981716,0.0
0.054,7.253714481753248,-1.6622720726234732,10.0,0.0,18.73329010607926,19.512444212418796,199.1209507494107,449.12534275981716,0.0
0.055,7.264087686334941,-1.7722034006528187,10.0,0.0,18.989525170058783,19.708016301105534,204.79554247887103,449.12534275981716,0.0
0.056,7.260388493461805,-1.8988961552005978,10.0,0.0,19.252530826228995,19.910165330583403,210.26041466727543,449.12534275981716,0.0
0.057,7.245604466784602,-2.036514722072447,10.0,0.0,19.523321934540398,20.11998927373627,215.91723809924983,449.12534275981716,0.0
0.058,7.2218784082570195,-2.1804201241477585,10.0,0.0,19.80246973489551,20.338371959576257,222.28188567472372,449.12534275981716,0.0
0.059000000000000004,7.190579329798224,-2.3273626936548792,10.0,0.0,20.090265652424144,20.566036794912947,229.2430778272887,449.12534275981716,0.0
0.06,7.15410131200443,-2.472259732474082,10.0,0.0,20.386517710308627,20.803414329641566,236.54807619941286,449.12534275981716,0.0
0.061,7.1144345598494105,-2.61080270740668,10.0,0.0,20.69067307273192,21.050677879244883,243.56352774131238,449.12534275981716,0.0
0.062,7.073424340217941,-2.739082630205821,10.0,0.0,21.001864615631778,21.3077450667681,249.8769063613746,449.12534275981716,0.0
0.063,7.02809969914722,-2.8620697323107787,10.0,0.0,21.319889504997537,21.57480029815045,255.99327947818506,449.12534275981716,0.0
0.064,6.968572557363275,-2.9974006354385514,10.0,0.0,21.646473956887966,21.853047234516673,261.28324143218066,449.12534275981716,0.0
0.065,6.916498329585073,-3.106575852568078,10.0,0.0,21.978880622078936,22.141260816073075,267.8352070920214,449.12534275981716,0.0
0.066,6.860083533956175,-3.2111706327163025,10.0,0.0,22.317281652551465,22.43957859123434,273.8933248861283,449.12534275981716,0.0
0.067,6.80627370315272,-3.30042546025317,10.0,0.0,22.660446440720435,22.747259625358815,279.98738030030927,449.12534275981716,0.0
0.068,6.761601913754217,-3.364849656749527,10.0,0.0,23.006256966824186,23.062864833413535,285.0765204187581,449.12534275981716,0.0
0.069,6.728050530707391,-3.4038252180996964,10.0,0.0,23.352690030906597,23.384734507514334,289.00271546445225,449.12534275981716,0.0
0.07,6.691287573208052,-3.445709753021299,10.0,0.0,23.700884299218714,23.71276893210775,293.4917747504753,449.12534275981716,0.0
0.07100000000000001,6.700145703503678,-3.410476566330787,10.0,0.0,24.042768087273792,24.041477317165523,295.0529237802314,449.12534275981716,0.0
0.07200000000000001,6.6909340547950205,-3.41135715623856,10.0,0.0,24.383783531785898,24.37260510518393,299.39017041051085,449.12534275981716,0.0
0.073,6.745908344252963,-3.314049295329483,10.0,0.0,24.713097540049564,24.698582370524257,298.121619191652,449.12534275981716,0.0
0.074,6.789312416285229,-3.250249438693487,10.0,0.0,25.036032968400015,25.020668605127938,302.10915678111456,449.12534275981716,0.0
0.075,6.890941869438571,-3.108554639347101,10.0,0.0,25.34393504801405,25.332094559979755,298.8788597850515,449.12534275981716,0.0
0.076,7.024009409164477,-2.936342838938269,10.0,0.0,25.63466316510037,25.62954699246948,297.54768902068224,449.12534275981716,0.0
0.077,7.141662871785374,-2.815526438777786,10.0,0.0,25.914496027713437,25.914715787927815,299.0299947351994,449.12534275981716,0.0
0.078,7.317469959412368,-2.6263038258242766,10.0,0.0,26.17525616018777,26.18118874508888,297.9554341273012,449.12534275981716,0.0
0.079,7.526460879542397,-2.4096354616183144,10.0,0.0,26.41464628119766,26.42585948944322,295.4898317745762,449.12534275981716,0.0
0.08,7.760378524662086,-2.1801165844165187,10.0,0.0,26.631484071691858,26.646361139701263,290.72586692445793,449.12534275981716,0.0
0.081,8.002706724318832,-1.964079276659594,10.0,0.0,26.827219333081178,26.84217947847188,287.08683686512927,449.12534275981716,0.0
0.082,8.260114850645897,-1.7487888805236151,10.0,0.0,27.001441331711252,27.012097897604946,283.0441858725387,449.12534275981716,0.0
0.083,8.521892887047864,-1.5492291797064603,10.0,0.0,27.15543430926309,27.15622517194677,276.1324524208723,449.12534275981716,0.0
0.084,8.79531466133421,-1.3506541253654543,10.0,0.0,27.288593057524594,27.27388040180211,269.0580372701148,449.12534275981716,0.0
0.085,9.100938067058605,-1.114796009421808,10.0,0.0,27.39624281173509,27.36220162661126,268.00827500708203,449.12534275981716,0.0
0.08600000000000001,9.401802113311756,-0.8998114579437714,10.0,0.0,27.4806699935023,27.422416893329938,259.0703315929761,449.12534275981716,0.0
0.08700000000000001,9.683729914278555,-0.727477136560838,10.0,0.0,27.545869053927323,27.457049933909648,268.10756992257683,449.12534275981716,0.0
0.088,9.758898608877963,-0.8839260515052145,10.0,0.0,27.62694423622552,27.489290298077623,273.64634599772427,449.12534275981716,0.0
0.089,9.71165620777416,-1.1785477662926955,10.0,0.0,27.733979836187874,27.532362495126048,278.30436449971745,449.12534275981716,0.0
0.09,9.669508921177046,-1.4247099022000045,10.0,0.0,27.85875071366077,27.585994809980487,285.88768767358164,449.12534275981716,0.0
0.091,9.607844025204205,-1.6688101639241175,10.0,0.0,28.000797142302385,27.65310264678782,295.2329409647205,449.12534275981716,0.0
0.092,9.520828385816921,-1.924584026479223,10.0,0.0,28.161043834024404,27.736659414151458,304.0132688856337,449.12534275981716,0.0
0.093,9.407350016090398,-2.1954145413325867,10.0,0.0,28.340855151318895,27.839497638226966,311.9688063407963,449.12534275981716,0.0
0.094,9.280459066942603,-2.4580602172029025,10.0,0.0,28.539151878488706,27.962856392333386,319.1224153308821,449.12534275981716,0.0
0.095,9.139947986047694,-2.7123706265818055,10.0,0.0,28.755302496625138,28.107896253153086,325.3593868514269,449.12534275981716,0.0
0.096,8.978012252963499,-2.9724027615437207,10.0,0.0,28.99040246978192,28.276455009534796,333.8829962873037,449.12534275981716,0.0
0.097,8.792954530388261,-3.2416585324210234,10.0,0.0,29.245866134708088,28.470404879746436,345.0180807661153,449.12534275981716,0.0
0.098,8.62200716447218,-3.454077475155039,10.0,0.0,29.515851946154772,28.687459762454534,350.8960468740153,449.12534275981716,0.0
0.099,8.454885796982055,-3.6302607720673072,10.0,0.0,29.7978006379606,28.926481614801254,358.55109102834086,449.12534275981716,0.0
0.1,8.277026442797931,-3.8014763920936536,10.0,0.0,30.092528531054292,29.187689466379236,365.5181454051254,449.12534275981716,0.0
0.101,8.134245778571987,-3.8931198277422046,10.0,0.0,30.39227304171748,29.4661766016318,369.6678411438967,449.12534275981716,0.0
0.10200000000000001,7.9735863374934794,-4.006118948153298,10.0,0.0,30.701405283728356,29.76303420630181,376.5185292278089,449.12534275981716,0.0
0.10300000000000001,7.900328356723283,-3.969022835446595,10.0,0.0,31.0040994984033,30.06757105817983,375.7120030855917,449.12534275981716,0.0
0.10400000000000001,7.819045127115032,-3.9571622333331264,10.0,0.0,31.306044271693125,30.38013222178676,382.1147783681334,449.12534275981716,0.0
0.105,7.823054464502893,-3.8261010405521794,10.0,0.0,31.594752558829896,30.69037788695323,375.9830970874768,449.12534275981716,0.0
0.106,7.86999103786944,-3.6578256922613126,10.0,0.0,31.868414907385464,30.993346884620287,379.22897647513605,449.12534275981716,0.0
0.107,7.947193628866399,-3.485975721094133,10.0,0.0,32.12778717750668,31.2853622981002,376.5490914297667,449.12534275981716,0.0
0.108,8.138238705911125,-3.1783742752422044,10.0,0.0,32.35830610263173,31.55387046467929,367.64163925634824,449.12534275981716,0.0
0.109,8.351096366073754,-2.8920002668646645,10.0,0.0,32.56419882543918,31.797075815265526,361.93231041633175,449.12534275981716,0.0
0.11,8.593997604738757,-2.616999274937178,10.0,0.0,32.74643644199625,32.01195934342236,357.33563925597616,449.12534275981716,0.0
0.111,8.8880155480256,-2.315891751060884,10.0,0.0,32.90156683200619,32.19366531904433,351.6238464272942,449.12534275981716,0.0
0.112,9.232756660324542,-1.9844794187611954,10.0,0.0,33.025910499263134,32.33773239318508,343.9102938722242,449.12534275981716,0.0
0.113,9.602745030722838,-1.6589874120273516,10.0,0.0,33.11973650979072,32.44257581701661,334.57763032935367,449.12534275981716,0.0
0.114,9.992773047590626,-1.3411826764726862,10.0,0.0,33.18296066080502,32.50711430136628,325.2842082243316,449.12534275981716,0.0
0.115,10.404936512247234,-1.0188975829149225,10.0,0.0,33.214042932217076,32.530083651438865,320.4445789195156,449.12534275981716,0.0
0.116,10.823523725332212,-0.7095292787588638,10.0,0.0,33.21350624897358,32.511941334852615,315.39546379475144,449.12534275981716,0.0
0.117,11.123544741684674,-0.6174908059638611,10.0,0.0,33.20417845342993,32.466743141932724,322.7524325966687,449.12534275981716,0.0
0.11800000000000001,11.125103611714179,-0.940271495827691,10.0,0.0,33.2276898787616,32.42796072321073,334.93750796606673,449.12534275981716,0.0
0.11900000000000001,11.024436156957226,-1.339719515536956,10.0,0.0,33.2856833949573,32.40649669761767,341.43162953290386,449.12534275981716,0.0
0.12,10.897436759011189,-1.7189939201370548,10.0,0.0,33.373456861283046,32.405941685429966,351.1702297273923,449.12534275981716,0.0
0.121,10.739776868811619,-2.0909401626746056,10.0,0.0,33.489518822390565,32.43029211503611,362.31045163861785,449.12534275981716,0.0
0.122,10.554543477256225,-2.453128003627987,10.0,0.0,33.63253083042747,32.482612771961485,373.3050808972705,449.12534275981716,0.0
0.123,10.348168605329011,-2.7955222967054776,10.0,0.0,33.80051519718219,32.56485146599445,382.2369273728732,449.12534275981716,0.0
0.124,10.119289200856223,-3.121672597952982,10.0,0.0,33.9923775868712,32.678777713072336,389.5756731190352,449.12534275981716,0.0
0.125,9.861719425924896,-3.444818845176587,10.0,0.0,34.2087309464812,32.826541455609046,398.31273213845753,449.12534275981716,0.0
0.126,9.57586152073733,-3.767776938445448,10.0,0.0,34.45051927217121,33.0100328316744,411.11399599940205,449.12534275981716,0.0
0.127,9.314594977239768,-4.001740977169741,10.0,0.0,34.70898436622575,33.22523464343508,416.53183430318904,449.12534275981716,0.0
0.128,9.058481077884522,-4.190580749695616,10.0,0.0,34.98155586664149,33.47032264691925,422.990407228622,449.12534275981716,0.0
0.129,8.844267580840937,-4.285402483382232,10.0,0.0,35.25992101034437,33.73916134577782,429.019770626412,449.12534275981716,0.0
0.13,8.640355473534798,-4.358769032626642,10.0,0.0,35.54445561264283,34.02924088595405,431.71287447061616,449.12534275981716,0.0
0.131,8.555689031989813,-4.244379667898626,10.0,0.0,35.75382144761248,34.22772024293809,429.44104720499706,449.12534275981716,0.0
0.132,8.439131855779479,-4.138574257406474,10.0,0.0,35.667998240581376,34.05156307646128,424.04085626687674,449.12534275981716,0.0
0.133,8.322906335839011,-3.822166641022395,10.0,0.0,35.53223543328277,33.968881271613704,415.6357351889422,449.12534275981716,0.0
0.134,8.309085027248097,-3.5794960356188303,10.0,0.0,35.38777138813263,33.958085942889696,407.0232590349158,449.12534275981716,0.0
0.135,8.450249207158251,-3.287148580319517,10.0,0.0,35.25655480763534,34.00057180051176,397.99210071101743,449.12534275981716,0.0
0.136,8.674491104093818,-3.018291344363946,10.0,0.0,35.15802322933479,34.079909742240105,388.5456644913048,449.12534275981716,0.0
0.137,8.994425634452325,-2.7118867679386947,10.0,0.0,35.10126931182273,34.182015814688754,380.3475163010794,449.12534275981716,0.0
0.138,9.37633129889753,-2.390196644243283,10.0,0.0,35.092005666672875,34.2954721418507,373.98026200485754,449.12534275981716,0.0
0.139,9.795469362337762,-2.0677258360789383,10.0,0.0,35.13264793026956,34.411520438189044,365.78706009569885,449.12534275981716,0.0
0.14,10.229594729629872,-1.760582395862663,10.0,0.0,35.223342772993114,34.523960422516446,352.6844298960959,449.12534275981716,0.0
0.14100000000000001,10.699769623996787,-1.417677211935195,10.0,0.0,35.36003574238576,34.627589909390565,341.6228965916585,449.12534275981716,0.0
0.14200000000000002,11.21138802474937,-1.0161884892489077,10.0,0.0,35.537227634086015,34.71799993276406,341.3672656889308,449.12534275981716,0.0
0.14300000000000002,11.656930897941281,-0.7293396129474985,10.0,0.0,35.7561885097099,34.795738855592205,347.12315453240234,449.12534275981716,0.0
0.14400000000000002,11.71966794812872,-0.9869742851412173,10.0,0.0,36.04010306204028,34.88534474569746,362.29259970078465,449.12534275981716,0.0
0.145,11.661809454593186,-1.3019568044724839,10.0,0.0,36.205634612066774,34.912300789917424,373.63296236762943,449.12534275981716,0.0
0.146,11.506352824537242,-1.731492609974282,10.0,0.0,36.25374584890429,34.8925534559792,384.16171251362937,449.12534275981716,0.0
0.147,11.318653089335246,-2.1811097272320366,10.0,0.0,36.34023375350756,34.89868438369021,396.13141038514385,449.12534275981716,0.0
0.148,11.095435837551609,-2.6072073967514333,10.0,0.0,36.46106053289615,34.93552790943461,406.9901368254568,449.12534275981716,0.0
0.149,10.841469795399714,-3.005203625562031,10.0,0.0,36.61300759539429,35.00647385266231,416.23068470135314,449.12534275981716,0.0
