timestamp,iq,id,iq_ref,id_ref,vq,vd,omega,omega_ref,r
0.0,0.0,0.0,0.0,0.0,0.0,0.0,0.0,201.50307093947333,0.0
0.001,0.0,0.0,10.0,0.0,0.0,1.0999999999999999,6.948039851992718,201.50307093947333,0.0
0.002,0.45388931900427404,-0.2530918518133242,10.0,0.0,0.1378401036994656,1.94007217490953,15.17865153443688,201.50307093947333,0.0
0.003,0.9973875118500529,-0.5591359012680543,10.0,0.0,0.377037341441825,2.65467523467506,23.944549187726174,201.50307093947333,0.0
0.004,1.5108954067773432,-0.848340553445494,10.0,0.0,0.6925272326314722,3.2706868257247295,33.03877874888987,201.50307093947333,0.0
0.005,1.949977335124186,-1.0953273048941592,10.0,0.0,1.0623457899447009,3.813482313619516,42.33233655096669,201.50307093947333,0.0
0.006,2.307732348532086,-1.2956195215689663,10.0,0.0,1.4690243166358266,4.304017876264748,51.740836251332155,201.50307093947333,0.0
0.007,2.593042141414099,-1.4545847856562026,10.0,0.0,1.8995718038052114,4.758361208231624,61.19928680544565,201.50307093947333,0.0
0.008,2.8202476398796583,-1.5800482402602651,10.0,0.0,2.34471020281992,5.188185448816361,70.67009477734771,201.50307093947333,0.0
0.009000000000000001,3.0035492091842766,-1.6799832439470228,10.0,0.0,2.798055401851134,5.601649987605243,80.10430518517231,201.50307093947333,0.0
0.01,3.1551060720349877,-1.7609713773676905,10.0,0.0,3.2553218794975196,6.0042643531978275,89.51974765728545,201.50307093947333,0.0
0.011,3.284046756425667,-1.8286930491574087,10.0,0.0,3.713762648501189,6.399676023341323,98.84026045028367,201.50307093947333,0.0
0.012,3.397543570519528,-1.8865321263632067,10.0,0.0,4.171585589393581,6.790195360664417,108.02032823847281,201.50307093947333,0.0
0.013000000000000001,3.5009528442511195,-1.9363637585769276,10.0,0.0,4.627581258700495,7.1772050063749075,117.0959440476546,201.50307093947333,0.0
0.014,3.5977151964089096,-1.9798375933395076,10.0,0.0,5.080962131149512,7.5615034884449965,126.02066200637472,201.50307093947333,0.0
0.015,3.6904476662254293,-2.0175243840909434,10.0,0.0,5.531145573195669,7.943477261394738,134.76461585103652,201.50307093947333,0.0
0.016,3.781050114362385,-2.049517296656588,10.0,0.0,5.977650400806891,8.323233056657225,143.2931297876596,201.50307093947333,0.0
0.017,3.8710001265670964,-2.0755273060543282,10.0,0.0,6.4200214970913345,8.700675278293433,151.63225900278104,201.50307093947333,0.0
0.018000000000000002,3.960925106021854,-2.096022074546898,10.0,0.0,6.857894030351159,9.075618139776493,159.62812347847583,201.50307093947333,0.0
0.019,4.0525430678373615,-2.1092864494114227,10.0,0.0,7.290727729983481,9.44767524243207,167.32900140498174,201.50307093947333,0.0
0.02,4.146630996049169,-2.1149721113517668,10.0,0.0,7.71797654898292,9.816376512300176,174.71538510408445,201.50307093947333,0.0
0.021,4.244221632075015,-2.1122619978875337,10.0,0.0,8.139015643968758,10.181138446400691,181.72840826166941,201.50307093947333,0.0
0.022,4.345944797939774,-2.101017983325841,10.0,0.0,8.553217282398915,10.541314454704871,188.30684757690443,201.50307093947333,0.0
0.023,4.452191226446467,-2.0815566565010597,9.953600116530591,0.0,8.959988052011369,10.891119163362925,194.28892858789678,201.50307093947333,0.0
0.024,4.562539407358688,-2.051075408997302,7.034701034550185,0.0,9.357903891571219,10.914929742317996,197.82900377188298,201.50307093947333,0.0
0.025,4.548766331097386,-1.9408621801744839,5.301404114232986,0.0,9.706590562375116,10.817295697116315,199.75286428007962,201.50307093947333,0.0
0.026000000000000002,4.439497268690016,-1.7666039659191826,4.3569759267286035,0.0,9.992578890298601,10.689621458195086,198.74072579103137,201.50307093947333,0.0
0.027,4.281149992557219,-1.5730606158153075,4.8906686227371505,0.0,10.217653775168742,10.687789464144844,193.51029646986865,201.50307093947333,0.0
0.028,4.180597555442627,-1.3837066028256433,7.585811028014556,0.0,10.40114446421902,11.009254190928344,200.3251245797126,201.50307093947333,0.0
0.029,4.245229948760563,-1.286773501273277,4.190176436690192,0.0,10.589663456001755,10.90833519720395,198.34071360697624,201.50307093947333,0.0
0.03,4.214775940159481,-1.1595562781784434,5.214005496383341,0.0,10.73621408570887,10.986933809389061,195.2118319851404,201.50307093947333,0.0
0.031,4.2448828372115335,-1.0254249908453918,6.841358696844585,0.0,10.8624872442881,11.23748188601844,198.13204259375416,201.50307093947333,0.0
0.032,4.3636734958985794,-0.9606207932729778,5.414963675994898,0.0,10.99540074581271,11.28965958305967,192.533112300438,201.50307093947333,0.0
0.033,4.455243753534672,-0.8759041774371432,8.30412840904333,0.0,11.111569881122758,11.673098109639966,197.75914367348793,201.50307093947333,0.0
0.034,4.679953609828347,-0.8478814520350824,5.728551995178224,0.0,11.252230621923967,11.693802262621643,192.47893362417358,201.50307093947333,0.0
0.035,4.813561862190301,-0.7789925274514025,8.458898392988395,0.0,11.373598149493041,12.04014613308617,197.174534203087,201.50307093947333,0.0
0.036000000000000004,5.0482541267668815,-0.7528074127089834,6.154383470895546,0.0,11.515271837975826,12.058712197273024,191.71432129886992,201.50307093947333,0.0
0.037,5.1973699032473535,-0.6751628689059106,8.982377419410124,0.0,11.636355715358107,12.409657694679924,202.77418511780394,201.50307093947333,0.0
0.038,5.375461252997274,-0.7667329219548789,3.439734368159807,0.0,11.791274906016264,12.081547464253992,202.49937611045306,201.50307093947333,0.0
0.039,5.297950748702936,-0.7600532163631804,3.567175820125451,0.0,11.896240686420436,11.88149223513507,207.9659775454212,201.50307093947333,0.0
0.04,5.137291381352496,-0.7659224503074364,0.7692460365819027,0.0,11.971416778662086,11.419789841624613,206.1506851147657,201.50307093947333,0.0
0.041,4.845814440164654,-0.6997761669710671,1.6304161101567236,0.0,11.985570238822085,11.164939172475203,209.88527760116995,201.50307093947333,0.0
0.042,4.569797674786557,-0.6770396977210329,-0.3207021996623616,0.0,11.970983737266996,10.74120127622058,208.10107987494044,201.50307093947333,0.0
0.043000000000000003,4.246398228296251,-0.6247549682788214,0.5054165740977212,0.0,11.909958140695817,10.501576539107882,209.73875473345757,201.50307093947333,0.0
0.044,3.9777867944732974,-0.6134556787331411,-0.395777693100686,0.0,11.830352555514878,10.198732422175517,209.73693444598555,201.50307093947333,0.0
0.045,3.716724535160081,-0.6036786739528546,-0.477206184429801,0.0,11.727460639528426,9.944297701230308,210.00766775633988,201.50307093947333,0.0
0.046,3.4817473195777424,-0.6089684292523578,-0.697618807775632,0.0,11.610094086176844,9.704823028247144,209.85485733863746,201.50307093947333,0.0
0.047,3.269078000606526,-0.6230383390541139,-0.7047314629160599,0.0,11.482011513387302,9.500024754326166,209.7009101463124,201.50307093947333,0.0
0.048,3.0838797755448715,-0.6470922947492974,-0.7097362588219194,0.0,11.348762606513068,9.320663761087157,209.4479336619295,201.50307093947333,0.0
0.049,2.9236713967306054,-0.679165622932266,-0.6626966438550395,0.0,11.214190017545535,9.166909321508992,209.12778377698854,201.50307093947333,0.0
0.05,2.786800865602768,-0.7173002973440754,-0.578868829759704,0.0,11.081573324420408,9.037277405028636,208.78563393176657,201.50307093947333,0.0
0.051000000000000004,2.671199652658826,-0.7597569181316753,-0.4806195370716524,0.0,10.953543990502272,8.928663583051081,208.44084486189237,201.50307093947333,0.0
0.052000000000000005,2.574113357648511,-0.8045642703892232,-0.3776027413587455,0.0,10.831960450318652,8.837981044802708,208.1374621728469,201.50307093947333,0.0
0.053,2.4926219509187746,-0.8497567472188977,-0.2922553091697493,0.0,10.717990109257244,8.760559647734636,207.81621151806436,201.50307093947333,0.0
0.054,2.4229547844889945,-0.8936110429874647,-0.194761387564387,0.0,10.612046710361414,8.69620268756191,207.43536376957516,201.50307093947333,0.0
0.055,2.363487001448726,-0.9346704472667472,-0.06366044162080398,0.0,10.514339946850933,8.64697803282475,207.02967972699452,201.50307093947333,0.0
0.056,2.314426437442525,-0.9725596865569709,0.0839154917943068,0.0,10.425238616496914,8.61262949463676,206.62325201182384,201.50307093947333,0.0
0.057,2.2760162577332013,-1.006732822735848,0.23592753865614124,0.0,10.344992717946273,8.591785757180777,206.2370689085091,201.50307093947333,0.0
0.058,2.2479505158193582,-1.0365621077292384,0.38167911062315873,0.0,10.27362652549258,8.582217485876518,205.8887447179865,201.50307093947333,0.0
0.059000000000000004,2.2277798272629754,-1.0639665923462045,0.5119844680993215,0.0,10.211156325611764,8.581283614382082,205.60054736776544,201.50307093947333,0.0
0.06,2.2142686488010197,-1.087820138478474,0.6151083789269274,0.0,10.157189603797963,8.585521209410537,204.82762686924445,201.50307093947333,0.0
0.061,2.2066310139715277,-1.1051549039969029,0.9683230688897111,0.0,10.110711602414097,8.622465777589023,204.02270157540602,201.50307093947333,0.0
0.062,2.2159468255371406,-1.1211017432491952,1.3455894094496026,0.0,10.074156662649031,8.687934123752719,203.45557181757937,201.50307093947333,0.0
0.063,2.244108471179489,-1.1396847834128605,1.6096292795818665,0.0,10.049688717502319,8.765467240727485,202.7198292783334,201.50307093947333,0.0
0.064,2.2871624957272143,-1.1552961257297498,1.9653329658162466,0.0,10.036952295820983,8.86483293203074,202.5253562439746,201.50307093947333,0.0
0.065,2.3464372235813666,-1.1687668688109125,2.0523466299506303,0.0,10.036751753753862,8.95291319840949,201.98121083178017,201.50307093947333,0.0
0.066,2.409009776106118,-1.1731810954588182,2.3196379371247815,0.0,10.045730150031783,9.05440705759229,203.78838881283022,201.50307093947333,0.0
0.067,2.477154024068299,-1.1747665977358002,1.3931957678661897,0.0,10.064090355584188,9.035197677043822,204.30960947956237,201.50307093947333,0.0
0.068,2.494909316299001,-1.1518149855507387,1.104520049099225,0.0,10.076153070163372,8.9959837080679,200.83281794325111,201.50307093947333,0.0
0.069,2.4875341307463166,-1.1036978903825592,2.849618347217074,0.0,10.0780247520404,9.157733800761232,198.39042023502833,201.50307093947333,0.0
0.07,2.5567136768988874,-1.0823794492415926,4.101943708372916,0.0,10.09402041742523,9.416117357186582,199.63317015617392,201.50307093947333,0.0
0.07100000000000001,2.7035831183873333,-1.0911386408839472,3.4992677556331166,0.0,10.135431567406183,9.555980672992742,201.34183888381213,201.50307093947333,0.0
0.07200000000000001,2.836292809423115,-1.0867231837834797,2.6465457123706226,0.0,10.186114641772184,9.585096735385854,200.3578178436263,201.50307093947333,0.0
0.073,2.908495071760607,-1.063244844703915,3.1500087634220115,0.0,10.232102552213144,9.673662503077768,196.70357421021794,201.50307093947333,0.0
0.074,2.983878406204777,-1.033324419963255,5.025125547418744,0.0,10.279291785048526,9.951628556608226,196.6747642428624,201.50307093947333,0.0
0.075,3.1553795504123046,-1.015211693308464,5.087813598062617,0.0,10.347865504268796,10.176550153281651,199.26285574926007,201.50307093947333,0.0
0.076,3.3344049494162524,-1.015061628042487,3.81616999676592,0.0,10.432238631321672,10.227351503112327,197.67321203382093,201.50307093947333,0.0
0.077,3.445057461062828,-0.9842561179791931,4.649290443542013,0.0,10.509867475198023,10.375488193532476,192.55235837894563,201.50307093947333,0.0
0.078,3.579230479731796,-0.9362842351174223,7.2992243965849415,0.0,10.589578251714595,10.786083122728085,198.99036533838964,201.50307093947333,0.0
0.079,3.8238798963960026,-0.952684180362075,4.105347972873774,0.0,10.7046611563046,10.760194184870757,194.60238255981352,201.50307093947333,0.0
0.08,3.938524527789962,-0.9063923667357214,6.3683462459584295,0.0,10.80039077769852,11.01910659024789,195.90550678886441,201.50307093947333,0.0
0.081,4.1270367728360355,-0.8658981306618347,5.772759772939072,0.0,10.908447229658902,11.153966321822608,195.9257900553244,201.50307093947333,0.0
0.082,4.279354871434724,-0.8372070138916603,5.81839094855057,0.0,11.016432929096736,11.28225115108795,192.18770907485526,201.50307093947333,0.0
0.083,4.439513025834835,-0.7705668164728067,7.780585057431318,0.0,11.119405030968952,11.607796891593283,194.73990462679424,201.50307093947333,0.0
0.084,4.665740086717477,-0.7653989063163573,6.572118944588619,0.0,11.244732428561454,11.73524865958071,191.57094281519153,201.50307093947333,0.0
0.085,4.862363013350641,-0.7119057809734788,8.255921131632794,0.0,11.364439698507299,12.040424640911112,192.76525925774664,201.50307093947333,0.0
0.08600000000000001,5.101085203543751,-0.7068591090702715,7.7461410271725075,0.0,11.502673636935672,12.22984670608707,200.65175947292212,201.50307093947333,0.0
0.08700000000000001,5.294020188149343,-0.7301877699848645,3.811404034250276,0.0,11.648643007458448,11.967591064006744,197.94289172707013,201.50307093947333,0.0
0.088,5.239517727405554,-0.7272056603408842,5.201439699300303,0.0,11.753228558050925,11.946333836799328,206.11435788668322,201.50307093947333,0.0
0.089,5.172718124846992,-0.7604340303646528,1.0695937500216588,0.0,11.848914772662472,11.476060407974755,203.34292840941887,201.50307093947333,0.0
0.09,4.915769414995715,-0.712741033844912,2.436909913954378,0.0,11.882426509612994,11.281702543077232,210.76875040130687,201.50307093947333,0.0
0.091,4.6873054419158295,-0.6947636193159032,-1.3686578766079576,0.0,11.891650700745716,10.700407569703609,205.74557081888656,201.50307093947333,0.0
0.092,4.308396017886841,-0.6238457453221173,1.100506915808066,0.0,11.83420178343378,10.527223714764393,207.10746633506383,201.50307093947333,0.0
0.093,4.047223208107367,-0.6034193089795495,0.3635152037635261,0.0,11.763641643101373,10.284792532174293,208.62547199520787,201.50307093947333,0.0
0.094,3.8089405415675643,-0.6098319046855283,-0.46671163686584016,0.0,11.676804048434272,9.999192783682766,208.0911697370092,201.50307093947333,0.0
0.095,3.572399744388014,-0.610148490529465,-0.26544149574186626,0.0,11.570060936870508,9.787547895527963,208.61405961146738,201.50307093947333,0.0
0.096,3.368465927863783,-0.6275616916827745,-0.5979963196908931,0.0,11.454739933916064,9.567866764832502,208.50789171072753,201.50307093947333,0.0
0.097,3.1788655661839087,-0.6497479462727711,-0.6149605770335111,0.0,11.331249274180884,9.378897828462485,208.35714467810317,201.50307093947333,0.0
0.098,3.0108410231103564,-0.6781890167380706,-0.6081277981076263,0.0,11.204117441987506,9.213984664132523,208.14695029835227,201.50307093947333,0.0
0.099,2.863950454964632,-0.7123415874928544,-0.5694694018209647,0.0,11.076679848658838,9.071511445883786,207.86713530197952,201.50307093947333,0.0
0.1,2.7369356346155547,-0.7506866351888494,-0.49320254725965196,0.0,10.951615122377179,8.951047284722875,207.56256644763695,201.50307093947333,0.0
0.101,2.6285912451019535,-0.7918708345151371,-0.4015130751700067,0.0,10.831157264056527,8.850093975077144,207.28456589155167,201.50307093947333,0.0
0.10200000000000001,2.5369232706398526,-0.8343423637646982,-0.3203277466481462,0.0,10.716909886827555,8.764203735276123,206.98990024193466,201.50307093947333,0.0
0.10300000000000001,2.4586329950319166,-0.8765469089849407,-0.2278632148642581,0.0,10.609716008023112,8.692532277515566,206.64070554715806,201.50307093947333,0.0
0.10400000000000001,2.3919000069630134,-0.9170162443048318,-0.10464221355280579,0.0,10.510103952756037,8.63649596840854,206.26398948660693,201.50307093947333,0.0
0.105,2.3364837419637454,-0.9551806387535766,0.036106631251424215,0.0,10.418642862141132,8.595780706870096,205.88212851173097,201.50307093947333,0.0
0.106,2.2922650865353593,-0.9904570919076948,0.1832465429668293,0.0,10.335755120336339,8.569078653711783,205.48221901900175,201.50307093947333,0.0
0.107,2.2589974825914867,-1.0217262754105132,0.3434098085361561,0.0,10.261572793049961,8.556121841663838,205.1758638529298,201.50307093947333,0.0
0.108,2.235532073704783,-1.0502063899387184,0.45985946243756004,0.0,10.196333138050505,8.550498826303606,204.91186250944838,201.50307093947333,0.0
0.109,2.2184164873511425,-1.075731351042449,0.5577722184785223,0.0,10.139578091591098,8.550168114014982,204.41581420942273,201.50307093947333,0.0
0.11,2.2065454144350203,-1.0958120369175854,0.7766689357918528,0.0,10.090419104383997,8.568429141810569,203.55202721582782,201.50307093947333,0.0
0.111,2.20568368664547,-1.1114407528332078,1.1880728698257648,0.0,10.049520470569128,8.622989713004177,202.94310429592895,201.50307093947333,0.0
0.112,2.2247510371426875,-1.12909652945409,1.4781339962106452,0.0,10.01995360552425,8.693691022426343,202.24024701627724,201.50307093947333,0.0
0.113,2.259922188863307,-1.14633728005035,1.8221908752684612,0.0,10.002133482725458,8.785633006650022,201.83291610240576,201.50307093947333,0.0
0.114,2.312320108791713,-1.1613979546314193,2.0225578805748747,0.0,9.99677383732687,8.879786522289663,201.85888478959555,201.50307093947333,0.0
0.115,2.3729821229133545,-1.171988287093571,2.0060153984787585,0.0,10.002379837857125,8.954016536387748,201.65051043040614,201.50307093947333,0.0
0.116,2.431552218323229,-1.1678118260339014,2.1087281831641334,0.0,10.014282925702982,9.02701188991153,203.63936610538994,201.50307093947333,0.0
0.117,2.482569676495122,-1.1639098929593654,1.0929373940130693,0.0,10.031907792089028,8.976107682769237,202.03155203855366,201.50307093947333,0.0
0.11800000000000001,2.481420577465657,-1.1284303186113442,1.891559616440408,0.0,10.038816017274705,9.03069931081326,199.20932677223595,201.50307093947333,0.0
0.11900000000000001,2.5044499835037173,-1.0956207870588466,3.3256096912716324,0.0,10.04723833001892,9.227737158924132,197.34417551193954,201.50307093947333,0.0
0.12,2.6070841960736097,-1.081360050885264,4.299774275695178,0.0,10.073281610636231,9.487671587714301,199.56502083664685,201.50307093947333,0.0
0.121,2.766919814599849,-1.0972127717256897,3.2087321143697864,0.0,10.124600412725009,9.577905042184971,201.08394239357435,201.50307093947333,0.0
0.122,2.88411773099787,-1.084691589069371,2.453462621365029,0.0,10.17827482275138,9.580784394181661,199.0321371170098,201.50307093947333,0.0
0.123,2.9392171446583806,-1.0488541868863774,3.504074597871939,0.0,10.223052824561218,9.706974307988459,194.66274585405006,201.50307093947333,0.0
0.124,3.0290527437428345,-1.010074553800024,5.757173480206041,0.0,10.272064631953079,10.053026866124547,197.4790383533274,201.50307093947333,0.0
0.125,3.2288575472234946,-1.0135054593936235,4.389267556428824,0.0,10.351545710365523,10.175294536355358,200.07245656285477,201.50307093947333,0.0
0.126,3.378084848552393,-1.0018586719975864,3.106864595431331,0.0,10.433989992290307,10.151481325821003,194.2441283064586,201.50307093947333,0.0
0.127,3.448604461442916,-0.9431381143206801,6.093618149959559,0.0,10.499465731498674,10.473395900735973,195.52250541692953,201.50307093947333,0.0
0.128,3.63726082741418,-0.9200827452806795,5.514235249949534,0.0,10.588636469260074,10.65601993340597,198.04494646481896,201.50307093947333,0.0
0.129,3.8087095624656806,-0.9095680206036905,4.2875959707513625,0.0,10.686226470488261,10.683189347677448,191.73940802576107,201.50307093947333,0.0
0.13,3.921849730737069,-0.8494061239318083,7.538001819417435,0.0,10.770261751633644,11.076480925630515,196.15344938903456,201.50307093947333,0.0
0.131,4.160405697372324,-0.8454461822230905,5.384477353285073,0.0,10.885388687838553,11.144345369494426,191.64947206809853,201.50307093947333,0.0
0.132,4.316506255280453,-0.8092942421892106,7.735002002466837,0.0,10.991852260822721,11.482243516960212,195.48946815255465,201.50307093947333,0.0
0.133,4.560327935425448,-0.793188348963578,5.875139988107965,0.0,11.120049162400573,11.543648759669676,190.08948863641885,201.50307093947333,0.0
0.134,4.719205165401285,-0.7472475197651289,8.68926556920641,0.0,11.23667446581201,11.924847323834504,194.93316291412805,201.50307093947333,0.0
0.135,4.983486905947496,-0.7381680956417169,6.333127510605264,0.0,11.379217766937197,11.964789900506558,189.61166754718363,201.50307093947333,0.0
0.136,5.15429904375177,-0.6759814497513998,9.11278922800037,0.0,11.50475125881037,12.328170201370392,200.885999104447,201.50307093947333,0.0
0.137,5.349089056384053,-0.7738688960586131,3.4817941677189514,0.0,11.665458917135311,12.00084096751874,200.50331513542824,201.50307093947333,0.0
