timestamp,iq,id,iq_ref,id_ref,vq,vd,omega,omega_ref,r
0.0,0.0,0.0,0.0,0.0,0.0,0.0,0.0,296.2752680023886,0.0
0.001,0.0,0.0,10.0,0.0,0.0,1.0999999999999999,7.079038796934129,296.2752680023886,0.0
0.002,0.9506925650260041,-0.5440965342378516,10.0,0.0,0.1698506187661636,1.8854238178471392,13.60859735803725,296.2752680023886,0.0
0.003,1.793666874670295,-1.0249693758981753,10.0,0.0,0.448713604680682,2.5260700673755685,20.4678305842849,296.2752680023886,0.0
0.004,2.428191469807411,-1.3859491976617615,10.0,0.0,0.7986539689339825,3.069170028173968,27.48581855687934,296.2752680023886,0.0
0.005,2.887586472494902,-1.6461644872927692,10.0,0.0,1.192924176483568,3.5487658249736045,34.59874292669072,296.2752680023886,0.0
0.006,3.2230745093157456,-1.8352622969479973,10.0,0.0,1.6139255491239237,3.9875193288248174,41.72446704152918,296.2752680023886,0.0
0.007,3.476383711933202,-1.9770408065865601,10.0,0.0,2.050406792849055,4.399988487635232,48.90451548155119,296.2752680023886,0.0
0.008,3.6762956552233654,-2.088459115511198,10.0,0.0,2.495325056968039,4.795401633201378,56.01323450977116,296.2752680023886,0.0
0.009000000000000001,3.8419816434199907,-2.1800261300536126,10.0,0.0,2.9442509977421585,5.179538951354077,63.09261623854475,296.2752680023886,0.0
0.01,3.985768041996593,-2.2582014897212104,10.0,0.0,3.3943816956721466,5.5559954878074596,70.15192236248885,296.2752680023886,0.0
0.011,4.114978414598724,-2.3277386051567857,10.0,0.0,3.8440123065557135,5.927044163408035,77.16026063589466,296.2752680023886,0.0
0.012,4.2346233526762305,-2.390827868053934,10.0,0.0,4.292029171675312,6.294082193074407,84.02707307478464,296.2752680023886,0.0
0.013000000000000001,4.347806201617186,-2.4488474055906333,10.0,0.0,4.73769940974965,6.657964442283365,90.8541237896829,296.2752680023886,0.0
0.014,4.456761342712902,-2.502137025965092,10.0,0.0,5.180472511803275,7.019172253347747,97.8083173189251,296.2752680023886,0.0
0.015,4.562492478628292,-2.551588045198004,10.0,0.0,5.619995800669852,7.377995719971318,104.27479398989136,296.2752680023886,0.0
0.016,4.667541815134951,-2.594544922019921,10.0,0.0,6.05567985357021,7.734391053162609,110.66855257356715,296.2752680023886,0.0
0.017,4.771070245146674,-2.633534767084259,10.0,0.0,6.487294348688519,8.088377624388585,116.95746816675904,296.2752680023886,0.0
0.018000000000000002,4.874565404089894,-2.6668401408241333,10.0,0.0,6.914419744078337,8.439777804820157,123.13696185904102,296.2752680023886,0.0
0.019,4.978419610928216,-2.6944171488328474,10.0,0.0,7.336673035115889,8.788361495584766,129.18392118200677,296.2752680023886,0.0
0.02,5.0834929040971595,-2.715379116093512,10.0,0.0,7.753589412444738,9.13379262619648,134.90647258375307,296.2752680023886,0.0
0.021,5.1911513961466955,-2.7279832697519533,10.0,0.0,8.164534102331691,9.47558058028614,140.19366771500404,296.2752680023886,0.0
0.022,5.30200470635093,-2.731782938229533,10.0,0.0,8.568855040634867,9.813166928753558,145.29922713940672,296.2752680023886,0.0
0.023,5.415643266179497,-2.728081827508844,10.0,0.0,8.966057401090412,10.146035027725453,150.1307248932123,296.2752680023886,0.0
0.024,5.534067893792179,-2.7142104677044125,10.0,0.0,9.35533749692631,10.473446229406601,154.56921552696136,296.2752680023886,0.0
0.025,5.657560605353149,-2.690387758554172,10.0,0.0,9.735948918938258,10.79464436850765,158.65433860412114,296.2752680023886,0.0
0.026000000000000002,5.787594536879683,-2.6549083514318914,10.0,0.0,10.10695450496716,11.108715030547476,162.33450445747178,296.2752680023886,0.0
0.027,5.9237776792481345,-2.6091578537276385,10.0,0.0,10.467588837920918,11.414799378640947,165.6982227183428,296.2752680023886,0.0
0.028,6.066886104246112,-2.552597676668876,10.0,0.0,10.817004057889221,11.711958629894355,168.68245301555743,296.2752680023886,0.0
0.029,6.2171441616125245,-2.4855420104846404,10.0,0.0,11.154383159476353,11.999246175958923,171.40722035539102,296.2752680023886,0.0
0.03,6.375270293120835,-2.4074325471312505,10.0,0.0,11.4788316212042,12.275651583683498,174.00609458731438,296.2752680023886,0.0
0.031,6.541183846893887,-2.3189295706462003,10.0,0.0,11.789521544751903,12.540192067208448,176.51555680290272,296.2752680023886,0.0
0.032,6.714326701134465,-2.2213659093481013,10.0,0.0,12.085749551319381,12.791960916306937,179.28095401390308,296.2752680023886,0.0
0.033,6.893842160278233,-2.1164545104957613,10.0,0.0,12.366967024879187,13.03016040918892,182.07277315847588,296.2752680023886,0.0
0.034,7.077172822209379,-2.008582619674929,10.0,0.0,12.633065906369449,13.2542904819177,184.00666853246298,296.2752680023886,0.0
0.035,7.264958400018315,-1.8967654070247795,10.0,0.0,12.88374673250025,13.463794328582953,185.5131997877876,296.2752680023886,0.0
0.036000000000000004,7.456933452000413,-1.7813006833398868,10.0,0.0,13.118726913205657,13.658176473254823,186.21549239843907,296.2752680023886,0.0
0.037,7.650254579085625,-1.6666713773300867,10.0,0.0,13.338192713883487,13.837272848070485,179.473132766111,296.2752680023886,0.0
0.038,7.85731975089292,-1.5317079727212506,10.0,0.0,13.539921890528223,13.999562207844422,185.91831161885895,296.2752680023886,0.0
0.039,8.060944958433755,-1.40434646292502,10.0,0.0,13.725046953454381,14.145467428194014,179.11201103949514,296.2752680023886,0.0
0.04,8.267948766088011,-1.2726642766719922,10.0,0.0,13.893038606733015,14.274560466034712,183.641231204356,296.2752680023886,0.0
0.041,8.46968823916643,-1.1505132981877804,10.0,0.0,14.045020612697114,14.387422061457107,184.39271934478043,296.2752680023886,0.0
0.042,8.664146783687471,-1.0403668898072702,10.0,0.0,14.18219598247004,14.484822652767152,184.8196630645632,296.2752680023886,0.0
0.043000000000000003,8.719501555489252,-1.153163758140992,10.0,0.0,14.328902993997186,14.582056282470496,194.62968944470774,296.2752680023886,0.0
0.044,8.75379673587303,-1.28021806094804,10.0,0.0,14.483510671967387,14.681018328232023,193.45850165492774,296.2752680023886,0.0
0.045,8.759739526433815,-1.4376559690358897,10.0,0.0,14.648601413578326,14.78523418205657,203.52557215569175,296.2752680023886,0.0
0.046,8.769600416873452,-1.573621231378013,10.0,0.0,14.820986466187371,14.894512254617005,208.4768597606728,296.2752680023886,0.0
0.047,8.744546166256544,-1.7590474983118631,10.0,0.0,15.00609805753086,15.012955601654555,209.50724377852902,296.2752680023886,0.0
0.048,8.73167724282473,-1.9135114944643496,10.0,0.0,15.19967960135119,15.13923081219403,217.53050849615886,296.2752680023886,0.0
0.049,8.712178698198365,-2.0698556235072125,10.0,0.0,15.402183726076624,15.274252806736177,225.43341039482104,296.2752680023886,0.0
0.05,8.674143530390667,-2.2501003961276975,10.0,0.0,15.61620312148155,15.420011897309223,232.1507848304454,296.2752680023886,0.0
0.051000000000000004,8.629973932979865,-2.432166515479705,10.0,0.0,15.84162131180581,15.577075322402578,237.94455102086698,296.2752680023886,0.0
0.052000000000000005,8.57689147244842,-2.6199484137091096,10.0,0.0,16.07903937321869,15.746371598703373,242.70400874722858,296.2752680023886,0.0
0.053,8.514390030612482,-2.8135544759304283,10.0,0.0,16.329064103982418,15.92882438751202,248.4108843386399,296.2752680023886,0.0
0.054,8.439958912522822,-3.016615346519231,10.0,0.0,16.592732275693184,16.125596779087672,255.98946328399998,296.2752680023886,0.0
0.055,8.357831020702895,-3.22068414682187,10.0,0.0,16.870127828717845,16.33734850559613,265.18100317364576,296.2752680023886,0.0
0.056,8.273311316787158,-3.4153168766378315,10.0,0.0,17.160327911367617,16.564140503268746,274.35531459544546,296.2752680023886,0.0
0.057,8.189969031807077,-3.5935198951836727,10.0,0.0,17.461843190261554,16.805595763747725,282.2020509629127,296.2752680023886,0.0
0.058,8.106934496004484,-3.75685921633941,10.0,0.0,17.773537762455668,17.061357402156684,288.8471051312053,296.2752680023886,0.0
0.059000000000000004,8.02461380485447,-3.905418424041649,9.841373119834989,0.0,18.094347160906956,17.31348830779448,296.73240482645014,296.2752680023886,0.0
0.06,7.9266736043864725,-4.034911540504488,5.894151903971953,0.0,18.421047360810796,17.149829212910333,300.4786285573054,296.2752680023886,0.0
0.061,7.4902490274944,-3.897466283590424,3.9790064329951544,0.0,18.682297721810645,16.911039559309604,297.8145107102549,296.2752680023886,0.0
0.062,6.924130533090119,-3.681351550621086,5.2956729294417295,0.0,18.871145913292953,16.944147465103377,304.162996157983,296.2752680023886,0.0
0.063,6.607621675994713,-3.5663864512452617,2.042552924021745,0.0,19.033935062604762,16.65097432324179,302.78162981384236,296.2752680023886,0.0
0.064,6.145263376064748,-3.2418089566033217,2.6681724779775298,0.0,19.116574109382377,16.552441085908228,296.2063006070839,296.2752680023886,0.0
0.065,5.833542726770425,-3.0176664326975398,5.956526755309804,0.0,19.159686025065664,16.857153540375844,301.5322403368843,296.2752680023886,0.0
0.066,5.951181972148677,-2.9882143638266734,3.240987167064656,0.0,19.22795969229064,16.788055520000192,301.7898725962136,296.2752680023886,0.0
0.067,5.909870190520402,-2.743335119431649,3.0570249914617342,0.0,19.255853994560802,16.745334913383616,292.28246201320303,296.2752680023886,0.0
0.068,5.86083633326854,-2.5043523130268417,7.850658342858889,0.0,19.252847489681717,17.24379569454686,291.0375157673833,296.2752680023886,0.0
0.069,6.296802436400997,-2.5319950262289517,8.525508988118808,0.0,19.305418239923146,17.6699603746534,291.3654877339581,296.2752680023886,0.0
0.07,6.807135053373781,-2.539788783942324,8.41062080751571,0.0,19.395929269367542,17.987602528618815,290.4240694671639,296.2752680023886,0.0
0.07100000000000001,7.2516981671455865,-2.463575277049977,8.93984192626505,0.0,19.50069198792874,18.298096158655408,287.33671544556563,296.2752680023886,0.0
0.07200000000000001,7.690866692385485,-2.3465798706814045,10.0,0.0,19.613920438005856,18.655478967829143,282.9613772674082,296.2752680023886,0.0
0.073,8.190710840149634,-2.226429800342446,10.0,0.0,19.739517770319043,18.927253589354205,278.67627589260184,296.2752680023886,0.0
0.074,8.65625129427271,-2.0487757254343255,10.0,0.0,19.86139238401691,19.138199473482192,279.5334249736541,296.2752680023886,0.0
0.075,9.080231184374409,-1.8360375781096463,10.0,0.0,19.970549469301158,19.298255847197197,278.92982649002835,296.2752680023886,0.0
0.076,9.454332675515404,-1.6341652407651939,10.0,0.0,20.064717907793835,19.41631092694465,267.39895144846076,296.2752680023886,0.0
0.077,9.820456679086602,-1.4008700939728713,10.0,0.0,20.137631267638284,19.4954447170852,268.7726393070858,296.2752680023886,0.0
0.078,10.188372251791105,-1.1354601243721851,10.0,0.0,20.18430452532418,19.537146991234348,257.1365337649448,296.2752680023886,0.0
0.079,10.520582354203501,-0.9106466515004563,10.0,0.0,20.208405302336526,19.546482408198855,260.9421839247373,296.2752680023886,0.0
0.08,10.821949701454734,-0.7258338259464614,10.0,0.0,20.21294826726186,19.527466053994633,263.14940180363385,296.2752680023886,0.0
0.081,10.899192813071839,-0.8806850719913046,10.0,0.0,20.234017065594717,19.505322562898,267.5120814227123,296.2752680023886,0.0
0.082,10.847119034526546,-1.1894375742380006,10.0,0.0,20.283178897771318,19.494000847500477,273.94645081304344,296.2752680023886,0.0
0.083,10.786021625929141,-1.4597888592835075,10.0,0.0,20.352943491523035,19.494927464020616,284.7804266312613,296.2752680023886,0.0
0.084,10.667361845332461,-1.7863377938568679,10.0,0.0,20.449041157504215,19.51517948004358,287.5419827005249,296.2752680023886,0.0
0.085,10.536540212979006,-2.100283701308391,10.0,0.0,20.568822818963504,19.55621984281528,292.58504650286295,296.2752680023886,0.0
0.08600000000000001,10.394680252447959,-2.4035814777922386,8.82344403997224,0.0,20.710953646892747,19.490009559187563,299.8293411635658,296.2752680023886,0.0
0.08700000000000001,10.124640585361563,-2.6476714600777305,5.165755978009043,0.0,20.856067283952854,19.08233902327406,306.36469474752,296.2752680023886,0.0
0.088,9.494073246696985,-2.730500205507199,1.7971849185806343,0.0,20.95257276589,18.462642979322666,313.8641481301957,296.2752680023886,0.0
0.089,8.608928832013337,-2.6512580515889623,-2.128430574035292,0.0,20.967913170852967,17.60749530659521,313.3280296661606,296.2752680023886,0.0
0.09,7.485532811579307,-2.4238431929840925,-2.030898958655463,0.0,20.871981555139563,17.004103192355654,311.67573087905424,296.2752680023886,0.0
0.091,6.569823282978054,-2.285584034361932,-1.358754193868939,0.0,20.712369530711143,16.613911823883214,310.52206364003194,296.2752680023886,0.0
0.092,5.928311345463945,-2.2566186482956434,-0.9243885307342232,0.0,20.52789597099725,16.34924638295268,309.4279733126376,296.2752680023886,0.0
0.093,5.486648460291747,-2.2864100232195046,-0.5088704201395506,0.0,20.338969928263978,16.176131263671678,308.75552671990096,296.2752680023886,0.0
0.094,5.183420479461652,-2.3479919389193347,-0.297449710946343,0.0,20.15810107485368,16.04947459799034,308.6311435970592,296.2752680023886,0.0
0.095,4.964482224208467,-2.4020131040528625,-0.3588169054721595,0.0,19.98797994922397,15.929583043315887,306.5245227766287,296.2752680023886,0.0
0.096,4.787749586483573,-2.41110946691854,0.5920009570006712,0.0,19.82334216895367,15.927123375960377,303.6453686812016,296.2752680023886,0.0
0.097,4.730729033086924,-2.439728843363735,1.957876997926097,0.0,19.67797936775517,16.05368901768685,303.1294177110556,296.2752680023886,0.0
0.098,4.813328472714858,-2.5154751604839145,2.1473109859124158,0.0,19.567855311967932,16.15058464949702,305.0987905390985,296.2752680023886,0.0
0.099,4.935098381966737,-2.506028880696885,1.074389346523878,0.0,19.476636670992658,16.09429389671342,296.84509600018424,296.2752680023886,0.0
0.1,4.932840787733266,-2.397830354052881,5.195538336003052,0.0,19.377103443703582,16.50003199480545,296.4035355187589,296.2752680023886,0.0
0.101,5.2927268141523305,-2.5014475936081095,5.4150359015520335,0.0,19.340577230570133,16.79856616382653,301.707278686792,296.2752680023886,0.0
0.10200000000000001,5.679462352267355,-2.514474084022096,2.7088442106914385,0.0,19.337953797202125,16.724776184053546,295.3447210711317,296.2752680023886,0.0
0.10300000000000001,5.770160256833572,-2.2915477366559065,5.899428487834162,0.0,19.303561546079198,17.03001963219423,289.31819427323296,296.2752680023886,0.0
0.10400000000000001,6.12232202361856,-2.2167526146261225,8.982262624075082,0.0,19.297134664933015,17.57067460732294,284.1794198579143,296.2752680023886,0.0
0.105,6.742978206961408,-2.281861182814025,10.0,0.0,19.353325863135286,18.072993604313623,284.03423052002086,296.2752680023886,0.0
0.106,7.403146070019852,-2.3168825034089435,10.0,0.0,19.457331100799962,18.454110544563218,281.8522081899473,296.2752680023886,0.0
0.107,7.974104318040179,-2.256725359604813,10.0,0.0,19.582080009698732,18.751312585902678,279.6135930901895,296.2752680023886,0.0
0.108,8.467329940240193,-2.1139751405550284,10.0,0.0,19.708973279184125,18.98272407803626,280.21000723331383,296.2752680023886,0.0
0.109,8.898676330325138,-1.9276752326764832,10.0,0.0,19.827252883258204,19.16116790121768,279.7736725156335,296.2752680023886,0.0
0.11,9.28199772345436,-1.7293533015225302,10.0,0.0,19.931596495894862,19.295743413145004,269.28426172602605,296.2752680023886,0.0
0.111,9.642862724173515,-1.5135775128490634,10.0,0.0,20.017211181018048,19.391433798995443,267.08299519769275,296.2752680023886,0.0
0.112,10.020056439661678,-1.2371637332489267,10.0,0.0,20.075585678344684,19.448233956076656,260.28397226732477,296.2752680023886,0.0
0.113,10.344487888190388,-1.0274724823625885,10.0,0.0,20.113500841845273,19.473276024999137,258.7187019124722,296.2752680023886,0.0
0.114,10.693043583073926,-0.7639555760422212,10.0,0.0,20.12323874870168,19.464508591427524,256.8716263595411,296.2752680023886,0.0
0.115,10.8549850202534,-0.7979163035585644,10.0,0.0,20.13749697060528,19.4432636907578,267.6330489745296,296.2752680023886,0.0
0.116,10.840299823980082,-1.0670577750336587,10.0,0.0,20.17747083483865,19.42880388830728,268.37299282891234,296.2752680023886,0.0
0.117,10.790032252037054,-1.3394666098775483,10.0,0.0,20.23927488952171,19.425170033476135,281.0944140065749,296.2752680023886,0.0
0.11800000000000001,10.6948781318296,-1.642320610173826,10.0,0.0,20.325125004937497,19.438044247099803,284.2813014208422,296.2752680023886,0.0
0.11900000000000001,10.565264603370744,-1.9687368380918384,10.0,0.0,20.436554775242094,19.47152199783109,288.5507025100147,296.2752680023886,0.0
0.12,10.43608247333872,-2.263410425142144,10.0,0.0,20.569339275885714,19.52570884953864,295.9057823146198,296.2752680023886,0.0
0.121,10.290269978129515,-2.5590678327727945,6.873468247149597,0.0,20.723839590604594,19.25858452649894,302.45996725272676,296.2752680023886,0.0
0.122,9.82654448658435,-2.7040455317525574,3.5345287855927294,0.0,20.849168414359077,18.747156323110225,309.41105968294585,296.2752680023886,0.0
0.123,9.065879508036259,-2.6964735660244243,-0.07237534632238862,0.0,20.908538842179354,18.015069655265577,312.34760096175717,296.2752680023886,0.0
0.124,8.055583498870615,-2.5546488754288985,-1.7013693153217346,0.0,20.87323856412491,17.32253431293938,311.7797894266895,296.2752680023886,0.0
0.125,7.061112361620364,-2.3937561347231653,-1.572508762030905,0.0,20.755934825071616,16.825475942598217,310.8787357949508,296.2752680023886,0.0
0.126,6.283953402471347,-2.310239747802007,-1.2680166240871742,0.0,20.593077747735265,16.47414133916064,309.8229499447496,296.2752680023886,0.0
0.127,5.717511259672498,-2.2949320591147644,-0.8756005184101969,0.0,20.410524235902407,16.23631238469459,308.8069789550673,296.2752680023886,0.0
0.128,5.319993505650208,-2.3253292908809557,-0.4929321330958185,0.0,20.225939952187378,16.080242867334135,308.54293602038206,296.2752680023886,0.0
0.129,5.046993531399825,-2.3749949787973623,-0.48358734593314257,0.0,20.049366398460954,15.94457793570029,306.7737946940254,296.2752680023886,0.0
0.13,4.837388545576311,-2.3958458439347092,0.2959980503288122,0.0,19.87868064522974,15.910809636272463,304.34011597422887,296.2752680023886,0.0
0.131,4.743221551732845,-2.424373549218276,1.4321889305086835,0.0,19.72461617630867,15.988797053786008,302.7979677156387,296.2752680023886,0.0
0.132,4.773380458498896,-2.4889576378350733,2.1380360626712545,0.0,19.60057586872608,16.10560140870948,306.85105506931046,296.2752680023886,0.0
0.133,4.892141119021035,-2.509844213829271,0.005734515166165188,0.0,19.502271709867294,15.943947572245373,297.7830793392494,296.2752680023886,0.0
0.134,4.794155794500779,-2.372626934984699,4.524644266828082,0.0,19.382329816815126,16.31899778400212,296.66234103334233,296.2752680023886,0.0
0.135,5.106503403093949,-2.4667486857479144,5.0811426894720855,0.0,19.323612699616245,16.625236424061743,301.7655616143534,296.2752680023886,0.0
0.136,5.4879774544308075,-2.4980566263299155,2.4746294628469157,0.0,19.30389381409961,16.563859379679183,294.9533173647923,296.2752680023886,0.0
0.137,5.583512345786407,-2.302755829343864,5.893971094003403,0.0,19.258212945622095,16.902146765340937,287.8981325672665,296.2752680023886,0.0
0.138,5.958201831263089,-2.2634371696567053,9.505334847117544,0.0,19.24855685796278,17.524833427630867,286.8688853897088,296.2752680023886,0.0
0.139,6.641387155374219,-2.3874167271980173,10.0,0.0,19.3161659832248,18.03118185341435,285.9994524920089,296.2752680023886,0.0
0.14,7.3039136654357435,-2.4399974530337225,10.0,0.0,19.43219312280548,18.4226636347512,283.14653349640207,296.2752680023886,0.0
0.14100000000000001,7.864895912696676,-2.391153455476217,10.0,0.0,19.5698670795721,18.73151716981436,281.882988254878,296.2752680023886,0.0
0.14200000000000002,8.351253289011437,-2.2487447267611733,10.0,0.0,19.709482473985286,18.975363258125842,280.24233287027994,296.2752680023886,0.0
0.14300000000000002,8.781953280764613,-2.05257717702603,10.0,0.0,19.839366594604602,19.166272851717792,280.94758480679116,296.2752680023886,0.0
0.14400000000000002,9.171392353648042,-1.8349091139800198,10.0,0.0,19.953371451083463,19.312548599912837,276.75967304734917,296.2752680023886,0.0
0.145,9.522090945505216,-1.6290090151798582,10.0,0.0,20.050131066496384,19.420914804560805,266.15083032004884,296.2752680023886,0.0
