timestamp,iq,id,iq_ref,id_ref,vq,vd,omega,omega_ref,r
0.0,0.0,0.0,0.0,0.0,0.0,0.0,0.0,295.4553338658249,0.0
0.001,0.0,0.0,10.0,0.0,0.0,1.0999999999999999,4.191002909630096,295.4553338658249,0.0
0.002,0.44304193231185357,-0.24986890681389246,10.0,0.0,0.13748557974952821,1.9412653874456962,8.46449204197533,295.4553338658249,0.0
0.003,0.8841479706824686,-0.49721869871760405,10.0,0.0,0.37005892830994247,2.6680615492241255,12.94473487501927,295.4553338658249,0.0
0.004,1.2564954563840227,-0.7047041537325432,10.0,0.0,0.6724044603247644,3.308888266637289,17.54272868537011,295.4553338658249,0.0
0.005,1.557230106587991,-0.8707856778019156,10.0,0.0,1.024792223976902,3.886509528845198,22.25998543451737,295.4553338658249,0.0
0.006,1.799132816595335,-1.0028425287382274,10.0,0.0,1.4125687758469174,4.418005489598761,27.03145320617169,295.4553338658249,0.0
0.007,1.996149213307895,-1.1091483450745454,10.0,0.0,1.8250903398929197,4.915876732925661,31.852744017218363,295.4553338658249,0.0
0.008,2.1600161222519834,-1.1963116365718536,10.0,0.0,2.2546717757683528,5.389157812307748,36.612682743368744,295.4553338658249,0.0
0.009000000000000001,2.2994905906485745,-1.2696606082129025,10.0,0.0,2.6958199299599928,5.844365404904985,41.49273144580889,295.4553338658249,0.0
0.01,2.4213089196622506,-1.3325870713123988,10.0,0.0,3.144562449216727,6.286161782154124,46.370516058357644,295.4553338658249,0.0
0.011,2.5300460144201633,-1.3880560918804314,10.0,0.0,3.5980826819041902,6.717909876470788,51.25022318021963,295.4553338658249,0.0
0.012,2.629169082712056,-1.437883681429676,10.0,0.0,4.05435204539931,7.142019018060005,56.0282539120647,295.4553338658249,0.0
0.013000000000000001,2.721106497612156,-1.4834593296264018,10.0,0.0,4.511920432109988,7.560222296883715,60.69763752351369,295.4553338658249,0.0
0.014,2.8076333597858723,-1.5257057514894448,10.0,0.0,4.9697436579549334,7.973763505806018,65.42906951302596,295.4553338658249,0.0
0.015,2.8901686257477155,-1.5650216258129075,10.0,0.0,5.4270409640645685,8.38351930578652,70.07513870849121,295.4553338658249,0.0
0.016,2.9695516403465696,-1.6019896503651934,10.0,0.0,5.883257443518806,8.790122477433679,74.87597849665393,295.4553338658249,0.0
0.017,3.0467790082235195,-1.6363537795868448,10.0,0.0,6.337922966161194,9.193985799541073,79.46783821420908,295.4553338658249,0.0
0.018000000000000002,3.1221012019074528,-1.6687237566989532,10.0,0.0,6.790725324940198,9.595416174075497,83.86468652283953,295.4553338658249,0.0
0.019,3.195891457721821,-1.6992236868162762,10.0,0.0,7.241421777836528,9.994620040831643,88.39603005311969,295.4553338658249,0.0
0.02,3.268966637336414,-1.7270297022912553,10.0,0.0,7.6897226345199154,10.391672799002347,92.94415461643563,295.4553338658249,0.0
0.021,3.3415601563580735,-1.7521717522003872,10.0,0.0,8.13538624668729,10.786595831728077,97.42761714229215,295.4553338658249,0.0
0.022,3.4138041717438368,-1.7747729727680512,10.0,0.0,8.578210514673849,11.179372015895755,101.78730836168303,295.4553338658249,0.0
0.023,3.485937052060974,-1.794727497330584,10.0,0.0,9.017998959774724,11.569940831764297,106.02782821856351,295.4553338658249,0.0
0.024,3.5583192977768885,-1.8116953443689092,10.0,0.0,9.454532359880956,11.958190892330496,110.15877047503373,295.4553338658249,0.0
0.025,3.6312728096713904,-1.8253939817439784,10.0,0.0,9.887574597674059,12.343968222999454,114.16467488505853,295.4553338658249,0.0
0.026000000000000002,3.705095990401077,-1.8355838935817834,10.0,0.0,10.316874248683154,12.72708102961951,118.03776192730346,295.4553338658249,0.0
0.027,3.780102336372049,-1.8420141430136654,10.0,0.0,10.742160643572474,13.107300054428961,121.77027542943725,295.4553338658249,0.0
0.028,3.8566083830802182,-1.8444469958517111,10.0,0.0,11.163143612771673,13.484360214568207,125.35067703782312,295.4553338658249,0.0
0.029,3.9349395695584284,-1.8426508550494383,10.0,0.0,11.579512397048246,13.85796128556793,128.7625881707157,295.4553338658249,0.0
0.03,4.015443960298491,-1.8363778766985508,10.0,0.0,11.990932343786561,14.22776695677871,131.76726098581298,295.4553338658249,0.0
0.031,4.098918959452323,-1.8246547635922998,10.0,0.0,12.39696405031395,14.593356849542724,135.04525985337523,295.4553338658249,0.0
0.032,4.18459010516947,-1.8091199540470684,10.0,0.0,12.797359977546078,14.954401847645727,138.2048817506243,295.4553338658249,0.0
0.033,4.272731793459729,-1.7897130549389932,10.0,0.0,13.191841401058861,15.310543064406884,140.9988320408437,295.4553338658249,0.0
0.034,4.364646953854578,-1.764671891585728,10.0,0.0,13.579928344918706,15.661289051082678,143.35456501092116,295.4553338658249,0.0
0.035,4.461689578813841,-1.7321203001419165,10.0,0.0,13.960950929634851,16.006013596335304,146.5659427185927,295.4553338658249,0.0
0.036000000000000004,4.557488737033331,-1.702943400265082,10.0,0.0,14.33545976733264,16.344800464379727,148.78379549373287,295.4553338658249,0.0
0.037,4.6582400847422525,-1.6674323213046158,10.0,0.0,14.702781958378207,16.677034872723702,150.77868859716637,295.4553338658249,0.0
0.038,4.764471279603837,-1.6249531448138148,10.0,0.0,15.062277772529226,17.002100141380144,152.72852460572676,295.4553338658249,0.0
0.039,4.873345258854632,-1.580496165330837,10.0,0.0,15.413865056152574,17.31969463881709,154.35633536621904,295.4553338658249,0.0
0.04,4.986804963967665,-1.5312159219531338,10.0,0.0,15.757076804180562,17.629296587102736,155.8623052063745,295.4553338658249,0.0
0.041,5.104163301885192,-1.4784734756757796,10.0,0.0,16.091618705577584,17.93048469524282,157.20676695739164,295.4553338658249,0.0
0.042,5.225475405772428,-1.4224004931747267,10.0,0.0,16.417184624036565,18.22283743466019,158.28629289441218,295.4553338658249,0.0
0.043000000000000003,5.350429625078808,-1.3636776217742506,10.0,0.0,16.733530438562347,18.50597964889688,159.25741254274448,295.4553338658249,0.0
0.044,5.479335451557979,-1.301907554446907,10.0,0.0,17.04034841436722,18.779512124442835,160.46489516361615,295.4553338658249,0.0
0.045,5.611653420482264,-1.238032806686507,10.0,0.0,17.337429318565825,19.043107231697803,160.24841054404155,295.4553338658249,0.0
0.046,5.74716149611478,-1.1724281744121372,10.0,0.0,17.624583880997495,19.296468210016805,161.40341669966514,295.4553338658249,0.0
0.047,5.8856942063563364,-1.105359348759475,10.0,0.0,17.901637560518843,19.53932502937682,156.55619045917615,295.4553338658249,0.0
0.048,6.027456756615445,-1.036316662205238,10.0,0.0,18.168347546759627,19.771392981326887,160.58128194694802,295.4553338658249,0.0
0.049,6.16884443523457,-0.9713899607604186,10.0,0.0,18.425141819277943,19.992790117560517,162.17335294407914,295.4553338658249,0.0
0.05,6.308923544721927,-0.9119258239957393,10.0,0.0,18.67250459013813,20.20373214216519,164.59375316581912,295.4553338658249,0.0
0.051000000000000004,6.376092434479059,-0.9740362268297593,10.0,0.0,18.923652072052146,20.412328454617008,171.80684305054896,295.4553338658249,0.0
0.052000000000000005,6.4373013779238235,-1.0388958483374746,10.0,0.0,19.17705789135746,20.619118589133695,172.32523779199366,295.4553338658249,0.0
0.053,6.474407206594064,-1.1376499218715046,10.0,0.0,19.43601649405757,20.827100740409957,180.4069714672626,295.4553338658249,0.0
0.054,6.516580518574815,-1.2205953712112971,10.0,0.0,19.69801391030733,21.03591253079743,182.22712665814362,295.4553338658249,0.0
0.055,6.537823211526634,-1.3330939442084615,10.0,0.0,19.966238152507163,21.248127920666242,188.2956141521602,295.4553338658249,0.0
0.056,6.573346410199657,-1.4138599130655485,10.0,0.0,20.236620780318194,21.46224907084363,194.14895730125184,295.4553338658249,0.0
0.057,6.580202498189045,-1.5380888511703157,10.0,0.0,20.51423478386882,21.681597431092293,196.17567466101337,295.4553338658249,0.0
0.058,6.596812334878148,-1.638431291858382,10.0,0.0,20.795817602183877,21.905013834515238,204.13654738286255,295.4553338658249,0.0
0.059000000000000004,6.6016910339196215,-1.7517485877082217,10.0,0.0,21.083045257146335,22.133876320899724,209.92034905939008,295.4553338658249,0.0
0.06,6.599458639915667,-1.8697425110012817,10.0,0.0,21.37628255385474,22.368869674472865,215.32769763084343,295.4553338658249,0.0
0.061,6.59192339638572,-1.9885476599771232,10.0,0.0,21.67558408340402,22.610493975207778,220.79286831622167,295.4553338658249,0.0
0.062,6.579498067202254,-2.1065990964910237,10.0,0.0,21.980915496598634,22.859177432599008,226.8935276306749,295.4553338658249,0.0
0.063,6.558887235828685,-2.229109180734216,10.0,0.0,22.292877709114528,23.11566862372984,232.64907416772516,295.4553338658249,0.0
0.064,6.532598117977758,-2.351026165507737,10.0,0.0,22.61147858697457,23.380392611649043,238.205117475437,295.4553338658249,0.0
0.065,6.501341202081438,-2.470415752587894,10.0,0.0,22.936605460571602,23.653679658132404,243.78233828745766,295.4553338658249,0.0
0.066,6.464655578954176,-2.587654771260702,10.0,0.0,23.26825074764048,23.935873536712187,249.23593205196883,295.4553338658249,0.0
0.067,6.4243390728099525,-2.6993391427743365,10.0,0.0,23.606063784540222,24.227080515585463,255.3041623200577,295.4553338658249,0.0
0.068,6.3802289230266505,-2.8058046648829946,10.0,0.0,23.949810579354132,24.527397051676097,260.7424552914895,295.4553338658249,0.0
0.069,6.337452539911942,-2.898470011032799,10.0,0.0,24.298342881151104,24.836320914283863,265.5854910665161,295.4553338658249,0.0
0.07,6.296817585862067,-2.976719872778195,10.0,0.0,24.650595170359654,25.153247701924876,270.34546809483385,295.4553338658249,0.0
0.07100000000000001,6.260003402895574,-3.0391037510909684,10.0,0.0,25.005394637408397,25.47735025030846,274.83620481659705,295.4553338658249,0.0
0.07200000000000001,6.229716648512767,-3.0829369898421564,10.0,0.0,25.36132223007013,25.807485891711007,278.8299657407711,295.4553338658249,0.0
0.073,6.20881072099444,-3.105838481547414,10.0,0.0,25.71675145930601,26.142197512722653,282.2453611209981,295.4553338658249,0.0
0.074,6.200225688181019,-3.105824574290973,10.0,0.0,26.069878383004202,26.479716188891025,285.020877461392,295.4553338658249,0.0
0.075,6.206796150494119,-3.0815533179325136,10.0,0.0,26.418774782822556,26.8179870886298,287.1096089970006,295.4553338658249,0.0
0.076,6.231112909203076,-3.0324207073333462,10.0,0.0,26.76144675803063,27.154711399541682,288.4726202818269,295.4553338658249,0.0
0.077,6.27542738528161,-2.958537534287852,10.0,0.0,27.095888143880067,27.487399052101633,289.02922158704206,295.4553338658249,0.0
0.078,6.341779433605167,-2.8603037281912065,10.0,0.0,27.420087269460367,27.813406497435718,288.37647008498016,295.4553338658249,0.0
0.079,6.434218680045401,-2.734463029701383,10.0,0.0,27.731607088243145,28.12972831416924,289.7055203162853,295.4553338658249,0.0
0.08,6.54296496922419,-2.6002305751587445,10.0,0.0,28.030099943806206,28.434532231762425,289.9341124968639,295.4553338658249,0.0
0.081,6.677983495359512,-2.443840834027497,9.969052575417123,0.0,28.313363358593257,28.72153625146538,289.66281634959506,295.4553338658249,0.0
0.082,6.825228707453117,-2.286981710635323,10.0,0.0,28.581310227710084,28.997033113557755,284.44427649978996,295.4553338658249,0.0
0.083,6.990143103672896,-2.1280692533705343,10.0,0.0,28.834100317059253,29.254797370643498,278.0914862863615,295.4553338658249,0.0
0.084,7.189301211110422,-1.937306597462953,10.0,0.0,29.067993055604905,29.491805963099658,278.4811517952955,295.4553338658249,0.0
0.085,7.404213193917811,-1.7431647085614637,10.0,0.0,29.28274939832151,29.70685423313033,274.4922884431663,295.4553338658249,0.0
0.08600000000000001,7.61728905713998,-1.5741240304776543,10.0,0.0,29.48088187806931,29.900584085303215,267.0923610139711,295.4553338658249,0.0
0.08700000000000001,7.866916598811805,-1.3659128056281877,10.0,0.0,29.657361267107017,30.069425929281934,266.8993500887488,295.4553338658249,0.0
0.088,8.102455597611511,-1.1989002641450295,10.0,0.0,29.816787634324182,30.215618513315295,259.9151926351112,295.4553338658249,0.0
0.089,8.362889226708305,-1.0075421774363678,10.0,0.0,29.955511359099855,30.33684216645439,256.7476252448137,295.4553338658249,0.0
0.09,8.609848513666366,-0.852468961491748,10.0,0.0,30.07734060382504,30.435254641482715,260.57752124854477,295.4553338658249,0.0
0.091,8.81764904575418,-0.7748491414308163,10.0,0.0,30.189840723533276,30.515620327820656,262.68425074570416,295.4553338658249,0.0
0.092,8.861170234039186,-0.9516871901746091,10.0,0.0,30.319355783466925,30.59649013210515,273.3679236482072,295.4553338658249,0.0
0.093,8.87025309786713,-1.1569741080947513,10.0,0.0,30.46481949831942,30.681660558816336,277.3504185418661,295.4553338658249,0.0
0.094,8.845526640587797,-1.388661128432902,10.0,0.0,30.62768658741577,30.775671053280654,286.3960250343766,295.4553338658249,0.0
0.095,8.810239747497699,-1.607826262771002,10.0,0.0,30.80545931162274,30.88020150087529,294.89474905024025,295.4553338658249,0.0
0.096,8.734785179244934,-1.8673037309040834,8.12510960259771,0.0,31.00225867831974,30.79376536599382,299.14006970110853,295.4553338658249,0.0
0.097,8.57570839931095,-2.0543722466868433,5.965601918810735,0.0,31.188717256913655,30.53359974013786,306.5347717663931,295.4553338658249,0.0
0.098,8.294920046983178,-2.2074897626793666,2.157456507162779,0.0,31.34548565666394,29.950091567240207,310.6988801818206,295.4553338658249,0.0
0.099,7.850087883068059,-2.265111508735292,-0.07703316371093116,0.0,31.43303361605566,29.279022296435095,314.9871108243518,295.4553338658249,0.0
0.1,7.324562797910527,-2.2789791412388034,-2.4164662545618167,0.0,31.44566907454252,28.50218144309298,317.57501238605994,295.4553338658249,0.0
0.101,6.746289691920595,-2.2478937655099136,-3.931613820618227,0.0,31.375798834191265,27.719371110383396,318.5612145636148,295.4553338658249,0.0
0.10200000000000001,6.168033767307362,-2.192476340472977,-4.655773716373548,0.0,31.2288495216074,27.001174094684657,318.41589618805864,295.4553338658249,0.0
0.10300000000000001,5.635909742220377,-2.131532589604027,-4.812720151817814,0.0,31.01862580036684,26.382830423869542,317.3164593553366,295.4553338658249,0.0
0.10400000000000001,5.178086757102905,-2.074524630069172,-4.481612990351899,0.0,30.761928646128688,25.888329288239625,314.99739435330855,295.4553338658249,0.0
0.105,4.811221916601004,-2.0269141956554035,-3.5175010942127223,0.0,30.47678402556118,25.55612669031358,313.1050732517236,295.4553338658249,0.0
0.106,4.552843360455515,-1.9977235186937503,-2.7478379372792245,0.0,30.18419873713618,25.32840471119565,311.38527435967853,295.4553338658249,0.0
0.107,4.382347113459832,-1.9743128724192298,-2.047237896195237,0.0,29.895816515321307,25.179736575704993,308.8396433605772,295.4553338658249,0.0
0.108,4.28114638813877,-1.9487140268432193,-0.9082654915921005,0.0,29.618823935588225,25.144805112992774,306.3663771591669,295.4553338658249,0.0
0.109,4.257188843801089,-1.926027903759093,0.21925717617962803,0.0,29.36379798247375,25.19992863061127,303.51049740307906,295.4553338658249,0.0
0.11,4.301096732366017,-1.9039206929791677,1.5666454188510164,0.0,29.137582044477618,25.355905237987077,300.11627317749327,295.4553338658249,0.0
0.111,4.412999832975801,-1.8851503362449733,3.217148138527227,0.0,28.947741693885725,25.62987374538195,296.47577317737154,295.4553338658249,0.0
0.112,4.598621114938595,-1.8740443828606501,5.027193745472627,0.0,28.803248277787574,26.020762046535562,294.5944118357805,295.4553338658249,0.0
0.113,4.85317101656378,-1.8785578651725214,5.976483636568601,0.0,28.71290057600274,26.418289331555943,290.31047599269465,295.4553338658249,0.0
0.114,5.136349795279861,-1.8668143072032863,8.169900136842818,0.0,28.6700034466987,26.970207867372494,285.4058687539204,295.4553338658249,0.0
0.115,5.493265232916963,-1.867321227434311,10.0,0.0,28.686761080711822,27.60559274626862,281.7660252829278,295.4553338658249,0.0
0.116,5.92002728736784,-1.8508570226286096,10.0,0.0,28.763565307482306,28.11743923043166,283.3208266293591,295.4553338658249,0.0
0.117,6.309501908451937,-1.805312169805593,10.0,0.0,28.87902846822957,28.547206901080678,283.6715125904179,295.4553338658249,0.0
0.11800000000000001,6.6558138999958825,-1.73367539234337,10.0,0.0,29.018497482974396,28.911344547880546,277.14377479371075,295.4553338658249,0.0
0.11900000000000001,6.966931234051318,-1.6441584333776942,10.0,0.0,29.171302863213118,29.22225554464424,270.37558845662085,295.4553338658249,0.0
0.12,7.284674656300115,-1.490738098217058,10.0,0.0,29.323937737826327,29.48551537664863,271.28834601230534,295.4553338658249,0.0
0.121,7.570079790645671,-1.3548657710301941,10.0,0.0,29.474223355539714,29.70949558235838,264.0775145542122,295.4553338658249,0.0
0.122,7.853614889474649,-1.2016099184077769,10.0,0.0,29.616379011536125,29.897771519740747,263.06251545446105,295.4553338658249,0.0
0.123,8.136564334934722,-1.0371911960768472,10.0,0.0,29.746593194740964,30.05314634097222,255.10395241527127,295.4553338658249,0.0
0.124,8.413031044478881,-0.8771270382781786,10.0,0.0,29.863360571613924,30.178423254805757,255.81938820873714,295.4553338658249,0.0
0.125,8.678164619210326,-0.7339855519324452,10.0,0.0,29.966833980262894,30.276449188818237,260.0770145647223,295.4553338658249,0.0
0.126,8.782775335075561,-0.8461200800493831,10.0,0.0,30.08352885440455,30.36616402729649,267.04312298914596,295.4553338658249,0.0
0.127,8.801894759678262,-1.0654239638783811,10.0,0.0,30.22052780691986,30.45751983979344,273.1706080458316,295.4553338658249,0.0
0.128,8.811913350563467,-1.2635485128942596,10.0,0.0,30.3725631069868,30.552529115540885,282.4932733642688,295.4553338658249,0.0
0.129,8.769050310987728,-1.5183263125079884,10.0,0.0,30.54494011708915,30.658056113982465,286.69068484367125,295.4553338658249,0.0
0.13,8.727018762356023,-1.7398576855203578,10.0,0.0,30.732452799060635,30.77446295354385,297.2865059892113,295.4553338658249,0.0
0.131,8.665712274942305,-1.962909807977517,5.8155112548415895,0.0,30.93517531653128,30.444010013508006,303.2741175847551,295.4553338658249,0.0
0.132,8.378777161407962,-2.1275505175295253,2.7435176198803894,0.0,31.100460245077425,29.901750004443308,306.48377488489007,295.4553338658249,0.0
0.133,7.955177578563434,-2.1947432682463024,1.0284045596222624,0.0,31.2007354753458,29.316028591838464,310.75399731954064,295.4553338658249,0.0
0.134,7.473115952235136,-2.2312383005794922,-1.2596932922401836,0.0,31.235753567376356,28.613157993486332,314.0339168888533,295.4553338658249,0.0
0.135,6.935475210062948,-2.227211551213722,-3.085438907126795,0.0,31.196174897615073,27.860445090429216,315.73530307031416,295.4553338658249,0.0
0.136,6.376309016271244,-2.190736198943218,-4.138931689902118,0.0,31.081310783268105,27.137550734640627,316.1632603872239,295.4553338658249,0.0
0.137,5.8405709177181455,-2.1402367699077764,-4.559989613570971,0.0,30.900453461105776,26.493017488123304,315.62113444518764,295.4553338658249,0.0
0.138,5.362593587629307,-2.0881038997463075,-4.490584648346473,0.0,30.66799892508054,25.953917084777103,314.0726542816227,295.4553338658249,0.0
0.139,4.962731590286087,-2.041463406551952,-3.9025177707219845,0.0,30.40027067677346,25.548679621456316,311.74205892585434,295.4553338658249,0.0
0.14,4.65747797742543,-2.005420365439819,-2.900087343438095,0.0,30.115293177374603,25.291159035303128,310.1906577154471,295.4553338658249,0.0
0.14100000000000001,4.453507010200234,-1.98498516688235,-2.2717399767307063,0.0,29.831173927870122,25.109370934156505,308.13264470897366,295.4553338658249,0.0
0.14200000000000002,4.321941609586293,-1.9636840651747507,-1.3695065819254646,0.0,29.555149023999153,25.02274440233089,305.7489647584895,295.4553338658249,0.0
0.14300000000000002,4.261090802811711,-1.9416569861984214,-0.2806029156100198,0.0,29.295853989662405,25.033313037386435,303.2855800090831,295.4553338658249,0.0
0.14400000000000002,4.269833149867285,-1.9202844119082445,0.8727869976605849,0.0,29.061414609882732,25.13130899305552,300.2023795493751,295.4553338658249,0.0
0.145,4.342253837830833,-1.8991351151162235,2.3669167706790804,0.0,28.85810606674371,25.34100293887361,296.6755628893468,295.4553338658249,0.0
0.146,4.485157701776938,-1.8839524332200437,4.11812281045802,0.0,28.694639170459745,25.672092784287063,293.63145065458224,295.4553338658249,0.0
