timestamp,iq,id,iq_ref,id_ref,vq,vd,omega,omega_ref,r
0.0,0.0,0.0,0.0,0.0,0.0,0.0,0.0,361.1537486426136,0.0
0.001,0.0,0.0,10.0,0.0,0.0,1.0999999999999999,7.248495926384637,361.1537486426136,0.0
0.002,0.7607095611843511,-0.4312342663236638,10.0,0.0,0.15743576929560293,1.9063219482697207,14.718326311069166,361.1537486426136,0.0
0.003,1.5203651655476695,-0.8590256702736225,10.0,0.0,0.4225048682598764,2.571800257773909,22.50677100804577,361.1537486426136,0.0
0.004,2.138816814668728,-1.205188971993391,10.0,0.0,0.7614149374278167,3.136804520864422,30.49608872360872,361.1537486426136,0.0
0.005,2.608749150866473,-1.4657997802876634,10.0,0.0,1.148139981883186,3.633691324072138,38.566767113534084,361.1537486426136,0.0
0.006,2.9601686024976335,-1.658167930636012,10.0,0.0,1.564435590669166,4.085605135087166,46.70467110665798,361.1537486426136,0.0
0.007,3.2264930202719055,-1.8017581897604278,10.0,0.0,1.9981642666782526,4.508175634440434,54.85235289849061,361.1537486426136,0.0
0.008,3.4349677326070096,-1.911992637671823,10.0,0.0,2.4414670117007673,4.911592977280163,62.77244722506893,361.1537486426136,0.0
0.009000000000000001,3.6047877501596983,-2.00055363584069,10.0,0.0,2.8894205818244645,5.302403405530728,70.93152715413727,361.1537486426136,0.0
0.01,3.749946960870145,-2.0735389390479977,10.0,0.0,3.3388026111319644,5.684658834965982,79.02018136077025,361.1537486426136,0.0
0.011,3.878676602115095,-2.1364230354226574,10.0,0.0,3.7876593780213783,6.06091825595862,87.02880313649358,361.1537486426136,0.0
0.012,3.9965974064131022,-2.1920409309361744,10.0,0.0,4.234745537863855,6.432753419480607,94.90329487713358,361.1537486426136,0.0
0.013000000000000001,4.107396378018101,-2.2419029898962637,10.0,0.0,4.679235245604756,6.801105003801069,102.62763546203837,361.1537486426136,0.0
0.014,4.21354732469435,-2.286662114959663,10.0,0.0,5.120536024170987,7.16650178604524,110.1695206753347,361.1537486426136,0.0
0.015,4.316757955456693,-2.326466740187889,10.0,0.0,5.558177320629484,7.529197308004523,117.23556622873393,361.1537486426136,0.0
0.016,4.418148199759707,-2.361374444528157,10.0,0.0,5.9917658408632075,7.889266586848018,124.39132761136707,361.1537486426136,0.0
0.017,4.518996357811388,-2.390538678246404,10.0,0.0,6.420861425623509,8.246608394887877,131.72867966228014,361.1537486426136,0.0
0.018000000000000002,4.620520961861849,-2.4128609271958905,10.0,0.0,6.844945437759031,8.600966355734753,138.52519802361303,361.1537486426136,0.0
0.019,4.72298040223052,-2.428687849644885,10.0,0.0,7.26357458374558,8.952041629310441,144.8470164805399,361.1537486426136,0.0
0.02,4.827293203217557,-2.4372098474557014,10.0,0.0,7.676227493025742,9.299422476422327,151.29818536377448,361.1537486426136,0.0
0.021,4.934643447999642,-2.4371658146036768,10.0,0.0,8.08226313249725,9.642565130834885,157.43203285179555,361.1537486426136,0.0
0.022,5.0455347340827625,-2.4284578985312737,10.0,0.0,8.481052043023414,9.98087254473201,163.1802596256416,361.1537486426136,0.0
0.023,5.16074267600991,-2.4106047854004222,10.0,0.0,8.871916040603011,10.31366414754089,168.66965325099437,361.1537486426136,0.0
0.024,5.281109645761928,-2.383065996110834,10.0,0.0,9.254122063014984,10.64017470257339,173.77201168184024,361.1537486426136,0.0
0.025,5.407326089030796,-2.345587613584324,10.0,0.0,9.626911304503992,10.959574665281782,178.46507342611005,361.1537486426136,0.0
0.026000000000000002,5.540111833781855,-2.2978906452294723,10.0,0.0,9.98948973542117,11.270969288378307,182.75019250115147,361.1537486426136,0.0
0.027,5.679947641985906,-2.240080869594318,10.0,0.0,10.341067679919966,11.573428210801964,186.41457500522398,361.1537486426136,0.0
0.028,5.828043955652342,-2.1710151247065728,10.0,0.0,10.680714588029945,11.865906799011864,190.29966131796556,361.1537486426136,0.0
0.029,5.981300918611639,-2.0965672635453805,10.0,0.0,11.008146056871063,12.147724916422913,192.91294925978383,361.1537486426136,0.0
0.03,6.147361478770131,-2.0048845397206883,10.0,0.0,11.321675569560071,12.41737027698913,196.29842812028892,361.1537486426136,0.0
0.031,6.310971098183203,-1.9215143393788299,10.0,0.0,11.622562772237437,12.675067600233772,197.79642320925308,361.1537486426136,0.0
0.032,6.487481817797371,-1.8219427315355612,10.0,0.0,11.909011812112194,12.91930382845826,199.38347435065717,361.1537486426136,0.0
0.033,6.670564277083958,-1.7164090299835206,10.0,0.0,12.180626579729635,13.149387374522389,200.52166966826277,361.1537486426136,0.0
0.034,6.860000454040737,-1.6054227344327736,10.0,0.0,12.436935069696682,13.364616887869477,201.3863782309762,361.1537486426136,0.0
0.035,7.055480220979396,-1.4893430376794332,10.0,0.0,12.677476758314368,13.564345886284865,202.2763856178341,361.1537486426136,0.0
0.036000000000000004,7.255465112421835,-1.3703595589026856,10.0,0.0,12.90200979221392,13.748112613331212,199.18377658080138,361.1537486426136,0.0
0.037,7.453051163251024,-1.2596605464684867,10.0,0.0,13.111479138848154,13.916221354386089,201.68337467211896,361.1537486426136,0.0
0.038,7.669012441700442,-1.121507356766144,10.0,0.0,13.30272256418154,14.066686275877755,199.44304270448396,361.1537486426136,0.0
0.039,7.855142788926775,-1.03642501886277,10.0,0.0,13.481910613858405,14.202914322343192,209.55810655302304,361.1537486426136,0.0
0.04,7.952113763935026,-1.0950975294735321,10.0,0.0,13.664107462760345,14.334632865351132,211.03836173823785,361.1537486426136,0.0
0.041,8.002059589233568,-1.215503753397381,10.0,0.0,13.853914440598398,14.466874907915708,221.3092414578414,361.1537486426136,0.0
0.042,8.034794881175277,-1.3477342290971555,10.0,0.0,14.051306214996842,14.601772020147031,224.43120947459096,361.1537486426136,0.0
0.043000000000000003,8.044976675950629,-1.5028364335366486,10.0,0.0,14.258187460909921,14.742125954089193,233.15516766069226,361.1537486426136,0.0
0.044,8.058074320699191,-1.6382394553167363,10.0,0.0,14.471759285977324,14.887793696253867,242.08818586615965,361.1537486426136,0.0
0.045,8.039315770062956,-1.8161793617989361,10.0,0.0,14.696760062249695,15.04244626372628,244.61150539640352,361.1537486426136,0.0
0.046,8.016973060292447,-1.9884542973338761,10.0,0.0,14.931896861486086,15.206403764647078,254.08560743089154,361.1537486426136,0.0
0.047,7.997345630286178,-2.142667278562571,10.0,0.0,15.175156409470729,15.379414785602421,264.0248872040516,361.1537486426136,0.0
0.048,7.953986827806147,-2.3250414004550635,10.0,0.0,15.42991012834833,15.56402385323344,272.2181157788601,361.1537486426136,0.0
0.049,7.906024294980179,-2.5015271190940007,10.0,0.0,15.695239069932628,15.760489676575173,281.2130318995422,361.1537486426136,0.0
0.05,7.844238489630927,-2.68700799188316,10.0,0.0,15.972319738513097,15.97015862500132,289.37340805355615,361.1537486426136,0.0
0.051000000000000004,7.774904939112774,-2.8693449478332784,10.0,0.0,16.260861491504738,16.1935775779464,297.8255155899713,361.1537486426136,0.0
0.052000000000000005,7.697007172366819,-3.049309813546443,10.0,0.0,16.560863730160687,16.431384229733013,306.11594299078143,361.1537486426136,0.0
0.053,7.615026528276928,-3.2184975507943876,10.0,0.0,16.871457412569832,16.683649333388985,315.490716232714,361.1537486426136,0.0
0.054,7.529919819827113,-3.375441748902144,10.0,0.0,17.191790221523043,16.950289226408856,323.5470201240686,361.1537486426136,0.0
0.055,7.4483697983702735,-3.5096692481211136,10.0,0.0,17.51994932181593,17.23041784629781,330.83021839899703,361.1537486426136,0.0
0.056,7.3771865258313944,-3.6116977459738053,10.0,0.0,17.853186233840024,17.522364173991875,337.7029160121516,361.1537486426136,0.0
0.057,7.319390948787472,-3.6801983607486024,10.0,0.0,18.188808870077814,17.824085240868385,343.7422955532447,361.1537486426136,0.0
0.058,7.281821393133372,-3.709022924329415,10.0,0.0,18.523527045225624,18.132751160032527,348.6114628958333,361.1537486426136,0.0
0.059000000000000004,7.271538145355541,-3.693018537061438,10.0,0.0,18.853591266539777,18.444777766494063,352.10118769935127,361.1537486426136,0.0
0.06,7.295127866534594,-3.6289942028533537,10.0,0.0,19.17496909347846,18.755910432633385,354.08979699680737,361.1537486426136,0.0
0.061,7.35833187382034,-3.5158326995067206,9.591346842620498,0.0,19.48351488231115,19.016399223951254,354.64967236909524,361.1537486426136,0.0
0.062,7.436157064999013,-3.336661964964561,9.376449919211742,0.0,19.768677805626197,19.254212854062636,354.3175714506237,361.1537486426136,0.0
0.063,7.5449340541982695,-3.10456741589208,9.610862150367419,0.0,20.025367106568336,19.513508511255477,354.1012857642865,361.1537486426136,0.0
0.064,7.718952071520077,-2.8542247375956666,9.789529622319282,0.0,20.257100294013647,19.771798620412987,351.30669589243115,361.1537486426136,0.0
0.065,7.965778372123897,-2.573868159371151,10.0,0.0,20.46315337680845,20.023387391331426,350.5912914722896,361.1537486426136,0.0
0.066,8.24693382807912,-2.3228404571592307,10.0,0.0,20.648950546954545,20.23985905251167,344.0125945990095,361.1537486426136,0.0
0.067,8.561959375590481,-2.05810313677841,10.0,0.0,20.81120433798429,20.42142200892179,331.89695033946595,361.1537486426136,0.0
0.068,8.91749491525895,-1.7555428512874078,10.0,0.0,20.944754787351876,20.565095394905455,332.91796445506503,361.1537486426136,0.0
0.069,9.289763420853891,-1.4478101270123216,10.0,0.0,21.04849253356571,20.670362307008766,321.82321978429025,361.1537486426136,0.0
0.07,9.648930964989269,-1.1813341621530493,10.0,0.0,21.126148167476728,20.73969055772418,316.6519811717251,361.1537486426136,0.0
0.07100000000000001,10.04573522975515,-0.8685326614946851,10.0,0.0,21.17122765764436,20.76979475307626,307.6650221356167,361.1537486426136,0.0
0.07200000000000001,10.410477639017358,-0.6179717402103,10.0,0.0,21.19037593199573,20.765242855538713,321.3861376839658,361.1537486426136,0.0
0.073,10.513155656073472,-0.7902328071250957,10.0,0.0,21.228608515731683,20.755413817406502,326.06842617088904,361.1537486426136,0.0
0.074,10.511833795376111,-1.0708437376090676,10.0,0.0,21.291179528964918,20.751563126308383,340.1645543353125,361.1537486426136,0.0
0.075,10.433389197743445,-1.4163402583645006,10.0,0.0,21.38230687974327,20.762970292776014,345.65375943582,361.1537486426136,0.0
0.076,10.31952252552061,-1.7619086009718308,10.0,0.0,21.5000197645698,20.794090365642912,356.0027289791402,361.1537486426136,0.0
0.077,10.174485931871738,-2.1059531774747544,9.632406287509639,0.0,21.643462588189614,20.80824976991098,369.8334114322023,361.1537486426136,0.0
0.078,9.972924056651772,-2.4343454500839203,2.63026843308271,0.0,21.806659774096236,20.089499729589864,375.3078492804014,361.1537486426136,0.0
0.079,9.19848259926879,-2.506424732232502,-0.24849149739471876,0.0,21.886307035690333,19.295475139643205,378.16171792260394,361.1537486426136,0.0
0.08,8.21070174994224,-2.432768172909505,-1.845505511295893,0.0,21.869764097783346,18.54284527147836,379.66243984544377,361.1537486426136,0.0
0.081,7.2102995029328305,-2.316290224782611,-2.7809533847441097,0.0,21.767536458149834,17.877061409076777,379.5678856367807,361.1537486426136,0.0
0.082,6.302006678262149,-2.199004821926056,-2.9178176503542526,0.0,21.597216581406578,17.35184076671304,377.9637385388075,361.1537486426136,0.0
0.083,5.55836662393345,-2.1068775368348014,-2.2838440003295783,0.0,21.38244548076979,17.00593342279964,375.70158493110694,361.1537486426136,0.0
0.084,5.024888659712579,-2.0588250641447603,-1.2982455593642346,0.0,21.15019625666035,16.82646197074083,372.4252464237406,361.1537486426136,0.0
0.085,4.700696011346016,-2.05157010785669,0.22720871650766838,0.0,20.92290728929118,16.829983139091333,371.2328173824923,361.1537486426136,0.0
0.08600000000000001,4.590650689701983,-2.085828592387842,0.7226325497330119,0.0,20.722540318355293,16.85852843166311,368.72433833201643,361.1537486426136,0.0
0.08700000000000001,4.580013723782841,-2.1042320789469566,1.9011661780769327,0.0,20.54674637244636,16.988936571704368,365.8143570955038,361.1537486426136,0.0
0.088,4.686351724595992,-2.116247764337638,3.3095507118043486,0.0,20.402710325659832,17.220057915828548,362.50490746822396,361.1537486426136,0.0
0.089,4.912537558606542,-2.127802377019548,4.950763937188162,0.0,20.297340868505483,17.55629606858357,359.41842201342666,361.1537486426136,0.0
0.09,5.260431832329327,-2.1446499565631605,6.5113599308786805,0.0,20.237869859965038,17.967620375630375,359.0802988119783,361.1537486426136,0.0
0.091,5.705209950568435,-2.1639709551816435,6.70115602990921,0.0,20.227435217035925,18.291690111805835,351.78665036020783,361.1537486426136,0.0
0.092,6.138153064743569,-2.1119656119866397,10.0,0.0,20.244537214279628,18.900108324413644,345.73542253198735,361.1537486426136,0.0
0.093,6.774853163205492,-2.118013220170492,10.0,0.0,20.321956123391917,19.350698896095075,341.3198105126057,361.1537486426136,0.0
0.094,7.3904906210982215,-2.040116294074083,10.0,0.0,20.428063060808675,19.702619182136008,342.1997499551561,361.1537486426136,0.0
0.095,7.926664676903506,-1.9173068965500555,10.0,0.0,20.546021268621175,19.977135361754872,338.3711405972599,361.1537486426136,0.0
0.096,8.403692732158873,-1.747750145683388,10.0,0.0,20.662212124994213,20.188884398673054,327.7110956382932,361.1537486426136,0.0
0.097,8.857926245986459,-1.516354919581246,10.0,0.0,20.7642008920592,20.345882211568252,324.71935944710856,361.1537486426136,0.0
0.098,9.29153983863121,-1.2554148482680771,10.0,0.0,20.845301108123795,20.45422395982778,314.38776490621444,361.1537486426136,0.0
0.099,9.688841240068523,-1.0172774511542166,10.0,0.0,20.905539764438466,20.52047453663616,310.1444466015591,361.1537486426136,0.0
0.1,10.100191072406224,-0.7343731564597635,10.0,0.0,20.937641514357267,20.54484845385239,310.2181066870674,361.1537486426136,0.0
0.101,10.369409821765982,-0.6743594488645099,10.0,0.0,20.965198016117277,20.544494590232677,319.16105242777206,361.1537486426136,0.0
0.10200000000000001,10.436298905136464,-0.8919122386646814,10.0,0.0,21.01449442529329,20.54226615147379,328.3140450938774,361.1537486426136,0.0
0.10300000000000001,10.390273817276519,-1.2285596637405791,10.0,0.0,21.09349403853615,20.550921848006684,335.6726870371888,361.1537486426136,0.0
0.10400000000000001,10.31519091388346,-1.5482885598136682,10.0,0.0,21.197262964425306,20.574410804705217,350.8476457324426,361.1537486426136,0.0
0.105,10.190763480365671,-1.8927953084845934,10.0,0.0,21.327702346788463,20.618863946975836,358.4529790840532,361.1537486426136,0.0
0.106,10.026781524040556,-2.2541658713033264,8.035805046231449,0.0,21.485848799565723,20.472648009201755,366.3609909551068,361.1537486426136,0.0
0.107,9.697193089277086,-2.5171349385292077,4.029726687579722,0.0,21.638871905054508,19.97045654882953,374.3174930989194,361.1537486426136,0.0
0.108,9.039431263315821,-2.6174982871823667,-0.08016182888963463,0.0,21.734783831636772,19.190817508326404,378.408535768901,361.1537486426136,0.0
0.109,8.091881797933194,-2.543110932711343,-2.298231035143318,0.0,21.73395441903216,18.393497659941076,379.4290245306207,361.1537486426136,0.0
0.11,7.067473642090784,-2.3921598197506624,-2.9912281748832488,0.0,21.637615213968513,17.724987264313807,378.7462222442358,361.1537486426136,0.0
0.111,6.14878330482594,-2.2444964054165806,-2.8257517677070147,0.0,21.469325425401365,17.229638219470395,376.8752470953202,361.1537486426136,0.0
0.112,5.425221264175122,-2.136406733493843,-2.0474791777762853,0.0,21.25791648143842,16.921355242174165,373.86117933023354,361.1537486426136,0.0
0.113,4.928742192665782,-2.080182677479125,-0.6675196021091452,0.0,21.03171638469976,16.814149573094863,371.45329652324233,361.1537486426136,0.0
0.114,4.670708121105923,-2.0810432404826416,0.4334263225801731,0.0,20.818072633217565,16.82576787436527,369.86211906048044,361.1537486426136,0.0
0.115,4.590396505878524,-2.1053295378587573,1.1419313497824497,0.0,20.62961797409197,16.888040001065185,367.59237666281416,361.1537486426136,0.0
0.116,4.6172808871682305,-2.1163530494061704,2.212416268413583,0.0,20.467205716845385,17.032147341865812,364.2699099944504,361.1537486426136,0.0
0.117,4.749188213449397,-2.1172058919882204,3.842487989077088,0.0,20.335428996972077,17.299964800870374,360.79092043497144,361.1537486426136,0.0
0.11800000000000001,5.0131701048880615,-2.126654875251938,5.5856110508929975,0.0,20.244642554719732,17.67554672678481,358.3341935225969,361.1537486426136,0.0
0.11900000000000001,5.403816821083256,-2.1467222426576873,6.8421700582804466,0.0,20.202605869866062,18.084950756209942,356.75102837342934,361.1537486426136,0.0
0.12,5.862957274412339,-2.158554174808692,7.677779835556061,0.0,20.206814095302835,18.481963216929387,349.6197182307508,361.1537486426136,0.0
0.121,6.354031500810121,-2.12173456399578,10.0,0.0,20.24613426775694,19.037356614066184,342.47654967110685,361.1537486426136,0.0
0.122,6.978431152787429,-2.099672113925025,10.0,0.0,20.335003089279656,19.454147267636742,340.40305625099387,361.1537486426136,0.0
0.123,7.573424731932504,-1.9920557570467787,10.0,0.0,20.44504691925126,19.77894044081633,340.48315945906205,361.1537486426136,0.0
0.124,8.089702151295686,-1.8505259859501262,10.0,0.0,20.56207357229181,20.03141809933662,334.21879285742267,361.1537486426136,0.0
0.125,8.552699910705709,-1.669376943033488,10.0,0.0,20.67413422887048,20.224583677967463,323.39500238328367,361.1537486426136,0.0
0.126,9.005277901732171,-1.419245386011347,10.0,0.0,20.768602396811087,20.364485162974283,322.51151231459716,361.1537486426136,0.0
0.127,9.422819606125216,-1.1720928102868111,10.0,0.0,20.84292842869884,20.458439508701517,310.70818201760636,361.1537486426136,0.0
0.128,9.828040398214707,-0.9137913423113271,10.0,0.0,20.893275656250488,20.510032152958882,308.5700929496319,361.1537486426136,0.0
0.129,10.216742416580066,-0.6637561166317498,10.0,0.0,20.918826565327706,20.52279524144638,312.2765890067546,361.1537486426136,0.0
0.13,10.401195382564687,-0.7322435345094132,10.0,0.0,20.953132660569292,20.520434305918194,322.7774041456538,361.1537486426136,0.0
0.131,10.41003391624919,-1.0217821624422978,10.0,0.0,21.014936427627738,20.522612364421548,329.8624266828362,361.1537486426136,0.0
0.132,10.367142592445315,-1.3286023751082334,10.0,0.0,21.1016324609446,20.535559424735673,343.03714968024656,361.1537486426136,0.0
0.133,10.260706453364405,-1.680064367724154,10.0,0.0,21.216546214022287,20.56716044441093,349.63664973684075,361.1537486426136,0.0
0.134,10.127335410979676,-2.022046651808439,10.0,0.0,21.357232125082835,20.620699190697948,359.7593075156629,361.1537486426136,0.0
0.135,9.966589159683823,-2.360525569461424,7.226424648355674,0.0,21.52301617776702,20.39420774200013,372.7444587459569,361.1537486426136,0.0
0.136,9.563017663159965,-2.5965064095986374,0.6179419321752517,0.0,21.672145783551564,19.550531900281783,375.49772259010325,361.1537486426136,0.0
0.137,8.640132059932043,-2.5569784541623153,-0.9021297293728319,0.0,21.715286961086452,18.802495249095067,377.90437510782493,361.1537486426136,0.0
0.138,7.6432761697665565,-2.446579373618854,-2.272962252885786,0.0,21.667561736443766,18.098410811695498,378.4726981617677,361.1537486426136,0.0
0.139,6.6869959858338435,-2.3144500429382076,-2.730313275048715,0.0,21.54077035495595,17.518584269699765,377.48670982152424,361.1537486426136,0.0
0.14,5.868856018788415,-2.198410016665539,-2.4006487167160886,0.0,21.357232347834163,17.10533044992872,375.512022394311,361.1537486426136,0.0
0.14100000000000001,5.247128383729915,-2.1211565238148804,-1.5568877406264283,0.0,21.14338527549659,16.864773913395105,372.41614002526114,361.1537486426136,0.0
0.14200000000000002,4.838552673760038,-2.0880309241066515,-0.12157046992798737,0.0,20.923995975700027,16.81506166504313,370.66254592104303,361.1537486426136,0.0
0.14300000000000002,4.653644622306591,-2.103862494515679,0.6601386093967729,0.0,20.723647109789994,16.83627066612562,368.776344992554,361.1537486426136,0.0
0.14400000000000002,4.606625564435052,-2.122152407232418,1.5270131101418771,0.0,20.547307605273968,16.926186000648904,366.14815836204514,361.1537486426136,0.0
0.145,4.666294662616578,-2.1283443759501743,2.7911623282020006,0.0,20.39809180209366,17.112829728868746,362.8596553088662,361.1537486426136,0.0
