timestamp,iq,id,iq_ref,id_ref,vq,vd,omega,omega_ref,r
0.0,0.0,0.0,0.0,0.0,0.0,0.0,0.0,138.1589508773044,0.0
0.001,0.0,0.0,10.0,0.0,0.0,1.0999999999999999,8.209730399827832,138.1589508773044,0.0
0.002,0.3443868788259138,-0.1982159951643353,10.0,0.0,0.13180375946807693,1.952117443329149,17.26910279396241,138.1589508773044,0.0
0.003,0.7396648647300406,-0.4208605031215532,10.0,0.0,0.35814762324591176,2.692166808610997,26.643422651268715,138.1589508773044,0.0
0.004,1.1040376953638489,-0.6249536629006611,10.0,0.0,0.6560858396702771,3.3447173922317655,36.30667992338531,138.1589508773044,0.0
0.005,1.4139799068748518,-0.7976667953945427,10.0,0.0,1.0064428057908195,3.931356824173022,46.194076986925786,138.1589508773044,0.0
0.006,1.6694425945687967,-0.9390797480556252,10.0,0.0,1.3942563119612124,4.46936653600098,56.260706296982356,138.1589508773044,0.0
0.007,1.8784551114776935,-1.0538342466685557,10.0,0.0,1.8082983040181744,4.971919877280144,66.37993240360535,138.1589508773044,0.0
0.008,2.050633177134858,-1.147417922621431,10.0,0.0,2.2403380903660435,5.44877262158389,76.4014935186046,138.1589508773044,0.0
0.009000000000000001,2.1946016826612897,-1.2248971319381874,10.0,0.0,2.684446048774814,5.907029315140714,86.56150391579466,138.1589508773044,0.0
0.01,2.3176538694255457,-1.2898548562212273,10.0,0.0,3.136339438276358,6.351775079693926,96.67082262510573,138.1589508773044,0.0
0.011,2.425253835177841,-1.3452506858663358,10.0,0.0,3.5929620293011983,6.786630132376863,106.68239427851111,138.1589508773044,0.0
0.012,2.5215255029200323,-1.39317041715965,10.0,0.0,4.052125078637663,7.214148055099869,116.60148199524752,138.1589508773044,0.0
0.013000000000000001,2.6096140734468736,-1.4349019187298615,10.0,0.0,4.512234883172573,7.6361034644036945,126.3394012910405,138.1589508773044,0.0
0.014,2.6918152592059057,-1.4713445520540778,8.156562740857467,0.0,4.9721206228343355,7.850934969996725,134.2955073366078,138.1589508773044,0.0
0.015,2.7076406458336866,-1.4665831119554733,4.217144153480778,0.0,5.406612754345135,7.674451446305147,138.4625592925039,138.1589508773044,0.0
0.016,2.578816015869364,-1.3756758542680034,2.13058209138074,0.0,5.770055136391061,7.383266810338927,140.64732294216935,138.1589508773044,0.0
0.017,2.3652915823428446,-1.2337058799758287,1.0133165458993623,0.0,6.053327192040508,7.077710728180242,141.28205407189964,138.1589508773044,0.0
0.018000000000000002,2.125620212135684,-1.0758028522497791,0.6647199490882678,0.0,6.2617668006022,6.828093095995489,141.23008304273446,138.1589508773044,0.0
0.019,1.9063177600624261,-0.9289717161582229,0.6599941420165538,0.0,6.409828290396437,6.648973871101589,141.0228334236118,138.1589508773044,0.0
0.02,1.7298501103183797,-0.8054449081887715,0.7349801261148188,0.0,6.5130520712061335,6.528086850949141,140.68552997984207,138.1589508773044,0.0
0.021,1.5988243265681898,-0.7075542215069079,0.8783660569742984,0.0,6.584332064464306,6.457281663161546,140.28475830121278,138.1589508773044,0.0
0.022,1.5097047146887492,-0.6330373970172105,1.0574938220498633,0.0,6.634185595790855,6.427448087797485,139.8045635879012,138.1589508773044,0.0
0.023,1.456132640156547,-0.5781778706005662,1.281135051599676,0.0,6.670781036787407,6.433394212781954,139.21821069122245,138.1589508773044,0.0
0.024,1.432320560325008,-0.539311669140788,1.5637189017998758,0.0,6.700584859286344,6.473336688630303,138.55452282071417,138.1589508773044,0.0
0.025,1.4342139976053594,-0.5133898584815499,1.89160711761992,0.0,6.7289398099623,6.545060765482761,138.06783763949466,138.1589508773044,0.0
0.026000000000000002,1.4584268199097825,-0.49795773627079026,2.135860840607774,0.0,6.7601933579193165,6.633392481007348,137.83429896221773,138.1589508773044,0.0
0.027,1.4974814957779927,-0.4896527627868112,2.2558766983971035,0.0,6.796395496771963,6.722721700779664,137.7711807732488,138.1589508773044,0.0
0.028,1.5430901111669457,-0.4838227963869146,2.291313493922124,0.0,6.837352097147425,6.804809700455775,137.66675161371774,138.1589508773044,0.0
0.029,1.5892480472483508,-0.47688252786181873,2.348450066323523,0.0,6.881716707579191,6.884093928395658,137.5937910496999,138.1589508773044,0.0
0.03,1.6350299826021177,-0.4681044510407518,2.3905819466084917,0.0,6.928677093996702,6.959374902163962,137.50111394978433,138.1589508773044,0.0
0.031,1.679982316126532,-0.45681297529200154,2.443498865841473,0.0,6.977315257585142,7.032736422175813,137.84742345905963,138.1589508773044,0.0
0.032,1.7239396081995033,-0.4445033598870137,2.273459385386271,0.0,7.02718461387886,7.080006315710141,138.12863867005743,138.1589508773044,0.0
0.033,1.7592367494260892,-0.4281143543070892,2.1331549019598404,0.0,7.075114329436899,7.110359944533858,137.97722774791094,138.1589508773044,0.0
0.034,1.7861425324830102,-0.40797362676524307,2.2106775943270156,0.0,7.119234846347699,7.149795058301665,137.24827451715277,138.1589508773044,0.0
0.035,1.813758048336799,-0.3879398421557231,2.5842609733076216,0.0,7.160884513912574,7.22724900823462,136.66727874752223,138.1589508773044,0.0
0.036000000000000004,1.8543229127802126,-0.37525888296425647,2.88967557942071,0.0,7.20492004204929,7.326796322883161,134.7253696884965,138.1589508773044,0.0
0.037,1.911120702590368,-0.3635443448045298,3.8949659208216554,0.0,7.2533449592315336,7.522478142138812,135.8567154888755,138.1589508773044,0.0
0.038,2.0051435189516917,-0.3675368667598178,3.3523153745164467,0.0,7.317051889417794,7.623915275777893,137.07340167314777,138.1589508773044,0.0
0.039,2.0816901186951804,-0.3644064797803961,2.7548277744218748,0.0,7.384147572162051,7.653802360716172,137.23174761019297,138.1589508773044,0.0
0.04,2.125772693674014,-0.35012840490946984,2.6849268385703904,0.0,7.4459831107597,7.6816124612420955,134.53726533979605,138.1589508773044,0.0
0.041,2.158947624407822,-0.32763279347797447,4.068384829143932,0.0,7.502084369041421,7.862496077265863,134.61737674723338,138.1589508773044,0.0
0.042,2.243071086609035,-0.31804124702083014,4.063744866725978,0.0,7.569833749101377,8.00763465020892,136.44976154777234,138.1589508773044,0.0
0.043000000000000003,2.33011225947742,-0.3181115145454445,3.164644359751818,0.0,7.645425693341924,8.037446353327184,136.7479566774844,138.1589508773044,0.0
0.044,2.3797572176744093,-0.30529460941882547,3.0296567368939833,0.0,7.715029051231062,8.061387913440061,137.6754530010612,138.1589508773044,0.0
0.045,2.394657358183375,-0.3170351781092635,2.570743553868027,0.0,7.781485860949793,8.03962251355228,139.42419816251908,138.1589508773044,0.0
0.046,2.3870027986550277,-0.3203786241585165,1.6837185002869353,0.0,7.839370823086385,7.934686713514691,143.46052885161657,138.1589508773044,0.0
0.047,2.3372280770925276,-0.3191228568719451,-0.38746262400493503,0.0,7.8808021401435475,7.632471990334823,142.33413068621903,138.1589508773044,0.0
0.048,2.206747715605848,-0.2883877471447429,0.13398466060469216,0.0,7.884500548779876,7.456547976276543,141.92400211533098,138.1589508773044,0.0
0.049,2.091895511073904,-0.2619714723526425,0.3013984336684503,0.0,7.867638276016889,7.323116185562288,142.272920425693,138.1589508773044,0.0
0.05,1.9984295475743683,-0.2500070938573543,0.08579958300355228,0.0,7.838067132572211,7.185084069279012,142.64984492747087,138.1589508773044,0.0
0.051000000000000004,1.914814289261102,-0.2441530398505134,-0.14757160838704442,0.0,7.797125589687873,7.042646226512743,142.94247496469845,138.1589508773044,0.0
0.052000000000000005,1.835314731391211,-0.241494196738973,-0.34172186787477576,0.0,7.745800484613141,6.8992439958874785,143.00343701202678,138.1589508773044,0.0
0.053,1.7586405772024696,-0.24069804772864534,-0.4206477528861656,0.0,7.685206679023336,6.765948294442955,142.90893827496973,138.1589508773044,0.0
0.054,1.6876095600579668,-0.24284524687803177,-0.42089825833429284,0.0,7.6175868372445965,6.647731156178732,142.74060256695174,138.1589508773044,0.0
0.055,1.6247198899161353,-0.24889565397817537,-0.3825469212217705,0.0,7.54555133860683,6.545002453244072,142.55003000787653,138.1589508773044,0.0
0.056,1.5707928071883472,-0.25899146130700823,-0.33117143298988827,0.0,7.471496554274543,6.455913943472121,142.36481204684344,138.1589508773044,0.0
0.057,1.525218036572785,-0.272594881035479,-0.2806210641687341,0.0,7.397333815495132,6.3778495458725795,142.1973333417096,138.1589508773044,0.0
0.058,1.4865896725607561,-0.28881550950549273,-0.23726553624586355,0.0,7.324429145768127,6.308232290873521,142.0499141604382,138.1589508773044,0.0
0.059000000000000004,1.4532597217778367,-0.30668064854748023,-0.20246557844150015,0.0,7.253656176523835,6.244960745426922,141.91774535477273,138.1589508773044,0.0
0.06,1.4237156791283505,-0.3253103765923253,-0.1739691203834548,0.0,7.1855039683538235,6.186642213592507,141.79660324353557,138.1589508773044,0.0
0.061,1.3967916341072073,-0.344038580157108,-0.14977458842718527,0.0,7.120208932929051,6.1323829525849725,141.68193169561084,138.1589508773044,0.0
0.062,1.3716787890998716,-0.3624010242953343,-0.12766862264788514,0.0,7.057850061765559,6.081702997552472,141.56928218793598,138.1589508773044,0.0
0.063,1.347886044895078,-0.3801054127333667,-0.10544718191677127,0.0,6.998422940501968,6.034444523141952,141.4555796955248,138.1589508773044,0.0
0.064,1.3251787147768384,-0.3969979150342371,-0.08156222389337908,0.0,6.9418938152923975,5.99063419389235,141.33883990520488,138.1589508773044,0.0
0.065,1.3034981712947509,-0.41301946736466066,-0.05499121901242798,0.0,6.888230015412163,5.950393732485266,141.2176257307233,138.1589508773044,0.0
0.066,1.2828923645245625,-0.428168939445899,-0.02497088030583461,0.0,6.837414775784875,5.913897297749685,141.05208399577862,138.1589508773044,0.0
0.067,1.263463961299206,-0.4424876105637148,0.02886865598177124,0.0,6.789454975748907,5.88352219441659,140.8817415605522,138.1589508773044,0.0
0.068,1.246038788137169,-0.45640354156828267,0.08681196676250136,0.0,6.74464121108255,5.858946475251782,140.74586388144957,138.1589508773044,0.0
0.069,1.2308550927158803,-0.4700071246949525,0.1288816762723668,0.0,6.703208485800234,5.837891141239819,140.62868064969004,138.1589508773044,0.0
0.07,1.2172645240701514,-0.48294419229232716,0.16277599442827317,0.0,6.665100541249399,5.819448871599688,140.50477119921774,138.1589508773044,0.0
0.07100000000000001,1.2047212394559956,-0.49493276784698725,0.2012725164452882,0.0,6.630148536824672,5.804179564329901,140.26188075690163,138.1589508773044,0.0
0.07200000000000001,1.1931722195274015,-0.506054652850518,0.30168843880737084,0.0,6.598268323710283,5.798747732930282,140.11377283612762,138.1589508773044,0.0
0.073,1.184852742380642,-0.5173086284641571,0.3561941796061432,0.0,6.570159667234832,5.7964621879102864,140.17754595903537,138.1589508773044,0.0
0.074,1.178582324957839,-0.5277900325935172,0.3041216673349598,0.0,6.545673736603024,5.785927849131971,140.27303653708984,138.1589508773044,0.0
0.075,1.170334592696695,-0.5351050657464242,0.23523552170987228,0.0,6.523282804762089,5.7677861466467535,140.18822982938127,138.1589508773044,0.0
0.076,1.1587159487214496,-0.5387637491506553,0.25734608604338627,0.0,6.501646100699664,5.753536118273569,139.98836373888955,138.1589508773044,0.0
0.077,1.1469932405489969,-0.540743404281051,0.33898500267339693,0.0,6.4809292394364615,5.748479908976643,139.78479200085988,138.1589508773044,0.0
0.078,1.13833249699494,-0.5426847547437749,0.4245124604526751,0.0,6.4619721953694835,5.751284720381732,139.7190612884279,138.1589508773044,0.0
0.079,1.1336622236017961,-0.544822269944242,0.441776712557433,0.0,6.445407050017141,5.753384262031052,139.51210358230446,138.1589508773044,0.0
0.08,1.130342912166143,-0.5461714244986957,0.5317240385691486,0.0,6.430835405213943,5.763657319844433,139.30333437266972,138.1589508773044,0.0
0.081,1.1303217099011136,-0.547521043913674,0.6246648084328643,0.0,6.418883197262511,5.780739057955849,139.06836203580903,138.1589508773044,0.0
0.082,1.133669974563774,-0.5493520852053831,0.7330568652781646,0.0,6.410022302265297,5.805542598879779,138.90162227005104,138.1589508773044,0.0
0.083,1.1410010005727795,-0.551369701099085,0.8090000342296957,0.0,6.404731478195595,5.833476594013449,138.7091510848032,138.1589508773044,0.0
0.084,1.1507979769606713,-0.5530759419428111,0.8997336247786203,0.0,6.4029306463800975,5.866305013355067,138.48772724954765,138.1589508773044,0.0
0.085,1.163089781297095,-0.5544011441245594,1.0071577786839696,0.0,6.404721449511868,5.905325699891946,138.19191159053634,138.1589508773044,0.0
0.08600000000000001,1.1782463915207684,-0.5556142114216994,1.1547360010573056,0.0,6.410355426365014,5.954238451929088,137.48235344949717,138.1589508773044,0.0
0.08700000000000001,1.1970390096783046,-0.5583195832664062,1.5162810458549614,0.0,6.420602740966512,6.035201877256748,137.47187854741244,138.1589508773044,0.0
0.088,1.2269369470136198,-0.5663281924416419,1.5283892201962428,0.0,6.43877555993145,6.103709293316047,138.08368141260135,138.1589508773044,0.0
0.089,1.2574324925682971,-0.572110727659946,1.22324048224882,0.0,6.462537831388088,6.130440276110619,137.92780836568974,138.1589508773044,0.0
0.09,1.2747628166121223,-0.5685069228215053,1.3034884308207708,0.0,6.486142730094107,6.167151769304511,138.2200117771534,138.1589508773044,0.0
0.091,1.2907315531140584,-0.5609433878938181,1.1567761160904577,0.0,6.510262337455251,6.184028511168789,137.92580480246394,138.1589508773044,0.0
0.092,1.2998923118017423,-0.548676570482418,1.3062110641835845,0.0,6.532383943700733,6.218686510929674,137.65268988090418,138.1589508773044,0.0
0.093,1.312971491836737,-0.5366199226953086,1.44783113492747,0.0,6.554555626215287,6.2648276274229415,137.39985856970173,138.1589508773044,0.0
0.094,1.3320343426056545,-0.5260826789620966,1.5818377136047177,0.0,6.578085721794929,6.319930201681165,137.20375448036404,138.1589508773044,0.0
0.095,1.3569447729910304,-0.5171066276254478,1.6894417222429685,0.0,6.603891072032733,6.3798223844002635,136.97216569004001,138.1589508773044,0.0
0.096,1.3860844185922103,-0.5090830643194268,1.8171039692776247,0.0,6.632312274068369,6.446316434246386,136.751174470956,138.1589508773044,0.0
0.097,1.419372793227848,-0.5018445541483018,1.9416773428831224,0.0,6.663824760399289,6.518059323183811,136.344960516883,138.1589508773044,0.0
0.098,1.456259565755911,-0.4950769453218596,2.1629242235238344,0.0,6.6986882351216614,6.605145933763277,136.62388722988584,138.1589508773044,0.0
0.099,1.4996432388571617,-0.49027099366293514,2.038811503496597,0.0,6.738313044835528,6.666742026431773,136.36487696993993,138.1589508773044,0.0
0.1,1.5378852449222165,-0.4809629486057466,2.1862573725431966,0.0,6.7791591574051555,6.739828379664062,136.30210676659547,138.1589508773044,0.0
0.101,1.577991174438785,-0.47115596885357647,2.2362109153225136,0.0,6.822243606718882,6.80968190765917,136.16350873618205,138.1589508773044,0.0
0.10200000000000001,1.6185167920312578,-0.45958793397087366,2.3254643519404468,0.0,6.866830549861172,6.882120111746317,136.4380044860343,138.1589508773044,0.0
0.10300000000000001,1.6600625409487642,-0.44798845661893505,2.2054259409270305,0.0,6.9130423569380595,6.93351165395632,136.70304933862133,138.1589508773044,0.0
0.10400000000000001,1.6955683388899363,-0.43307744116747804,2.0874625300203413,0.0,6.958247920602119,6.969119451279053,136.71307958224884,138.1589508773044,0.0
0.105,1.7240733432635265,-0.414655109865745,2.096906121157141,0.0,7.00061636134337,7.005124961868352,136.2215356050678,138.1589508773044,0.0
0.106,1.7504295655399869,-0.39576881270280184,2.3620522624700264,0.0,7.040455239694518,7.068224270699223,135.8883978555909,138.1589508773044,0.0
0.107,1.7864404661612634,-0.37986764747719004,2.551326667425606,0.0,7.081059895890451,7.1434686227685305,135.57340637590679,138.1589508773044,0.0
0.108,1.8294553852938578,-0.3697327168011148,2.7346778522816444,0.0,7.124172690951609,7.229153359436736,133.2101614583036,138.1589508773044,0.0
0.109,1.8822339906072274,-0.3582398350679199,3.9657882052732507,0.0,7.170379812489585,7.438794031531608,134.1207922716469,138.1589508773044,0.0
0.11,1.9798403190666114,-0.36376300827484365,3.550854384658167,0.0,7.23365276695334,7.563928614695816,135.44750442812884,138.1589508773044,0.0
0.111,2.0646926205370653,-0.36630199808334907,2.9146127709089567,0.0,7.303335941434007,7.60868210580656,135.7954701820905,138.1589508773044,0.0
0.112,2.1176505182624137,-0.35460049957006146,2.7642647008802657,0.0,7.369213592843137,7.6407758479535515,134.360787185826,138.1589508773044,0.0
0.113,2.1540603790420993,-0.33521503880749626,3.519587835927292,0.0,7.429697467627303,7.757361500873703,132.47301809187323,138.1589508773044,0.0
0.114,2.2171775798003166,-0.317706583182194,4.520331710757995,0.0,7.4940594447139075,7.964286777385555,135.1060365543555,138.1589508773044,0.0
0.115,2.3165977905763775,-0.3222107668253695,3.2343516227463427,0.0,7.573348296500041,7.9951854243475085,135.55999725144466,138.1589508773044,0.0
0.116,2.371709640535955,-0.3099700979575835,3.0333608104603678,0.0,7.646406612391868,8.016605801932748,136.32202501673487,138.1589508773044,0.0
0.117,2.3883732520003353,-0.31960284165723607,2.6707161864209565,0.0,7.715483142948677,8.004027094065684,138.66026197752706,138.1589508773044,0.0
0.11800000000000001,2.3838829255467293,-0.32314028366940806,1.496584595022636,0.0,7.77668694084744,7.8747464532521265,142.1943043661142,138.1589508773044,0.0
0.11900000000000001,2.326019806848427,-0.31938149494415885,-0.31079013415903867,0.0,7.818393453695071,7.5837643918060795,140.78223452622095,138.1589508773044,0.0
0.12,2.197293463227076,-0.28624258235025135,0.3690119492984274,0.0,7.823223416615259,7.432484430872901,140.6269791869612,138.1589508773044,0.0
0.121,2.0905617393181637,-0.26315933293662813,0.4219593358317357,0.0,7.810234618840551,7.306294880202918,141.1780031907038,138.1589508773044,0.0
0.122,2.0027564663636395,-0.25252822533532227,0.11625681082643591,0.0,7.7849871564343065,7.165859915992454,141.6828423623206,138.1589508773044,0.0
0.123,1.9198044268803844,-0.24686388306082493,-0.17140168983212312,0.0,7.74770417727346,7.016604963753633,141.90165981144,138.1589508773044,0.0
0.124,1.8380768759742083,-0.2422520291958946,-0.31823750373317883,0.0,7.698773340302417,6.873432364504928,141.97493566536295,138.1589508773044,0.0
0.125,1.7601925378269834,-0.24024581537619943,-0.3930352785752398,0.0,7.640243762122091,6.740674546077508,141.89855533316492,138.1589508773044,0.0
0.126,1.6885881956320747,-0.24156102725811782,-0.3922411570348312,0.0,7.5744560953622635,6.623272517052626,141.7507502895379,138.1589508773044,0.0
0.127,1.625532372801336,-0.24704080985537147,-0.354256629343658,0.0,7.5040966163428084,6.521422378174313,141.5808746926677,138.1589508773044,0.0
0.128,1.5716624285765803,-0.25673294951629444,-0.3035380690621843,0.0,7.431599408874199,6.433215637272346,141.41611141073645,138.1589508773044,0.0
0.129,1.526261525276261,-0.2700424679240882,-0.2537280334308831,0.0,7.3588983736905,6.356007167951132,141.26900148132458,138.1589508773044,0.0
0.13,1.4878635573876722,-0.2860451125740769,-0.21127357476515085,0.0,7.287373790820471,6.28719109957533,141.14177195300672,138.1589508773044,0.0
0.131,1.4547820654193961,-0.3037455624502432,-0.17748702136324646,0.0,7.2179070824397416,6.224651140475282,141.03088261322898,138.1589508773044,0.0
0.132,1.4254782234245928,-0.3222546674565959,-0.15076166883362152,0.0,7.150992046039018,6.16691303739115,140.92976554102327,138.1589508773044,0.0
0.133,1.3987513464691337,-0.34087943174503665,-0.1279112793679551,0.0,7.086858335991621,6.113150448336442,140.83502513824277,138.1589508773044,0.0
0.134,1.3737966198856044,-0.3591603340934411,-0.1073018205870877,0.0,7.025586389658931,6.062867034908333,140.74212122624635,138.1589508773044,0.0
0.135,1.3501186511205048,-0.3768032914636847,-0.08668156807829952,0.0,6.967171212903942,6.015901930676253,140.6479457353186,138.1589508773044,0.0
0.136,1.3274792750733042,-0.39365270064627933,-0.06448377119455762,0.0,6.911578048837627,5.9722809260015435,140.55054776107448,138.1589508773044,0.0
0.137,1.305817610276241,-0.4096480324677337,-0.039700752910206916,0.0,6.858773093119007,5.93212324879732,140.44858717687424,138.1589508773044,0.0
