timestamp,iq,id,iq_ref,id_ref,vq,vd,omega,omega_ref,r
0.0,0.0,0.0,0.0,0.0,0.0,0.0,0.0,169.78199359995938,0.0
0.001,0.0,0.0,10.0,0.0,0.0,1.0999999999999999,21.25369981723824,169.78199359995938,0.0
0.002,0.4102823349673948,-0.2612436846469622,10.0,0.0,0.13873680531116586,1.9448689431535864,42.21969513716658,169.78199359995938,0.0
0.003,0.9160160712764753,-0.5219799647682304,10.0,0.0,0.37415537837344365,2.6675967848786066,59.749010116168776,169.78199359995938,0.0
0.004,1.3827523251105718,-0.7691308029139851,10.0,0.0,0.682884107696816,3.2953100491786915,79.12089627461593,169.78199359995938,0.0
0.005,1.7751711840020534,-0.9824399886828457,10.0,0.0,1.0445037925709766,3.8526261480413844,99.442571480892,169.78199359995938,0.0
0.006,2.095913634389586,-1.1503720364574737,10.0,0.0,1.4420325522415112,4.359015124551508,119.50532007111092,169.78199359995938,0.0
0.007,2.353230796908804,-1.2806775037826745,10.0,0.0,1.8631016145240302,4.8294206160044375,139.49340356894007,169.78199359995938,0.0
0.008,2.5592291105768377,-1.3820950640330234,10.0,0.0,2.2989571966778763,5.2748058216620315,159.40062879628675,169.78199359995938,0.0
0.009000000000000001,2.7268525725308512,-1.460298636022638,6.641224806713289,0.0,2.7433539584984525,5.333394196029453,171.3794933847985,169.78199359995938,0.0
0.01,2.7313269758273764,-1.4336431911588041,0.6358175146090206,0.0,3.145455746918794,4.804740409200509,170.12639466460595,169.78199359995938,0.0
0.011,2.444540955595852,-1.2377766132960712,1.2589228640588317,0.0,3.4332032086979454,4.529349047515449,170.54648498570083,169.78199359995938,0.0
0.012,2.12892473162191,-1.0524711894896717,1.0412327896539797,0.0,3.646211857290599,4.311944530932596,172.56782903339786,169.78199359995938,0.0
0.013000000000000001,1.8496693754386078,-0.8772109890229896,0.0027024114710811897,0.0,3.7987536215524305,4.053081816951648,171.24295234670367,169.78199359995938,0.0
0.014,1.5893067205509044,-0.7011677934851713,0.6505311673507295,0.0,3.8925427884854913,3.942853356199382,169.78148821037803,169.78199359995938,0.0
0.015,1.4014082783794692,-0.5755338008932975,1.3812682894093655,0.0,3.953870885420291,3.9449946561732836,170.2836152104905,169.78199359995938,0.0
0.016,1.2989696272338966,-0.5013267366969493,1.1251885732478213,0.0,4.002373865523323,3.9269677630492166,170.495628641574,169.78199359995938,0.0
0.017,1.2371622137660938,-0.442207124013795,1.0120455072899224,0.0,4.03846277155046,3.9114833461241094,169.69893890741386,169.78199359995938,0.0
0.018000000000000002,1.1982691943193464,-0.3936714389790308,1.4112209212954474,0.0,4.06464661605538,3.949857145698877,168.90216386964053,169.78199359995938,0.0
0.019,1.190273731085296,-0.3681177641166247,1.8184067374853008,0.0,4.089723908682767,4.028301206168766,169.5112264531014,169.78199359995938,0.0
0.02,1.2151659367082388,-0.3584445643342064,1.5165831172234536,0.0,4.119329362866964,4.061318036212842,169.45898590421885,169.78199359995938,0.0
0.021,1.2399125191526772,-0.3430643054080754,1.5459334686221275,0.0,4.147680858153098,4.097767301514739,168.9262401899527,169.78199359995938,0.0
0.022,1.265598069346748,-0.3277652578190318,1.8208638598552722,0.0,4.175313037795275,4.160777684639819,168.52638028545138,169.78199359995938,0.0
0.023,1.3020199329878563,-0.3190997857699431,2.0333499452510084,0.0,4.205682826336234,4.2371248633992264,168.54225645907232,169.78199359995938,0.0
0.024,1.3492430900228825,-0.315004104404097,2.03780922984941,0.0,4.240286483669283,4.302409634951214,168.57261261631643,169.78199359995938,0.0
0.025,1.397984103594722,-0.308778239846394,2.034724961063782,0.0,4.277314364136539,4.359353152746354,168.36125867784975,169.78199359995938,0.0
0.026000000000000002,1.444552759400414,-0.2992757827741557,2.1546092795182217,0.0,4.315350796704214,4.422888082523641,168.0722442949617,169.78199359995938,0.0
0.027,1.4929769701556583,-0.28965550332719897,2.316213964012219,0.0,4.354973872824404,4.49558985806474,167.87467532887686,169.78199359995938,0.0
0.028,1.5463404079271799,-0.2814031713365134,2.4340716297654663,0.0,4.397093265162184,4.570946324004352,167.74071249256346,169.78199359995938,0.0
0.029,1.6035637393061912,-0.2735674190952757,2.5214658589961263,0.0,4.441756955433515,4.645652939067645,167.59090364945507,169.78199359995938,0.0
0.03,1.6628307077760653,-0.26510404337953175,2.618281180055363,0.0,4.488572324377723,4.721183871458055,167.41031963882335,169.78199359995938,0.0
0.031,1.7238783508584195,-0.256003842313414,2.732289924982583,0.0,4.5373428613064375,4.79929348518089,167.22143644693534,169.78199359995938,0.0
0.032,1.787320310080112,-0.24665858122013196,2.8523370924568283,0.0,4.588110329204965,4.880166153113642,167.03826600579217,169.78199359995938,0.0
0.033,1.8535610133967975,-0.23724720403518562,2.9713595889700883,0.0,4.6409465182275,4.963268246212068,166.85874700029402,169.78199359995938,0.0
0.034,1.9226090969390264,-0.2277172877438879,3.0903515577158176,0.0,4.6958551206374315,5.048309758343323,168.92424845142824,169.78199359995938,0.0
0.035,1.992929026171443,-0.22040252358867707,2.0661782836340166,0.0,4.753067689125336,5.00944428828585,172.34310223094786,169.78199359995938,0.0
0.036000000000000004,1.9947763660770708,-0.22360634422790637,0.3311403075643202,0.0,4.801098021670571,4.800074169358771,173.9603034532174,169.78199359995938,0.0
0.037,1.9052634004694569,-0.1889289653678068,-0.5192434021030241,0.0,4.819541759187571,4.550117166892105,173.14791493332157,169.78199359995938,0.0
0.038,1.7602265118723808,-0.13558631134047305,-0.1467083554887365,0.0,4.805624504551798,4.391541858737654,172.1201238773414,169.78199359995938,0.0
0.039,1.6286112277722709,-0.09984644865279102,0.34380586972753013,0.0,4.773843486208786,4.310690882607757,172.000874647564,169.78199359995938,0.0
0.04,1.5371522442998167,-0.09009303386555179,0.3812416741401887,0.0,4.736439995087365,4.242704033830749,172.34304171350993,169.78199359995938,0.0
0.041,1.4715476214602883,-0.0937496341834625,0.1845476600317113,0.0,4.69647792838323,4.1620667399008635,172.42823377970996,169.78199359995938,0.0
0.042,1.4136385306916424,-0.1004137516028536,0.11548922513419413,0.0,4.653144825869472,4.085581434752067,172.26529801753233,169.78199359995938,0.0
0.043000000000000003,1.360909605599911,-0.1097803162439801,0.17212406204727726,0.0,4.607460184028541,4.024552857128591,172.17835845129272,169.78199359995938,0.0
0.044,1.3165573830261297,-0.12360761434211875,0.19163019665374748,0.0,4.5616684857537395,3.970989454753151,172.19856578458382,169.78199359995938,0.0
0.045,1.278891106100986,-0.1401420624908558,0.15736080816195464,0.0,4.516780133384252,3.917938296943639,172.1915354312197,169.78199359995938,0.0
0.046,1.2441719187957088,-0.157021768307267,0.13678056653140902,0.0,4.472766923629082,3.867224734818018,172.13966145423993,169.78199359995938,0.0
0.047,1.2112313183691437,-0.17375229585241736,0.13914087647849227,0.0,4.429755239608669,3.8209229186137956,172.09457405075958,169.78199359995938,0.0
0.048,1.180355447393994,-0.19046936152722765,0.13855877371066616,0.0,4.388086114318651,3.7779294210270242,172.05662932433782,169.78199359995938,0.0
0.049,1.1512819579311826,-0.20683601746638997,0.13478477967775992,0.0,4.3479177132955185,3.737548367485142,172.00545559292715,169.78199359995938,0.0
0.05,1.1236118520582434,-0.22253162195665127,0.13813702545341755,0.0,4.309290896955049,3.700348042922184,171.94481404180846,169.78199359995938,0.0
0.051000000000000004,1.0973919202633031,-0.2375389689555064,0.14682959659427297,0.0,4.272300581917303,3.6665352209879263,171.88121106166196,169.78199359995938,0.0
0.052000000000000005,1.0727586887707197,-0.2518500918236718,0.1576389120504964,0.0,4.237052166235414,3.6359542048783298,171.8113988496906,169.78199359995938,0.0
0.053,1.0497416186665278,-0.2653960235683047,0.17225096553886798,0.0,4.203617431773983,3.6086912269371973,171.73466469078733,169.78199359995938,0.0
0.054,1.02840957842622,-0.2781547639261716,0.19109133408222068,0.0,4.172067875086499,3.5848537470743125,171.65290524635765,169.78199359995938,0.0
0.055,1.0088616057262043,-0.2901265678474814,0.21326193983307729,0.0,4.142478837109239,3.564432379070727,171.56639663670458,169.78199359995938,0.0
0.056,0.9911636183364004,-0.30130009156703724,0.23867221429215824,0.0,4.1149159356992895,3.5474189670886433,171.47541019536672,169.78199359995938,0.0
0.057,0.9753632125993577,-0.3116698306925909,0.26723126900701555,0.0,4.08943691929874,3.533799064194994,171.38052949612035,169.78199359995938,0.0
0.058,0.9614967037933092,-0.321236672264494,0.2986862596685931,0.0,4.066092469430532,3.523535020287573,171.2807052757082,169.78199359995938,0.0
0.059000000000000004,0.9495941243586834,-0.3299896067834832,0.33361125311718487,0.0,4.044923214539775,3.5166607538065513,171.17254729716194,169.78199359995938,0.0
0.06,0.9397443500342534,-0.33787221009960744,0.3737847054182819,0.0,4.025963015509575,3.5133912676845322,171.08614087049307,169.78199359995938,0.0
0.061,0.9322083883884967,-0.3447166063748704,0.4039464460473814,0.0,4.00924594532731,3.5121992252556726,170.97220717316054,169.78199359995938,0.0
0.062,0.926580870657191,-0.3500708624017116,0.44901115898163346,0.0,3.994601902120585,3.514653848401936,170.77550940178568,169.78199359995938,0.0
0.063,0.9229544692771156,-0.3547646387613038,0.5374248866507991,0.0,3.9821304983884476,3.5250160968016617,170.64986662836316,169.78199359995938,0.0
0.064,0.9232266078682305,-0.35973446201136594,0.5915675430780247,0.0,3.972442202663406,3.538100335659681,170.52985263903173,169.78199359995938,0.0
0.065,0.9262953503642919,-0.3640984985300497,0.6440959473530143,0.0,3.9654615061812253,3.5538091786767145,170.38335980703533,169.78199359995938,0.0
0.066,0.9314986536512762,-0.367694842959443,0.7113287012804534,0.0,3.9611017211710124,3.5735777106964886,170.27640249712184,169.78199359995938,0.0
0.067,0.9389658457358296,-0.37104105959833944,0.7598632672655774,0.0,3.9594868882497822,3.5948305276359207,170.36937444092044,169.78199359995938,0.0
0.068,0.9477834808780097,-0.37382848161003013,0.7075034869566657,0.0,3.9604319745695165,3.606656390150662,170.3835154211298,169.78199359995938,0.0
0.069,0.9557668574237063,-0.36973981518604376,0.6944177786402804,0.0,3.961987510981997,3.615688349865585,169.5517154542108,169.78199359995938,0.0
0.07,0.9611214040225737,-0.3637437172750057,1.1126205435572625,0.0,3.9636720056187453,3.669596662113876,169.62286789138736,169.78199359995938,0.0
0.07100000000000001,0.9811310486424693,-0.36859018486034395,1.0786355820547073,0.0,3.971171954430146,3.7082147037443622,170.06751607525516,169.78199359995938,0.0
0.07200000000000001,1.0041041486113942,-0.3698087485038066,0.8534562653678506,0.0,3.9818692898483814,3.716964116322027,169.52574258914407,169.78199359995938,0.0
0.073,1.0181314817834517,-0.3602038028533457,1.126905518531545,0.0,3.9913031033245785,3.756926256549389,168.6551856342487,169.78199359995938,0.0
0.074,1.037587767299313,-0.3568180351438561,1.5734520756363335,0.0,4.003513364484348,3.8382212747764997,169.4951352550392,169.78199359995938,0.0
0.075,1.0755608803398486,-0.36386188229437644,1.1563458486902896,0.0,4.023440782214507,3.8582781871824636,169.50083206259666,169.78199359995938,0.0
0.076,1.1014925648636966,-0.35581699699299757,1.1563090602851887,0.0,4.0424257735575875,3.880016411498527,168.77430318482854,169.78199359995938,0.0
0.077,1.121760748099189,-0.34309475157411945,1.529650403320556,0.0,4.060367090054905,3.9405770448245687,168.22497169293007,169.78199359995938,0.0
0.078,1.152460468249285,-0.34025757327750694,1.8198863683400845,0.0,4.082385471076656,4.021894001805377,168.78852597624658,169.78199359995938,0.0
0.079,1.1976834935849157,-0.34247010624106283,1.5480439029189594,0.0,4.110605460103271,4.059808534758342,168.7644121798267,169.78199359995938,0.0
0.08,1.234295623843021,-0.3341904552118793,1.5702766153302203,0.0,4.138862016579674,4.098342532263086,168.26960929456322,169.78199359995938,0.0
0.081,1.2666242306984516,-0.3226691567931455,1.832801901015923,0.0,4.166961770843141,4.161314214514794,167.89576121965968,169.78199359995938,0.0
0.082,1.306307338902412,-0.3156132836594161,2.0385882622706943,0.0,4.197887784844912,4.236768095014966,167.89799992192613,169.78199359995938,0.0
0.083,1.3547649932706343,-0.31202504767843,2.0563088479178004,0.0,4.23294243826995,4.302727078775466,167.9342830959722,169.78199359995938,0.0
0.084,1.4043751501307127,-0.3061557944018492,2.056644365934634,0.0,4.27047778922792,4.360482789916873,167.7405921888153,169.78199359995938,0.0
0.085,1.4516871018442985,-0.29694349614433846,2.1739038336245278,0.0,4.309080515928673,4.424403438185764,167.4703095700125,169.78199359995938,0.0
0.08600000000000001,1.5006328152614856,-0.28746189929276383,2.3321619833254017,0.0,4.349264182115144,4.497117187129284,167.28456973718482,169.78199359995938,0.0
0.08700000000000001,1.5542646045361141,-0.27921012755821784,2.4500061383669793,0.0,4.391887977655032,4.5725481636686265,167.15931217628318,169.78199359995938,0.0
0.088,1.6116642262426735,-0.2713425014623848,2.5388617330545635,0.0,4.437009570141671,4.647516455478264,167.0201575876582,169.78199359995938,0.0
0.089,1.6711417290080408,-0.2628814972030118,2.6360573874900703,0.0,4.48426379835304,4.723334514309511,166.85178611370927,169.78199359995938,0.0
0.09,1.7324308799755601,-0.2538046422446222,2.7495451993270335,0.0,4.533460565623565,4.801660861257703,166.67454310383116,169.78199359995938,0.0
0.091,1.7961047984788023,-0.24447805530528904,2.8692412092273716,0.0,4.584635134848114,4.882714693683119,166.50185833235932,169.78199359995938,0.0
0.092,1.8625617217500365,-0.23507914529229534,2.98838494763929,0.0,4.637857016160713,4.966015928539953,166.3323214332601,169.78199359995938,0.0
0.093,1.9318285060286524,-0.22556563497536894,3.107650118855897,0.0,4.693134335793004,5.0512821824541305,170.31950426559766,169.78199359995938,0.0
0.094,1.9984205274740339,-0.22494014653430597,1.1086835960307306,0.0,4.751436880228138,4.905838119200983,172.41474559859833,169.78199359995938,0.0
0.095,1.9588457974534386,-0.20600650705242854,0.034735409544005336,0.0,4.787288318435846,4.687643221948093,172.49686579848262,169.78199359995938,0.0
0.096,1.847076160035867,-0.16335598910675184,-0.03347341238337043,0.0,4.79323290251829,4.509988382509848,171.91067997796787,169.78199359995938,0.0
0.097,1.7208843829309357,-0.1247269993546013,0.23833263409391603,0.0,4.7769948605553845,4.394037637862811,171.67920908820338,169.78199359995938,0.0
0.098,1.615722975287904,-0.10400499714555475,0.33509592409372324,0.0,4.748892417978589,4.306289901989079,171.8363428306733,169.78199359995938,0.0
0.099,1.5340877552755114,-0.09787369222039663,0.23598556055162945,0.0,4.714358222552428,4.220565182680345,171.95829896914265,169.78199359995938,0.0
0.1,1.4656510546396995,-0.09881210348212655,0.15324443762511808,0.0,4.674869513026048,4.13856078074319,171.88919933107115,169.78199359995938,0.0
0.101,1.4054056490227014,-0.10413075930834298,0.1667221993497463,0.0,4.6317049022868595,4.0690605406775955,171.79580479005443,169.78199359995938,0.0
0.10200000000000001,1.3540795014908011,-0.1142916557696193,0.1932813579571564,0.0,4.586971240667509,4.010024015546552,171.78579502408712,169.78199359995938,0.0
0.10300000000000001,1.3110312263247796,-0.12839598666391974,0.17824822669953444,0.0,4.542257160130747,3.954720589535205,171.7939607295397,169.78199359995938,0.0
0.10400000000000001,1.273101591607926,-0.14425049796425268,0.15404570267744688,0.0,4.498087097980622,3.9017059288086595,171.76818058036048,169.78199359995938,0.0
0.105,1.2380560657250121,-0.16058716050893046,0.14707390746304183,0.0,4.454671063739765,3.8525265672063442,171.73179069731657,169.78199359995938,0.0
0.106,1.2053935186430134,-0.17714682336389564,0.14577087801142485,0.0,4.4123368930513625,3.8070923479728314,171.70197659373284,169.78199359995938,0.0
0.107,1.1748525260263778,-0.19365640890996116,0.14147809986555626,0.0,4.371343175289967,3.764541842009311,171.6666376370096,169.78199359995938,0.0
0.108,1.145973761857411,-0.20973072367027373,0.14030113785667964,0.0,4.331796857476531,3.724931730958904,171.62046325860717,169.78199359995938,0.0
0.109,1.1185650243419083,-0.22519745462679014,0.14500363047140774,0.0,4.293784757597013,3.688583216524918,171.5688042024031,169.78199359995938,0.0
0.11,1.0926840395771793,-0.24001823713360704,0.15296505254900739,0.0,4.2574146350282325,3.6554698959977334,171.51207979642462,169.78199359995938,0.0
0.111,1.0683753468127493,-0.2541299182841982,0.16402639357359772,0.0,4.222774269765108,3.6255831749147585,171.44832311847227,169.78199359995938,0.0
0.112,1.0456788664231738,-0.2674820371744877,0.17924143736463916,0.0,4.189936885186424,3.5990376567357467,171.37853377902567,169.78199359995938,0.0
0.113,1.0246816312311953,-0.28006220683824395,0.19817070529727665,0.0,4.158978984721819,3.575875752018668,171.30356541537367,169.78199359995938,0.0
0.114,1.005465464146498,-0.2918593426709767,0.22043916896913607,0.0,4.129972567076926,3.556098292078813,171.22354799232983,169.78199359995938,0.0
0.115,0.9880906595816541,-0.3028624449089492,0.24603233656735224,0.0,4.10298141509039,3.539709566998825,171.1391806013926,169.78199359995938,0.0
0.116,0.9726069733440705,-0.31306914682969,0.27464416202162845,0.0,4.078063211983411,3.5266814257926553,171.0507773564659,169.78199359995938,0.0
0.117,0.9590465159484967,-0.3224782640545327,0.30615794691992526,0.0,4.055266950942038,3.5169814899318124,170.95691052868972,169.78199359995938,0.0
0.11800000000000001,0.9474420865445885,-0.33107441403720206,0.3413421915207058,0.0,4.034631807744562,3.5106679332704935,170.8535953591661,169.78199359995938,0.0
0.11900000000000001,0.9378974489847246,-0.338796905411456,0.3822837586904515,0.0,4.016192335752043,3.508007813735769,170.78425175250985,169.78199359995938,0.0
0.12,0.9307229908373538,-0.3454466751735172,0.40693298049307025,0.0,3.999985048765388,3.5067655017024686,170.65322357959187,169.78199359995938,0.0
0.121,0.9251940051414145,-0.35052904883738173,0.46373476715573503,0.0,3.985766822679472,3.510564840333778,170.46895762860666,169.78199359995938,0.0
0.122,0.922063862388181,-0.35528458799150675,0.5489981023618657,0.0,3.9738226386355953,3.52166239734531,170.35722967794624,169.78199359995938,0.0
0.123,0.9228244244098944,-0.36023727315775816,0.5991097169122088,0.0,3.9646798686740055,3.5350004612498562,170.2398797111746,169.78199359995938,0.0
0.124,0.9261687399292269,-0.3644843034294092,0.6532058391858699,0.0,3.9582028285772477,3.551179629985479,170.0978039926629,169.78199359995938,0.0
0.125,0.9316152736785999,-0.3680150077241004,0.7210855945146875,0.0,3.9543373165334277,3.5714533141440588,170.01965433594987,169.78199359995938,0.0
0.126,0.9393105218242064,-0.37136155249530767,0.7577838155113014,0.0,3.9532185369917334,3.5918790734802157,170.32777697408457,169.78199359995938,0.0
0.127,0.9476855730969502,-0.3741541915280289,0.5982646627026968,0.0,3.9545279361837116,3.5913919867511286,169.87734411840998,169.78199359995938,0.0
0.128,0.951561236004633,-0.3660460100199341,0.8225275853554868,0.0,3.9547378604273655,3.6170060892269236,169.1490561924342,169.78199359995938,0.0
0.129,0.960744139277021,-0.36327628032175263,1.1930009224186346,0.0,3.957264614042514,3.677617848999037,169.58052276685257,169.78199359995938,0.0
0.13,0.9852081961626438,-0.3705630772538664,0.9792823435405129,0.0,3.9664291132328744,3.702608113883534,169.87483787991744,169.78199359995938,0.0
0.131,1.0056006159580764,-0.36848332578014237,0.831196344208498,0.0,3.976874548361218,3.709865002452236,169.02022493939387,169.78199359995938,0.0
0.132,1.0174076234202865,-0.35790792621752654,1.2661205010759362,0.0,3.9858586323964467,3.7656684163027503,168.6309254635392,169.78199359995938,0.0
0.133,1.041224598345959,-0.35869658656783276,1.4722809203674734,0.0,3.999717156047363,3.8326165045579303,169.31058627936193,169.78199359995938,0.0
0.134,1.0768197136078277,-0.3623352468907822,1.1371645856620833,0.0,4.019277002190727,3.8516539424126273,169.12398444839422,169.78199359995938,0.0
0.135,1.1009642468675198,-0.3531648792056193,1.2370455926615864,0.0,4.037739480456628,3.882781747707242,168.52527075173813,169.78199359995938,0.0
