timestamp,iq,id,iq_ref,id_ref,vq,vd,omega,omega_ref,r
0.0,0.0,0.0,0.0,0.0,0.0,0.0,0.0,361.1070129977263,0.0
0.001,0.0,0.0,10.0,0.0,0.0,1.0999999999999999,5.011456831379812,361.1070129977263,0.0
0.002,0.4725982136219975,-0.2449600835308088,10.0,0.0,0.13694560918838902,1.93801419650158,10.26802524163121,361.1070129977263,0.0
0.003,1.1376122916412061,-0.6149933637698296,10.0,0.0,0.38225213709908135,2.6374959678259486,15.412151590442962,361.1070129977263,0.0
0.004,1.8655802819428338,-1.020814286916458,10.0,0.0,0.7139161580948801,3.218133876655962,20.75081578116204,361.1070129977263,0.0
0.005,2.5694301721867308,-1.4119316594164315,10.0,0.0,1.109442269617631,3.7037305886787415,26.184460361300996,361.1070129977263,0.0
0.006,3.199299296132804,-1.760889544741636,10.0,0.0,1.5484496348511574,4.118073135919888,31.727996331712593,361.1070129977263,0.0
0.007,3.7336149890366306,-2.0549294435429104,10.0,0.0,2.0138453283003344,4.482406129980315,37.13522872443767,361.1070129977263,0.0
0.008,4.168813985884281,-2.2930498877683263,10.0,0.0,2.492387601687419,4.814316661255412,42.48551678987711,361.1070129977263,0.0
0.009000000000000001,4.513629383216451,-2.4791307703043035,10.0,0.0,2.9743543935000085,5.127312663003644,47.79078891947593,361.1070129977263,0.0
0.01,4.782071767102184,-2.6214061753143465,10.0,0.0,3.453213592031907,5.431125235504206,53.02659066778289,361.1070129977263,0.0
0.011,4.990292960342126,-2.728992595945082,10.0,0.0,3.9249798801799525,5.732222563190364,58.17687714072389,361.1070129977263,0.0
0.012,5.153955888293155,-2.810684564140295,10.0,0.0,4.387589524576975,6.034466076780497,63.25400410285527,361.1070129977263,0.0
0.013000000000000001,5.286834544135733,-2.874093728851965,10.0,0.0,4.8403206443296405,6.339766180588146,68.33442736425027,361.1070129977263,0.0
0.014,5.400281223326106,-2.9251001053005,10.0,0.0,5.283285272250025,6.648659037837779,73.2561664152652,361.1070129977263,0.0
0.015,5.502439989612714,-2.9689324937264865,10.0,0.0,5.71715422206571,6.960856074654868,78.0957391531492,361.1070129977263,0.0
0.016,5.599834031764754,-3.007977452254237,10.0,0.0,6.142712602135328,7.275528545797955,82.85719052180346,361.1070129977263,0.0
0.017,5.696391137446807,-3.044306188091353,10.0,0.0,6.560788102669097,7.591642266630191,87.53328165387272,361.1070129977263,0.0
0.018000000000000002,5.79462041331849,-3.0787026859829827,10.0,0.0,6.97208775264242,7.9081125161435155,92.11945459973168,361.1070129977263,0.0
0.019,5.895843500313618,-3.1112621635023756,10.0,0.0,7.3771420401179615,8.223913458892092,96.60864604511703,361.1070129977263,0.0
0.02,6.0006081160678,-3.141565690263284,10.0,0.0,7.776278786289311,8.538127859250357,100.99234394981775,361.1070129977263,0.0
0.021,6.108997917475212,-3.168868431359866,10.0,0.0,8.169623564132367,8.849959262192659,105.26073335565735,361.1070129977263,0.0
0.022,6.220866924818895,-3.1922455379282177,10.0,0.0,8.557115458796904,9.1587203098313,109.40292825589712,361.1070129977263,0.0
0.023,6.33600383310019,-3.210699095884964,10.0,0.0,8.938530389068408,9.463808072335029,113.40722430068439,361.1070129977263,0.0
0.024,6.454235807657593,-3.2232335599632544,10.0,0.0,9.313506858032177,9.764674403497033,117.26135601170192,361.1070129977263,0.0
0.025,6.575484544543357,-3.228905912908709,10.0,0.0,9.681570927398987,10.060796707127356,120.95278611200362,361.1070129977263,0.0
0.026000000000000002,6.699786845185887,-3.2268572114708816,10.0,0.0,10.042158739504536,10.351652421629506,124.46907999941102,361.1070129977263,0.0
0.027,6.827290772481622,-3.216331037633467,10.0,0.0,10.394635949742002,10.636698936895888,127.79849856027741,361.1070129977263,0.0
0.028,6.958236762522668,-3.1966828434953127,10.0,0.0,10.73831405086554,10.915359502027819,130.93116115043523,361.1070129977263,0.0
0.029,7.092931815716712,-3.1673816460787005,10.0,0.0,11.072463748615471,11.187014824807985,133.79626439996463,361.1070129977263,0.0
0.03,7.231515924420078,-3.128346410353897,10.0,0.0,11.396363144912865,11.451022283659688,136.33523818039234,361.1070129977263,0.0
0.031,7.374307072984078,-3.079333405945165,10.0,0.0,11.709272269337976,11.706697751000958,138.70876629285002,361.1070129977263,0.0
0.032,7.522082349903164,-3.0194197790727166,10.0,0.0,12.01035765914282,11.95326921507515,140.80105946179023,361.1070129977263,0.0
0.033,7.674390403266106,-2.9497200587861485,10.0,0.0,12.298923823411801,12.190015938621677,142.64918588905726,361.1070129977263,0.0
0.034,7.8320919586906665,-2.8692199253524473,10.0,0.0,12.5741500261337,12.41612051567738,144.2582062976537,361.1070129977263,0.0
0.035,7.994544419911768,-2.7793133836257486,10.0,0.0,12.835379348033374,12.630844500119625,145.56919026521135,361.1070129977263,0.0
0.036000000000000004,8.162347302038869,-2.6793313600839808,10.0,0.0,13.081859179014977,12.833385225885838,146.67936343992997,361.1070129977263,0.0
0.037,8.33466682621427,-2.570854766342047,10.0,0.0,13.313012494398848,13.02304274333557,147.44278015327163,361.1070129977263,0.0
0.038,8.511914693068023,-2.4533624428652745,10.0,0.0,13.528176840344276,13.199075770466555,148.071858920804,361.1070129977263,0.0
0.039,8.692794675415985,-2.329009747136278,10.0,0.0,13.726924181112842,13.360897610089248,148.26399960620367,361.1070129977263,0.0
0.04,8.878063520283558,-2.196513346554096,10.0,0.0,13.90864789466007,13.507841226714575,148.48700698181435,361.1070129977263,0.0
0.041,9.064817796779465,-2.060454529869042,10.0,0.0,14.073252092685575,13.63957257106622,147.9833853039564,361.1070129977263,0.0
0.042,9.256913622463063,-1.914260491850254,10.0,0.0,14.219848249328479,13.755328202725012,148.15756265140973,361.1070129977263,0.0
0.043000000000000003,9.44333248814242,-1.7756492315898034,10.0,0.0,14.349575055224506,13.855582769914323,146.72444225631534,361.1070129977263,0.0
0.044,9.642771817659472,-1.6134650929101033,10.0,0.0,14.4599004945977,13.938710423384222,146.11580233206828,361.1070129977263,0.0
0.045,9.825580252415897,-1.4758561410156004,10.0,0.0,14.553991012058969,14.006443320916414,145.60347483560514,361.1070129977263,0.0
0.046,10.023148671986515,-1.310708864581846,10.0,0.0,14.62865565663856,14.056907538636311,143.4332862359031,361.1070129977263,0.0
0.047,10.206303118731123,-1.1652167021402375,10.0,0.0,14.686547593427946,14.091620494095988,143.84774381366748,361.1070129977263,0.0
0.048,10.393146682743174,-1.0090174601141406,10.0,0.0,14.7263946370859,14.109930100114738,140.0104429454023,361.1070129977263,0.0
0.049,10.57563313304719,-0.8543808817957945,10.0,0.0,14.74863990578518,14.112188376004095,142.65105449219385,361.1070129977263,0.0
0.05,10.733069666320318,-0.7359096083608838,10.0,0.0,14.75740100090881,14.100952197017437,142.984334861241,361.1070129977263,0.0
0.051000000000000004,10.803260852762053,-0.7561762434640862,10.0,0.0,14.767576411217114,14.085569080265955,146.08508431662827,361.1070129977263,0.0
0.052000000000000005,10.836763263067294,-0.8274122407320048,10.0,0.0,14.782829262167875,14.069758462951285,147.37340350439297,361.1070129977263,0.0
0.053,10.85869185603632,-0.9049372927490618,10.0,0.0,14.802791162041295,14.054977071339627,148.97112269289107,361.1070129977263,0.0
0.054,10.847171208039134,-1.025896958731682,10.0,0.0,14.831809045504126,14.045156566085847,151.68128003218987,361.1070129977263,0.0
0.055,10.831739169193547,-1.1408338096139072,10.0,0.0,14.868376547032506,14.040802217496775,152.9170776761098,361.1070129977263,0.0
0.056,10.790169323860509,-1.289750796332413,10.0,0.0,14.91608336357936,14.044958416517632,156.18646841191747,361.1070129977263,0.0
0.057,10.750470414678952,-1.4265137932935223,10.0,0.0,14.972989878172148,14.057420858847728,157.4618926297262,361.1070129977263,0.0
0.058,10.69206293938915,-1.58889138036729,10.0,0.0,15.041945890147177,14.080355541594152,161.03406616780694,361.1070129977263,0.0
0.059000000000000004,10.637767082545189,-1.7393260367064691,10.0,0.0,15.121223805525913,14.113280826763374,162.59506804870483,361.1070129977263,0.0
0.06,10.568979890342373,-1.9119713964225324,10.0,0.0,15.213353100889076,14.157865007527421,166.42354603444494,361.1070129977263,0.0
0.061,10.50743794689614,-2.0702226452988857,10.0,0.0,15.31640906857156,14.213285441608432,168.55366711589136,361.1070129977263,0.0
0.062,10.432060489201213,-2.2520275936380383,10.0,0.0,15.433117514722442,14.281145529961572,172.1964408183505,361.1070129977263,0.0
0.063,10.366572629860771,-2.416393970702246,10.0,0.0,15.561203377087226,14.360340344044994,175.3828578459988,361.1070129977263,0.0
0.064,10.287673314182827,-2.6045796164149277,10.0,0.0,15.70345689188162,14.45244830908771,178.4433005227263,361.1070129977263,0.0
0.065,10.218817656166458,-2.7754052611259943,10.0,0.0,15.85760481616194,14.556355958330617,182.91489525454054,361.1070129977263,0.0
0.066,10.141015983942724,-2.9619908523788308,10.0,0.0,16.025544871529217,14.673157262441716,184.99353198149666,361.1070129977263,0.0
0.067,10.065546203809362,-3.1443231026570864,10.0,0.0,16.20656174338896,14.802596100770867,190.43287392736698,361.1070129977263,0.0
0.068,9.991899398257507,-3.322659207842142,10.0,0.0,16.400214460963213,14.944539193262436,193.6879896014112,361.1070129977263,0.0
0.069,9.912532517252592,-3.509788426839019,10.0,0.0,16.607497069066998,15.0996471371173,197.83293528428635,361.1070129977263,0.0
0.07,9.84059382315096,-3.6820870341549665,10.0,0.0,16.826643765360686,15.267092134938187,202.25582740650623,361.1070129977263,0.0
0.07100000000000001,9.764908919141481,-3.8584507666382892,10.0,0.0,17.058297316307097,15.447313255106383,206.01179670352926,361.1070129977263,0.0
0.07200000000000001,9.692499716498785,-4.026272086993263,10.0,0.0,17.30150433208991,15.63988578160301,210.31782265373673,361.1070129977263,0.0
0.073,9.624493519460865,-4.183103193323475,10.0,0.0,17.555221107436868,15.844278346675992,214.21525827704104,361.1070129977263,0.0
0.074,9.558874030079304,-4.332196662702607,10.0,0.0,17.818837432324827,16.060141414637965,217.94014738574305,361.1070129977263,0.0
0.075,9.50007644555421,-4.465883594999703,10.0,0.0,18.090893059379084,16.286591347696476,221.92838114759985,361.1070129977263,0.0
0.076,9.450244664027656,-4.580583715748858,10.0,0.0,18.369668260993205,16.52249537027724,225.98632612628495,361.1070129977263,0.0
0.077,9.410044683320558,-4.675591235426947,10.0,0.0,18.65346017066108,16.766610190823855,229.43024750027058,361.1070129977263,0.0
0.078,9.380954877627053,-4.749191368342995,10.0,0.0,18.940430310840817,17.017490599101805,232.5258603932886,361.1070129977263,0.0
0.079,9.367220404185675,-4.79531156540473,10.0,0.0,19.228128698178004,17.273199874591548,235.37136019622588,361.1070129977263,0.0
0.08,9.3705586406913,-4.812454687086763,10.0,0.0,19.514052715744857,17.531603510516003,237.7758613255947,361.1070129977263,0.0
0.081,9.39332063601155,-4.798434682856509,10.0,0.0,19.795511063465316,17.79028874748454,239.7477912469339,361.1070129977263,0.0
0.082,9.438142795500893,-4.750884640483792,10.0,0.0,20.069601795491895,18.046548477937634,241.25381749193429,361.1070129977263,0.0
0.083,9.50682374717018,-4.669045678739865,10.0,0.0,20.333382641993015,18.297484625459347,242.23955901117233,361.1070129977263,0.0
0.084,9.601132955265664,-4.552340843996066,10.0,0.0,20.583859876391823,18.5400180395052,242.70414182957575,361.1070129977263,0.0
0.085,9.722198299049126,-4.401246613059707,10.0,0.0,20.818089411699752,18.770971739851106,242.62437854290602,361.1070129977263,0.0
0.08600000000000001,9.870586399793373,-4.2170254015080015,10.0,0.0,21.033237972550175,18.98714098604919,242.009591885688,361.1070129977263,0.0
0.08700000000000001,10.04624307876816,-4.001675210170656,10.0,0.0,21.22664229300377,19.18536981003272,240.89501526928225,361.1070129977263,0.0
0.088,10.248476321610495,-3.757815281696136,10.0,0.0,21.395857973591536,19.362627093740365,239.71487805143795,361.1070129977263,0.0
0.089,10.478203288161453,-3.484861207664421,10.0,0.0,21.53829146563254,19.515832583243817,236.44292272985479,361.1070129977263,0.0
0.09,10.720114665839942,-3.2080956567700722,10.0,0.0,21.654087487561725,19.643647891121915,234.30877252700694,361.1070129977263,0.0
0.091,10.998856487469848,-2.887551067140152,10.0,0.0,21.738593188735468,19.742018783802614,230.96070441763013,361.1070129977263,0.0
0.092,11.276007233405682,-2.5837263627356286,10.0,0.0,21.7942701374717,19.81130399349597,227.21303273795328,361.1070129977263,0.0
0.093,11.585595109716579,-2.2406157230892805,10.0,0.0,21.816603988986593,19.847945218158777,223.9075623025918,361.1070129977263,0.0
0.094,11.88367554659532,-1.9264591551498051,10.0,0.0,21.80924246173939,19.853462736213242,218.9957266401547,361.1070129977263,0.0
0.095,12.205058781224038,-1.5827976460319548,10.0,0.0,21.768507638698793,19.825320998297165,215.4069460031785,361.1070129977263,0.0
0.096,12.511851650874597,-1.2673261883350149,10.0,0.0,21.697766878915164,19.76538656855337,210.56271435641273,361.1070129977263,0.0
0.097,12.830416620157791,-0.9340422402447457,10.0,0.0,21.594600232422557,19.67239728788093,205.65523449226524,361.1070129977263,0.0
0.098,13.127983610800909,-0.6325657335467091,10.0,0.0,21.462621746256083,19.548843551348572,200.74662444569267,361.1070129977263,0.0
0.099,13.425296204106361,-0.32559038809889673,10.0,0.0,21.300733212120743,19.39471862449563,202.67913755462538,361.1070129977263,0.0
0.1,13.599723854912089,-0.2149671818027444,10.0,0.0,21.130522239475546,19.223603421258872,206.58287855160322,361.1070129977263,0.0
0.101,13.651273468566878,-0.2888421464454962,10.0,0.0,20.969453321944854,19.048652460087315,207.20764103549328,361.1070129977263,0.0
0.10200000000000001,13.629190359423104,-0.4582924761518764,10.0,0.0,20.824896986671355,18.878034341422193,209.51675628079522,361.1070129977263,0.0
0.10300000000000001,13.56054554471077,-0.6740081777243891,10.0,0.0,20.699768696934598,18.71735249962315,211.5595005536614,361.1070129977263,0.0
0.10400000000000001,13.452198397666779,-0.9236284526155931,10.0,0.0,20.596386125213925,18.57145775105806,213.757332400215,361.1070129977263,0.0
0.105,13.31177974833374,-1.1966247953970275,10.0,0.0,20.51628573076586,18.4441768001336,216.24081398259202,361.1070129977263,0.0
0.106,13.147224232416846,-1.483647796377473,10.0,0.0,20.46030984735018,18.338310825114313,218.99204167825695,361.1070129977263,0.0
0.107,12.964287536977613,-1.7798390349260917,10.0,0.0,20.429055761004694,18.25591134059453,221.98981216597917,361.1070129977263,0.0
0.108,12.768441449959234,-2.0808751425086194,10.0,0.0,20.422839194290358,18.198340098509806,225.13699934981392,361.1070129977263,0.0
0.109,12.564026061448772,-2.383907651474973,10.0,0.0,20.441810374949462,18.16643155582809,228.58734760882302,361.1070129977263,0.0
0.11,12.355441720833422,-2.685169749997922,10.0,0.0,20.485802089022343,18.160511109063034,232.373034633372,361.1070129977263,0.0
0.111,12.143853705582451,-2.985689231185263,10.0,0.0,20.554847108956817,18.18077071665323,236.07830195529291,361.1070129977263,0.0
0.112,11.933042556296995,-3.2810497954661755,10.0,0.0,20.648498054915883,18.22698221174675,239.3346013466169,361.1070129977263,0.0
0.113,11.722596956745601,-3.573397556795364,10.0,0.0,20.766609703891802,18.29897855638462,244.5892757346077,361.1070129977263,0.0
0.114,11.52443369759154,-3.8424147489718274,10.0,0.0,20.906778235960026,18.39527993396772,248.59378140923025,361.1070129977263,0.0
0.115,11.322187553763664,-4.116907147659124,10.0,0.0,21.07006404451358,18.516233470228862,252.2658347092517,361.1070129977263,0.0
0.116,11.136372127087455,-4.361425661748891,10.0,0.0,21.253268738400898,18.659837469215347,256.9308969770636,361.1070129977263,0.0
0.117,10.95798940882839,-4.591214238300546,10.0,0.0,21.455344921077913,18.825165482433658,260.6454061701647,361.1070129977263,0.0
0.11800000000000001,10.793504086816544,-4.795335397998303,10.0,0.0,21.673901728610293,19.010477870836542,264.3798568430225,361.1070129977263,0.0
0.11900000000000001,10.645439030574014,-4.969821961480501,10.0,0.0,21.906286404615788,19.21375700411894,267.5741409217472,361.1070129977263,0.0
0.12,10.517062943018338,-5.109919421838955,10.0,0.0,22.149426381353578,19.432587410742347,270.92735090100194,361.1070129977263,0.0
0.121,10.413432329181589,-5.208419481810504,10.0,0.0,22.399569433073225,19.663964381023685,273.5083368623832,361.1070129977263,0.0
0.122,10.33519252392706,-5.266265607491629,10.0,0.0,22.65321394987425,19.904788031888472,275.53044973567125,361.1070129977263,0.0
0.123,10.289306709621993,-5.274497291333432,10.0,0.0,22.905903404047432,20.151158810867905,277.0844251791259,361.1070129977263,0.0
0.124,10.277122806906632,-5.234053911878238,10.0,0.0,23.15342990212275,20.39904282852235,277.89796868866733,361.1070129977263,0.0
0.125,10.3029419870181,-5.141503607377382,10.0,0.0,23.391216052455444,20.643929145379463,278.1136114107713,361.1070129977263,0.0
0.126,10.368554905394571,-4.99778345420936,10.0,0.0,23.614828505637096,20.881146216363838,277.614264071729,361.1070129977263,0.0
0.127,10.475902029780922,-4.803615693713347,10.0,0.0,23.819880168476143,21.105850771069203,276.5808748886532,361.1070129977263,0.0
0.128,10.62561763104344,-4.561562567039095,10.0,0.0,24.00221295417262,21.313194791692933,274.6867052175973,361.1070129977263,0.0
0.129,10.812635068872977,-4.283023972914915,10.0,0.0,24.158828149274903,21.498962926675304,270.43173712353496,361.1070129977263,0.0
0.13,11.04377802994345,-3.959271512948728,10.0,0.0,24.28553125371016,21.658260216330223,269.5769847386132,361.1070129977263,0.0
0.131,11.311975969950456,-3.6027015306448793,10.0,0.0,24.379508603213605,21.787107743673094,263.50818971690916,361.1070129977263,0.0
0.132,11.604843617021533,-3.233550790330603,10.0,0.0,24.43993208888948,21.882934791454286,261.330753134011,361.1070129977263,0.0
0.133,11.939636310609659,-2.823072883578109,10.0,0.0,24.462434868436244,21.941322963200957,254.78488720321525,361.1070129977263,0.0
0.134,12.278553892238293,-2.4293723639922034,10.0,0.0,24.449323909116075,21.96218958868437,250.52515901379147,361.1070129977263,0.0
0.135,12.651304496754944,-2.0019372955825743,10.0,0.0,24.396529855947072,21.94204506500688,244.83596747331276,361.1070129977263,0.0
0.136,13.01583829534588,-1.6036784445407823,10.0,0.0,24.307466632796707,21.882264376580398,238.73250443334103,361.1070129977263,0.0
0.137,13.398094619030825,-1.1883729586441563,10.0,0.0,24.17963064818052,21.7811525770621,233.12976913858125,361.1070129977263,0.0
0.138,13.766231513412105,-0.8016214161427637,10.0,0.0,24.016077467257944,21.640695863888922,226.82931042611287,361.1070129977263,0.0
0.139,14.135003946802213,-0.41402231764680764,10.0,0.0,23.816065547700763,21.461045905211698,220.61903263657032,361.1070129977263,0.0
0.14,14.482283371926941,-0.05581249751045281,10.0,0.0,23.582562735001538,21.244846738016665,229.1827711835479,361.1070129977263,0.0
0.14100000000000001,14.60831249137022,-0.052564536165794706,10.0,0.0,23.35401510930618,21.01652679738369,228.74711722582057,361.1070129977263,0.0
0.14200000000000002,14.622282205914074,-0.207376547701001,10.0,0.0,23.142552052999385,20.7879077108391,231.43196094984043,361.1070129977263,0.0
0.14300000000000002,14.567924536577868,-0.43843851706220516,10.0,0.0,22.95324209018319,20.567123268090697,233.64173706980446,361.1070129977263,0.0
0.14400000000000002,14.455805236928368,-0.7231084209883649,10.0,0.0,22.789787749112044,20.361275819603613,236.16045533211036,361.1070129977263,0.0
0.145,14.296281981617877,-1.0442701425043213,10.0,0.0,22.654575187626786,20.17609404694577,238.8580986032544,361.1070129977263,0.0
0.146,14.100303531280009,-1.3870715324678842,10.0,0.0,22.548862240705112,20.01587159238925,241.76496333727505,361.1070129977263,0.0
0.147,13.876195083965564,-1.7429866068154438,10.0,0.0,22.473420987298546,19.88379223329742,244.87151338560503,361.1070129977263,0.0
0.148,13.631768738151257,-2.105100017024969,10.0,0.0,22.428589247703016,19.782022498340552,248.2437304151003,361.1070129977263,0.0
0.149,13.373323786423299,-2.4689473583835113,10.0,0.0,22.41446578201871,19.71193124415175,251.9161171100906,361.1070129977263,0.0
0.15,13.106363769650697,-2.83073089095391,10.0,0.0,22.43090325265312,19.674217921141096,255.66021643492752,361.1070129977263,0.0
