timestamp,iq,id,iq_ref,id_ref,vq,vd,omega,omega_ref,r
0.0,0.0,0.0,0.0,0.0,0.0,0.0,0.0,106.5502462578397,0.0
0.001,0.0,0.0,10.0,0.0,0.0,1.0999999999999999,13.451670278634861,106.5502462578397,0.0
0.002,0.46033645623502667,-0.2688708897399952,10.0,0.0,0.1395757978713994,1.9393629898141465,18.839605023549083,106.5502462578397,0.0
0.003,1.0228031301905365,-0.5858609653605701,10.0,0.0,0.3813105143579369,2.6514792908612628,29.42100459219525,106.5502462578397,0.0
0.004,1.5519964093496244,-0.8963424763279164,10.0,0.0,0.7010664547507348,3.263970839484377,37.66186398558696,106.5502462578397,0.0
0.005,2.01004081647171,-1.155082734510533,10.0,0.0,1.0754525692569785,3.8020958752926206,47.34500452467452,106.5502462578397,0.0
0.006,2.3794194545651832,-1.3718053926554554,10.0,0.0,1.4874646657075374,4.287795812851604,56.54658959190781,106.5502462578397,0.0
0.007,2.6752396062464743,-1.5402855812131735,10.0,0.0,1.9232111404288383,4.737280535995737,65.96723772353138,106.5502462578397,0.0
0.008,2.9075858104969265,-1.6766398045858193,10.0,0.0,2.3736456026778363,5.162791553346849,75.35912282127896,106.5502462578397,0.0
0.009000000000000001,3.0945437242852467,-1.7839373488702552,10.0,0.0,2.8320269080746074,5.572553006713542,84.67154446961204,106.5502462578397,0.0
0.01,3.2469309859117303,-1.8728875156233487,10.0,0.0,3.2942577711683665,5.972283425642208,93.93066583187021,106.5502462578397,0.0
0.011,3.376445500093729,-1.946375228151388,8.151683410251975,0.0,3.7574327365561717,6.162226340171349,100.81148268555431,106.5502462578397,0.0
0.012,3.4056441490457123,-1.9604406809049022,4.7686626191327806,0.0,4.194096819535713,6.023926632417828,103.8975723939942,106.5502462578397,0.0
0.013000000000000001,3.2536446192906356,-1.8653259877209667,3.252144503551293,0.0,4.562661252664182,5.8271484536974185,107.09526676668479,106.5502462578397,0.0
0.014,2.997361642596422,-1.7123604065524292,1.6478471121175464,0.0,4.858816357611064,5.552268136398811,106.23709083952053,106.5502462578397,0.0
0.015,2.678204100597963,-1.5107730369913874,2.080066629882865,0.0,5.077222965493366,5.430622982046165,110.05856970335023,106.5502462578397,0.0
0.016,2.398691819369912,-1.3494696837650355,0.13424396351291157,0.0,5.245896901992887,5.152175090953766,106.52473953992907,106.5502462578397,0.0
0.017,2.107331444237863,-1.1455979246473897,1.9014141124025965,0.0,5.349045795762537,5.161540844114368,110.29393269451171,106.5502462578397,0.0
0.018000000000000002,1.9159381296071392,-1.0474587866977216,-0.02061932925544241,0.0,5.434059787887995,4.969329192122653,107.4863355236758,106.5502462578397,0.0
0.019,1.737232439317458,-0.8936641061097859,1.373818363504149,0.0,5.475415192116561,4.995192277948348,108.04940623239324,106.5502462578397,0.0
0.02,1.622156173795329,-0.8431464726055651,1.077291409399897,0.0,5.511202371625253,4.986913586039806,109.96412629393953,106.5502462578397,0.0
0.021,1.5709627896355565,-0.7676838857105341,0.0857925782657536,0.0,5.534787255768812,4.881422388991626,104.92958391689221,106.5502462578397,0.0
0.022,1.4839235628076368,-0.7112120146501336,2.6192703901988863,0.0,5.540007251845503,5.08649872879608,111.14270796060528,106.5502462578397,0.0
0.023,1.5242451569475686,-0.7203395103907602,-0.5332162486853023,0.0,5.566781625537042,4.8941753582074945,104.89749049024813,106.5502462578397,0.0
0.024,1.4733915074128574,-0.6463829350716177,2.605920044169187,0.0,5.563419726558058,5.1065887380399735,108.70212796638135,106.5502462578397,0.0
0.025,1.5179826938602554,-0.6827118350205237,0.6820824890171588,0.0,5.586371100207792,5.048997528991478,107.97544837212838,106.5502462578397,0.0
0.026000000000000002,1.537816096102957,-0.6372651956013775,1.0311702650007577,0.0,5.595905796252106,5.055362846740299,104.4981737209707,106.5502462578397,0.0
0.027,1.5342788351425383,-0.6328528856731321,2.7903283159482903,0.0,5.6050926667689565,5.252649042891133,110.25011515163635,106.5502462578397,0.0
0.028,1.621159134514056,-0.65702118149028,-0.12264108832250242,0.0,5.635792105488373,5.083514885958837,104.87789668911388,106.5502462578397,0.0
0.029,1.603922120035719,-0.5974011034640752,2.5801916386259904,0.0,5.639708293101566,5.263570257185085,106.53141337085313,106.5502462578397,0.0
0.03,1.6532472686924065,-0.63072109095662,1.7536216266262319,0.0,5.665499798480504,5.302462544963551,109.27529355714366,106.5502462578397,0.0
0.031,1.712894519771984,-0.6119560039944598,0.35443106048792994,0.0,5.690204022658634,5.188331546214663,103.32312349131651,106.5502462578397,0.0
0.032,1.6926430767960086,-0.5668942917702493,3.3627873210667354,0.0,5.69625558706902,5.43581929532168,107.26713177883055,106.5502462578397,0.0
0.033,1.7762847480056518,-0.6111642739778498,1.3836143220998083,0.0,5.731771085114147,5.401967735204064,108.22333715742957,106.5502462578397,0.0
0.034,1.8232929299284955,-0.5780322372672998,0.8887807238043981,0.0,5.7562626534827634,5.336078431780481,103.07988108555486,106.5502462578397,0.0
0.035,1.814590097460563,-0.5417436993468607,3.4952124114646015,0.0,5.768055715868017,5.572310430552394,106.48859310879983,106.5502462578397,0.0
0.036000000000000004,1.9025224490563886,-0.581872905489123,1.7914729313325133,0.0,5.807069769946791,5.562863288994291,108.4085790378083,106.5502462578397,0.0
0.037,1.9593571964483363,-0.5563928980680183,0.8128966390285965,0.0,5.838033611584129,5.462283770950606,103.43284684110883,106.5502462578397,0.0
0.038,1.9466850642957767,-0.5056170811740004,3.331936731545639,0.0,5.850512577469237,5.663701043985641,104.20870810768885,106.5502462578397,0.0
0.039,2.016576587099963,-0.5342547913878085,2.967421479757136,0.0,5.885543280361797,5.773122618853792,108.0369077258195,106.5502462578397,0.0
0.04,2.1086380811748255,-0.5426653576864098,1.0384550560120114,0.0,5.928651855642621,5.657136103310108,105.80289165159054,106.5502462578397,0.0
0.041,2.1166500720911596,-0.48693567723144293,2.1629366391889837,0.0,5.9496365513279645,5.70008103117575,102.3165302860009,106.5502462578397,0.0
0.042,2.1352124594022235,-0.46716205384617415,3.9484544817021936,0.0,5.971199468463508,5.924030339972989,104.49701602047739,106.5502462578397,0.0
0.043000000000000003,2.237787394497494,-0.5038936375701772,2.8787439168375712,0.0,6.017239235208716,5.981120050056451,107.58162598781081,106.5502462578397,0.0
0.044,2.3245897455954507,-0.5019726139118429,1.3261251358711499,0.0,6.063805367848089,5.868491296278604,105.96542189907004,106.5502462578397,0.0
0.045,2.330505039817986,-0.4436357048940709,2.1400754238292325,0.0,6.088054162090371,5.877060091774032,102.33200663169697,106.5502462578397,0.0
0.046,2.3387279845432727,-0.4073069081324211,3.9989654537771937,0.0,6.1073221579043615,6.082689916581283,101.97514606903863,106.5502462578397,0.0
0.047,2.4299363507378855,-0.43307825737621286,4.223146736994375,0.0,6.1484244730021125,6.265803908509467,104.88320335966235,106.5502462578397,0.0
0.048,2.559752858328058,-0.46699477845953963,2.78578852066429,0.0,6.207201059609634,6.26099778395315,106.91188372855898,106.5502462578397,0.0
0.049,2.631499166577566,-0.4515882724799517,1.7678319615087823,0.0,6.2575854942321865,6.158354362337871,106.09148933080922,106.5502462578397,0.0
0.05,2.63268275333356,-0.3917331591642611,2.182616729653963,0.0,6.286237145826023,6.127406884973233,103.44617336324552,106.5502462578397,0.0
0.051000000000000004,2.6272731994573273,-0.33789021752513415,3.5363154423817567,0.0,6.303604712076869,6.247785218016994,101.06468586693306,106.5502462578397,0.0
0.052000000000000005,2.682898708284577,-0.3280018498627584,4.781914794447053,0.0,6.330724063980533,6.475168514471611,100.76678630154828,106.5502462578397,0.0
0.053,2.814203616906222,-0.3635470788752819,4.988699176702358,0.0,6.381878669207294,6.678928420138455,103.82559745568358,106.5502462578397,0.0
0.054,2.96730620370002,-0.4183555627876363,3.48654008765627,0.0,6.453967285418296,6.684594216682563,107.65078767530113,106.5502462578397,0.0
0.055,3.0326853867294092,-0.4523747753353453,1.5629395636728787,0.0,6.522607648203736,6.494667144180355,110.37595623630594,106.5502462578397,0.0
0.056,2.97363192179691,-0.4250320095571607,0.1620981833858126,0.0,6.5620433710993336,6.20288994158804,109.7256058844212,106.5502462578397,0.0
0.057,2.812169523784002,-0.348034125386506,0.45551976306236774,0.0,6.560161461845148,6.0076891482439,106.92129854782151,106.5502462578397,0.0
0.058,2.640986719772837,-0.284936964633971,1.8539629084623956,0.0,6.5327769553408945,5.999930257967091,105.29314695384268,106.5502462578397,0.0
0.059000000000000004,2.547756885412432,-0.2800867286361177,2.6806096984917795,0.0,6.5074524561071465,6.075698975256303,106.5327991497372,106.5502462578397,0.0
0.06,2.5313098411526322,-0.32220573219522186,2.060958071625544,0.0,6.496918871277175,6.0658071005626155,109.62169870947355,106.5502462578397,0.0
0.061,2.520279101897358,-0.3569277428398461,0.48579376724103174,0.0,6.48984768859615,5.889828408517149,110.64846246242588,106.5502462578397,0.0
0.062,2.4447609470043963,-0.3404173780027153,-0.06857027128099702,0.0,6.463722394740149,5.693708755860214,107.81538879319666,106.5502462578397,0.0
0.063,2.323200528930407,-0.30876168226010225,1.3353151379800445,0.0,6.417280642120739,5.687176038926523,106.47438178470868,106.5502462578397,0.0
0.064,2.256999142237297,-0.3262710023471237,2.0065772869553435,0.0,6.377072375236901,5.742518949074434,108.83549195084994,106.5502462578397,0.0
0.065,2.2497350899167117,-0.3731718966917199,0.8031697469546115,0.0,6.351403231233274,5.64935632251767,110.58759321296108,106.5502462578397,0.0
0.066,2.2149360804145637,-0.3828077157599229,-0.11325435365217196,0.0,6.319575670128388,5.477925719071511,107.9521912350812,106.5502462578397,0.0
0.067,2.126430497741637,-0.36768599601260066,1.1904271855153532,0.0,6.272028057426487,5.482412254172974,107.29877814098828,106.5502462578397,0.0
0.068,2.0805969831986877,-0.3964575868703768,1.5096484137303303,0.0,6.2329999516967485,5.507929524979067,110.15716593213514,106.5502462578397,0.0
0.069,2.0724973280085623,-0.4360278926841449,0.04438532141394225,0.0,6.204491401351534,5.363053732620111,109.42844052837458,106.5502462578397,0.0
0.07,2.0154230513230624,-0.4272768858338658,0.37996608058887515,0.0,6.162987812993278,5.287578352778443,107.09882793200232,106.5502462578397,0.0
0.07100000000000001,1.9503732687718824,-0.4374067599995318,1.5392865620333778,0.0,6.119288841713402,5.34625433076603,109.50304368799905,106.5502462578397,0.0
0.07200000000000001,1.9428655282167557,-0.4814841702250826,0.3076507097334189,0.0,6.090574581743429,5.247795018894983,109.75610826300043,106.5502462578397,0.0
0.073,1.9063813124479372,-0.48277358641069357,0.14905980218112402,0.0,6.05458687826151,5.155119757235314,107.2716063069517,106.5502462578397,0.0
0.074,1.8441403545337303,-0.4897479576362411,1.38409717971437,0.0,6.013684705634768,5.212034935210469,109.79417042039418,106.5502462578397,0.0
0.075,1.8357486984953684,-0.5307811558702287,0.09037588136758279,0.0,5.9870081761617016,5.104809334117038,109.30551594934616,106.5502462578397,0.0
0.076,1.794444919861642,-0.5261486191107647,0.30715041997652914,0.0,5.9513568285007175,5.04688055150542,107.48024733927184,106.5502462578397,0.0
0.077,1.7419241579422398,-0.5405099992212925,1.2104847141993669,0.0,5.9151038145244215,5.093742785392084,110.6228963176013,106.5502462578397,0.0
0.078,1.736671366856179,-0.5741324001876811,-0.40156627556297986,0.0,5.890717175639621,4.94598714207664,108.01293894381647,106.5502462578397,0.0
0.079,1.676889309393823,-0.5579114759382393,0.8887854844696712,0.0,5.851873110634652,4.975151101115473,108.54333206257506,106.5502462578397,0.0
0.08,1.6496914053269767,-0.590452406954912,0.6036580670430196,0.0,5.823571559688391,4.955640673105396,110.13689576522256,106.5502462578397,0.0
0.081,1.6361749390218,-0.5994516299906352,-0.2289902793545593,0.0,5.796813626259513,4.847725921125137,107.05101333662721,106.5502462578397,0.0
0.082,1.578154534746862,-0.5988154828979573,1.3089432641552428,0.0,5.761780042564944,4.931673104057261,110.56589151414414,106.5502462578397,0.0
0.083,1.5818720848373442,-0.6366433626278296,-0.4886522771662687,0.0,5.7428119637742565,4.789618230793547,107.68751185176475,106.5502462578397,0.0
0.084,1.529752317442718,-0.617358670587167,0.9391648980841747,0.0,5.709035610614496,4.840678231582214,109.08028673847625,106.5502462578397,0.0
0.085,1.5138953076718387,-0.6512669469950383,0.21747704992206285,0.0,5.68766565017485,4.790813835326552,109.1120343767927,106.5502462578397,0.0
0.08600000000000001,1.4939173078494927,-0.6465925186892065,0.17598534957430267,0.0,5.662592976275884,4.748490683978609,107.57725741738936,106.5502462578397,0.0
0.08700000000000001,1.455632444309103,-0.6594416520602973,0.9331037176804788,0.0,5.637255403585897,4.79560207286194,110.47604779174227,106.5502462578397,0.0
0.088,1.4598079707325833,-0.677482348635537,-0.5555494848350033,0.0,5.621018712342806,4.663303373088187,106.74313457147429,106.5502462578397,0.0
0.089,1.4031333994109532,-0.6626430639470796,1.308978242162645,0.0,5.591363091965167,4.7688714142720094,110.20787465117446,106.5502462578397,0.0
0.09,1.4147824121190453,-0.6952427737160907,-0.4599680816207914,0.0,5.57896419866515,4.645839579302427,107.19600042660376,106.5502462578397,0.0
0.091,1.3713961630129776,-0.6779644968373696,1.03951148897692,0.0,5.553275403643829,4.721392232032132,109.53576718734857,106.5502462578397,0.0
0.092,1.3744520432672689,-0.7041895628761929,-0.1602271006905731,0.0,5.540768293430666,4.639084690098298,107.52341726916175,106.5502462578397,0.0
0.093,1.3444000435095491,-0.6918428252023416,0.8362161482896135,0.0,5.519660748240925,4.688699613396921,109.07870919552623,106.5502462578397,0.0
0.094,1.3426301064858033,-0.7128183727427281,0.03328555573051073,0.0,5.5080562275061995,4.632849665250439,107.57438437055319,106.5502462578397,0.0
0.095,1.3221760556079567,-0.7015345947631645,0.7752065870898956,0.0,5.490576192977145,4.673297125446582,108.8390710038296,106.5502462578397,0.0
0.096,1.3195497191182832,-0.7218912034570519,0.11997502299179064,0.0,5.481240972656733,4.628541510310903,107.63416665061004,106.5502462578397,0.0
0.097,1.305446916517439,-0.7077862115712397,0.711587995673868,0.0,5.466608597660416,4.660482722213959,108.35142985208964,106.5502462578397,0.0
0.098,1.3002999066875989,-0.7266155525356556,0.3349445589915703,0.0,5.458845858778979,4.640844810720477,108.06595863549833,106.5502462578397,0.0
0.099,1.2969876470135684,-0.7140712321093271,0.462523043510636,0.0,5.448327433979799,4.6405073626179645,107.35852422476353,106.5502462578397,0.0
0.1,1.2830773811258507,-0.7249926974389433,0.8081574692088005,0.0,5.440153911240805,4.677392825478303,109.14313066578991,106.5502462578397,0.0
0.101,1.298533840804031,-0.7226164762421455,-0.1100745953838933,0.0,5.436115688076803,4.603471205193053,105.66286556981247,106.5502462578397,0.0
0.10200000000000001,1.2662997203042574,-0.7130942634054356,1.638931759485101,0.0,5.424065444000605,4.741811262153197,110.48341549899378,106.5502462578397,0.0
0.10300000000000001,1.3088186708536855,-0.7363083513260356,-0.8106748975170954,0.0,5.429703001827672,4.573166067425343,104.47689262020583,106.5502462578397,0.0
0.10400000000000001,1.2597916329598031,-0.6976845271599604,2.213320078253217,0.0,5.4134315228617735,4.78490282553156,110.70038100211947,106.5502462578397,0.0
0.105,1.3149760302311866,-0.7411339461570955,-0.9399254601464004,0.0,5.425126541934433,4.590181246870112,104.35915738102351,106.5502462578397,0.0
0.106,1.2703629754617731,-0.6893155778934716,2.2525972391697433,0.0,5.410045386534713,4.804270560288196,110.0445978482469,106.5502462578397,0.0
0.107,1.322128957924018,-0.7370293568248233,-0.6250665103460222,0.0,5.423647977381856,4.640834198766065,104.88629604405476,106.5502462578397,0.0
0.108,1.2940155417377892,-0.6856417802850989,1.9707238938878948,0.0,5.413416901783391,4.813025450046855,108.91798353767712,106.5502462578397,0.0
0.109,1.3330780955680677,-0.7274723858265655,-0.0687972257216578,0.0,5.426543301247808,4.7120912263571375,105.84243401694118,106.5502462578397,0.0
0.11,1.3276759416408306,-0.6832578176360965,1.476055657055294,0.0,5.422981729840444,4.813876955754693,107.23840059532644,106.5502462578397,0.0
0.111,1.3466963523873974,-0.7130020663488242,0.7711908244877987,0.0,5.4336689015538795,4.809998027940168,107.71154053581395,106.5502462578397,0.0
0.112,1.3727284519139127,-0.6850001649677144,0.5230079114642996,0.0,5.439521811675467,4.784650911131077,104.3691244254914,106.5502462578397,0.0
0.113,1.3582468060230346,-0.6834017614900801,2.2160271849490556,0.0,5.442358913735261,4.9529910482718735,110.04937451248843,106.5502462578397,0.0
0.114,1.4285957496562611,-0.7010462751493873,-0.6590891410959421,0.0,5.463703199840454,4.763704693046211,102.88640657641285,106.5502462578397,0.0
0.115,1.38672160307498,-0.6474605023108957,2.959033223756114,0.0,5.457913541663735,5.027535670908083,109.22583449601944,106.5502462578397,0.0
0.116,1.4622636089852956,-0.699243522062743,-0.23743661842898,0.0,5.485317936991962,4.867883316761265,104.87423572553088,106.5502462578397,0.0
0.117,1.453321244509055,-0.6384874877719133,1.9551228721383906,0.0,5.486815663403176,5.001821960097704,105.75393769042984,106.5502462578397,0.0
0.11800000000000001,1.4814815870586706,-0.6699949562706679,1.5232349753630112,0.0,5.505630863384682,5.0498961868654355,108.51472674488512,106.5502462578397,0.0
0.11900000000000001,1.5351837193723887,-0.6514508974719684,0.12319564326491328,0.0,5.525017044891966,4.939733432262495,102.61935570574163,106.5502462578397,0.0
0.12,1.5076723862715735,-0.6171270318978632,3.1101900683576433,0.0,5.527858148163064,5.188658619315985,108.50635816046656,106.5502462578397,0.0
0.121,1.5923331091154993,-0.6595714207485577,0.14712772196890667,0.0,5.56031978124172,5.047580802793707,104.99943504296543,106.5502462578397,0.0
0.122,1.59388792167882,-0.6013766660772757,1.916097392868215,0.0,5.568601602457932,5.148749796340807,103.92129263826298,106.5502462578397,0.0
0.123,1.6177869063923942,-0.6184702670130178,2.4814581314152058,0.0,5.588634384556879,5.282516716993134,108.47151786892665,106.5502462578397,0.0
0.124,1.697616787079949,-0.6262177740311717,0.1871327999725012,0.0,5.620721870273803,5.1383385329174605,103.29216210776987,106.5502462578397,0.0
0.125,1.6829431728146347,-0.5713559685487173,2.809391522051592,0.0,5.629070515338215,5.325591024940238,104.8713342808052,106.5502462578397,0.0
0.126,1.7390989064403943,-0.6037484633889525,2.036594555304271,0.0,5.659421337585715,5.377399011862691,107.98324571763374,106.5502462578397,0.0
0.127,1.8049628937963478,-0.5909836450398539,0.4663088422920634,0.0,5.690189821333908,5.255374342280884,102.69045654061844,106.5502462578397,0.0
0.128,1.7885133864590803,-0.539105629945091,3.1513013279719226,0.0,5.700100056272165,5.462149104267643,104.35966714344507,106.5502462578397,0.0
0.129,1.855751203469058,-0.5722017579953629,2.338601817702557,0.0,5.733856098151752,5.52542988761865,107.64866378800987,106.5502462578397,0.0
0.13,1.9301719131315924,-0.5657023331050466,0.6831193201184536,0.0,5.769518716160044,5.404268217298182,103.36811286003088,106.5502462578397,0.0
0.131,1.9221173351927254,-0.5105572304384183,2.8552161180860383,0.0,5.783497938291034,5.5559046592327626,102.54642002746053,106.5502462578397,0.0
0.132,1.9718834646207422,-0.5270875564660159,3.306100796675005,0.0,5.813612669292084,5.716096905835626,106.83513820871387,106.5502462578397,0.0
0.133,2.071775465146302,-0.5479587681004694,1.158892786539591,0.0,5.85886568187283,5.6120892142139915,105.58221445473686,106.5502462578397,0.0
0.134,2.090767076623597,-0.49684126070361856,1.7950349815591269,0.0,5.883360986103339,5.613365157308849,101.60170485890848,106.5502462578397,0.0
0.135,2.0978867421254233,-0.46706217064208655,3.834775193462629,0.0,5.902769829387483,5.834379790786038,103.15715349992865,106.5502462578397,0.0
0.136,2.1914224792748076,-0.501638507855231,3.090981800531651,0.0,5.946440439684993,5.922801435471062,106.55844134068944,106.5502462578397,0.0
0.137,2.2856173851227486,-0.508341270858319,1.3902559293227599,0.0,5.994977693979463,5.817679982541887,105.44425051977976,106.5502462578397,0.0
