timestamp,iq,id,iq_ref,id_ref,vq,vd,omega,omega_ref,r
0.0,0.0,0.0,0.0,0.0,0.0,0.0,0.0,287.8526898492453,0.0
0.001,0.0,0.0,10.0,0.0,0.0,1.0999999999999999,6.888866573651159,287.8526898492453,0.0
0.002,0.6114776733780098,-0.3437710485664864,10.0,0.0,0.14781481534231344,1.9227374559284183,13.145907310559489,287.8526898492453,0.0
0.003,1.076521548900928,-0.6079818857306999,10.0,0.0,0.38874737634563605,2.632942598224486,19.715469926107147,287.8526898492453,0.0
0.004,1.4363024645778855,-0.8102645330349963,10.0,0.0,0.6962161783100639,3.261295020422043,26.51937465693422,287.8526898492453,0.0
0.005,1.7190779441890927,-0.9683937871013603,10.0,0.0,1.051144733772061,3.8300515869958245,33.4549973600286,287.8526898492453,0.0
0.006,1.9458531114894944,-1.0943927107918845,10.0,0.0,1.4397346794105312,4.355307838851494,40.47455616244783,287.8526898492453,0.0
0.007,2.1317952512722917,-1.1969610111802769,10.0,0.0,1.852013779476539,4.848711576382339,47.5836191223243,287.8526898492453,0.0
0.008,2.2878037407813987,-1.2824629509501089,10.0,0.0,2.2807848736598286,5.318701337718529,54.628734876297386,287.8526898492453,0.0
0.009000000000000001,2.4218399770302854,-1.3553246804961043,10.0,0.0,2.720837605410769,5.771385331247141,61.810549404817486,287.8526898492453,0.0
0.01,2.539764656050868,-1.4185366817743805,10.0,0.0,3.1683781661846266,6.211174846268212,68.86249466495711,287.8526898492453,0.0
0.011,2.6454617690055406,-1.4748412268695517,10.0,0.0,3.620705002330893,6.641292030229754,75.93078266631927,287.8526898492453,0.0
0.012,2.7422550898334275,-1.5253230796435175,10.0,0.0,4.075800831612869,7.064039885248244,83.07977260150624,287.8526898492453,0.0
0.013000000000000001,2.8321425912189544,-1.5714509054009882,10.0,0.0,4.532231105774079,7.481102845748956,89.95812150961618,287.8526898492453,0.0
0.014,2.9171158832738042,-1.6133556889426095,10.0,0.0,4.9888728965012445,7.893654350503538,96.88407786318442,287.8526898492453,0.0
0.015,2.9983624347171727,-1.651581288581454,10.0,0.0,5.4448914267560085,8.302527496117161,103.78459258501069,287.8526898492453,0.0
0.016,3.0768475857486015,-1.6863671409615457,10.0,0.0,5.899639606312078,8.70829427909587,110.60986020686099,287.8526898492453,0.0
0.017,3.1533522347908614,-1.7177925025339027,10.0,0.0,6.352598577459573,9.111328541847982,117.28089912718137,287.8526898492453,0.0
0.018000000000000002,3.228579887413963,-1.7457447246969702,10.0,0.0,6.80332556858974,9.511845280141515,123.84011863576791,287.8526898492453,0.0
0.019,3.3033554745533635,-1.769695309070956,10.0,0.0,7.251386576495753,9.909910005659603,130.19156740671406,287.8526898492453,0.0
0.02,3.3781406356340016,-1.7895938398140538,10.0,0.0,7.6963972887009735,10.305495747569015,136.27481725577073,287.8526898492453,0.0
0.021,3.453501873390227,-1.8051431598582286,10.0,0.0,8.137976943774042,10.698482101965624,142.1525183976129,287.8526898492453,0.0
0.022,3.5300921260114393,-1.815867998763101,10.0,0.0,8.57572150785856,11.088656471019108,147.80550389529623,287.8526898492453,0.0
0.023,3.6084667929900367,-1.8214510522697667,10.0,0.0,9.009215939936658,11.475732548734264,153.22661877076638,287.8526898492453,0.0
0.024,3.6891893349432863,-1.8215783873028926,10.0,0.0,9.43802671289704,11.859354728940644,158.3889243342813,287.8526898492453,0.0
0.025,3.7728069031305944,-1.8159876478156187,10.0,0.0,9.861702371888088,12.23910506134135,163.2269350777181,287.8526898492453,0.0
0.026000000000000002,3.859851869548846,-1.8044687474996897,10.0,0.0,10.279774326580224,12.614509155776954,167.7575418736821,287.8526898492453,0.0
0.027,3.950812350835437,-1.7869091055462276,10.0,0.0,10.691763123634987,12.985044832960876,171.9374606421667,287.8526898492453,0.0
0.028,4.046194906046619,-1.7631807986437145,10.0,0.0,11.097172091362921,13.35014334587151,175.7325733345788,287.8526898492453,0.0
0.029,4.146361103169596,-1.7333996553834856,10.0,0.0,11.495511370919527,13.709208448132461,179.16209479580849,287.8526898492453,0.0
0.03,4.251728757278483,-1.6975773656496753,10.0,0.0,11.886280592308449,14.06161218814223,182.2599552491168,287.8526898492453,0.0
0.031,4.362770195982882,-1.655603285834801,10.0,0.0,12.268954339677158,14.40669159457352,184.7649439019858,287.8526898492453,0.0
0.032,4.479796855469975,-1.607588816960436,10.0,0.0,12.643006802174096,14.743767916942016,186.88686393024113,287.8526898492453,0.0
0.033,4.603003016406116,-1.5537704631250473,10.0,0.0,13.00792177642504,15.072159442215249,188.5930661654367,287.8526898492453,0.0
0.034,4.732132146214065,-1.4950533920743974,10.0,0.0,13.36326371150099,15.39123116971674,189.81212460459747,287.8526898492453,0.0
0.035,4.867531961733725,-1.431251524024818,10.0,0.0,13.708547591044553,15.700327229566597,190.39020304534682,287.8526898492453,0.0
0.036000000000000004,5.0089803159939965,-1.3630070891212123,10.0,0.0,14.043343819459839,15.998836750572393,191.36568854425644,287.8526898492453,0.0
0.037,5.159076321705244,-1.2861108134483348,10.0,0.0,14.366735231159202,16.285878865233503,192.27760575638814,287.8526898492453,0.0
0.038,5.315169996580818,-1.204930669250954,10.0,0.0,14.67833086004975,16.560886565419228,193.65245935206582,287.8526898492453,0.0
0.039,5.47571855066408,-1.1220279705202154,10.0,0.0,14.977960200651413,16.82345365427504,195.41281091904628,287.8526898492453,0.0
0.04,5.637629691108462,-1.042508438755874,10.0,0.0,15.265965194571717,17.073522228397387,196.84322786068287,287.8526898492453,0.0
0.041,5.802887900379652,-0.9628102139275931,10.0,0.0,15.542204937098766,17.31082515288415,204.22705546465363,287.8526898492453,0.0
0.042,5.893246155418829,-1.0112850687716488,10.0,0.0,15.820680214102904,17.54373493321333,211.19044341495137,287.8526898492453,0.0
0.043000000000000003,5.947392683751751,-1.105312599704837,10.0,0.0,16.104457221293764,17.776148727643783,218.09490433558352,287.8526898492453,0.0
0.044,5.9895250418123105,-1.2093732557276269,10.0,0.0,16.393604304061757,18.009605749246944,224.66302124762814,287.8526898492453,0.0
0.045,6.023396930142785,-1.3180467372659357,10.0,0.0,16.688095857122256,18.24532719283085,231.89237372713447,287.8526898492453,0.0
0.046,6.053445558913097,-1.4235392522805403,10.0,0.0,16.98722784107131,18.48395901708097,235.94635046908434,287.8526898492453,0.0
0.047,6.073931417252479,-1.5355231527707645,10.0,0.0,17.291573112954257,18.726687899171367,243.42227967284256,287.8526898492453,0.0
0.048,6.072992422963907,-1.6749630414846508,10.0,0.0,17.60397529461157,18.97588656819615,253.02868310685582,287.8526898492453,0.0
0.049,6.065614499432612,-1.8142430497451412,10.0,0.0,17.923983527027147,19.232207770129737,263.4288850125718,287.8526898492453,0.0
0.05,6.053041867855181,-1.9494680164443263,10.0,0.0,18.25110500264883,19.496206885349743,273.606666878005,287.8526898492453,0.0
0.051000000000000004,6.036148759864955,-2.0777697819879823,10.0,0.0,18.584675186773158,19.768250752173053,283.1707346113114,287.8526898492453,0.0
0.052000000000000005,6.01130296037474,-2.2044529674668567,8.027802651329509,0.0,18.92474487191462,19.83206964923674,287.00665711867225,287.8526898492453,0.0
0.053,5.8543135328091545,-2.2710992024359014,6.118301724954808,0.0,19.243253732240113,19.750210875730996,296.29301969573316,287.8526898492453,0.0
0.054,5.59011118054643,-2.3101646936356044,1.3907171379594727,0.0,19.525356570864755,19.234941934775886,298.40065755987195,287.8526898492453,0.0
0.055,5.105153676257448,-2.1749330454917524,0.23141852878381552,0.0,19.712456095323603,18.769866472588543,301.041338040809,287.8526898492453,0.0
0.056,4.641705799971761,-2.0707950538914033,-1.2208081936003614,0.0,19.82423525852323,18.267986247043854,301.9575049195571,287.8526898492453,0.0
0.057,4.195803123395217,-1.941832992094994,-1.8199397836775155,0.0,19.861504035966828,17.82050456834951,301.10745421794536,287.8526898492453,0.0
0.058,3.8123453018362055,-1.8216273776032528,-1.527462076558649,0.0,19.838364770820508,17.497383132558532,299.5995442823177,287.8526898492453,0.0
0.059000000000000004,3.5311640608409975,-1.7320587943969163,-0.8909756530755475,0.0,19.77657680060194,17.298444001637865,298.27210821855044,287.8526898492453,0.0
0.06,3.351744453534972,-1.6685872229281284,-0.3314518048849662,0.0,19.69498752728365,17.18532709024724,296.24968463533696,287.8526898492453,0.0
0.061,3.2448816967465355,-1.6218715531733467,0.5957900388608577,0.0,19.605741482199804,17.181725014167657,294.34823934751455,287.8526898492453,0.0
0.062,3.2211024481922874,-1.591144389616497,1.4815571877893712,0.0,19.52214700272267,17.25926759890541,292.38839997433803,287.8526898492453,0.0
0.063,3.260478281334641,-1.5691796903308284,2.416119773126704,0.0,19.452557384381162,17.410071555988285,294.87550197582834,287.8526898492453,0.0
0.064,3.3566128440788896,-1.549418065124816,1.1023406511157168,0.0,19.403052991802298,17.374793782683707,287.1481413184006,287.8526898492453,0.0
0.065,3.3608666465151105,-1.4646718977946194,4.973066465138047,0.0,19.3458467989966,17.777504405573715,290.4634421266909,287.8526898492453,0.0
0.066,3.604356315398692,-1.5062083938568411,3.2893085382184326,0.0,19.340048764000613,17.88356139123995,283.49569053405867,287.8526898492453,0.0
0.067,3.7303309111472025,-1.4122307234028257,6.816754327686412,0.0,19.33468332236029,18.37186718210713,283.64069118601765,287.8526898492453,0.0
0.068,4.028097162649712,-1.4742781879830893,6.786373988339198,0.0,19.386450001779092,18.740695012792894,284.57263640937316,287.8526898492453,0.0
0.069,4.308982621901533,-1.4376097144884075,6.353201911060163,0.0,19.46526878959436,19.002551865242076,278.04628451265637,287.8526898492453,0.0
0.07,4.530366903207009,-1.357586384725001,9.714441912784448,0.0,19.553955502334006,19.598629615839236,275.9337507832653,287.8526898492453,0.0
0.07100000000000001,4.910215169214773,-1.4126080778054175,10.0,0.0,19.70023393839587,20.10219778577931,276.81146798117095,287.8526898492453,0.0
0.07200000000000001,5.272781196998133,-1.4010472206868456,10.0,0.0,19.880419436631712,20.531097621063314,275.3832846151064,287.8526898492453,0.0
0.073,5.596699454492778,-1.3513118691482795,10.0,0.0,20.08012108847431,20.903120674595932,272.6782859296117,287.8526898492453,0.0
0.074,5.895521315356595,-1.2740102480598259,10.0,0.0,20.28904905568157,21.228280365839474,268.99046398323827,287.8526898492453,0.0
0.075,6.179034049338527,-1.1758695157815207,10.0,0.0,20.499577730952726,21.513618702550012,265.09788411289486,287.8526898492453,0.0
0.076,6.4554131007161875,-1.0591536985533154,10.0,0.0,20.705730039795508,21.76390950480489,262.441395954949,287.8526898492453,0.0
0.077,6.727646090431582,-0.9296053334954117,10.0,0.0,20.903213035995403,21.982604619363634,264.3985748277618,287.8526898492453,0.0
0.078,6.984800487539126,-0.8132851682491976,10.0,0.0,21.09131750950469,22.17361386830183,273.67336864871913,287.8526898492453,0.0
0.079,7.061057156640869,-0.9756326201169072,10.0,0.0,21.29873388191477,22.35851595006701,281.2068031768931,287.8526898492453,0.0
0.08,7.09164073017271,-1.166888571474768,9.034310201881583,0.0,21.52331350539104,22.436841956706168,288.98948271681206,287.8526898492453,0.0
0.081,7.042913991631026,-1.3270254452675476,5.131602503246443,0.0,21.748970263787243,22.115818153135265,296.3769204559143,287.8526898492453,0.0
0.082,6.752402705304801,-1.3681408678071572,1.352641327628648,0.0,21.922880293728156,21.50427272753993,301.4088202029464,287.8526898492453,0.0
0.083,6.280146054071682,-1.3250453120951429,-1.2988698494244266,0.0,22.013093112761723,20.766439348550943,303.2606163105937,287.8526898492453,0.0
0.084,5.7311265524562724,-1.257523139493022,-2.3788471678615704,0.0,22.013504828563928,20.074797774772016,304.3055450813329,287.8526898492453,0.0
0.085,5.215752628059592,-1.2177196948002564,-3.0658401055520486,0.0,21.94100805821784,19.438793016657108,305.1474564093732,287.8526898492453,0.0
0.08600000000000001,4.74764489282919,-1.204053666622225,-3.6597434351734686,0.0,21.811055260442206,18.84701773206901,305.81640116877065,287.8526898492453,0.0
0.08700000000000001,4.321731865618306,-1.2023061012119018,-4.173852928067447,0.0,21.634864642071967,18.29298104088092,305.83423658592994,287.8526898492453,0.0
0.088,3.933989914412855,-1.2024755780934995,-4.362586104013938,0.0,21.420925534531033,17.799501886909926,305.18907159360447,287.8526898492453,0.0
0.089,3.5956953993391987,-1.2083778567642673,-4.213367425294792,0.0,21.17967997823206,17.385613101146575,304.234495136526,287.8526898492453,0.0
0.09,3.3175726721915813,-1.2226371513464205,-3.8998972496283626,0.0,20.922679598603967,17.049188725701267,302.8986304580883,287.8526898492453,0.0
0.091,3.0978778278179875,-1.2419805747138928,-3.382424316497942,0.0,20.659722003018768,16.795879276334986,301.58910625189935,287.8526898492453,0.0
0.092,2.937870816749819,-1.266539163408619,-2.865026377430013,0.0,20.4002372325782,16.608747879086742,299.7192426717404,287.8526898492453,0.0
0.093,2.82690682363511,-1.2898067838037532,-2.0487601155754893,0.0,20.15030165181338,16.509602423064525,297.2140266482505,287.8526898492453,0.0
0.094,2.77548019459839,-1.3169873468561861,-0.8897654718206018,0.0,19.918202269254632,16.519251992025424,294.9439509423034,287.8526898492453,0.0
0.095,2.7932113709301234,-1.3557864850717842,0.17435977022238447,0.0,19.714273881421043,16.607725800334677,292.6493348853412,287.8526898492453,0.0
0.096,2.860820440455868,-1.3988399748138374,1.273701348342517,0.0,19.54393360569122,16.76998602431793,290.9265432452864,287.8526898492453,0.0
0.097,2.97432621117564,-1.4411093884002573,2.1043586344095173,0.0,19.411072480529775,16.967555539932114,290.51610561165944,287.8526898492453,0.0
0.098,3.12199733889053,-1.4535474898295253,2.2829432935988465,0.0,19.312199916467254,17.12831096477746,287.5167719634983,287.8526898492453,0.0
0.099,3.227217527886973,-1.478380934192262,3.785969296536894,0.0,19.241897449161126,17.416553094950846,289.00167723070837,287.8526898492453,0.0
0.1,3.437555606219153,-1.4656283733582693,3.0320267891172223,0.0,19.205798325467583,17.548891842804156,282.0385273754306,287.8526898492453,0.0
0.101,3.5459531134318567,-1.434602551288573,6.571743341494258,0.0,19.183257674109402,18.051474704328385,286.02425085052664,287.8526898492453,0.0
0.10200000000000001,3.86162223755931,-1.4898955435645802,4.597165993933419,0.0,19.219621861410527,18.21530491222702,280.16175431816583,287.8526898492453,0.0
0.10300000000000001,4.031005643181199,-1.394229690106698,7.605323615424617,0.0,19.257656476968265,18.7015561465284,278.0165646903793,287.8526898492453,0.0
0.10400000000000001,4.336303786645289,-1.4368999574495398,8.776279680906537,0.0,19.346163142342665,19.209820348218692,279.8056565430378,287.8526898492453,0.0
0.105,4.685152499998315,-1.4485920159008467,7.962204087639369,0.0,19.47750498510486,19.539530543328986,278.6866620168478,287.8526898492453,0.0
0.106,4.951169980516029,-1.3752248433679088,8.613361629058355,0.0,19.620496353538737,19.903398552969822,274.99247226662624,287.8526898492453,0.0
0.107,5.2367368880433265,-1.3014350002679764,10.0,0.0,19.778192175077642,20.362445358856522,269.8659606943743,287.8526898492453,0.0
0.108,5.57445994212466,-1.2683624342505095,10.0,0.0,19.963123011220407,20.74319681572535,267.24066272853025,287.8526898492453,0.0
0.109,5.880381237678699,-1.2084884720857896,10.0,0.0,20.16138049925783,21.074092098551453,264.9504319932856,287.8526898492453,0.0
0.11,6.170996173965452,-1.1193204265302028,10.0,0.0,20.36369202138466,21.362815171862678,262.63212128553135,287.8526898492453,0.0
0.111,6.450797095358166,-1.011276930547068,10.0,0.0,20.563651594527336,21.615025138065135,261.50496601901733,287.8526898492453,0.0
0.112,6.720558370667187,-0.8957705797375244,10.0,0.0,20.75721094334677,21.835134333891546,263.91768469978473,287.8526898492453,0.0
0.113,6.9466594066139535,-0.839076110776146,10.0,0.0,20.94834394878925,22.030415043816202,272.3209450339554,287.8526898492453,0.0
0.114,7.017684061663806,-1.006177927820993,10.0,0.0,21.158839869244495,22.219729281596635,279.737942842883,287.8526898492453,0.0
0.115,7.04793846200087,-1.1959460055079654,9.028784860707312,0.0,21.38642109180738,22.301710284835757,287.46351330049555,287.8526898492453,0.0
0.116,6.9998033730870315,-1.3524671890271167,5.169891397388534,0.0,21.61476194184812,21.989082584219027,295.46732852266587,287.8526898492453,0.0
0.117,6.711610385754075,-1.3931072411893215,1.0918373995691697,0.0,21.791911130725758,21.351774611258577,300.27642701340193,287.8526898492453,0.0
0.11800000000000001,6.223756414698519,-1.337942649742605,-1.4369492174404277,0.0,21.881140097838838,20.60930837353186,301.9217770894621,287.8526898492453,0.0
0.11900000000000001,5.670049724878779,-1.2655550186510456,-2.4003151278726937,0.0,21.87978855096233,19.925358468481292,302.8930116813372,287.8526898492453,0.0
0.12,5.158378878219473,-1.2253572243339215,-3.0363356421311574,0.0,21.80647928720445,19.300086528018337,303.7923642820879,287.8526898492453,0.0
0.121,4.6964615233956835,-1.2123803799137949,-3.645408686834914,0.0,21.676948280833017,18.71506722601508,304.42824485090665,287.8526898492453,0.0
0.122,4.27544124442565,-1.2086334150339089,-4.129104521260916,0.0,21.501586047205816,18.17017399937366,304.4021841800386,287.8526898492453,0.0
0.123,3.893682836577354,-1.2077276491169815,-4.281569129134825,0.0,21.28920854967512,17.688082945585403,303.7435719331659,287.8526898492453,0.0
0.124,3.56276925746939,-1.2132566481774043,-4.111171826537692,0.0,21.050476944074504,17.285814506410727,302.77449223068146,287.8526898492453,0.0
0.125,3.2921667379484587,-1.2273129436607084,-3.775849999109822,0.0,20.796882557629033,16.961538319940757,301.44442280783517,287.8526898492453,0.0
0.126,3.0800767586026874,-1.2468314531592732,-3.2467326172725746,0.0,20.538226464271116,16.719803879733888,300.1745832214269,287.8526898492453,0.0
0.127,2.9270939731648085,-1.271651594067561,-2.7350317577902428,0.0,20.28379756663323,16.54208040154131,298.2324961805703,287.8526898492453,0.0
0.128,2.821747419642373,-1.2946034689510542,-1.8677863006752111,0.0,20.03931571576798,16.457024666125122,295.89852775923214,287.8526898492453,0.0
0.129,2.7782137071904023,-1.3230577796040435,-0.7812604691059946,0.0,19.813676931870628,16.470606948899977,293.62899770767706,287.8526898492453,0.0
0.13,2.7979421647893274,-1.3606093964855694,0.2957414780872276,0.0,19.61580638939094,16.565266613422764,291.3437655489162,287.8526898492453,0.0
0.131,2.868036159343966,-1.40368080598742,1.4034468004709355,0.0,19.451551206487874,16.73423776841058,289.69921461374514,287.8526898492453,0.0
0.132,2.9871159532043055,-1.4416142523444968,2.207257020411478,0.0,19.324360622378162,16.934830523199825,292.0574887957137,287.8526898492453,0.0
0.133,3.126409223043513,-1.469271679061431,0.98607193996251,0.0,19.23261135463364,16.946145021306677,284.75485671239863,287.8526898492453,0.0
0.134,3.1666025071740975,-1.419220953953419,4.668366312988514,0.0,19.14538630944521,17.361389046109768,288.22238979952857,287.8526898492453,0.0
0.135,3.421767627388382,-1.4817187811966384,2.9309027699207126,0.0,19.11578343950376,17.470776000063722,280.9898255668086,287.8526898492453,0.0
0.136,3.545034854831321,-1.409532179026234,6.615813529105077,0.0,19.091514047440675,17.97797104675252,282.8577230499497,287.8526898492453,0.0
0.137,3.850067440007376,-1.488364021488902,5.731814455527472,0.0,19.12978446794537,18.265609731785798,281.6750221374941,287.8526898492453,0.0
0.138,4.086636084722733,-1.4295683734625535,6.38494158887277,0.0,19.185735875195412,18.58602334070307,274.5589038636913,287.8526898492453,0.0
0.139,4.31474810554147,-1.4033924784039584,10.0,0.0,19.265842110635987,19.248389247501233,277.55729550850157,287.8526898492453,0.0
0.14,4.73147390927344,-1.4747480816783864,8.67817793491943,0.0,19.41228518852309,19.627419457691182,277.8159303149028,287.8526898492453,0.0
0.14100000000000001,5.0210992927072065,-1.426232623098925,8.649228127062239,0.0,19.575936723163995,19.96553316229696,276.29775401717654,287.8526898492453,0.0
0.14200000000000002,5.286698312966872,-1.345675505339692,9.523865634246054,0.0,19.748658346433675,20.35638063538083,273.8727104741641,287.8526898492453,0.0
