timestamp,iq,id,iq_ref,id_ref,vq,vd,omega,omega_ref,r
0.0,0.0,0.0,0.0,0.0,0.0,0.0,0.0,409.8406052620172,0.0
0.001,0.0,0.0,10.0,0.0,0.0,1.0999999999999999,5.941329072400686,409.8406052620172,0.0
0.002,0.5478206139431934,-0.30929742560826773,10.0,0.0,0.14402271681690945,1.9297397324662484,10.704960315422104,409.8406052620172,0.0
0.003,1.322690304084279,-0.751456200548119,10.0,0.0,0.4021616261860536,2.6111503035914754,15.966674858537383,409.8406052620172,0.0
0.004,2.1599172027383697,-1.2291521213628858,10.0,0.0,0.7507526652710322,3.1658874465905558,21.316200255764112,409.8406052620172,0.0
0.005,2.953933596425857,-1.6823909652127242,10.0,0.0,1.1650376283627553,3.6210404448791413,26.75256539713211,409.8406052620172,0.0
0.006,3.647328313607538,-2.0781256342887087,10.0,0.0,1.6224078201340244,4.003773384694932,32.21507821840902,409.8406052620172,0.0
0.007,4.217545964162136,-2.403277244358462,10.0,0.0,2.1041236171266595,4.338180055317083,37.604061519419666,409.8406052620172,0.0
0.008,4.665168811555022,-2.6580847364708626,10.0,0.0,2.595885809513912,4.643781301868608,42.99053332785478,409.8406052620172,0.0
0.009000000000000001,5.004283478712035,-2.8507531031078206,10.0,0.0,3.0876773527265327,4.935172258090366,48.28463273366439,409.8406052620172,0.0
0.01,5.25563591840135,-2.992702747677287,10.0,0.0,3.57311661447634,5.222345651316953,53.41669914486975,409.8406052620172,0.0
0.011,5.441269333677022,-3.0963560510860244,10.0,0.0,4.04871165630309,5.511439480112434,58.53110498097934,409.8406052620172,0.0
0.012,5.581402483028382,-3.173386535107775,10.0,0.0,4.513093397035019,5.805625117935147,63.61203819489718,409.8406052620172,0.0
0.013000000000000001,5.693092619845953,-3.2332663676447586,10.0,0.0,4.966272004214877,6.1059457824923635,68.6521833272822,409.8406052620172,0.0
0.014,5.789507854059723,-3.2831821085613377,10.0,0.0,5.4090567503079265,6.412063466916502,73.52449864937215,409.8406052620172,0.0
0.015,5.88023216721781,-3.327758120948833,10.0,0.0,5.842578994187542,6.722832335402285,78.3419507550954,409.8406052620172,0.0
0.016,5.9712241129873505,-3.3702732306427206,10.0,0.0,6.268056802470224,7.036774670524379,83.09376390189577,409.8406052620172,0.0
0.017,6.066094154744428,-3.412029954809816,10.0,0.0,6.686549151998294,7.35234476782695,87.76126432745338,409.8406052620172,0.0
0.018000000000000002,6.166518989191272,-3.4532477202261997,10.0,0.0,7.098865663257943,7.668109058980488,92.24308275167688,409.8406052620172,0.0
0.019,6.272956230521171,-3.4932983967122753,10.0,0.0,7.505520349266284,7.982824723942818,96.67816818967995,409.8406052620172,0.0
0.02,6.385013917201128,-3.531277527140292,10.0,0.0,7.906758330752249,8.295472317888251,101.00147835270771,409.8406052620172,0.0
0.021,6.502150332003084,-3.5657239693793343,10.0,0.0,8.302546590826172,8.605214521826323,105.20725789242239,409.8406052620172,0.0
0.022,6.623640902599372,-3.595305117995881,10.0,0.0,8.69263970721194,8.911368732760408,109.28285203747483,409.8406052620172,0.0
0.023,6.74894026375363,-3.6186067651152105,10.0,0.0,9.0766063027495,9.213348810218656,113.21090005148454,409.8406052620172,0.0
0.024,6.877682150427551,-3.6343443686445016,10.0,0.0,9.453872366396158,9.510618925562245,116.97719475883842,409.8406052620172,0.0
0.025,7.0097276598164004,-3.6413618878242864,10.0,0.0,9.823753386286993,9.802651048570109,120.56782129936687,409.8406052620172,0.0
0.026000000000000002,7.145144951541507,-3.6386563415544098,10.0,0.0,10.185481731208048,10.088892614270394,123.9705513868974,409.8406052620172,0.0
0.027,7.28416791627167,-3.6253854873091247,10.0,0.0,10.538228659702742,10.368744504689694,127.17475803461835,409.8406052620172,0.0
0.028,7.427145463342345,-3.600866170922314,10.0,0.0,10.881121668129802,10.641548598386054,130.17122449707102,409.8406052620172,0.0
0.029,7.574491798315976,-3.564564639611194,10.0,0.0,11.213257809803432,10.906583262179094,132.96115970062837,409.8406052620172,0.0
0.03,7.726623374966881,-3.516114042951427,10.0,0.0,11.533717253369545,11.163067063678334,135.54697670171504,409.8406052620172,0.0
0.031,7.883917740605663,-3.4553071765648378,10.0,0.0,11.841574883393044,11.410167364930501,137.95144921895272,409.8406052620172,0.0
0.032,8.046694197114299,-3.382066402875222,10.0,0.0,12.13590836409741,11.647010932500239,140.2509896016248,409.8406052620172,0.0
0.033,8.215218207297664,-3.2963869451758336,10.0,0.0,12.415800520878285,11.872693614828355,142.69823839195178,409.8406052620172,0.0
0.034,8.390016209429675,-3.1977777469390753,10.0,0.0,12.68028151298483,12.08625470446906,144.5915186603946,409.8406052620172,0.0
0.035,8.573003653053568,-3.0833546343091833,10.0,0.0,12.928070064437872,12.28652714557904,141.45496253121763,409.8406052620172,0.0
0.036000000000000004,8.763095414095233,-2.9550115242162867,10.0,0.0,13.15813349387269,12.472470978444983,142.75191549551343,409.8406052620172,0.0
0.037,8.94362691119265,-2.8402662051381453,10.0,0.0,13.372446409652952,12.644869223897512,145.2635602033838,409.8406052620172,0.0
0.038,9.140122552898076,-2.6976848156072526,10.0,0.0,13.568031358742825,12.801649730766197,146.2939068639981,409.8406052620172,0.0
0.039,9.339281439925374,-2.5483889370615103,10.0,0.0,13.744739130865856,12.942368160701049,146.89923604673012,409.8406052620172,0.0
0.04,9.542302600692608,-2.3902562743350626,10.0,0.0,13.901946334655614,13.066344786040602,150.3019041169501,409.8406052620172,0.0
0.041,9.74850505474038,-2.2239948802927967,10.0,0.0,14.039123053882967,13.17299241088758,147.07082912950602,409.8406052620172,0.0
0.042,9.957937048220614,-2.04901855071318,10.0,0.0,14.155662081358955,13.261717450430258,145.52871308638322,409.8406052620172,0.0
0.043000000000000003,10.16581187282012,-1.8725519093273837,10.0,0.0,14.251758142784963,13.33245197799512,142.01093618850496,409.8406052620172,0.0
0.044,10.373662199470543,-1.6914391899360326,10.0,0.0,14.327160318105669,13.384937871260542,141.7472738836299,409.8406052620172,0.0
0.045,10.571326208423864,-1.5218117383883047,10.0,0.0,14.38342297274451,13.420050855013137,140.62819094865355,409.8406052620172,0.0
0.046,10.769657881965422,-1.3451064772578363,10.0,0.0,14.419829356085856,13.437438961854323,138.38644743568554,409.8406052620172,0.0
0.047,10.965264861764016,-1.16580348648706,10.0,0.0,14.436377635403694,13.437195445303082,138.3353037905539,409.8406052620172,0.0
0.048,11.151964181135423,-0.9933693502994458,10.0,0.0,14.434072010061708,13.420050253005897,138.03066677844035,409.8406052620172,0.0
0.049,11.332948975206111,-0.8217500133553255,10.0,0.0,14.413128642322212,13.386347683250158,136.52537555358438,409.8406052620172,0.0
0.05,11.501416038772748,-0.6616305650943577,10.0,0.0,14.375012408441837,13.33719950464442,138.73077586719398,409.8406052620172,0.0
0.051000000000000004,11.561859165296319,-0.673758605349053,10.0,0.0,14.338728258999545,13.284190447229287,139.7204277271181,409.8406052620172,0.0
0.052000000000000005,11.584882306539374,-0.7352704856123715,10.0,0.0,14.307416645186391,13.230925766339949,141.09183450761628,409.8406052620172,0.0
0.053,11.578835089602752,-0.8302432532836681,10.0,0.0,14.283741610306826,13.180751817433684,142.76550281517675,409.8406052620172,0.0
0.054,11.549618878694519,-0.9489252799433139,10.0,0.0,14.269521979280439,13.136381070960624,144.77905497301546,409.8406052620172,0.0
0.055,11.502791502062674,-1.083639607244792,10.0,0.0,14.26591899244595,13.099884285352664,146.50381087074553,409.8406052620172,0.0
0.056,11.44290262946425,-1.2293126310324851,10.0,0.0,14.273703515077749,13.072796381841544,147.88597264522,409.8406052620172,0.0
0.057,11.373407102402709,-1.3831253683069065,10.0,0.0,14.293463465957561,13.056241340195509,148.82574787057925,409.8406052620172,0.0
0.058,11.296345766733808,-1.544710783807881,10.0,0.0,14.325828185917155,13.051099589455024,149.43020876865424,409.8406052620172,0.0
0.059000000000000004,11.212649686606,-1.7153932326473234,10.0,0.0,14.37160147402407,13.058144441241915,150.05022811103228,409.8406052620172,0.0
0.06,11.124216142799245,-1.8943598169531315,10.0,0.0,14.431481418284228,13.07795286567827,152.8523728693259,409.8406052620172,0.0
0.061,11.032963834717119,-2.0801762815011573,10.0,0.0,14.506004355819226,13.110921860547972,156.6816219027435,409.8406052620172,0.0
0.062,10.943123029803836,-2.2666519000885756,10.0,0.0,14.595026052486826,13.157016215143848,161.33153476588794,409.8406052620172,0.0
0.063,10.859934479019776,-2.4450781696523505,10.0,0.0,14.6975171484134,13.215655636484001,161.80652542830433,409.8406052620172,0.0
0.064,10.776254680305916,-2.628293177374296,10.0,0.0,14.813992465035112,13.287053117633493,162.3031353088424,409.8406052620172,0.0
0.065,10.682968870244562,-2.832891042540619,10.0,0.0,14.946633613200676,13.372383023449812,168.76889743215168,409.8406052620172,0.0
0.066,10.597238423329564,-3.0284167003668565,10.0,0.0,15.09400548084054,13.470941544561093,172.87339250786215,409.8406052620172,0.0
0.067,10.520508159595284,-3.211257047543054,10.0,0.0,15.25465319543866,13.581964424866854,171.97623075252446,409.8406052620172,0.0
0.068,10.432659217097425,-3.416586023536584,10.0,0.0,15.431096210495072,13.706845869639267,179.02941525544162,409.8406052620172,0.0
0.069,10.346100572009412,-3.6222627311893603,10.0,0.0,15.622954216604953,13.845526432974783,183.28848306368033,409.8406052620172,0.0
0.07,10.272896964006579,-3.805741724387394,10.0,0.0,15.827620400612654,13.996711551017173,183.9761170451133,409.8406052620172,0.0
0.07100000000000001,10.183794837017691,-4.017987319782353,10.0,0.0,16.048450703585292,14.16231397354484,191.5096556543627,409.8406052620172,0.0
0.07200000000000001,10.109626737467906,-4.204303440871943,10.0,0.0,16.282130535879343,14.340706653797593,191.69675092247596,409.8406052620172,0.0
0.073,10.038240755661217,-4.38476814827071,10.0,0.0,16.528269609572227,14.531738826257715,198.53565686570667,409.8406052620172,0.0
0.074,9.957141708818837,-4.5811565411272746,10.0,0.0,16.788696069282064,14.736488724175704,203.0671386716895,409.8406052620172,0.0
0.075,9.895351633584578,-4.742303939273968,10.0,0.0,17.05931720268029,14.952792196080225,206.18378995772355,409.8406052620172,0.0
0.076,9.827952861586372,-4.910945205463069,10.0,0.0,17.34144563522848,15.181323398301576,210.64371503872312,409.8406052620172,0.0
0.077,9.775944741360783,-5.050804624443526,10.0,0.0,17.631912468169944,15.420261229060442,214.99510350232748,409.8406052620172,0.0
0.078,9.728554398036621,-5.180340905066289,10.0,0.0,17.930076797571857,15.669044816600973,218.84690441551692,409.8406052620172,0.0
0.079,9.696607849913281,-5.281421901381313,10.0,0.0,18.23312659957605,15.925806695187969,222.84989815614284,409.8406052620172,0.0
0.08,9.675014752236333,-5.363339003346972,10.0,0.0,18.539547680491594,16.189253141379915,225.71308053028423,409.8406052620172,0.0
0.081,9.674346742669012,-5.409129672069009,10.0,0.0,18.845889100474544,16.45685460111985,230.11727624820512,409.8406052620172,0.0
0.082,9.686436252006256,-5.433884928116449,10.0,0.0,19.150621695911198,16.726993530761316,229.83798438956154,409.8406052620172,0.0
0.083,9.733543588107072,-5.401732180479859,10.0,0.0,19.448110569967824,16.995530915104595,235.50892398446217,409.8406052620172,0.0
0.084,9.775857585597116,-5.381192806575384,10.0,0.0,19.7407664914,17.2627799820563,234.7774976591781,409.8406052620172,0.0
0.085,9.885095850587502,-5.25553133454503,10.0,0.0,20.017264359199824,17.52097666528202,235.87028117788137,409.8406052620172,0.0
0.08600000000000001,9.981933316126852,-5.1570722962957,10.0,0.0,20.28235822905512,17.77144372840572,237.55841270425051,409.8406052620172,0.0
0.08700000000000001,10.14613765148944,-4.957927361369957,10.0,0.0,20.52506806577792,18.00627936996809,235.0911876771827,409.8406052620172,0.0
0.088,10.312720127623086,-4.765272195326712,10.0,0.0,20.74778986406917,18.225220402025425,240.4456781482908,409.8406052620172,0.0
0.089,10.527802179434962,-4.506609213654537,10.0,0.0,20.94360720941353,18.422546309768194,232.15325691091846,409.8406052620172,0.0
0.09,10.76909556314267,-4.2184102118973925,10.0,0.0,21.110460150621165,18.59532990958138,231.6873009748888,409.8406052620172,0.0
0.091,11.016148536063987,-3.935358986748305,10.0,0.0,21.24965251294053,18.74275755034975,234.67008893538969,409.8406052620172,0.0
0.092,11.303689041971612,-3.601714403090629,10.0,0.0,21.355798011153936,18.860202737352594,230.1851587630557,409.8406052620172,0.0
0.093,11.618291897627463,-3.237151953713048,10.0,0.0,21.42630805465133,18.94478704641342,222.63562029607112,409.8406052620172,0.0
0.094,11.944687869098622,-2.8647829490042818,10.0,0.0,21.46091055868088,18.995206400612645,219.70673149503958,409.8406052620172,0.0
0.095,12.269894268660321,-2.504257881091884,10.0,0.0,21.46116068030412,19.011535325557816,217.20375665499614,409.8406052620172,0.0
0.096,12.607873920661111,-2.1305931126427735,10.0,0.0,21.425520808409274,18.99233067244633,216.4313198820937,409.8406052620172,0.0
0.097,12.948313245723321,-1.756576940647637,10.0,0.0,21.354119327157786,18.937413968219666,212.74211174888546,409.8406052620172,0.0
0.098,13.293431071619914,-1.3745761750864705,10.0,0.0,21.246086401117015,18.84629021869252,207.8546929965923,409.8406052620172,0.0
0.099,13.627751667166256,-1.005549843463668,10.0,0.0,21.1029715039047,18.720151464262884,202.72379963383008,409.8406052620172,0.0
0.1,13.947642722288426,-0.6517647829098138,10.0,0.0,20.92632812762597,18.560470285446996,197.37632693211648,409.8406052620172,0.0
0.101,14.250483315450369,-0.3137007864766499,10.0,0.0,20.717731782091402,18.368979332188243,198.94316188417127,409.8406052620172,0.0
0.10200000000000001,14.513988304948322,-0.025294650799768933,10.0,0.0,20.4825019408243,18.149820696788748,197.6304660336634,409.8406052620172,0.0
0.10300000000000001,14.551048157384889,-0.092672984412346,10.0,0.0,20.2591748981981,17.927613406929442,198.02729427552828,409.8406052620172,0.0
0.10400000000000001,14.517145338207321,-0.24758779572810885,10.0,0.0,20.0523266767572,17.709394050427353,198.81548507524326,409.8406052620172,0.0
0.105,14.423819529546844,-0.4649714991958406,10.0,0.0,19.86670440107848,17.502238618192262,199.783244661988,409.8406052620172,0.0
0.106,14.283334103350144,-0.7241225949824952,10.0,0.0,19.70526159324597,17.311756640407832,200.9838772605313,409.8406052620172,0.0
0.107,14.106819105428924,-1.0100886798188617,10.0,0.0,19.569779626792407,17.14219037512796,202.43188952899868,409.8406052620172,0.0
0.108,13.904006411147348,-1.3125548677307675,10.0,0.0,19.46130085027816,16.99657678612249,204.1508258391912,409.8406052620172,0.0
0.109,13.683231339802607,-1.6245123646853008,10.0,0.0,19.380399255300667,16.876933809271247,205.98577547947653,409.8406052620172,0.0
0.11,13.450736304995539,-1.942482039509454,10.0,0.0,19.32748061139691,16.784531673722704,208.07811210590364,409.8406052620172,0.0
0.111,13.212755034675322,-2.2621754955015607,10.0,0.0,19.302600201739573,16.719930876725797,210.19774628453473,409.8406052620172,0.0
0.112,12.971952160915706,-2.584346244513861,10.0,0.0,19.3059896011797,16.6834106218732,212.55357764880014,409.8406052620172,0.0
0.113,12.732219221976543,-2.9062864924671343,10.0,0.0,19.3375797549753,16.674843926995585,216.02360072984936,409.8406052620172,0.0
0.114,12.494322295150097,-3.2294451859747833,10.0,0.0,19.397482277709877,16.694064249546813,220.88000601585543,409.8406052620172,0.0
0.115,12.268900190677883,-3.5364466975259083,10.0,0.0,19.483855159761674,16.73977025434005,221.98436692207625,409.8406052620172,0.0
0.116,12.046687329915889,-3.843955489124344,10.0,0.0,19.59691730604794,16.81173214049825,227.47990003217802,409.8406052620172,0.0
0.117,11.826553730484337,-4.154213866591441,10.0,0.0,19.736922759926777,16.909796619999103,231.9456533172306,409.8406052620172,0.0
0.11800000000000001,11.629271846158101,-4.429804274105409,10.0,0.0,19.89994647741969,17.031554868219317,233.63161517495024,409.8406052620172,0.0
0.11900000000000001,11.427626984664585,-4.717269766778545,10.0,0.0,20.08770894810424,17.177647779287838,240.8352309927533,409.8406052620172,0.0
0.12,11.248571198165346,-4.9689362606001595,10.0,0.0,20.29611312222083,17.34558733421793,240.38662884960215,409.8406052620172,0.0
0.121,11.079863756600297,-5.204746663347815,10.0,0.0,20.523893313782796,17.534340611773846,248.24056303768506,409.8406052620172,0.0
0.122,10.923762151488436,-5.4205037437999035,10.0,0.0,20.76914598876641,17.74248068287701,250.61538277601775,409.8406052620172,0.0
0.123,10.79280810812999,-5.594310874735955,10.0,0.0,21.027648616960434,17.96717594308654,255.3328996656455,409.8406052620172,0.0
0.124,10.67707673214198,-5.7434720442886205,10.0,0.0,21.297440165697424,18.206672851019608,258.3481582275483,409.8406052620172,0.0
0.125,10.595342427497277,-5.836995901313713,10.0,0.0,21.57299826293127,18.457032682784106,262.9126366625139,409.8406052620172,0.0
0.126,10.525886793942643,-5.9132971461036545,10.0,0.0,21.853494431974816,18.71673511774011,262.14633165518063,409.8406052620172,0.0
0.127,10.517770722414031,-5.892089886998344,10.0,0.0,22.12881541666013,18.97871513763747,264.9633121420415,409.8406052620172,0.0
0.128,10.508006437341106,-5.881240957307302,10.0,0.0,22.40182099519168,19.243022164656345,267.33374093458764,409.8406052620172,0.0
0.129,10.574474426381862,-5.755222796905585,10.0,0.0,22.66020321022469,19.50078992518129,265.00453329846545,409.8406052620172,0.0
0.13,10.65240596954589,-5.6234582458274645,10.0,0.0,22.90529006079231,19.7507113412994,269.0303868991693,409.8406052620172,0.0
0.131,10.799469285092908,-5.395627631310042,10.0,0.0,23.127116645828856,19.98475165158393,263.0086755024584,409.8406052620172,0.0
0.132,10.97804492924458,-5.135355491825196,10.0,0.0,23.323812974192034,20.19939790164245,264.6349359900528,409.8406052620172,0.0
0.133,11.192944432108982,-4.838451104716494,10.0,0.0,23.492247533537636,20.390395970657863,265.4434001494925,409.8406052620172,0.0
0.134,11.470194212572974,-4.464149452192517,10.0,0.0,23.624734305943672,20.5507892078839,256.59212202405473,409.8406052620172,0.0
0.135,11.768041295748608,-4.08027321772149,10.0,0.0,23.721528355565134,20.678401117283258,254.25083506984518,409.8406052620172,0.0
0.136,12.091331974084108,-3.680039854003903,10.0,0.0,23.78121728350016,20.770347736919685,256.6210225072436,409.8406052620172,0.0
0.137,12.453471833688235,-3.240138752052757,10.0,0.0,23.79974519302787,20.82246610961286,250.4094501449988,409.8406052620172,0.0
0.138,12.847014134062523,-2.76871908227088,10.0,0.0,23.774174996215645,20.831557181544365,244.01862532575308,409.8406052620172,0.0
0.139,13.24616119142968,-2.3033861640764766,10.0,0.0,23.705598501974226,20.797211373294864,238.32590633062972,409.8406052620172,0.0
0.14,13.648827544308794,-1.8435913776035386,10.0,0.0,23.594520979001906,20.719140668203124,233.46318514264843,409.8406052620172,0.0
0.14100000000000001,14.052132509806347,-1.3886413325870093,10.0,0.0,23.44129758073057,20.5974323986474,228.24192532336605,409.8406052620172,0.0
0.14200000000000002,14.445835462073841,-0.949162009232321,10.0,0.0,23.24743247021194,20.433298341125656,222.5443297713442,409.8406052620172,0.0
0.14300000000000002,14.82554382437174,-0.526296199437807,10.0,0.0,23.014420019149142,20.228360287974123,215.63825000018682,409.8406052620172,0.0
0.14400000000000002,15.186680712538315,-0.12139182452570374,10.0,0.0,22.743904184735086,19.98468682095613,213.22601924833262,409.8406052620172,0.0
0.145,15.452351204691489,0.14152505881185107,10.0,0.0,22.451200773642636,19.712716731943345,216.2941174338289,409.8406052620172,0.0
0.146,15.487109281032392,0.04952209651822148,10.0,0.0,22.17332018944382,19.437506627246623,218.05913872807255,409.8406052620172,0.0
0.147,15.431466282047875,-0.15259884727460182,10.0,0.0,21.917019927389493,19.168497785251404,219.30086957346,409.8406052620172,0.0
0.148,15.30525450453215,-0.42525724972722045,10.0,0.0,21.687420022172926,18.91408666678715,220.4105910854648,409.8406052620172,0.0
0.149,15.123178987004916,-0.7439046999382519,10.0,0.0,21.487663631130285,18.680922858800514,221.5403319102806,409.8406052620172,0.0
0.15,14.898116937824971,-1.0918065067837572,10.0,0.0,21.31964922264414,18.474035862742788,222.88277400867102,409.8406052620172,0.0
