timestamp,iq,id,iq_ref,id_ref,vq,vd,omega,omega_ref,r
0.0,0.0,0.0,0.0,0.0,0.0,0.0,0.0,69.3002599224432,0.0
0.001,0.0,0.0,10.0,0.0,0.0,1.0999999999999999,10.074047996398095,69.3002599224432,0.0
0.002,0.34398754190859837,-0.19364594220463968,10.0,0.0,0.13130105364251027,1.9521613703900536,17.334463991366153,69.3002599224432,0.0
0.003,0.742323233076986,-0.4156620356418031,10.0,0.0,0.35717344981581667,2.6918596584959174,25.759370002186596,69.3002599224432,0.0
0.004,1.1114198377151439,-0.6228030164320791,10.0,0.0,0.6549937821349373,3.343558087810011,34.29991240280001,69.3002599224432,0.0
0.005,1.4274500412244793,-0.7984670918346785,10.0,0.0,1.0054535626399383,3.9287963510849626,43.04245096024318,69.3002599224432,0.0
0.006,1.6886424281265173,-0.9429588294005204,10.0,0.0,1.3935286418001513,4.464985905558787,51.90536597387874,69.3002599224432,0.0
0.007,1.9026090658415926,-1.0604235542167288,9.959261119147804,0.0,1.8078913708458497,4.960958329327874,60.793220257239014,69.3002599224432,0.0
0.008,2.077476610287884,-1.1554905214887754,5.600404374119708,0.0,2.2396977885156506,4.952607166968108,65.27472039988814,69.3002599224432,0.0
0.009000000000000001,2.0745040196929354,-1.149439903744354,3.3999096980206964,0.0,2.625872210557887,4.791881576100599,68.6902416368813,69.3002599224432,0.0
0.01,1.9518690225486204,-1.0763750238836183,1.6982492623797365,0.0,2.9493800007019133,4.534128409144473,70.46611612136611,69.3002599224432,0.0
0.011,1.7576149123311013,-0.96085237156587,0.7986534581480993,0.0,3.202784852179578,4.272704005941775,71.50062175429235,69.3002599224432,0.0
0.012,1.5423120035748572,-0.8337035606953671,0.2593970233664873,0.0,3.391875635516629,4.0341810572844645,71.20922159454648,69.3002599224432,0.0
0.013000000000000001,1.3375888027835203,-0.710130455010236,0.3860074865183929,0.0,3.525883492137586,3.8781057201206006,72.07053012810302,69.3002599224432,0.0
0.014,1.1686850571587295,-0.6163069223882964,-0.07234948231647476,0.0,3.6217981718484964,3.7158855111426785,71.98506277733554,69.3002599224432,0.0
0.015,1.0285193616117234,-0.5261531189261945,-0.05646383548166156,0.0,3.6829206796359135,3.599538970927739,71.16217044784653,69.3002599224432,0.0
0.016,0.9153265233965737,-0.46054536664061724,0.33636322400880925,0.0,3.7199809679063014,3.555041010836836,72.23361991053761,69.3002599224432,0.0
0.017,0.8433220549744173,-0.4172242541536192,-0.22869510721767372,0.0,3.7447761864898474,3.4594027516965307,70.78579588242862,69.3002599224432,0.0
0.018000000000000002,0.7785401535034486,-0.37256761187824755,0.48036154723697067,0.0,3.7530490377755865,3.46586062010847,70.923576856732,69.3002599224432,0.0
0.019,0.7464472739505155,-0.35575755717521046,0.39523789074239146,0.0,3.7597378511793655,3.4589282157849546,71.33341096143047,69.3002599224432,0.0
0.02,0.7308972348208814,-0.33984243269895253,0.16998932800328093,0.0,3.7634819796650576,3.4308214034065396,70.3127052355657,69.3002599224432,0.0
0.021,0.7134659801867217,-0.326582588261765,0.670217737804442,0.0,3.76274158242101,3.4649392334385176,71.07988632774827,69.3002599224432,0.0
0.022,0.7145387912722181,-0.3271509944607599,0.2688309276601075,0.0,3.765682131030827,3.4461240857632567,70.6407926197787,69.3002599224432,0.0
0.023,0.7119155204051685,-0.3159805214511325,0.4749724546715406,0.0,3.7652126739190868,3.456473231695435,70.06412575394162,69.3002599224432,0.0
0.024,0.7112865116006937,-0.3150489565515838,0.7556672292750908,0.0,3.765834309702884,3.49459848551932,70.9599112059146,69.3002599224432,0.0
0.025,0.7233351603669974,-0.31786653418604416,0.29117799045389225,0.0,3.770525556479477,3.4737409720704906,70.07145536554383,69.3002599224432,0.0
0.026000000000000002,0.7237691963837006,-0.3089627933189231,0.7276939562082696,0.0,3.771654339961799,3.5081727257912227,70.1147177756173,69.3002599224432,0.0
0.027,0.7312430382478015,-0.31398014845243166,0.6979181726397949,0.0,3.7767543669413204,3.530815904393154,70.8131230449225,69.3002599224432,0.0
0.028,0.7432846527068081,-0.313275051419482,0.333586906762396,0.0,3.7834809748581213,3.510676247250166,69.64986956831251,69.3002599224432,0.0
0.029,0.7425049416599271,-0.3047143755445805,0.9117175486087006,0.0,3.786586332893035,3.5606670842347707,70.28689447021118,69.3002599224432,0.0
0.03,0.754218784133175,-0.3120231637330371,0.5833387521816857,0.0,3.795269812282397,3.5627700795164445,70.66953374781544,69.3002599224432,0.0
0.031,0.7626476707582087,-0.30620895321090946,0.37832637512583567,0.0,3.8025825922216727,3.5454535105929943,69.63240287061048,69.3002599224432,0.0
0.032,0.7598707169716835,-0.297947357555458,0.8935703842466425,0.0,3.8065818038577954,3.589716595112431,70.19282784436494,69.3002599224432,0.0
0.033,0.7700593865021373,-0.30240819731279156,0.6044322181501924,0.0,3.8151807111121117,3.5918471307955038,70.43460054072476,69.3002599224432,0.0
0.034,0.7779508977754617,-0.29543394029644654,0.47220246378746844,0.0,3.8223210045399307,3.582204432772003,69.46704532660392,69.3002599224432,0.0
0.035,0.7774056242456256,-0.28819442185752114,0.954312216806279,0.0,3.8270563943645017,3.6287332994703503,69.98925278849217,69.3002599224432,0.0
0.036000000000000004,0.7895323739832386,-0.2931141528694936,0.6863185572016679,0.0,3.836584697472156,3.635443023188185,70.31552389905542,69.3002599224432,0.0
0.037,0.7998193472650493,-0.28690923524906664,0.5130303621539181,0.0,3.8450994043924602,3.625042540422173,69.30227205210461,69.3002599224432,0.0
0.038,0.8005150844312915,-0.27899456895807095,1.0196361643327083,0.0,3.8509140282283294,3.6740194354594684,69.61971713165798,69.3002599224432,0.0
0.039,0.8136095773544606,-0.2844777096841892,0.8577190524638776,0.0,3.8617271713271233,3.694369726199377,70.37088639306795,69.3002599224432,0.0
0.04,0.8284250693635216,-0.28089729428983407,0.47142815705264507,0.0,3.8730453520893886,3.6713947156068607,69.32408737276772,69.3002599224432,0.0
0.041,0.8280414157442011,-0.2699325280328586,0.9945893926995135,0.0,3.8797638935818517,3.713450025843306,69.0760812539603,69.3002599224432,0.0
0.042,0.8387176956245793,-0.27248287974633084,1.120834238788055,0.0,3.890406298299766,3.759448752595591,70.00330373124835,69.3002599224432,0.0
0.043000000000000003,0.8588757632343237,-0.2748943259836001,0.6501925620559761,0.0,3.9048240907900804,3.7467681896047544,69.7933484471615,69.3002599224432,0.0
0.044,0.8654590097022821,-0.2652185054540267,0.7502393188522158,0.0,3.9154435930116547,3.7519864457415624,68.85582171277815,69.3002599224432,0.0
0.045,0.868537793349802,-0.25970613594583786,1.2234470681405434,0.0,3.925013368184148,3.808524377604054,69.33802726142122,69.3002599224432,0.0
0.046,0.8864520193017797,-0.2645639503160562,0.9819666204292306,0.0,3.9398694423014455,3.827130790038176,69.99997887530515,69.3002599224432,0.0
0.047,0.901672749258394,-0.2616432555107244,0.6439936239586466,0.0,3.954730695678138,3.8091048054702563,69.36955785597578,69.3002599224432,0.0
0.048,0.9045486306668474,-0.24873037237365453,0.9585111542880015,0.0,3.9649120150633443,3.8321800633423684,68.40515207964549,69.3002599224432,0.0
0.049,0.9109745832446761,-0.24639161997298953,1.4496651208811262,0.0,3.9762545943645393,3.9041695924182642,69.34427988585591,69.3002599224432,0.0
0.05,0.936253267785596,-0.2533840196139139,0.9796610181417882,0.0,3.9944544201277123,3.9107660397757087,69.8540634030907,69.3002599224432,0.0
0.051000000000000004,0.9505774388994861,-0.2493652613961565,0.7192312247179161,0.0,4.01098192064995,3.8932527167473756,69.37458577867525,69.3002599224432,0.0
0.052000000000000005,0.9532727504601355,-0.23582439448610093,0.9582267783633217,0.0,4.022656031039203,3.9078840423487975,68.37140818654449,69.3002599224432,0.0
0.053,0.9578260520396923,-0.23038298731445206,1.469104091787693,0.0,4.034162716829891,3.975552285311086,68.85385133053623,69.3002599224432,0.0
0.054,0.9807076589196632,-0.2361539063608908,1.2323466057108905,0.0,4.051974773504563,4.003980832212522,69.44526101759298,69.3002599224432,0.0
0.055,1.0008677956742569,-0.23584545699453602,0.9351917512310159,0.0,4.07075684058115,3.999039471985057,69.63583639828025,69.3002599224432,0.0
0.056,1.0096743716769951,-0.2264788106393935,0.8365482961290136,0.0,4.086139318321927,3.9878241009788207,68.8014901116334,69.3002599224432,0.0
0.057,1.0106501947804154,-0.21481242088708297,1.258709137560536,0.0,4.097672374778802,4.026673367174423,68.19261426716874,69.3002599224432,0.0
0.058,1.0232704106671828,-0.21302829029283105,1.574223516345612,0.0,4.111857461741705,4.091897520131688,68.72499994067523,69.3002599224432,0.0
0.059000000000000004,1.0498135444227101,-0.2184518387613954,1.3137832794100435,0.0,4.131760886941528,4.117420654084513,69.18196023642483,69.3002599224432,0.0
0.06,1.070680441837631,-0.21750552565182557,1.0864861283954292,0.0,4.152067953089914,4.1179536055416985,69.44300146995876,69.3002599224432,0.0
0.061,1.0810148497413188,-0.2097777982721275,0.9545380961533083,0.0,4.169557020888508,4.10729454053626,69.12510678193391,69.3002599224432,0.0
0.062,1.084108737301411,-0.19679564633946622,1.1152369715708264,0.0,4.182880515967902,4.118209661877,68.36282585229245,69.3002599224432,0.0
0.063,1.0900637565027322,-0.18799327932467474,1.5057517770930655,0.0,4.195124734821132,4.170091147208333,67.6719128943699,69.3002599224432,0.0
0.064,1.109666782325166,-0.18933532910123246,1.8674917263350732,0.0,4.211568329467741,4.251798369604799,68.3587197448251,69.3002599224432,0.0
0.065,1.145162035193121,-0.19800479961818063,1.533503702883655,0.0,4.235478508148436,4.2829146995969545,68.76968642880846,69.3002599224432,0.0
0.066,1.1716558870047562,-0.19911002946202133,1.3333260958283222,0.0,4.2601441825379265,4.292071386745788,68.93943140079683,69.3002599224432,0.0
0.067,1.186652544572372,-0.1939505605296165,1.2520618950505962,0.0,4.282680364322351,4.294456992789372,69.13015311777531,69.3002599224432,0.0
0.068,1.1950290912264723,-0.18477440142837037,1.1584021046080386,0.0,4.302243705720876,4.288596267909859,69.15440125569278,69.3002599224432,0.0
0.069,1.198855949348844,-0.17210577639511515,1.147736622316809,0.0,4.317962853328954,4.28470415558362,68.55615982204803,69.3002599224432,0.0
0.07,1.2014018818757497,-0.1597019686227545,1.4542983401431333,0.0,4.330483142338973,4.316359829037886,68.08681733440856,69.3002599224432,0.0
0.07100000000000001,1.2153353456831293,-0.15351932412902014,1.7011040098432126,0.0,4.34436091697683,4.368677748842931,67.43167352429569,69.3002599224432,0.0
0.07200000000000001,1.2400784338207187,-0.15459502318831503,2.0473617788811254,0.0,4.362262859472863,4.450189546971363,67.75600948847665,69.3002599224432,0.0
0.073,1.2784685341778954,-0.16306320160562576,1.900636301130311,0.0,4.387446530167448,4.501762499135674,68.02830619283378,69.3002599224432,0.0
0.074,1.313200092318233,-0.16769475466473194,1.777207486247839,0.0,4.415693918061336,4.535150037901584,68.10479060440737,69.3002599224432,0.0
0.075,1.339931123686627,-0.16756825598156389,1.7509199736414034,0.0,4.444395090656686,4.563773125473288,68.17720835121105,69.3002599224432,0.0
0.076,1.3617354305530984,-0.1642371964752587,1.725941615951885,0.0,4.472723303190809,4.587788113885946,68.71421680549079,69.3002599224432,0.0
0.077,1.3778157059033214,-0.1626058266321989,1.4632978199815376,0.0,4.500474053225111,4.5820426035110495,69.48976243923843,69.3002599224432,0.0
0.078,1.3783205408224362,-0.1631908657408736,1.0736299779397653,0.0,4.524955845218879,4.53951496542458,70.2395689941262,69.3002599224432,0.0
0.079,1.3607726724107674,-0.15892431760584613,0.6893336097790508,0.0,4.5422615235186825,4.467247662143346,70.86760464958552,69.3002599224432,0.0
0.08,1.3275417961806275,-0.1471753720693999,0.3596423347779707,0.0,4.549360185132726,4.374994498152905,70.68246237458779,69.3002599224432,0.0
0.081,1.2820877834538134,-0.130760889169536,0.4383914477553901,0.0,4.544835560522698,4.309303464538088,70.48011195701964,69.3002599224432,0.0
0.082,1.2409867165823172,-0.11883197165257042,0.5277681361936959,0.0,4.533046258914326,4.262839593650785,70.36598835634764,69.3002599224432,0.0
0.083,1.2092040479770603,-0.11276644423616322,0.5741726521906527,0.0,4.517241581537424,4.22713899244452,70.25244685502066,69.3002599224432,0.0
0.084,1.1855160303371926,-0.11175988504033108,0.6214215335283668,0.0,4.499397245540207,4.2004491706627025,70.21259073595485,69.3002599224432,0.0
0.085,1.1687221606525267,-0.11450061605078188,0.6322262849261588,0.0,4.480979906967638,4.17697037678864,70.19912683175794,69.3002599224432,0.0
0.08600000000000001,1.156073270730923,-0.11945868655409031,0.629969567931467,0.0,4.462574403310182,4.154864881255865,70.19653944840505,69.3002599224432,0.0
0.08700000000000001,1.145644475964879,-0.12557914144358728,0.6223004643482932,0.0,4.444422569798003,4.133329029211465,70.19917477130399,69.3002599224432,0.0
0.088,1.136272760097442,-0.13222687919666803,0.6119936544102156,0.0,4.426602381036547,4.112001121760691,70.20423667689452,69.3002599224432,0.0
0.089,1.1273061800414712,-0.13904908211706607,0.6004229340704339,0.0,4.409115385349872,4.090746881688335,70.20997944714172,69.3002599224432,0.0
0.09,1.1184084494219793,-0.14586634304514445,0.588454353699851,0.0,4.391933341897514,4.069557613984764,70.21501001815707,69.3002599224432,0.0
0.091,1.1094303263904057,-0.15260184537570376,0.5767915672350354,0.0,4.375023308667115,4.04850446422617,70.21782617555704,69.3002599224432,0.0
0.092,1.1003321761829266,-0.15924030713122433,0.5662078260039158,0.0,4.358361839553697,4.0277290577421265,70.21634285732928,69.3002599224432,0.0
0.093,1.091141619518552,-0.1658101888210099,0.5577886557689327,0.0,4.34194527907154,4.007464753412616,70.16013035396682,69.3002599224432,0.0
0.094,1.0819040474842678,-0.1724419268303024,0.5772962031349262,0.0,4.32580773656877,3.990739472737575,70.29628857951667,69.3002599224432,0.0
0.095,1.0734690071884652,-0.1799377881565391,0.4992568037892673,0.0,4.310369647614567,3.9661290351902774,70.37514179678192,69.3002599224432,0.0
0.096,1.0631132114140134,-0.1856029438861565,0.4490813764132561,0.0,4.29456253231805,3.9387517166166153,70.4780366259649,69.3002599224432,0.0
0.097,1.0510968962226581,-0.18978055665780624,0.38585619478654587,0.0,4.278001282541404,3.907296639378793,70.51279364358984,69.3002599224432,0.0
0.098,1.036981162441064,-0.192816020198804,0.35635234876260913,0.0,4.260242774880432,3.8761503412047853,70.40354084713253,69.3002599224432,0.0
0.099,1.0220553019298158,-0.19563925402350257,0.39994593774437204,0.0,4.2414256892534645,3.8529338426487367,70.2780249218734,69.3002599224432,0.0
0.1,1.0091487548348117,-0.20023020299147232,0.4529262503796385,0.0,4.222645434381819,3.836819645460994,70.28900006635969,69.3002599224432,0.0
0.101,0.9993288515891285,-0.20678740627981768,0.4375512766973261,0.0,4.2048071681506025,3.81916891615953,70.40303564712168,69.3002599224432,0.0
0.10200000000000001,0.990420611783638,-0.21338050726445323,0.36950572906954493,0.0,4.187647324687786,3.795049880009005,70.68712823460102,69.3002599224432,0.0
0.10300000000000001,0.9809106877975535,-0.21653339122579812,0.21359075220829893,0.0,4.1700724481821005,3.756113580389206,70.30124179775238,69.3002599224432,0.0
0.10400000000000001,0.9648542485849982,-0.21840398834825592,0.3965241518795254,0.0,4.150535666208862,3.7426663558867874,70.16773369909497,69.3002599224432,0.0
0.105,0.9540786084121454,-0.22451619653183424,0.45460346344171554,0.0,4.132261476911674,3.7341943219393006,70.45381727904703,69.3002599224432,0.0
0.106,0.9474233760845437,-0.23241788423473586,0.3000260998996458,0.0,4.115775566714938,3.707782088505905,70.73338420557133,69.3002599224432,0.0
0.107,0.9382726835034172,-0.2346864473428854,0.14591139380621632,0.0,4.098467549259406,3.6678956672219654,70.16440407883012,69.3002599224432,0.0
0.108,0.9217093844901262,-0.23589021033516167,0.42176001561295184,0.0,4.079011419719099,3.663882037746192,70.10814691037378,69.3002599224432,0.0
0.109,0.9133750727393044,-0.2432500315292661,0.44180972996181644,0.0,4.061897082886678,3.6585222819267305,70.89762738183452,69.3002599224432,0.0
0.11,0.9087696517860508,-0.25121287232141293,0.031095819637528832,0.0,4.0467605184307445,3.607031293914162,70.41451988091868,69.3002599224432,0.0
0.111,0.8923424630760279,-0.2484417294697695,0.26150697051069893,0.0,4.0276040574975465,3.5903890505051193,69.90493598028934,69.3002599224432,0.0
0.112,0.8795999286643292,-0.25207571402803447,0.5102521602469064,0.0,4.009126468046691,3.5997906516041,70.23659177108426,69.3002599224432,0.0
0.113,0.8771436548125595,-0.2620408422443857,0.33506094636303285,0.0,3.994496621909033,3.5847886130030844,70.60017738372677,69.3002599224432,0.0
0.114,0.8729973149840535,-0.2663275467070128,0.1402689654289424,0.0,3.980201442733764,3.550580122527112,70.06789599072287,69.3002599224432,0.0
0.115,0.8601937413298129,-0.2676953071037469,0.39873330124809514,0.0,3.964022519027442,3.55010888963434,70.0579951275984,69.3002599224432,0.0
0.116,0.8538576076305036,-0.27486060423102776,0.3961063807587789,0.0,3.9501888694825085,3.545762222018579,70.88476112895029,69.3002599224432,0.0
0.117,0.8509281587132269,-0.2797597824432382,-0.0331216319822345,0.0,3.937771174762561,3.4935369220571877,69.94324505544112,69.3002599224432,0.0
0.11800000000000001,0.8328115715058104,-0.2774116582490893,0.4312065534423679,0.0,3.92106543407499,3.502624293247701,70.03035929499447,69.3002599224432,0.0
0.11900000000000001,0.8268799984846001,-0.2848305580550049,0.3803484399401833,0.0,3.9077785647958208,3.499365986071179,70.741272545899,69.3002599224432,0.0
0.12,0.8247997577399808,-0.28887886951441827,0.010481688253362709,0.0,3.8958656769893927,3.4550975718855588,69.86157342476322,69.3002599224432,0.0
0.121,0.8089576044737063,-0.2881120385342883,0.4447181137980487,0.0,3.8805924020226383,3.467251219116487,70.14839870497764,69.3002599224432,0.0
0.122,0.8052019295033561,-0.29551489582169643,0.29282408586549646,0.0,3.8688838018870664,3.4558661695136936,70.36927284390816,69.3002599224432,0.0
0.123,0.8009724240058327,-0.2981727400546802,0.17169688718558396,0.0,3.857425891097525,3.4330714021371813,69.95700002924389,69.3002599224432,0.0
0.124,0.79103569480574,-0.299870862458886,0.3712658934497157,0.0,3.8449945096714226,3.4356249282522553,70.13746091794846,69.3002599224432,0.0
0.125,0.7866366043761972,-0.3056953919452119,0.27266343914237656,0.0,3.8346853360188904,3.4242225362320133,70.32451270164476,69.3002599224432,0.0
0.126,0.7816581289061014,-0.3075860504132995,0.16889501950220853,0.0,3.824416567666213,3.4030046058286096,69.95329207772349,69.3002599224432,0.0
0.127,0.7717672060425673,-0.3086554028684003,0.34797500991004315,0.0,3.813151605293843,3.404656291531832,70.14848835667267,69.3002599224432,0.0
0.128,0.7671074557721002,-0.3132768610976466,0.24189458609315695,0.0,3.8036759746096993,3.3919703292046743,70.21700646154325,69.3002599224432,0.0
0.129,0.7613210640640506,-0.31432224148170906,0.1984680682668678,0.0,3.7939480880212084,3.376479192904276,69.99244239880584,69.3002599224432,0.0
0.13,0.7528363917161927,-0.31561584771086537,0.30382827487194874,0.0,3.7837757193428945,3.3744637195210747,70.10925107204535,69.3002599224432,0.0
0.131,0.7479283054504393,-0.3185256995906376,0.23733402675616821,0.0,3.7747261878385734,3.363719630015328,70.0753256921618,69.3002599224432,0.0
0.132,0.7420239151640863,-0.3198519531752366,0.24654605900076,0.0,3.765623989909619,3.35542366440663,70.05889535412749,69.3002599224432,0.0
0.133,0.7359913180445609,-0.3216473478996427,0.24717487370107294,0.0,3.756786646096528,3.3476286666407784,70.03872510415086,69.3002599224432,0.0
0.134,0.7303925274870008,-0.32298714911652715,0.24987534687231128,0.0,3.748182961074774,3.3405757391621713,69.95080127241,69.3002599224432,0.0
0.135,0.7251548923489314,-0.32421663422419517,0.2873318492430693,0.0,3.7398561971570095,3.337981098417934,69.84638906126276,69.3002599224432,0.0
0.136,0.7212063866856635,-0.3264909489034041,0.3340766634284983,0.0,3.7323405253202346,3.3399625691646118,70.219126171176,69.3002599224432,0.0
0.137,0.719574078522335,-0.32911884363296506,0.13851944598454757,0.0,3.7260408930152655,3.31915565243359,69.77648661239645,69.3002599224432,0.0
