timestamp,iq,id,iq_ref,id_ref,vq,vd,omega,omega_ref,r
0.0,0.0,0.0,0.0,0.0,0.0,0.0,0.0,61.63756281135369,0.0
0.001,0.0,0.0,10.0,0.0,0.0,1.0999999999999999,5.23044204262762,61.63756281135369,0.0
0.002,0.6780653055248703,-0.3886551073087111,10.0,0.0,0.15275206180395823,1.9154128163922641,9.547069563412947,61.63756281135369,0.0
0.003,1.224647322231057,-0.7024256970796238,10.0,0.0,0.4023984128684603,2.611216188543266,14.240043831213196,61.63756281135369,0.0
0.004,1.6438053101471026,-0.9423891564415963,10.0,0.0,0.71991874067372,3.2217623000819144,19.05400062111484,61.63756281135369,0.0
0.005,1.967212378098981,-1.1273092446955821,10.0,0.0,1.0846832219666374,3.771622635651678,23.95939058345555,61.63756281135369,0.0
0.006,2.2219016323775556,-1.2727667671215281,10.0,0.0,1.4821084152715542,4.278191638502633,28.938392828686567,61.63756281135369,0.0
0.007,2.427566533590026,-1.3902673389085012,10.0,0.0,1.9019184772033815,4.753770013808397,33.944948410896295,61.63756281135369,0.0
0.008,2.5984422433424266,-1.4875597802513265,10.0,0.0,2.3368325333024447,5.20703187871613,38.868774063227804,61.63756281135369,0.0
0.009000000000000001,2.744375450516956,-1.5704607798615546,10.0,0.0,2.78172755582607,5.644115067051319,43.93311912295695,61.63756281135369,0.0
0.01,2.8721345745960614,-1.6433624277909122,10.0,0.0,3.2330315662069804,6.069385267228397,48.88169183811839,61.63756281135369,0.0
0.011,2.9871612354572346,-1.7081909560346205,8.26332163837703,0.0,3.688134317195021,6.2948488871933925,52.97288190438903,61.63756281135369,0.0
0.012,2.9756706740088292,-1.7001738276913643,6.30437341431136,0.0,4.118742985680562,6.347573127597635,56.18406026115112,61.63756281135369,0.0
0.013000000000000001,2.8487196393291465,-1.624422649652645,4.753319261432341,0.0,4.503310753057146,6.3009090444342535,58.63099768649279,61.63756281135369,0.0
0.014,2.660457197248269,-1.5128306311826134,3.559916200010113,0.0,4.833237725128418,6.201043709379314,60.7511606627463,61.63756281135369,0.0
0.015,2.4512825616085303,-1.3866086458470193,2.5086987333694317,0.0,5.107416968284854,6.061584299820307,60.79571974814737,61.63756281135369,0.0
0.016,2.2373815489458044,-1.2515435510396729,2.4948376213009604,0.0,5.326637405594293,5.993913572908217,62.66038499895651,61.63756281135369,0.0
0.017,2.0754855430341497,-1.1705772610814678,1.5522767740203625,0.0,5.509613085534249,5.867058430861759,63.249708891235514,61.63756281135369,0.0
0.018000000000000002,1.9144945953542336,-1.0563808368680903,1.2414933670820418,0.0,5.649853739511677,5.762515848909204,62.83594785855849,61.63756281135369,0.0
0.019,1.7658164230671902,-0.9829025081058123,1.4363900329485055,0.0,5.758675417974388,5.721742747339117,64.71984638800858,61.63756281135369,0.0
0.02,1.6848483707075965,-0.9180146250070134,0.46361793245691363,0.0,5.846134734580573,5.594394930096256,62.70025026427542,61.63756281135369,0.0
0.021,1.560528388668643,-0.842366704251817,1.4627891197942757,0.0,5.904440945349771,5.621029895351013,65.0899333506296,61.63756281135369,0.0
0.022,1.533216959225924,-0.8275196492553383,0.2334238712244292,0.0,5.958703334725465,5.507371153359469,63.503469609659625,61.63756281135369,0.0
0.023,1.4462898165851268,-0.7559145581371346,1.0079966737263537,0.0,5.988445521491396,5.517290056661619,64.151087816873,61.63756281135369,0.0
0.024,1.4192262941973826,-0.7512118071418827,0.6590523200644722,0.0,6.0164041282126535,5.485169397418564,64.69101088896576,61.63756281135369,0.0
0.025,1.3936535553345344,-0.7122648080588552,0.3585563032419705,0.0,6.034117665948299,5.432033912509119,62.90993104944397,61.63756281135369,0.0
0.026000000000000002,1.3454504106703327,-0.6865012776983864,1.2363725406219648,0.0,6.0423017830706165,5.490594694668642,65.00112675634307,61.63756281135369,0.0
0.027,1.3698092644954276,-0.696718149803182,0.15713904772252096,0.0,6.056905057931786,5.413462458364304,63.29721375308222,61.63756281135369,0.0
0.028,1.3282840780602418,-0.6492504267799084,0.992499039935661,0.0,6.0570111634227946,5.452997066295076,63.37890273752486,61.63756281135369,0.0
0.029,1.337525986893089,-0.6642174065514981,0.9342411484526281,0.0,6.063181164162889,5.4723949941606405,64.76649164953464,61.63756281135369,0.0
0.03,1.3552293252539052,-0.6541924721917459,0.2091574040659272,0.0,6.06942154503824,5.409438548214594,62.53783758402933,61.63756281135369,0.0
0.031,1.3186250795257197,-0.6209751816433295,1.3144816890918258,0.0,6.065188590614724,5.486441794161111,63.554371340757164,61.63756281135369,0.0
0.032,1.355400344886434,-0.6486036842701617,0.7870467254338753,0.0,6.072450564422647,5.48183900957103,64.20452010829857,61.63756281135369,0.0
0.033,1.3646015669621314,-0.6283776113189962,0.4363027686937253,0.0,6.076024909339874,5.444470833441192,62.15297662217847,61.63756281135369,0.0
0.034,1.3421970476553733,-0.6057799987685435,1.4569203736455254,0.0,6.0732215255013555,5.529528794872662,63.235019193951324,61.63756281135369,0.0
0.035,1.386639532832829,-0.636054734689664,0.8999245239331226,0.0,6.082760473266665,5.529212183696659,64.12036979716896,61.63756281135369,0.0
0.036000000000000004,1.3985979472411851,-0.6182137584807716,0.43242115246615076,0.0,6.089048610395652,5.483154715317404,62.19478795466918,61.63756281135369,0.0
0.037,1.3736412928601178,-0.5876221003348563,1.3896398222828865,0.0,6.086915514339855,5.555165711009485,62.31648839574001,61.63756281135369,0.0
0.038,1.4096548261130561,-0.6125365373887584,1.3220003459036092,0.0,6.095243332116233,5.598538713225255,63.938487032170656,61.63756281135369,0.0
0.039,1.4432160737137076,-0.6171244473995625,0.48799178548011635,0.0,6.1073311940672,5.544011048210751,63.0399284273597,61.63756281135369,0.0
0.04,1.4206006738629162,-0.5757323432470112,0.9232474317255353,0.0,6.108158492764729,5.555186449043619,61.45680236603162,61.63756281135369,0.0
0.041,1.4228769867377278,-0.5714375079931745,1.7166180668427962,0.0,6.109962090839397,5.647768704648661,62.31529792511679,61.63756281135369,0.0
0.042,1.4766270928138716,-0.6030348713416314,1.2805929361625799,0.0,6.124362212987972,5.669486875235043,63.60692674847849,61.63756281135369,0.0
0.043000000000000003,1.499670693967105,-0.5970651909992452,0.6150848851104793,0.0,6.13852150150918,5.619630311602623,63.035716100168806,61.63756281135369,0.0
0.044,1.477455896060756,-0.5567598406525931,0.8867086763771717,0.0,6.141905313080317,5.61538309451665,61.51972251586442,61.63756281135369,0.0
0.045,1.4734857870261011,-0.5412641141434417,1.6458838714842559,0.0,6.1432245453732035,5.6929065778602475,61.113358772389994,61.63756281135369,0.0
0.046,1.518511786266853,-0.5653303328909653,1.8543077836111075,0.0,6.154966444098477,5.77315195347483,62.261242364132386,61.63756281135369,0.0
0.047,1.5736141778788106,-0.585654119615681,1.2741291922121243,0.0,6.1755536448649275,5.775032094140416,63.09184638777967,61.63756281135369,0.0
0.048,1.5819873426882238,-0.5722013375029874,0.8442843446242232,0.0,6.192587095721648,5.736931769282493,63.13412422779684,61.63756281135369,0.0
0.049,1.5637793274583136,-0.5357716422320304,0.8081798104512066,0.0,6.200234430348228,5.706758385036267,62.08005565353311,61.63756281135369,0.0
0.05,1.546941209729626,-0.5061366902307552,1.3307891691612777,0.0,6.201204145320094,5.739885260275017,61.120306265329376,61.63756281135369,0.0
0.051000000000000004,1.5693243278443325,-0.5043697228300172,1.815836428723387,0.0,6.205491559424582,5.815295000281903,60.583622640593845,61.63756281135369,0.0
0.052000000000000005,1.6201244895135383,-0.5238348581557337,2.094717642798751,0.0,6.219050040679145,5.904054782048754,60.97118495631932,61.63756281135369,0.0
0.053,1.6809526260973882,-0.5473490302358095,1.9076002634863571,0.0,6.242520559560486,5.955739616491727,61.360716086930836,61.63756281135369,0.0
0.054,1.7187769589617965,-0.5539483430827606,1.7156031654248276,0.0,6.269303292690356,5.981802117135646,61.66160905944162,61.63756281135369,0.0
0.055,1.7371456592861152,-0.5477020581035867,1.5649162166885544,0.0,6.295260918095453,5.991638733940755,61.86600983207766,61.63756281135369,0.0
0.056,1.7438429863319673,-0.5333259040938565,1.4604313601632972,0.0,6.31808752854927,5.992547967903648,61.94181473251207,61.63756281135369,0.0
0.057,1.7448236167153257,-0.5153104309777886,1.419486390734507,0.0,6.336884460851327,5.992148945372005,61.90810776028788,61.63756281135369,0.0
0.058,1.7458527212280184,-0.4972518379094279,1.433634427357259,0.0,6.351955507163652,5.995531856853961,61.77124187278156,61.63756281135369,0.0
0.059000000000000004,1.750663927925415,-0.4815129264880239,1.5007305804961426,0.0,6.364307045667271,6.006803736606417,61.52758969161779,61.63756281135369,0.0
0.06,1.7619662784036807,-0.46957262559609736,1.6236564022753854,0.0,6.375394574311877,6.029839314612685,61.17503936968594,61.63756281135369,0.0
0.061,1.7821754168070607,-0.4623359351249787,1.8045567976579884,0.0,6.387000274949743,6.068239891237489,60.73968929233135,61.63756281135369,0.0
0.062,1.8136381913758886,-0.46003010690151436,2.0312105715255075,0.0,6.401104188986434,6.123825077616661,60.34851300315789,61.63756281135369,0.0
0.063,1.857664398328001,-0.4619126675744375,2.239689214194195,0.0,6.419586370213631,6.191399994697424,60.24775758390343,61.63756281135369,0.0
0.064,1.9105394494666321,-0.4657674500733977,2.303964976095928,0.0,6.443383025494342,6.253675192019604,60.6542576810375,61.63756281135369,0.0
0.065,1.9596093967327877,-0.46718010352664086,2.110547978832055,0.0,6.4711443790340635,6.285314964131705,61.24466185429191,61.63756281135369,0.0
0.066,1.987345219132476,-0.45832292816957854,1.819274901775466,0.0,6.498305158607215,6.283900784891677,61.95411914165444,61.63756281135369,0.0
0.067,1.9900222115838924,-0.4404993059512261,1.4613806947911958,0.0,6.520736415608599,6.248871358589606,62.081099834502574,61.63756281135369,0.0
0.068,1.967229749383944,-0.416328322882237,1.393454978135639,0.0,6.534941032364234,6.218229054622118,61.124059967574354,61.63756281135369,0.0
0.069,1.9475834102219851,-0.39299875861738465,1.877109940037542,0.0,6.542336414809111,6.2478859183885245,59.799520211451885,61.63756281135369,0.0
0.07,1.97182469544916,-0.38551087944021,2.5577602440977945,0.0,6.551367574319302,6.342488613083775,59.881048006587484,61.63756281135369,0.0
0.07100000000000001,2.0469779517228543,-0.39358136015101575,2.534561494577657,0.0,6.569918519017959,6.41115134343487,61.17945795566178,61.63756281135369,0.0
0.07200000000000001,2.1050916316176282,-0.40189333214545364,1.8899375685974273,0.0,6.59431425439414,6.398485278632409,61.47321611588323,61.63756281135369,0.0
0.073,2.1029926817083187,-0.39131958067911865,1.7447019554414067,0.0,6.6137575773712145,6.380807736949422,59.777684103371236,61.63756281135369,0.0
0.074,2.095378444839164,-0.3702146360303813,2.6110667487772297,0.0,6.62727300748559,6.4644113416874625,59.7512866639692,61.63756281135369,0.0
0.075,2.1602054680288365,-0.36876374718451,2.6431282299520906,0.0,6.6478487067357666,6.528662129039449,61.318310839360116,61.63756281135369,0.0
0.076,2.211875416984763,-0.3780102795288447,1.8628086619765702,0.0,6.673823542242462,6.497354216138946,60.069477499215715,61.63756281135369,0.0
0.077,2.1977800897648336,-0.36093498242317446,2.5029061851701506,0.0,6.692099354903373,6.552055686793968,59.424767996765034,61.63756281135369,0.0
0.078,2.2435850632114325,-0.3481244932084082,2.8473888845413775,0.0,6.712779332521125,6.629427212997147,61.23690615274647,61.63756281135369,0.0
0.079,2.300671026207821,-0.36129363437800954,1.9453263731367314,0.0,6.740705175418222,6.592636474898425,59.24023011962986,61.63756281135369,0.0
0.08,2.2859518453849716,-0.3392417772931787,2.967637716612277,0.0,6.7596019645247125,6.68598223731612,60.44477470760431,61.63756281135369,0.0
0.081,2.3567197230906594,-0.33752955338215185,2.377293303662544,0.0,6.785975824902959,6.688790445187613,60.068635045604225,61.63756281135369,0.0
0.082,2.363536711567969,-0.33713881051512407,2.581052412320081,0.0,6.809967260554266,6.722229974436162,59.47682767062235,61.63756281135369,0.0
0.083,2.400404599886112,-0.31503204846028754,2.8985634512183323,0.0,6.832475669167934,6.783626019686995,60.5573158025835,61.63756281135369,0.0
0.084,2.4419400339953787,-0.3298195347724665,2.3691218553254574,0.0,6.860720532560209,6.775519396468075,58.969088106311446,61.63756281135369,0.0
0.085,2.454877349435541,-0.2987566514425818,3.189920450511908,0.0,6.881765455261955,6.86562243298239,60.53277045687504,61.63756281135369,0.0
0.08600000000000001,2.513601568745978,-0.3192576767230597,2.4191271987748966,0.0,6.912281930959109,6.84949412350276,58.99265613815496,61.63756281135369,0.0
0.08700000000000001,2.523557753456494,-0.2861130420386342,3.215633424866923,0.0,6.9342830080704925,6.932845971803255,60.15515534465425,61.63756281135369,0.0
0.088,2.576399865039905,-0.3064757290351503,2.6492078962842758,0.0,6.964990504217248,6.934077802152756,60.15742497825191,61.63756281135369,0.0
0.089,2.585519767976235,-0.2980619369059738,2.6628744578164616,0.0,6.991621289780104,6.944950007929187,60.60789145939472,61.63756281135369,0.0
0.09,2.5758826726260686,-0.32343479801593555,2.4479379307646454,0.0,7.019551370007706,6.934769667611117,61.21196049482171,61.63756281135369,0.0
0.091,2.5688407594261315,-0.313493695232107,2.1501594362164713,0.0,7.042323158263419,6.898472339716328,61.27911133036891,61.63756281135369,0.0
0.092,2.527417321539862,-0.3256142522439187,2.120168533252718,0.0,7.0606207072032205,6.8722468680915485,61.4678184322177,61.63756281135369,0.0
0.093,2.5078688084984027,-0.3119676019107278,2.0275124261196855,0.0,7.072843616979792,6.842317537823926,62.441238438972206,61.63756281135369,0.0
0.094,2.472343818078723,-0.3273150858732887,1.5327656664662461,0.0,7.08267599249116,6.766820112885927,61.06682001295933,61.63756281135369,0.0
0.095,2.4215324521801618,-0.30612630353540005,2.2256823074566263,0.0,7.081491147060799,6.786257966442988,63.40846951026829,61.63756281135369,0.0
0.096,2.424027193651703,-0.3268554218111095,1.0371484918130016,0.0,7.0848606623628845,6.665183128749746,61.69224561511072,61.63756281135369,0.0
0.097,2.3412018634729153,-0.31140737075857083,1.8947136113542158,0.0,7.073879165566903,6.67190596139639,62.29797633225879,61.63756281135369,0.0
0.098,2.3423101650524587,-0.31627319025539014,1.5852441175711298,0.0,7.065357822370359,6.633290899111683,63.56809338485058,61.63756281135369,0.0
0.099,2.3128951509843505,-0.3316244967455302,0.930880285540268,0.0,7.055467092783946,6.532046616713516,61.95838933334818,61.63756281135369,0.0
0.1,2.2447951958095196,-0.3193367549010092,1.7325240460715219,0.0,7.034935843248557,6.541858986503819,62.245988616512726,61.63756281135369,0.0
0.101,2.2511749218664097,-0.3300729046395324,1.5826401464376583,0.0,7.0187428095354205,6.52275055837851,63.903367092033434,61.63756281135369,0.0
0.10200000000000001,2.2404366136552416,-0.3477548367858697,0.7312928658705067,0.0,7.00409588741978,6.4130293189921685,62.97750462150775,61.63756281135369,0.0
0.10300000000000001,2.1664414199492197,-0.3411862828177884,1.1808246830318092,0.0,6.979042173319118,6.378809572251863,62.130129284138725,61.63756281135369,0.0
0.10400000000000001,2.141692986590298,-0.344942930452825,1.5995866869884703,0.0,6.953550772734026,6.38905730677156,62.295533327682165,61.63756281135369,0.0
0.105,2.1532410285833903,-0.3628399160101714,1.5103049600534657,0.0,6.933564387594371,6.380204748825535,63.51317137004536,61.63756281135369,0.0
0.106,2.153294969536598,-0.3798515279500875,0.8827298532849497,0.0,6.916383692631894,6.302207910600033,63.95032291708078,61.63756281135369,0.0
0.107,2.1014722876431997,-0.382731300423647,0.6410264787099689,0.0,6.893268042195809,6.2156821009830825,63.264025194970195,61.63756281135369,0.0
0.108,2.0411930992504637,-0.377160389079773,0.967910715929098,0.0,6.863169777869075,6.179984091028335,62.779119333314675,61.63756281135369,0.0
0.109,2.0159647851646767,-0.38501472076756493,1.198948081537248,0.0,6.833431224578634,6.169163646146606,62.53750379626451,61.63756281135369,0.0
0.11,2.0118183412902573,-0.40182448015166405,1.3107564402132226,0.0,6.807355012344438,6.16664376190761,62.486975313884514,61.63756281135369,0.0
0.111,2.014730987060781,-0.42144585189223394,1.3275265563779122,0.0,6.785624686207385,6.162133018586946,62.50920177228487,61.63756281135369,0.0
0.112,2.0155938110135416,-0.4400253607959447,1.3076969375684233,0.0,6.7674638506139715,6.153485573576856,62.58142718956415,61.63756281135369,0.0
0.113,2.012155220424165,-0.4561666714647189,1.2621455851466767,0.0,6.751844103163421,6.139461310134495,62.68116818791223,61.63756281135369,0.0
0.114,2.0035465570515107,-0.46967235270215746,1.2018390322070538,0.0,6.737708115943119,6.120011858057271,62.789921450696475,61.63756281135369,0.0
0.115,1.989905830420996,-0.4808474890566451,1.135938814421502,0.0,6.724134990423742,6.095862187334356,62.897537932844955,61.63756281135369,0.0
0.116,1.9719494891250633,-0.4903168595507603,1.0695308221323496,0.0,6.710434089774822,6.0679630844340915,63.01560384299235,61.63756281135369,0.0
0.117,1.950517586137523,-0.49882298731129415,0.9967174567422663,0.0,6.696154349249482,6.036316357404612,63.21860750173502,61.63756281135369,0.0
0.11800000000000001,1.9258066581111493,-0.5067221141576301,0.8794051804671161,0.0,6.680921752749224,5.996733995342211,63.66215265570936,61.63756281135369,0.0
0.11900000000000001,1.8956768473677221,-0.5121159385902664,0.6373867050363888,0.0,6.663768509111873,5.937204870202902,64.29571028794113,61.63756281135369,0.0
0.12,1.854048632915445,-0.5082123533280417,0.29402641415462916,0.0,6.641894344701157,5.850841691453422,64.49053759247063,61.63756281135369,0.0
0.121,1.7965948400046765,-0.49237881778018,0.1680830140787115,0.0,6.611868625798926,5.766410878113948,64.28303538929414,61.63756281135369,0.0
0.122,1.740412419474542,-0.4775324579974942,0.24537938988755137,0.0,6.574927633232349,5.702788137887137,63.822398839971605,61.63756281135369,0.0
0.123,1.6992544537042644,-0.4720886643064224,0.4538493042626408,0.0,6.534868112191561,5.667957851278951,63.42224329157833,61.63756281135369,0.0
0.124,1.679236712593931,-0.4784990266539969,0.6360802736570301,0.0,6.4960910923891735,5.652355720581569,63.03085556371208,61.63756281135369,0.0
0.125,1.6734930230214444,-0.49336749232827903,0.8178412100665726,0.0,6.461202989097983,5.6530391227266605,62.67056792817348,61.63756281135369,0.0
0.126,1.6785526353842672,-0.5141594243831832,0.9876549766676732,0.0,6.432010464219719,5.666413285034516,62.3952321991935,61.63756281135369,0.0
0.127,1.6900412731418561,-0.5406892522673343,1.1177461472792662,0.0,6.409784969806771,5.686929515695316,62.74892743138065,61.63756281135369,0.0
0.128,1.7035121247475435,-0.5705720709247776,0.929784884985422,0.0,6.39485545967468,5.679828015991258,63.83380762150338,61.63756281135369,0.0
0.129,1.6996955894810066,-0.5855028417476417,0.36538234182255924,0.0,6.38205230718933,5.612293575514791,63.986415486394556,61.63756281135369,0.0
0.13,1.6584239782342585,-0.570012305266173,0.2655898826265637,0.0,6.3619227591836784,5.549400830641982,63.1043762644123,61.63756281135369,0.0
0.131,1.613788208351297,-0.5588919077770109,0.6919413590871046,0.0,6.336448553132317,5.543178211033167,62.48668272447021,61.63756281135369,0.0
0.132,1.6037600763802236,-0.5728112504204489,0.9922969299269873,0.0,6.314541837390882,5.564462767625868,62.92685050165006,61.63756281135369,0.0
0.133,1.613500011505946,-0.6011079211745489,0.7593201644340977,0.0,6.299927689239375,5.551625522888998,64.08066113873252,61.63756281135369,0.0
0.134,1.6072935614004618,-0.608786841422081,0.15798386261907682,0.0,6.286052945949021,5.475573471128801,63.32530638022466,61.63756281135369,0.0
0.135,1.5600067846455368,-0.5892554850897729,0.5187838061842989,0.0,6.263735233412656,5.4565799879679036,62.49414822648952,61.63756281135369,0.0
0.136,1.5398774368630406,-0.5967806014115209,0.9257970289005097,0.0,6.242773020172548,5.480158897421111,63.16168290511055,61.63756281135369,0.0
0.137,1.5490117140111515,-0.6239539272119674,0.5767884886524257,0.0,6.229178733876604,5.455616558986419,63.96030130334586,61.63756281135369,0.0
