timestamp,iq,id,iq_ref,id_ref,vq,vd,omega,omega_ref,r
0.0,0.0,0.0,0.0,0.0,0.0,0.0,0.0,52.63915226573129,0.0
0.001,0.0,0.0,10.0,0.0,0.0,1.0999999999999999,9.493954340804414,52.63915226573129,0.0
0.002,0.40587909138861195,-0.206885233781791,10.0,0.0,0.132757375715997,1.9453532999472525,19.41333474886075,52.63915226573129,0.0
0.003,0.9050315410734884,-0.49569830205123716,10.0,0.0,0.36647492902694095,2.668599028919929,27.642745073933305,52.63915226573129,0.0
0.004,1.4010107471314202,-0.778608232212895,10.0,0.0,0.6773772615391457,3.293325752156908,36.8182133974857,52.63915226573129,0.0
0.005,1.8441973309565647,-1.026983264358036,8.815289641716308,0.0,1.0441541873581768,3.712561164750019,45.32513476517764,52.63915226573129,0.0
0.006,2.1681084456720563,-1.2125442061900462,4.6349691328758755,0.0,1.4341049151346856,3.6473642194956564,49.679728592359304,52.63915226573129,0.0
0.007,2.2435834925177196,-1.263501835971493,2.4872664560187623,0.0,1.7822906054657468,3.4281748081726358,51.871290654582836,52.63915226573129,0.0
0.008,2.136726217247837,-1.2014408854099976,1.3991640410184805,0.0,2.06640250477182,3.1800177188817074,53.64812653287375,52.63915226573129,0.0
0.009000000000000001,1.926941667023565,-1.0802284577236214,0.5006563592015971,0.0,2.284574747678307,2.919140435372596,54.00446807972768,52.63915226573129,0.0
0.01,1.6663344697801579,-0.9331477692198449,0.3088324276346701,0.0,2.4398752864846833,2.7206214950453824,53.716022625287074,52.63915226573129,0.0
0.011,1.4164062434497071,-0.784563641823698,0.442286451259415,0.0,2.5449204302491606,2.5989687174698357,55.031038641319626,52.63915226573129,0.0
0.012,1.208383263405287,-0.6606170709260738,-0.23914042051274387,0.0,2.615147500354859,2.444077481438687,54.14568108633982,52.63915226573129,0.0
0.013000000000000001,1.0156434252460012,-0.5551081831181242,0.1884730687710734,0.0,2.652496227896975,2.384670980957243,53.52443529504839,52.63915226573129,0.0
0.014,0.8805393218528352,-0.47012699318080714,0.49024313412361675,0.0,2.6718765906217095,2.376792628565752,54.7647198765231,52.63915226573129,0.0
0.015,0.7955747707508684,-0.41777489857399225,-0.15115483272165697,0.0,2.6836221633274446,2.306063730266661,53.69867054232867,52.63915226573129,0.0
0.016,0.7157700250239228,-0.3766093218408509,0.37127465160958517,0.0,2.6831155964381206,2.3153923785318877,53.34218130246425,52.63915226573129,0.0
0.017,0.6775193259506362,-0.34697167972889736,0.5424889811744672,0.0,2.680744066199267,2.3407563161312757,54.399046119583744,52.63915226573129,0.0
0.018000000000000002,0.6632987324528792,-0.3371119756852074,-0.003542365923805635,0.0,2.6803578917205515,2.3027528737644016,53.34834077384591,52.63915226573129,0.0
0.019,0.6392214098011013,-0.32636285838608226,0.5147184218639641,0.0,2.675126184590554,2.333486457870698,53.36668847132683,52.63915226573129,0.0
0.02,0.6410615653161482,-0.31953960093834133,0.49826921106754885,0.0,2.6728479394379248,2.353188301454709,54.21742405082735,52.63915226573129,0.0
0.021,0.6470278796908628,-0.3226006989287824,0.057118703466330745,0.0,2.673172656512387,2.321692179410819,53.07018260135429,52.63915226573129,0.0
0.022,0.6376653027634095,-0.31877485180714893,0.6264291248466293,0.0,2.669863835511728,2.361503339312374,53.450570721128955,52.63915226573129,0.0
0.023,0.6507089504912535,-0.31758186149979334,0.42812088040532026,0.0,2.6707740421386976,2.367967063002025,54.07441666742064,52.63915226573129,0.0
0.024,0.6568683614231746,-0.3221741772157429,0.1018452632425828,0.0,2.672756685103765,2.339421100816687,52.79744138711769,52.63915226573129,0.0
0.025,0.6497257848931242,-0.3173462271735824,0.7387500121801933,0.0,2.6711094698919933,2.3880975552287778,53.615989043601715,52.63915226573129,0.0
0.026000000000000002,0.6665358660744604,-0.3177517487869155,0.3197078161594782,0.0,2.6745875085204966,2.37735741893158,53.779555432903436,52.63915226573129,0.0
0.027,0.6674381043560763,-0.3207584651906227,0.22652058983689627,0.0,2.676970413244704,2.3620477817925125,52.73394298568195,52.63915226573129,0.0
0.028,0.6639208236087393,-0.3144273047649587,0.7483789062481331,0.0,2.676857568971724,2.407239609173256,53.821074960503104,52.63915226573129,0.0
0.029,0.679763728704399,-0.3156111228569684,0.19299369188983762,0.0,2.6814687234584946,2.3798121202771076,53.3882805402426,52.63915226573129,0.0
0.03,0.6741902188984238,-0.31522611122059757,0.40189961927497797,0.0,2.682821824146052,2.3848935150048134,52.71324179899984,52.63915226573129,0.0
0.031,0.6760828405547001,-0.308614707001135,0.7386780945636717,0.0,2.6838243498898464,2.4242947298561575,54.09411114096238,52.63915226573129,0.0
0.032,0.6909273079732304,-0.31139120932110054,0.0336938348300887,0.0,2.6890382738417875,2.3773260572736916,52.88761845541133,52.63915226573129,0.0
0.033,0.6783607665046613,-0.30693655202162545,0.6344555157088158,0.0,2.688516160814146,2.4102400360743896,52.97863318557846,52.63915226573129,0.0
0.034,0.6880107425274546,-0.30157388285985254,0.5855533414267783,0.0,2.690792309934538,2.42723638693525,53.703769775914,52.63915226573129,0.0
0.035,0.696159863026441,-0.3052783931396136,0.2123388711571823,0.0,2.695001602051367,2.401396244140566,52.45800658109739,52.63915226573129,0.0
0.036000000000000004,0.6910642734335896,-0.2999628958993881,0.8370319254118233,0.0,2.6955842008778235,2.4516514315679454,53.425048216700674,52.63915226573129,0.0
0.037,0.7095141484359743,-0.29986500405788546,0.3456521481004893,0.0,2.7011764454342098,2.4345602119422463,53.23930223008131,52.63915226573129,0.0
0.038,0.7089095904657948,-0.30097880550379785,0.43252364176667246,0.0,2.704623840649852,2.434458000937894,52.61124165037918,52.63915226573129,0.0
0.039,0.7114435772720173,-0.29411738972002244,0.7468330377712582,0.0,2.7069503814928204,2.4681312850509993,53.77560133055478,52.63915226573129,0.0
0.04,0.7248288826196023,-0.2949135297627248,0.15328870703522313,0.0,2.7125677862253386,2.4287898807759056,52.537593768604914,52.63915226573129,0.0
0.041,0.7147085025249414,-0.29010214246164767,0.7733080729814188,0.0,2.7131520960535487,2.469329025826905,52.92520467152997,52.63915226573129,0.0
0.042,0.728437776604225,-0.28594557018393635,0.5766420974609049,0.0,2.7173227803265005,2.476427812439239,53.39263467757046,52.63915226573129,0.0
0.043000000000000003,0.7346043723265846,-0.289073972309687,0.3353922703222658,0.0,2.7221719647900016,2.458121934798924,52.04904521782139,52.63915226573129,0.0
0.044,0.7330635985295987,-0.2817207038218795,1.013088070675903,0.0,2.723865499488203,2.519321750754168,53.59795912390759,52.63915226573129,0.0
0.045,0.756014825329881,-0.2848116434563032,0.2290430490510369,0.0,2.7319231983567738,2.4790089855154362,52.53532125889908,52.63915226573129,0.0
0.046,0.7497509098586153,-0.282245898339834,0.7614002916236149,0.0,2.73483070945546,2.510851556556508,52.785844293787825,52.63915226573129,0.0
0.047,0.7624215279518378,-0.27704710908997066,0.6346718538986776,0.0,2.740085517182062,2.5190805138829058,53.26842009814488,52.63915226573129,0.0
0.048,0.7685259864294132,-0.279302592306691,0.38709127339601457,0.0,2.7459378309149827,2.5005006925196787,51.89713679764846,52.63915226573129,0.0
0.049,0.7670093254503577,-0.2709373231543846,1.0801530783250541,0.0,2.748404196699368,2.5633045663057596,53.50321348682581,52.63915226573129,0.0
0.05,0.7900340235552092,-0.274498730140182,0.26847412152543404,0.0,2.757379720743883,2.521311502593098,52.26741399309811,52.63915226573129,0.0
0.051000000000000004,0.7840733206946057,-0.27029049386054815,0.8900912511156144,0.0,2.760759865952064,2.561795895774785,52.901951901922224,52.63915226573129,0.0
0.052000000000000005,0.7997006790840363,-0.26640875396714864,0.5701943003416479,0.0,2.767465526932116,2.5553864118266407,52.7177800280039,52.63915226573129,0.0
0.053,0.801943591262369,-0.26663889648235106,0.6614939596780836,0.0,2.7729238064949557,2.56343992765034,52.2451994419463,52.63915226573129,0.0
0.054,0.8098156777001889,-0.2594209339137492,0.901723780944735,0.0,2.7778453323761827,2.5959027032075443,53.33114034488975,52.63915226573129,0.0
0.055,0.8236454061096821,-0.2628789502060441,0.35183344868142596,0.0,2.785973544642846,2.561278569774855,51.6395099814408,52.63915226573129,0.0
0.056,0.8188021832653436,-0.2546592500591111,1.2076450532488028,0.0,2.788887775160489,2.6312389025341165,53.38334139073416,52.63915226573129,0.0
0.057,0.8443721203428164,-0.2568106779736242,0.32828745735209575,0.0,2.7988254699743593,2.5863460481679406,51.97349461373558,52.63915226573129,0.0
0.058,0.8381499838531818,-0.25230048831327334,1.0398674223713416,0.0,2.802762474728442,2.634943755215487,52.906934322770184,52.63915226573129,0.0
0.059000000000000004,0.8570053974545154,-0.24922138415047915,0.5704697472836517,0.0,2.810871950150566,2.6181895312628063,52.24376645170633,52.63915226573129,0.0
0.06,0.857322564555745,-0.24775112412184458,0.9060075409558289,0.0,2.816364118073688,2.6456784770572987,52.59186645611558,52.63915226573129,0.0
0.061,0.8717431488019839,-0.2426561258367809,0.732430396847359,0.0,2.823510216572876,2.6469357886799294,52.449943464951154,52.63915226573129,0.0
0.062,0.876630236967415,-0.24308929406276683,0.8052839804373744,0.0,2.830166034872118,2.658138270770465,52.18295366323945,52.63915226573129,0.0
0.063,0.8875558436315094,-0.23590770024450441,0.9433408673181437,0.0,2.836482212548221,2.6821908623514603,52.909833583161365,52.63915226573129,0.0
0.064,0.8991394372369172,-0.23927778193935578,0.5771940941828864,0.0,2.845014556539429,2.661648159398327,51.42768327377556,52.63915226573129,0.0
0.065,0.9009900902184775,-0.2293139751678268,1.330383938795348,0.0,2.849509676274386,2.730437575886433,53.30736378327085,52.63915226573129,0.0
0.066,0.9264743753942606,-0.23583122830388875,0.38386156887230516,0.0,2.86125076159734,2.6783634387220445,51.35680162893013,52.63915226573129,0.0
0.067,0.9212283002005375,-0.22622312855115562,1.3719661524106783,0.0,2.8654882611673993,2.7516594628179085,53.22492758722122,52.63915226573129,0.0
0.068,0.9470811743831875,-0.22949928286910243,0.43204542005023494,0.0,2.8770880711625395,2.701881031154131,51.40015580465818,52.63915226573129,0.0
0.069,0.9415110331994077,-0.220924961937503,1.3568212759424825,0.0,2.8815741201461327,2.7702362194000396,53.08682802253106,52.63915226573129,0.0
0.07,0.965982144436094,-0.2229207768817138,0.5090084094380474,0.0,2.8927523659091374,2.7269497961974336,51.390597621939776,52.63915226573129,0.0
0.07100000000000001,0.9621582849774997,-0.21488427122896697,1.3696091561716037,0.0,2.897580171004336,2.7929193863499355,53.01655454116263,52.63915226573129,0.0
0.07200000000000001,0.9865084031543792,-0.21714581519844184,0.5528566738058649,0.0,2.9088512894984353,2.7516092658750977,51.3419134182044,52.63915226573129,0.0
0.073,0.9838764302783596,-0.20883087944589784,1.4031496237602477,0.0,2.9139270257231655,2.8177900368139244,52.98158278565488,52.63915226573129,0.0
0.074,1.008454713029307,-0.21189044236369847,0.5798906348357715,0.0,2.92553296669779,2.77606895516874,51.25011477337656,52.63915226573129,0.0
0.075,1.0064910465602832,-0.20279697841917327,1.459515015898479,0.0,2.930775328747356,2.845133633730782,52.98693273607483,52.63915226573129,0.0
0.076,1.0318633552785956,-0.2070956365513018,0.5876282298459097,0.0,2.94296370948215,2.8003016997414614,51.11703906231244,52.63915226573129,0.0
0.077,1.0299822714432252,-0.19672461671172697,1.53779619876129,0.0,2.9482662599808585,2.874869783974844,53.04693206642388,52.63915226573129,0.0
0.078,1.056650890374538,-0.20272623520065525,0.5687718986986467,0.0,2.9612592520852115,2.823464603217918,51.04020753539877,52.63915226573129,0.0
0.079,1.0540439718671655,-0.1903035797430958,1.5881236115145254,0.0,2.966385918618216,2.9008716183826153,52.94068653925033,52.63915226573129,0.0
0.08,1.0804163695692917,-0.19746474001678793,0.6348687668535561,0.0,2.979652574199071,2.85307201571097,51.09354258158921,52.63915226573129,0.0
0.081,1.080039194267661,-0.18457727318241735,1.5738968425255355,0.0,2.9853233710001597,2.924509888895304,52.766826283200174,52.63915226573129,0.0
0.082,1.1045316621831136,-0.19191528512694256,0.7359782515453654,0.0,2.998506931421813,2.8851117854530575,51.210104413477154,52.63915226573129,0.0
0.083,1.107178050908709,-0.17915645577212058,1.5286296649294169,0.0,3.004955474108602,2.946496511698589,52.5558254211137,52.63915226573129,0.0
0.084,1.128808707070248,-0.18604844468306186,0.8566024295573186,0.0,3.017783342225016,2.9181852012729608,51.26325523082554,52.63915226573129,0.0
0.085,1.1350914406625665,-0.17337118020878012,1.516646495050456,0.0,3.0250338735059463,2.9728381341259635,52.356394059679474,52.63915226573129,0.0
0.08600000000000001,1.1550914298786483,-0.18096046636700236,0.9729046626840088,0.0,3.03798623906623,2.9542016131286726,51.59387560669611,52.63915226573129,0.0
0.08700000000000001,1.1650298693277545,-0.1688083948424457,1.3646166557660429,0.0,3.0463670952414725,2.9863564899025863,51.88789383115144,52.63915226573129,0.0
0.088,1.1782481745832167,-0.17323610583580917,1.225120127884177,0.0,3.0577339224010993,2.9955175974351986,52.09234696594761,52.63915226573129,0.0
0.089,1.1947130669613744,-0.16501061938733813,1.1283616134839263,0.0,3.0679310969787585,2.993971850516259,51.20858547935728,52.63915226573129,0.0
0.09,1.200597098888725,-0.16254368482652226,1.5845480246428316,0.0,3.0767648714695524,3.0442658915302347,52.52308401737692,52.63915226573129,0.0
0.091,1.2254013393418728,-0.16375400938940465,0.9284594381165582,0.0,3.08990247766019,3.0110126711318403,51.02133166651153,52.63915226573129,0.0
0.092,1.228515309724767,-0.15257851203193185,1.6955138195414499,0.0,3.0971595932369733,3.073240906876764,52.17760389137967,52.63915226573129,0.0
0.093,1.2516716787756508,-0.15953494162178256,1.1219931908508962,0.0,3.1107907830590293,3.056698156742896,51.59450595565076,52.63915226573129,0.0
0.094,1.2638621399420005,-0.1480842607449901,1.4239886218161555,0.0,3.120075439693147,3.081018117259914,51.33187224248283,52.63915226573129,0.0
0.095,1.2759228737146462,-0.15104674164283638,1.5683782786326048,0.0,3.1313040064230857,3.1154926792254702,52.43770651926696,52.63915226573129,0.0
0.096,1.300298014132627,-0.14856529255652984,1.0174755977051833,0.0,3.144554588468114,3.083038792089033,50.84691877241496,52.63915226573129,0.0
0.097,1.3021717241823403,-0.137951445623249,1.8307918060643473,0.0,3.1520920149231975,3.1501668048982365,52.01496565717846,52.63915226573129,0.0
0.098,1.3272890959544477,-0.14512740350098674,1.2530102297681265,0.0,3.1664839938495764,3.1369024498014166,52.12112864022679,52.63915226573129,0.0
0.099,1.3398621395874257,-0.13774108118630501,1.2051089744990038,0.0,3.1772260843402442,3.1257805447083697,51.54519102432887,52.63915226573129,0.0
0.1,1.336340265402008,-0.14091641118020126,1.5040173948619884,0.0,3.1862049247950166,3.1507171145630397,53.187323799423766,52.63915226573129,0.0
0.101,1.3431432090451538,-0.14704163851833618,0.6774692919776168,0.0,3.1974215598970335,3.0793649934142078,52.03625985953149,52.63915226573129,0.0
0.10200000000000001,1.3203126936156988,-0.13574640307724095,1.2590301859857522,0.0,3.199077591202064,3.0910863133938715,52.84079579554519,52.63915226573129,0.0
0.10300000000000001,1.3072186686036575,-0.1415353278371858,0.8547457826807634,0.0,3.2024898854525627,3.052726248799473,52.923811898365834,52.63915226573129,0.0
0.10400000000000001,1.2898672432534657,-0.13176815281020704,0.8103911349440962,0.0,3.2005926653180046,3.0194849694099797,52.16263732011462,52.63915226573129,0.0
0.105,1.2636107644153425,-0.13105103299184695,1.1957435735258701,0.0,3.195579827828203,3.034925109086034,53.59778060925565,52.63915226573129,0.0
0.106,1.2572035652355575,-0.13397749204278953,0.46858564552011095,0.0,3.192941369748774,2.964921281700446,52.17006183517632,52.63915226573129,0.0
0.107,1.2283359246920547,-0.12555422695684737,1.187135936865326,0.0,3.182610550988767,2.9910774710414927,53.35698949715411,52.63915226573129,0.0
0.108,1.220883465224802,-0.13460177197252965,0.5864937335622025,0.0,3.1770078956414487,2.940859908431602,52.57014738868385,52.63915226573129,0.0
0.109,1.202290509026085,-0.12837079834545773,0.9806048365678072,0.0,3.166167867018739,2.9464331804988024,52.99163512486847,52.63915226573129,0.0
0.11,1.1915334476932196,-0.1375930976641111,0.7663361398841236,0.0,3.158045931126343,2.923851802016378,52.97282242446537,52.63915226573129,0.0
0.111,1.182131398085334,-0.13613924606140637,0.7724057884983344,0.0,3.14822590430546,2.906453370950895,52.670793441524914,52.63915226573129,0.0
0.112,1.1682010617873777,-0.1429560885164176,0.9231038682106263,0.0,3.1384124282461956,2.9077671890887786,53.43099995342214,52.63915226573129,0.0
0.113,1.1652994749879115,-0.1461594541620736,0.5350821353851061,0.0,3.1299958834031183,2.8639587775839797,52.342792908870805,52.63915226573129,0.0
0.114,1.1460091317423005,-0.14855672849428092,1.0821492512293769,0.0,3.118271818413955,2.889840074705501,53.78733598380283,52.63915226573129,0.0
0.115,1.1476814503412371,-0.15718317852273156,0.3483958765826475,0.0,3.111233226395666,2.8254004347680293,52.233977237559756,52.63915226573129,0.0
0.116,1.1252322910573027,-0.1546144425933733,1.1291269999859015,0.0,3.0980857041329464,2.8624049876505246,53.7512256771145,52.63915226573129,0.0
0.117,1.1274760507486734,-0.16610378274698867,0.3593820460946986,0.0,3.0912429041609384,2.801443771697543,52.30838958221941,52.63915226573129,0.0
0.11800000000000001,1.1079647658438434,-0.163177870230728,1.0841077203773601,0.0,3.0785515188125085,2.8354803499891092,53.739304468904,52.63915226573129,0.0
0.11900000000000001,1.1098145485418551,-0.17523387009385516,0.3576487550033379,0.0,3.071888348938186,2.777287800036877,52.36499080271398,52.63915226573129,0.0
0.12,1.091306441608731,-0.17250441189358295,1.0475472027285209,0.0,3.0596514406554114,2.8094559965855703,53.774342501710294,52.63915226573129,0.0
0.121,1.0929299883730206,-0.1841272617324397,0.33151945087057544,0.0,3.0531608509200594,2.751157974256088,52.389296836576214,52.63915226573129,0.0
0.122,1.0738651234420789,-0.18153904620924838,1.0265408377291658,0.0,3.041088585719355,2.783766695869089,53.82262823608264,52.63915226573129,0.0
0.123,1.075717164075738,-0.19240572689920143,0.2980403782724379,0.0,3.0347056362311484,2.724427681272881,52.394757242013554,52.63915226573129,0.0
0.124,1.0557187144490316,-0.19015078519469863,1.0144198255441594,0.0,3.022670369837747,2.7586893668472063,53.8767173184238,52.63915226573129,0.0
0.125,1.0582712727614183,-0.20023748895759974,0.2610641368121114,0.0,3.0163968854720817,2.6978076710808847,52.39284625601223,52.63915226573129,0.0
0.126,1.0372781495600547,-0.19847161150545733,1.0054627281150887,0.0,3.004367466408986,2.7341389675205505,53.95403911230484,52.63915226573129,0.0
0.127,1.0408055658212685,-0.2076829421749244,0.21171743150304634,0.0,2.9982050240443296,2.67028027684884,52.374856819285334,52.63915226573129,0.0
0.128,1.0182816441117257,-0.20637444974756636,1.0039515324772594,0.0,2.986036909375264,2.7097873206317793,53.909532595637586,52.63915226573129,0.0
0.129,1.0229325944668977,-0.2148935328324011,0.22390984100207034,0.0,2.979986494615004,2.6496630777413417,52.47964879356481,52.63915226573129,0.0
0.13,1.0016561792313348,-0.2150618679461584,0.9404467767601217,0.0,2.96846202307339,2.683952612691522,53.89170743575545,52.63915226573129,0.0
0.131,1.0056736891664433,-0.22190336695496315,0.2218919039645616,0.0,2.962269833720788,2.6267996513822136,52.56273387816829,52.63915226573129,0.0
0.132,0.9842456053010146,-0.22318191453947456,0.8871428666337725,0.0,2.9510537924167237,2.6575031862146945,53.78357904173399,52.63915226573129,0.0
0.133,0.9875472797600362,-0.22841221593054284,0.2652760170908963,0.0,2.9445922564034848,2.6083794353279637,52.73244683049222,52.63915226573129,0.0
0.134,0.9680726566346581,-0.23137348666162844,0.7899091770641693,0.0,2.9341379356694066,2.629625447309454,53.599299924188266,52.63915226573129,0.0
0.135,0.9692441987387319,-0.23476597430391016,0.3468811536315777,0.0,2.9271972091402256,2.593398395979367,52.96545369359575,52.63915226573129,0.0
