timestamp,iq,id,iq_ref,id_ref,vq,vd,omega,omega_ref,r
0.0,0.0,0.0,0.0,0.0,0.0,0.0,0.0,110.67438049897777,0.0
0.001,0.0,0.0,10.0,0.0,0.0,1.0999999999999999,23.07195595143595,110.67438049897777,0.0
0.002,0.5963981132916568,-0.3173586663489095,10.0,0.0,0.14490945329838,1.924396207537917,42.86429792528848,110.67438049897777,0.0
0.003,1.0592345436432338,-0.5643071478542577,10.0,0.0,0.38175832832281315,2.6358957134461245,64.17550318002543,110.67438049897777,0.0
0.004,1.4191635402360119,-0.7501739628651235,10.0,0.0,0.684048131271765,3.264966330944264,86.05788918161119,110.67438049897777,0.0
0.005,1.7022876251895265,-0.8917733334973664,10.0,0.0,1.0327332782950742,3.833814507608526,108.34067212617053,110.67438049897777,0.0
0.006,1.9287297689623735,-1.0009112977523869,2.087014618080002,0.0,1.4140239106442083,3.4881405943320156,111.92099790145285,110.67438049897777,0.0
0.007,1.6473257534871686,-0.8369230174321656,0.28438555641409213,0.0,1.7034879979530033,3.1292226557940204,114.1331002270262,110.67438049897777,0.0
0.008,1.3364175097495221,-0.6535838685540265,-0.8562528036530697,0.0,1.9095864591037266,2.7590848575063642,112.79384543409972,110.67438049897777,0.0
0.009000000000000001,1.0431008077074055,-0.48001379462945815,-0.20782005654104807,0.0,2.0408019776676904,2.5584604257327963,113.04124765258818,110.67438049897777,0.0
0.01,0.8629455265598297,-0.37554093012326906,-0.3551898373213823,0.0,2.1290771868414655,2.385208899541837,112.23411056530949,110.67438049897777,0.0
0.011,0.7249592490550264,-0.29106165137512086,0.03278140565464538,0.0,2.1829517304615336,2.2956375191365703,111.84656595528249,110.67438049897777,0.0
0.012,0.6451285213067306,-0.2425731209821217,0.21483185610510158,0.0,2.2179927361233194,2.2439580855308905,111.74501060271899,110.67438049897777,0.0
0.013000000000000001,0.5975053095894345,-0.21270766149498582,0.2549032313494364,0.0,2.2415613826187033,2.20797828863575,111.52875069753031,110.67438049897777,0.0
0.014,0.5667566601568101,-0.189209473713108,0.35448948195825036,0.0,2.2568890387139016,2.1914132292146036,111.2204316847792,110.67438049897777,0.0
0.015,0.5486760579930706,-0.1771902651533872,0.5031884764757926,0.0,2.267940292193712,2.1950798479796196,111.67280867568574,110.67438049897777,0.0
0.016,0.5454557763764765,-0.1708851741507792,0.2670156992554409,0.0,2.277679714277355,2.1721923597328865,110.79859356020154,110.67438049897777,0.0
0.017,0.5310658856590049,-0.15639492237244607,0.7028811263853056,0.0,2.282625568542369,2.204425172438436,111.26704456639465,110.67438049897777,0.0
0.018000000000000002,0.544614666592971,-0.16085555240616206,0.46272898261458373,0.0,2.290935690472929,2.2015196344039447,110.93726404493829,110.67438049897777,0.0
0.019,0.5437450522559739,-0.15284970013018434,0.6249904078831569,0.0,2.2971989963562893,2.220217085969617,110.94183530805745,110.67438049897777,0.0
0.02,0.5513805283235073,-0.15384582641585542,0.6200302282327799,0.0,2.3048953492220647,2.2346542904420326,111.19095571153599,110.67438049897777,0.0
0.021,0.5589336058669617,-0.15167228973449004,0.49030427436792623,0.0,2.313016736950696,2.2334426728560484,110.54169743022489,110.67438049897777,0.0
0.022,0.558798623920729,-0.14358894703249717,0.816260245711008,0.0,2.319337391817462,2.2704071509774355,110.91357126631151,110.67438049897777,0.0
0.023,0.5770086535971191,-0.1492148522478728,0.62793141999436,0.0,2.3294221120103997,2.2783270631472305,110.97949548252556,110.67438049897777,0.0
0.024,0.5826752832728009,-0.14400613376732058,0.5919181620518534,0.0,2.3386611333160094,2.283944057035271,110.33228675975927,110.67438049897777,0.0
0.025,0.5860402036595509,-0.13749965827557087,0.9189434608271854,0.0,2.3468743267605747,2.325942694163994,110.82263375400395,110.67438049897777,0.0
0.026000000000000002,0.6074646785315597,-0.14396209486886757,0.6722874311545861,0.0,2.3592419973537373,2.3318373276405095,110.83441598460705,110.67438049897777,0.0
0.027,0.6124159465036372,-0.13752892133080513,0.6647959609967419,0.0,2.3701900907801137,2.3396913686798437,110.37576171656183,110.67438049897777,0.0
0.028,0.6176345762672868,-0.1300528020472511,0.8971092828435125,0.0,2.3800707375819763,2.3729596584683232,110.36932743604402,110.67438049897777,0.0
0.029,0.6346153641096707,-0.13373318656844013,0.9033769537317544,0.0,2.392769752172667,2.4004397941723554,110.67917322962569,110.67438049897777,0.0
0.03,0.6509445257692928,-0.13333994584409198,0.7484061296344389,0.0,2.4068668185498017,2.407705950501332,110.59756845808303,110.67438049897777,0.0
0.031,0.6563122616837987,-0.12636617932974128,0.7899766358147152,0.0,2.4195176120127853,2.4213505024219293,110.50988625880207,110.67438049897777,0.0
0.032,0.6647441085978073,-0.12057138751123314,0.8354626778569534,0.0,2.4317000918866376,2.438609612258211,109.83943548480896,110.67438049897777,0.0
0.033,0.6761670998990521,-0.11541811329033308,1.1790375149951966,0.0,2.4438813225106193,2.4915272201890377,110.24426510778383,110.67438049897777,0.0
0.034,0.7048186698421265,-0.12426356847942585,0.9809238574196996,0.0,2.4611607236782946,2.5121054969037675,110.43407753916621,110.67438049897777,0.0
0.035,0.7189089760989545,-0.12080902365638296,0.8884206713266258,0.0,2.4783015579182495,2.5228962541804876,110.29419786202493,110.67438049897777,0.0
0.036000000000000004,0.726338465513676,-0.1136481648395962,0.9621623362667946,0.0,2.4940542354402657,2.5426822933848303,110.131979863394,110.67438049897777,0.0
0.037,0.738444958780085,-0.10911603692096669,1.0486953419381004,0.0,2.5097833236476323,2.569588791030225,110.03895599313168,110.67438049897777,0.0
0.038,0.7551392247496039,-0.10685145200017687,1.1015615221277184,0.0,2.5264263697367007,2.5986121931719777,110.01437463175053,110.67438049897777,0.0
0.039,0.7734960107826145,-0.10514965503176543,1.1204522614905668,0.0,2.544142899613721,2.6260945754325435,109.98223216747407,110.67438049897777,0.0
0.04,0.791277023036692,-0.10265603669483875,1.1434449769438344,0.0,2.5625787346817175,2.6531683202733674,109.93588155875366,110.67438049897777,0.0
0.041,0.8088521643463555,-0.09981256262093097,1.1740052707062767,0.0,2.5815905147622367,2.680754523874722,109.88855720845731,110.67438049897777,0.0
0.042,0.8267933483519906,-0.0969755329564374,1.2055256787596562,0.0,2.601176098672484,2.708847148244718,109.88982097848653,110.67438049897777,0.0
0.043000000000000003,0.845256005981295,-0.09402833027342161,1.212739388949963,0.0,2.6213165646302192,2.734715892109971,109.91118504736035,110.67438049897777,0.0
0.044,0.8629378824849897,-0.08996104650961345,1.2096893090292258,0.0,2.641611929191517,2.7578437824521753,109.76438803481497,110.67438049897777,0.0
0.045,0.879074803918714,-0.08540127924951862,1.2921877399435426,0.0,2.6617296447699346,2.7881955058233987,109.74023397287976,110.67438049897777,0.0
0.046,0.8997034559328233,-0.08218622906471718,1.313606236172126,0.0,2.682562703279904,2.816947096184127,109.61947484663787,110.67438049897777,0.0
0.047,0.9198447710055393,-0.07886168602778665,1.3845348558164714,0.0,2.7038540657427363,2.850485538420513,109.55015330266076,110.67438049897777,0.0
0.048,0.9429472141982942,-0.07637460439756716,1.430437899768197,0.0,2.726129802633968,2.884799465717316,110.94431215943814,110.67438049897777,0.0
0.049,0.9632983693664041,-0.07992085107269542,0.730659154774903,0.0,2.750024316516324,2.838467278948217,112.38102007914027,110.67438049897777,0.0
0.05,0.9340610682790038,-0.06951645056804945,-0.004761200877786864,0.0,2.765716213811272,2.7286789252436963,111.99254072554871,110.67438049897777,0.0
0.051000000000000004,0.8668837393730706,-0.042395136517102305,0.1762968736522854,0.0,2.765980785465715,2.6658063215627354,111.86931050748139,110.67438049897777,0.0
0.052000000000000005,0.8249009643093365,-0.030764155690137907,0.22596268260090924,0.0,2.758923444836161,2.616846425622313,111.82015079964756,110.67438049897777,0.0
0.053,0.795062325758324,-0.026050241479487146,0.23908483351112275,0.0,2.747273627920619,2.5758859862135908,111.77121296457504,110.67438049897777,0.0
0.054,0.7719665862944007,-0.025129825621389656,0.2525854263914109,0.0,2.7326386421534736,2.541452597717436,111.73642349752588,110.67438049897777,0.0
0.055,0.7537999613497738,-0.02688278659981791,0.2593597299305126,0.0,2.7162258459796362,2.5113765883039516,111.71110375259119,110.67438049897777,0.0
0.056,0.7388489878469708,-0.03031894300609811,0.26165236986172424,0.0,2.6988071760767403,2.484314288407335,111.69312792996034,110.67438049897777,0.0
0.057,0.7259851036004958,-0.03479034721303431,0.2604528068673211,0.0,2.6808816360731726,2.459326990713479,111.67993587522608,110.67438049897777,0.0
0.058,0.7144400620256184,-0.0398589479976274,0.2569932804719688,0.0,2.662762752344811,2.435818632245878,111.66963928770404,110.67438049897777,0.0
0.059000000000000004,0.7037241016517439,-0.0452444326198862,0.2521889863457234,0.0,2.6446466384431297,2.4134186493876464,111.66090787934839,110.67438049897777,0.0
0.06,0.6935341950405631,-0.05077063379315305,0.24668941671984612,0.0,2.6266561649286295,2.3919038738309757,111.65284846228234,110.67438049897777,0.0
0.061,0.6836890589495996,-0.05632853320855269,0.2409344456198257,0.0,2.6088693681338735,2.3711445432576728,111.64487381324624,110.67438049897777,0.0
0.062,0.6740846071754348,-0.06185127268120533,0.23521683699519125,0.0,2.5913372403091004,2.3510691171587643,111.63660124600229,110.67438049897777,0.0
0.063,0.6646648190794759,-0.06729806626777002,0.22973091314692085,0.0,2.574094702556709,2.331641877523019,111.62778782766581,110.67438049897777,0.0
0.064,0.6554032280052194,-0.07264398464813188,0.22460354902827695,0.0,2.5571672777019567,2.31284853439825,111.6182674676634,110.67438049897777,0.0
0.065,0.646291061925659,-0.0778736467905517,0.21992485934262662,0.0,2.5405750646720655,2.2946881232342564,111.60793571071997,110.67438049897777,0.0
0.066,0.6373303903966094,-0.08297749608306848,0.21575518569691943,0.0,2.524335158629516,2.2771672068869013,111.59672189567259,110.67438049897777,0.0
0.067,0.628529473100091,-0.0879493764170694,0.21213867925366314,0.0,2.508463019900302,2.260296766785053,111.58458093857668,110.67438049897777,0.0
0.068,0.6199001389755899,-0.09278517448630308,0.20910715340562847,0.0,2.4929732700180987,2.2440900716223458,111.57148524453059,110.67438049897777,0.0
0.069,0.611456071248194,-0.09748198041202394,0.20668395297314335,0.0,2.477880116278983,2.228561388307366,111.56351123562145,110.67438049897777,0.0
0.07,0.6031902833774119,-0.10207653241795256,0.20177965006127874,0.0,2.463201842243675,2.213385812622503,111.56364735772199,110.67438049897777,0.0
0.07100000000000001,0.5949100761927562,-0.10650774940672908,0.1928189204235653,0.0,2.448915326392119,2.1981514947831706,111.54601179874878,110.67438049897777,0.0
0.07200000000000001,0.5864586949195147,-0.11052357264306384,0.19292038691246072,0.0,2.434931458727894,2.1839595756209818,111.5306505989184,110.67438049897777,0.0
0.073,0.578411241628612,-0.11450666030410625,0.19203828582824445,0.0,2.4213247673242244,2.170491121873703,111.51180921484877,110.67438049897777,0.0
0.074,0.5706684635442143,-0.11834183896313055,0.1930846907043502,0.0,2.4081139384620744,2.157904000964373,111.49228068713097,110.67438049897777,0.0
0.075,0.5632993755723332,-0.12207474678689045,0.19466995268171605,0.0,2.3953377484692306,2.146151595924574,111.47233619457074,110.67438049897777,0.0
0.076,0.5562867613368815,-0.12568188668205424,0.19666264200590033,0.0,2.3830233932819236,2.1351978522815385,111.45159466800254,110.67438049897777,0.0
0.077,0.5496095716116624,-0.1291447294491211,0.19926126359975338,0.0,2.371189940554467,2.1250383336935763,111.43038820094431,110.67438049897777,0.0
0.078,0.5432660686282539,-0.13245585545185415,0.20230442010920546,0.0,2.35985347667359,2.115651196122689,111.40832315266316,110.67438049897777,0.0
0.079,0.537248683245218,-0.13560338123386959,0.2059975177129263,0.0,2.3490250619997073,2.1070434124544177,111.38528789716173,110.67438049897777,0.0
0.08,0.5315660272109909,-0.13858490379118626,0.2104060714817998,0.0,2.3387152026498703,2.0992264939340584,111.3607856702315,110.67438049897777,0.0
0.081,0.5262315830717547,-0.14139949934069926,0.21579313323438165,0.0,2.3289344276678543,2.092238734880821,111.33414495498947,110.67438049897777,0.0
0.082,0.5212736428161624,-0.14405446599006846,0.22251584629527676,0.0,2.3196968546546515,2.086149331040601,111.32414386662417,110.67438049897777,0.0
0.083,0.5166921768463788,-0.14664720087945088,0.22101875680146277,0.0,2.3110327497300855,2.079967585162274,111.30224853660991,110.67438049897777,0.0
0.084,0.5119820237105805,-0.14884129628220116,0.22568774143227144,0.0,2.302832303855552,2.07453846476889,111.27547711716241,110.67438049897777,0.0
0.085,0.5076041134289071,-0.15083961920966793,0.23306248497417448,0.0,2.2951068650971274,2.070031212370319,111.23661366571673,110.67438049897777,0.0
0.08600000000000001,0.5037338704333993,-0.15265645092622185,0.24687187902962404,0.0,2.2878831132342334,2.0670293748731314,111.20802187703802,110.67438049897777,0.0
0.08700000000000001,0.5006903126520698,-0.15448207412070852,0.25583135958837666,0.0,2.2812642030421384,2.0647488837862724,111.1743922578826,110.67438049897777,0.0
0.088,0.4980605730621891,-0.15609086171868253,0.26764605157703825,0.0,2.2752378451644004,2.0635034078791294,111.13835872355602,110.67438049897777,0.0
0.089,0.4959762245019581,-0.15756304998040851,0.2810230364945444,0.0,2.2698354283165316,2.063336146141693,111.11940425979645,110.67438049897777,0.0
0.09,0.4944123035424452,-0.15901977169380854,0.28605003076614266,0.0,2.2651020444855625,2.063215756233858,111.08924267861914,110.67438049897777,0.0
0.091,0.49283100626169396,-0.16012423086928151,0.2969821995583841,0.0,2.260936883339075,2.0639446390494265,111.05665234594285,110.67438049897777,0.0
0.092,0.49169555771820533,-0.16100727533641962,0.30945464742687956,0.0,2.257347216888423,2.065555851413379,111.02011715123732,110.67438049897777,0.0
0.093,0.4910378746166836,-0.16176103752198784,0.3242648782570521,0.0,2.2543517217149733,2.0682123674642376,110.9850221971867,110.67438049897777,0.0
0.094,0.4909459769436146,-0.16244830857453219,0.3387059383002731,0.0,2.251989489857878,2.0717476286021395,110.94926407847743,110.67438049897777,0.0
0.095,0.49132928113671104,-0.16303127561209252,0.35383616185991035,0.0,2.2502742609638893,2.076169971993699,110.91461831570724,110.67438049897777,0.0
0.096,0.4922363296860645,-0.16342026719870095,0.3687566650777068,0.0,2.2492097487026057,2.0813725689765663,110.85198222773218,110.67438049897777,0.0
0.097,0.49355554719863687,-0.1636879194388829,0.39829869177769517,0.0,2.2487974991962916,2.0889128294989505,110.90420312396473,110.67438049897777,0.0
0.098,0.49583856639766405,-0.16476403383419047,0.36989001741154803,0.0,2.2492961967539298,2.0919995246344207,110.84423954454404,110.67438049897777,0.0
0.099,0.496617470999492,-0.16273608576429266,0.3981732166662334,0.0,2.24981985863771,2.098159809359575,110.6819891722133,110.67438049897777,0.0
0.1,0.49760723916231386,-0.16349749409916836,0.479222316099244,0.0,2.2510112172031613,2.1122879152937832,111.20559525117977,110.67438049897777,0.0
0.101,0.5040992197215696,-0.1643995961224017,0.21210712909399076,0.0,2.253587867644696,2.094224964746318,110.33721877606331,110.67438049897777,0.0
0.10200000000000001,0.4938953736700409,-0.15534411791164143,0.6496669838813669,0.0,2.2530954343639147,2.130216053065677,110.93881343182149,110.67438049897777,0.0
0.10300000000000001,0.5107015151361072,-0.16323484871872007,0.3462253266738412,0.0,2.2572098884140344,2.1228538943625384,110.45197067072233,110.67438049897777,0.0
0.10400000000000001,0.5075042239776174,-0.15683311779091147,0.5918708055059729,0.0,2.259393583478698,2.1472145796204303,110.76887688695243,110.67438049897777,0.0
0.105,0.5183682699920479,-0.16081082936814056,0.432472733511179,0.0,2.264296543145457,2.1481403051780776,110.49553639537906,110.67438049897777,0.0
0.106,0.5194312651348274,-0.15537156570826965,0.5709314203338482,0.0,2.268163683282947,2.1662799014115164,110.54711903003992,110.67438049897777,0.0
0.107,0.5270181721642757,-0.15748773952326026,0.5464127176927963,0.0,2.27374524078628,2.1780866780548065,110.78546267372263,110.67438049897777,0.0
0.108,0.5333951122952933,-0.15510870128123128,0.4261300741039922,0.0,2.279666464258835,2.1756594346716254,110.07700472597118,110.67438049897777,0.0
0.109,0.5319208799819749,-0.1484032322863049,0.7863328057097856,0.0,2.284039029838796,2.215118099842319,110.64118640179665,110.67438049897777,0.0
0.11,0.5512632015739742,-0.15561140788438177,0.5045739087688637,0.0,2.292780159383567,2.2143302513761256,110.36385451291692,110.67438049897777,0.0
0.111,0.5525021572247463,-0.14804594285757272,0.6463451130693367,0.0,2.2996641082183116,2.2329648602478267,110.2607992282966,110.67438049897777,0.0
0.112,0.5605280207293518,-0.1487604913636065,0.7020085680863037,0.0,2.3078773780426847,2.2542592156956935,110.56048407275497,110.67438049897777,0.0
0.113,0.5719578537927276,-0.148322553845896,0.5533051101193472,0.0,2.3173434378173976,2.256154424652751,110.1499967186471,110.67438049897777,0.0
0.114,0.5741563077899778,-0.14040416322402782,0.7637926249765897,0.0,2.3251857689171174,2.283319848296477,110.14556505285182,110.67438049897777,0.0
0.115,0.5872752030617482,-0.14289693510647455,0.7712966123354894,0.0,2.335313798084526,2.3058524322067866,110.4064084657931,110.67438049897777,0.0
0.116,0.6000855777721767,-0.14218599734788595,0.6435546261966939,0.0,2.3465791518539536,2.31173995002852,110.21734396374521,110.67438049897777,0.0
0.117,0.604663129473607,-0.13481807872944648,0.7426572425729688,0.0,2.35650336035817,2.329968532167748,109.83169396427303,110.67438049897777,0.0
0.11800000000000001,0.6134564566817908,-0.1339907039863643,0.9439091076561056,0.0,2.3672406741903336,2.3675918654629715,110.31046148566014,110.67438049897777,0.0
0.11900000000000001,0.6346501306969673,-0.13641978398978738,0.7081645370957256,0.0,2.38094206251661,2.3723388045298273,110.21534612628837,110.67438049897777,0.0
0.12,0.6391736224622518,-0.12887308440245113,0.760312560508507,0.0,2.3928935781623037,2.3857892694496066,109.82267814335287,110.67438049897777,0.0
0.121,0.6473834765456535,-0.12302925894262438,0.9651635755325022,0.0,2.4044276349306983,2.420244121828967,109.78986987027753,110.67438049897777,0.0
0.122,0.665824375717396,-0.12620042290803415,0.9904128183571779,0.0,2.4186610375509825,2.451189400839647,110.0904520271153,110.67438049897777,0.0
0.123,0.6843777087837106,-0.1262983598807417,0.845961024656914,0.0,2.4345446892376503,2.4624648448304356,110.00047545856812,110.67438049897777,0.0
0.124,0.6921634756821071,-0.12020814933907553,0.8976883593346037,0.0,2.4492966176254196,2.4806647333141996,109.87340902719669,110.67438049897777,0.0
0.125,0.703039041221865,-0.11576817618084617,0.9692312897381306,0.0,2.4639658470808,2.5047538202455857,109.7795737403929,110.67438049897777,0.0
0.126,0.7177480972357617,-0.11303710217023304,1.0250970007258697,0.0,2.479321043874196,2.531821479827857,109.73277243380329,110.67438049897777,0.0
0.127,0.7344344873455783,-0.11129158448426416,1.0579137346724217,0.0,2.4956827907411285,2.5590806644035418,109.72330273018663,110.67438049897777,0.0
0.128,0.7515773955442072,-0.1091847827773392,1.0721593641686629,0.0,2.5129199883680338,2.5847701011127224,109.68782390252314,110.67438049897777,0.0
0.129,0.767961256270462,-0.10637197065111463,1.0997643439649574,0.0,2.530714068586353,2.6108776097984037,109.64391192448724,110.67438049897777,0.0
0.13,0.7846210713600018,-0.10345245158257839,1.1320250187278094,0.0,2.5490464726751294,2.6377576590107124,109.60293116535566,110.67438049897777,0.0
0.131,0.801864096996795,-0.10060018869058007,1.1632298916298232,0.0,2.5679490875488256,2.665162738313109,109.56237166481324,110.67438049897777,0.0
0.132,0.8195874296271609,-0.09775763078385563,1.1946297302426758,0.0,2.5874177901245723,2.693082368358056,109.54537002777067,110.67438049897777,0.0
0.133,0.8378146050916098,-0.09486317368720293,1.2144206534760311,0.0,2.607441620745675,2.7201921528508404,109.59614360657639,110.67438049897777,0.0
