timestamp,iq,id,iq_ref,id_ref,vq,vd,omega,omega_ref,r
0.0,0.0,0.0,0.0,0.0,0.0,0.0,0.0,325.7289805319347,0.0
0.001,0.0,0.0,10.0,0.0,0.0,1.0999999999999999,16.237764343107244,325.7289805319347,0.0
0.002,0.6268509139020801,-0.34745445525433033,10.0,0.0,0.14821999007797643,1.9210463994707707,35.917252664725325,325.7289805319347,0.0
0.003,1.2269069718739716,-0.6667208671935185,10.0,0.0,0.39536738185599946,2.615072500764376,56.98172171936793,325.7289805319347,0.0
0.004,1.714704323561485,-0.9157706197830664,10.0,0.0,0.7114054532510393,3.2167535830005134,78.75535657696665,325.7289805319347,0.0
0.005,2.0944654633873503,-1.100864348315743,10.0,0.0,1.0738776383428876,3.7529746122885728,100.89428093537296,325.7289805319347,0.0
0.006,2.389532908817529,-1.2366867584662906,10.0,0.0,1.4668142356855907,4.24316094955795,123.16359967795783,325.7289805319347,0.0
0.007,2.6226261385307397,-1.3361919632982349,10.0,0.0,1.8790631554509698,4.700932732020508,145.36304131224648,325.7289805319347,0.0
0.008,2.8114610901577515,-1.409128639941961,10.0,0.0,2.3028923438685567,5.135711315831509,167.30439880740983,325.7289805319347,0.0
0.009000000000000001,2.969125421493219,-1.462039356088602,10.0,0.0,2.7329072838351784,5.553940233172535,188.8057804355229,325.7289805319347,0.0
0.01,3.1051282140913052,-1.4990953910400657,10.0,0.0,3.1652906782224353,5.959964088903689,209.67901469047825,325.7289805319347,0.0
0.011,3.226558504898462,-1.522638108017227,10.0,0.0,3.5972572572620556,6.356626594437647,229.7269170400101,325.7289805319347,0.0
0.012,3.338919893717988,-1.5337269637058883,10.0,0.0,4.02667777590709,6.745674057460095,248.7474311775147,325.7289805319347,0.0
0.013000000000000001,3.4467127885279774,-1.5325835194737203,10.0,0.0,4.4518243215674405,7.128025221503895,266.54289719420586,325.7289805319347,0.0
0.014,3.5538050122814604,-1.5189608383062891,10.0,0.0,4.8712042685800405,7.503953708044572,282.93278273790844,325.7289805319347,0.0
0.015,3.6636332777509306,-1.4924591952715163,10.0,0.0,5.283460115623297,7.873217153668327,297.7674872087119,325.7289805319347,0.0
0.016,3.7792745331909243,-1.4527935174717799,10.0,0.0,5.6873185143969796,8.23515758399033,310.94009421849194,325.7289805319347,0.0
0.017,3.903425215771117,-1.400004837774635,9.851783500483105,0.0,6.0815750183368085,8.57248583368123,322.1608782163543,325.7289805319347,0.0
0.018000000000000002,4.029189534295285,-1.329948144490537,4.277072524707716,0.0,6.462960347387463,8.29117829824503,323.21034004070134,325.7289805319347,0.0
0.019,3.8212954784763884,-1.0783210022353478,3.77752801744654,0.0,6.751097971274201,8.101063252541866,320.8493415889204,325.7289805319347,0.0
0.02,3.6077775676217625,-0.8277713730356,5.006823632767141,0.0,6.966366140412532,8.12039946619139,318.7514499449689,325.7289805319347,0.0
0.021,3.542669353337674,-0.6541591207905368,6.125544760612563,0.0,7.14544926254702,8.275121967762292,317.62907036111733,325.7289805319347,0.0
0.022,3.6163345372832185,-0.5472765319318547,6.767733654246521,0.0,7.312075360373146,8.482979846033976,317.07118524238564,325.7289805319347,0.0
0.023,3.770072077813748,-0.47866782714711076,7.133254166507856,0.0,7.476346504606091,8.704325436054608,319.01176946126947,325.7289805319347,0.0
0.024,3.9628235881203078,-0.4252618028569215,6.230134167772595,0.0,7.641136517793732,8.797299885784572,335.06321977532525,325.7289805319347,0.0
0.025,4.021674646860306,-0.46043625430979374,-1.8889333816892027,0.0,7.803148224538326,8.008843560048515,337.04150436626924,325.7289805319347,0.0
0.026000000000000002,3.5171506426917487,-0.29975981830442877,-2.9912009155045407,0.0,7.852086975559734,7.331461435381402,335.27174887108674,325.7289805319347,0.0
0.027,2.958257976192387,-0.12399018988119082,-2.201750851304814,0.0,7.810665744245785,6.881006533956501,333.91842168803225,325.7289805319347,0.0
0.028,2.5394414509929737,-0.02245251646516766,-1.606981671338545,0.0,7.718929698129215,6.569465999803935,333.0878208770273,325.7289805319347,0.0
0.029,2.2517867371673033,0.012666740984508706,-1.2652696692869925,0.0,7.602365461623737,6.339000396149806,332.4063069982731,325.7289805319347,0.0
0.03,2.0522679591332347,0.006277952268217257,-0.9912859945732895,0.0,7.475465047736685,6.165716531854024,331.7724533417619,325.7289805319347,0.0
0.031,1.9110532127385627,-0.02446907765636619,-0.7347938944159438,0.0,7.347244574213301,6.0360837411923605,331.1776261441323,325.7289805319347,0.0
0.032,1.8098540934875658,-0.06856441884526976,-0.49186675172313477,0.0,7.223425886207621,5.9404690025928195,330.63260344864034,325.7289805319347,0.0
0.033,1.7364941524879585,-0.11932497971305,-0.2683916331442009,0.0,7.107570301426124,5.871244462986872,330.096790190208,325.7289805319347,0.0
0.034,1.6831669507727929,-0.17093399300543954,-0.04416310051077765,0.0,7.001547207015667,5.824919599045927,329.54850887846993,325.7289805319347,0.0
0.035,1.6455103630581287,-0.22062796212298874,0.19178227189291785,0.0,6.906444182122168,5.799945570327562,328.9662480164611,325.7289805319347,0.0
0.036000000000000004,1.621766593631276,-0.2668198504053376,0.4505400280520582,0.0,6.822938224866065,5.796297790204963,328.33256461680037,325.7289805319347,0.0
0.037,1.611907295699341,-0.3088139169954811,0.7413458870337788,0.0,6.7515755137654025,5.814912344373652,327.6377005499808,325.7289805319347,0.0
0.038,1.6170604757120441,-0.34634027179442084,1.0696907202630919,0.0,6.69291848755366,5.857073602300099,327.04511285801345,325.7289805319347,0.0
0.039,1.6378615079348668,-0.3810758750347689,1.352823242985988,0.0,6.6477889425641825,5.914777579235566,326.4476563203116,325.7289805319347,0.0
0.04,1.6707729593123564,-0.4102591331698305,1.6443647539531563,0.0,6.615805552129654,5.9880241956284035,325.7122213993115,325.7289805319347,0.0
0.041,1.7155922073226044,-0.433233380829614,2.012249805779434,0.0,6.59658049703909,6.083698749162375,324.97605921583124,325.7289805319347,0.0
0.042,1.77672177308966,-0.4523003351553619,2.3878601106805926,0.0,6.590713025310211,6.1992455651004805,324.351002057871,325.7289805319347,0.0
0.043000000000000003,1.853763188705422,-0.4682738688928334,2.7141684744013364,0.0,6.598553401515894,6.326925509172093,323.21592834242216,325.7289805319347,0.0
0.044,1.9431375102911506,-0.4785023453805568,3.306835854020896,0.0,6.619343131584447,6.495491063359785,322.71046431422167,325.7289805319347,0.0
0.045,2.061679496989265,-0.48941835457194927,3.589753030298273,0.0,6.656008920311092,6.662327375408945,322.1195509039061,325.7289805319347,0.0
0.046,2.1873655895971003,-0.4937010374446615,3.921304031736349,0.0,6.70605369639407,6.837148023201387,321.3686530475305,325.7289805319347,0.0
0.047,2.321841074406844,-0.49142066225645087,4.340356234768199,0.0,6.768282391548565,7.028735873739011,320.6051233637992,325.7289805319347,0.0
0.048,2.4711857463105376,-0.48586368632666865,4.773359648315202,0.0,6.842858538640979,7.235744503136866,319.8652249777852,325.7289805319347,0.0
0.049,2.636696595917013,-0.47775861263944375,5.2019463968636845,0.0,6.92984194561764,7.455611645771365,319.1443371605903,325.7289805319347,0.0
0.05,2.8176628502046874,-0.46679343126756806,5.628236739174589,0.0,7.028988606946046,7.686545305533212,318.4355930814389,325.7289805319347,0.0
0.051000000000000004,3.0133376534929903,-0.4526217889922185,6.055542653255227,0.0,7.139864739281235,7.927326446758646,317.89550717478744,325.7289805319347,0.0
0.052000000000000005,3.2223052483819217,-0.4367847879517989,6.403920340152442,0.0,7.26213101881375,8.16813588610804,317.2487233808985,325.7289805319347,0.0
0.053,3.4396206746832245,-0.4163122949537901,6.8121148086072605,0.0,7.394158010108579,8.416693603192549,316.5456340024158,325.7289805319347,0.0
0.054,3.66901643967176,-0.39315497574252656,7.255492963143815,0.0,7.535495493799116,8.675227520126837,323.5373984205422,325.7289805319347,0.0
0.055,3.907379484832359,-0.37793355108361704,3.781526575194529,0.0,7.687109837293659,8.511545732199181,334.32763288582356,325.7289805319347,0.0
0.056,3.819946461783866,-0.3800289027721053,-1.6995771809850315,0.0,7.807577270578309,7.823213071100432,335.24104454893825,325.7289805319347,0.0
0.057,3.350662501659826,-0.23695152028651917,-2.25140365271241,0.0,7.831405228834316,7.260617450494962,334.4627690476437,325.7289805319347,0.0
0.058,2.8754932407093903,-0.10193071115546565,-1.9496037872222205,0.0,7.783169314024617,6.842956216800142,333.60969998525513,325.7289805319347,0.0
0.059000000000000004,2.500163367055629,-0.02215936679028202,-1.6018764505611465,0.0,7.6905662275375475,6.534004116864062,332.8161441723111,325.7289805319347,0.0
0.06,2.22570727357258,0.00663457162051595,-1.2759701804928998,0.0,7.5739586199240385,6.305496206160376,332.0656494709614,325.7289805319347,0.0
0.061,2.0305773502560776,-0.001038129812970967,-0.9640895192082977,0.0,7.4472929185433046,6.137945866436315,331.40040703102073,325.7289805319347,0.0
0.062,1.8935100364462856,-0.03261142679714857,-0.6881825642288373,0.0,7.31993508898216,6.014841054267392,330.81215728844654,325.7289805319347,0.0
0.063,1.7967427582046394,-0.07751763938546302,-0.4448894605068596,0.0,7.197626511575114,5.924587839687358,330.2860658200498,325.7289805319347,0.0
0.064,1.7271128662149626,-0.12862386436579476,-0.22741457918965313,0.0,7.083696093072723,5.859310010068741,329.7603456210096,325.7289805319347,0.0
0.065,1.6764870062523993,-0.17993467109230632,-0.004868130560290673,0.0,6.97976405994882,5.816344827773789,329.21399473669686,325.7289805319347,0.0
0.066,1.6409627979454557,-0.22894063309286516,0.23345716954845996,0.0,6.886806259660608,5.794674683235748,328.6295908563875,325.7289805319347,0.0
0.067,1.6192516714012268,-0.2743069221118003,0.49665300645861565,0.0,6.805477457119494,5.794477044018519,327.99251649599324,325.7289805319347,0.0
0.068,1.6115757413128111,-0.3154775129639191,0.7925548270151563,0.0,6.736336873014306,5.816710771405296,327.3093637250265,325.7289805319347,0.0
0.069,1.6190954191894282,-0.35230198069738683,1.1183273805676026,0.0,6.679972705600482,5.861779106460776,326.7187325848593,325.7289805319347,0.0
0.07,1.6419787990299948,-0.3861692076473394,1.4037454301219587,0.0,6.637108938720743,5.92240047618108,326.14256496003765,325.7289805319347,0.0
0.07100000000000001,1.6769023262216693,-0.41463674795240935,1.687693398251762,0.0,6.607386442665071,5.997440674047437,325.3654971238324,325.7289805319347,0.0
0.07200000000000001,1.7233385281136075,-0.43636115366643613,2.0798621504353947,0.0,6.5902452252270916,6.097544938644297,324.6695411777406,325.7289805319347,0.0
0.073,1.7873989282336589,-0.45520099042025297,2.43843451702325,0.0,6.586683693978374,6.214863645846211,324.0578899514484,325.7289805319347,0.0
0.074,1.8662151368971769,-0.47049229020277095,2.760971035974226,0.0,6.5967038311832615,6.343958443670007,322.73256913765005,325.7289805319347,0.0
0.075,1.957332041461603,-0.4792757361455837,3.453595556816236,0.0,6.619444700505924,6.524874410119573,322.5257009279181,325.7289805319347,0.0
0.076,2.083335833361858,-0.4926463050623495,3.5890624577223855,0.0,6.6593860076626905,6.68499873268432,321.8526380870736,325.7289805319347,0.0
0.077,2.2073583907359557,-0.49414552523117783,3.9643573025932293,0.0,6.711376824889661,6.860650074242852,321.0691232996748,325.7289805319347,0.0
0.078,2.342219151084607,-0.49037847064231643,4.402713268615235,0.0,6.775304326343323,7.054807113117329,320.30634719154074,325.7289805319347,0.0
0.079,2.493629857775636,-0.48430723289200284,4.838327656086207,0.0,6.85162461593242,7.264168651078785,319.575614497895,325.7289805319347,0.0
0.08,2.6615928773038684,-0.4759208577138576,5.265227663249471,0.0,6.940387241466662,7.48586709603506,318.86312451706164,325.7289805319347,0.0
0.081,2.8448618637591934,-0.46461536789236346,5.690131213814886,0.0,7.041283708814522,7.718262391224889,318.18350909891717,325.7289805319347,0.0
0.082,3.042512624046239,-0.45023594594060734,6.1053936372172934,0.0,7.153861377430102,7.95902874093211,317.6339841987129,325.7289805319347,0.0
0.083,3.252657217799492,-0.433742246436148,6.461106050651657,0.0,7.277587401428872,8.200812566063938,316.9840512096211,325.7289805319347,0.0
0.084,3.471580614713767,-0.4128711756760959,6.873521838420684,0.0,7.410988324752387,8.450619095879672,316.2832496932495,325.7289805319347,0.0
0.085,3.702915628585321,-0.38950657982842585,7.318379904993335,0.0,7.553668413889483,8.710337676934753,327.1558481180148,325.7289805319347,0.0
0.08600000000000001,3.928951920540018,-0.3978022056634771,1.8678120167498982,0.0,7.7091985170187085,8.331790718449232,333.26267635085765,325.7289805319347,0.0
0.08700000000000001,3.7124607577341227,-0.3454163588423691,-1.2609390578607673,0.0,7.805475514577786,7.743068917628644,334.6237850741785,325.7289805319347,0.0
0.088,3.274450449373657,-0.21443117866590256,-2.0304414649436318,0.0,7.819368120947696,7.215505464904606,334.35667597542465,325.7289805319347,0.0
0.089,2.8300941074403214,-0.09498454502761766,-1.9831638700016065,0.0,7.767285843509767,6.799482272133476,333.52298292922575,325.7289805319347,0.0
0.09,2.4647209478038716,-0.020519063766611167,-1.6442573708750654,0.0,7.671812737936188,6.492407593990839,332.593038160995,325.7289805319347,0.0
0.091,2.19442271371125,0.006223671561154109,-1.2479255630502837,0.0,7.552982429032258,6.272779581128395,331.79475820350245,325.7289805319347,0.0
0.092,2.005962989202079,-0.004055067103373222,-0.9094433610196986,0.0,7.4254704383388574,6.114528650162001,331.14593051367956,325.7289805319347,0.0
0.093,1.8761407918287127,-0.038232842658420085,-0.6391990159256995,0.0,7.29854132154256,5.9980895136289165,330.5833739818631,325.7289805319347,0.0
0.094,1.784916144857692,-0.08475161902042827,-0.40646468451674167,0.0,7.177436490416861,5.91223620126664,330.0735139943788,325.7289805319347,0.0
0.095,1.7188870828280833,-0.13637043710817953,-0.19498002539904413,0.0,7.065069693393534,5.850144656570421,329.55045755214786,325.7289805319347,0.0
0.096,1.670605744232706,-0.1874373598523819,0.028333425514293964,0.0,6.962831594923902,5.810125876275978,329.0013553171877,325.7289805319347,0.0
0.097,1.6369917244080456,-0.23588145051089948,0.270160795141851,0.0,6.8716336090167855,5.791467769108674,328.41261614917426,325.7289805319347,0.0
0.098,1.6171822636935098,-0.280596439554878,0.5376940229761722,0.0,6.792123818871899,5.794408955913237,327.77106721202176,325.7289805319347,0.0
0.099,1.6115523373598295,-0.32111529021882834,0.838047624751548,0.0,6.724869050104556,5.819889806229367,327.0959747951638,325.7289805319347,0.0
0.1,1.6213056515794788,-0.35727883237955405,1.1619238905482467,0.0,6.670460644376599,5.867590784029533,326.51207943898703,325.7289805319347,0.0
0.101,1.6460159850880267,-0.3905971475163076,1.4460405795661007,0.0,6.6295665562448916,5.930474293067141,325.9497504175997,325.7289805319347,0.0
0.10200000000000001,1.682611528317409,-0.4183074638411841,1.7249973914031074,0.0,6.601765179474485,6.007045718379562,325.1309593839617,325.7289805319347,0.0
0.10300000000000001,1.7304461869686405,-0.43889518880468903,2.140373119701856,0.0,6.5863886294950955,6.111185768458851,324.46352570043103,325.7289805319347,0.0
0.10400000000000001,1.7971966672498825,-0.45756344683575845,2.486744509782216,0.0,6.5848113706553555,6.230457047913699,323.8567679793533,325.7289805319347,0.0
0.105,1.8778226561276268,-0.47243380906579413,2.8088454958468865,0.0,6.596768022910072,6.361409514131661,322.3690546138152,325.7289805319347,0.0
0.106,1.9709177582769317,-0.4801267923262679,3.5863014377971454,0.0,6.621321781097461,6.553327341359532,322.4230672831615,325.7289805319347,0.0
0.107,2.1037057958909227,-0.495660779063583,3.592354235611717,0.0,6.6642437548974005,6.707724276907411,321.69341195675156,325.7289805319347,0.0
0.108,2.2264166404803962,-0.49473131772761764,3.9975375845685264,0.0,6.718055644257804,6.883313044158896,320.87092018602885,325.7289805319347,0.0
0.109,2.3612205574978464,-0.4893742003105943,4.457364073388938,0.0,6.783465233104803,7.079651881475925,320.1020795785333,325.7289805319347,0.0
0.11,2.5143393594324404,-0.4827298827454416,4.898053386670741,0.0,6.861290443040805,7.291280324476117,319.37692270378466,325.7289805319347,0.0
0.111,2.6845958074183405,-0.4741023287781845,5.324152402326551,0.0,6.951613388522483,7.514795421500104,318.6708505566951,325.7289805319347,0.0
0.112,2.870097885046687,-0.4625335686979841,5.747769775623734,0.0,7.054069261089243,7.748625560216738,318.01756705986975,325.7289805319347,0.0
0.113,3.0696659307128087,-0.4480148608339627,6.151525658757052,0.0,7.168181190006748,7.989397781483081,317.45724974569845,325.7289805319347,0.0
0.114,3.2809503937496403,-0.4309347863203761,6.514401623705066,0.0,7.293225527041283,8.232137160350105,316.8024088769767,325.7289805319347,0.0
0.115,3.5014238368663824,-0.40971000482918507,6.93108777461552,0.0,7.42787544304017,8.483174517872069,316.10214820500846,325.7289805319347,0.0
0.116,3.73463152044939,-0.38616784896703593,7.377486433868901,0.0,7.571786713861444,8.744062011487538,328.6498599352118,325.7289805319347,0.0
0.117,3.949103535617227,-0.41605780886272514,1.0744217747344642,0.0,7.7309189241092815,8.27419093889363,333.88677900446,325.7289805319347,0.0
0.11800000000000001,3.67794250139084,-0.33815661602405567,-1.625615744614882,0.0,7.818282775261735,7.665219147963393,334.86119408203814,325.7289805319347,0.0
0.11900000000000001,3.2143646897103926,-0.19715942373162876,-2.204145418904995,0.0,7.82128238298214,7.1375249812055905,334.2515054701048,325.7289805319347,0.0
0.12,2.76535497941008,-0.07715608446584987,-1.9845263623200275,0.0,7.759422217858408,6.737598874879088,333.2781043471065,325.7289805319347,0.0
0.121,2.410568348058277,-0.008488350748706797,-1.5733170389725828,0.0,7.6574020412981785,6.449052630020927,332.3511235120154,325.7289805319347,0.0
0.122,2.1556180370602456,0.010804552171224113,-1.1760480512278608,0.0,7.535293715924128,6.243243155307267,331.5957541919411,325.7289805319347,0.0
0.123,1.9801507864380057,-0.005334114068219931,-0.8570311277907776,0.0,7.406783457931661,6.093674861686669,330.9798388402002,325.7289805319347,0.0
0.124,1.859036872467689,-0.04297683210304559,-0.6015820350029779,0.0,7.280146708697816,5.982689460631684,330.44037613153813,325.7289805319347,0.0
0.125,1.7728981143970293,-0.09148646821053563,-0.37896463666796887,0.0,7.160034727073329,5.900336471895853,329.9231313710414,325.7289805319347,0.0
0.126,1.7101436641988363,-0.14314104158712504,-0.1622837648106672,0.0,7.048895551448058,5.841857907733204,329.3996470194646,325.7289805319347,0.0
0.127,1.664455801320483,-0.19409160642338652,0.06275174610241852,0.0,6.948110453367274,5.805098500320796,328.84987746143634,325.7289805319347,0.0
0.128,1.6330752799090462,-0.2422006873585819,0.30642755582154657,0.0,6.858510417607834,5.789485486528,328.25720570461243,325.7289805319347,0.0
0.129,1.615325777949212,-0.28641279105046613,0.5774811825067216,0.0,6.780691324641818,5.795491551378185,327.5743010693489,325.7289805319347,0.0
0.13,1.6119464785888107,-0.3260735245151215,0.9004802947643429,0.0,6.715175307101612,5.8261286944382835,326.9657046722,325.7289805319347,0.0
0.131,1.6248243434763807,-0.3626311702867002,1.1924112519361478,0.0,6.662899339321665,5.874582577473434,326.3899230575901,325.7289805319347,0.0
0.132,1.6505257471798571,-0.3950553224262689,1.4736926339845269,0.0,6.623897436900865,5.9382867421221714,325.8973521439418,325.7289805319347,0.0
0.133,1.6877390223682938,-0.4215664684154742,1.71829437468861,0.0,6.597758125724436,6.01197723148723,324.89193120459936,325.7289805319347,0.0
0.134,1.7343979189204433,-0.4394760712105949,2.2293753376331917,0.0,6.583306739449727,6.1246972834461495,324.2716465960452,325.7289805319347,0.0
0.135,1.8058979882059885,-0.45916976425273653,2.5540909812691805,0.0,6.5835597072050644,6.247909684096332,323.6124611729623,325.7289805319347,0.0
0.136,1.8904017941593154,-0.47403235738316074,2.904848886400342,0.0,6.5975465665638096,6.385581936623085,322.2410191673628,325.7289805319347,0.0
0.137,1.988885509635882,-0.4818703750727237,3.6254495028457994,0.0,6.624615521253906,6.57665596794784,322.3209438849127,325.7289805319347,0.0
