timestamp,iq,id,iq_ref,id_ref,vq,vd,omega,omega_ref,r
0.0,0.0,0.0,0.0,0.0,0.0,0.0,0.0,36.4966925701265,0.0
0.001,0.0,0.0,10.0,0.0,0.0,1.0999999999999999,5.628047958391674,36.4966925701265,0.0
0.002,0.8355329832718529,-0.508467473506115,10.0,0.0,0.16593142208567266,1.898091371840096,13.998213249187176,36.4966925701265,0.0
0.003,1.712205301557892,-1.0306717335804647,10.0,0.0,0.44743663301990494,2.5448881235260035,23.24951840345521,36.4966925701265,0.0
0.004,2.439872036532982,-1.4558301327235648,7.3265785900854,0.0,0.8070163793343025,2.7898027483817383,30.977844580626257,36.4966925701265,0.0
0.005,2.7662018165017503,-1.6362539238895306,3.517603981394878,0.0,1.170724646539658,2.6253112840797144,35.65868785388089,36.4966925701265,0.0
0.006,2.6146321805174937,-1.5313634812972485,1.185562391930017,0.0,1.4682707539974664,2.315140921932156,37.64224626169505,36.4966925701265,0.0
0.007,2.184766565423888,-1.2665352884897338,0.18232765110725246,0.0,1.6769630177118335,2.0244763224497313,38.18032893582389,36.4966925701265,0.0
0.008,1.6943957360846826,-0.9725427572078265,-0.10355004961414016,0.0,1.8060286985935863,1.8119753446922375,38.335061879877735,36.4966925701265,0.0
0.009000000000000001,1.2744337766897158,-0.7233738128933952,-0.1993002147385763,0.0,1.8764690550496472,1.6672493988822485,38.007776393417004,36.4966925701265,0.0
0.01,0.9619865413963794,-0.5366717340307932,-0.05076830974111579,0.0,1.9073472420473603,1.5915056707881463,37.49565734065581,36.4966925701265,0.0
0.011,0.7627241070204324,-0.418174876800298,0.1953015689341876,0.0,1.9163956040291639,1.570800897235956,37.08399527799942,36.4966925701265,0.0
0.012,0.6609260955866204,-0.35829387657478573,0.39525957318365335,0.0,1.9170667110050665,1.5818112758318126,36.7936541345514,36.4966925701265,0.0
0.013000000000000001,0.6262641882800262,-0.33929257718948824,0.5374605292634131,0.0,1.917280412212837,1.6082250820813395,36.75648526887208,36.4966925701265,0.0
0.014,0.6303877749461468,-0.344613413824634,0.5534470351156171,0.0,1.9208894289485023,1.6315551703032976,36.9552708571773,36.4966925701265,0.0
0.015,0.6466572309279974,-0.3570190655391881,0.44946845809250235,0.0,1.9277819661550464,1.6395672385542188,37.30055134896914,36.4966925701265,0.0
0.016,0.6552954559422958,-0.3635238962521747,0.268789624408156,0.0,1.9353779313273107,1.6278449575739007,37.64086982447919,36.4966925701265,0.0
0.017,0.6461305497532881,-0.35747837125711834,0.08718861410960288,0.0,1.9403120158277312,1.600979700343778,37.879119505655254,36.4966925701265,0.0
0.018000000000000002,0.6200153840573863,-0.33922109804381806,-0.045760495833716996,0.0,1.9401183213515842,1.567267004460589,37.78946909148941,36.4966925701265,0.0
0.019,0.5845628575186963,-0.3135702831098705,-0.013863053964423333,0.0,1.9339337098241323,1.5453830446854564,37.442678249934374,36.4966925701265,0.0
0.02,0.556432186355042,-0.29287799661902825,0.15007251001501498,0.0,1.9241595201072592,1.5455228059167518,37.05673255266944,36.4966925701265,0.0
0.021,0.5491327818026492,-0.2859671942656039,0.33744495882205394,0.0,1.9148234600912346,1.5641644135713375,36.735783072965084,36.4966925701265,0.0
0.022,0.5638179787690204,-0.2934585424363118,0.4955287936458448,0.0,1.909178323164583,1.5938353860895837,36.512233245135505,36.4966925701265,0.0
0.023,0.5936919883453377,-0.311547171878658,0.6071483008105443,0.0,1.9089796329393725,1.627532766019488,36.54414737731323,36.4966925701265,0.0
0.024,0.6300030267736325,-0.3348435985934325,0.5907166866498145,0.0,1.9145522703738753,1.6512213921732048,36.78529756984176,36.4966925701265,0.0
0.025,0.6590605704160827,-0.35361354514292487,0.4672555403883971,0.0,1.9237682365335955,1.6568487900914646,37.14244436950058,36.4966925701265,0.0
0.026000000000000002,0.6703976237648538,-0.3604456500931818,0.28222462256524583,0.0,1.933189177948203,1.6427597549039978,37.46664212853586,36.4966925701265,0.0
0.027,0.6599530926285261,-0.35271702205934474,0.1104262474635127,0.0,1.9393406515693787,1.6152364742522631,37.72016192943798,36.4966925701265,0.0
0.028,0.6324832351493235,-0.3330381775016508,-0.02856834658066143,0.0,1.9400372631422549,1.5804264864453264,37.66229779360511,36.4966925701265,0.0
0.029,0.5956267144455294,-0.3057511060484926,-0.011292330899014935,0.0,1.9343784253628804,1.556236984944419,37.381996413931304,36.4966925701265,0.0
0.03,0.5654483169511078,-0.2826629550658158,0.12000532049984125,0.0,1.9245996953177893,1.5511215898300714,36.9823162848038,36.4966925701265,0.0
0.031,0.5537585784562797,-0.27194719205956597,0.31498914791682,0.0,1.914339446344911,1.5666591929840146,36.65620621132048,36.4966925701265,0.0
0.032,0.5653438399961325,-0.27588522862576065,0.47644904824654044,0.0,1.9071993242370593,1.594036485533044,36.37109883675821,36.4966925701265,0.0
0.033,0.5935131346658082,-0.2909856526481338,0.6202586728613597,0.0,1.9051326098716952,1.6291837265224522,36.238000835053455,36.4966925701265,0.0
0.034,0.6314695763173808,-0.31364394933817097,0.6893945910644663,0.0,1.9091286994374888,1.6628829110976004,36.35313979591119,36.4966925701265,0.0
0.035,0.669580698378325,-0.3370285057600423,0.633260638377752,0.0,1.9184408167437228,1.682933033184055,36.63597915599816,36.4966925701265,0.0
0.036000000000000004,0.6954298943423609,-0.352412518909693,0.49044809247555177,0.0,1.9302851304102215,1.6842990139346787,36.95455283141763,36.4966925701265,0.0
0.037,0.7014191819119494,-0.3547688453742025,0.3265826521529044,0.0,1.9411869665647326,1.6697154253274067,37.221485082480136,36.4966925701265,0.0
0.038,0.6878550428881325,-0.34468131250195316,0.1858686014981148,0.0,1.948407068362473,1.6453924361958276,37.45695209504634,36.4966925701265,0.0
0.039,0.6611255192644029,-0.3254069289901289,0.05853249996581433,0.0,1.9504535542097028,1.6144285317035476,37.553692596530006,36.4966925701265,0.0
0.04,0.6269080000478638,-0.2999773797522358,-0.0004077510400536388,0.0,1.946594494441932,1.5850522315274775,37.36819167272398,36.4966925701265,0.0
0.041,0.593621743723484,-0.27427566343442467,0.08362771983698392,0.0,1.9376108173307507,1.571380272702287,37.094870512947075,36.4966925701265,0.0
0.042,0.574488828884998,-0.25769340923236406,0.21430652029723096,0.0,1.9265912812491202,1.573483213459344,36.76029622714967,36.4966925701265,0.0
0.043000000000000003,0.5736557711046366,-0.25300658785112984,0.37895762662570376,0.0,1.9165342650414428,1.5909790474315169,36.51180957402326,36.4966925701265,0.0
0.044,0.591547890428022,-0.25967825004479983,0.5030497831499392,0.0,1.910013284906867,1.6157467588367092,36.27944729865818,36.4966925701265,0.0
0.045,0.6207319303989445,-0.27361741540156953,0.6214033735471644,0.0,1.9080877654935762,1.6461322512628105,36.04337899939021,36.4966925701265,0.0
0.046,0.65645666042249,-0.2921237913998338,0.7439706588885121,0.0,1.9112896569704654,1.6819476280856673,36.036493549756734,36.4966925701265,0.0
0.047,0.6960309705936328,-0.31449134744849394,0.7520153739089459,0.0,1.9200282643873212,1.7101649753541712,36.16677824419231,36.4966925701265,0.0
0.048,0.7292765709084392,-0.3328894676723009,0.690172169950501,0.0,1.932514863453475,1.7262899761189596,36.35530567928612,36.4966925701265,0.0
0.049,0.7493105218066457,-0.3428954509472897,0.5973223213119996,0.0,1.9462819796475017,1.7305848068075798,36.623939107644574,36.4966925701265,0.0
0.05,0.7548086019330679,-0.3432702009685479,0.46173314175759095,0.0,1.959043029960577,1.721436105477216,36.795605938422106,36.4966925701265,0.0
0.051000000000000004,0.7446493373404609,-0.33410596681629,0.3729105926858688,0.0,1.9686012918523477,1.7072362906153018,36.914622962178385,36.4966925701265,0.0
0.052000000000000005,0.7257360911925247,-0.31979113315566876,0.3092227768872109,0.0,1.9743007567076036,1.691273713611968,37.026329407150115,36.4966925701265,0.0
0.053,0.7039269335278271,-0.30331364850342984,0.2480731860311095,0.0,1.9761646424018606,1.6735976388399454,37.131551002776085,36.4966925701265,0.0
0.054,0.6815225736187872,-0.28607910992080343,0.18911380389162857,0.0,1.974343507651923,1.6542479120011164,37.19281847768661,36.4966925701265,0.0
0.055,0.6595212438488849,-0.2684692599181209,0.15151880736076628,0.0,1.9690047755786273,1.6353012912497757,37.065764351408646,36.4966925701265,0.0
0.056,0.6399489445170331,-0.2513119190031968,0.20935515268692562,0.0,1.9605940456369129,1.6263863469462305,36.88756268119296,36.4966925701265,0.0
0.057,0.6299961478902446,-0.24029391320162857,0.29454728668410357,0.0,1.9510924870299917,1.6272136800009243,36.721443433321326,36.4966925701265,0.0
0.058,0.6316914396499078,-0.2366604093157857,0.3753594019879725,0.0,1.9423343122198053,1.6347595251730802,36.604483617288444,36.4966925701265,0.0
0.059000000000000004,0.6428632934685312,-0.23884462320202696,0.4327613995327939,0.0,1.9354831379741981,1.64496911592144,36.513088479557375,36.4966925701265,0.0
0.06,0.6590672429936024,-0.24402183625419652,0.47829500930401997,0.0,1.9308856915248627,1.6562365913602193,36.468079858689855,36.4966925701265,0.0
0.061,0.6771987656900116,-0.2501122897066434,0.5010854468521465,0.0,1.9284929150135874,1.6661367586414142,36.4111511383559,36.4966925701265,0.0
0.062,0.6940368908957499,-0.2554514984157933,0.5304052213368311,0.0,1.927855841305041,1.6761340238155291,36.37240965505108,36.4966925701265,0.0
0.063,0.7097015465299374,-0.2599491628919301,0.5510187921399944,0.0,1.9287235524900446,1.6854874192771754,36.33546382047199,36.4966925701265,0.0
0.064,0.7237256259949286,-0.263423010587703,0.5711039969260825,0.0,1.9307769787044853,1.694609480944789,36.302011418997246,36.4966925701265,0.0
0.065,0.7364160893918509,-0.266006261812039,0.5897770091747486,0.0,1.9337866876219632,1.7036221481875655,36.27306821046545,36.4966925701265,0.0
0.066,0.7481319739337252,-0.26780818787033706,0.6064848570372554,0.0,1.9375690717261405,1.712523810074565,36.24583963305706,36.4966925701265,0.0
0.067,0.7591235970692811,-0.2688865615382492,0.6226076751121468,0.0,1.9419639854514867,1.7214280559934019,36.21486626833249,36.4966925701265,0.0
0.068,0.769622089378446,-0.26940858422436403,0.6409126204923701,0.0,1.9468564711549756,1.7306887665813135,36.182251798142936,36.4966925701265,0.0
0.069,0.7799833581096949,-0.26972784122267707,0.6603642633069843,0.0,1.9522156773898602,1.7404345312992422,36.15680022818497,36.4966925701265,0.0
0.07,0.7904688572537167,-0.270045018402325,0.6764889717053824,0.0,1.9580452363928276,1.750271049446014,36.14759266342907,36.4966925701265,0.0
0.07100000000000001,0.8009054053024809,-0.2702322839132423,0.6845837531503051,0.0,1.9642929187445801,1.7593928852594394,36.166957619032225,36.4966925701265,0.0
0.07200000000000001,0.8104236083820969,-0.2702496410677421,0.678198624859672,0.0,1.970828053074385,1.7665013569420083,36.20349357085829,36.4966925701265,0.0
0.073,0.8180042380420609,-0.26912013154339554,0.6628626389393203,0.0,1.977296101520243,1.7711907004891687,36.253206725830495,36.4966925701265,0.0
0.074,0.8230313433944013,-0.2664607055470183,0.6404409198961789,0.0,1.9833050377118742,1.7732677099984995,36.31359923426408,36.4966925701265,0.0
0.075,0.8252572886652662,-0.26219112310060455,0.6120755990380096,0.0,1.9884777214261333,1.7726473611458213,36.38274896883543,36.4966925701265,0.0
0.076,0.8246463007339193,-0.2564189532529808,0.5786401677652467,0.0,1.9924788590249238,1.7693015394435705,36.454082894698075,36.4966925701265,0.0
0.077,0.8212185658996993,-0.24943087575277406,0.5433993015882078,0.0,1.9950343338670635,1.763519213657128,36.50208364368938,36.4966925701265,0.0
0.078,0.8152575797232642,-0.24166245134135597,0.5193450163569258,0.0,1.9959713827360916,1.7568985363509393,36.5071634410206,36.4966925701265,0.0
0.079,0.8082747342283869,-0.2338679634977481,0.5167004089823747,0.0,1.9953729495689152,1.751691770846057,36.44969881811616,36.4966925701265,0.0
0.08,0.802595660445817,-0.22725060036836994,0.5459026579546983,0.0,1.9936637181021728,1.7507394016967797,36.343688581845335,36.4966925701265,0.0
0.081,0.8012624334821179,-0.2232005576158259,0.6004378159729231,0.0,1.9916508417956897,1.7555080554362186,36.23147179862833,36.4966925701265,0.0
0.082,0.8062791891656185,-0.22265840880607554,0.6591984152964088,0.0,1.9902969825522536,1.764951695121645,36.05208121274186,36.4966925701265,0.0
0.083,0.8173441658633802,-0.22508237495237246,0.7533398218134882,0.0,1.9902949309658928,1.7819165537579091,35.87451652129621,36.4966925701265,0.0
0.084,0.8360447489612,-0.2315321263140827,0.8483439280246177,0.0,1.9926748033901192,1.8047473446161817,35.6189270329753,36.4966925701265,0.0
0.085,0.861717243733586,-0.24073304140419935,0.9849163275565835,0.0,1.9980473708040472,1.8369689979234716,35.494414018203294,36.4966925701265,0.0
0.08600000000000001,0.897369623803239,-0.2520863853469948,1.0571956204618187,0.0,2.007261705490117,1.869425704005743,35.621510420589594,36.4966925701265,0.0
0.08700000000000001,0.9354030465333623,-0.26354151208943666,1.0023992407640376,0.0,2.019946807818047,1.8889806255529686,35.88434279548027,36.4966925701265,0.0
0.088,0.9626762293383131,-0.2690378611047267,0.877106551065161,0.0,2.0338089391921654,1.8919946172271231,36.20858068434415,36.4966925701265,0.0
0.089,0.9719446864893089,-0.26548805485520305,0.7178687254910461,0.0,2.046140814418686,1.87908339049655,36.472865004557164,36.4966925701265,0.0
0.09,0.9622471066215773,-0.2522070073845995,0.5859648410402317,0.0,2.054522962290226,1.8569388432847982,36.71546113716067,36.4966925701265,0.0
0.091,0.9390575078390444,-0.23305036863470285,0.4624790890681353,0.0,2.0578780208656546,1.8280364517763539,36.691436998808534,36.4966925701265,0.0
0.092,0.9062311085007705,-0.21218672606915173,0.4725437139573846,0.0,2.055903900137984,1.808080779473221,36.38369366885055,36.4966925701265,0.0
0.093,0.8794111887827185,-0.19494531758183947,0.6275453679491374,0.0,2.0504437057448186,1.8094947251934377,35.98440622962934,36.4966925701265,0.0
0.094,0.8737567164842093,-0.18805594346944643,0.8323119509647112,0.0,2.0450855082955006,1.831549357249767,35.649882494201634,36.4966925701265,0.0
0.095,0.8928500710688625,-0.1935641769633486,1.0080419194378143,0.0,2.043143393222201,1.8659885233301194,35.42045617584499,36.4966925701265,0.0
0.096,0.9310537007663667,-0.20661985552013762,1.1335174425589516,0.0,2.0462204485705753,1.9048231034328231,35.55056676170809,36.4966925701265,0.0
0.097,0.9784667582582702,-0.22265542908145325,1.0779234077115856,0.0,2.054506612700558,1.9278784319685365,35.92612752002586,36.4966925701265,0.0
0.098,1.0143553545114752,-0.23307882880687864,0.8958486790537079,0.0,2.065255911505298,1.9265109492468517,36.30578637606735,36.4966925701265,0.0
0.099,1.0249855138015196,-0.23138540892261716,0.7079283129735521,0.0,2.074503021972872,1.906694220136197,36.56235767454098,36.4966925701265,0.0
0.1,1.010993177570021,-0.21887781462046224,0.5789860126925919,0.0,2.0794848473082292,1.8791248841916266,36.39108858644448,36.4966925701265,0.0
0.101,0.9823865063789795,-0.20093387935774903,0.6656765965776626,0.0,2.079362799579717,1.8686428620739168,35.92011225806551,36.4966925701265,0.0
0.10200000000000001,0.9645950569758714,-0.18736708264161694,0.9069305638877596,0.0,2.076891846126138,1.886538860682818,35.47864499726042,36.4966925701265,0.0
0.10300000000000001,0.9752314533136599,-0.18640722989267777,1.1378446700189657,0.0,2.0764876720435836,1.9240382579956143,35.37237395646988,36.4966925701265,0.0
0.10400000000000001,1.012794716906784,-0.19627481127663954,1.2022233765508012,0.0,2.0809688875802905,1.9584942197942001,35.740798874840394,36.4966925701265,0.0
0.105,1.0559978765242595,-0.20915257000713522,1.0255698543184049,0.0,2.0897654553896996,1.9655003175337251,36.21703282396437,36.4966925701265,0.0
0.106,1.0768768989803132,-0.213025840975055,0.7902494772180396,0.0,2.0986802584112874,1.946702095147531,36.456723366236915,36.4966925701265,0.0
0.107,1.0676461724835236,-0.20422984832846502,0.6708038981206614,0.0,2.103817466991292,1.9211135355116138,36.122742169947365,36.4966925701265,0.0
0.108,1.0426964045778215,-0.18849613856870817,0.8415340002672276,0.0,2.1042393506025974,1.9212244869290453,35.55200795144933,36.4966925701265,0.0
0.109,1.0354365933979996,-0.1786320536247138,1.1363479557030152,0.0,2.1037024287482735,1.9526378471930577,35.2909944316145,36.4966925701265,0.0
0.11,1.0616406717164444,-0.18182775044603483,1.2789116970055519,0.0,2.1068107026055687,1.990635004507331,35.67771520558224,36.4966925701265,0.0
0.111,1.1042415131585908,-0.19316759431158198,1.0937410836671253,0.0,2.114623290665559,1.998924816820203,36.21901614377214,36.4966925701265,0.0
0.112,1.1260982328350966,-0.1979539010278369,0.8258673788357194,0.0,2.1228966964509697,1.9775742745597216,36.32312284235206,36.4966925701265,0.0
0.113,1.1151248016417927,-0.18973261724377088,0.7755497268235007,0.0,2.127255503148381,1.957755567058828,35.76910314413995,36.4966925701265,0.0
0.114,1.0951502708522578,-0.17573194203478526,1.0598354701894241,0.0,2.1277386969908143,1.9742166833430541,35.23220891339834,36.4966925701265,0.0
0.115,1.1042332435202569,-0.17089425018099064,1.3409274221275103,0.0,2.129427543725599,2.0159583923612567,35.49912441302225,36.4966925701265,0.0
0.116,1.144695078401715,-0.1791500049321591,1.2174453538865964,0.0,2.1360781866298924,2.032940896014955,36.155542701678435,36.4966925701265,0.0
0.117,1.173174941024595,-0.18657271301348138,0.8926477082429851,0.0,2.1444959559505605,2.0116691267156233,36.25445283305477,36.4966925701265,0.0
0.11800000000000001,1.1645101679305658,-0.18032630053167503,0.8456150399255346,0.0,2.149183438955416,1.9926786178863793,35.57939367741266,36.4966925701265,0.0
0.11900000000000001,1.1464908911077132,-0.16676911905391734,1.192317606673728,0.0,2.150074296939126,2.016558989985595,35.167916283838984,36.4966925701265,0.0
0.12,1.1631498962092026,-0.16336181576359254,1.4113440663234411,0.0,2.153024874787229,2.0567536122378542,35.740209229758726,36.4966925701265,0.0
0.121,1.2044064121991034,-0.1724073657525454,1.1327624267672483,0.0,2.1607289406074353,2.056017958394145,36.29841235710562,36.4966925701265,0.0
0.122,1.2174297674805143,-0.17541621114838762,0.8556436652240105,0.0,2.1678295519549033,2.0274090252215773,35.80481691365015,36.4966925701265,0.0
0.123,1.1979152147601984,-0.1640824316227562,1.1093601435165086,0.0,2.1700824046485896,2.035327881080669,35.101634309178124,36.4966925701265,0.0
0.124,1.2007631207719511,-0.1551160880492583,1.4749020283620053,0.0,2.1720288976609887,2.079844163984804,35.55440408271422,36.4966925701265,0.0
0.125,1.2417203691524723,-0.16175514191501106,1.2579400264680793,0.0,2.179052329023529,2.0881054105812384,36.281842866807175,36.4966925701265,0.0
0.126,1.2620597884225586,-0.16776507797453977,0.8963691314547959,0.0,2.186794244337349,2.056811933585858,35.757309579045604,36.4966925701265,0.0
0.127,1.2425971036047163,-0.15748735211319292,1.1660296052463903,0.0,2.1894419712149062,2.0650446464112684,34.99511578185215,36.4966925701265,0.0
0.128,1.2464619414145517,-0.14763286327171804,1.562142271725861,0.0,2.191666980173299,2.112974890209459,35.68588794050766,36.4966925701265,0.0
0.129,1.2903335649074947,-0.15561054279299696,1.224864238694293,0.0,2.1994386022514267,2.1104856700192776,36.28258408590701,36.4966925701265,0.0
0.13,1.3019693066830003,-0.15976996158546464,0.9286572508368134,0.0,2.206561899374683,2.0789713303615445,35.3657839206845,36.4966925701265,0.0
0.131,1.28054596179837,-0.14654694195728707,1.398366419942489,0.0,2.208325306472817,2.108423758217173,35.05198581576475,36.4966925701265,0.0
0.132,1.3025558256480974,-0.14140184402815337,1.5697125399459804,0.0,2.212423885070776,2.146622947034063,36.09042073237813,36.4966925701265,0.0
0.133,1.3423929836691522,-0.15210229142479537,1.0545578000167763,0.0,2.2211610248835516,2.118869603492995,35.87326015092189,36.4966925701265,0.0
0.134,1.3315440076651135,-0.14807624244494544,1.1693724149369429,0.0,2.2256992464991914,2.114138222268476,34.88452611976426,36.4966925701265,0.0
0.135,1.3279388045543015,-0.13525985438669497,1.6798610950193784,0.0,2.227940965634207,2.1656274925699868,35.718075842924264,36.4966925701265,0.0
