timestamp,iq,id,iq_ref,id_ref,vq,vd,omega,omega_ref,r
0.0,0.0,0.0,0.0,0.0,0.0,0.0,0.0,43.413311077954816,0.0
0.001,0.0,0.0,10.0,0.0,0.0,1.0999999999999999,6.869508887366061,43.413311077954816,0.0
0.002,1.0312557609750204,-0.6116557835152782,10.0,0.0,0.17728213618668054,1.8765618662927475,12.590377535001654,43.413311077954816,0.0
0.003,2.221431477502209,-1.2878881617171682,10.0,0.0,0.48276124915102286,2.4725889883666476,17.64855734648443,43.413311077954816,0.0
0.004,3.2430308479284964,-1.8795201913459394,10.0,0.0,0.8756123625034671,2.9390871359479727,23.58045651675054,43.413311077954816,0.0
0.005,4.007963767620715,-2.32225802693205,10.0,0.0,1.318613020896984,3.324293952644529,29.27744421482669,43.413311077954816,0.0
0.006,4.532826069458859,-2.62431180526668,8.140259642450836,0.0,1.7846328323817524,3.460623190175098,33.634982910137374,43.413311077954816,0.0
0.007,4.6827318256551855,-2.7087109690054327,6.059273576473668,0.0,2.2239469566990184,3.4083694112558773,36.80795149579485,43.413311077954816,0.0
0.008,4.47010223405003,-2.5843676323945926,4.538842879466529,0.0,2.5995825320280543,3.2837232192878214,39.20710755680147,43.413311077954816,0.0
0.009000000000000001,4.032148135774474,-2.329884501560624,3.3813268841747544,0.0,2.898440219601754,3.1430314064317106,40.97928578214018,43.413311077954816,0.0
0.01,3.5025733543040105,-2.02064932231357,2.519578024463544,0.0,3.121871918723636,3.016951013982261,42.182824991626795,43.413311077954816,0.0
0.011,2.980546833784652,-1.712608581380607,1.9301132805835177,0.0,3.2795602789782294,2.921725366902678,41.09788691548937,43.413311077954816,0.0
0.012,2.5223840059901286,-1.4518598096195658,2.4957365602768853,0.0,3.3863552810150197,2.965081974613788,44.10642753484156,43.413311077954816,0.0
0.013000000000000001,2.2591297801876444,-1.3025410450822856,0.9845350860319231,0.0,3.4729888672377536,2.867270363353913,44.12459647079625,43.413311077954816,0.0
0.014,1.9882830229817876,-1.1234884199099826,0.9683377641261635,0.0,3.522975332588645,2.8283941822097365,42.22870029927927,43.413311077954816,0.0
0.015,1.7709135796272952,-1.0032970112936872,1.9281319576714093,0.0,3.5526450045939595,2.925345771421036,44.73768209343009,43.413311077954816,0.0
0.016,1.725181351672508,-0.9865746863851074,0.6603973504412464,0.0,3.5884053266660914,2.8693772708224476,45.25245335708654,43.413311077954816,0.0
0.017,1.638412417995887,-0.9140371216247529,0.3846202958217044,0.0,3.607180857596599,2.814010782979965,43.07032174036015,43.413311077954816,0.0
0.018000000000000002,1.5241601683068104,-0.8445589573776445,1.4791159975608448,0.0,3.611624964230229,2.9009108528813146,44.40439700012167,43.413311077954816,0.0
0.019,1.533705767245435,-0.8636526680896184,0.8021675084584166,0.0,3.6271097570114197,2.891963497257093,45.862438504497305,43.413311077954816,0.0
0.02,1.5302210642871923,-0.844436947570452,0.04865548200517367,0.0,3.637846668587841,2.809821291769374,43.75947180405975,43.413311077954816,0.0
0.021,1.4450904061319434,-0.7817361771324173,1.096677224962902,0.0,3.632590740914855,2.8691140353454463,43.66247099849755,43.413311077954816,0.0
0.022,1.4473497452936073,-0.7962693173431123,1.1426860285385763,0.0,3.6360153334943326,2.915432828871024,45.82423808611352,43.413311077954816,0.0
0.023,1.4940754261761742,-0.8161173777173042,0.03769321464900388,0.0,3.6457673014074734,2.830335673232916,44.55194604642794,43.413311077954816,0.0
0.024,1.4401323987373216,-0.7615135492278123,0.6624528848070599,0.0,3.639829455227904,2.8408979116333146,43.02798908728671,43.413311077954816,0.0
0.025,1.4146469336765877,-0.7525005207260727,1.4282845842843561,0.0,3.6350962226560353,2.9300680026989308,44.96063931939413,43.413311077954816,0.0
0.026000000000000002,1.4843604697111277,-0.7976450921760251,0.44648618581625277,0.0,3.644809355592426,2.8862682769601276,45.46911670999106,43.413311077954816,0.0
0.027,1.4842937071936813,-0.7740001862943406,0.17168943419742533,0.0,3.6461188172998136,2.828114657632717,43.411196154788065,43.413311077954816,0.0
0.028,1.4260532570539872,-0.7300669868084145,1.2006708610305916,0.0,3.636885768019086,2.898249052766816,43.60687002163964,43.413311077954816,0.0
0.029,1.4570846606530794,-0.7581584509590087,1.1008983381679578,0.0,3.6391188562312666,2.935186052778914,45.60362870692486,43.413311077954816,0.0
0.03,1.5115903553948884,-0.7797084579102149,0.08061581923564631,0.0,3.6469119217465646,2.851733997371484,44.52849825467666,43.413311077954816,0.0
0.031,1.4651626798649324,-0.727055097841013,0.6070291735925257,0.0,3.6395731054924663,2.8511668494806197,42.587721493809745,43.413311077954816,0.0
0.032,1.4364478677289698,-0.7098610893295156,1.5856734498674352,0.0,3.6315466487391177,2.9550036241797604,44.13562007800243,43.413311077954816,0.0
0.033,1.5171004344900922,-0.764760138323298,0.8045010677706155,0.0,3.6409173506054486,2.9427797404751685,45.63389873098218,43.413311077954816,0.0
0.034,1.5524347107802776,-0.7643374828390475,0.03315586475046706,0.0,3.6475331113214833,2.8525988220921112,43.91975988666572,43.413311077954816,0.0
0.035,1.4863340230736184,-0.7038373135611333,0.8851607988215875,0.0,3.6378184120618804,2.881155984807624,42.6074148718903,43.413311077954816,0.0
0.036000000000000004,1.4758006137580617,-0.6992285278317074,1.5493922682699446,0.0,3.632028934262332,2.970929041771877,44.108452351883265,43.413311077954816,0.0
0.037,1.5545560119240762,-0.747836850022097,0.7919221155341769,0.0,3.6411887132373995,2.952413385872914,45.377023476616436,43.413311077954816,0.0
0.038,1.582378832526469,-0.7424203149487933,0.13799942918097519,0.0,3.646499046645098,2.870035523205258,43.85270323100879,43.413311077954816,0.0
0.039,1.520711560990979,-0.6837904715163636,0.8957656304542592,0.0,3.636645443018425,2.8933816172236573,42.43631902067188,43.413311077954816,0.0
0.04,1.5094356045837525,-0.6748983267684616,1.6137276561955425,0.0,3.629719971668316,2.985429584785798,43.46272039983062,43.413311077954816,0.0
0.041,1.5896369472806264,-0.7246238801313167,1.1000328733974136,0.0,3.6382505765268247,2.9949592548307793,45.06906834872003,43.413311077954816,0.0
0.042,1.6425429735624781,-0.7392467294530076,0.28030132624505777,0.0,3.647992345795737,2.9143378465342984,44.49155913484432,43.413311077954816,0.0
0.043000000000000003,1.5973286468232302,-0.684534021623681,0.5582734526140163,0.0,3.6425331709536692,2.887029641570604,42.62969894204468,43.413311077954816,0.0
0.044,1.5481772952989832,-0.6441148092364557,1.4970396703729374,0.0,3.6309901068151356,2.967345407709137,42.354853667545164,43.413311077954816,0.0
0.045,1.5981135114388416,-0.6757615741316616,1.6450468817267934,0.0,3.632518261966654,3.0393839246006715,43.82388098287985,43.413311077954816,0.0
0.046,1.692525874551034,-0.7250446358776728,0.9064275250102005,0.0,3.646202122435282,3.0117572061848987,44.97728118166544,43.413311077954816,0.0
0.047,1.715856864507582,-0.7174925144953104,0.3140877245802991,0.0,3.654431361045952,2.928868075913344,44.080565362971,43.413311077954816,0.0
0.048,1.6519450748955795,-0.6539760348243213,0.7557730910773568,0.0,3.646637471218413,2.916863177605873,42.537357205929474,43.413311077954816,0.0
0.049,1.6100536612697613,-0.6158945679652361,1.5361367083183735,0.0,3.634868683985092,2.9906714619806563,42.00157792685767,43.413311077954816,0.0
0.05,1.6595362422815862,-0.6430649187299671,1.8181436793652468,0.0,3.6350271571652932,3.073277171789816,42.98943468645237,43.413311077954816,0.0
0.051000000000000004,1.762494075218069,-0.6996242893627601,1.3284540634829216,0.0,3.649380181270349,3.0801216946656607,44.331602721319484,43.413311077954816,0.0
0.052000000000000005,1.8206756441588148,-0.717212436229676,0.6481871296157178,0.0,3.6643514577015175,3.012414206843741,44.63675268520696,43.413311077954816,0.0
0.053,1.7869304212993593,-0.6713511799157761,0.4833777315994596,0.0,3.6658342380441784,2.9459420212079603,43.57235640897409,43.413311077954816,0.0
0.054,1.709538520114187,-0.603397755443422,1.0139854164057018,0.0,3.653505257660175,2.9544559283806477,42.3488668094775,43.413311077954816,0.0
0.055,1.6840444844991058,-0.5731863127316663,1.636374658838769,0.0,3.6406168415782716,3.026072711523048,41.70204750793877,43.413311077954816,0.0
0.056,1.742767488131626,-0.601076903610436,1.9768969453082932,0.0,3.6395490248425806,3.1137580630746067,42.121653546684556,43.413311077954816,0.0
0.057,1.8562252013218978,-0.6614595127979379,1.780010501248104,0.0,3.6537197060374513,3.15561224767152,43.0914529683583,43.413311077954816,0.0
0.058,1.9508013738996872,-0.7037603614391387,1.2983293715071986,0.0,3.674708004831184,3.1344132202456776,44.03082576439457,43.413311077954816,0.0
0.059000000000000004,1.9734149849263913,-0.6994627599568344,0.8224678266246641,0.0,3.690581826353494,3.0683632313149625,44.35827723756985,43.413311077954816,0.0
0.06,1.9213182155320236,-0.6445157404724249,0.6492924284408736,0.0,3.692262070702039,3.002171725821807,43.88461604745249,43.413311077954816,0.0
0.061,1.835650970590211,-0.5707032523013852,0.881409973804578,0.0,3.679585236562444,2.978934508534322,43.12310760578911,43.413311077954816,0.0
0.062,1.7786675935812384,-0.5176368678503445,1.2650662293579253,0.0,3.6607531867001555,3.002045841240425,42.33661674011807,43.413311077954816,0.0
0.063,1.7827017918744443,-0.5039551345646949,1.6690786055718134,0.0,3.645141148277796,3.060554038935343,41.64468157642418,43.413311077954816,0.0
0.064,1.8500775002973764,-0.5293414722125277,2.032732482434062,0.0,3.6398704479412816,3.14024102976765,41.31789590529037,43.413311077954816,0.0
0.065,1.9642664134863048,-0.5844282600287701,2.2170794697276124,0.0,3.6489012000049574,3.216186857950189,41.49134915478852,43.413311077954816,0.0
0.066,2.0929328981593387,-0.6465012044779278,2.149572464210199,0.0,3.670900615691765,3.2631605138588475,41.8721499744004,43.413311077954816,0.0
0.067,2.1962318137616195,-0.69042214080483,1.9745836654398046,0.0,3.699608028952225,3.2789868320662308,42.2687760325612,43.413311077954816,0.0
0.068,2.253980388804147,-0.7048129786237746,1.7877159868133417,0.0,3.728171115504193,3.2719763490190603,42.51199775374953,43.413311077954816,0.0
0.069,2.2663143546832774,-0.691717167156586,1.6751182594612275,0.0,3.751592397456667,3.257226899213056,42.63527892366962,43.413311077954816,0.0
0.07,2.2498850578099168,-0.6624938213941897,1.6212579960440376,0.0,3.768112996314101,3.2434264331953906,42.759960246727694,43.413311077954816,0.0
0.07100000000000001,2.2237463943736087,-0.6264933289084311,1.5654508428272704,0.0,3.7779336679682145,3.229768849454823,42.79259832918872,43.413311077954816,0.0
0.07200000000000001,2.195635444843903,-0.5906112728991111,1.555338929084418,0.0,3.7818194928466937,3.2207356700880823,42.76606190231073,43.413311077954816,0.0
0.073,2.17446014912257,-0.5588804348436808,1.5750796342798532,0.0,3.7812818456746466,3.2173151608888397,42.66625373923989,43.413311077954816,0.0
0.074,2.1649298046526573,-0.5335702152731112,1.632454289202422,0.0,3.777989096527672,3.221133327816322,42.49548636119433,43.413311077954816,0.0
0.075,2.1697809682801577,-0.5167356670862987,1.7270162253928074,0.0,3.7738087408832977,3.2334395381243497,42.26008392152461,43.413311077954816,0.0
0.076,2.1906706836862173,-0.5093492406012434,1.8562497167919696,0.0,3.770632880402677,3.2551177994707503,41.98905191183777,43.413311077954816,0.0
0.077,2.2286410784716093,-0.5110923463370027,2.0060083132965607,0.0,3.770208038000542,3.2855239130636305,41.69795331024822,43.413311077954816,0.0
0.078,2.282680842816703,-0.5208307932128755,2.168711191768403,0.0,3.7739200892968965,3.323681991593759,41.46795182423749,43.413311077954816,0.0
0.079,2.3508659443271998,-0.5364831770629872,2.3031655273109406,0.0,3.7827011210713826,3.3645984520027663,41.38763007712934,43.413311077954816,0.0
0.08,2.4268679901269863,-0.5541837685319924,2.363583210873271,0.0,3.796486236932411,3.399924397361883,41.640526070245194,43.413311077954816,0.0
0.081,2.4992045430553986,-0.5680888991425407,2.2548630643924388,0.0,3.813777994195717,3.4133358664585463,42.0663763723508,43.413311077954816,0.0
0.082,2.546801667545011,-0.5679087669272564,2.0554072603956746,0.0,3.830522856792573,3.401770109232467,42.642695532841906,43.413311077954816,0.0
0.083,2.557481740976142,-0.548663130919699,1.7749538356012522,0.0,3.8423214387684568,3.3634812584687315,43.26945165575785,43.413311077954816,0.0
0.084,2.5253336701359075,-0.5087643176501927,1.4630143683652506,0.0,3.844914864370808,3.3023354323576815,43.56534175587388,43.413311077954816,0.0
0.085,2.4517595793225144,-0.4532824205487175,1.3135490115280435,0.0,3.8354303442533535,3.242013406119309,42.91489986224601,43.413311077954816,0.0
0.08600000000000001,2.3643131516200473,-0.3933611954286622,1.6437540704990674,0.0,3.8148255577316146,3.2334757066873507,41.904261201687405,43.413311077954816,0.0
0.08700000000000001,2.3271053416726266,-0.35762717352202567,2.1641638995410437,0.0,3.7920959497603253,3.2808927239685124,41.25240553141808,43.413311077954816,0.0
0.088,2.370690199965816,-0.36413266884824447,2.5117007901410755,0.0,3.7774539490192307,3.3491536258882877,40.797371390203665,43.413311077954816,0.0
0.089,2.4727913284981113,-0.4001835719297373,2.7653772576257927,0.0,3.775002782929924,3.4227580045036743,41.01203910454487,43.413311077954816,0.0
0.09,2.605882050520362,-0.44770538137121463,2.6820561201892907,0.0,3.7850240613188353,3.463435770718604,42.0133778106236,43.413311077954816,0.0
0.091,2.715212492806044,-0.4837033385656605,2.1953860998232355,0.0,3.8015955456873227,3.4376519558538297,42.9242201310881,43.413311077954816,0.0
0.092,2.742188026716655,-0.4827592419280603,1.7448558490596546,0.0,3.8134676699304038,3.3695380392247367,42.2323348894608,43.413311077954816,0.0
0.093,2.6876991130557704,-0.44297233130569125,2.1026082317582433,0.0,3.8129740708841826,3.3595443271291456,40.61709782989439,43.413311077954816,0.0
0.094,2.658037734880697,-0.40681367714988714,2.938188894022053,0.0,3.807950877682109,3.4415548378231726,40.15343337446991,43.413311077954816,0.0
0.095,2.73498775675651,-0.4151774656380258,3.202619898769141,0.0,3.8129126581448993,3.5268324658390426,41.68105024145727,43.413311077954816,0.0
0.096,2.8613874237358874,-0.45309019771107517,2.4561340736404373,0.0,3.8299927860061524,3.5061862951390017,42.8822656294669,43.413311077954816,0.0
0.097,2.8990683449389145,-0.46128922615204926,1.8608368341205022,0.0,3.8438230498190515,3.4284140115366464,41.436874155026565,43.413311077954816,0.0
0.098,2.8410534039288677,-0.41968810588267336,2.603296940569952,0.0,3.8438349453763845,3.4541840195035913,39.81431691918416,43.413311077954816,0.0
0.099,2.848555844703975,-0.39250359282536884,3.4505655000788624,0.0,3.843848366941069,3.561747738815697,41.27703373002845,43.413311077954816,0.0
0.1,2.9658717251350315,-0.4191918668900063,2.7405698681359802,0.0,3.857824373558179,3.5591545008045893,42.77692351330665,43.413311077954816,0.0
0.101,3.016434045490064,-0.43439899348435973,1.9969888521433625,0.0,3.8715493568971984,3.479135535381801,40.825349996459586,43.413311077954816,0.0
0.10200000000000001,2.9638130955919526,-0.394848471454627,2.998655221381846,0.0,3.8713973166708247,3.5324040033036965,39.89645391478414,43.413311077954816,0.0
0.10300000000000001,3.0041004735715937,-0.37731619270128625,3.4982718338512764,0.0,3.8750542818167064,3.6203137630132742,42.32772206293288,43.413311077954816,0.0
0.10400000000000001,3.11271932758149,-0.40761911600119816,2.293493649927126,0.0,3.8906451707694827,3.550731276748841,41.575141378861595,43.413311077954816,0.0
0.105,3.092238715002259,-0.3937263568918472,2.6881656889537,0.0,3.89588748946551,3.548466890062107,39.515940198762415,43.413311077954816,0.0
0.106,3.093572260117031,-0.3603011202754922,3.756739987795214,0.0,3.896841289186555,3.6601981303075335,42.01549144437975,43.413311077954816,0.0
0.107,3.2102427295117075,-0.3883824173790462,2.520942561322298,0.0,3.9122960280075936,3.6014077504178186,41.44464616968569,43.413311077954816,0.0
0.108,3.202722148699552,-0.3821264324914615,2.8260518477520185,0.0,3.9193572836488864,3.597955846754462,39.543296499752785,43.413311077954816,0.0
0.109,3.2107065117290476,-0.3487117100183492,3.8154268285004918,0.0,3.921754163736547,3.700381928298238,42.336058281397534,43.413311077954816,0.0
0.11,3.3180678181835854,-0.37758946791974646,2.42981846564369,0.0,3.9376646645637043,3.618764519894965,40.34547560008632,43.413311077954816,0.0
0.111,3.286524096132483,-0.3554756909491952,3.455788161077983,0.0,3.941101081422045,3.678156075031244,40.51641095523224,43.413311077954816,0.0
0.112,3.3476337729293304,-0.34086527727485705,3.399289484732248,0.0,3.9487470043737067,3.7084400633191885,42.094632097651626,43.413311077954816,0.0
0.113,3.399967465579012,-0.36108214226094826,2.6233657033255864,0.0,3.96102669314421,3.646528006458735,39.24439634123473,43.413311077954816,0.0
0.114,3.3760857567643385,-0.3189704205297048,4.0901727289012335,0.0,3.96105274931132,3.7642934596848745,42.32211111387239,43.413311077954816,0.0
0.115,3.4867840819886986,-0.3458698881878146,2.5622273422232302,0.0,3.976232803844039,3.6751272775519492,39.54853663093982,43.413311077954816,0.0
0.116,3.451218487184385,-0.31802082498084205,3.9876623281596637,0.0,3.9776458430808432,3.773492220086091,41.58145401336222,43.413311077954816,0.0
0.117,3.5468110562808772,-0.32487870262472285,2.989522207594391,0.0,3.9897869298202813,3.7272413706203036,39.979275339526744,43.413311077954816,0.0
0.11800000000000001,3.5410417677643,-0.3180624485102099,3.824951901896409,0.0,3.995270456210158,3.7902989297816965,41.2062157901497,43.413311077954816,0.0
0.11900000000000001,3.619194395826029,-0.3122508827433912,3.2335526294629826,0.0,4.005940276183983,3.7655363867832863,40.07924340632651,43.413311077954816,0.0
0.12,3.6248831306536804,-0.3117496826167203,3.8303794980908594,0.0,4.0130698435043195,3.8160377938050765,41.212128153108864,43.413311077954816,0.0
0.121,3.696377886591979,-0.30232135943058625,3.2859489539481426,0.0,4.023504491245593,3.7885388525098067,39.841220736604825,43.413311077954816,0.0
0.122,3.69460738559227,-0.30146169049928484,4.007123565613663,0.0,4.03014549973263,3.850516485512176,41.886464907813284,43.413311077954816,0.0
0.123,3.7613584196722405,-0.3189093304907282,2.999769941710848,0.0,4.04424800775957,3.781579492558254,40.05383585146774,43.413311077954816,0.0
0.124,3.710581844608707,-0.3180603667631401,3.9496792221484918,0.0,4.049778703278477,3.8417629403873765,42.196779771622474,43.413311077954816,0.0
0.125,3.7517373487821906,-0.3323384217879921,2.8903725751344473,0.0,4.0623537497184135,3.765423417799836,40.54098590600604,43.413311077954816,0.0
0.126,3.6799430856823365,-0.32840458085010593,3.7469927596621506,0.0,4.0654618362021875,3.811105562865951,42.04230257801559,43.413311077954816,0.0
0.127,3.6991119261417578,-0.3311718477226244,3.010044508656771,0.0,4.073171066309552,3.760073277536428,41.58350048452688,43.413311077954816,0.0
0.128,3.6402880985676838,-0.3395262141164914,3.257743661335404,0.0,4.075897452507828,3.756193842493039,41.11612880282486,43.413311077954816,0.0
0.129,3.6182144089025625,-0.32439429561352195,3.514401324937713,0.0,4.076215201882671,3.7805702086307074,43.215868475555865,43.413311077954816,0.0
0.13,3.618362780703741,-0.35664757779568834,2.4665059145962003,0.0,4.0826379931588646,3.684468583523722,40.37755268348053,43.413311077954816,0.0
0.131,3.5253186983386486,-0.32527136963384673,3.9160213945786104,0.0,4.075034427077117,3.778781389734709,43.21680336027344,43.413311077954816,0.0
0.132,3.5765515413106534,-0.35736458881943256,2.49836113335897,0.0,4.081466514416676,3.685898721631865,41.98025022598715,43.413311077954816,0.0
0.133,3.4959234972612854,-0.35807324866813994,3.130968309021792,0.0,4.077724146603495,3.6960923342835175,41.143400761412124,43.413311077954816,0.0
0.134,3.4789176755189164,-0.3480132858059537,3.572092144474731,0.0,4.074261694323471,3.7481542589830497,43.947150486204364,43.413311077954816,0.0
0.135,3.514421110583285,-0.3908594307608577,2.1648788879961156,0.0,4.081165355315062,3.631383613342944,41.649313477683656,43.413311077954816,0.0
