timestamp,iq,id,iq_ref,id_ref,vq,vd,omega,omega_ref,r
0.0,0.0,0.0,0.0,0.0,0.0,0.0,0.0,342.7499136958573,0.0
0.001,0.0,0.0,10.0,0.0,0.0,1.0999999999999999,5.758095888548106,342.7499136958573,0.0
0.002,0.7931697743049723,-0.45266012813963885,10.0,0.0,0.15979261409536025,1.902751324826453,12.046055630234873,342.7499136958573,0.0
0.003,1.363704804634394,-0.7770873784796318,10.0,0.0,0.41504149551983255,2.5863796229866103,18.619733249265458,342.7499136958573,0.0
0.004,1.7919839399823512,-1.0191748930593476,10.0,0.0,0.7365136727182423,3.1857646248882174,25.39330067154062,342.7499136958573,0.0
0.005,2.120715692840445,-1.2041994491172117,10.0,0.0,1.1037089584075397,3.7254806428585945,32.285789975576,342.7499136958573,0.0
0.006,2.3792981062314515,-1.3487155948226701,10.0,0.0,1.5022028477919664,4.222787839656433,39.277544545142035,342.7499136958573,0.0
0.007,2.5880222704048372,-1.4647609124157945,10.0,0.0,1.9218978913959244,4.689839871787768,46.296240292475375,342.7499136958573,0.0
0.008,2.761288971122083,-1.560471712103987,10.0,0.0,2.3556963686423895,5.135184109629203,53.28178347530931,342.7499136958573,0.0
0.009000000000000001,2.909539289472358,-1.6409600265277804,10.0,0.0,2.798546028538086,5.564798903399785,60.291826228501364,342.7499136958573,0.0
0.01,3.0393328747068526,-1.7111142496608653,10.0,0.0,3.246984283221673,5.982942392590583,67.33450984367298,342.7499136958573,0.0
0.011,3.155713889296149,-1.773584565526829,10.0,0.0,3.698563253869907,6.392611382578183,74.34009196949572,342.7499136958573,0.0
0.012,3.2625581266714856,-1.8296469316866348,10.0,0.0,4.1514933835709975,6.795882314666455,81.32782941026318,342.7499136958573,0.0
0.013000000000000001,3.3622638018046103,-1.8807506246609846,10.0,0.0,4.604518376076383,7.194219984625114,88.19753921062895,342.7499136958573,0.0
0.014,3.4571440863461906,-1.9268478749018356,10.0,0.0,5.05663429692385,7.588586612290209,94.92995436771078,342.7499136958573,0.0
0.015,3.5484822532148423,-1.968513179388058,10.0,0.0,5.507097499444152,7.979629773763402,101.61981269078379,342.7499136958573,0.0
0.016,3.6371005490689474,-2.006319387077166,10.0,0.0,5.955360727660687,8.367780308466042,108.2505188735939,342.7499136958573,0.0
0.017,3.7239774457506374,-2.0400481160990678,10.0,0.0,6.4009447846413465,8.753271836843629,114.78925805860844,342.7499136958573,0.0
0.018000000000000002,3.8099153123018366,-2.0694336834308564,10.0,0.0,6.843414713877979,9.136188221727704,121.27256965452486,342.7499136958573,0.0
0.019,3.8955733450034833,-2.094234016056169,10.0,0.0,7.28236346959482,9.516496956115365,127.66053982237585,342.7499136958573,0.0
0.02,3.981560261492232,-2.1141673907848015,10.0,0.0,7.717392891072642,9.894067712149198,133.81920448279178,342.7499136958573,0.0
0.021,4.068996374776816,-2.1280291375401372,10.0,0.0,8.14800190440186,10.268626231431014,139.82659056588557,342.7499136958573,0.0
0.022,4.158267624686335,-2.135824877913811,10.0,0.0,8.573724782299896,10.639844323760371,145.6408904389406,342.7499136958573,0.0
0.023,4.2497039309685825,-2.137658988195557,10.0,0.0,8.994120976368317,11.007347613454643,151.25605200220747,342.7499136958573,0.0
0.024,4.344754810509274,-2.1317924538943016,10.0,0.0,9.408564220123367,11.370598959899674,156.78257536412474,342.7499136958573,0.0
0.025,4.443234015831508,-2.119231104638428,10.0,0.0,9.816565191072282,11.729087292285671,161.94939956560955,342.7499136958573,0.0
0.026000000000000002,4.544135822983267,-2.1023730835255585,10.0,0.0,10.21788612933505,12.082412481794488,166.59021146531128,342.7499136958573,0.0
0.027,4.648454660893428,-2.0803324093606497,10.0,0.0,10.612151598775407,12.430071192080101,170.75474362485664,342.7499136958573,0.0
0.028,4.75999811807698,-2.0475681117942157,10.0,0.0,10.998372726309633,12.771163986370095,174.7959458799676,342.7499136958573,0.0
0.029,4.877060615531059,-2.00764163519744,10.0,0.0,11.376016751069455,13.105008173836403,178.5955385194003,342.7499136958573,0.0
0.03,5.000348903568437,-1.9601440728516064,10.0,0.0,11.744455325007852,13.430841258322488,182.33345917052057,342.7499136958573,0.0
0.031,5.1294433176153245,-1.9064379734192407,10.0,0.0,12.103200654686919,13.747967389089025,185.50645527556944,342.7499136958573,0.0
0.032,5.264761475173775,-1.8464371070319896,10.0,0.0,12.451721030166455,14.055661386555853,186.599891341515,342.7499136958573,0.0
0.033,5.407761727490515,-1.7782537211727738,10.0,0.0,12.789258604064077,14.353061175644694,189.70757644130762,342.7499136958573,0.0
0.034,5.55328190865644,-1.7108727235892365,10.0,0.0,13.116052323605228,14.639897525809328,188.65507777291637,342.7499136958573,0.0
0.035,5.725043692611475,-1.6050787913563322,10.0,0.0,13.427886783638943,14.913291018488222,188.92600303449348,342.7499136958573,0.0
0.036000000000000004,5.863291223092549,-1.560434560015405,10.0,0.0,13.732024220812,15.17703899738923,192.49475432655652,342.7499136958573,0.0
0.037,6.033897338916063,-1.4678569371163177,10.0,0.0,14.022385615952363,15.427441724681659,193.91347697081503,342.7499136958573,0.0
0.038,6.211799443212762,-1.3678896804957015,10.0,0.0,14.298680522308658,15.663977148444488,192.94986862249547,342.7499136958573,0.0
0.039,6.398550926485774,-1.2581695699140787,10.0,0.0,14.559929940807832,15.885724878349599,188.77860222712815,342.7499136958573,0.0
0.04,6.575592066831607,-1.169798772282567,10.0,0.0,14.80860560381395,16.093815766508808,188.41986100840407,342.7499136958573,0.0
0.041,6.754056783955898,-1.0837761163990156,10.0,0.0,15.044644005164503,16.288104424672483,192.70567801642704,342.7499136958573,0.0
0.042,6.875922537240182,-1.0953804118514245,10.0,0.0,15.278644131254966,16.474947471464823,199.08288863356492,342.7499136958573,0.0
0.043000000000000003,6.923531799122069,-1.2126106667647125,10.0,0.0,15.520707834501556,16.662487864912812,206.78020842958097,342.7499136958573,0.0
0.044,6.957768988098425,-1.3386741473774824,10.0,0.0,15.77001388708656,16.852190591172082,215.41795824377465,342.7499136958573,0.0
0.045,6.990049202262588,-1.4561691104104724,10.0,0.0,16.025023418166487,17.044645198395628,223.07544776464857,342.7499136958573,0.0
0.046,7.021746153168692,-1.5633158006496193,10.0,0.0,16.284388643156756,17.24019143554678,224.69445096591795,342.7499136958573,0.0
0.047,7.026959715378918,-1.706554145710212,10.0,0.0,16.552056720417387,17.441863049147784,236.8369658798114,342.7499136958573,0.0
0.048,7.020166120021752,-1.8605572974739264,10.0,0.0,16.82863311455545,17.650933740226137,241.61543100592112,342.7499136958573,0.0
0.049,7.0275846116283605,-1.9767283412074854,10.0,0.0,17.109697721680607,17.86587103158017,252.0380694587051,342.7499136958573,0.0
0.05,6.990068112914108,-2.1605670951879805,10.0,0.0,17.403210149729162,18.091622054285942,256.4333187080767,342.7499136958573,0.0
0.051000000000000004,6.975856854513084,-2.2888663072380493,10.0,0.0,17.702220963029145,18.325337290962967,268.7764130065426,342.7499136958573,0.0
0.052000000000000005,6.930491678492329,-2.457449490001212,10.0,0.0,18.011963376650282,18.570430142080557,277.40521559362844,342.7499136958573,0.0
0.053,6.877644009110162,-2.6234811709323176,10.0,0.0,18.331818487095855,18.827347541320336,283.1185724926293,342.7499136958573,0.0
0.054,6.811370822743585,-2.7962336218265094,10.0,0.0,18.66272227920989,19.097320285487193,291.2969145465037,342.7499136958573,0.0
0.055,6.762235322257425,-2.9202742450823576,10.0,0.0,18.999449910578424,19.378128307638587,301.0432751582253,342.7499136958573,0.0
0.056,6.692136158705857,-3.0634406301762382,10.0,0.0,19.345093477152993,19.671747843697492,309.1907699819533,342.7499136958573,0.0
0.057,6.620992063229158,-3.1917374599523596,10.0,0.0,19.698215628100446,19.9776946416749,316.8784550149759,342.7499136958573,0.0
0.058,6.555335643446511,-3.2948133308342533,10.0,0.0,20.056675621250132,20.294869740170626,323.671210970526,342.7499136958573,0.0
0.059000000000000004,6.499076459324541,-3.368781579549516,10.0,0.0,20.418112873584292,20.62170527418734,330.44357887237453,342.7499136958573,0.0
0.06,6.4531445613755,-3.416447031171963,10.0,0.0,20.780593471278014,20.95649089696898,336.44016180510306,342.7499136958573,0.0
0.061,6.424787855495504,-3.430884540771102,9.196655646075296,0.0,21.14141604302021,21.208338056977418,341.2511984587625,342.7499136958573,0.0
0.062,6.358156879979545,-3.373738236779064,6.806124471616538,0.0,21.484910605053916,21.223203612755967,344.15702404655724,342.7499136958573,0.0
0.063,6.156714916895595,-3.1826506676042534,5.339140574212156,0.0,21.775094096892808,21.154961458374217,345.7078639636892,342.7499136958573,0.0
0.064,5.934009522011658,-2.940721800905073,4.534141112967861,0.0,22.00473372446446,21.07116494065809,343.8689909013739,342.7499136958573,0.0
0.065,5.749452245220017,-2.6911321905187666,5.442386872070352,0.0,22.177994169031834,21.144743312082703,337.27833395076715,342.7499136958573,0.0
0.066,5.741859941655628,-2.483850616626549,8.792431144824619,0.0,22.320981329260647,21.586701883857707,332.6805248053272,342.7499136958573,0.0
0.067,6.086190842212537,-2.3515279069066124,10.0,0.0,22.48138294831382,22.06014312372293,336.8439579742875,342.7499136958573,0.0
0.068,6.475432450203983,-2.260345867935188,9.145531987056447,0.0,22.664381732258533,22.356839963657908,332.3967676347013,342.7499136958573,0.0
0.069,6.738251027749548,-2.134982195230388,10.0,0.0,22.845872138194462,22.719685532096996,325.5475505475055,342.7499136958573,0.0
0.07,7.132784364115145,-1.9238693424283668,10.0,0.0,23.02352928329954,23.015080422931575,324.7370564371429,342.7499136958573,0.0
0.07100000000000001,7.453189273044903,-1.7886367044637859,10.0,0.0,23.20019574132947,23.267402332574584,318.88122700800625,342.7499136958573,0.0
0.07200000000000001,7.833333714788127,-1.5339127901185925,10.0,0.0,23.357760440322387,23.47354685755383,309.05167757547235,342.7499136958573,0.0
0.073,8.160873446380442,-1.3549542528960314,10.0,0.0,23.503044921962907,23.642605473876717,306.5218778086655,342.7499136958573,0.0
0.074,8.494036238104135,-1.165310359251469,10.0,0.0,23.631635574142987,23.77591416695768,303.0462034763868,342.7499136958573,0.0
0.075,8.845432455592187,-0.9440197215851478,10.0,0.0,23.73825249920631,23.87342909994211,303.43338132071983,342.7499136958573,0.0
0.076,9.1317670807131,-0.8324741856328218,10.0,0.0,23.83390212248365,23.94387138554601,310.9260149395552,342.7499136958573,0.0
0.077,9.173828887046595,-1.0702624904303424,10.0,0.0,23.954303180880895,24.01507095247178,317.0581294456236,342.7499136958573,0.0
0.078,9.15331624442926,-1.3418882095869966,10.0,0.0,24.097285036190247,24.093867677295943,323.45667836996296,342.7499136958573,0.0
0.079,9.07935598450686,-1.6551876098537037,10.0,0.0,24.26559505528886,24.1870134173339,339.11395333901345,342.7499136958573,0.0
0.08,8.98285184211561,-1.9622507609491224,8.751577165402278,0.0,24.45703259909922,24.160224926536007,343.76698135313814,342.7499136958573,0.0
0.081,8.78610182944824,-2.173774695250513,6.414892481767126,0.0,24.646844540710973,23.931385412314544,356.7368729283899,342.7499136958573,0.0
0.082,8.369278095475895,-2.371684531759951,-0.20992289818409038,0.0,24.814446179412414,23.082931309328394,357.2000913274228,342.7499136958573,0.0
0.083,7.505494187766736,-2.276453168867749,-0.586033874016187,0.0,24.867987695661864,22.45180671947727,362.5875751075637,342.7499136958573,0.0
0.084,6.787111905407771,-2.26946819772283,-3.478152378203692,0.0,24.85324656810424,21.645161026516302,365.00035069066035,342.7499136958573,0.0
0.085,5.981789307444523,-2.174918127673278,-4.907044539700061,0.0,24.74898432601228,20.87085050032531,365.85487023658743,342.7499136958573,0.0
0.08600000000000001,5.23421864430472,-2.066343503541188,-5.5653538780709,0.0,24.56671954755638,20.179599243904132,365.0197570075222,342.7499136958573,0.0
0.08700000000000001,4.592835730522598,-1.9634526894577788,-5.370495696654921,0.0,24.323323877996103,19.630340542503582,362.4685043911578,342.7499136958573,0.0
0.088,4.106230309533283,-1.8775484926634975,-4.292055295425744,0.0,24.040921351745254,19.275460773779116,359.64308466414866,342.7499136958573,0.0
0.089,3.8017913113142696,-1.8395447552451574,-3.0482771416040837,0.0,23.747949732098967,19.082482157804307,356.76165151567903,342.7499136958573,0.0
0.09,3.6504534034602543,-1.8322478441151884,-1.7476779455674887,0.0,23.464554789969732,19.0237351513699,353.5744725423304,342.7499136958573,0.0
0.091,3.6255701658126034,-1.8389408811241599,-0.26233404735790167,0.0,23.204433844592252,19.094128965271413,350.25331245731985,342.7499136958573,0.0
0.092,3.7165570930284315,-1.8576499158719866,1.3232120075327458,0.0,22.979355438594844,19.280770535930667,346.3639147097066,342.7499136958573,0.0
0.093,3.909169460318192,-1.8844775185641833,3.231770871200882,0.0,22.798212976211776,19.600048632249145,341.65500368407857,342.7499136958573,0.0
0.094,4.21250162450612,-1.9235883321221616,5.597175484132682,0.0,22.671146483163305,20.0789531770955,336.4949670185189,342.7499136958573,0.0
0.095,4.652440836965722,-1.968649637908012,8.239743283685911,0.0,22.609242729405185,20.718929038245236,335.6064530915235,342.7499136958573,0.0
0.096,5.227267328441711,-2.0193294842776144,8.755434853226927,0.0,22.622651107180644,21.260185810620403,338.49893638711495,342.7499136958573,0.0
0.097,5.717947310197312,-2.0313646092133815,7.3517029785186345,0.0,22.689661389695317,21.54086378854392,331.9464813626671,342.7499136958573,0.0
0.098,6.005353459159247,-1.9512549192347077,10.0,0.0,22.769106024603857,22.078817111468332,326.30940134326454,342.7499136958573,0.0
0.099,6.543711787583231,-1.8516804144214918,10.0,0.0,22.884249429684328,22.488091240739315,327.0567826388237,342.7499136958573,0.0
0.1,6.965018221010899,-1.781652717807897,10.0,0.0,23.022098605604484,22.826992173198455,317.72962597203133,342.7499136958573,0.0
0.101,7.399008030167174,-1.5943707669491514,10.0,0.0,23.160152219550202,23.102262115330774,314.09076644470707,342.7499136958573,0.0
0.10200000000000001,7.758479025693861,-1.4680642372587478,10.0,0.0,23.29990656755723,23.32860851322807,312.4433593542174,342.7499136958573,0.0
0.10300000000000001,8.150257586927648,-1.2507932254655727,10.0,0.0,23.42568337455294,23.50679477435588,304.0275930515207,342.7499136958573,0.0
0.10400000000000001,8.525817001789617,-1.0348976550339728,10.0,0.0,23.535125324332313,23.642346340047997,296.48279107452163,342.7499136958573,0.0
0.105,8.882562822253474,-0.8358358761878515,10.0,0.0,23.627440395734205,23.73980049804645,299.02769286842266,342.7499136958573,0.0
0.106,9.104183746750929,-0.8500871751166188,10.0,0.0,23.723827636466382,23.815929903895146,306.43440896634525,342.7499136958573,0.0
0.107,9.11843316789044,-1.126830910056857,10.0,0.0,23.848488391564345,23.89473386615184,314.42924195426053,342.7499136958573,0.0
0.108,9.074887183245766,-1.4365640567684048,10.0,0.0,23.999866676167056,23.983056060214967,329.62309899687136,342.7499136958573,0.0
0.109,9.008213014212966,-1.7339739175252775,10.0,0.0,24.174557104931942,24.0845825620792,335.8570465664993,342.7499136958573,0.0
0.11,8.94047305875796,-1.9843429926769278,9.70873928486605,0.0,24.366497640665873,24.168171431378504,347.8107870999737,342.7499136958573,0.0
0.111,8.774190020641278,-2.3120044964050455,3.681260284087692,0.0,24.58114208441492,23.62009911902526,351.32812522148697,342.7499136958573,0.0
0.112,8.154161459406888,-2.3169147859240082,1.836809108074764,0.0,24.716778369363542,23.072223954283224,360.82974715011915,342.7499136958573,0.0
0.113,7.477872772533239,-2.3674387305751474,-3.0948001907839426,0.0,24.789572040359538,22.136858893339692,361.3551469246394,342.7499136958573,0.0
0.114,6.554580196879636,-2.2252325578567866,-3.5435524103319045,0.0,24.74540191971605,21.397062350881576,363.9037771814077,342.7499136958573,0.0
0.115,5.7954469439724585,-2.1446867745401916,-5.029406173571539,0.0,24.62423118245345,20.642143790907294,364.4720712316394,342.7499136958573,0.0
0.116,5.074944438861053,-2.0385463022511847,-5.530774774045217,0.0,24.428815668801068,19.981971947817662,363.1203278603937,342.7499136958573,0.0
0.117,4.468899593428571,-1.9378506727007565,-5.0586072300677145,0.0,24.1769094076773,19.48468776146047,360.59270786697937,342.7499136958573,0.0
0.11800000000000001,4.029475737868189,-1.8658950443205853,-3.973225175071783,0.0,23.89355719120387,19.168887893893725,357.8503665728006,342.7499136958573,0.0
0.11900000000000001,3.760717496111027,-1.8373529530764088,-2.7530590567518445,0.0,23.604540135868056,19.00486641193922,355.34466507759254,342.7499136958573,0.0
0.12,3.635045564110353,-1.8352176366270812,-1.6261558229651545,0.0,23.328073173973387,18.951239397282425,351.59097143762574,342.7499136958573,0.0
0.121,3.6191620016381405,-1.8343100081963302,0.1622804196005596,0.0,23.073811720839622,19.06127781479815,348.35189790287444,342.7499136958573,0.0
0.122,3.741336618190836,-1.8615516792231759,1.725797344906038,0.0,22.858985914868057,19.27539070116134,344.3635526202238,342.7499136958573,0.0
0.123,3.9565294920267546,-1.8924237029241309,3.7038335969876934,0.0,22.69017748402681,19.626109066810564,339.5657333855291,342.7499136958573,0.0
0.124,4.285165687680049,-1.9341674353324456,6.134585017438333,0.0,22.57760482316251,20.138478993755992,334.8996518094584,342.7499136958573,0.0
0.125,4.751619602845979,-1.9813058830297123,8.546128424337654,0.0,22.532294213001805,20.78129335376314,335.2188724359154,342.7499136958573,0.0
0.126,5.326103107421594,-2.0295980075605056,8.46182852370859,0.0,22.560636849079298,21.263378147263662,337.70676377433807,342.7499136958573,0.0
0.127,5.766394481615714,-2.0253512618586775,7.26831435371244,0.0,22.633403637626586,21.526957949212996,328.80835156050625,342.7499136958573,0.0
0.128,6.047071171812153,-1.9243978789631875,10.0,0.0,22.714189322852587,22.05740549043405,326.05929095453143,342.7499136958573,0.0
0.129,6.583474363097429,-1.819707468944973,10.0,0.0,22.82943478240505,22.459372405453305,324.0074644312133,342.7499136958573,0.0
0.13,6.9969921579893954,-1.7574068473383662,10.0,0.0,22.967546223227643,22.792544249400628,317.8929159164041,342.7499136958573,0.0
0.131,7.4365145136672535,-1.558160090936974,10.0,0.0,23.103869567374623,23.06199777185982,310.04343783109744,342.7499136958573,0.0
0.132,7.79745214914466,-1.4273152871588826,10.0,0.0,23.241105468501246,23.282830360142054,309.7850722637541,342.7499136958573,0.0
0.133,8.172096613513327,-1.2375831110154292,10.0,0.0,23.36713894700544,23.457701764982957,303.99105702014157,342.7499136958573,0.0
0.134,8.550501308082664,-1.0162771080195725,10.0,0.0,23.475609879575188,23.589811305431244,296.9557779676082,342.7499136958573,0.0
0.135,8.908815171022788,-0.8131186522571352,10.0,0.0,23.566310302828885,23.683926507113963,302.4076935860127,342.7499136958573,0.0
0.136,9.088096093878365,-0.8916783395135424,10.0,0.0,23.66802535408131,23.761562468069062,309.0842949946869,342.7499136958573,0.0
0.137,9.100952707929885,-1.1583896101428097,10.0,0.0,23.795885139200664,23.841984919736788,315.1377570720408,342.7499136958573,0.0
0.138,9.059252851119364,-1.456953647720166,10.0,0.0,23.949176122402065,23.931866655139352,326.89083475987366,342.7499136958573,0.0
0.139,8.974267826635916,-1.7805873139322372,10.0,0.0,24.128740243731134,24.037020669446854,339.12255702597736,342.7499136958573,0.0
0.14,8.908833255756655,-2.0218721659681966,7.665697451802889,0.0,24.324168351419882,23.899190366706726,344.1010832527922,342.7499136958573,0.0
0.14100000000000001,8.582589767191397,-2.2549323253799214,5.162922642826122,0.0,24.50949438708067,23.5779561395374,352.0833299892672,342.7499136958573,0.0
0.14200000000000002,8.126872058818442,-2.3403799013525095,1.0784651116545136,0.0,24.651233028221327,22.929981871347344,360.28091539727814,342.7499136958573,0.0
0.14300000000000002,7.381863832221171,-2.361672525143894,-3.195637609365157,0.0,24.715488091286232,22.00906589793189,360.883560653252,342.7499136958573,0.0
0.14400000000000002,6.466283663783678,-2.2225378709512635,-3.678296706926038,0.0,24.665708312503998,21.269579290905117,363.1078712666793,342.7499136958573,0.0
0.145,5.711301759301094,-2.138048472063981,-4.994031589347904,0.0,24.53905536356163,20.53305132842071,363.5322853945795,342.7499136958573,0.0
