timestamp,iq,id,iq_ref,id_ref,vq,vd,omega,omega_ref,r
0.0,0.0,0.0,0.0,0.0,0.0,0.0,0.0,187.04670514039995,0.0
0.001,0.0,0.0,10.0,0.0,0.0,1.0999999999999999,5.961735253379748,187.04670514039995,0.0
0.002,0.6801826208240065,-0.39839290060418636,10.0,0.0,0.15382321906646043,1.9151799117093593,12.67311379993491,187.04670514039995,0.0
0.003,1.1611965509358517,-0.6735199641089024,10.0,0.0,0.40006215537668777,2.6181144480503655,19.72125443184004,187.04670514039995,0.0
0.004,1.5308584104242338,-0.8822409536680992,10.0,0.0,0.7121786899064575,3.239526759145691,26.99926640298742,187.04670514039995,0.0
0.005,1.8206578421858735,-1.0448025316744896,10.0,0.0,1.0710193657778937,3.8018281736855637,34.42277321157603,187.04670514039995,0.0
0.006,2.0527313092243693,-1.173811921048471,10.0,0.0,1.4627715325672475,4.321153427301974,41.94232036703591,187.04670514039995,0.0
0.007,2.2428100434982663,-1.2785339317675943,10.0,0.0,1.8775103353246707,4.809133446135935,49.519641425946475,187.04670514039995,0.0
0.008,2.4022356412906225,-1.365551978090595,10.0,0.0,2.3080980246780864,5.2741533149478235,57.12449132290691,187.04670514039995,0.0
0.009000000000000001,2.5391973503258054,-1.4395193653891154,10.0,0.0,2.749395164116957,5.722258433797918,64.75888304722537,187.04670514039995,0.0
0.01,2.6594584166340307,-1.5039790938041309,10.0,0.0,3.1977239977496166,6.1578236545033365,72.38138956229346,187.04670514039995,0.0
0.011,2.767429000393029,-1.5610060704182271,10.0,0.0,3.650404840232953,6.583991082951071,79.960165229087,187.04670514039995,0.0
0.012,2.8663547043869593,-1.6119612859433488,10.0,0.0,4.10546914525435,7.003007731200621,87.48012039778688,187.04670514039995,0.0
0.013000000000000001,2.9585638319616425,-1.6578388410567029,10.0,0.0,4.561465663505781,7.416475398134085,94.92686081538804,187.04670514039995,0.0
0.014,3.0458054183873555,-1.6992428258890717,10.0,0.0,5.017304959405843,7.825521466968258,102.28399495194287,187.04670514039995,0.0
0.015,3.129437596640672,-1.7364692411239717,10.0,0.0,5.472145798426831,8.230919734765418,109.53372026217467,187.04670514039995,0.0
0.016,3.210552811963393,-1.7695857128319539,10.0,0.0,5.925312928060965,8.633175907781993,116.65653293115349,187.04670514039995,0.0
0.017,3.2900713730836033,-1.7984854807130213,10.0,0.0,6.37623677178318,9.032587286890328,123.63169653996734,187.04670514039995,0.0
0.018000000000000002,3.368804494471948,-1.8229356042591245,10.0,0.0,6.824409884955268,9.429284454718534,130.43757866305995,187.04670514039995,0.0
0.019,3.447498456907712,-1.842615111099965,10.0,0.0,7.26935564811,9.823260212427078,137.05221834336407,187.04670514039995,0.0
0.02,3.526861943697173,-1.8571505080967716,10.0,0.0,7.710606509321353,10.21438992675776,143.45401251993778,187.04670514039995,0.0
0.021,3.6075800709342305,-1.8661502605548084,10.0,0.0,8.147689874645055,10.602446396648324,149.62177692292263,187.04670514039995,0.0
0.022,3.6903232473171093,-1.8692297688323243,10.0,0.0,8.58011929881139,10.987110987952459,155.53538262516938,187.04670514039995,0.0
0.023,3.7757425600291965,-1.866044519928216,10.0,0.0,9.007391067229275,11.367983369908307,161.1757414417999,187.04670514039995,0.0
0.024,3.8644672688140718,-1.8563079183129654,10.0,0.0,9.428983723312324,11.744590165671154,166.5482750657993,187.04670514039995,0.0
0.025,3.9568682366368213,-1.8401887401938373,10.0,0.0,9.8444020497864,12.116418688093361,171.63311137024695,187.04670514039995,0.0
0.026000000000000002,4.053268629006729,-1.817955065090098,10.0,0.0,10.253176883375069,12.48292615743829,176.3613685119611,187.04670514039995,0.0
0.027,4.154591764677737,-1.788893040024973,9.16788423432086,0.0,10.65475049453324,12.751946087982782,180.25137124566632,187.04670514039995,0.0
0.028,4.205145894649803,-1.7227133241388448,7.290836206415587,0.0,11.036079589133212,12.831519538235629,182.6502947018948,187.04670514039995,0.0
0.029,4.151525403887278,-1.5912571424808764,6.135338582686396,0.0,11.373434736474964,12.839338089875632,183.9964536507083,187.04670514039995,0.0
0.03,4.071883780003239,-1.440153376848895,5.4927616231765635,0.0,11.662529371843597,12.829206185496638,184.6923674038893,187.04670514039995,0.0
0.031,4.002420016784319,-1.293767496562985,5.168348123951169,0.0,11.907109944062345,12.826581817487961,184.91238477898744,187.04670514039995,0.0
0.032,3.9568476369380385,-1.1644148329059982,5.079682640016225,0.0,12.114205088058934,12.84648719941233,184.48182412693302,187.04670514039995,0.0
0.033,3.9435641262346364,-1.054061437844893,5.320611776178106,0.0,12.291735909028155,12.913505879739988,183.69081791389968,187.04670514039995,0.0
0.034,3.98054135880255,-0.9600000954804517,5.74967375495978,0.0,12.448972302223737,13.032162969746665,183.3593572740893,187.04670514039995,0.0
0.035,4.062591176687539,-0.8901733785596375,5.95227755352808,0.0,12.595610439662781,13.164018080485258,182.81948302235716,187.04670514039995,0.0
0.036000000000000004,4.159683934149367,-0.8343194584469056,6.264486900574572,0.0,12.735324610388599,13.31980877894138,181.87688411829126,187.04670514039995,0.0
0.037,4.285029725625616,-0.7792911900897097,6.7874845628286105,0.0,12.871151863569278,13.515582364514184,181.75640115887046,187.04670514039995,0.0
0.038,4.440436794339115,-0.7417923016860832,6.900629082354304,0.0,13.009399154948337,13.69673591772933,181.03680194778465,187.04670514039995,0.0
0.039,4.586664394970805,-0.7087377930998133,7.32052771982336,0.0,13.148676065450553,13.904125284304861,180.14487237947895,187.04670514039995,0.0
0.04,4.768903523762965,-0.6575892857718186,7.83551083158542,0.0,13.289468430839886,14.138568533031371,182.32035561619534,187.04670514039995,0.0
0.041,4.926668552696249,-0.6945152740913672,6.795032708469272,0.0,13.444199228351367,14.228512506869029,185.9276483211562,187.04670514039995,0.0
0.042,4.956297347635746,-0.7321134355788028,5.002576924181281,0.0,13.596217881375887,14.136488290879544,190.261212190216,187.04670514039995,0.0
0.043000000000000003,4.827475388103664,-0.7732688463036692,2.8036499191532123,0.0,13.727983361063867,13.859377652579175,191.75123827977893,187.04670514039995,0.0
0.044,4.59324193012241,-0.7350919727767362,2.011591542977964,0.0,13.814250218757799,13.582494935531251,193.83903836377658,187.04670514039995,0.0
0.045,4.362147933164539,-0.7118676681238199,0.8997681687453731,0.0,13.862029214200998,13.250625193639246,195.60853251217455,187.04670514039995,0.0
0.046,4.1086964995177055,-0.6749588951042471,-0.07059717917135622,0.0,13.868015613925053,12.886667088683817,196.76499561969996,187.04670514039995,0.0
0.047,3.841003082919655,-0.6419505687460931,-0.7460116377270616,0.0,13.833745735011954,12.52202325872369,197.4196378849308,187.04670514039995,0.0
0.048,3.583434779739667,-0.614918718652975,-1.177062097787795,0.0,13.763795040747496,12.175410997030964,197.70274032283587,187.04670514039995,0.0
0.049,3.3465975700799815,-0.6000631190817578,-1.4251736685646827,0.0,13.664814392288307,11.856959533926977,197.73046987240994,187.04670514039995,0.0
0.05,3.1365598952161946,-0.5968594224259818,-1.5458760906718205,0.0,13.543682811728214,11.570394773701878,197.59666772373805,187.04670514039995,0.0
0.051000000000000004,2.953993975633724,-0.6043785275327105,-1.5844746421692566,0.0,13.406867051729918,11.31531638940506,197.32615385813264,187.04670514039995,0.0
0.052000000000000005,2.796250406650195,-0.6216793208649578,-1.552012196543879,0.0,13.260052925517252,11.091547255464231,196.96029224971113,187.04670514039995,0.0
0.053,2.6617713200526394,-0.6466726999399404,-1.4682172634262352,0.0,13.108119562296693,10.897581704318794,196.53543387782022,187.04670514039995,0.0
0.054,2.5482223032884397,-0.6774594633644608,-1.3506753648549852,0.0,12.955119590469597,10.7310566324556,196.07687858694894,187.04670514039995,0.0
0.055,2.4528755549656345,-0.7122676120168048,-1.211699453884831,0.0,12.804288137356398,10.589348653964878,195.6049518730039,187.04670514039995,0.0
0.056,2.373050681081492,-0.7495388656605654,-1.0613185642383516,0.0,12.658120788119742,10.469707735407352,195.11621088621308,187.04670514039995,0.0
0.057,2.3064807350465277,-0.7874295513482454,-0.8976431283010746,0.0,12.518401344840207,10.370439108163556,194.65094657938494,187.04670514039995,0.0
0.058,2.251301651452122,-0.8255363964599379,-0.7410533892768512,0.0,12.386539829269651,10.288117515984506,194.2237086185648,187.04670514039995,0.0
0.059000000000000004,2.2049337561808775,-0.8626254518837719,-0.5992044436484387,0.0,12.263331033683754,10.21942809573909,193.7229207750863,187.04670514039995,0.0
0.06,2.1658800599731696,-0.8961272816177528,-0.41557267825604205,0.0,12.148888486348401,10.167899970326635,193.25325830827407,187.04670514039995,0.0
0.061,2.1359017272896463,-0.9282033756433872,-0.24280697652867111,0.0,12.043930733250818,10.130155391891087,192.79140025438394,187.04670514039995,0.0
0.062,2.1131221620880827,-0.9574114423337337,-0.06932490072344866,0.0,11.948586424015119,10.105250836155976,192.387182714237,187.04670514039995,0.0
0.063,2.096428142806257,-0.9845307007570994,0.0793790936116463,0.0,11.862977127889152,10.089533470158598,192.01010197918671,187.04670514039995,0.0
0.064,2.0842893980959345,-1.0073642691055968,0.21828549274892817,0.0,11.78659752471014,10.08178789683543,191.54632291122527,187.04670514039995,0.0
0.065,2.076566761934217,-1.025147282332721,0.4051788490213952,0.0,11.718809120288213,10.08707622825596,191.08812973801574,187.04670514039995,0.0
0.066,2.0766358127270776,-1.0401913320142675,0.5938611896500054,0.0,11.65980540478323,10.103858188049834,190.70641129528104,187.04670514039995,0.0
0.067,2.083469765576795,-1.0527560411081545,0.7481233494685418,0.0,11.609611934311642,10.127392550182037,190.26922680894165,187.04670514039995,0.0
0.068,2.0946643681717028,-1.0607212947620708,0.9344903759528203,0.0,11.567541777911428,10.161348813612003,189.7816602852804,187.04670514039995,0.0
0.069,2.112901014813581,-1.0654134590008564,1.1509240863346446,0.0,11.533510749023964,10.207752387831452,189.3064356857701,187.04670514039995,0.0
0.07,2.139935497972128,-1.067425243007334,1.365939080636085,0.0,11.507697555045507,10.264808387328523,188.83112620616387,187.04670514039995,0.0
0.07100000000000001,2.1743020611066695,-1.067183649179504,1.585749609781565,0.0,11.490124587253485,10.332096498627823,188.28806334574574,187.04670514039995,0.0
0.07200000000000001,2.2155924722433666,-1.065112940378281,1.8448674579371733,0.0,11.48081236534073,10.413005080429958,187.67651396040614,187.04670514039995,0.0
0.073,2.265931912891807,-1.062640716400847,2.1443440624069114,0.0,11.480270986249963,10.510118395510759,187.04555639615808,187.04670514039995,0.0
0.074,2.3269731770221616,-1.0606440986210672,2.459834331973362,0.0,11.489300170860352,10.622964260134161,186.52801946683127,187.04670514039995,0.0
0.075,2.396602300489436,-1.0617965434414902,2.7237896533724535,0.0,11.508857758580083,10.7442598484744,185.51254793750195,187.04670514039995,0.0
0.076,2.4734971293967405,-1.0579051124539918,3.2468669900660925,0.0,11.53814956450504,10.902518450629765,184.69414835007268,187.04670514039995,0.0
0.077,2.5812216188548125,-1.048884832347654,3.679592351684,0.0,11.579384733551215,11.079168644021808,184.66997758803953,187.04670514039995,0.0
0.078,2.700084176156621,-1.042289359696551,3.7154450082241794,0.0,11.633526105841417,11.229896237173893,184.60238116467062,187.04670514039995,0.0
0.079,2.800418613132682,-1.0260886146982957,3.773686459665929,0.0,11.695609972994509,11.367165078838624,184.4008681525896,187.04670514039995,0.0
0.08,2.8918769264175817,-1.0031861303129808,3.9009013355845434,0.0,11.762855071766369,11.501269574797245,184.01782844747123,187.04670514039995,0.0
0.081,2.9832886572972934,-0.9763450245707658,4.122709955073013,0.0,11.834062613469108,11.642674223157819,183.5345429056133,187.04670514039995,0.0
0.082,3.082350271953706,-0.9489628492055049,4.399474348349841,0.0,11.90954623760488,11.795302497614768,183.0347074401416,187.04670514039995,0.0
0.083,3.1916853407257886,-0.9226420801333496,4.689512058088277,0.0,11.990122863928478,11.958316569759688,182.55509993980502,187.04670514039995,0.0
0.084,3.31065637322019,-0.8970896097496288,4.974231860262519,0.0,12.076395670782725,12.1295122355776,182.10560385099762,187.04670514039995,0.0
0.085,3.43758199226918,-0.8717589560106453,5.248390917560238,0.0,12.168629916325887,12.306753806009706,181.66892330715564,187.04670514039995,0.0
0.08600000000000001,3.570792531882753,-0.8463747034950344,5.520509007813676,0.0,12.266825933118614,12.489302140140813,181.21004235684308,187.04670514039995,0.0
0.08700000000000001,3.7097985634139445,-0.8208201766507419,5.808316110805525,0.0,12.370900026217472,12.67839428489236,180.7274750060632,187.04670514039995,0.0
0.088,3.855889606084151,-0.7948412242429128,6.11279208753883,0.0,12.48087378498517,12.87491895651097,180.27502325360192,187.04670514039995,0.0
0.089,4.009667287874493,-0.7688710619570991,6.406734782637454,0.0,12.5969057067106,13.076622838967767,179.79894007290247,187.04670514039995,0.0
0.09,4.16881231821694,-0.7438257301867232,6.717254023662152,0.0,12.719009539637286,13.285009038393394,179.31690072932196,187.04670514039995,0.0
0.091,4.3364992756284915,-0.7164546796954776,7.035571739563187,0.0,12.846981246977533,13.499822642496147,178.8837980161937,187.04670514039995,0.0
0.092,4.509364948967047,-0.6924940568396887,7.333752167369374,0.0,12.981275185984805,13.718230372329193,178.414798083203,187.04670514039995,0.0
0.093,4.6903314871647,-0.6628522252457713,7.654571204436693,0.0,13.120959508827877,13.942357350410653,179.9637576094292,187.04670514039995,0.0
0.094,4.855887308174671,-0.6713551707969055,6.950920916633309,0.0,13.270319839521358,14.0610288660101,182.80683712047298,187.04670514039995,0.0
0.095,4.899565921318863,-0.7285124417338854,5.571779841310687,0.0,13.422813559052987,14.03495115847574,188.33270767291037,187.04670514039995,0.0
0.096,4.825000462385823,-0.7695359924486365,2.7959845397668848,0.0,13.561391153747273,13.743823507845468,189.4089052751803,187.04670514039995,0.0
0.097,4.57593508561468,-0.7347673281521705,2.2342637372841168,0.0,13.652763435329348,13.488286583345474,191.3493282091649,187.04670514039995,0.0
0.098,4.359604967496892,-0.7107658284857667,1.2210260396041712,0.0,13.707152317982871,13.182907299958968,193.38674262639964,187.04670514039995,0.0
0.099,4.12202699327708,-0.6795013199880788,0.13891845612680287,0.0,13.722365303094312,12.828575651953756,194.59444839006636,187.04670514039995,0.0
0.1,3.8585282279638244,-0.6469941355411344,-0.5404118582032229,0.0,13.697360679689897,12.473902292960938,195.29264624341266,187.04670514039995,0.0
0.101,3.6045551074916857,-0.6212039031921551,-0.9719701959065001,0.0,13.63687732901273,12.136819749121702,195.69886650946307,187.04670514039995,0.0
0.10200000000000001,3.373031938809035,-0.6039332552813177,-1.2616019426223368,0.0,13.547092190072647,11.822781033187333,195.83367168332367,187.04670514039995,0.0
0.10300000000000001,3.163566384755266,-0.5997122809733897,-1.4168741949818733,0.0,13.434590092738379,11.537710023919093,195.77064576820146,187.04670514039995,0.0
0.10400000000000001,2.9798304713805437,-0.605456709442476,-1.472600643698783,0.0,13.305505201085392,11.28343501393967,195.56806666572302,187.04670514039995,0.0
0.105,2.820807323039706,-0.6208972969118899,-1.456524707712795,0.0,13.165542317936696,11.05965982042226,195.26602612011337,187.04670514039995,0.0
0.106,2.6847427707100384,-0.644226312242396,-1.3876976447051002,0.0,13.019609989562799,10.865052944785564,194.90077036590924,187.04670514039995,0.0
0.107,2.569387892687799,-0.67359138013114,-1.2836104198581295,0.0,12.871807073777074,10.697403239037387,194.49849109526946,187.04670514039995,0.0
0.108,2.4721083175507,-0.7072166930058956,-1.1569886440869341,0.0,12.725424612732441,10.554172939856675,194.07913760298013,187.04670514039995,0.0
0.109,2.390273706004579,-0.7435134602583108,-1.0176362225680697,0.0,12.58301375914322,10.432718984617637,193.63998972721024,187.04670514039995,0.0
0.11,2.3216783387685362,-0.7806167295435346,-0.8639951305512272,0.0,12.446416987337868,10.331403479730747,193.22136790632075,187.04670514039995,0.0
0.111,2.2644373536330806,-0.8181775364701915,-0.7164308477656931,0.0,12.317108998293445,10.246866063030792,192.83479733844948,187.04670514039995,0.0
0.112,2.216009803779217,-0.8549139894757247,-0.5810264858105509,0.0,12.19594346824481,10.17602504671617,192.38295170952952,187.04670514039995,0.0
0.113,2.174973183804624,-0.8883923334158016,-0.4084661370418692,0.0,12.083125642872922,10.121808926471818,191.95779118039226,187.04670514039995,0.0
0.114,2.1426802888783687,-0.9205478718665203,-0.24499673287316348,0.0,11.97937031380397,10.081130518927722,191.52140728438616,187.04670514039995,0.0
0.115,2.117646540071758,-0.9496112841456723,-0.07155180630997249,0.0,11.884798096853707,10.054019450530877,191.13707892182717,187.04670514039995,0.0
0.116,2.0992202044876884,-0.9769535159819914,0.07970863715525,0.0,11.799689006137983,10.036843026220406,190.76247581040923,187.04670514039995,0.0
0.117,2.08574334105412,-1.0005361255853789,0.22985248616412735,0.0,11.723693846800797,10.029174745847586,190.40520383524762,187.04670514039995,0.0
0.11800000000000001,2.0772049682101392,-1.0203315215796975,0.37490348679645535,0.0,11.65647304282339,10.029932401536302,189.97542725620895,187.04670514039995,0.0
0.11900000000000001,2.0737310925695605,-1.0353647875845726,0.5605045551577019,0.0,11.597505790113187,10.043154561363846,189.62336778923304,187.04670514039995,0.0
0.12,2.0775558220971977,-1.0483570359213035,0.710767662157322,0.0,11.547036293313749,10.06337525201951,189.21539808818576,187.04670514039995,0.0
0.121,2.085897834618801,-1.0569680328161033,0.8930655832031031,0.0,11.504453102434884,10.094197690092606,188.78320861386476,187.04670514039995,0.0
0.122,2.1012353365303578,-1.0626694691671097,1.0917952856289583,0.0,11.469751522480879,10.13611314824184,188.31902250667548,187.04670514039995,0.0
0.123,2.1245355790906677,-1.0651866560826408,1.3111651655608418,0.0,11.442931522534394,10.190100640686476,187.8938136839914,187.04670514039995,0.0
0.124,2.1561448947089357,-1.0657646104610863,1.5152984914669696,0.0,11.424230674939494,10.253024328649946,187.39451469327503,187.04670514039995,0.0
0.125,2.193879797806105,-1.0640625436561295,1.7614698912964033,0.0,11.413499274008107,10.328988337595256,186.83213077545508,187.04670514039995,0.0
0.126,2.2402637003209565,-1.061815673220731,2.0448075938558237,0.0,11.411207278984536,10.420263358590471,186.22457623698293,187.04670514039995,0.0
0.127,2.296818890687035,-1.0597736826303616,2.3568061521260724,0.0,11.418069835302262,10.527910910452823,185.68109496563395,187.04670514039995,0.0
0.128,2.3633721165422785,-1.0595163266288898,2.642202889548223,0.0,11.435003001920196,10.64699831535403,184.8847853946303,187.04670514039995,0.0
0.129,2.435351871973405,-1.0615627116247999,3.0619768725077354,0.0,11.462379268276013,10.791939226339363,183.91531366559775,187.04670514039995,0.0
0.13,2.53295964830098,-1.0515157010838938,3.578026651772039,0.0,11.50038636408533,10.967674350909503,183.8212077490701,187.04670514039995,0.0
0.131,2.6511083996296554,-1.0452817300380126,3.6573345839491567,0.0,11.551580996061091,11.121179762467522,183.77214120164925,187.04670514039995,0.0
0.132,2.752718452425345,-1.0313542956506925,3.714613497047096,0.0,11.611537027922928,11.259966078892077,183.6296824439396,187.04670514039995,0.0
0.133,2.8442361192672028,-1.0103455893313895,3.8200131028665227,0.0,11.677204404889789,11.39283969154487,183.31582491013452,187.04670514039995,0.0
0.134,2.933413820371914,-0.9847097863249665,4.014250672071716,0.0,11.74698255415773,11.530410446730345,182.8777085062947,187.04670514039995,0.0
0.135,3.0283495904712003,-0.957648977355144,4.2749988403326755,0.0,11.820819633060808,11.678390706440851,182.40245116246348,187.04670514039995,0.0
0.136,3.1329791681686614,-0.9313448765796566,4.559070052027655,0.0,11.899448187049021,11.837037103828719,181.93680017324817,187.04670514039995,0.0
0.137,3.247427829385015,-0.9059107790823415,4.842994596306826,0.0,11.983543815660253,12.004529647673557,181.49855288009496,187.04670514039995,0.0
