timestamp,iq,id,iq_ref,id_ref,vq,vd,omega,omega_ref,r
0.0,0.0,0.0,0.0,0.0,0.0,0.0,0.0,108.64430169274458,0.0
0.001,0.0,0.0,10.0,0.0,0.0,1.0999999999999999,4.033806206220999,108.64430169274458,0.0
0.002,0.6900954461195414,-0.395931911922337,10.0,0.0,0.1535525103114571,1.9140895009268504,9.318297466252455,108.64430169274458,0.0
0.003,1.6155178784844595,-0.9272735550508483,10.0,0.0,0.4276469813093664,2.5672297896932164,15.220330356220297,108.64430169274458,0.0
0.004,2.5562921455102683,-1.4679192634860878,10.0,0.0,0.7938036455807124,3.0882345516335468,21.37904260961733,108.64430169274458,0.0
0.005,3.3909068303327805,-1.9475532754109657,10.0,0.0,1.222798403846341,3.511354631146759,27.726880877465373,108.64430169274458,0.0
0.006,4.06805577852244,-2.3372145741373984,10.0,0.0,1.6892720969773876,3.8689219410825766,34.126653208835634,108.64430169274458,0.0
0.007,4.582430621001615,-2.6334908509893653,10.0,0.0,2.173548929255362,4.187570146147104,40.509992820520466,108.64430169274458,0.0
0.008,4.954169933583289,-2.847714559903911,10.0,0.0,2.661864744024073,4.487033637973784,46.82427743809128,108.64430169274458,0.0
0.009000000000000001,5.214366016937205,-2.9974768471923126,10.0,0.0,3.1456269410111597,4.780478186051553,53.034226013821225,108.64430169274458,0.0
0.01,5.395601325920092,-3.101190256378191,10.0,0.0,3.620268225244876,5.075620575865676,59.11036675978036,108.64430169274458,0.0
0.011,5.5265475906295025,-3.1751240195154593,10.0,0.0,4.084055199889874,5.376121119093551,65.16211437566093,108.64430169274458,0.0
0.012,5.629697715729007,-3.2319356246052733,10.0,0.0,4.537023470321667,5.682913254349287,71.04298127617842,108.64430169274458,0.0
0.013000000000000001,5.721247435181571,-3.280022240151904,10.0,0.0,4.980095538895087,5.995284035233842,76.93528447006332,108.64430169274458,0.0
0.014,5.811164641611309,-3.325094908558675,10.0,0.0,5.414574606068896,6.31174954937454,82.67096572586863,108.64430169274458,0.0
0.015,5.9053749719854025,-3.369292838629291,10.0,0.0,5.841663363563097,6.630552454541693,88.34442104187526,108.64430169274458,0.0
0.016,6.006288909474986,-3.413320607562842,10.0,0.0,6.262324611106575,6.950025515121439,93.95514497212729,108.64430169274458,0.0
0.017,6.114334436189151,-3.4565712031594744,10.0,0.0,6.677184327779977,7.268741525833895,99.52005560324466,108.64430169274458,0.0
0.018000000000000002,6.2289122060002695,-3.497653184514898,7.387813136461981,0.0,7.086516185850412,7.298208252741186,103.8154577376617,108.64430169274458,0.0
0.019,6.171697500480164,-3.4318521161744693,5.288400508804287,0.0,7.45021259347353,7.168287367663142,106.68450112953592,108.64430169274458,0.0
0.02,5.917246254740097,-3.242707723213036,3.8734768184992667,0.0,7.744399399284181,6.980498222174447,108.48792059622771,108.64430169274458,0.0
0.021,5.519087270814083,-2.962774947778093,2.973330896118539,0.0,7.9614874485966665,6.797292833031321,109.71267448331004,108.64430169274458,0.0
0.022,5.0558037277877155,-2.6378301859514828,2.3502702246717195,0.0,8.105601558017014,6.64156117299205,110.48256211941934,108.64430169274458,0.0
0.023,4.5931769573376915,-2.307493959379907,1.9469438023503205,0.0,8.186643553186796,6.523934899477097,111.3497753947448,108.64430169274458,0.0
0.024,4.175938845171922,-2.005719209028024,1.4862824276675912,0.0,8.217926861215108,6.420805890472465,110.76983502324612,108.64430169274458,0.0
0.025,3.817608998897618,-1.740326910223608,1.7549972801119158,0.0,8.20959353217516,6.400527262655345,109.24732507926124,108.64430169274458,0.0
0.026000000000000002,3.568457493129973,-1.5342277976612575,2.510222018239185,0.0,8.18004869386368,6.485654104557196,107.32176904958807,108.64430169274458,0.0
0.027,3.4689265800692004,-1.4081416102881548,3.4862253595073374,0.0,8.150162534088118,6.667578783974946,105.77128172802531,108.64430169274458,0.0
0.028,3.5347198588900044,-1.3661527445554449,4.290199219935908,0.0,8.13809954487502,6.898766900906931,107.17918837273926,108.64430169274458,0.0
0.029,3.736933213957044,-1.3957014878465928,3.6008970307789876,0.0,8.154031916695779,7.000181391543695,109.36334412829387,108.64430169274458,0.0
0.03,3.9371076374531917,-1.4303295003304415,2.501628728646188,0.0,8.182026094338456,6.959024125921914,109.90484773991896,108.64430169274458,0.0
0.031,4.041659100985531,-1.4196947292240818,2.2182714623618995,0.0,8.201589022708145,6.895106471603039,107.46860723012571,108.64430169274458,0.0
0.032,4.076606422896537,-1.3628407287116158,3.448148661884713,0.0,8.206656300463672,6.9748582493884825,104.77271992710435,108.64430169274458,0.0
0.033,4.164599886122965,-1.3187949504167493,4.834808131051798,0.0,8.214915532614878,7.178045539048292,106.93927913489068,108.64430169274458,0.0
0.034,4.36428708203103,-1.326114451873777,3.7685787527371692,0.0,8.243913173460166,7.2095025397333385,109.12542499073857,108.64430169274458,0.0
0.035,4.5149716238791155,-1.3234625930558028,2.670694591833288,0.0,8.272791850804884,7.116030212873918,106.41257849400245,108.64430169274458,0.0
0.036000000000000004,4.558925870875803,-1.265763994623098,4.0494350721887695,0.0,8.28311510048977,7.194105159131901,103.73168683084742,108.64430169274458,0.0
0.037,4.659185330326956,-1.209502006474318,5.439007052385252,0.0,8.294601687119929,7.39388145068097,107.34954304441781,108.64430169274458,0.0
0.038,4.8632993633426045,-1.2127050971545428,3.6430265320833244,0.0,8.325832204098289,7.341925245665761,106.35153250614201,108.64430169274458,0.0
0.039,4.963897181811777,-1.1842973417089173,4.164959493087254,0.0,8.345587164871473,7.364635524061912,103.15391351998764,108.64430169274458,0.0
0.04,5.0678827698789535,-1.1259963412258727,5.8186728678920066,0.0,8.359508624908273,7.553306975811546,106.77156718892088,108.64430169274458,0.0
0.041,5.2700888305388025,-1.1221894104150894,4.028573378463622,0.0,8.391069331732002,7.489852540012818,104.00168976440123,108.64430169274458,0.0
0.042,5.3656442416234125,-1.083380828644988,5.4599382100068805,0.0,8.40889764960688,7.6027617102276706,103.81402715446286,108.64430169274458,0.0
0.043000000000000003,5.53040932794939,-1.0413677060339697,5.602072260358883,0.0,8.432000695046247,7.690315287046801,105.43568680287407,108.64430169274458,0.0
0.044,5.6965307710869215,-1.0346771408515814,4.823328585051983,0.0,8.461232962679635,7.6677149580588075,101.56456167068517,108.64430169274458,0.0
0.045,5.816123874530787,-0.9760243437441496,6.829688551367031,0.0,8.478897068620894,7.867290894833228,105.57463875077676,108.64430169274458,0.0
0.046,6.035604880783269,-0.9804174878031384,4.855346640740914,0.0,8.515822131463029,7.7884874590389686,100.72072548517126,108.64430169274458,0.0
0.047,6.146166551570801,-0.9234098375572604,7.361539035619396,0.0,8.534859571473893,8.006714481927148,105.38035806466235,108.64430169274458,0.0
0.048,6.37808753638483,-0.9259079622432869,5.0643621821546745,0.0,8.574660839990404,7.902865477076018,99.62249588684216,108.64430169274458,0.0
0.049,6.4811721908117015,-0.8598464128759153,8.033511329123792,0.0,8.592805329492887,8.15393957212409,104.35951851692191,108.64430169274458,0.0
0.05,6.727156588751518,-0.87372791033768,5.707847845842144,0.0,8.636430359764391,8.070178794757814,100.29915299100143,108.64430169274458,0.0
0.051000000000000004,6.860392031261258,-0.8085735872725421,7.821482095819812,0.0,8.660011018760333,8.242716945789006,102.10549221289196,108.64430169274458,0.0
0.052000000000000005,7.068681054944129,-0.8100212623033922,6.983700579673076,0.0,8.699298214443852,8.26548760016074,102.19974935973201,108.64430169274458,0.0
0.053,7.254243812945735,-0.7605465555160111,7.0010175295831765,0.0,8.731477061499268,8.281863575171881,98.59283410528784,108.64430169274458,0.0
0.054,7.396396889046567,-0.7214746671362531,8.904989832679831,0.0,8.758272460696354,8.495302410437905,101.99762155788454,108.64430169274458,0.0
0.055,7.6519346502866386,-0.731290359696076,7.269062907730078,0.0,8.805202648565716,8.464397594346194,101.15850157118804,108.64430169274458,0.0
0.056,7.829896319116598,-0.6770932520475479,7.763480902293894,0.0,8.83828949727203,8.495001121343211,99.78620423656244,108.64430169274458,0.0
0.057,7.953846272152932,-0.6811692047749349,8.538210544168516,0.0,8.872118339683917,8.594274183026036,103.11283646132937,108.64430169274458,0.0
0.058,8.072789370851886,-0.7679462368884544,6.930209084099205,0.0,8.92199631802811,8.490531124428873,105.36285162953327,108.64430169274458,0.0
0.059000000000000004,8.083413941832188,-0.7880089107488097,5.838016000629367,0.0,8.957851316481673,8.298109673124015,102.01650962989717,108.64430169274458,0.0
0.06,7.942203529001684,-0.7803450633150129,7.577464921075889,0.0,8.969835020003067,8.346416569999969,106.88301788433702,108.64430169274458,0.0
0.061,7.869616361378668,-0.8215986732379279,5.16182363194004,0.0,8.990065578425778,8.114548600841287,103.88819613766624,108.64430169274458,0.0
0.062,7.669665570526357,-0.7859871244136905,6.7067955608262135,0.0,8.980756477620456,8.123262524827105,106.62006048156495,108.64430169274458,0.0
0.063,7.524327549919487,-0.8231533908791282,5.361105800988656,0.0,8.977694084093688,7.980686227821053,105.50971846693888,108.64430169274458,0.0
0.064,7.34395048167711,-0.8101546638657462,5.947622640559748,0.0,8.958878777582868,7.948423168414716,107.2267773402255,108.64430169274458,0.0
0.065,7.18640969174958,-0.8531111236610394,5.103268447441629,0.0,8.943573893630107,7.834286470868831,105.8497451872005,108.64430169274458,0.0
0.066,7.018115634764024,-0.8566963666380989,5.819730089009569,0.0,8.918350640447558,7.834224215555046,109.02315268265579,108.64430169274458,0.0
0.067,6.892929338790928,-0.9180241387773482,4.229237831382811,0.0,8.902353689557435,7.661614647686947,105.67328503871532,108.64430169274458,0.0
0.068,6.701536768564045,-0.9251809715267902,5.9338818198933385,0.0,8.870869450850563,7.727883422594303,110.15210962816478,108.64430169274458,0.0
0.069,6.615429316678362,-0.9916569335385215,3.6793914458144066,0.0,8.856401300998904,7.526894409111599,107.12903282178544,108.64430169274458,0.0
0.07,6.416548473586605,-1.0161072836250602,5.206082537713667,0.0,8.825305843673544,7.556054224062944,108.69470263113463,108.64430169274458,0.0
0.07100000000000001,6.311712150438923,-1.0603898457344516,4.422743623655172,0.0,8.804862491907022,7.487297507436523,110.45857992559867,108.64430169274458,0.0
0.07200000000000001,6.1816742464056755,-1.121510808842281,3.522662194094612,0.0,8.785868283975281,7.345452365397195,107.89162946068546,108.64430169274458,0.0
0.073,6.001677767859677,-1.1416537563775915,4.813664148871806,0.0,8.756193497230583,7.385402579689447,109.85226902327662,108.64430169274458,0.0
0.074,5.908904159846621,-1.1941241040799255,3.8212646942709085,0.0,8.739051519361487,7.3047214664201086,111.61836739378508,108.64430169274458,0.0
0.075,5.778880377548872,-1.2501074499528881,2.9084748520062735,0.0,8.721189092521367,7.153286258560319,109.50288256477313,108.64430169274458,0.0
0.076,5.58812269855415,-1.265749556397251,3.957631457791962,0.0,8.691130185829433,7.159426560728011,109.63165022376381,108.64430169274458,0.0
0.077,5.465099550534666,-1.3014240201367708,3.883374142986428,0.0,8.668458969970363,7.154912040815467,111.81225692880437,108.64430169274458,0.0
0.078,5.371788024847881,-1.3564250006365635,2.76139123810555,0.0,8.653296786923526,7.034940341264782,112.36861082790867,108.64430169274458,0.0
0.079,5.216743569381475,-1.391857905629975,2.4459711972017626,0.0,8.631001261970585,6.91809499275831,111.05453163285131,108.64430169274458,0.0
0.08,5.031874230889866,-1.4012869964310408,3.078908495329374,0.0,8.59993362560047,6.90226711248968,110.72872516025213,108.64430169274458,0.0
0.081,4.894907628480423,-1.4269271167147595,3.2209674969538904,0.0,8.573116087163708,6.907430006688448,111.14933953351348,108.64430169274458,0.0
0.082,4.800342464419016,-1.4722808350426015,2.9856099319155227,0.0,8.554229099803717,6.891117437475852,111.95802106881209,108.64430169274458,0.0
0.083,4.7181968546879824,-1.520497421328553,2.548131970505546,0.0,8.540449841566646,6.836868791773607,113.72505619499813,108.64430169274458,0.0
0.084,4.615044583271562,-1.5613073495049683,1.6138068623899882,0.0,8.526630570819604,6.698791396297762,113.64199279889328,108.64430169274458,0.0
0.085,4.443595737322634,-1.567895885844788,1.6053616493809244,0.0,8.500702127315298,6.599381941285175,112.82141749454425,108.64430169274458,0.0
0.08600000000000001,4.258674151621751,-1.558547537252898,1.973878143537445,0.0,8.466331378951653,6.566568739878328,112.37208391209452,108.64430169274458,0.0
0.08700000000000001,4.109780453467135,-1.5623353032508773,2.161267112568808,0.0,8.43262652302939,6.565056496367689,112.22191577653402,108.64430169274458,0.0
0.088,4.004816454083318,-1.5852136854459624,2.200575039511167,0.0,8.404619672729766,6.572832076839904,112.26759592119426,108.64430169274458,0.0
0.089,3.933447682659654,-1.6224336477450905,2.1415020248965506,0.0,8.38405647753828,6.576939228220672,112.35555996986288,108.64430169274458,0.0
0.09,3.879865958774836,-1.6657468291885325,2.0604074177910556,0.0,8.370352567339808,6.575429970221845,112.43788639250104,108.64430169274458,0.0
0.091,3.832827872835856,-1.708008965908776,1.98130835947441,0.0,8.36208382558609,6.569449668873721,112.51628346038784,108.64430169274458,0.0
0.092,3.785653660462731,-1.7455279866489883,1.9033900078545787,0.0,8.357748398787155,6.560179277891676,112.62187079546366,108.64430169274458,0.0
0.093,3.735245360187437,-1.7762754235077898,1.8108206492894756,0.0,8.355926503416972,6.547072108308527,112.82711875398317,108.64430169274458,0.0
0.094,3.6796981654792478,-1.7989721603557476,1.6663684994173362,0.0,8.35516524731018,6.5257355316615415,113.20916082604353,108.64430169274458,0.0
0.095,3.6153150031494734,-1.8118696480245173,1.4296988720541677,0.0,8.353538215424459,6.488394025466543,113.77954962489856,108.64430169274458,0.0
0.096,3.5352301773574277,-1.811833898706158,1.0931519933051108,0.0,8.348206828806099,6.428136005527531,114.22236980976358,108.64430169274458,0.0
0.097,3.433266252132376,-1.7918787198439643,0.8159612197024142,0.0,8.335188066674014,6.3566603161286155,114.76046232000803,108.64430169274458,0.0
0.098,3.3107097270121577,-1.758167068990504,0.48575335830755284,0.0,8.312814882009992,6.269940940949948,114.65612997139176,108.64430169274458,0.0
0.099,3.1687962214018452,-1.7101260727642058,0.47780124982921457,0.0,8.279059685218144,6.20646845187001,114.24202247124202,108.64430169274458,0.0
0.1,3.034062641501519,-1.6601367217465208,0.62887779211911,0.0,8.237314340547805,6.1760671914884835,113.67290398845368,108.64430169274458,0.0
0.101,2.928839128991694,-1.620612717900849,0.863151010556189,0.0,8.192855657393503,6.179018061860334,113.20888210057463,108.64430169274458,0.0
0.10200000000000001,2.866226362058992,-1.599634295312661,1.0495161504174169,0.0,8.151225543145568,6.201220579317432,112.78160074417902,108.64430169274458,0.0
0.10300000000000001,2.844372502695362,-1.5964083230459178,1.2217838381008774,0.0,8.115833619344677,6.235903424711269,112.26339628262578,108.64430169274458,0.0
0.10400000000000001,2.8565254004279783,-1.607258611596857,1.4446951229786853,0.0,8.088674963926536,6.284821000301134,111.94881696467957,108.64430169274458,0.0
0.105,2.8981302949063776,-1.630381807278996,1.5689396292324411,0.0,8.071558980248716,6.333113726214032,111.79783123594407,108.64430169274458,0.0
0.106,2.9560745205156036,-1.6590138787802686,1.6128971981681923,0.0,8.06390216343829,6.372500652816026,111.4329605762996,108.64430169274458,0.0
0.107,3.0175204519451437,-1.6839838580050464,1.7674459391548756,0.0,8.063410097968811,6.417564380694794,111.00909910338277,108.64430169274458,0.0
0.108,3.082672233414077,-1.7063669325134667,1.9557287015069145,0.0,8.069686050237841,6.470685909040314,110.36445422609604,108.64430169274458,0.0
0.109,3.155016284698779,-1.7249254974187602,2.2608496148167614,0.0,8.082464171509015,6.543497024792114,109.92318010969763,108.64430169274458,0.0
0.11,3.2431056272414973,-1.7449020880634567,2.4686978888464397,0.0,8.103257431550118,6.621150554939169,109.8521504806978,108.64430169274458,0.0
0.111,3.3422964661274093,-1.765471625530757,2.4921342154668196,0.0,8.131799601816775,6.683587472411551,110.1694278390417,108.64430169274458,0.0
0.112,3.4374527343607264,-1.7784803031816545,2.3182442748318977,0.0,8.164956505970926,6.713797377310508,110.60902264385176,108.64430169274458,0.0
0.113,3.5088351145043544,-1.773261260805975,2.078799662915798,0.0,8.197114528761725,6.712801475097097,111.24664924258956,108.64430169274458,0.0
0.114,3.5458690137450963,-1.7440720250024022,1.73396288804845,0.0,8.222798533537466,6.676223461152812,112.04799800878165,108.64430169274458,0.0
0.115,3.540330345831849,-1.6874715019787105,1.299251541792033,0.0,8.236322171266634,6.602481361203864,112.57272957042493,108.64430169274458,0.0
0.116,3.486184197667031,-1.6046973971390996,0.9976014821935903,0.0,8.232580088925872,6.514532131548462,111.42308113369616,108.64430169274458,0.0
0.117,3.39804173429231,-1.501701431801114,1.5446379061484588,0.0,8.209915476714864,6.507348333345115,109.55454333117315,108.64430169274458,0.0
0.11800000000000001,3.3471997455432407,-1.413066341183005,2.469804391025677,0.0,8.180079045590006,6.599625596966594,107.97252259679637,108.64430169274458,0.0
0.11900000000000001,3.3849046401037715,-1.3736325806618284,3.267532549173551,0.0,8.159002621188636,6.753533965371787,106.48342255663604,108.64430169274458,0.0
0.12,3.5265657514058035,-1.3738921815275802,4.033691360614798,0.0,8.155847569768367,6.951038368875764,107.79323141304414,108.64430169274458,0.0
0.121,3.755076028444641,-1.4202021530398963,3.387297635207754,0.0,8.177849964698215,7.025992409616876,109.64994424606492,108.64430169274458,0.0
0.122,3.9553449241845886,-1.4540143430206818,2.4488847931641606,0.0,8.208403765391958,6.97914533464513,110.42991303600492,108.64430169274458,0.0
0.123,4.055473537613475,-1.4399487150639358,2.0410442847615577,0.0,8.229332137544102,6.895548561216307,108.0452640361336,108.64430169274458,0.0
0.124,4.073748153173625,-1.37488690594211,3.2393591612633257,0.0,8.232791852414316,6.957288422267473,105.05512503220037,108.64430169274458,0.0
0.125,4.138673357989965,-1.3210056014913034,4.770320429835386,0.0,8.236803256504253,7.162663833104256,106.5509029104344,108.64430169274458,0.0
0.126,4.32799294799044,-1.3191607205182863,4.043365478541469,0.0,8.261286937406352,7.232452283086413,109.40113098734267,108.64430169274458,0.0
0.127,4.497295576447747,-1.3238549930624581,2.6106831471413554,0.0,8.290835914006044,7.130654655989194,107.25712762413846,108.64430169274458,0.0
0.128,4.546073093342893,-1.2718898431525967,3.6965565694295197,0.0,8.301487121020523,7.172092088453473,104.00080682152237,108.64430169274458,0.0
0.129,4.625231232474437,-1.2091661407616787,5.371151919449785,0.0,8.308836994816074,7.375578032516598,106.92167516417291,108.64430169274458,0.0
0.13,4.822392487496134,-1.2041156735947907,3.9279440134102344,0.0,8.335872161273935,7.363055389727346,107.2196098600532,108.64430169274458,0.0
0.131,4.94325894369589,-1.1860317458678509,3.7932235837970047,0.0,8.357012819428792,7.342777662033987,103.39054360460597,108.64430169274458,0.0
0.132,5.030220331406626,-1.1254049329557905,5.760294292402007,0.0,8.367523528855772,7.536009667081947,106.27765076222258,108.64430169274458,0.0
0.133,5.229958128518666,-1.1139113485943877,4.340407222898921,0.0,8.395648341694208,7.514009714031205,105.1482175195148,108.64430169274458,0.0
0.134,5.347753486018861,-1.089742518171942,4.940084685985107,0.0,8.416217042440877,7.566225517849989,102.69803199008638,108.64430169274458,0.0
0.135,5.487544787779248,-1.0382935046649897,6.224640147725901,0.0,8.43453275031322,7.736381847903548,106.64718867881405,108.64430169274458,0.0
0.136,5.695429908132111,-1.045171733804016,4.270032933501371,0.0,8.469303615744042,7.642032317335667,101.42803105604334,108.64430169274458,0.0
0.137,5.787520314108529,-0.9848534495427599,6.951774451253738,0.0,8.484458648014872,7.867081372008784,105.56776639983156,108.64430169274458,0.0
0.138,6.014561649858074,-0.981578796936621,4.912672132288759,0.0,8.520846053581861,7.795968711305314,101.21550985012408,108.64430169274458,0.0
