timestamp,iq,id,iq_ref,id_ref,vq,vd,omega,omega_ref,r
0.0,0.0,0.0,0.0,0.0,0.0,0.0,0.0,403.88912970337793,0.0
0.001,0.0,0.0,10.0,0.0,0.0,1.0999999999999999,3.8638074868389847,403.88912970337793,0.0
0.002,0.6130326197284655,-0.3497508823385468,10.0,0.0,0.14847259705724017,1.9225664118298689,8.289919141586122,403.88912970337793,0.0
0.003,1.146297655031892,-0.6482826746064109,10.0,0.0,0.3936955639178227,2.6251946144963827,12.960473609304882,403.88912970337793,0.0
0.004,1.5660273254770978,-0.8798240786820952,10.0,0.0,0.7071432908846448,3.241244680186363,17.7840595364247,403.88912970337793,0.0
0.005,1.8930354618617142,-1.0575148184334844,10.0,0.0,1.0680818190556791,3.7952609137061746,22.708905711641265,403.88912970337793,0.0
0.006,2.1516491490270435,-1.19558738078162,10.0,0.0,1.461739192222372,4.3047919524667675,27.68728094363702,403.88912970337793,0.0
0.007,2.361087402809779,-1.3051455979135558,10.0,0.0,1.877654610209486,4.782283553623523,32.694084504194926,403.88912970337793,0.0
0.008,2.5352899400037323,-1.3943492787522136,10.0,0.0,2.308444469234498,5.236549639909806,37.708744308811866,403.88912970337793,0.0
0.009000000000000001,2.68421126628869,-1.4689524281282407,10.0,0.0,2.748896260608613,5.673828782950557,42.71650262782019,403.88912970337793,0.0
0.01,2.8147886953361674,-1.533199005391967,10.0,0.0,3.195351879154641,6.098550886892271,47.72340166285539,403.88912970337793,0.0
0.011,2.9321630470981517,-1.5896563214231263,10.0,0.0,3.6452019852310285,6.513840937891072,52.716601027563776,403.88912970337793,0.0
0.012,3.039805378317085,-1.640397773199263,10.0,0.0,4.096613072334721,6.921920081481171,57.683161639517444,403.88912970337793,0.0
0.013000000000000001,3.140275303101777,-1.686687890291018,10.0,0.0,4.548275463449384,7.3243571510085035,62.61580667703666,403.88912970337793,0.0
0.014,3.235387274450564,-1.7293983060112115,10.0,0.0,4.999250566963619,7.722259135094046,67.50820906142495,403.88912970337793,0.0
0.015,3.326457498973844,-1.7690802761297135,10.0,0.0,5.448856271090819,8.116401826138384,72.35419274880219,403.88912970337793,0.0
0.016,3.4144591695424427,-1.806049462593423,10.0,0.0,5.896585464719554,8.507321336973696,77.14763892101769,403.88912970337793,0.0
0.017,3.5001301936190754,-1.8404500827793935,10.0,0.0,6.342048066424768,8.895378020145609,81.88194164358502,403.88912970337793,0.0
0.018000000000000002,3.5840519771582438,-1.872296557010023,10.0,0.0,6.784929182240161,9.280800609222311,86.54995421117572,403.88912970337793,0.0
0.019,3.6667032723290425,-1.9015069512260285,10.0,0.0,7.22495912400314,9.66371662633948,91.14419477222025,403.88912970337793,0.0
0.02,3.7484973770494068,-1.9279288908135044,10.0,0.0,7.661891982713997,10.044173197353704,95.68320491324354,403.88912970337793,0.0
0.021,3.8296979526778645,-1.9515458307466556,10.0,0.0,8.095510856651966,10.42216327486566,100.14050578624746,403.88912970337793,0.0
0.022,3.9106829331522315,-1.9720754059873542,10.0,0.0,8.525588934824475,10.797619889924325,104.49019751615484,403.88912970337793,0.0
0.023,3.991864107362825,-1.9891392862542863,10.0,0.0,8.951876597762558,11.170418571935953,108.7226249866948,403.88912970337793,0.0
0.024,4.073606537618678,-2.0024226608279942,10.0,0.0,9.374105895008435,11.540386296454184,112.83088233165846,403.88912970337793,0.0
0.025,4.156262952946339,-2.0116319737586235,10.0,0.0,9.791989225658178,11.907305396861704,116.8077647617009,403.88912970337793,0.0
0.026000000000000002,4.240185468251869,-2.016485482433247,10.0,0.0,10.205217926108602,12.270916007763107,120.6463319160419,403.88912970337793,0.0
0.027,4.325726794215114,-2.0167178192335413,10.0,0.0,10.61346183956541,12.63091810691651,124.34173023423182,403.88912970337793,0.0
0.028,4.413235266027576,-2.01209174864516,10.0,0.0,11.016370380459152,12.986973868860519,127.8951696895036,403.88912970337793,0.0
0.029,4.503036328687237,-2.0024297106336757,10.0,0.0,11.413577079982543,13.338711876525062,131.31652990735626,403.88912970337793,0.0
0.03,4.5954004757358735,-1.9876656259130026,10.0,0.0,11.80470948138089,13.685734707826734,134.5946621458449,403.88912970337793,0.0
0.031,4.690496843311195,-1.9679194815999135,10.0,0.0,12.189406490742332,14.02763153717528,137.7034536486523,403.88912970337793,0.0
0.032,4.788595340903559,-1.9431584364189214,10.0,0.0,12.567297228575708,14.363968513465696,140.61987407952043,403.88912970337793,0.0
0.033,4.889924563980034,-1.9134235116729008,10.0,0.0,12.93800935898454,14.694295636347935,143.35121934270038,403.88912970337793,0.0
0.034,4.994801715000854,-1.8786094024297866,10.0,0.0,13.301150785871425,15.0181380656013,145.8952530542868,403.88912970337793,0.0
0.035,5.103375589177298,-1.8388784356861854,10.0,0.0,13.656340047745594,15.335016039968814,148.24371239872167,403.88912970337793,0.0
0.036000000000000004,5.215772278885785,-1.7944159300238165,10.0,0.0,14.003204614913678,15.644447245960833,150.3884353262281,403.88912970337793,0.0
0.037,5.332104173463819,-1.7454041126354616,10.0,0.0,14.34137917110805,15.945949246563952,152.32550807219636,403.88912970337793,0.0
0.038,5.452453107808661,-1.6920408320240243,10.0,0.0,14.67050662904993,16.23904343889405,154.05643434958324,403.88912970337793,0.0
0.039,5.576842792630144,-1.634577540675729,10.0,0.0,14.990243431188432,16.52326158179841,155.58799660585476,403.88912970337793,0.0
0.04,5.7052507450245,-1.5732931913771582,10.0,0.0,15.30026172189416,16.798150612711016,156.93556328577955,403.88912970337793,0.0
0.041,5.837604818207842,-1.5084939770009995,10.0,0.0,15.600252016532185,17.063277701076718,158.13438548944978,403.88912970337793,0.0
0.042,5.973809787319135,-1.4404639844497549,10.0,0.0,15.889920683506098,17.318232104199232,159.2562220857878,403.88912970337793,0.0
0.043000000000000003,6.113528392132758,-1.3698238126153433,10.0,0.0,16.169027805118603,17.56265093686851,159.8625129639913,403.88912970337793,0.0
0.044,6.253747570312048,-1.301631840994582,10.0,0.0,16.437871382676846,17.796511674880527,159.6781611743418,403.88912970337793,0.0
0.045,6.403685158489409,-1.2204457823605286,10.0,0.0,16.69496812954692,18.018779753929437,160.68429188252762,403.88912970337793,0.0
0.046,6.548085718717672,-1.1516364028739163,10.0,0.0,16.941824838477704,18.230146014017137,159.33657361913322,403.88912970337793,0.0
0.047,6.692243269623062,-1.0864896544309834,10.0,0.0,17.178654453990312,18.43064799399183,159.20726262069383,403.88912970337793,0.0
0.048,6.8607531869371705,-0.9827151561115879,10.0,0.0,17.40108757861843,18.617688222124812,159.87481706707626,403.88912970337793,0.0
0.049,7.005408456397284,-0.9217338949480958,10.0,0.0,17.61431121985224,18.79404075943984,160.72884849256468,403.88912970337793,0.0
0.05,7.108571702434679,-0.9316281548345362,10.0,0.0,17.825545931893316,18.96417900277724,167.04862878329638,403.88912970337793,0.0
0.051000000000000004,7.162956989518282,-1.0124360638597842,10.0,0.0,18.041460924457947,19.13347614386619,170.94139026776452,403.88912970337793,0.0
0.052000000000000005,7.197232913983123,-1.1181338038843096,10.0,0.0,18.263532804187438,19.3042085712824,173.28075154562302,403.88912970337793,0.0
0.053,7.236942143696211,-1.2057037932891652,10.0,0.0,18.489046460119905,19.476049687906155,179.32610247253433,403.88912970337793,0.0
0.054,7.2636542100445824,-1.3079924911817993,10.0,0.0,18.719568918995634,19.650716823459582,184.0940386074434,403.88912970337793,0.0
0.055,7.279239649790205,-1.422728656894673,10.0,0.0,18.956103936788626,19.82952221363672,188.92501165812112,403.88912970337793,0.0
0.056,7.288314339542135,-1.5421917380463794,10.0,0.0,19.198859569089592,20.013258205100176,191.40205133431158,403.88912970337793,0.0
0.057,7.295355234512144,-1.6581309432822717,10.0,0.0,19.447271919071234,20.2022124090982,196.90523321767037,403.88912970337793,0.0
0.058,7.309030247493799,-1.7545990511384724,10.0,0.0,19.69919055426634,20.395678585216313,203.03488805240056,403.88912970337793,0.0
0.059000000000000004,7.303047981562849,-1.877938970374116,10.0,0.0,19.9578666535911,20.595784806624334,208.33452142105028,403.88912970337793,0.0
0.06,7.288752739128036,-2.0080613864613306,10.0,0.0,20.22376583170144,20.80326066983256,213.2928310066298,403.88912970337793,0.0
0.061,7.273365351518185,-2.131069463224466,10.0,0.0,20.496052342604624,21.018128524743723,218.6921610035526,403.88912970337793,0.0
0.062,7.247821476119011,-2.2624028005006855,10.0,0.0,20.775813574241365,21.241394197671905,223.987321125476,403.88912970337793,0.0
0.063,7.217529912761375,-2.391887816302344,10.0,0.0,21.06285526837267,21.47338605968629,229.4459223163319,403.88912970337793,0.0
0.064,7.181547027949879,-2.520528730291988,10.0,0.0,21.357247629673125,21.714538106608057,234.96188540177346,403.88912970337793,0.0
0.065,7.1407515660725105,-2.6463061995580732,10.0,0.0,21.65886507201509,21.96514185692609,240.4598715880521,403.88912970337793,0.0
0.066,7.09612973366485,-2.767175813247108,10.0,0.0,21.967419027967786,22.22534742339258,246.25560831037288,403.88912970337793,0.0
0.067,7.046610824165983,-2.8850464519084635,10.0,0.0,22.282895219087727,22.495388690528493,251.97830939475395,403.88912970337793,0.0
0.068,6.996109893924139,-2.993283371592393,10.0,0.0,22.60455527258788,22.775033363294412,257.2792474596865,403.88912970337793,0.0
0.069,6.948578718165143,-3.085548269429532,10.0,0.0,22.931080557579854,23.06360299416484,262.1276668457101,403.88912970337793,0.0
0.07,6.905067005503352,-3.1612040993990593,10.0,0.0,23.26120976947795,23.360279167082616,266.65272695574305,403.88912970337793,0.0
0.07100000000000001,6.867320808644683,-3.2190286095014957,10.0,0.0,23.59359781528959,23.66401760842627,270.8910502502868,403.88912970337793,0.0
0.07200000000000001,6.837706392311845,-3.257255955651093,10.0,0.0,23.926747663629857,23.973501134044746,274.672486708622,403.88912970337793,0.0
0.073,6.819672104919377,-3.2727858556978835,10.0,0.0,24.258856895241614,24.287038919385253,277.9162404422146,403.88912970337793,0.0
0.074,6.816444977054401,-3.26340902865101,10.0,0.0,24.587922232250605,24.602608490544092,280.5554316176695,403.88912970337793,0.0
0.075,6.8309661038683664,-3.2278286214160126,10.0,0.0,24.911817916149204,24.917898043059765,282.5384529196797,403.88912970337793,0.0
0.076,6.865865270577176,-3.1655316930071216,10.0,0.0,25.22835612885688,25.230354511643906,283.825523323768,403.88912970337793,0.0
0.077,6.923374903221646,-3.07671975035272,10.0,0.0,25.535339822744312,25.537242086716596,284.48702065966074,403.88912970337793,0.0
0.078,7.004840709249472,-2.962895409835838,10.0,0.0,25.83068134671996,25.83575313133414,284.5841398157372,403.88912970337793,0.0
0.079,7.110754327990139,-2.826594658572021,10.0,0.0,26.112484983525952,26.123111383886304,284.0476976944982,403.88912970337793,0.0
0.08,7.242122183564903,-2.6689147573324195,10.0,0.0,26.37886230028281,26.396522846938026,283.21390943879464,403.88912970337793,0.0
0.081,7.39751078062427,-2.4942240109343383,10.0,0.0,26.628303848577794,26.65345182823949,282.27108813087176,403.88912970337793,0.0
0.082,7.571344798258489,-2.312973189128025,10.0,0.0,26.860303457238704,26.892064210271123,280.6401523350145,403.88912970337793,0.0
0.083,7.758413981113016,-2.1344119386630376,10.0,0.0,27.075135113903595,27.111176045028035,277.44987589244954,403.88912970337793,0.0
0.084,7.960765673185593,-1.9550065301735757,10.0,0.0,27.27244580594851,27.309471867676308,272.10028914212967,403.88912970337793,0.0
0.085,8.184575926131604,-1.7633691891000283,10.0,0.0,27.450568957620558,27.48507356636091,267.5120276877566,403.88912970337793,0.0
0.08600000000000001,8.446299657014121,-1.5301306918562454,10.0,0.0,27.604700102707778,27.634375902476638,266.41609013956645,403.88912970337793,0.0
0.08700000000000001,8.70206599233047,-1.3250127797408968,10.0,0.0,27.738117781537603,27.75864405991354,260.6482106594341,403.88912970337793,0.0
0.088,8.943585992900374,-1.161305376878863,10.0,0.0,27.85466387303446,27.859817632780214,254.7402181463186,403.88912970337793,0.0
0.089,9.228984740455886,-0.9391413121028256,10.0,0.0,27.946871739571556,27.93354979528449,253.1652442567928,403.88912970337793,0.0
0.09,9.493171429896304,-0.7626630962485419,10.0,0.0,28.020041072609157,27.982922979829162,250.14540260166567,403.88912970337793,0.0
0.091,9.705608192027164,-0.6829006685452244,10.0,0.0,28.08382170590865,28.013949602283123,257.0557358222496,403.88912970337793,0.0
0.092,9.761242756316394,-0.835606436954534,10.0,0.0,28.161922196925644,28.04425619137115,263.66176598407986,403.88912970337793,0.0
0.093,9.724738168115866,-1.1042551557807603,10.0,0.0,28.263267599136526,28.083914020997014,267.87531427660457,403.88912970337793,0.0
0.094,9.689099623612618,-1.3367326699709465,10.0,0.0,28.381330283461576,28.133295801894747,274.08197943188975,403.88912970337793,0.0
0.095,9.637358318975151,-1.5639586568027786,10.0,0.0,28.51519496085349,28.194880831200287,283.43051195239184,403.88912970337793,0.0
0.096,9.559124755640056,-1.8076491835790678,10.0,0.0,28.666365371513837,28.271782104234944,290.10334517786106,403.88912970337793,0.0
0.097,9.447967147469432,-2.081714553660698,10.0,0.0,28.83781915385284,28.36755529229761,295.79567485512644,403.88912970337793,0.0
0.098,9.339281827118894,-2.3237116884414624,10.0,0.0,29.02558390788927,28.481740348944747,302.6818830282577,403.88912970337793,0.0
0.099,9.2182096712142,-2.558609452602234,10.0,0.0,29.229409474896652,28.61551445927683,309.46232423257294,403.88912970337793,0.0
0.1,9.082471113515574,-2.791070310854024,10.0,0.0,29.449451613002587,28.770014235064238,317.23072737715233,403.88912970337793,0.0
0.101,8.941396773262376,-3.0045995935322902,10.0,0.0,29.684103127388767,28.945229038934364,325.14287513046963,403.88912970337793,0.0
0.10200000000000001,8.791422381816655,-3.2059731353304426,10.0,0.0,29.93282676749435,29.14147395351259,332.7254109183024,403.88912970337793,0.0
0.10300000000000001,8.635805674955556,-3.3911979357855793,10.0,0.0,30.19466352767929,29.35858483448383,339.5223689065646,403.88912970337793,0.0
0.10400000000000001,8.480838892661172,-3.551946846133798,10.0,0.0,30.4678578320766,29.595658482360207,345.41675217777225,403.88912970337793,0.0
0.105,8.334674120519614,-3.67806628636261,10.0,0.0,30.749705720143506,29.850872653001286,349.9538984484019,403.88912970337793,0.0
0.106,8.209275463219504,-3.7545226141890877,10.0,0.0,31.036039238126452,30.12108239996656,353.64520184990704,403.88912970337793,0.0
0.107,8.106255926155923,-3.7862040044111342,10.0,0.0,31.323480768653802,30.4029826865376,356.4851092923074,403.88912970337793,0.0
0.108,8.033020232428434,-3.7697084096581914,10.0,0.0,31.608236845460475,30.69246282844365,358.05491507241095,403.88912970337793,0.0
0.109,7.998291012134534,-3.700142855384688,10.0,0.0,31.88597807375452,30.984558421134818,358.5333078858629,403.88912970337793,0.0
0.11,8.007338910973221,-3.5787868970756365,10.0,0.0,32.15250123861703,31.27387601631108,358.0179185964872,403.88912970337793,0.0
0.111,8.064380292208739,-3.408247180775408,10.0,0.0,32.403758037300975,31.554730095508443,356.5533321989933,403.88912970337793,0.0
0.112,8.167534726685968,-3.2000582596067138,10.0,0.0,32.63677917987071,31.821847872674336,354.7705816236794,403.88912970337793,0.0
0.113,8.316431883975483,-2.9612114650002974,10.0,0.0,32.84901872770503,32.070208843423536,351.49579728511804,403.88912970337793,0.0
0.114,8.500435438715819,-2.7133467289360373,10.0,0.0,33.03999376480984,32.2962062524327,346.0138988296826,403.88912970337793,0.0
0.115,8.724788811694737,-2.449700372429982,10.0,0.0,33.207948587250065,32.49586258877114,338.5464383788774,403.88912970337793,0.0
0.116,8.993784542187793,-2.1619417608725913,10.0,0.0,33.350056577373856,32.66500277709532,330.815042330123,403.88912970337793,0.0
0.117,9.305546008686447,-1.8497406217869217,10.0,0.0,33.46340324813384,32.79983594158955,323.4476744050592,403.88912970337793,0.0
0.11800000000000001,9.64141556320154,-1.5391020391830774,10.0,0.0,33.54785033557168,32.898692420378666,318.7787527074272,403.88912970337793,0.0
0.11900000000000001,9.999986322261618,-1.2269971432715274,10.0,0.0,33.602513209420415,32.960023872081194,311.1771517371763,403.88912970337793,0.0
0.12,10.331451617687126,-0.9903805494705367,10.0,0.0,33.634936164695546,32.987812991092156,301.6235975382651,403.88912970337793,0.0
0.121,10.70781777825717,-0.7039926205895206,10.0,0.0,33.63775923010533,32.97797986902107,299.4923518547574,403.88912970337793,0.0
0.122,11.051421419115561,-0.48860740556265103,10.0,0.0,33.61848818240291,32.93537962680936,305.43884447652505,403.88912970337793,0.0
0.123,11.09811424297824,-0.7410804109202642,10.0,0.0,33.626810097989164,32.89341212983226,312.4968238259797,403.88912970337793,0.0
0.124,11.063311735528686,-1.057265756874,10.0,0.0,33.662358730320406,32.86076877816958,321.30928497245304,403.88912970337793,0.0
0.125,10.96997791147308,-1.4112474441705984,10.0,0.0,33.72686429639535,32.84486332047791,328.6676398187253,403.88912970337793,0.0
0.126,10.850280226379542,-1.754972863217151,10.0,0.0,33.81759873931579,32.84923237228264,337.39447358875844,403.88912970337793,0.0
0.127,10.70543155993995,-2.089759651891062,10.0,0.0,33.93308593568833,32.87697433965636,346.90120593435034,403.88912970337793,0.0
0.128,10.528769364723592,-2.430182868139639,10.0,0.0,34.07389729506157,32.93147518473936,355.9615781013622,403.88912970337793,0.0
0.129,10.331511537215906,-2.758183918862442,10.0,0.0,34.23875348642282,33.01453882032507,365.11219505851193,403.88912970337793,0.0
0.13,10.116453778590515,-3.069546672657605,10.0,0.0,34.426400314616764,33.12746548666204,374.1114515517511,403.88912970337793,0.0
0.131,9.888107266313483,-3.3578679595261303,10.0,0.0,34.63517684064257,33.27083170794893,382.62696171798143,403.88912970337793,0.0
0.132,9.653536499566494,-3.6136002573055563,10.0,0.0,34.86265967608157,33.44425827892912,390.42916371100847,403.88912970337793,0.0
0.133,9.421284003814959,-3.8267149164233207,10.0,0.0,35.10562217459983,33.64629254322037,396.6796729585378,403.88912970337793,0.0
0.134,9.20370139009097,-3.98333928345937,10.0,0.0,35.35958938347819,33.874031193486466,402.51513685612485,403.88912970337793,0.0
0.135,9.006942017931966,-4.083709753936555,8.936813160050049,0.0,35.62040824457743,34.00690985201954,406.631020409644,403.88912970337793,0.0
0.136,8.78379660411085,-4.078454875191615,6.851452476227811,0.0,35.866851344053345,33.95640312578701,407.36685255088497,403.88912970337793,0.0
0.137,8.494653014763914,-3.935496419257239,6.44875917713226,0.0,36.06397632662988,33.93552867847207,406.11530265995873,403.88912970337793,0.0
0.138,8.269191916638878,-3.7228924020172953,7.052272393029572,0.0,35.97528024908148,33.683478172689256,401.0517777245758,403.88912970337793,0.0
0.139,8.068352815231538,-3.4555640644967767,9.612408380509057,0.0,35.7517289056909,33.679741937303056,394.4345453142611,403.88912970337793,0.0
0.14,8.093382300642142,-3.260116175262062,10.0,0.0,35.53631524807903,33.73484819598709,386.8574218727328,403.88912970337793,0.0
0.14100000000000001,8.237225068458603,-3.072830502429781,10.0,0.0,35.354738066097866,33.820751807345445,378.4515404732039,403.88912970337793,0.0
0.14200000000000002,8.45713298081146,-2.869092910547069,10.0,0.0,35.2149595338558,33.92938720840627,369.4203411496232,403.88912970337793,0.0
0.14300000000000002,8.73726763097304,-2.6434788147347437,10.0,0.0,35.12228384618004,34.05164349336116,359.9470693405828,403.88912970337793,0.0
0.14400000000000002,9.06635931672661,-2.3940440509793532,10.0,0.0,35.078739948771506,34.17999144875744,350.40146311087443,403.88912970337793,0.0
0.145,9.438034391220016,-2.115475128889807,10.0,0.0,35.083758608942446,34.308281892987374,341.7817559434937,403.88912970337793,0.0
0.146,9.840877221144286,-1.813803115799323,10.0,0.0,35.135439707415145,34.43171382066925,334.20188943444504,403.88912970337793,0.0
0.147,10.257262240666902,-1.5082816482848131,10.0,0.0,35.23155025720598,34.54692403563019,325.6218478156559,403.88912970337793,0.0
0.148,10.686729647451472,-1.192086763251309,10.0,0.0,35.36863668004244,34.651354554066714,317.29926126402347,403.88912970337793,0.0
0.149,11.139703785556819,-0.840686201871014,10.0,0.0,35.54186076719675,34.74262937604658,319.75847016750333,403.88912970337793,0.0
