timestamp,iq,id,iq_ref,id_ref,vq,vd,omega,omega_ref,r
0.0,0.0,0.0,0.0,0.0,0.0,0.0,0.0,481.014172383011,0.0
0.001,0.0,0.0,10.0,0.0,0.0,1.0999999999999999,4.946900786694088,481.014172383011,0.0
0.002,0.5146683003513709,-0.2984812383127525,10.0,0.0,0.1428329362144028,1.9333864869613493,9.709321740513845,481.014172383011,0.0
0.003,0.8732434524942569,-0.5002431460167119,10.0,0.0,0.3739302249678083,2.663421035115799,14.67471085967092,481.014172383011,0.0
0.004,1.1572565696546946,-0.6598503312538734,10.0,0.0,0.6704604109603661,3.3159061659639266,19.834844368446298,481.014172383011,0.0
0.005,1.3864346417697195,-0.7869992116397447,10.0,0.0,1.0149763964285554,3.9104263455654493,25.095914357193507,481.014172383011,0.0
0.006,1.5742780545445314,-0.8906470053388115,10.0,0.0,1.3946225698131165,4.461575111069557,30.429315814165744,481.014172383011,0.0
0.007,1.7312602644731572,-0.9766291762414298,10.0,0.0,1.7998405632719299,4.980184008397312,35.81398023139509,481.014172383011,0.0
0.008,1.8650889397265793,-1.0493697034925438,10.0,0.0,2.2235392834062337,5.474302483159579,41.23246906415082,481.014172383011,0.0
0.009000000000000001,1.981499893981545,-1.1121056422593985,10.0,0.0,2.660453526995176,5.949912064243541,46.695390578571434,481.014172383011,0.0
0.01,2.085082799352118,-1.166648202041965,10.0,0.0,3.1066096265220344,6.411422101529787,52.155439255614354,481.014172383011,0.0
0.011,2.178506881131812,-1.2155955074822493,10.0,0.0,3.559139897825438,6.862155925098032,57.602949626787705,481.014172383011,0.0
0.012,2.2641762696064935,-1.2601305120959096,10.0,0.0,4.015899901808425,7.304580001525379,63.0317102292926,481.014172383011,0.0
0.013000000000000001,2.3439250580340616,-1.3010360856523924,10.0,0.0,4.475280576080924,7.740521997866,68.43503568167212,481.014172383011,0.0
0.014,2.419114239216153,-1.3388889416785184,10.0,0.0,4.9360721409875445,8.171334539954056,73.80568383562563,481.014172383011,0.0
0.015,2.4907740226082224,-1.3740821706155044,10.0,0.0,5.397358530235117,8.59801429996266,79.13556177956474,481.014172383011,0.0
0.016,2.559699448947671,-1.4068604074275757,10.0,0.0,5.8584379303187495,9.021289523831744,84.41622054084911,481.014172383011,0.0
0.017,2.6265263208934857,-1.4373387357140008,10.0,0.0,6.318761746524314,9.44168346367164,89.63824959618444,481.014172383011,0.0
0.018000000000000002,2.6917729252686486,-1.4655427855731828,10.0,0.0,6.777890237294956,9.859561533386287,94.79153977966727,481.014172383011,0.0
0.019,2.755880182542151,-1.4914238289458186,10.0,0.0,7.235458560232398,10.275165312950207,99.86524052540774,481.014172383011,0.0
0.02,2.819239914650029,-1.5148735160687368,10.0,0.0,7.69115108398228,10.688637048892346,104.84779356323166,481.014172383011,0.0
0.021,2.882214773917187,-1.535737405883968,10.0,0.0,8.144682059959836,11.100037226416948,109.73561709131326,481.014172383011,0.0
0.022,2.9452379075601507,-1.553682531076159,10.0,0.0,8.595765280965086,11.509347687678792,114.53471689933683,481.014172383011,0.0
0.023,3.0087587747302136,-1.5683161344531698,10.0,0.0,9.044101471115544,11.916478360862698,119.20571017679111,481.014172383011,0.0
0.024,3.0728537789968837,-1.579858957349149,10.0,0.0,9.489440484054132,12.321314343945627,123.73381006440536,481.014172383011,0.0
0.025,3.1378536315422494,-1.5881049399227019,10.0,0.0,9.931520823861291,12.7236915962768,128.1070831164412,481.014172383011,0.0
0.026000000000000002,3.2041505178294174,-1.5927548990149376,10.0,0.0,10.370059890595254,13.123396498389432,132.31442187937506,481.014172383011,0.0
0.027,3.272130931386428,-1.5935378475600344,10.0,0.0,10.804755165616127,13.5201699403358,136.34565881610297,481.014172383011,0.0
0.028,3.34216914741724,-1.5902245601912255,10.0,0.0,11.235285966233528,13.913711165961804,140.19163892453525,481.014172383011,0.0
0.029,3.414624234881676,-1.5826321070134979,10.0,0.0,11.661315772375927,14.303681671626164,143.84440687187796,481.014172383011,0.0
0.03,3.4898356147354646,-1.570628664848964,10.0,0.0,12.082495194364203,14.689709406429055,147.29776577547545,481.014172383011,0.0
0.031,3.5681180331410487,-1.5541374710440334,10.0,0.0,12.498465450737044,15.071393357724405,150.54706189915018,481.014172383011,0.0
0.032,3.6497535874915283,-1.533144123259301,10.0,0.0,12.90886272028386,15.44830885273301,153.58953608843683,481.014172383011,0.0
0.033,3.734985708397658,-1.5076995079087014,10.0,0.0,13.31332283816614,15.82001334743927,156.4242188607232,481.014172383011,0.0
0.034,3.8240119422686893,-1.4779239285746528,10.0,0.0,13.711486526157579,16.186052839946377,159.05203847926794,481.014172383011,0.0
0.035,3.9169765011254327,-1.444011339205624,10.0,0.0,14.103005165563328,16.54596891286639,161.4755014757757,481.014172383011,0.0
0.036000000000000004,4.013961138698151,-1.4062365188416097,10.0,0.0,14.487547443974151,16.89930657789053,163.6966128592306,481.014172383011,0.0
0.037,4.1149829523680905,-1.3649514479070763,10.0,0.0,14.864805651447154,17.24562215112539,165.7151865702139,481.014172383011,0.0
0.038,4.220003896578408,-1.3205633414799964,10.0,0.0,15.23449975449871,17.584489902057623,167.52708131962314,481.014172383011,0.0
0.039,4.328959530003353,-1.273481711625077,10.0,0.0,15.596376124118557,17.915505377967147,169.1250721730337,481.014172383011,0.0
0.04,4.441839431301755,-1.223979518904668,10.0,0.0,15.950191979466679,18.23827971043913,170.50769655547265,481.014172383011,0.0
0.041,4.558595114055878,-1.172342589339038,10.0,0.0,16.295718642202168,18.55244386910875,171.67136335865612,481.014172383011,0.0
0.042,4.679077745146538,-1.1189707694055726,10.0,0.0,16.63275452363405,18.857658745592538,172.61660801433175,481.014172383011,0.0
0.043000000000000003,4.803328005411986,-1.0638884300582951,10.0,0.0,16.96108296544226,19.153593020252835,173.36407676877698,481.014172383011,0.0
0.044,4.931330584567178,-1.0071511479368955,10.0,0.0,17.28048171289579,19.439928930523504,173.94658932819948,481.014172383011,0.0
0.045,5.062879739498451,-0.9490767899622037,10.0,0.0,17.590753370075035,19.716380743261574,174.37195737309327,481.014172383011,0.0
0.046,5.197480207086056,-0.8904256616735302,10.0,0.0,17.891772162278155,19.982723980558443,176.151473667628,481.014172383011,0.0
0.047,5.317142159086748,-0.8616522116143139,10.0,0.0,18.186744830767022,20.240717963301723,181.32923769910278,481.014172383011,0.0
0.048,5.373302718681447,-0.9313488511073751,10.0,0.0,18.48597399552616,20.49742877258417,186.6319638581205,481.014172383011,0.0
0.049,5.416743721233134,-1.0126989160809283,10.0,0.0,18.789202865489795,20.754174512729538,191.9709877352867,481.014172383011,0.0
0.05,5.459010820519503,-1.0894362455374167,10.0,0.0,19.095411028062074,21.01135359496075,197.8128390237861,481.014172383011,0.0
0.051000000000000004,5.491312612013749,-1.1770706002877733,10.0,0.0,19.405588688328223,21.270305059154563,203.56358138438742,481.014172383011,0.0
0.052000000000000005,5.518384823214144,-1.2671216747723366,10.0,0.0,19.719673003632938,21.531724217638505,209.49672350009752,481.014172383011,0.0
0.053,5.542010705426948,-1.3559255560960644,10.0,0.0,20.03735871945634,21.796081766873126,215.77683698763482,481.014172383011,0.0
0.054,5.5573419879689325,-1.4515451068972558,10.0,0.0,20.35934173039575,22.06432195050914,222.12573350810675,481.014172383011,0.0
0.055,5.565165705124624,-1.5519008657501976,10.0,0.0,20.68603339657064,22.337229120813777,228.52951238282998,481.014172383011,0.0
0.056,5.564149506529761,-1.6585678360974643,10.0,0.0,21.018076422308177,22.615704759722433,235.20007610656666,481.014172383011,0.0
0.057,5.5522421949527505,-1.7744092257062878,10.0,0.0,21.35643859251632,22.90083677960151,242.1416677856593,481.014172383011,0.0
0.058,5.53382844671758,-1.8905973169050032,10.0,0.0,21.70110002382732,23.193198253703578,249.3877227767006,481.014172383011,0.0
0.059000000000000004,5.5094338686018105,-2.0052726253510107,10.0,0.0,22.051983862434504,23.493288989636927,256.76864083245414,481.014172383011,0.0
0.06,5.479441358078265,-2.117022797511943,10.0,0.0,22.408934156627566,23.801514266214102,264.197953382538,481.014172383011,0.0
0.061,5.444138190674944,-2.2248206816527794,10.0,0.0,22.771752214592894,24.118195467861987,271.60899775135505,481.014172383011,0.0
0.062,5.40437495494224,-2.3269206412089014,10.0,0.0,23.140109603636255,24.443511279398177,278.99893152132597,481.014172383011,0.0
0.063,5.363070985905468,-2.4182919291268012,10.0,0.0,23.513192677004298,24.777277052921796,285.86949328197767,481.014172383011,0.0
0.064,5.318868723860862,-2.5020665534204305,10.0,0.0,23.890645516181028,25.119423765564413,292.34028747546427,481.014172383011,0.0
0.065,5.271990083468796,-2.579222742626341,10.0,0.0,24.272217177274065,25.46981571868312,298.5348218888909,481.014172383011,0.0
0.066,5.236673085228321,-2.6267557962978847,10.0,0.0,24.655127941581473,25.82674172600178,304.070075252842,481.014172383011,0.0
0.067,5.206116718755088,-2.6594152495047356,10.0,0.0,25.038557439506043,26.189274239348975,308.8601964489766,481.014172383011,0.0
0.068,5.184059702970679,-2.6744031319045245,10.0,0.0,25.421219311504785,26.556017159225462,312.9261601397757,481.014172383011,0.0
0.069,5.176327097507989,-2.665783803740217,10.0,0.0,25.801191283369235,26.924981990757228,316.0967037325898,481.014172383011,0.0
0.07,5.185750650437164,-2.633307222422892,10.0,0.0,26.176576310537147,27.293933619445408,318.336824822757,481.014172383011,0.0
0.07100000000000001,5.216066028786879,-2.5754870666639387,10.0,0.0,26.545282546536775,27.660288131892393,319.56113851027226,481.014172383011,0.0
0.07200000000000001,5.269200013976783,-2.4938125959717263,10.0,0.0,26.905347619962598,28.021336232107267,319.7981513357847,481.014172383011,0.0
0.073,5.347239056408094,-2.3891449036991914,10.0,0.0,27.254814294624254,28.37423307482767,319.0653804887117,481.014172383011,0.0
0.074,5.450748067434204,-2.2642208755314006,10.0,0.0,27.59192901991605,28.716181299953654,317.46818011576715,481.014172383011,0.0
0.075,5.579921768876904,-2.1215421246190793,10.0,0.0,27.915081672872596,29.044472158047782,315.11991345792455,481.014172383011,0.0
0.076,5.7340164808174015,-1.9641702544220716,10.0,0.0,28.22286402813036,29.35659051432911,312.25678644192914,481.014172383011,0.0
0.077,5.911720603127204,-1.7950903349999092,10.0,0.0,28.514054911056,29.650268764173422,309.19486770263137,481.014172383011,0.0
0.078,6.109444049163914,-1.620075085776457,10.0,0.0,28.787933652453155,29.92372573948492,306.3904135033501,481.014172383011,0.0
0.079,6.320199901916815,-1.449744858229523,10.0,0.0,29.04478404470381,30.17601898206253,302.9302172635409,481.014172383011,0.0
0.08,6.52966426521265,-1.306476261461319,10.0,0.0,29.28712247861813,30.407834418172435,297.145188994293,481.014172383011,0.0
0.081,6.751606917175233,-1.1656697908404676,10.0,0.0,29.514352586951393,30.61838310597986,291.3538722077048,481.014172383011,0.0
0.082,7.01576839795619,-0.974220582974408,10.0,0.0,29.720263205073028,30.80376159947358,287.91181363460777,481.014172383011,0.0
0.083,7.264010363043627,-0.8271352667244493,10.0,0.0,29.909855718023028,30.96652830407829,284.6024863150759,481.014172383011,0.0
0.084,7.473378239250837,-0.7611523439086298,10.0,0.0,30.09097838179126,31.11142954278561,294.65675370600695,481.014172383011,0.0
0.085,7.521302485725051,-0.9219072664798538,10.0,0.0,30.286821773764395,31.256774935648934,303.1765496000536,481.014172383011,0.0
0.08600000000000001,7.491697620046898,-1.1688037043802915,10.0,0.0,30.50316642476988,31.410905906112575,310.9913322529826,481.014172383011,0.0
0.08700000000000001,7.464005263260843,-1.381167989023603,10.0,0.0,30.734180814652944,31.57400835522007,319.976298332284,481.014172383011,0.0
0.088,7.4248386623439595,-1.5809302849194233,10.0,0.0,30.97825422016056,31.747933400938134,331.00212814088695,481.014172383011,0.0
0.089,7.3630862555803045,-1.7876043063331049,10.0,0.0,31.236049309085757,31.935274381369968,343.1122551504039,481.014172383011,0.0
0.09,7.273535917606778,-2.00970455410432,10.0,0.0,31.509163274202326,32.138893785760615,352.88844980526954,481.014172383011,0.0
0.091,7.15832651295677,-2.24225912393615,10.0,0.0,31.798687783450085,32.36124017735561,364.3174250650354,481.014172383011,0.0
0.092,7.037211803054814,-2.4488497081118643,10.0,0.0,32.101893899493575,32.602474904758594,373.2424556172341,481.014172383011,0.0
0.093,6.90430529098731,-2.6394782441271625,10.0,0.0,32.41780610979296,32.86331534025403,383.62724105758343,481.014172383011,0.0
0.094,6.767151719423342,-2.802805584755144,10.0,0.0,32.74427086472086,33.143420780981224,391.73321271038134,481.014172383011,0.0
0.095,6.617341534168737,-2.957051681923459,10.0,0.0,33.08143348551093,33.44326973779087,399.90700873168333,481.014172383011,0.0
0.096,6.483664063560093,-3.057357133468261,10.0,0.0,33.4243558786012,33.76005648091296,406.39153437848495,481.014172383011,0.0
0.097,6.362071743163468,-3.1194178090180005,10.0,0.0,33.77048832648967,34.091495169569406,411.62139926384043,481.014172383011,0.0
0.098,6.258959924112602,-3.14373794603757,10.0,0.0,34.11720600677159,34.43452961104066,415.0991991696978,481.014172383011,0.0
0.099,6.189350282251812,-3.117357707464,10.0,0.0,34.46041033555917,34.7845583188072,417.0524750774072,481.014172383011,0.0
0.1,6.16135155308534,-3.040569448752001,10.0,0.0,34.51092704969335,34.72951669552552,414.81358735200496,481.014172383011,0.0
0.101,6.094026781311083,-2.852426488842296,10.0,0.0,34.46818279661187,34.67756012348525,408.7062742423357,481.014172383011,0.0
0.10200000000000001,6.084630387267069,-2.6773911558912205,10.0,0.0,34.40877738380065,34.69462270439672,401.94696115888297,481.014172383011,0.0
0.10300000000000001,6.154636489833363,-2.5050123714662007,10.0,0.0,34.35609223760679,34.766233962655015,394.39706750743426,481.014172383011,0.0
0.10400000000000001,6.29130060889757,-2.330799630943091,10.0,0.0,34.3268136079434,34.87931467249444,386.1521315406874,481.014172383011,0.0
0.105,6.482632894458346,-2.1524000604470084,10.0,0.0,34.33211336097904,35.02241921098936,377.33785734513884,481.014172383011,0.0
0.106,6.718973111549033,-1.9668000097453495,10.0,0.0,34.37862949650028,35.18590017052329,368.15566162151896,481.014172383011,0.0
0.107,6.991494854664334,-1.772780067941488,10.0,0.0,34.4695819481653,35.36189236878703,358.5930615466043,481.014172383011,0.0
0.108,7.292653910001187,-1.5699363919111669,10.0,0.0,34.605706427706885,35.544166914960236,348.7251603996416,481.014172383011,0.0
0.109,7.627646128811637,-1.3389649970532607,10.0,0.0,34.78522954404849,35.7275387369123,340.63069717856456,481.014172383011,0.0
0.11,7.988854832521518,-1.0835105982777011,10.0,0.0,35.00565506414838,35.90794560933546,334.5297459520108,481.014172383011,0.0
0.111,8.32435150910344,-0.8856913818353735,10.0,0.0,35.267072439114266,36.08404168078421,343.1989815630152,481.014172383011,0.0
0.112,8.43022272225865,-1.0354331874383251,10.0,0.0,35.585602430732614,36.27094482322944,357.48202696757704,481.014172383011,0.0
0.113,8.417895106510889,-1.2749822598798275,10.0,0.0,35.97019682342783,36.483784708197575,369.05900187871936,481.014172383011,0.0
0.114,8.348419640431091,-1.5514113824241962,10.0,0.0,36.426321164770435,36.72837203431476,381.3164131453762,481.014172383011,0.0
0.115,8.278845679208553,-1.759733381268219,10.0,0.0,36.83542122097816,36.95920008745588,395.44254455166384,481.014172383011,0.0
0.116,8.160775937966802,-2.0088303131529868,10.0,0.0,37.051173108260095,37.13192530442385,410.5326044805418,481.014172383011,0.0
0.117,8.008481805835938,-2.3220610281869782,10.0,0.0,37.29458673784549,37.3245248455452,422.929812244061,481.014172383011,0.0
0.11800000000000001,7.834130000749339,-2.6059541551452106,10.0,0.0,37.561014895399566,37.53986155275116,435.40610925783477,481.014172383011,0.0
0.11900000000000001,7.638262095067624,-2.8628099315131936,10.0,0.0,37.84774911204974,37.78010935656606,446.6422350338426,481.014172383011,0.0
0.12,7.429212400672482,-3.083633878532604,10.0,0.0,37.86922213588052,37.30969461102508,450.65274525948666,481.014172383011,0.0
0.121,6.985410229771896,-3.093937252018318,10.0,0.0,37.705956572342984,36.80211969068718,451.64066531303223,481.014172383011,0.0
0.122,6.582096991244863,-3.0808311203213794,10.0,0.0,37.43334553441081,36.406728461888704,450.5424521987703,481.014172383011,0.0
0.123,6.280964619298444,-3.0668772099001997,10.0,0.0,37.09319946486452,36.1175967198953,447.4300156102323,481.014172383011,0.0
0.124,6.078300023877591,-3.044854531939071,10.0,0.0,36.72262732575559,35.9256864791754,442.5424888959769,481.014172383011,0.0
0.125,5.969792708703926,-3.006329698262466,10.0,0.0,36.353016918924446,35.819407253207174,436.12590543277867,481.014172383011,0.0
0.126,5.949134584712621,-2.945048237052776,10.0,0.0,36.009385032599525,35.78565300400472,428.9750249150505,481.014172383011,0.0
0.127,6.012023058789793,-2.85086272341399,10.0,0.0,35.70996810135183,35.81083657128487,420.5866097818983,481.014172383011,0.0
0.128,6.137256742793093,-2.742123533823496,10.0,0.0,35.46822332768205,35.881884164921026,411.46222212179566,481.014172383011,0.0
0.129,6.317681425563431,-2.614267237614219,10.0,0.0,35.291828264952436,35.9869775160584,401.79431214033525,481.014172383011,0.0
0.13,6.546139033240548,-2.4642157034681773,10.0,0.0,35.18391692132083,36.11589190274958,391.76921342592743,481.014172383011,0.0
0.131,6.8139418949595125,-2.293594405944778,10.0,0.0,35.14439408705057,36.26014261187978,381.44428637500033,481.014172383011,0.0
0.132,7.113482430839806,-2.1042951229635185,10.0,0.0,35.17086888263441,36.412937058332744,370.9055763949222,481.014172383011,0.0
0.133,7.44092209169715,-1.8938107480598156,10.0,0.0,35.259276392679425,36.56892292321973,360.2708841960079,481.014172383011,0.0
0.134,7.78773845972479,-1.6690430099661313,10.0,0.0,35.40497488052436,36.72410511071578,350.3192578470712,481.014172383011,0.0
0.135,8.162836434012783,-1.4088212777089524,10.0,0.0,35.602002464296746,36.87500495662114,344.6737843001638,481.014172383011,0.0
0.136,8.522513199092934,-1.1822441536222401,10.0,0.0,35.84729066801368,37.02055419693055,355.2497272939649,481.014172383011,0.0
0.137,8.582192165281278,-1.3940538012592887,10.0,0.0,36.16037920149212,37.18394165535514,366.8233854582882,481.014172383011,0.0
0.138,8.580476412585647,-1.5993573693584011,10.0,0.0,36.5445744669147,37.3776091337827,382.10566319273397,481.014172383011,0.0
0.139,8.532552256525541,-1.8154093408497216,10.0,0.0,37.00527352225819,37.606588643726916,395.72794270999367,481.014172383011,0.0
0.14,8.416989698672769,-2.0771916984383942,10.0,0.0,37.55096165086072,37.87667114164006,409.3514502214395,481.014172383011,0.0
0.14100000000000001,8.281583971415213,-2.292871878711451,10.0,0.0,38.188252534365034,38.18977206029956,423.9996011861451,481.014172383011,0.0
0.14200000000000002,8.094066016801317,-2.50767886246042,10.0,0.0,38.92815302675674,38.54874489329867,441.6055190346069,481.014172383011,0.0
0.14300000000000002,7.865625776561442,-2.689985829960744,10.0,0.0,39.15183463964902,38.55376283505181,454.4232639046085,481.014172383011,0.0
0.14400000000000002,7.5706710594094275,-2.887492948104972,10.0,0.0,39.02698482275266,37.87905374833329,457.7410874879533,481.014172383011,0.0
0.145,7.070102290496638,-2.9042771058294488,10.0,0.0,38.750156972418864,37.31859619048842,458.8120942864241,481.014172383011,0.0
0.146,6.655015843998758,-2.9448049730393557,10.0,0.0,38.36878811675648,36.87109981598158,458.03845093556623,481.014172383011,0.0
0.147,6.334017541266346,-2.9855150233107266,10.0,0.0,37.924051524859074,36.53274494562292,455.37546428127774,481.014172383011,0.0
0.148,6.108242873267006,-3.0127421668383882,10.0,0.0,37.45308266752237,36.29585496513899,450.9154892668455,481.014172383011,0.0
0.149,5.975962103978453,-3.0165432305599857,10.0,0.0,36.987687411886924,36.14972274645189,444.8219053020165,481.014172383011,0.0
0.15,5.928908946945357,-2.996761524705623,10.0,0.0,36.55395480851905,36.08164070008071,437.36812852425453,481.014172383011,0.0
0.151,5.961804686118448,-2.946899090281888,10.0,0.0,36.171281099927256,36.07805781645314,429.39656165074945,481.014172383011,0.0
0.152,6.070658815696319,-2.8581577190549994,10.0,0.0,35.85252943931448,36.12551035362795,420.33195743483026,481.014172383011,0.0
