timestamp,iq,id,iq_ref,id_ref,vq,vd,omega,omega_ref,r
0.0,0.0,0.0,0.0,0.0,0.0,0.0,0.0,450.9819875318051,0.0
0.001,0.0,0.0,10.0,0.0,0.0,1.0999999999999999,4.230656531174786,450.9819875318051,0.0
0.002,0.37823539859163735,-0.2118355285276742,10.0,0.0,0.1333019081380441,1.9483941061549197,8.64601790712229,450.9819875318051,0.0
0.003,0.740976154872349,-0.41735222089317503,10.0,0.0,0.35860151695270415,2.6891598633031903,13.208211298728033,450.9819875318051,0.0
0.004,1.0448787150808743,-0.5889548633672148,10.0,0.0,0.6522688643492149,3.3485771315579695,17.924267843448614,450.9819875318051,0.0
0.005,1.2919373840015946,-0.7277614773996932,10.0,0.0,0.9960639049503842,3.9472819797477263,22.76112663477005,450.9819875318051,0.0
0.006,1.493302752703837,-0.8401155259749565,10.0,0.0,1.3763208055133667,4.500816243310585,27.67502709412752,450.9819875318051,0.0
0.007,1.659660756731244,-0.9325727960192146,10.0,0.0,1.7829522015954529,5.020737043817465,32.6351396135768,450.9819875318051,0.0
0.008,1.7998484349266732,-1.0099737274315759,10.0,0.0,2.208502067874935,5.515571839320644,37.624476367843755,450.9819875318051,0.0
0.009000000000000001,1.9204455048293012,-1.0762014411332612,10.0,0.0,2.6474914662698485,5.991614340994117,42.66877408817697,450.9819875318051,0.0
0.01,2.026551520498989,-1.1337785915968086,10.0,0.0,3.0958573844065924,6.453485841315093,47.73076706945108,450.9819875318051,0.0
0.011,2.12165630376788,-1.1850290743331136,10.0,0.0,3.550635642358116,6.904606317414765,52.72345735645346,450.9819875318051,0.0
0.012,2.208146218137955,-1.231966712259212,10.0,0.0,4.009698757468964,7.3475297289516055,57.699665238650056,450.9819875318051,0.0
0.013000000000000001,2.288456091575233,-1.2748961988797372,10.0,0.0,4.471400769371407,7.784097923911444,62.73931232132812,450.9819875318051,0.0
0.014,2.364361653474351,-1.314057420012054,10.0,0.0,4.934467839037938,8.215632987491013,67.77369973961385,450.9819875318051,0.0
0.015,2.436329727059848,-1.3510538784701385,10.0,0.0,5.39805970631484,8.643163819203865,72.69415930424081,450.9819875318051,0.0
0.016,2.505087141886669,-1.3864098622377214,10.0,0.0,5.86156466366519,9.067457119578027,77.6111708811098,450.9819875318051,0.0
0.017,2.572008792250867,-1.4190783024475508,10.0,0.0,6.32438842390333,9.488997778258017,82.48967256850628,450.9819875318051,0.0
0.018000000000000002,2.6371471036120595,-1.4499232984663397,10.0,0.0,6.7861501391456205,9.90817074934773,87.36374497117957,450.9819875318051,0.0
0.019,2.7012276684055188,-1.4784326768248925,10.0,0.0,7.2464805616319055,10.325205115839037,92.11032870835811,450.9819875318051,0.0
0.02,2.764196145556869,-1.5052412570659144,10.0,0.0,7.70514522856162,10.740283361091116,96.78886960473007,450.9819875318051,0.0
0.021,2.826383968630266,-1.5302201808554154,10.0,0.0,8.161930849138006,11.153509272744408,101.37666205542153,450.9819875318051,0.0
0.022,2.888402235737352,-1.5526870079628559,10.0,0.0,8.616582060566005,11.564891024138962,105.89570963227364,450.9819875318051,0.0
0.023,2.950462469790212,-1.5725831883168175,10.0,0.0,9.06887023755852,11.974393278462115,110.3292578158985,450.9819875318051,0.0
0.024,3.0128265531283835,-1.58974371817225,10.0,0.0,9.51856851876466,12.381934678225534,114.67058269073185,450.9819875318051,0.0
0.025,3.0757797097453166,-1.6039547098655194,10.0,0.0,9.965442715614232,12.787390559738746,118.91773751424333,450.9819875318051,0.0
0.026000000000000002,3.1396088521492147,-1.6150012499663553,10.0,0.0,10.409248090424327,13.190596598687335,123.0814968022155,450.9819875318051,0.0
0.027,3.2046276233550497,-1.6226343857218113,10.0,0.0,10.849722711180362,13.59134879781347,127.34756390878465,450.9819875318051,0.0
0.028,3.2716874131277143,-1.6257253060056478,10.0,0.0,11.286488759647076,13.98934684993966,131.24872845197706,450.9819875318051,0.0
0.029,3.338945179372487,-1.6276355387547197,10.0,0.0,11.7195572248793,14.384493945310707,135.08296582495686,450.9819875318051,0.0
0.03,3.4096998830284924,-1.6232523513205632,10.0,0.0,12.148332300180154,14.776322737928153,138.82765382142685,450.9819875318051,0.0
0.031,3.4815110313936963,-1.6169169691846421,10.0,0.0,12.57275968705206,15.164654479530336,141.94131148809532,450.9819875318051,0.0
0.032,3.556973569971361,-1.6047437025181144,10.0,0.0,12.99230180388503,15.549013017899588,145.04384395080578,450.9819875318051,0.0
0.033,3.6330320203734336,-1.5921341795782258,10.0,0.0,13.407060248014911,15.929278109956774,148.35687075684874,450.9819875318051,0.0
0.034,3.7181826990784277,-1.5654752820252058,10.0,0.0,13.815562973436087,16.304386547067693,149.5566966096081,450.9819875318051,0.0
0.035,3.794299688898489,-1.5549586866341074,10.0,0.0,14.219836033508743,16.67531305091648,152.5259547693017,450.9819875318051,0.0
0.036000000000000004,3.8867070134444224,-1.5195382389355545,10.0,0.0,14.61698335466609,17.040170574585805,156.65270652916658,450.9819875318051,0.0
0.037,3.9752651537911903,-1.4922744235649765,10.0,0.0,15.008256880860852,17.399439755811244,155.5813913126399,450.9819875318051,0.0
0.038,4.078111660859677,-1.443980038133294,10.0,0.0,15.391290228314908,17.751481837159556,157.84195328368406,450.9819875318051,0.0
0.039,4.164831097743016,-1.4249575916387454,10.0,0.0,15.769614923898299,18.098112372131947,161.32990865084867,450.9819875318051,0.0
0.04,4.27281419911914,-1.374331073972107,10.0,0.0,16.139391510942204,18.436901376382913,162.43355962805063,450.9819875318051,0.0
0.041,4.380748074027014,-1.3267325769203961,10.0,0.0,16.501339770207796,18.76799624368706,162.73940532632534,450.9819875318051,0.0
0.042,4.487163426730389,-1.2853724215298457,10.0,0.0,16.856129058154806,19.09155010013906,164.9683711560289,450.9819875318051,0.0
0.043000000000000003,4.602088285092356,-1.2338642493731902,10.0,0.0,17.20254250556898,19.40664991884777,167.68699218299238,450.9819875318051,0.0
0.044,4.7238908163002264,-1.1746885808515068,10.0,0.0,17.5398303482968,19.7126320705778,164.83977749198561,450.9819875318051,0.0
0.045,4.85438767220339,-1.1047772780965455,10.0,0.0,17.866889135306998,20.008608162570326,162.71872754583453,450.9819875318051,0.0
0.046,4.971888724843719,-1.0607885599172875,10.0,0.0,18.186700006843264,20.29607237683321,163.65061787577193,450.9819875318051,0.0
0.047,5.097275036109178,-1.0081765563327785,10.0,0.0,18.497928779439697,20.574153773110652,163.98793978831102,450.9819875318051,0.0
0.048,5.228696735706367,-0.9493536603880477,10.0,0.0,18.799898415886148,20.842347383176943,165.28839266954103,450.9819875318051,0.0
0.049,5.354050360245164,-0.9049136996972065,10.0,0.0,19.094190282978033,21.101443914177956,170.20653572896356,450.9819875318051,0.0
0.05,5.424762762250931,-0.9523264501625608,10.0,0.0,19.39062241861894,21.35753515081281,175.57845998698852,450.9819875318051,0.0
0.051000000000000004,5.476790342887648,-1.0255704705544533,10.0,0.0,19.690603179097693,21.61264456749829,181.15031576994772,450.9819875318051,0.0
0.052000000000000005,5.51938305875675,-1.109068512938792,10.0,0.0,19.99454914965548,21.868076195623868,187.53252527534906,450.9819875318051,0.0
0.053,5.55575924587704,-1.1973931591319786,10.0,0.0,20.302524416627445,22.124783804568118,194.3712508863874,450.9819875318051,0.0
0.054,5.589536528216006,-1.2841255151105724,10.0,0.0,20.61403023049235,22.383266440129063,200.61909162187294,450.9819875318051,0.0
0.055,5.622835432925195,-1.3651219298513664,10.0,0.0,20.928276008588565,22.64372628682578,200.90262178927412,450.9819875318051,0.0
0.056,5.637455061195004,-1.472487395143185,10.0,0.0,21.248143430579532,22.90828955659986,210.88350252823346,450.9819875318051,0.0
0.057,5.645922896408987,-1.5842459089869072,10.0,0.0,21.57370021921869,23.177597976004783,217.7612768470594,450.9819875318051,0.0
0.058,5.662786580060731,-1.6730188384700928,10.0,0.0,21.902279608039144,23.450760905483587,220.5557856932368,450.9819875318051,0.0
0.059000000000000004,5.651484914286227,-1.8032661272107329,10.0,0.0,22.23875682339207,23.73087730096826,230.38223015952997,450.9819875318051,0.0
0.06,5.654903112799246,-1.8984393557414345,10.0,0.0,22.578764539009136,24.016140759945593,235.4231703988443,450.9819875318051,0.0
0.061,5.634614291826987,-2.0252716435933067,10.0,0.0,22.926297648340622,24.30914459687896,242.64265219779776,450.9819875318051,0.0
0.062,5.627194977190678,-2.118515279944676,10.0,0.0,23.277366307552434,24.608214597452417,250.06437908404286,450.9819875318051,0.0
0.063,5.592892985318964,-2.24765241905736,10.0,0.0,23.636507749839296,24.916183489849242,254.46133320379045,450.9819875318051,0.0
0.064,5.570142464314436,-2.3445358708550947,10.0,0.0,23.999897745443775,25.231429174626854,263.3107138068761,450.9819875318051,0.0
0.065,5.53330356179438,-2.4534346054676517,10.0,0.0,24.369483336254973,25.555314064554306,268.88203259750946,450.9819875318051,0.0
0.066,5.495922992987994,-2.5509749390519847,10.0,0.0,24.744139306325952,25.887512498113644,275.08409701753544,450.9819875318051,0.0
0.067,5.460853105419959,-2.6321703467595725,10.0,0.0,25.122505614257758,26.227440567268566,282.3521637806312,450.9819875318051,0.0
0.068,5.421381950944271,-2.709650369589327,10.0,0.0,25.504738946746066,26.575203588417804,288.28849949846506,450.9819875318051,0.0
0.069,5.3869912609585215,-2.76855775421868,10.0,0.0,25.889230260181407,26.929801905054642,293.54101452722114,450.9819875318051,0.0
0.07,5.355991588117556,-2.813716806902303,10.0,0.0,26.275110695885793,27.290455578483964,295.9931358769805,450.9819875318051,0.0
0.07100000000000001,5.329137397785326,-2.846614756421924,10.0,0.0,26.661635639282995,27.656275892348937,296.9428350892782,450.9819875318051,0.0
0.07200000000000001,5.332846403146225,-2.8252976660152633,10.0,0.0,27.043416260287053,28.023490136674116,304.17264721856117,450.9819875318051,0.0
0.073,5.341054245005877,-2.7971584416918054,10.0,0.0,27.4208580998517,28.391295246116222,309.7824814562365,450.9819875318051,0.0
0.074,5.3565306039736535,-2.7625280920389415,10.0,0.0,27.79380832018551,28.75844370750272,303.6728206406968,450.9819875318051,0.0
0.075,5.395229491079424,-2.6988621146999314,10.0,0.0,28.159521410613845,29.122070230792005,305.9817762515169,450.9819875318051,0.0
0.076,5.476228522539578,-2.5777655398271304,10.0,0.0,28.51234188086564,29.477382506205632,309.22297782744073,450.9819875318051,0.0
0.077,5.547730230903171,-2.4880393353162624,10.0,0.0,28.856752614886158,29.82539040349767,302.62108505708363,450.9819875318051,0.0
0.078,5.661039104369326,-2.3500990937749693,10.0,0.0,29.1872469007094,30.16128962546493,306.57929449249565,450.9819875318051,0.0
0.079,5.790663203513043,-2.2064773678466527,10.0,0.0,29.503862692710328,30.483522791646628,297.11993449532446,450.9819875318051,0.0
0.08,5.938239422203539,-2.0567881923886473,10.0,0.0,29.806010630088238,30.79025707734574,303.5091035560449,450.9819875318051,0.0
0.081,6.109658602862481,-1.8924194776830343,10.0,0.0,30.09203353543523,31.07915238052716,291.3106377657795,450.9819875318051,0.0
0.082,6.303627316395435,-1.714769559911114,10.0,0.0,30.360445876757815,31.348138077243092,289.99829100236286,450.9819875318051,0.0
0.083,6.490943515887027,-1.5717838485031748,10.0,0.0,30.614963624542586,31.598401343610938,289.39331556860037,450.9819875318051,0.0
0.084,6.717450271629848,-1.3875118367638197,10.0,0.0,30.850215860008394,31.826047476983693,282.4021728349659,450.9819875318051,0.0
0.085,6.956282276898936,-1.2021252516273562,10.0,0.0,31.066157681017298,32.03044776754358,275.2707212225227,450.9819875318051,0.0
0.08600000000000001,7.188609933994602,-1.0463645458125648,10.0,0.0,31.265665537193037,32.212834488920535,269.68803640731994,450.9819875318051,0.0
0.08700000000000001,7.431318205190356,-0.8907976922715,10.0,0.0,31.447906533057527,32.37255869051678,272.239989212122,450.9819875318051,0.0
0.088,7.6119011601559174,-0.8537288017785939,10.0,0.0,31.625373940076383,32.517097529205614,279.36752789937543,450.9819875318051,0.0
0.089,7.658764413461507,-1.0209399726989812,10.0,0.0,31.818312407968403,32.661580096413466,289.32003571692024,450.9819875318051,0.0
0.09,7.6617151324322705,-1.2348916297883887,10.0,0.0,32.028267856362646,32.81105230713604,302.3420779705772,450.9819875318051,0.0
0.091,7.6509451271179945,-1.4430294674867237,10.0,0.0,32.25293062656564,32.967787049400044,308.8430361542347,450.9819875318051,0.0
0.092,7.6273574170464595,-1.6425955264965764,10.0,0.0,32.49067148208884,33.13380154251268,314.937283733527,450.9819875318051,0.0
0.093,7.5615729569240155,-1.886218129466573,10.0,0.0,32.74604252710758,33.313989085379106,330.3091760885967,450.9819875318051,0.0
0.094,7.491406921805044,-2.107625841199555,10.0,0.0,33.01581384417202,33.508755397722645,332.7007192431406,450.9819875318051,0.0
0.095,7.4026317083896735,-2.3291275216799194,10.0,0.0,33.300235768499874,33.72008582366277,349.18060444468466,450.9819875318051,0.0
0.096,7.294801173093363,-2.5514188403869458,10.0,0.0,33.59958557124193,33.949699006190116,352.4854826576215,450.9819875318051,0.0
0.097,7.173700338005531,-2.763474810056162,10.0,0.0,33.91306495543904,34.19852863724561,365.90785723256784,450.9819875318051,0.0
0.098,7.052788646481843,-2.941490279462604,10.0,0.0,34.23754050626004,34.465912521332015,373.65658220438667,450.9819875318051,0.0
0.099,6.909931832928477,-3.125647145017997,10.0,0.0,34.57478399092457,34.75351070466749,380.0302462973663,450.9819875318051,0.0
0.1,6.780081829288411,-3.2588640344622273,10.0,0.0,34.91987523463954,35.05892835040076,386.2457329038505,450.9819875318051,0.0
0.101,6.662737038324771,-3.346019200090851,10.0,0.0,35.26925401788103,35.37992278290181,395.92206608290746,450.9819875318051,0.0
0.10200000000000001,6.552735058342343,-3.4040869572666352,10.0,0.0,35.4507287889199,35.40799811902442,394.54447511594236,450.9819875318051,0.0
0.10300000000000001,6.392687881738054,-3.393753021780893,10.0,0.0,35.41612412473548,35.19499073369356,389.44499490924295,450.9819875318051,0.0
0.10400000000000001,6.2205000969514295,-3.2914715349098627,10.0,0.0,35.32095669584083,35.06363901008598,385.2478403928231,450.9819875318051,0.0
0.105,6.102659120246701,-3.1716789968217176,10.0,0.0,35.193020012342586,35.00429055066325,379.5231689789233,450.9819875318051,0.0
0.106,6.053879476695364,-3.0463661637022224,10.0,0.0,35.056319484392425,35.00571606734923,370.5611346046232,450.9819875318051,0.0
0.107,6.078725177055593,-2.903863733359225,10.0,0.0,34.92914132952448,35.05657010258758,372.04160180622904,450.9819875318051,0.0
0.108,6.16789921487876,-2.745684384932564,10.0,0.0,34.825174584220086,35.14609662616348,359.26137212123774,450.9819875318051,0.0
0.109,6.286564103628508,-2.6141441761734723,10.0,0.0,34.75590863922691,35.265093955218966,354.7043050036747,450.9819875318051,0.0
0.11,6.490199887846483,-2.405008608885593,10.0,0.0,34.723789328160684,35.40455103757865,345.49305937084256,450.9819875318051,0.0
0.111,6.679444076241968,-2.2666230834225014,10.0,0.0,34.7362501417619,35.558912891408276,343.03126607769224,450.9819875318051,0.0
0.112,6.943268428918136,-2.0465923754068363,10.0,0.0,34.79038648155193,35.72111624031922,327.65193542681027,450.9819875318051,0.0
0.113,7.197555743117407,-1.8702979720623616,10.0,0.0,34.888524649356185,35.88818336805315,323.02466327933246,450.9819875318051,0.0
0.114,7.47043123226592,-1.688710199408321,10.0,0.0,35.02875767137125,36.05647095163576,321.9734738777207,450.9819875318051,0.0
0.115,7.772302552786286,-1.4769049473218914,10.0,0.0,35.20762112679741,36.22293432320451,314.7575144843679,450.9819875318051,0.0
0.116,8.08982981092953,-1.2510005285601382,10.0,0.0,35.422345382302545,36.385635991585104,317.481984514305,450.9819875318051,0.0
0.117,8.322634300462836,-1.1749984592427007,10.0,0.0,35.678646927617706,36.54934125073488,325.67072627328196,450.9819875318051,0.0
0.11800000000000001,8.393295368818555,-1.3287196371725516,10.0,0.0,35.99196905408925,36.73049849493624,332.77176951446364,450.9819875318051,0.0
0.11900000000000001,8.405275526476968,-1.5329312470948362,10.0,0.0,36.365947881670955,36.935231097989984,342.3394330261186,450.9819875318051,0.0
0.12,8.368096750934498,-1.7713588959264033,10.0,0.0,36.805397360120594,37.16895054533772,361.14897693020765,450.9819875318051,0.0
0.121,8.303897801562751,-2.003223392592446,10.0,0.0,37.314662761460376,37.435150233064846,369.19882556536595,450.9819875318051,0.0
0.122,8.222754283795052,-2.2043297571137135,10.0,0.0,37.8990777789399,37.736094893376844,384.52651830399316,450.9819875318051,0.0
0.123,8.073402094508218,-2.459237599195012,10.0,0.0,38.14699290967253,37.95188343232701,393.3107240950118,450.9819875318051,0.0
0.124,7.948736227506275,-2.706241004580515,10.0,0.0,38.40057609644988,38.17776741598096,408.683185527978,450.9819875318051,0.0
0.125,7.781101063618621,-2.995678315245601,10.0,0.0,38.5523930981459,38.03485713336262,411.4670158403026,450.9819875318051,0.0
0.126,7.516605784248434,-3.1643969962010017,10.0,0.0,38.471605456673316,37.46448936054478,415.39918727633693,450.9819875318051,0.0
0.127,7.125381770952287,-3.221031112128069,10.0,0.0,38.26666772022131,36.989082008838096,417.40857843814894,450.9819875318051,0.0
0.128,6.762479293870925,-3.2468433422514575,10.0,0.0,37.97003410503162,36.60947349244628,416.27263035996015,450.9819875318051,0.0
0.129,6.459583623793558,-3.2736071605851946,10.0,0.0,37.61578018644239,36.32147090981947,412.94464834449,450.9819875318051,0.0
0.13,6.235694498344603,-3.2831305285111534,10.0,0.0,37.233793783021724,36.11832399915411,408.2617838809845,450.9819875318051,0.0
0.131,6.087940284699111,-3.275041400023206,10.0,0.0,36.85007409328785,35.99104310003925,402.55926953327264,450.9819875318051,0.0
0.132,6.0145685571708265,-3.2421235954649137,10.0,0.0,36.485618095381604,35.92950440080076,396.0682688673008,450.9819875318051,0.0
0.133,6.008743578147897,-3.1843897405076764,10.0,0.0,36.15669420599283,35.923089852073204,388.73850024360655,450.9819875318051,0.0
0.134,6.0647444829647315,-3.0999383518913604,10.0,0.0,35.87487954314355,35.96137117225484,380.9208604239189,450.9819875318051,0.0
0.135,6.174453039008053,-2.991151168785387,10.0,0.0,35.64772394596851,36.03461309308832,372.48629588364565,450.9819875318051,0.0
0.136,6.33091445177404,-2.8592425348785375,10.0,0.0,35.4792730990568,36.134115378516526,363.49087967197676,450.9819875318051,0.0
0.137,6.527269755838665,-2.706145030030614,10.0,0.0,35.370783863612914,36.252392704271315,358.1037973637079,450.9819875318051,0.0
0.138,6.747327697837649,-2.5502940854568275,10.0,0.0,35.32214458891906,36.383497092924884,350.72056860085553,450.9819875318051,0.0
0.139,7.0217184810426545,-2.3343239245792264,10.0,0.0,35.328941480055164,36.5215106606258,338.51080840966165,450.9819875318051,0.0
0.14,7.295240164653681,-2.1412233158776286,10.0,0.0,35.3898771406225,36.66351019923449,327.92658143721445,450.9819875318051,0.0
0.14100000000000001,7.578186943962292,-1.9522374898838235,10.0,0.0,35.501654052518944,36.80653267574187,326.4892648497772,450.9819875318051,0.0
0.14200000000000002,7.886886100570082,-1.7352314085682345,10.0,0.0,35.6591756325087,36.94775445105701,322.8683242597902,450.9819875318051,0.0
0.14300000000000002,8.213600043240234,-1.4974468103778258,10.0,0.0,35.857928324272386,37.085350468060426,326.8627555283447,450.9819875318051,0.0
0.14400000000000002,8.44452022273767,-1.424022997477996,10.0,0.0,36.10348193516231,37.22594111147825,334.13143751831905,450.9819875318051,0.0
0.145,8.516033943915986,-1.5684744312581493,10.0,0.0,36.40998567042571,37.38768825833644,341.2754082827205,450.9819875318051,0.0
0.146,8.529542166579446,-1.7594336800812753,10.0,0.0,36.78093348834633,37.576344191188305,349.28493048147504,450.9819875318051,0.0
0.147,8.491487370312713,-1.9860305587176077,10.0,0.0,37.221472599198584,37.79725386841358,367.9796109981932,450.9819875318051,0.0
0.148,8.419755423112257,-2.2151271340888674,10.0,0.0,37.73662405598715,38.05401533856092,377.6288137594337,450.9819875318051,0.0
0.149,8.334722517766394,-2.4041248163194777,10.0,0.0,38.33143352294791,38.34822619974654,392.0297635101963,450.9819875318051,0.0
0.15,8.17689802785205,-2.6510230589285686,10.0,0.0,39.017980324990496,38.68513260223212,406.097525717124,450.9819875318051,0.0
