timestamp,iq,id,iq_ref,id_ref,vq,vd,omega,omega_ref,r
0.0,0.0,0.0,0.0,0.0,0.0,0.0,0.0,383.963059162389,0.0
0.001,0.0,0.0,10.0,0.0,0.0,1.0999999999999999,11.38237180467175,383.963059162389,0.0
0.002,0.3503751020466251,-0.22743236328930158,10.0,0.0,0.13501755996182316,1.9514587387748712,23.15885810076346,383.963059162389,0.0
0.003,0.8009555642059379,-0.46357948311139824,10.0,0.0,0.3653810973524887,2.6852132598513783,32.576849143551385,383.963059162389,0.0
0.004,1.2329851725933714,-0.6938296026069048,10.0,0.0,0.6690497750580231,3.325611230258278,42.88762675681413,383.963059162389,0.0
0.005,1.6069841834541767,-0.9008394855187358,10.0,0.0,1.0268599679590404,3.895516676284226,53.966039375648805,383.963059162389,0.0
0.006,1.9207839154079172,-1.0697054481101458,10.0,0.0,1.4223848432284878,4.4134346165913785,64.91118621470623,383.963059162389,0.0
0.007,2.178667790568735,-1.204343088455394,10.0,0.0,1.8432705058137682,4.893884021446608,75.79645023236718,383.963059162389,0.0
0.008,2.388830035577912,-1.3126533577043593,10.0,0.0,2.280680295839978,5.347838043875441,86.74651988386888,383.963059162389,0.0
0.009000000000000001,2.5618567555653358,-1.3997689596187133,10.0,0.0,2.728244122624539,5.783206326315487,97.65658565607403,383.963059162389,0.0
0.01,2.707112999747117,-1.470227397363717,10.0,0.0,3.181467667107455,6.205546243529863,108.45804560595467,383.963059162389,0.0
0.011,2.831885936053372,-1.5281811070651286,10.0,0.0,3.6372731725532232,6.618702062919223,119.13602624002021,383.963059162389,0.0
0.012,2.9419063446501426,-1.57654831709389,10.0,0.0,4.093554565399498,7.0252683353316385,129.65824578353536,383.963059162389,0.0
0.013000000000000001,3.0415855926333806,-1.6171721218084811,10.0,0.0,4.548849392620707,7.426941606595253,139.98004488322417,383.963059162389,0.0
0.014,3.1342071619296648,-1.6512017390897746,10.0,0.0,5.002119084099951,7.824785453311869,150.05907242443192,383.963059162389,0.0
0.015,3.2222420259935483,-1.6792294149717644,10.0,0.0,5.452588939277139,8.219414265150684,159.85121759870339,383.963059162389,0.0
0.016,3.307616799323828,-1.70140096286467,10.0,0.0,5.899633283629889,8.611116304897644,169.30804066691314,383.963059162389,0.0
0.017,3.391891731450939,-1.7175585876365096,10.0,0.0,6.342699020768036,8.999936080304504,178.37912814561534,383.963059162389,0.0
0.018000000000000002,3.4763912578060507,-1.727354182749521,10.0,0.0,6.781256100947765,9.385728253306697,187.01391154529233,383.963059162389,0.0
0.019,3.562296906724097,-1.7303336135280825,10.0,0.0,7.2147664718442535,9.76819229090922,195.16296253320067,383.963059162389,0.0
0.02,3.6507023996146786,-1.7260100889872343,10.0,0.0,7.642666827404064,10.146895414112347,202.779694425598,383.963059162389,0.0
0.021,3.74263953223686,-1.7139281751803583,10.0,0.0,8.064361684454857,10.521289230891613,209.82223378382466,383.963059162389,0.0
0.022,3.839083849840714,-1.6937162966793369,10.0,0.0,8.479223949981456,10.890723648087828,216.25507495501432,383.963059162389,0.0
0.023,3.9409461401965045,-1.6651278884873233,10.0,0.0,8.886600824558904,11.25446044135398,222.05041239488696,383.963059162389,0.0
0.024,4.0490548853534465,-1.628070967990178,10.0,0.0,9.28582331383246,11.611687903687557,227.18908761724964,383.963059162389,0.0
0.025,4.164134536936625,-1.5826251473899777,10.0,0.0,9.676217829350964,11.961537194492553,231.6610793502257,383.963059162389,0.0
0.026000000000000002,4.286783725279192,-1.5290455806346799,10.0,0.0,10.05711852826104,12.303100393567055,235.46550893948034,383.963059162389,0.0
0.027,4.417456527463026,-1.467754404947361,10.0,0.0,10.4278792435295,12.635449826268305,238.61021256684444,383.963059162389,0.0
0.028,4.55644903503726,-1.3993211360526907,10.0,0.0,10.787884082719703,12.957657939414958,241.11095942534496,383.963059162389,0.0
0.029,4.703892469731798,-1.3244343994159593,10.0,0.0,11.136556040964457,13.268816872425305,242.99042975689696,383.963059162389,0.0
0.03,4.859753175459917,-1.2438679951489433,10.0,0.0,11.473363259582765,13.568056864675949,244.27708102400504,383.963059162389,0.0
0.031,5.023839040444208,-1.158444520181565,10.0,0.0,11.797822837360567,13.854562741472362,245.00403005113802,383.963059162389,0.0
0.032,5.195811320705676,-1.0689996282883003,10.0,0.0,12.109502341681644,14.127587896188,245.20806817646658,383.963059162389,0.0
0.033,5.375200467603241,-0.976349577706106,10.0,0.0,12.40801935439707,14.386465402508067,257.59002684353385,383.963059162389,0.0
0.034,5.510924388202618,-0.9646117917545878,10.0,0.0,12.70220776052411,14.63617111967071,268.41866246494385,383.963059162389,0.0
0.035,5.607148742455529,-1.0152315478054459,10.0,0.0,12.99763344877982,14.881097665967966,279.61431009003235,383.963059162389,0.0
0.036000000000000004,5.678467790209217,-1.1001969114696593,10.0,0.0,13.296849215282247,15.124191274750695,291.6525603857599,383.963059162389,0.0
0.037,5.731101454102124,-1.2061450706994905,10.0,0.0,13.601257409891335,15.367820586754707,304.5334202742362,383.963059162389,0.0
0.038,5.768037580522509,-1.3256829904514387,10.0,0.0,13.911677405820338,15.613991149751916,318.06426609721996,383.963059162389,0.0
0.039,5.790203935524179,-1.4552354285057083,10.0,0.0,14.228727847444606,15.864517718256318,332.0916568965982,383.963059162389,0.0
0.04,5.797512436169171,-1.593088747288098,10.0,0.0,14.55299424244241,16.12111440255178,346.535741353473,383.963059162389,0.0
0.041,5.789818399057911,-1.737583329315385,10.0,0.0,14.885009537205159,16.385397487006166,361.29011736145145,383.963059162389,0.0
0.042,5.7679127768011575,-1.8853023417472754,10.0,0.0,15.225055756484304,16.65878647056852,376.09285750275603,383.963059162389,0.0
0.043000000000000003,5.732269978088674,-2.033395691673761,8.727350677442825,0.0,15.57324933055937,16.802551403857066,389.36974420618765,383.963059162389,0.0
0.044,5.640385068058034,-2.149521871088686,2.034840475289032,0.0,15.912292986792158,16.253060484329165,393.22536953664644,383.963059162389,0.0
0.045,5.29638358914418,-2.107618294429775,0.014404706317061589,0.0,16.156712530222247,15.674021503392172,393.1403271295056,383.963059162389,0.0
0.046,4.8195416180042105,-1.999761276370986,-0.03484676978367318,0.0,16.307340984995744,15.241127672246783,393.39571959144973,383.963059162389,0.0
0.047,4.352111168288765,-1.8678659538963203,-0.2568696050463579,0.0,16.386187295885733,14.889305002332694,391.9529000428645,383.963059162389,0.0
0.048,3.9451644348524204,-1.7159681759901242,0.38464176044151177,0.0,16.406576906350377,14.69342554523615,388.90621604228414,383.963059162389,0.0
0.049,3.6371168721789884,-1.5776786529558628,1.8585521919327315,0.0,16.3916467403042,14.704703793264592,386.1877730242874,383.963059162389,0.0
0.05,3.4623248261919906,-1.4758143604492955,3.195526562312107,0.0,16.369515238720098,14.861835925744227,383.73113845774446,383.963059162389,0.0
0.051000000000000004,3.41780849746426,-1.4024362552548773,4.426163052630032,0.0,16.358257151896055,15.126190840748848,380.9084237827677,383.963059162389,0.0
0.052000000000000005,3.481963060774619,-1.3533498374749786,5.868066743914614,0.0,16.36989464035104,15.501785331457311,379.57293217572163,383.963059162389,0.0
0.053,3.6454905455900035,-1.3233358303724607,6.579713817304335,0.0,16.415117152427882,15.887499785403865,377.2697748966363,383.963059162389,0.0
0.054,3.8739238385093637,-1.284380685136951,7.798225299504526,0.0,16.49040393278682,16.34259245009859,374.13221095642047,383.963059162389,0.0
0.055,4.159611070832944,-1.250572050363493,9.465315751672131,0.0,16.600341903206612,16.90175809864976,371.42741622667177,383.963059162389,0.0
0.056,4.5133220448312965,-1.2295973276828043,10.0,0.0,16.75323350829239,17.422094007365622,368.7795787670705,383.963059162389,0.0
0.057,4.897395252385136,-1.1939780382522713,10.0,0.0,16.939161169130635,17.86162770014424,365.17229307632044,383.963059162389,0.0
0.058,5.278789180604002,-1.1280724579940924,10.0,0.0,17.143556012228824,18.237688189700293,360.50709002653576,383.963059162389,0.0
0.059000000000000004,5.645955119758072,-1.0344111026058733,10.0,0.0,17.355473726682686,18.560007800585797,355.11777262699917,383.963059162389,0.0
0.06,5.997791448853416,-0.9184445250100304,10.0,0.0,17.56661192079804,18.83625688501919,349.26640039648294,383.963059162389,0.0
0.061,6.337045914531604,-0.7861672513577935,10.0,0.0,17.77087036961941,19.07219525248713,362.83644405650097,383.963059162389,0.0
0.062,6.6270412813744075,-0.7084088114576789,10.0,0.0,17.971066154652945,19.27645868239449,374.2972599135162,383.963059162389,0.0
0.063,6.7676151272366525,-0.8328537473972881,10.0,0.0,18.186135231526226,19.467752178438047,388.64445620261193,383.963059162389,0.0
0.064,6.841774167196438,-1.0222628131171347,2.944977936819071,0.0,18.418417298186323,18.878619049677727,399.4360566605281,383.963059162389,0.0
0.065,6.614778531780834,-1.1059381365497312,-2.6055522671204008,0.0,18.57586804022477,17.857330448953224,403.34428942194063,383.963059162389,0.0
0.066,6.0911895727397125,-1.0731471242189634,-4.753480950422184,0.0,18.611001083396193,16.828473758521582,403.3614494160318,383.963059162389,0.0
0.067,5.4200424233323945,-1.0004496843576938,-4.956044850004199,0.0,18.532066344945893,15.973803596173637,403.0632455731984,383.963059162389,0.0
0.068,4.747230502501941,-0.9396323083249725,-4.997944792695591,0.0,18.36959512714083,15.261421461312494,402.46111275267384,383.963059162389,0.0
0.069,4.139045538365109,-0.8953867148300425,-4.88185891833616,0.0,18.147873976106055,14.677391090610168,400.64401997315184,383.963059162389,0.0
0.07,3.6196072440786393,-0.8677029822597915,-4.1401221366827885,0.0,17.887319148456747,14.261078191843009,398.21740460456226,383.963059162389,0.0
0.07100000000000001,3.210116749749373,-0.8645158833449462,-3.0693579068097314,0.0,17.61111477014071,14.010557369090495,395.8089378696453,383.963059162389,0.0
0.07200000000000001,2.9194785315053453,-0.8847203685915754,-1.9835833264238225,0.0,17.339733111747318,13.894071051388902,393.290511327403,383.963059162389,0.0
0.073,2.7395842006673377,-0.9199514428203066,-0.8176445769528082,0.0,17.087514360735796,13.896372710465819,390.5911696373252,383.963059162389,0.0
0.074,2.6581335168233124,-0.9653093591054949,0.4657451633367309,0.0,16.865384710782195,14.009896444385495,388.0685412916399,383.963059162389,0.0
0.075,2.6658678397429436,-1.0159102604016932,1.6860045148868679,0.0,16.681932919195653,14.209584188825858,385.5435262616235,383.963059162389,0.0
0.076,2.7500943209285715,-1.0634225372484947,2.9327073589027184,0.0,16.541515422651994,14.48670512928856,382.7559097882981,383.963059162389,0.0
0.077,2.8984933354431988,-1.1077174279122364,4.338587089306349,0.0,16.44724908501351,14.848770341170102,380.1351925506973,383.963059162389,0.0
0.078,3.1075210587791418,-1.1506876679663611,5.687224374223659,0.0,16.402899679826344,15.277984642714705,378.6621594337214,383.963059162389,0.0
0.079,3.3707876950158475,-1.1889010455632298,6.4767499299982845,0.0,16.409680414447475,15.706334959119495,376.69172868603385,383.963059162389,0.0
0.08,3.669063573918547,-1.2004731495288394,7.534678608605608,0.0,16.459508904907214,16.170827536118043,373.7422359706458,383.963059162389,0.0
0.081,3.997053817214507,-1.1980748087907054,9.111633198217056,0.0,16.550424265499995,16.723643254560372,370.9491768050748,383.963059162389,0.0
0.082,4.371487656809804,-1.1961734216750117,10.0,0.0,16.687344492702373,17.274311919595224,368.442217229203,383.963059162389,0.0
0.083,4.775233955351755,-1.1805751968539124,10.0,0.0,16.863942772828835,17.73405431838535,365.14490978101395,383.963059162389,0.0
0.084,5.172368233048987,-1.1303069071719063,10.0,0.0,17.06348193520486,18.12583499774783,360.730066515351,383.963059162389,0.0
0.085,5.551080839860239,-1.0480752079035198,10.0,0.0,17.27370244525682,18.460704481439393,355.51561265386573,383.963059162389,0.0
0.08600000000000001,5.910671394459432,-0.9402588753101981,10.0,0.0,17.48535037308017,18.7473412328292,349.7881594721898,383.963059162389,0.0
0.08700000000000001,6.254772868284482,-0.8135354359421978,10.0,0.0,17.69163576825561,18.992223845287594,353.42244576015247,383.963059162389,0.0
0.088,6.580312012225528,-0.6856579210235152,10.0,0.0,17.888981592911975,19.200878444922438,367.6684324144882,383.963059162389,0.0
0.089,6.728817202003377,-0.8093051721820599,10.0,0.0,18.102338267842814,19.395321987623277,383.7713204352041,383.963059162389,0.0
0.09,6.814624091832217,-0.9917355627176832,4.960386568874777,0.0,18.332634499997983,19.029345660139946,397.7339337897608,383.963059162389,0.0
0.091,6.674162377452263,-1.102301845994037,-2.1586288546772945,0.0,18.51364146344435,18.00660988382107,402.23809215414843,383.963059162389,0.0
0.092,6.196009056322571,-1.0736249393183817,-4.593458366788714,0.0,18.5700140303471,16.958799537562452,401.8906313894781,383.963059162389,0.0
0.093,5.53822877446583,-1.000636513598141,-4.599003706724425,0.0,18.50822634817125,16.11272008814111,401.8369002125517,383.963059162389,0.0
0.094,4.871056044201986,-0.9450770414334964,-4.750876528762871,0.0,18.362627831589936,15.395230455929887,401.8749505075499,383.963059162389,0.0
0.095,4.261583979093791,-0.9039003271151557,-4.949020589713572,0.0,18.155866359592267,14.775023016656728,400.28398889592927,383.963059162389,0.0
0.096,3.7271969662759417,-0.8727306554665961,-4.316749081238662,0.0,17.904743394128882,14.320379331411752,397.86357855105825,383.963059162389,0.0
0.097,3.2946621355276497,-0.8648141954049293,-3.245549102689846,0.0,17.63270924279704,14.039831961954686,395.5623803505031,383.963059162389,0.0
0.098,2.9801759592482546,-0.8817935203034819,-2.210943214293398,0.0,17.36177065999214,13.89349869333151,393.1422553623684,383.963059162389,0.0
0.099,2.776925636254074,-0.914121454507994,-1.0926726822258623,0.0,17.10667888811892,13.8665812667002,390.47716053659354,383.963059162389,0.0
0.1,2.673021613169776,-0.9568503474663634,0.174733716919528,0.0,16.878781449653275,13.954475343439345,387.8655013651465,383.963059162389,0.0
0.101,2.65945691134115,-1.0070227403714238,1.4415388806154827,0.0,16.687554836998075,14.137917849643415,385.5570471512491,383.963059162389,0.0
0.10200000000000001,2.727137075756252,-1.055260456665847,2.579826107675578,0.0,16.53859956109213,14.38885652219726,382.7397243871452,383.963059162389,0.0
0.10300000000000001,2.858106791365902,-1.0989258482308681,4.000720837479962,0.0,16.43395449594138,14.730991480840105,380.0686994892019,383.963059162389,0.0
0.10400000000000001,3.051439921148337,-1.1416092014462362,5.37517688318349,0.0,16.378245948108027,15.145472707712958,378.36923258496324,383.963059162389,0.0
0.105,3.3003185544484612,-1.1825258548752968,6.280848601077071,0.0,16.373630376090343,15.573370967261258,376.6818996214352,383.963059162389,0.0
0.106,3.5898112320709035,-1.1997776394651043,7.1973266782506276,0.0,16.413754716999847,16.020418306757655,373.87528779799067,383.963059162389,0.0
0.107,3.90739330741845,-1.198682881538544,8.701510303616882,0.0,16.494278416550213,16.551029662901904,370.949555815078,383.963059162389,0.0
0.108,4.267878084210132,-1.1966282544672535,10.0,0.0,16.61959582036139,17.127946779041633,368.6124040695672,383.963059162389,0.0
0.109,4.670632974161341,-1.1899072217622326,10.0,0.0,16.789354428078596,17.60602083685797,365.66965070686854,383.963059162389,0.0
0.11,5.071228130395705,-1.1487657717421886,10.0,0.0,16.98548623163054,18.013225431378107,361.53021980670263,383.963059162389,0.0
0.111,5.4542747720378975,-1.0742038437438979,10.0,0.0,17.194934916699708,18.36119356778314,356.50361221944024,383.963059162389,0.0
0.112,5.817423416508714,-0.9723971158455291,10.0,0.0,17.407782426113624,18.65919387457922,350.90984874252223,383.963059162389,0.0
0.113,6.163995370543464,-0.8499577663415123,10.0,0.0,17.61669495409929,18.914187473137968,345.6072944919527,383.963059162389,0.0
0.114,6.499360667649091,-0.7115404385672415,10.0,0.0,17.81621407658214,19.13114850149813,363.9659690137768,383.963059162389,0.0
0.115,6.679087480499142,-0.7970985799157186,10.0,0.0,18.028272958478798,19.329949042828115,381.30956768897084,383.963059162389,0.0
0.116,6.789097164600232,-0.9509374283642691,5.921962724193213,0.0,18.255072698234635,19.0711875207534,394.78845120760195,383.963059162389,0.0
0.117,6.700641668239096,-1.0621933578292944,-0.9257329555744702,0.0,18.444016075564093,18.159346174286103,399.78816144942084,383.963059162389,0.0
0.11800000000000001,6.285122886832902,-1.0551727476474135,-3.5838390993542335,0.0,18.520996154099223,17.17849109217146,400.5223930784671,383.963059162389,0.0
0.11900000000000001,5.679985580000439,-1.004068193092437,-4.116548253038131,0.0,18.48664142167013,16.333812496591854,401.1979247975714,383.963059162389,0.0
0.12,5.037391636278786,-0.9583646275725926,-4.626662768942104,0.0,18.366737956264366,15.584014742855777,401.53646099570983,383.963059162389,0.0
0.121,4.425490661783904,-0.9179833026715527,-4.9716648863445405,0.0,18.17986015194165,14.925240497954713,400.18540094802665,383.963059162389,0.0
0.122,3.8727059769262993,-0.8840350163655304,-4.458358280359329,0.0,17.94246220531645,14.42825695053327,397.9727042871402,383.963059162389,0.0
0.123,3.4133124517696602,-0.8712069363826938,-3.4921064011636007,0.0,17.67803409267658,14.103392044761787,395.76312835141414,383.963059162389,0.0
0.124,3.0677786894500603,-0.8823511226713593,-2.5053191251908338,0.0,17.40891644201512,13.916869678472096,393.38739405305665,383.963059162389,0.0
0.125,2.8333071200421047,-0.9097587835440296,-1.411695324918767,0.0,17.150961720623943,13.85485506402711,390.78156358945733,383.963059162389,0.0
0.126,2.70059801024385,-0.9487480360230309,-0.17696513738979114,0.0,16.916615751091356,13.910383807896707,388.1390300481609,383.963059162389,0.0
0.127,2.6605502368214946,-0.9967214079699254,1.1025419244006973,0.0,16.716144431288345,14.068401719326218,385.87736206195194,383.963059162389,0.0
0.128,2.7056235618494178,-1.0445132647127187,2.2142328885095566,0.0,16.55629940513084,14.294703099579255,383.0658794271151,383.963059162389,0.0
0.129,2.8163447196993876,-1.0885469594747301,3.6289460032807277,0.0,16.439434807470775,14.615162778061762,380.4308810261771,383.963059162389,0.0
0.13,2.991905021558737,-1.131909882925586,4.9817669851118485,0.0,16.370632222056933,15.00834878415769,378.4306924478284,383.963059162389,0.0
0.131,3.2239863118892504,-1.1741029473665852,6.037184941431796,0.0,16.35223610364808,15.434130357561763,376.98145797898997,383.963059162389,0.0
0.132,3.5023050063083447,-1.1976942184044521,6.831618187685001,0.0,16.380430863590274,15.8640333958264,374.3440878627151,383.963059162389,0.0
0.133,3.808522555948829,-1.1986083188135932,8.246492958819157,0.0,16.448661089699335,16.370556755104758,371.3074380423181,383.963059162389,0.0
0.134,4.1539548701082065,-1.1968291741802632,9.891374080218384,0.0,16.560515782211567,16.965103597647623,369.0698264187899,383.963059162389,0.0
0.135,4.552467514417891,-1.1978954516092768,10.0,0.0,16.720774771690394,17.46649919741695,366.48935623918396,383.963059162389,0.0
0.136,4.956364520884113,-1.1669477465972136,10.0,0.0,16.911732511872653,17.892251332691227,362.657026230511,383.963059162389,0.0
0.137,5.344622268732956,-1.1014059310162503,10.0,0.0,17.11926956890033,18.255854646257582,357.843556164562,383.963059162389,0.0
0.138,5.71246140204538,-1.006834358266106,10.0,0.0,17.332665796735153,18.567271606984196,352.40221100303285,383.963059162389,0.0
0.139,6.0625435160684376,-0.8896473345212592,10.0,0.0,17.543919240974745,18.834055853212213,346.54911146291096,383.963059162389,0.0
0.14,6.3992165109582215,-0.75650902963987,10.0,0.0,17.747252422113657,19.061753810943742,364.10791274093873,383.963059162389,0.0
0.14100000000000001,6.6368631478788656,-0.758539732500912,10.0,0.0,17.95457684127537,19.26424089090364,377.9190224549434,383.963059162389,0.0
0.14200000000000002,6.770546042341088,-0.8842952934620913,7.4628128240236835,0.0,18.175230331194015,19.17579246340469,390.3148872621131,383.963059162389,0.0
0.14300000000000002,6.747634262257337,-1.0216685280049527,1.2013621394415992,0.0,18.378827129561003,18.45872364885706,397.66592685746963,383.963059162389,0.0
