timestamp,iq,id,iq_ref,id_ref,vq,vd,omega,omega_ref,r
0.0,0.0,0.0,0.0,0.0,0.0,0.0,0.0,8.312428406983042,0.0
0.001,0.0,0.0,4.239338487561351,0.0,0.0,0.46632723363174855,2.089218336850168,8.312428406983042,0.0
0.002,0.278656987132532,-0.1558848937950723,3.256961419837596,0.0,0.0637800616806328,0.7049146129905172,3.3682796985604835,8.312428406983042,0.0
0.003,0.43649109915820056,-0.24497326516440288,2.6668722260666637,0.0,0.15328172704175488,0.8563600374924092,4.566698719382114,8.312428406983042,0.0
0.004,0.517827240250438,-0.2895288612999283,2.105120012531858,0.0,0.25298800017816825,0.9383506001292152,5.548815156635974,8.312428406983042,0.0
0.005,0.5438471493746689,-0.3027550756429793,1.6416979264083986,0.0,0.3519320298810015,0.9747049978850065,6.349446230812831,8.312428406983042,0.0
0.006,0.535466861733965,-0.296469921565373,1.261012211081672,0.0,0.4437934672971631,0.9812591817425166,6.980016945480121,8.312428406983042,0.0
0.007,0.5071245696315284,-0.2788540054645335,0.9590509683630564,0.0,0.5252492801271436,0.969969060664972,7.485880117567948,8.312428406983042,0.0
0.008,0.4688992019588324,-0.2559432547762112,0.7143848652132937,0.0,0.5950864761516643,0.9479812415818647,7.858447531117071,8.312428406983042,0.0
0.009000000000000001,0.42695713238788846,-0.2309846745218752,0.5326409671973918,0.0,0.6532248343443284,0.9218621302353455,8.146871795190147,8.312428406983042,0.0
0.01,0.38601412898559817,-0.20675002304005455,0.39008440127878263,0.0,0.7005212197226175,0.8943892922503991,8.362752689464557,8.312428406983042,0.0
0.011,0.3480323622250784,-0.18444732776615724,0.28164071131676277,0.0,0.7381297327992723,0.8676587006747744,8.493498503579582,8.312428406983042,0.0
0.012,0.31424729089570413,-0.16451784828303234,0.2144571032932847,0.0,0.7673351196202943,0.844392799760041,8.600403687555305,8.312428406983042,0.0
0.013000000000000001,0.28588801058271895,-0.1478907195456769,0.15812475849970065,0.0,0.7896636883014632,0.8236309758929585,8.67523478278635,8.312428406983042,0.0
0.014,0.26232421630440317,-0.13355047199192024,0.11708114712614553,0.0,0.8062720617842672,0.805535142045031,8.62601942016922,8.312428406983042,0.0
0.015,0.24209047612006593,-0.1230523167382203,0.13855291830284844,0.0,0.8183986199316287,0.7956721333508433,8.758370000822183,8.312428406983042,0.0
0.016,0.22973555782474547,-0.11502590424674973,0.06791821203797566,0.0,0.8275482975733104,0.7811802495505492,8.66431853241539,8.312428406983042,0.0
0.017,0.2163107686370109,-0.10705868771733718,0.11142504498704858,0.0,0.8335376893774737,0.7758977982091971,8.770626987401167,8.312428406983042,0.0
0.018000000000000002,0.2089523646597488,-0.10344301443360768,0.05368883168997862,0.0,0.8380818449711698,0.7656316559358497,8.690899863576224,8.312428406983042,0.0
0.019,0.20070265878527263,-0.09771568201621492,0.08976767903651844,0.0,0.8405511209450854,0.7622264623967164,8.740552137644393,8.312428406983042,0.0
0.02,0.19610176202044222,-0.09619739759005069,0.0606603046958204,0.0,0.8423232120049918,0.7562697177433325,8.702214885560338,8.312428406983042,0.0
0.021,0.19185324084107194,-0.09256482160556456,0.0759310659520751,0.0,0.8429380189795375,0.753478042504955,8.695631838294771,8.312428406983042,0.0
0.022,0.18871867804868137,-0.09203782194849393,0.0753905552717411,0.0,0.843190533530358,0.7511171683958399,8.714156332733069,8.312428406983042,0.0
0.023,0.18737907062800513,-0.08996954048143684,0.062111028795092005,0.0,0.8429594682503792,0.7476783015354405,8.641461524597585,8.312428406983042,0.0
0.024,0.18463973927508423,-0.08943890468296882,0.09516810168668866,0.0,0.8423699356891976,0.74861721849054,8.730281885092413,8.312428406983042,0.0
0.025,0.1852611345187923,-0.08924504287956225,0.046579386658180566,0.0,0.841917229639254,0.7436322143216225,8.616194344835929,8.312428406983042,0.0
0.026000000000000002,0.18245201932707864,-0.0876157648595605,0.10058549740789391,0.0,0.8408340118132467,0.7458422159208815,8.698797665890304,8.312428406983042,0.0
0.027,0.1834044560626729,-0.08880931983958384,0.05542014429163389,0.0,0.840227699757769,0.7420817864344957,8.608654381113404,8.312428406983042,0.0
0.028,0.18188944049873484,-0.08700594319114911,0.09752952693878036,0.0,0.8390956689780722,0.7438966303929384,8.655617474837461,8.312428406983042,0.0
0.029,0.18254348065801473,-0.08849212828132919,0.0706160893982073,0.0,0.8384398397985936,0.7419481203484725,8.617209234266431,8.312428406983042,0.0
0.03,0.18220571119885562,-0.08713829031443887,0.08677240141088852,0.0,0.8374909585053565,0.7422189021294062,8.614017112154421,8.312428406983042,0.0
0.031,0.18195941131578866,-0.08826381585069176,0.0853525754151796,0.0,0.836801389708193,0.7420736889158138,8.633730800706331,8.312428406983042,0.0
0.032,0.1826543531678712,-0.087355263015156,0.0722827072019917,0.0,0.8360550604021153,0.7403716462978109,8.564006139153543,8.312428406983042,0.0
0.033,0.18138645709080942,-0.08769642430205533,0.1046292606566809,0.0,0.8352597730347594,0.7426004125601461,8.657246959038481,8.312428406983042,0.0
0.034,0.1830423348764146,-0.08810367452269814,0.05456066519365732,0.0,0.8348082769417745,0.7385009369068455,8.545467318568603,8.312428406983042,0.0
0.035,0.18093834825466934,-0.08679282899576853,0.10812009631274086,0.0,0.8338437173825888,0.7414064798935538,8.63067917867628,8.312428406983042,0.0
0.036000000000000004,0.18234317731094482,-0.08826859115433944,0.062331658541970064,0.0,0.8334416103707052,0.7381771190972894,8.546190672911463,8.312428406983042,0.0
0.037,0.18115733712892748,-0.08661001545543523,0.10223828876509439,0.0,0.832559577031918,0.7402225880922988,8.593991010848377,8.312428406983042,0.0
0.038,0.18189473112932492,-0.08816565271101284,0.07552249375798378,0.0,0.8321579997816132,0.7385445313590515,8.560299921576064,8.312428406983042,0.0
0.039,0.18167217777831557,-0.08681534132250925,0.0898893232482102,0.0,0.8314646839577228,0.7388734865767098,8.555460232977453,8.312428406983042,0.0
0.04,0.18137274363757788,-0.08793781120633497,0.08987884928757184,0.0,0.8310105700390931,0.7389861064816114,8.58347456912324,8.312428406983042,0.0
0.041,0.18214980829916352,-0.087044849056828,0.07316121959327615,0.0,0.8305036789675327,0.7371147470232121,8.508575404045802,8.312428406983042,0.0
0.042,0.18073755573937017,-0.08723871515880964,0.10864933216136766,0.0,0.8298905959500015,0.7396138215111224,8.604852664099923,8.312428406983042,0.0
0.043000000000000003,0.18241237195049997,-0.08778582839178733,0.05758645956313829,0.0,0.8296469724776219,0.7356315308281808,8.495958541697089,8.312428406983042,0.0
0.044,0.18038181071166803,-0.08637256290258104,0.11019821941741478,0.0,0.8288685519480439,0.7385611390746304,8.579598483498055,8.312428406983042,0.0
0.045,0.18170867813388378,-0.08787154653512869,0.0657065477517817,0.0,0.8286399551505408,0.7355334819328829,8.502099645916578,8.312428406983042,0.0
0.046,0.18061202569508863,-0.08618784939286235,0.10255925415318459,0.0,0.8279312557966387,0.7374183456888603,8.544651767347585,8.312428406983042,0.0
0.047,0.18118279837318668,-0.08769224470209348,0.078960959834036,0.0,0.8276642332091627,0.7360057621757505,8.519141180955947,8.312428406983042,0.0
0.048,0.18109233562000154,-0.08632923170251719,0.08964912529012597,0.0,0.8271176791460774,0.7361350745281972,8.505725379932262,8.312428406983042,0.0
0.049,0.1806220530052927,-0.08738802075722854,0.09442405607247623,0.0,0.8267688086505594,0.7366659874306742,8.549137196860023,8.312428406983042,0.0
0.05,0.18158073388386498,-0.08662412710165057,0.07035105970982553,0.0,0.82641330030218,0.7343029853628464,8.462393365575041,8.312428406983042,0.0
0.051000000000000004,0.17993037523136135,-0.08650255019738604,0.11222332576639676,0.0,0.8258513080589427,0.7371785381573743,8.561501770423865,8.312428406983042,0.0
0.052000000000000005,0.1816521680453448,-0.08734336275788965,0.060178389707576496,0.0,0.8257267754701798,0.7333607700250262,8.457274121272075,8.312428406983042,0.0
0.053,0.1798077286363074,-0.08579596864521623,0.11084375714058115,0.0,0.8250542978490593,0.7362260714883891,8.534738559346467,8.312428406983042,0.0
0.054,0.18101161505780963,-0.08736017494039056,0.069888436579751,0.0,0.8249231347699831,0.7335749842068271,8.46934557900924,8.312428406983042,0.0
0.055,0.18014848225962188,-0.08569580014411274,0.10101575502810278,0.0,0.824341255980116,0.735116431052456,8.500053921507668,8.312428406983042,0.0
0.056,0.180462699752749,-0.08713141920196592,0.0837853286336423,0.0,0.8241462715981251,0.7341957299944357,8.490612840871597,8.312428406983042,0.0
0.057,0.18065438471134837,-0.08583097663441695,0.08672402461279222,0.0,0.8237213106755221,0.7338252182551542,8.457543110674335,8.312428406983042,0.0
0.058,0.1798849026374466,-0.08670430086228181,0.10180774267451029,0.0,0.8234108647619922,0.7351656435022538,8.526296396728076,8.312428406983042,0.0
0.059000000000000004,0.1811800335044118,-0.0863394914173239,0.0652924197501891,0.0,0.8232166436833015,0.7320232997148928,8.424301261235962,8.312428406983042,0.0
0.06,0.17925364430887905,-0.08564354060515285,0.11517125895371691,0.0,0.8226547038388541,0.7352524478602076,8.522229260929144,8.312428406983042,0.0
0.061,0.18094268810040579,-0.0868786900318059,0.06410925056766492,0.0,0.8226146987384367,0.7317818191830224,8.42855479610134,8.312428406983042,0.0
0.062,0.17943794143811875,-0.08520414709895131,0.1097852190903843,0.0,0.8220350800634619,0.7343716420556403,8.49255663877603,8.312428406983042,0.0
0.063,0.18039126420544488,-0.08681255038011623,0.0759830154351093,0.0,0.821966075333503,0.732349605715163,8.447004915644609,8.312428406983042,0.0
0.064,0.1799213224490062,-0.0852308680836468,0.09741311191420415,0.0,0.8215116983570692,0.7332794320058723,8.45626792889136,8.312428406983042,0.0
0.065,0.17983018481324045,-0.086534602768474,0.091343210071745,0.0,0.8213549693456451,0.7331941735247754,8.475684638041296,8.312428406983042,0.0
0.066,0.1804764186817422,-0.08544943825886023,0.08000229318619503,0.0,0.8210729819443476,0.7318429690497672,8.410423324100908,8.312428406983042,0.0
0.067,0.17923535162337734,-0.08582641995498899,0.11165300098521036,0.0,0.8207363924673502,0.7343366530239822,8.504522663032127,8.312428406983042,0.0
0.068,0.18090809374212366,-0.08622209001002537,0.06268238895910999,0.0,0.8207225842245661,0.7306476229485692,8.397904553223949,8.312428406983042,0.0
0.069,0.17895914398550908,-0.08487791032835519,0.11513668240078981,0.0,0.8201894373329851,0.73381690534968,8.484530222135534,8.312428406983042,0.0
0.07,0.18036568734764372,-0.086399901419519,0.07010282979347218,0.0,0.8202073941875182,0.7309634688328986,8.411188153411139,8.312428406983042,0.0
0.07100000000000001,0.17934119690634928,-0.08467183212640557,0.10578626669138885,0.0,0.8197329041717655,0.7328994476202567,8.451265881765831,8.312428406983042,0.0
0.07200000000000001,0.1798310539834687,-0.08620968492656468,0.08435902776621484,0.0,0.8196859055372727,0.7318164196936591,8.432804124856297,8.312428406983042,0.0
0.073,0.17994899865547392,-0.08476311711597934,0.09238614904224951,0.0,0.8193608029864035,0.7319261750827384,8.413397016074049,8.312428406983042,0.0
0.074,0.1793754628008212,-0.08583610561742593,0.10108001734246358,0.0,0.819211680642794,0.7329327673688179,8.471291463490887,8.312428406983042,0.0
0.075,0.18051476708225156,-0.08523840308175776,0.07054416306896572,0.0,0.8191016525982154,0.7302468467093375,8.375352215368073,8.312428406983042,0.0
0.076,0.17873694887685307,-0.08477727531402293,0.11788454904652254,0.0,0.8186892882630527,0.7335382693570217,8.475331309027508,8.312428406983042,0.0
0.077,0.18050122081377984,-0.08591737027219565,0.06626597319636032,0.0,0.8187773243492508,0.7300960180080122,8.381189244792683,8.312428406983042,0.0
0.078,0.1789674097888764,-0.0842441717488904,0.1126493969356765,0.0,0.818316878904783,0.7328115197044581,8.4474343813924,8.312428406983042,0.0
0.079,0.17994874850580203,-0.08587347213595145,0.07817676889172454,0.0,0.8183699832022162,0.730830317995474,8.403076664720093,8.312428406983042,0.0
0.08,0.1795055507226607,-0.08422422358384972,0.09944914465050753,0.0,0.8180219465544056,0.7317957996443522,8.409468053831553,8.312428406983042,0.0
0.081,0.17937536421207628,-0.08555626467539248,0.09528305362629233,0.0,0.8179682787418551,0.7319688242316426,8.438148262784798,8.312428406983042,0.0
0.082,0.180155232893294,-0.08451337226875547,0.07968575059165206,0.0,0.8178092415936429,0.7303580497353411,8.363890656440864,8.312428406983042,0.0
0.083,0.17878841542147753,-0.08469792691590963,0.11629993126904103,0.0,0.8175357606458754,0.7332341304874199,8.462255316481684,8.312428406983042,0.0
0.084,0.1805512093647389,-0.08535435147968506,0.06561933215364443,0.0,0.8176475970236361,0.7296466718515693,8.359476216674787,8.312428406983042,0.0
0.085,0.17875731153955154,-0.08384838732873802,0.11653840396017545,0.0,0.8172172835977936,0.7327520033071555,8.439234423605821,8.312428406983042,0.0
0.08600000000000001,0.18002362368176972,-0.08545603484038808,0.07539124032843061,0.0,0.817332435527885,0.7303111582431455,8.379424633784687,8.312428406983042,0.0
0.08700000000000001,0.17928296007164696,-0.08371285435202097,0.10462617297098128,0.0,0.8169841614297296,0.7318473632240798,8.40660729746968,8.312428406983042,0.0
0.088,0.1794536123687305,-0.08521989282675456,0.09009305222361841,0.0,0.8170075412765876,0.731277949299689,8.408860898493081,8.312428406983042,0.0
0.089,0.17985714196795063,-0.08385472728880058,0.08800192679681734,0.0,0.8168064031523979,0.7306404404300054,8.358947415212064,8.312428406983042,0.0
0.09,0.17890414240205726,-0.0845487471644285,0.11249347835503565,0.0,0.8166516217953578,0.7328704158087834,8.445878055956566,8.312428406983042,0.0
0.091,0.18051872725666912,-0.0846604084327575,0.06769366149304959,0.0,0.8167406586526594,0.729501885813913,8.341097907719819,8.312428406983042,0.0
0.092,0.17865341350061126,-0.08348448466493907,0.11979704060405541,0.0,0.8163534705976007,0.732879812736803,8.431228206671175,8.312428406983042,0.0
0.093,0.18017917425757538,-0.08501158476366771,0.0735438931314959,0.0,0.8165225342888749,0.7300858613279794,8.358926876360808,8.312428406983042,0.0
0.094,0.17918608313312884,-0.08323376632260301,0.10922957359290172,0.0,0.8161844654406349,0.7321006653859048,8.397190415257748,8.312428406983042,0.0
0.095,0.17964028186132838,-0.08483116296758018,0.08925018406168461,0.0,0.8162751756983695,0.7312656997288192,8.39185355278662,8.312428406983042,0.0
0.096,0.17990491648033075,-0.08337360014521263,0.0911243638392133,0.0,0.8160970124877122,0.7309046875132478,8.349811659576632,8.312428406983042,0.0
0.097,0.17905379545339842,-0.08420437970738638,0.11177147791827094,0.0,0.816006525756626,0.7329106706082412,8.431831534488554,8.312428406983042,0.0
0.098,0.1805863670744742,-0.08414796496544216,0.0695675091872551,0.0,0.8161111725909125,0.7296810049308368,8.327905391298662,8.312428406983042,0.0
0.099,0.178742010925348,-0.08307253381913024,0.12137581093904465,0.0,0.8157646548953545,0.7331239282772231,8.419999651686016,8.312428406983042,0.0
0.1,0.18032328495818314,-0.08457916139039208,0.074252968298338,0.0,0.8159735646482934,0.7302939281063163,8.346540564601574,8.312428406983042,0.0
0.101,0.1793024913632172,-0.08278302693444325,0.11064139026437392,0.0,0.8156659423429804,0.7323698738062399,8.3856375264622,8.312428406983042,0.0
0.10200000000000001,0.17977147118134185,-0.0844045506370679,0.09036081813926955,0.0,0.8157930057900395,0.7315509198362744,8.381698380032658,8.312428406983042,0.0
0.10300000000000001,0.18005267290491672,-0.0829225141590948,0.09163769162354402,0.0,0.8156462282457929,0.7311435870211207,8.33674619340363,8.312428406983042,0.0
0.10400000000000001,0.17916917687862272,-0.08372281029118663,0.11387060707385174,0.0,0.815576248113765,0.7332951582778766,8.42163758130372,8.312428406983042,0.0
0.105,0.1807517760630645,-0.0837514675690335,0.07033282138060012,0.0,0.815723572459858,0.730030167944442,8.317819674675347,8.312428406983042,0.0
0.106,0.1789277180743425,-0.08258695689834467,0.12218786201786386,0.0,0.8154012825914441,0.7334623137765959,8.407424689291158,8.312428406983042,0.0
0.107,0.18045647477526,-0.08414207170363137,0.076435391886877,0.0,0.8156371440283754,0.7307812901009234,8.33913884841781,8.312428406983042,0.0
0.108,0.1795526971054252,-0.08232496326712686,0.11031120790920296,0.0,0.8153658838779776,0.7326905225109677,8.370719880327806,8.312428406983042,0.0
0.109,0.17989302109569302,-0.08393659913970679,0.09393777722075751,0.0,0.8155081240139732,0.7321953967133882,8.378625169504076,8.312428406983042,0.0
0.11,0.18035975188944078,-0.0825353628696709,0.08932316500741233,0.0,0.8154163752081814,0.731372197325173,8.320318244848218,8.312428406983042,0.0
0.111,0.17928896122913776,-0.08310714203635614,0.11839772895668937,0.0,0.8153283894151829,0.7339889454323246,8.413835677011697,8.312428406983042,0.0
0.112,0.18101030515672464,-0.08346649483130761,0.0706249401746635,0.0,0.8155446880279775,0.7305894120053081,8.311199501013007,8.312428406983042,0.0
0.113,0.1792412386802174,-0.08205427663125056,0.12195531723370874,0.0,0.8152404659068351,0.7338873418982798,8.392923009982368,8.312428406983042,0.0
0.114,0.18058942861924196,-0.08370077719880933,0.08028861671903494,0.0,0.8154916962315361,0.7315624242045776,8.33730099569322,8.312428406983042,0.0
0.115,0.1799519698629136,-0.08187279046311029,0.10785089797650767,0.0,0.8152677682077941,0.7330272416187709,8.354689441010573,8.312428406983042,0.0
0.116,0.17999355264590963,-0.08341785017352751,0.09873406497755577,0.0,0.8154009511633487,0.7330337613530182,8.378992933198267,8.312428406983042,0.0
0.117,0.18072494532510422,-0.08217379038675302,0.08591667362155612,0.0,0.8153691706231234,0.7316541653233445,8.304772025792833,8.312428406983042,0.0
0.11800000000000001,0.17944094632876498,-0.08239807576833205,0.12310369113617559,0.0,0.8152397205237943,0.7347766504991732,8.404580017375702,8.312428406983042,0.0
0.11900000000000001,0.18128246338672946,-0.08316954654553502,0.07227817924081431,0.0,0.8155180828836576,0.7313958587975102,8.307627650297958,8.312428406983042,0.0
0.12,0.17968409300253638,-0.08153172493750888,0.12080237034653721,0.0,0.8152426547527135,0.7344211345554241,8.377244160201139,8.312428406983042,0.0
0.121,0.1807682405190841,-0.08324646229357302,0.08534595786276579,0.0,0.8155022963359027,0.7325956527095181,8.3400440316156,8.312428406983042,0.0
0.122,0.18047791509582387,-0.08144585445641402,0.10366986590920972,0.0,0.8153382113405339,0.7333916544881922,8.328904399919352,8.312428406983042,0.0
0.123,0.18014340561249464,-0.08276921778381915,0.10907492182797027,0.0,0.8154337110669556,0.7345368574489948,8.38964459387863,8.312428406983042,0.0
0.124,0.18137710082209305,-0.08211528063865836,0.07793266297937539,0.0,0.8155490143975737,0.7319583394859372,8.291912480316055,8.312428406983042,0.0
0.125,0.17969712850108696,-0.08148753179786505,0.1270038790273328,0.0,0.8153324225977887,0.7355555939134151,8.389703806284599,8.312428406983042,0.0
0.126,0.18147123339668847,-0.08287196079880288,0.07733546205004536,0.0,0.8156557800992407,0.7326052744284592,8.312221368750468,8.312428406983042,0.0
0.127,0.18035821101036875,-0.08102518322637409,0.11607875119943681,0.0,0.8154347800790759,0.7348809421298014,8.353049259322841,8.312428406983042,0.0
0.128,0.18087747686212738,-0.08273321654548799,0.09525859738985215,0.0,0.8156697982718881,0.7341610437808878,8.356482821750419,8.312428406983042,0.0
0.129,0.1812475597841988,-0.08118729038124188,0.09310127202838955,0.0,0.8156221925992699,0.7334720163715716,8.29808725065895,8.312428406983042,0.0
0.13,0.18021334868880595,-0.08180410508213347,0.12244246913736463,0.0,0.8155937536317224,0.7362137001212409,8.393108055703125,8.312428406983042,0.0
0.131,0.18198135099693974,-0.08222466735527817,0.07412527012807621,0.0,0.8158824206389335,0.7328652453722285,8.292920813417517,8.312428406983042,0.0
0.132,0.18029620335825516,-0.08071154411218043,0.12441396720653569,0.0,0.8156367262910501,0.7360984777308985,8.36833120839439,8.312428406983042,0.0
0.133,0.1815281620253899,-0.08242852131553932,0.08614974170398608,0.0,0.8159429233386224,0.7341194987130766,8.326732007500022,8.312428406983042,0.0
