timestamp,iq,id,iq_ref,id_ref,vq,vd,omega,omega_ref,r
0.0,0.0,0.0,0.0,0.0,0.0,0.0,0.0,469.2924822488002,0.0
0.001,0.0,0.0,10.0,0.0,0.0,1.0999999999999999,4.489159928803058,469.2924822488002,0.0
0.002,0.5531917127263797,-0.311315321610005,10.0,0.0,0.14424468537710053,1.929148911600098,8.706838641226923,469.2924822488002,0.0
0.003,0.9366604491732309,-0.5265966921452992,10.0,0.0,0.37754759091928314,2.653157756696006,13.138676887882822,469.2924822488002,0.0
0.004,1.2392265902211572,-0.6945461359362939,10.0,0.0,0.6762427155284947,3.2986484196857377,17.718878927062118,469.2924822488002,0.0
0.005,1.4819111455358178,-0.8281862039059692,10.0,0.0,1.0226383070145126,3.885789889163285,22.415281942513396,469.2924822488002,0.0
0.006,1.6803519973653576,-0.9361087671821829,10.0,0.0,1.4036435675803702,4.429455122693576,27.13358725592422,469.2924822488002,0.0
0.007,1.8457336598473415,-1.0252368863103545,10.0,0.0,1.8096396929140082,4.940646784572703,31.903044263696284,469.2924822488002,0.0
0.008,1.9867171545733393,-1.0999516682766222,10.0,0.0,2.233482716727203,5.427464525002239,36.71304114424641,469.2924822488002,0.0
0.009000000000000001,2.1092702837791637,-1.1641959203435028,10.0,0.0,2.6699429321097248,5.89591378450476,41.54929049365159,469.2924822488002,0.0
0.01,2.2179130070942725,-1.2206575691481432,10.0,0.0,3.1151703907520893,6.350438971322676,46.38097265755262,469.2924822488002,0.0
0.011,2.3161089790019043,-1.271082367145515,10.0,0.0,3.566309733503673,6.794319255646352,51.19472980193966,469.2924822488002,0.0
0.012,2.406370340950565,-1.316820811844394,10.0,0.0,4.021250151349369,7.229978655717541,55.99439979949446,469.2924822488002,0.0
0.013000000000000001,2.4905395876022447,-1.3588773310043039,10.0,0.0,4.478431300078216,7.659210154053981,60.778574210576885,469.2924822488002,0.0
0.014,2.569992087680425,-1.3979571408186555,10.0,0.0,4.936695697655802,8.08333853488758,65.48846366471959,469.2924822488002,0.0
0.015,2.6460721916201893,-1.4340120039535724,10.0,0.0,5.395121730405684,8.503306230962986,70.20152476518336,469.2924822488002,0.0
0.016,2.7192026257084008,-1.4679807362467916,10.0,0.0,5.853077941409026,8.919836213995534,74.8905727827779,469.2924822488002,0.0
0.017,2.7900534184732124,-1.4999443775800696,10.0,0.0,6.310067842839017,9.333446536961912,79.54437369591162,469.2924822488002,0.0
0.018000000000000002,2.8591058105938525,-1.5299960727100264,10.0,0.0,6.765705836473607,9.74450756256903,84.1522216469355,469.2924822488002,0.0
0.019,2.9267844835255348,-1.5581030865486558,10.0,0.0,7.219677387876402,10.153272154877616,88.70450480527899,469.2924822488002,0.0
0.02,2.993456770991143,-1.5841737568448124,10.0,0.0,7.6717149469639665,10.559900278203727,93.1922860639681,469.2924822488002,0.0
0.021,3.0594485191696372,-1.608079373571295,10.0,0.0,8.121580473612335,10.964476975681,97.60593467402893,469.2924822488002,0.0
0.022,3.1250619249286995,-1.6296603836499086,10.0,0.0,8.569051972284981,11.367024998923677,101.93506682230623,469.2924822488002,0.0
0.023,3.1905911414621277,-1.6487274197947317,10.0,0.0,9.013912687289771,11.767513289948262,106.1684839601256,469.2924822488002,0.0
0.024,3.256327111917135,-1.6650736386166327,10.0,0.0,9.455943573605502,12.165863158786147,110.29480587221556,469.2924822488002,0.0
0.025,3.3225610061444995,-1.6784840952696714,10.0,0.0,9.894918046217066,12.56195276071136,114.3030413613407,469.2924822488002,0.0
0.026000000000000002,3.3895854817328535,-1.6887445980595062,10.0,0.0,10.330598582500347,12.955620496332763,118.18272515211295,469.2924822488002,0.0
0.027,3.4576954681011722,-1.6956480460586376,10.0,0.0,10.762734612969439,13.346667658275724,121.92381555557034,469.2924822488002,0.0
0.028,3.5271871838210016,-1.6990010211062343,10.0,0.0,11.19106154936117,13.73486071820579,125.51657846999241,469.2924822488002,0.0
0.029,3.5983589227788753,-1.6986251448306693,10.0,0.0,11.61530022196594,14.119933191653864,128.95088843214884,469.2924822488002,0.0
0.03,3.6715095613782958,-1.6943602661031114,10.0,0.0,12.03515689675777,14.501587432161246,132.21609511421778,469.2924822488002,0.0
0.031,3.7469350145353557,-1.6860693242507514,10.0,0.0,12.450323973304672,14.879496622635793,135.3030411499626,469.2924822488002,0.0
0.032,3.824927076778768,-1.673637608639893,10.0,0.0,12.86048068194566,15.253306729402368,138.20335216533138,469.2924822488002,0.0
0.033,3.9057655700162695,-1.6569817661614938,10.0,0.0,13.265294904882698,15.622639182722695,140.90929225288235,469.2924822488002,0.0
0.034,3.9897256768569362,-1.6360325498370645,10.0,0.0,13.66442309548716,15.987092586184598,143.41428839435463,469.2924822488002,0.0
0.035,4.077064081155148,-1.6107516851107957,10.0,0.0,14.05751240442072,16.346245844956357,145.7154237411235,469.2924822488002,0.0
0.036000000000000004,4.168027294154005,-1.5811112520210469,10.0,0.0,14.444200469345493,16.69966013935741,147.819242928665,469.2924822488002,0.0
0.037,4.2628546926560755,-1.5470811218566796,10.0,0.0,14.824114247230705,17.046880429105585,149.74093022997064,469.2924822488002,0.0
0.038,4.361721997924139,-1.5087149716500141,10.0,0.0,15.19687870108113,17.387442938072997,151.48030763375635,469.2924822488002,0.0
0.039,4.464684732827717,-1.4662375445895557,10.0,0.0,15.562134104968669,17.720888413742003,153.04148992145085,469.2924822488002,0.0
0.04,4.571800164815832,-1.4198365063912688,10.0,0.0,15.919529176103143,18.046761812063203,154.43955779267324,469.2924822488002,0.0
0.041,4.6830861672684385,-1.3697237724359448,10.0,0.0,16.268723689603192,18.36461707171583,155.69323461664493,469.2924822488002,0.0
0.042,4.798481744547025,-1.3161974014240463,10.0,0.0,16.609397504246736,18.674025603277073,156.83703014375715,469.2924822488002,0.0
0.043000000000000003,4.917769198309808,-1.2597687142249911,10.0,0.0,16.941272898700287,18.974592999005438,157.8915138101768,469.2924822488002,0.0
0.044,5.040626550973628,-1.2010781537313127,10.0,0.0,17.264125818498993,19.265969760350917,158.87861977212756,469.2924822488002,0.0
0.045,5.166519513459116,-1.1410780454002205,10.0,0.0,17.577818016140895,19.547874485194956,159.7849058996124,469.2924822488002,0.0
0.046,5.29480958475065,-1.0808624076967466,10.0,0.0,17.88230774743894,19.820104979101576,160.54900796549126,469.2924822488002,0.0
0.047,5.424977155224765,-1.0212978841843148,10.0,0.0,18.177621613788506,20.08252586470809,161.08707714416863,469.2924822488002,0.0
0.048,5.557185913232694,-0.9620626539106967,10.0,0.0,18.463725951968797,20.334994760712785,161.38913829551427,469.2924822488002,0.0
0.049,5.6919628671257225,-0.9021641909247924,10.0,0.0,18.740470267305817,20.577323823586884,162.40800904505102,469.2924822488002,0.0
0.05,5.8242542120582,-0.8501510981199152,10.0,0.0,19.008650601817866,20.809890133303632,166.5727114093589,469.2924822488002,0.0
0.051000000000000004,5.87998881755157,-0.9230965810370351,10.0,0.0,19.28181366789932,21.04120995234497,169.8830097169444,469.2924822488002,0.0
0.052000000000000005,5.931151200099551,-0.9915935860946945,10.0,0.0,19.55759762500393,21.271643580064975,174.85664443550237,469.2924822488002,0.0
0.053,5.9691074680790885,-1.076475502404851,10.0,0.0,19.83749858991362,21.502948675071156,179.34850039417532,469.2924822488002,0.0
0.054,6.004749892386971,-1.1591862180431738,10.0,0.0,20.12078932739007,21.735572253073627,183.9657569377927,469.2924822488002,0.0
0.055,6.033208285328719,-1.2483362275136072,10.0,0.0,20.40799274280449,21.97048854804298,188.554207805763,469.2924822488002,0.0
0.056,6.0556285177399145,-1.3418360560124296,10.0,0.0,20.69936092721457,22.208451913421026,193.3307161604565,469.2924822488002,0.0
0.057,6.0704221551902835,-1.4422255754578832,10.0,0.0,20.995496478575454,22.450352662906848,198.36435165874738,469.2924822488002,0.0
0.058,6.078324112032949,-1.5477720346369028,10.0,0.0,21.29681476506408,22.69695561370199,203.72923825938958,469.2924822488002,0.0
0.059000000000000004,6.079574367362355,-1.657480634494231,10.0,0.0,21.603673999375868,22.94897158954867,209.4185662580247,469.2924822488002,0.0
0.06,6.074521281121019,-1.7700792449411287,10.0,0.0,21.916337668991723,23.207040233281695,215.41267749115377,469.2924822488002,0.0
0.061,6.063642500776301,-1.8840006459296936,10.0,0.0,22.234947204023573,23.471714514578515,221.71080615596077,469.2924822488002,0.0
0.062,6.048280157043163,-1.9960841173465873,10.0,0.0,22.55935318152789,23.743363391256032,228.08224014794908,469.2924822488002,0.0
0.063,6.0283221501958435,-2.1058121042629527,10.0,0.0,22.88943269279617,24.022329735332114,234.40977025569336,469.2924822488002,0.0
0.064,6.002142455350591,-2.215503151185735,10.0,0.0,23.225369622637572,24.309087582491912,240.7178430908051,469.2924822488002,0.0
0.065,5.971242053163828,-2.3219530990372297,10.0,0.0,23.56700122800524,24.603900585211967,246.87084169875322,469.2924822488002,0.0
0.066,5.93674013433054,-2.422817560072737,10.0,0.0,23.91398156434354,24.90688165524657,252.7758163767843,469.2924822488002,0.0
0.067,5.898980299451661,-2.5174626413603196,10.0,0.0,24.265964288382747,25.21807121455989,258.61803186620597,469.2924822488002,0.0
0.068,5.859145855852845,-2.604119968340858,10.0,0.0,24.622453551104353,25.537344280792873,264.4784378070625,469.2924822488002,0.0
0.069,5.8167430640832585,-2.6844197289520775,10.0,0.0,24.983187594574527,25.864604929333396,270.0948936318839,469.2924822488002,0.0
0.07,5.776430573925882,-2.7513757880619862,10.0,0.0,25.347136467447708,26.199223263366495,275.8431823179546,469.2924822488002,0.0
0.07100000000000001,5.740006834867038,-2.8036431975936527,10.0,0.0,25.713232140894274,26.540378137678502,280.8887489098681,469.2924822488002,0.0
0.07200000000000001,5.717516118131725,-2.8261713107864908,10.0,0.0,26.078789152783273,26.886136833354254,284.5315714887383,469.2924822488002,0.0
0.073,5.6960696927581065,-2.844340190137888,10.0,0.0,26.444139628647676,27.236009560275086,288.47576333152176,469.2924822488002,0.0
0.074,5.692934094972193,-2.831919461712335,10.0,0.0,26.806394360697396,27.587560513592983,291.1543798771501,469.2924822488002,0.0
0.075,5.7115218843279925,-2.7866926740124844,10.0,0.0,27.1627279755112,27.93810583197707,291.8199243576698,469.2924822488002,0.0
0.076,5.722359192898038,-2.7627787226629072,10.0,0.0,27.516304493910578,28.288223753954977,295.1137388812131,469.2924822488002,0.0
0.077,5.776171432884904,-2.678426120264489,10.0,0.0,27.86049550591749,28.632876562262176,295.0464212603137,469.2924822488002,0.0
0.078,5.8619452582713665,-2.5553985342554335,10.0,0.0,28.192043189117406,28.96858619254671,292.95976899640885,469.2924822488002,0.0
0.079,5.935160458145856,-2.4719791389609944,10.0,0.0,28.51606120940349,29.29668369439044,294.25343118616354,469.2924822488002,0.0
0.08,6.044107427294884,-2.350435919168274,10.0,0.0,28.827951617621085,29.613121233470764,293.81589970716703,469.2924822488002,0.0
0.081,6.188963026830664,-2.191562318815384,10.0,0.0,29.124036075084064,29.914259413207375,291.360754225471,469.2924822488002,0.0
0.082,6.359589686262936,-2.0138308752113545,10.0,0.0,29.402664181981493,30.197571844174426,286.96251406548765,469.2924822488002,0.0
0.083,6.540018979508612,-1.8441356429107798,10.0,0.0,29.664871560168862,30.462274887071814,283.14314417654026,469.2924822488002,0.0
0.084,6.72616295069592,-1.6891095613461466,10.0,0.0,29.91197258817812,30.708056819600063,279.37467339054234,469.2924822488002,0.0
0.085,6.931522730350274,-1.5251876673313194,10.0,0.0,30.14246055911329,30.93324252562629,275.6142865458914,469.2924822488002,0.0
0.08600000000000001,7.155703793720682,-1.351298595018989,10.0,0.0,30.354929724543368,31.13635213896922,272.35624736959494,469.2924822488002,0.0
0.08700000000000001,7.392809125137452,-1.1753732716051597,10.0,0.0,30.548850039912328,31.31655793169872,270.0159834151727,469.2924822488002,0.0
0.088,7.627690450774588,-1.0208385223152476,10.0,0.0,30.7261593338296,31.474669284186255,264.9043304264994,469.2924822488002,0.0
0.089,7.857379601147691,-0.8909234528544803,10.0,0.0,30.8888035234561,31.61178343753209,258.3660206202555,469.2924822488002,0.0
0.09,8.110167019832337,-0.7350792703048346,10.0,0.0,31.033051000068692,31.725940869954407,264.25986797543334,469.2924822488002,0.0
0.091,8.224147095017727,-0.8078213663526457,10.0,0.0,31.183849544653008,31.833097372712203,272.788696792251,469.2924822488002,0.0
0.092,8.210788897701885,-1.0381999937387087,10.0,0.0,31.354898113106653,31.947227282109257,278.7277416642893,469.2924822488002,0.0
0.093,8.186650021259544,-1.2573575378684827,10.0,0.0,31.542058359235053,32.06957075184747,285.963951266879,469.2924822488002,0.0
0.094,8.143719005920886,-1.4808521764754705,10.0,0.0,31.745129762529913,32.202876922147524,293.70658450523456,469.2924822488002,0.0
0.095,8.089330597806054,-1.696148843956609,10.0,0.0,31.96267232956215,32.34871303048631,302.33761781022514,469.2924822488002,0.0
0.096,8.021255743405895,-1.9068432265699757,10.0,0.0,32.1940676661377,32.5086641345973,311.50480450232624,469.2924822488002,0.0
0.097,7.941286145039487,-2.1090265587602812,10.0,0.0,32.43845180218158,32.683875569231056,319.39407828011355,469.2924822488002,0.0
0.098,7.84799599973348,-2.3044191381762165,10.0,0.0,32.695390018498315,32.87546649400582,326.81450045780963,469.2924822488002,0.0
0.099,7.736969123257698,-2.5005464549542245,10.0,0.0,32.965413584712266,33.08487220289407,334.4616587347365,469.2924822488002,0.0
0.1,7.600690772494954,-2.7108729887388794,10.0,0.0,33.25055001074219,33.31422004733402,342.8892254828117,469.2924822488002,0.0
0.101,7.456259525033192,-2.905209000368238,10.0,0.0,33.54938127455448,33.56367140364613,352.333592486039,469.2924822488002,0.0
0.10200000000000001,7.3216066633661185,-3.0531310829798426,10.0,0.0,33.857602616587755,33.83142825301703,358.49317339735035,469.2924822488002,0.0
0.10300000000000001,7.179789608445041,-3.188705269055877,10.0,0.0,34.175211448997025,34.117484899078796,364.450358832657,469.2924822488002,0.0
0.10400000000000001,7.0374146096145616,-3.3062645503222914,10.0,0.0,34.50124084185009,34.42093984309747,371.4180347507052,469.2924822488002,0.0
0.105,6.937770921396049,-3.337006044496425,10.0,0.0,34.827218761366225,34.73618928771533,373.4286372007245,469.2924822488002,0.0
0.106,6.8492891207295905,-3.345350142035557,10.0,0.0,35.15166158930309,35.059411118130676,379.1323163675848,469.2924822488002,0.0
0.107,6.777233789822885,-3.3323654944084056,10.0,0.0,35.14669396253419,34.87640012189244,374.2355275234402,469.2924822488002,0.0
0.108,6.624207766901755,-3.1566877898965764,10.0,0.0,35.07942445881662,34.770701242670796,370.13149331208456,469.2924822488002,0.0
0.109,6.538160165909259,-3.0201956302807047,10.0,0.0,34.98263606111576,34.72883137985161,365.1706226974235,469.2924822488002,0.0
0.11,6.537780518980709,-2.8696516527615246,10.0,0.0,34.877411103116756,34.73947799990351,359.5748144909852,469.2924822488002,0.0
0.111,6.600709088293284,-2.720889920795472,10.0,0.0,34.78122755481687,34.791941732471194,353.616281424584,469.2924822488002,0.0
0.112,6.723124735171865,-2.5609017727880268,10.0,0.0,34.70615290713841,34.876561077272825,347.4283722464121,469.2924822488002,0.0
0.113,6.891752916810616,-2.394930121774883,10.0,0.0,34.660785965822804,34.98490045609301,341.2593248846325,469.2924822488002,0.0
0.114,7.100561759505636,-2.2186410812120747,10.0,0.0,34.65027701433424,35.10978792565029,335.20620866407916,469.2924822488002,0.0
0.115,7.33965893224449,-2.036382202260065,10.0,0.0,34.67751304092542,35.24534883508761,329.25483139295983,469.2924822488002,0.0
0.116,7.602645715656147,-1.8488709103924506,10.0,0.0,34.743462126073574,35.386886809941096,322.54267552029074,469.2924822488002,0.0
0.117,7.880139999449121,-1.6636852520803909,10.0,0.0,34.848013009592655,35.53086087508954,314.9407097544962,469.2924822488002,0.0
0.11800000000000001,8.17500305343579,-1.4697341571970641,10.0,0.0,34.989537306637686,35.67441273730188,306.91675926834034,469.2924822488002,0.0
0.11900000000000001,8.489452482999999,-1.257860747928286,10.0,0.0,35.1655350275929,35.81516911930436,298.8146579350122,469.2924822488002,0.0
0.12,8.820179861516344,-1.0290434102766501,10.0,0.0,35.373347865706776,35.95124021585626,301.74612516386907,469.2924822488002,0.0
0.121,9.05197102035269,-0.9665788548838989,10.0,0.0,35.61859602894743,36.08734534341762,312.4072841125391,469.2924822488002,0.0
0.122,9.055014186043495,-1.201301172475493,10.0,0.0,35.91733629325296,36.24308137603959,320.6719270227229,469.2924822488002,0.0
0.123,9.027129470850173,-1.4303708964327932,10.0,0.0,36.27041833495098,36.42338728740847,330.29158609152165,469.2924822488002,0.0
0.124,8.968401572721179,-1.661307776426365,10.0,0.0,36.68103365188066,36.63248394191217,340.908360345376,469.2924822488002,0.0
0.125,8.884339509357982,-1.8820500360136665,10.0,0.0,37.15324313170391,36.87374053419864,352.7806001745866,469.2924822488002,0.0
0.126,8.770939508390496,-2.094935132029424,10.0,0.0,37.34819691605882,37.03012748291369,364.6508644962724,469.2924822488002,0.0
0.127,8.654245175121545,-2.3582304936924556,10.0,0.0,37.554845975730174,37.19767685204873,373.4104551902945,469.2924822488002,0.0
0.128,8.507122581448872,-2.620926815643901,10.0,0.0,37.78384870814595,37.38415273220872,382.31166959776857,469.2924822488002,0.0
0.129,8.327780028918035,-2.8847217034531436,10.0,0.0,38.03498922977562,37.59313775243594,390.63730531595144,469.2924822488002,0.0
0.13,8.140189491509654,-3.1108472781395085,10.0,0.0,38.18506986517116,37.49287388889253,398.2117414800096,469.2924822488002,0.0
0.131,7.818898838595998,-3.2390101201169683,10.0,0.0,38.1023965388336,36.98339233288645,400.2929245199106,469.2924822488002,0.0
0.132,7.381089982649292,-3.2328734634371132,10.0,0.0,37.90406707374046,36.56786873530482,400.3783066176889,469.2924822488002,0.0
0.133,7.0329415221871345,-3.228620398728459,10.0,0.0,37.62612439148677,36.24099430128129,398.8682459721852,469.2924822488002,0.0
0.134,6.770779653368849,-3.2229598996382953,10.0,0.0,37.2999171855604,35.99660549231706,396.2004913025157,469.2924822488002,0.0
0.135,6.589497845477472,-3.2101465383554832,10.0,0.0,36.952938317618084,35.82689297553557,391.701420139398,469.2924822488002,0.0
0.136,6.488921465849242,-3.1759273570042614,10.0,0.0,36.607658744761515,35.722899681802474,386.6889202290502,469.2924822488002,0.0
0.137,6.4575897544631955,-3.1260468313777703,10.0,0.0,36.28276933271766,35.67501187713356,381.1833276610874,469.2924822488002,0.0
0.138,6.492966986292725,-3.0510297312812056,10.0,0.0,35.991938738046755,35.67358674884448,374.7614784833981,469.2924822488002,0.0
0.139,6.5871842719860565,-2.951348906603157,10.0,0.0,35.744903327405936,35.709358588797784,367.854387993859,469.2924822488002,0.0
0.14,6.732395596647707,-2.8283732271390356,10.0,0.0,35.54789434927679,35.77381573786246,360.7017363089106,469.2924822488002,0.0
0.14100000000000001,6.92130790978109,-2.6834974879286255,10.0,0.0,35.40416436852836,35.85943314282912,353.5543994862056,469.2924822488002,0.0
0.14200000000000002,7.147263278431378,-2.5182514652684214,10.0,0.0,35.31459015780184,35.95977424600469,346.56589037287756,469.2924822488002,0.0
0.14300000000000002,7.401892356885049,-2.338235225521435,10.0,0.0,35.278439512744136,36.06954251641994,339.38429021345496,469.2924822488002,0.0
0.14400000000000002,7.674460928370015,-2.154242881709369,10.0,0.0,35.29405096224282,36.18462268461575,331.8804013119896,469.2924822488002,0.0
0.145,7.963580506806799,-1.962856179757281,10.0,0.0,35.35855716463209,36.301786862191214,323.65050524020063,469.2924822488002,0.0
0.146,8.268244180970825,-1.7609511221191876,10.0,0.0,35.46841600082544,36.41852356824603,314.8044817678623,469.2924822488002,0.0
0.147,8.59131199521678,-1.5396901918318675,10.0,0.0,35.61951755261016,36.53271442209424,306.14807014473257,469.2924822488002,0.0
0.148,8.93281290567122,-1.295259514016756,10.0,0.0,35.80768112293141,36.642549141694275,307.94706720410005,469.2924822488002,0.0
0.149,9.170503359455275,-1.2230033084381708,10.0,0.0,36.0376822461404,36.753474965172146,319.4771594676219,469.2924822488002,0.0
0.15,9.183434544821104,-1.4339941253328137,10.0,0.0,36.32408796109081,36.88680820347793,327.5255226088856,469.2924822488002,0.0
