timestamp,iq,id,iq_ref,id_ref,vq,vd,omega,omega_ref,r
0.0,0.0,0.0,0.0,0.0,0.0,0.0,0.0,167.1187675926864,0.0
0.001,0.0,0.0,10.0,0.0,0.0,1.0999999999999999,13.774642275030262,167.1187675926864,0.0
0.002,0.3898878940818782,-0.17459439765257978,10.0,0.0,0.1292053837417838,1.9471123316509935,26.688971290129,167.1187675926864,0.0
0.003,0.8273292444378557,-0.370367890331683,10.0,0.0,0.3499906024926642,2.6782142989127267,40.074736959168845,167.1187675926864,0.0
0.004,1.226926235434225,-0.5433646868251822,10.0,0.0,0.6388794087821237,3.3187033358173337,53.853910902376484,167.1187675926864,0.0
0.005,1.5667873524858469,-0.680582990146776,10.0,0.0,0.9762922835335383,3.890643596694712,67.84626369771107,167.1187675926864,0.0
0.006,1.848385999376518,-0.7835836476389795,10.0,0.0,1.3471157861884755,4.411553878972037,81.92908667022222,167.1187675926864,0.0
0.007,2.0809402730307895,-0.858207455427332,10.0,0.0,1.7401265790874487,4.894690499654058,96.00940926114588,167.1187675926864,0.0
0.008,2.274840638457377,-0.9107133714529227,10.0,0.0,2.1471793674496578,5.349811040097394,110.01212371234875,167.1187675926864,0.0
0.009000000000000001,2.439254151470576,-0.9464650645761424,10.0,0.0,2.5624465581032774,5.78397832255543,123.8727670908002,167.1187675926864,0.0
0.01,2.5815352221851304,-0.9696189240122515,10.0,0.0,2.9817931655440786,6.202248813184557,137.53177413079032,167.1187675926864,0.0
0.011,2.707331041004775,-0.9832013674632948,10.0,0.0,3.402294691488966,6.608212186131834,150.93647643399504,167.1187675926864,0.0
0.012,2.82088583531422,-0.9893358415766158,10.0,0.0,3.821881369852047,7.004396305193032,164.0493813611131,167.1187675926864,0.0
0.013000000000000001,2.9253583567591686,-0.9894968536635247,3.5274999605766677,0.0,4.239084158873367,6.6805892464320005,167.3188737607133,167.1187675926864,0.0
0.014,2.7752141003437094,-0.8742147033382526,1.8907526990962937,0.0,4.569503316459803,6.333126567500746,168.60303724676427,167.1187675926864,0.0
0.015,2.530154750576505,-0.7131764876176803,1.2338282595300292,0.0,4.81557290816846,6.023012942394014,168.79060821219147,167.1187675926864,0.0
0.016,2.275055543801505,-0.5500093715540093,1.1233243706213791,0.0,4.989686177585778,5.788541774832109,168.1868317493671,167.1187675926864,0.0
0.017,2.0561586043145623,-0.40807418948530677,1.4145319604667645,0.0,5.108959804438257,5.64959459601602,167.7246514991746,167.1187675926864,0.0
0.018000000000000002,1.8958904733583066,-0.29902750566989655,1.6395632464981271,0.0,5.191835567324868,5.573751388342101,167.25039435020096,167.1187675926864,0.0
0.019,1.7890325847900548,-0.2198660096504012,1.875375553409799,0.0,5.251222135431437,5.547620805057153,166.8820474727023,167.1187675926864,0.0
0.02,1.726337440742781,-0.16532854862023283,2.061916193358966,0.0,5.29684948264573,5.554031171196164,166.36295464464104,167.1187675926864,0.0
0.021,1.696664021188038,-0.12823441719012102,2.329020736870057,0.0,5.335020151905484,5.594516453539979,166.2762504115682,167.1187675926864,0.0
0.022,1.694959676530523,-0.10441368836213266,2.38079802521765,0.0,5.371172943616867,5.637685474575292,166.043396300704,167.1187675926864,0.0
0.023,1.7063610703194914,-0.08780722774147481,2.507978793569586,0.0,5.406438854880652,5.6923537875500925,165.86839729851502,167.1187675926864,0.0
0.024,1.728351792642199,-0.07570831208832901,2.6079819976057843,0.0,5.4424801901998965,5.75250543959664,165.6860419999687,167.1187675926864,0.0
0.025,1.757275821806546,-0.06614624664240498,2.7134869028061246,0.0,5.4800017191493495,5.817889831517283,165.51481975423175,167.1187675926864,0.0
0.026000000000000002,1.7914311292097032,-0.0581121732112001,2.815137504059142,0.0,5.519521406972954,5.887146610703933,165.35128090597226,167.1187675926864,0.0
0.027,1.8295989105469426,-0.05083415523324519,2.9145817950560295,0.0,5.5612945626895955,5.959495143878341,165.19124931897397,167.1187675926864,0.0
0.028,1.8709624558943245,-0.04385288761110806,3.013872771292297,0.0,5.6054300968933575,6.03454539160815,165.03275920162903,167.1187675926864,0.0
0.029,1.9150479725995535,-0.036905768427356156,3.11397791387534,0.0,5.651962732015735,6.112087052523027,164.87492218816598,167.1187675926864,0.0
0.03,1.9616004994259262,-0.029853357834379812,3.2153348746520702,0.0,5.700889975743974,6.191996102334417,164.7173083377675,167.1187675926864,0.0
0.031,2.01049289846982,-0.022627450011500017,3.3181563924005046,0.0,5.752191074325938,6.2741911302554865,164.55969551578667,167.1187675926864,0.0
0.032,2.0616695807411674,-0.01519844070983456,3.422553524159912,0.0,5.805836633896861,6.358611723499287,164.40195347024968,167.1187675926864,0.0
0.033,2.1151138710770687,-0.0075562140032128244,3.528592688152775,0.0,5.861793341990358,6.4452080449831834,164.24398861942984,167.1187675926864,0.0
0.034,2.1708299259872597,0.00030050802282444167,3.6363229032952593,0.0,5.920026194267098,6.533936014017025,164.08571741628285,167.1187675926864,0.0
0.035,2.2288330946676993,0.008369871829356113,3.7457890066327924,0.0,5.980499495421089,6.624755252585112,163.92705345042253,167.1187675926864,0.0
0.036000000000000004,2.2891449767921994,0.01664984032804806,3.8570381309855875,0.0,6.0431772874197005,6.7176283647103325,163.8540991726887,167.1187675926864,0.0
0.037,2.351875684336368,0.02528768881192356,3.9261619540524784,0.0,6.108007247782732,6.807675815108105,168.13864530121492,167.1187675926864,0.0
0.038,2.404867282428085,0.018531859342145518,1.7736901127040854,0.0,6.176188476875753,6.652536607008766,169.81412501187165,167.1187675926864,0.0
0.039,2.3616957406202768,0.036021101756945395,0.9089966831838674,0.0,6.220046287289213,6.451416669374702,170.4856989115847,167.1187675926864,0.0
0.04,2.2664332407212724,0.06838796859793494,0.5395404201383576,0.0,6.236020859969555,6.2528484114763945,170.63913298560846,167.1187675926864,0.0
0.041,2.154133688153168,0.10211793908812683,0.42761972919726254,0.0,6.227154521506527,6.078518049046392,170.55906001172306,167.1187675926864,0.0
0.042,2.0467495070468003,0.12899274707386754,0.43325329194959217,0.0,6.199122851473268,5.933162252221271,170.3946524063299,167.1187675926864,0.0
0.043000000000000003,1.9542520614807501,0.14586003754822718,0.4826982465097398,0.0,6.157772114888502,5.814022354650631,170.2186881631992,167.1187675926864,0.0
0.044,1.8789081282531646,0.1528275013803847,0.5396811623699582,0.0,6.108044714088355,5.715797902576976,170.0610853262596,167.1187675926864,0.0
0.045,1.818999465333667,0.15158643442817876,0.5890594035040349,0.0,6.05367380016392,5.633121446585685,169.92933785795435,167.1187675926864,0.0
0.046,1.771310693883704,0.14429060584205067,0.6268274350039729,0.0,5.997262462507754,5.561582924085036,169.82068047751417,167.1187675926864,0.0
0.047,1.7325256385850838,0.13295060048369278,0.6541369963757844,0.0,5.9405128486706955,5.497972959873081,169.72881208880108,167.1187675926864,0.0
0.048,1.6998634338800782,0.1191847925415166,0.673970745771185,0.0,5.884478038616204,5.440162639482958,169.64722173747185,167.1187675926864,0.0
0.049,1.67126177731671,0.10417640701828612,0.6894813799879433,0.0,5.829778941856283,5.386857262571207,169.5705460164302,167.1187675926864,0.0
0.05,1.645330360051331,0.0887289232641143,0.7033014562713318,0.0,5.776768356438906,5.337344055057202,169.49489081515728,167.1187675926864,0.0
0.051000000000000004,1.6212140129786468,0.07335427064500322,0.7173678246830844,0.0,5.725644245762426,5.291283693520662,169.4176824229928,167.1187675926864,0.0
0.052000000000000005,1.5984418067309458,0.05835958857724399,0.7329828724622529,0.0,5.676522178501202,5.248557727858235,169.33736119764936,167.1187675926864,0.0
0.053,1.5767969290802992,0.0439182374479008,0.7509575490843501,0.0,5.629478323203409,5.2091664304656655,169.2530717791149,167.1187675926864,0.0
0.054,1.5562181967985051,0.03012183772701804,0.7717592164872991,0.0,5.584572914154141,5.173165525705168,169.1644154722074,167.1187675926864,0.0
0.055,1.5367320051813156,0.01701533562507318,0.7956308911458367,0.0,5.541861706767756,5.140629731809273,169.07126569297958,167.1187675926864,0.0
0.056,1.5184087008770377,0.004619045935534194,0.8226807997568124,0.0,5.50140056757525,5.111633871322252,168.97362684481644,167.1187675926864,0.0
0.057,1.501336710499106,-0.007058415373109694,0.8529516313170835,0.0,5.463246514100348,5.086245461248733,168.8716132239809,167.1187675926864,0.0
0.058,1.4856085951637614,-0.018013743744936472,0.8864299854219133,0.0,5.427457336473399,5.064519770254111,168.76538658069916,167.1187675926864,0.0
0.059000000000000004,1.471313518056871,-0.028245420043320646,0.9230771171826504,0.0,5.394090438618786,5.0464993088772925,168.65513994131464,167.1187675926864,0.0
0.06,1.4585339882348562,-0.037752419522657066,0.9628367133886246,0.0,5.363201637591694,5.0322140856271,168.54109534335953,167.1187675926864,0.0
0.061,1.4473447127137853,-0.04653393566715647,1.0056357348594505,0.0,5.334844091123396,5.021681826008045,168.42350680543086,167.1187675926864,0.0
0.062,1.437812298894108,-0.05458951316223115,1.05138261169634,0.0,5.3090673717030334,5.014907876706367,168.30266484871999,167.1187675926864,0.0
0.063,1.429995162623419,-0.06191931686391383,1.0999646174914421,0.0,5.285916651926774,5.011884763113494,168.17890568590505,167.1187675926864,0.0
0.064,1.4239432891271808,-0.06852455750619257,1.1512428179667231,0.0,5.26543197120249,5.0125912056184925,168.05269579262756,167.1187675926864,0.0
0.065,1.4196972269695103,-0.0744087638972184,1.2050084826060565,0.0,5.247647613097723,5.016986525008517,167.92590328289572,167.1187675926864,0.0
0.066,1.417281505043062,-0.07958491609754637,1.2603333805698846,0.0,5.2325917574205585,5.024935227569022,167.79527938383794,167.1187675926864,0.0
0.067,1.4167020770933139,-0.08402117109682117,1.3188802121872596,0.0,5.220272584095081,5.036509956659242,167.66229239649678,167.1187675926864,0.0
0.068,1.4180033236618965,-0.08775367492270192,1.3799384578197333,0.0,5.210709013882026,5.0516773028092485,167.5227983055903,167.1187675926864,0.0
0.069,1.4212432325322908,-0.0907666591065287,1.445645196143935,0.0,5.203912638527239,5.070645338572229,167.3899951192425,167.1187675926864,0.0
0.07,1.4265068584992455,-0.09316908590966738,1.509334514052267,0.0,5.199926841390735,5.092839091042446,167.25444127436904,167.1187675926864,0.0
0.07100000000000001,1.4336870458803108,-0.0948674080189541,1.5757546996721756,0.0,5.198721790378894,5.11834703143885,167.1148368917681,167.1187675926864,0.0
0.07200000000000001,1.4427964540294542,-0.09587192615112078,1.6455961979818263,0.0,5.200281552281323,5.147271802629697,166.96701533901742,167.1187675926864,0.0
0.073,1.4539096922858534,-0.09622073678381982,1.7210244968938586,0.0,5.20460613910087,5.179927408662215,166.83053274310828,167.1187675926864,0.0
0.074,1.467197270610241,-0.09599402271543828,1.7921481433442117,0.0,5.211735401187864,5.215468729660738,166.70024517388126,167.1187675926864,0.0
0.075,1.482441479175466,-0.09513035933625352,1.861477152145774,0.0,5.221613133334987,5.253539812112844,166.56661886946497,167.1187675926864,0.0
0.076,1.4994591072075283,-0.09358561896210382,1.9338117915861293,0.0,5.234148915705239,5.294335582787001,166.42491840190903,167.1187675926864,0.0
0.077,1.5182056433168647,-0.09153532842895268,2.0116005172718774,0.0,5.249300612350979,5.338246825370091,166.13925051066403,167.1187675926864,0.0
0.078,1.538740094180524,-0.08929995882666553,2.1642296337146005,0.0,5.267102875839534,5.3932221046773785,165.99409030381176,167.1187675926864,0.0
0.079,1.5647858804989077,-0.0867387965584977,2.2480565100294805,0.0,5.288363066756488,5.449515055646617,165.91505188799582,167.1187675926864,0.0
0.08,1.5930293779585474,-0.08438460651852242,2.2996128749843585,0.0,5.312893184396952,5.504291335135137,165.78016461029017,167.1187675926864,0.0
0.081,1.621852613276912,-0.08096585559661906,2.3804425436611423,0.0,5.340095397521214,5.561530577433327,165.6452013785653,167.1187675926864,0.0
0.082,1.6520638120627558,-0.07671685868608558,2.4626598216647873,0.0,5.369868111411925,5.620966721194494,165.4976514112949,167.1187675926864,0.0
0.083,1.6838981325503148,-0.07181288142364378,2.552645967113906,0.0,5.402110220759926,5.6833131619222135,165.34681262506697,167.1187675926864,0.0
0.084,1.7177462783987034,-0.06646721255601451,2.6457849099040613,0.0,5.436823779443078,5.748589638925936,165.19476694054907,167.1187675926864,0.0
0.085,1.7537638654789962,-0.060850221335639,2.741047758684385,0.0,5.474029217612723,5.81673389491519,165.04542546865963,167.1187675926864,0.0
0.08600000000000001,1.7920501403782305,-0.054976958874113246,2.8364519158693744,0.0,5.513738648605768,5.8874747835569154,164.89708731622474,167.1187675926864,0.0
0.08700000000000001,1.8325665976391958,-0.04883357961824475,2.932837794851435,0.0,5.555934186270147,5.960686984000235,164.74890980443226,167.1187675926864,0.0
0.088,1.875276569976374,-0.042415274262021435,3.0306251286302177,0.0,5.600586810415796,6.036297333707026,164.60057539406648,167.1187675926864,0.0
0.089,1.9201665747273904,-0.03572601454022187,3.129974255799305,0.0,5.647663571601724,6.114251640709278,164.45197404416373,167.1187675926864,0.0
0.09,1.967240034064615,-0.02877589223836366,3.230942866235906,0.0,5.697130466513297,6.194502068526645,164.30306163043502,167.1187675926864,0.0
0.091,2.0165099187516033,-0.02157728583740945,3.3335561327227743,0.0,5.7489533692343615,6.277002963540426,164.15380760350092,167.1187675926864,0.0
0.092,2.0679941324833298,-0.014142276327938297,3.43783274608168,0.0,5.803098206202669,6.361709789465926,164.0041754364325,167.1187675926864,0.0
0.093,2.121713199161864,-0.006481281408226736,3.543794751178435,0.0,5.859530882720618,6.448579215725439,163.8541160979353,167.1187675926864,0.0
0.094,2.177689335292245,0.0013975419264095346,3.6514709353745394,0.0,5.918217173595113,6.537569542913843,163.70356633944564,167.1187675926864,0.0
0.095,2.2359462159899928,0.0094885007196496,3.760897827151777,0.0,5.979122650867089,6.6286411672089445,163.55244848100176,167.1187675926864,0.0
0.096,2.2965090330441122,0.017788399132901908,3.8721199474905643,0.0,6.042212663603852,6.72175700005225,164.21537547879518,167.1187675926864,0.0
0.097,2.3596641947609647,0.026782253109977644,3.569690369732766,0.0,6.107398933397923,6.771149336509843,168.1249150714416,167.1187675926864,0.0
0.098,2.3951729809487055,0.021269180041587607,1.604859098622009,0.0,6.171702186435642,6.605739507392995,169.61821306291654,167.1187675926864,0.0
0.099,2.3420889093064043,0.041050077451244525,0.8332156481822341,0.0,6.2108031018121554,6.40426285539687,170.18590086019967,167.1187675926864,0.0
0.1,2.2432518489692734,0.0737939853796021,0.5187004168655376,0.0,6.222442239553383,6.210304955118229,170.2951938040152,167.1187675926864,0.0
0.101,2.1316896680153903,0.10637988924521471,0.43228968284447644,0.0,6.210264663146688,6.041830199513981,170.20238645798992,167.1187675926864,0.0
0.10200000000000001,2.0271273134953955,0.13146110679519407,0.44785716720408897,0.0,6.180024293928398,5.9019479296369175,170.04085966279385,167.1187675926864,0.0
0.10300000000000001,1.938016348199472,0.14650765445782515,0.499399644101048,0.0,6.137415426576842,5.787300430078153,169.87443332745937,167.1187675926864,0.0
0.10400000000000001,1.8657987526027557,0.15195003811605268,0.5550561544205572,0.0,6.087154499278785,5.692516410968964,169.72825379609404,167.1187675926864,0.0
0.105,1.8084218550806062,0.14958570654250963,0.6020510580691478,0.0,6.0327557631092885,5.612386858110508,169.60756063278563,167.1187675926864,0.0
0.106,1.7626220394273548,0.1415515530657698,0.6375097093223565,0.0,5.9766440588376,5.5427251002689495,169.50874725134304,167.1187675926864,0.0
0.107,1.7251716511608044,0.12978746990564205,0.6630166034570883,0.0,5.920391056821773,5.480531064179458,169.42538813849265,167.1187675926864,0.0
0.108,1.693423002434928,0.11582901563287337,0.6816299544242201,0.0,5.864961740536979,5.423841378639548,169.3511555013829,167.1187675926864,0.0
0.109,1.665443175216473,0.10078525679367928,0.6964223938921348,0.0,5.810921616256262,5.371479059363721,169.28095669718672,167.1187675926864,0.0
0.11,1.6399471843111244,0.08540175100215025,0.7098999049452148,0.0,5.758591020524708,5.322808322135968,169.2111523401355,167.1187675926864,0.0
0.111,1.6161567211391714,0.07014918705198764,0.7238782359963367,0.0,5.708150357620136,5.2775364314027895,169.13936948562556,167.1187675926864,0.0
0.112,1.5936524092463806,0.055307444844798326,0.7395636443219118,0.0,5.659706637935994,5.235570844734261,169.06419061533484,167.1187675926864,0.0
0.113,1.5722494582568696,0.041033050773572666,0.757698849240791,0.0,5.613332497479176,5.19692474471191,168.98485320490227,167.1187675926864,0.0
0.114,1.5519050119926303,0.02740793010834397,0.7787066983349185,0.0,5.569087180398265,5.161659211576448,168.9010179278449,167.1187675926864,0.0
0.115,1.5326549034425245,0.014471860861261177,0.8028018335120208,0.0,5.527026558122429,5.129850153902852,168.8125831880848,167.1187675926864,0.0
0.116,1.5145735458839023,0.002242762079614713,0.8300810474380813,0.0,5.487206932480326,5.101572150195075,168.719577051705,167.1187675926864,0.0
0.117,1.497750562032901,-0.00927180116149856,0.8605760210378022,0.0,5.449685780000362,5.076891353898599,168.62212359136655,167.1187675926864,0.0
0.11800000000000001,1.482278132089401,-0.02006878469012907,0.8942691912202219,0.0,5.414521185694486,5.055861558423115,168.5203902126189,167.1187675926864,0.0
0.11900000000000001,1.468244361417008,-0.03014661646219141,0.9311196543947162,0.0,5.381770662931288,5.0385238927864915,168.41457452712459,167.1187675926864,0.0
0.12,1.4557304866272511,-0.039504129331168314,0.9710694277974947,0.0,5.351489973978614,5.024907100399922,168.30490324264147,167.1187675926864,0.0
0.121,1.4448099263206788,-0.048140380205296984,1.0140437135395006,0.0,5.323732087150015,5.0150277149401585,168.19163559089753,167.1187675926864,0.0
0.122,1.435548045982511,-0.05605481410426305,1.0599488594293591,0.0,5.298546275678447,5.008889903768109,168.07506790458484,167.1187675926864,0.0
0.123,1.4280020608890418,-0.06324754411921851,1.1086696994667204,0.0,5.275977320199484,5.006484973068218,167.95554530826774,167.1187675926864,0.0
0.124,1.4222207438994383,-0.06971982360105333,1.1600632204694554,0.0,5.256064790641281,5.007790203818271,167.8335815406022,167.1187675926864,0.0
0.125,1.4182431569611316,-0.07547560935144293,1.2138969648230642,0.0,5.238842450751629,5.012761156599684,167.71183710730088,167.1187675926864,0.0
0.126,1.4160896622230366,-0.08053115964846425,1.2688384863275846,0.0,5.22433799280425,5.02121511858776,167.58759637315666,167.1187675926864,0.0
0.127,1.4157474678989799,-0.08484946526537396,1.3262705655949936,0.0,5.212553834965306,5.033157458514924,167.450544651204,167.1187675926864,0.0
0.128,1.4172577345988218,-0.0884078874959906,1.3914786559861398,0.0,5.203490570292173,5.049156166535607,167.32008742283224,167.1187675926864,0.0
0.129,1.4208326447138548,-0.09136123806982133,1.4546940718705652,0.0,5.197222787229238,5.06857215468463,167.19108600021437,167.1187675926864,0.0
0.13,1.426364865819754,-0.09366241946309917,1.5184715991042232,0.0,5.193746977735021,5.091230344328816,167.05914432319173,167.1187675926864,0.0
0.131,1.4337944379504441,-0.09525575823379162,1.5850386703104888,0.0,5.193036823605485,5.117197805896196,166.92268165639294,167.1187675926864,0.0
0.132,1.4431482365803816,-0.09615910271425399,1.6552308630728194,0.0,5.195077865550785,5.146598354257692,166.77814845584712,167.1187675926864,0.0
0.133,1.454516002874911,-0.09641309583406288,1.7309036547141234,0.0,5.199873763936082,5.179728120824391,166.64840221243827,167.1187675926864,0.0
0.134,1.468062272563143,-0.09610406383369507,1.8004804302210278,0.0,5.20746651568828,5.215544805959535,166.5207007704864,167.1187675926864,0.0
0.135,1.483500254160921,-0.09513805812866571,1.870311819418963,0.0,5.21777849047122,5.253962067534215,166.3913794920627,167.1187675926864,0.0
0.136,1.5007137851114507,-0.09350521193451367,1.9422463396370513,0.0,5.23073104090903,5.295044175173152,166.24391224265764,167.1187675926864,0.0
0.137,1.5196092484757002,-0.09142267134262227,2.0247285178398657,0.0,5.246283796063787,5.339760655831541,165.9303718617297,167.1187675926864,0.0
