timestamp,iq,id,iq_ref,id_ref,vq,vd,omega,omega_ref,r
0.0,0.0,0.0,0.0,0.0,0.0,0.0,0.0,109.2065264802436,0.0
0.001,0.0,0.0,10.0,0.0,0.0,1.0999999999999999,9.65858748056536,109.2065264802436,0.0
0.002,0.32257553803766625,-0.19416113797538903,10.0,0.0,0.13135772517729272,1.9545166908158562,19.466231040815813,109.2065264802436,0.0
0.003,0.6718618145860044,-0.3737215032570182,10.0,0.0,0.35284137571966717,2.7015217500279163,28.658000240389132,109.2065264802436,0.0
0.004,0.9779758158677776,-0.5285828270823895,10.0,0.0,0.6421163090969849,3.3657949909974954,38.18886485047914,109.2065264802436,0.0
0.005,1.2320333630629479,-0.6558382677668937,10.0,0.0,0.98134055847057,3.9676832110291977,48.02690268990345,109.2065264802436,0.0
0.006,1.441693024412064,-0.7569091388051687,10.0,0.0,1.3566764463173324,4.522783046718637,57.9854560889774,109.2065264802436,0.0
0.007,1.6159934508597147,-0.8370324430404998,10.0,0.0,1.757791583703866,5.0428300373280575,68.00399468828194,109.2065264802436,0.0
0.008,1.7629518123991326,-0.9012861652925196,10.0,0.0,2.1770665828180578,5.536561427110331,78.07265329857643,109.2065264802436,0.0
0.009000000000000001,1.8891522983924853,-0.9534752959676844,10.0,0.0,2.608885488150805,6.010434707981922,88.13186986404524,109.2065264802436,0.0
0.01,1.9996855851378992,-0.9963944817567811,10.0,0.0,3.0491090501674862,6.469205894617566,98.1454997819706,109.2065264802436,0.0
0.011,2.0983419180075575,-1.0321550281229226,7.353397217945219,0.0,3.4946918428884484,6.625249149017083,105.42253570077398,109.2065264802436,0.0
0.012,2.103621340808529,-1.0113218782794784,3.7527191663382267,0.0,3.9086714298308247,6.441043626213107,108.97003950043937,109.2065264802436,0.0
0.013000000000000001,1.9808871663467562,-0.9205798576415726,1.9813321363035725,0.0,4.253059215026831,6.171364375014831,110.81438717473223,109.2065264802436,0.0
0.014,1.799582152501085,-0.8038744835228139,1.0430796922122547,0.0,4.524110125636725,5.896314138684692,111.78894637294094,109.2065264802436,0.0
0.015,1.6100428225171886,-0.6851951857102522,0.5299758941809269,0.0,4.728663252534422,5.647851399865795,112.2037365975308,109.2065264802436,0.0
0.016,1.4375200580348173,-0.5769984497088732,0.2926086807131223,0.0,4.877199944878433,5.440793002910633,112.18299301407266,109.2065264802436,0.0
0.017,1.2931587624369172,-0.4846172145456237,0.27321580710390236,0.0,4.98109715978458,5.283689085793999,111.81695200530557,109.2065264802436,0.0
0.018000000000000002,1.1803577498111033,-0.4115245442125345,0.4301320562368318,0.0,5.0517778801034465,5.1811044964532185,111.465802728366,109.2065264802436,0.0
0.019,1.0999682502366794,-0.35782189590178937,0.5831139322253907,0.0,5.099955704845495,5.11882011677274,111.14916581858975,109.2065264802436,0.0
0.02,1.046575607973968,-0.3194195344525858,0.722005993730054,0.0,5.133400075868986,5.086399561193296,110.8385697595111,109.2065264802436,0.0
0.021,1.0138222384462932,-0.2925659860240487,0.8609835904767031,0.0,5.157688087519537,5.077533057526651,110.56277438911937,109.2065264802436,0.0
0.022,0.9964304174143194,-0.27488698733857053,0.9853187965838122,0.0,5.176984493267249,5.085854668714281,110.45908984586184,109.2065264802436,0.0
0.023,0.9903771984030543,-0.2635213131974282,1.0246354345563942,0.0,5.194109985390285,5.098847173354748,110.4025176741651,109.2065264802436,0.0
0.024,0.9905042738227573,-0.25454049315557736,1.0409616084655509,0.0,5.20994794530187,5.113581179007475,110.30383616506163,109.2065264802436,0.0
0.025,0.994202518456007,-0.24584177361056336,1.0793292661691063,0.0,5.224808458838037,5.132077224538931,110.08474204939573,109.2065264802436,0.0
0.026000000000000002,1.0006477961614246,-0.23783899963639452,1.1800941683105333,0.0,5.239239207632025,5.16023818142811,109.40203624295901,109.2065264802436,0.0
0.027,1.0120572530651246,-0.23005459722017677,1.5194919739017365,0.0,5.254266720709488,5.2221616396190385,109.61666160767314,109.2065264802436,0.0
0.028,1.0316333792038495,-0.23386920249844392,1.4080779402703791,0.0,5.27448127890307,5.261706702237035,109.70844066976056,109.2065264802436,0.0
0.029,1.0498068834628593,-0.23210346255714293,1.3571692673314966,0.0,5.296396510092768,5.293029576518523,109.64511022959282,109.2065264802436,0.0
0.03,1.0647717550450473,-0.22732970506132621,1.3844486499218775,0.0,5.318745049666518,5.325457104473713,109.51294666512953,109.2065264802436,0.0
0.031,1.0790927172160065,-0.22178506556499422,1.44746623030466,0.0,5.341539315308773,5.362110216483975,109.37047212878618,109.2065264802436,0.0
0.032,1.0946802377908442,-0.21651826428850818,1.5170640419909127,0.0,5.36519556384238,5.402831609697578,109.24051366021013,109.2065264802436,0.0
0.033,1.112077714262617,-0.21178025300521153,1.5817034044792722,0.0,5.390089813615587,5.446502992993889,109.12567219128805,109.2065264802436,0.0
0.034,1.1310758986793246,-0.20743687448301235,1.6399326818298676,0.0,5.416431385216496,5.492139664300451,109.02139228259561,109.2065264802436,0.0
0.035,1.1512856742544026,-0.20326107357337836,1.6939239781525641,0.0,5.444286562473134,5.539170481989348,108.94121722874105,109.2065264802436,0.0
0.036000000000000004,1.1724578663418164,-0.1989900037176951,1.7366645975948698,0.0,5.473631244097968,5.5863184474365815,108.86173461740978,109.2065264802436,0.0
0.037,1.1941150316133546,-0.19437978584297982,1.779853821888844,0.0,5.5042918408373795,5.633838926720492,108.77597868939363,109.2065264802436,0.0
0.038,1.2161850017157736,-0.18945279555941086,1.8270372638054213,0.0,5.5361425590787965,5.682220579059286,108.68804546172743,109.2065264802436,0.0
0.039,1.2388130177244383,-0.18431737668130227,1.8761886878236824,0.0,5.569130744556195,5.731615578151258,108.59968071182224,109.2065264802436,0.0
0.04,1.2621070583083338,-0.17904401615478127,1.9264395204604867,0.0,5.603230895925913,5.782069908927497,108.5114217150946,109.2065264802436,0.0
0.041,1.2861264242271278,-0.17367023116449687,1.9775200664757997,0.0,5.638428082492617,5.833595983653171,108.42345674017216,109.2065264802436,0.0
0.042,1.310902292009878,-0.16821578698058404,2.029333251337736,0.0,5.674711906864893,5.886192662640693,108.33588285493715,109.2065264802436,0.0
0.043000000000000003,1.3364516707995222,-0.16269153624892246,2.081826630208301,0.0,5.7120738935600475,5.939851523004798,108.24876434943192,109.2065264802436,0.0
0.044,1.362784417346068,-0.15710362822666452,2.1349635042690336,0.0,5.7505061402469675,5.994559710027763,108.16214613690197,109.2065264802436,0.0
0.045,1.389906659419827,-0.1514555307937443,2.1887164139674278,0.0,5.790000569330093,6.0503016351806895,108.07605961363508,109.2065264802436,0.0
0.046,1.417822561743805,-0.14574907896154,2.2430643442669553,0.0,5.830548519292983,6.107060027127699,107.99052724683784,109.2065264802436,0.0
0.047,1.4465352853149438,-0.13998505448650245,2.297990519999632,0.0,5.872140535280354,6.164816534334313,107.90556637955522,109.2065264802436,0.0
0.048,1.4760475086251044,-0.13416351294628548,2.353480554647825,0.0,5.914766271064977,6.223552017144568,107.82119219408602,109.2065264802436,0.0
0.049,1.5063616890714366,-0.12828396478069093,2.409520990244001,0.0,5.958414446669348,6.283246635205363,107.73741520637249,109.2065264802436,0.0
0.05,1.5374801653474124,-0.1223454690017689,2.4661005968394796,0.0,6.0030728274653375,6.343880070804163,107.65424706479752,109.2065264802436,0.0
0.051000000000000004,1.5694052415495559,-0.11634671858876844,2.5232074617814266,0.0,6.048728236153967,6.405431386380868,107.5717180495411,109.2065264802436,0.0
0.052000000000000005,1.6021391389386146,-0.11028607888932307,2.580820053716658,0.0,6.095366552668594,6.467877949781443,109.53438830485601,109.2065264802436,0.0
0.053,1.627718876527287,-0.11748390413672738,1.5962063078130815,0.0,6.144438061046027,6.417373618363817,110.80889827047312,109.2065264802436,0.0
0.054,1.6137844741250553,-0.1152133087238385,0.9429276071022294,0.0,6.18323024169606,6.316600932946666,111.8096538577644,109.2065264802436,0.0
0.055,1.573176504742469,-0.1026737493671781,0.4165185396813811,0.0,6.206709290164272,6.182740056335114,112.19316383756485,109.2065264802436,0.0
0.056,1.5153204179706037,-0.08418595278732877,0.194897176207943,0.0,6.21254608409429,6.0514570027747485,112.27683827487049,109.2065264802436,0.0
0.057,1.454444338413825,-0.06715310163957722,0.12235683960885835,0.0,6.202982157614817,5.934240518455782,112.23826661194633,109.2065264802436,0.0
0.058,1.3988093011497655,-0.05488396188033773,0.11132526975390888,0.0,6.181473698489355,5.832812313906191,112.15408908057437,109.2065264802436,0.0
0.059000000000000004,1.3513076234401606,-0.04803438337984678,0.12393840943658296,0.0,6.151342502584017,5.745542679138073,112.05576984509278,109.2065264802436,0.0
0.06,1.3119472577443159,-0.04604396602647676,0.14460559352888236,0.0,6.115347012668536,5.669988770559002,111.95744443111026,109.2065264802436,0.0
0.061,1.2795783547806026,-0.04796105843062337,0.166259121011477,0.0,6.075626465224688,5.603732895697508,111.86610789669955,109.2065264802436,0.0
0.062,1.252757237428817,-0.052811366591156816,0.18533157405227496,0.0,6.03376674801269,5.544638622016497,111.78477590318663,109.2065264802436,0.0
0.063,1.230110560328664,-0.05973618813504089,0.20021507657930404,0.0,5.9908968024420135,5.490937188037452,111.71383119618473,109.2065264802436,0.0
0.064,1.2104704829753465,-0.06803428679605317,0.21061438292084267,0.0,5.947787250667774,5.4412479333094055,111.65209054368411,109.2065264802436,0.0
0.065,1.1929116068436754,-0.07716413127466515,0.2170290685367462,0.0,5.904941030504188,5.394553346832026,111.59769057094798,109.2065264802436,0.0
0.066,1.1767423305115716,-0.08672764413914269,0.22031741399776994,0.0,5.86267066167953,5.3501441997657935,111.54867273602926,109.2065264802436,0.0
0.067,1.1614737340641024,-0.09644539729947033,0.2214048688992707,0.0,5.821159732749708,5.307553519954174,111.50327966002244,109.2065264802436,0.0
0.068,1.146779693077251,-0.10612985874251679,0.22113387510489102,0.0,5.780508941958835,5.266493789908416,111.46006219649985,109.2065264802436,0.0
0.069,1.1324571862636215,-0.11566093975415004,0.22020724970362582,0.0,5.740768831539326,5.2268042702715825,111.4178902031577,109.2065264802436,0.0
0.07,1.1183916922072923,-0.12496581484665259,0.21917960914556045,0.0,5.701962005648142,5.1884098966271655,111.37592155970819,109.2065264802436,0.0
0.07100000000000001,1.1045294186439034,-0.13400335723964407,0.21846998007566842,0.0,5.664097505893938,5.151290690117373,111.3335553126957,109.2065264802436,0.0
0.07200000000000001,1.0908562563764161,-0.1427527106862333,0.218382815257395,0.0,5.627179588919372,5.115459887557621,111.2903814321794,109.2065264802436,0.0
0.073,1.0773825413183613,-0.15120524605630004,0.21913120599618297,0.0,5.591212668742525,5.0809489452195455,111.24613398029241,109.2065264802436,0.0
0.074,1.0641324837835524,-0.15935913898212556,0.22085885693918916,0.0,5.556203749217698,5.047797731972183,111.20065116752971,109.2065264802436,0.0
0.075,1.0511371615844773,-0.1672158903099243,0.22365901644767772,0.0,5.522163304037418,5.016048474000134,111.15384341628435,109.2065264802436,0.0
0.076,1.0384301161515108,-0.17477822808327814,0.22758972270995392,0.0,5.489105267219752,4.9857422951766575,111.10566911570182,109.2065264802436,0.0
0.077,1.026044769402123,-0.18204895088225764,0.23268544664663726,0.0,5.457046572331656,4.956917470812279,111.05611709476878,109.2065264802436,0.0
0.078,1.0140130575036768,-0.18903038253311183,0.23896555096790295,0.0,5.426006514749539,4.9296087484728375,111.00519467164962,109.2065264802436,0.0
0.079,1.0023648360567738,-0.19572419969694416,0.24644008061342326,0.0,5.396006096263202,4.903847277067097,110.95292022940455,109.2065264802436,0.0
0.08,0.9911277410683434,-0.2021314645566869,0.25511336424434594,0.0,5.367067433447857,4.879660825090501,110.89931948958343,109.2065264802436,0.0
0.081,0.9803272903503288,-0.20825274605739968,0.26498580406150807,0.0,5.339213260032868,4.857074066202706,110.84442490870259,109.2065264802436,0.0
0.082,0.9699870834030795,-0.21408824786613745,0.27605411021733883,0.0,5.312466520454553,4.836108773398179,110.78827779581134,109.2065264802436,0.0
0.083,0.9601290086793197,-0.2196378836099721,0.28831015350728784,0.0,5.286850030467352,4.81678380376675,110.73093269594335,109.2065264802436,0.0
0.084,0.950773400292646,-0.22490125611303913,0.30173864128428396,0.0,5.262386167133626,4.799114791497612,110.67246317383905,109.2065264802436,0.0
0.085,0.9419391073027837,-0.22987751599087008,0.3163140354004812,0.0,5.239096543767889,4.783113518742043,110.61296750080929,109.2065264802436,0.0
0.08600000000000001,0.9336434540120413,-0.23456510622606813,0.33199746170970346,0.0,5.217001627790263,4.768787012810393,110.55257307660075,109.2065264802436,0.0
0.08700000000000001,0.925902083919977,-0.238961448211241,0.3487342078504012,0.0,5.196120274533252,4.75613646786375,110.49144471783084,109.2065264802436,0.0
0.088,0.9187286813949497,-0.2430626753272932,0.36644920485948185,0.0,5.17646917367019,4.745155784872495,110.42984090775589,109.2065264802436,0.0
0.089,0.9121344641550172,-0.24686349391850204,0.3850179656218371,0.0,5.158062192368185,4.735827103678969,110.36858110219278,109.2065264802436,0.0
0.09,0.9061267987088557,-0.2503564608985923,0.4040273221839008,0.0,5.1409092592589225,4.728090835115477,110.30755944786623,109.2065264802436,0.0
0.091,0.9007029871299619,-0.2535216952971092,0.42352781967095077,0.0,5.125011238718275,4.721904403874581,110.25067747185963,109.2065264802436,0.0
0.092,0.8958506174252492,-0.25636165855089377,0.4415272977580872,0.0,5.110365120721531,4.717011273870151,110.191447434839,109.2065264802436,0.0
0.093,0.8915148160366932,-0.25880995741755264,0.46129310672244617,0.0,5.096935214766814,4.713565503727394,110.129976418814,109.2065264802436,0.0
0.094,0.8877253998978231,-0.26089931508547537,0.4827941153492471,0.0,5.084709068748099,4.711662250624137,110.06545922523901,109.2065264802436,0.0
0.095,0.8845340917149331,-0.26265731072607007,0.5064633846867858,0.0,5.073687697964716,4.711428467508922,109.99889746721138,109.2065264802436,0.0
0.096,0.8820033988385242,-0.2641196239896144,0.5318205538309239,0.0,5.063888360450734,4.712914984673947,109.93103529741747,109.2065264802436,0.0
0.097,0.8801760197019397,-0.2653065056262648,0.5585065505561413,0.0,5.055333542252048,4.716130509095663,109.86224315479737,109.2065264802436,0.0
0.098,0.8790738843732957,-0.2662264905483622,0.5863454551206522,0.0,5.0480450878404675,4.721067379884969,109.78316487372688,109.2065264802436,0.0
0.099,0.8786701111886469,-0.2669455767253423,0.6201182117210663,0.0,5.042049065579221,4.728251726031611,109.70884110929649,109.2065264802436,0.0
0.1,0.8791488881589411,-0.26751597658960696,0.6522569476457318,0.0,5.037426633282063,4.737258865524594,109.63757470649162,109.2065264802436,0.0
0.101,0.8804548632168587,-0.2678530576539053,0.6835796667856848,0.0,5.034198533082349,4.747888290098046,109.56502715431243,109.2065264802436,0.0
0.10200000000000001,0.8825053403135412,-0.2679118535361371,0.7162684361345903,0.0,5.032359282096356,4.7602020069011015,109.48902971006014,109.2065264802436,0.0
0.10300000000000001,0.8852978762094885,-0.2676950125100094,0.7514421259625721,0.0,5.03191088741757,4.774355970935257,109.4051332519829,109.2065264802436,0.0
0.10400000000000001,0.8888855093360115,-0.2672316331880991,0.7914042872837962,0.0,5.032873925294928,4.790727085660213,109.29971423244041,109.2065264802436,0.0
0.105,0.8933729179918308,-0.26664216029094445,0.8431819195330756,0.0,5.035317562631581,4.810395572013745,109.19591646571088,109.2065264802436,0.0
0.106,0.898839260439569,-0.2665989352822245,0.8951869030431667,0.0,5.039484824847932,4.8329879217465095,109.21980611410912,109.2065264802436,0.0
0.107,0.9053429099305816,-0.26694927201990326,0.8831092825053922,0.0,5.045533565107157,4.851228436613848,109.38455312994137,109.2065264802436,0.0
0.108,0.9109778142823992,-0.2659944209112122,0.7989555080922908,0.0,5.05269294583786,4.858558832056518,109.18212067628819,109.2065264802436,0.0
0.109,0.9144064594111128,-0.26042044195731706,0.9004157929584315,0.0,5.059265838865919,4.877553493186759,108.96860613458009,109.2065264802436,0.0
0.11,0.9199008132275341,-0.2566848061376939,1.0095522672691206,0.0,5.066725728553574,4.905726294363774,108.75134853588898,109.2065264802436,0.0
0.111,0.9283857303624646,-0.25563042748518233,1.1227328460582195,0.0,5.076178284096588,4.942307905968872,108.84424387045158,109.2065264802436,0.0
0.112,0.9404387879639824,-0.25616026356900046,1.0799080048748406,0.0,5.0884125710015535,4.969093086484879,108.87899382669927,109.2065264802436,0.0
0.113,0.9510186235323388,-0.25437534020002034,1.0658083532864366,0.0,5.101900307336199,4.992257213040389,108.87149808673087,109.2065264802436,0.0
0.114,0.9602450459877095,-0.25064459633990066,1.0729065072057666,0.0,5.115963150102005,5.014466385906415,108.77732052931042,109.2065264802436,0.0
0.115,0.9690828574537456,-0.24558995556908764,1.1242873454253242,0.0,5.130321922831651,5.040561941390667,108.66734333744422,109.2065264802436,0.0
0.116,0.9790833625280541,-0.24065779051689629,1.184667772786414,0.0,5.1453623820887175,5.070600179783469,108.16590712678016,109.2065264802436,0.0
0.117,0.9910151889335017,-0.23571214291879386,1.4457920716530825,0.0,5.16140791967409,5.126046013010565,108.29911569820031,109.2065264802436,0.0
0.11800000000000001,1.009387352292844,-0.23785938556579928,1.3882618937634374,0.0,5.1816791399907896,5.166710634411486,108.40821937269988,109.2065264802436,0.0
0.11900000000000001,1.026814764701158,-0.2364514404009266,1.3416931275890924,0.0,5.203813354021302,5.199055359472385,108.38678907582003,109.2065264802436,0.0
0.12,1.0413688093912197,-0.23226884297191905,1.360605650073249,0.0,5.226522612889311,5.231498427773419,108.3006555397986,109.2065264802436,0.0
0.121,1.0550882164716042,-0.22715442733338984,1.412731127488417,0.0,5.249684492954677,5.267149198090039,108.20038475713419,109.2065264802436,0.0
0.122,1.0696946992216845,-0.22209302220881688,1.4729279360517158,0.0,5.273589651637846,5.306181954517637,108.10653672784527,109.2065264802436,0.0
0.123,1.0857890695562185,-0.21738163475465044,1.5308518482201596,0.0,5.298539931526749,5.34784729751439,108.02254906611796,109.2065264802436,0.0
0.124,1.1033050002433917,-0.21296640848237686,1.5846854532250694,0.0,5.324723156711027,5.391417782956972,107.9456344122208,109.2065264802436,0.0
0.125,1.1219799285330978,-0.20869242432560875,1.6357517008538784,0.0,5.352219121926617,5.436449410757847,107.87546324057652,109.2065264802436,0.0
0.126,1.1415949120088946,-0.20441791139493623,1.6841479190726871,0.0,5.381041196819926,5.482569494928532,107.82491140983444,109.2065264802436,0.0
0.127,1.1620212648362989,-0.19995316917987987,1.7232399851478186,0.0,5.411144696126626,5.528725194281303,107.76432871921114,109.2065264802436,0.0
0.128,1.1828640627562097,-0.19516261323159506,1.7679533080697964,0.0,5.442371101705769,5.5757147742472135,107.69954043658821,109.2065264802436,0.0
0.129,1.204255487651431,-0.19015971543584362,1.8154173098178141,0.0,5.474671411525538,5.623757314978233,107.63348820667177,109.2065264802436,0.0
0.13,1.2263188961111335,-0.18502632061984803,1.864173807511751,0.0,5.508031299984634,5.67290114666537,107.56704578886875,109.2065264802436,0.0
0.131,1.2491178814382746,-0.17980248133180698,1.913789823327008,0.0,5.542446294393008,5.723149526491048,107.50047276544522,109.2065264802436,0.0
0.132,1.2726807380965912,-0.17450610985342993,1.9641368721867567,0.0,5.577914264873369,5.774492658612276,107.43388005019466,109.2065264802436,0.0
0.133,1.2970196341350495,-0.16914522940164342,2.0151596941125285,0.0,5.614433018382907,5.826915664495005,107.3673346974025,109.2065264802436,0.0
0.134,1.322139889439972,-0.16372349250881574,2.0668242883370205,0.0,5.651999414876071,5.880401283162697,107.30088152943419,109.2065264802436,0.0
0.135,1.3480440500842086,-0.15824253266344968,2.119107321829267,0.0,5.690609045372624,5.93493121223702,107.23455082046829,109.2065264802436,0.0
0.136,1.3747337016936212,-0.15270300226023575,2.171992432909973,0.0,5.730256166981055,5.990486823266929,107.16836374765687,109.2065264802436,0.0
