timestamp,iq,id,iq_ref,id_ref,vq,vd,omega,omega_ref,r
0.0,0.0,0.0,0.0,0.0,0.0,0.0,0.0,450.5897038243827,0.0
0.001,0.0,0.0,10.0,0.0,0.0,1.0999999999999999,4.848847043401824,450.5897038243827,0.0
0.002,0.4888271012875666,-0.278602603002494,10.0,0.0,0.14064628633027443,1.9362290188583675,10.52158391737023,450.5897038243827,0.0
0.003,1.0603399764826194,-0.6015985342527596,10.0,0.0,0.38359437232086224,2.644921619205345,16.544890670411686,450.5897038243827,0.0
0.004,1.5883394739550005,-0.8984906123516515,10.0,0.0,0.7025450790254646,3.254674952146673,22.769470397504254,450.5897038243827,0.0
0.005,2.031590165325676,-1.1462972350717637,10.0,0.0,1.0748658560719626,3.791870441388277,29.147209666525267,450.5897038243827,0.0
0.006,2.387710394340139,-1.343943782258851,10.0,0.0,1.4829371583013504,4.277837741132486,35.58469708905392,450.5897038243827,0.0
0.007,2.6695390960343035,-1.4987726896563842,10.0,0.0,1.9138527746240774,4.728575486229003,42.04447888541314,450.5897038243827,0.0
0.008,2.8935464785863734,-1.6203340206968373,10.0,0.0,2.3585740611646577,5.155508493384351,48.50206929020483,450.5897038243827,0.0
0.009000000000000001,3.0749947051061404,-1.7174016517463688,10.0,0.0,2.81097834587176,5.566501097386569,54.95773452414748,450.5897038243827,0.0
0.01,3.2262065236800925,-1.7971037014521316,10.0,0.0,3.2670380116655116,5.966816051681341,61.31501060440323,450.5897038243827,0.0
0.011,3.3565877823228427,-1.8644928142862303,10.0,0.0,3.724138988224059,6.359875656861046,67.68846989429986,450.5897038243827,0.0
0.012,3.4727646137812416,-1.9232960203551053,10.0,0.0,4.180630289183956,6.747863760304637,74.0123935242629,450.5897038243827,0.0
0.013000000000000001,3.5794144385079387,-1.9758461369389237,10.0,0.0,4.635463751155755,7.132132471094507,80.26743293375145,450.5897038243827,0.0
0.014,3.679690641979178,-2.023629528896289,10.0,0.0,5.087971409958834,7.513493772868002,86.44285631260787,450.5897038243827,0.0
0.015,3.775725567863618,-2.0674700598838127,10.0,0.0,5.537709057548008,7.892408630531878,92.45572647358894,450.5897038243827,0.0
0.016,3.869041389307397,-2.107618342644698,10.0,0.0,5.984342331938473,8.269101376088313,98.43747378676117,450.5897038243827,0.0
0.017,3.9605306353180767,-2.1443437875328617,10.0,0.0,6.427619869555623,8.643657515681413,104.31996727889538,450.5897038243827,0.0
0.018000000000000002,4.051028697631835,-2.17736329615696,10.0,0.0,6.867290158870138,9.016045900682515,110.11465110621707,450.5897038243827,0.0
0.019,4.141102881440207,-2.206456729333113,10.0,0.0,7.303102340316449,9.386159296519173,115.77271713304764,450.5897038243827,0.0
0.02,4.2313251657449396,-2.2311807271061386,10.0,0.0,7.734773348625068,9.75381886148136,121.26313758143424,450.5897038243827,0.0
0.021,4.322232287389003,-2.25104649669398,10.0,0.0,8.161981207275971,10.118782010240388,126.56722567805309,450.5897038243827,0.0
0.022,4.414345134503316,-2.2655575710879257,10.0,0.0,8.584362155425143,10.480746288022473,131.66545245185543,450.5897038243827,0.0
0.023,4.508189625912122,-2.2742173778434847,10.0,0.0,9.001508904536783,10.839350467257438,136.75140751835337,450.5897038243827,0.0
0.024,4.604144259006196,-2.27680574917452,10.0,0.0,9.412999519439609,11.194192338753814,141.52589676485508,450.5897038243827,0.0
0.025,4.7028868137149615,-2.2726540445088967,10.0,0.0,9.818342688775262,11.54479694990381,146.0553037672407,450.5897038243827,0.0
0.026000000000000002,4.804921209871541,-2.2614260354116706,10.0,0.0,10.217018438338313,11.890639058842236,150.3299113673071,450.5897038243827,0.0
0.027,4.910778960372177,-2.2427857506444147,10.0,0.0,10.608472672605474,12.231140523249618,154.01014640801895,450.5897038243827,0.0
0.028,5.021603036894067,-2.215424087664765,10.0,0.0,10.992008249806567,12.565605193730578,158.07854847559113,450.5897038243827,0.0
0.029,5.136297332737349,-2.1817323630748438,10.0,0.0,11.367204263260554,12.893468823106005,161.59873524199796,450.5897038243827,0.0
0.03,5.256537995141226,-2.139598282357613,10.0,0.0,11.733369206673688,13.213986160983294,165.03508024701773,450.5897038243827,0.0
0.031,5.381347722241358,-2.091214876730259,10.0,0.0,12.090068555721402,13.526541596057202,168.13055604701316,450.5897038243827,0.0
0.032,5.511259972868467,-2.0363293822825046,10.0,0.0,12.436799943038753,13.830469172230499,170.83346256112992,450.5897038243827,0.0
0.033,5.647123159885795,-1.9741051039699782,10.0,0.0,12.772955133571799,14.12503130145257,173.24300315438683,450.5897038243827,0.0
0.034,5.788933094113288,-1.9050230681898055,10.0,0.0,13.097974236821052,14.40951227591089,175.4190118994082,450.5897038243827,0.0
0.035,5.93683759749758,-1.8292558742494411,10.0,0.0,13.411295956215575,14.683195667218309,177.4728719549476,450.5897038243827,0.0
0.036000000000000004,6.0903465388156075,-1.7479310444901888,10.0,0.0,13.712465783467273,14.945435952823292,179.68221124361224,450.5897038243827,0.0
0.037,6.252655990263725,-1.6559436836452819,10.0,0.0,14.000437295158953,15.195250242346832,180.60462964189605,450.5897038243827,0.0
0.038,6.406940823457935,-1.5813747469588035,10.0,0.0,14.277310375206756,15.433532016950307,178.17596093912772,450.5897038243827,0.0
0.039,6.576819733869376,-1.48556680466957,10.0,0.0,14.540531140425177,15.658529090284905,180.39253212363863,450.5897038243827,0.0
0.04,6.752873924799479,-1.3832871178156414,10.0,0.0,14.789636850324172,15.86968136090968,182.5955740899863,450.5897038243827,0.0
0.041,6.930412388452572,-1.282165234468036,10.0,0.0,15.02484660599605,16.06686028636934,179.37857808371075,450.5897038243827,0.0
0.042,7.100239888534293,-1.1979029045888496,10.0,0.0,15.247995641193471,16.25093665447776,178.76124440346877,450.5897038243827,0.0
0.043000000000000003,7.2960056485443365,-1.073349185568873,10.0,0.0,15.45437912388859,16.419084330694794,184.60501009338324,450.5897038243827,0.0
0.044,7.436303923153072,-1.04501766357004,10.0,0.0,15.655068095706225,16.577580434952786,185.27484010786944,450.5897038243827,0.0
0.045,7.5150410411005035,-1.115774391312657,10.0,0.0,15.859604336039578,16.73303772573861,193.08258235789052,450.5897038243827,0.0
0.046,7.584725618554725,-1.191781968709595,10.0,0.0,16.066885947654402,16.886524979138684,200.6890765454318,450.5897038243827,0.0
0.047,7.61807147718195,-1.3184990796340545,10.0,0.0,16.281966929875484,17.042420469685794,201.88476972301785,450.5897038243827,0.0
0.048,7.642206052613123,-1.4502886412630533,10.0,0.0,16.50435904359911,17.201913164689135,208.3943735836985,450.5897038243827,0.0
0.049,7.669459792792808,-1.565191582015061,10.0,0.0,16.731782643317132,17.36493923589905,217.02227408224505,450.5897038243827,0.0
0.05,7.6771104531047545,-1.7031281812324401,10.0,0.0,16.96679048669074,17.533836024727268,223.1027811077088,450.5897038243827,0.0
0.051000000000000004,7.667424927524762,-1.8616303318575667,10.0,0.0,17.211243095186404,17.710485833426944,227.38616029086816,450.5897038243827,0.0
0.052000000000000005,7.651636409577021,-2.0211363919512784,10.0,0.0,17.464876068806518,17.895555803824664,232.1382478175701,450.5897038243827,0.0
0.053,7.639124739590722,-2.1639926055970724,10.0,0.0,17.725771865004504,18.08870047306364,240.4595346861171,450.5897038243827,0.0
0.054,7.614189160809294,-2.317022817092751,10.0,0.0,17.995297309634648,18.291238051964605,247.92703764131662,450.5897038243827,0.0
0.055,7.5786853275857045,-2.4767928504375667,10.0,0.0,18.274168369244848,18.50413048330528,255.18270713322443,450.5897038243827,0.0
0.056,7.534279499825509,-2.639664999433593,10.0,0.0,18.56275980208421,18.728150380194286,262.29598990666295,450.5897038243827,0.0
0.057,7.482011248688412,-2.802930823525505,10.0,0.0,18.86122460048869,18.96393288002581,269.37336891447535,450.5897038243827,0.0
0.058,7.4232441883077644,-2.9633792306882603,10.0,0.0,19.169437835582855,19.211925303845128,276.4693422188113,450.5897038243827,0.0
0.059000000000000004,7.35995614579018,-3.116950070698209,10.0,0.0,19.486917297879003,19.47231382286506,283.4976929498091,450.5897038243827,0.0
0.06,7.294410257993503,-3.2594933013546408,10.0,0.0,19.812831712819634,19.74498860344507,290.93703421448873,450.5897038243827,0.0
0.061,7.228355115117073,-3.3883904169476238,10.0,0.0,20.146175414732866,20.02959795429958,296.84523767019937,450.5897038243827,0.0
0.062,7.167836171948208,-3.4942272855760903,10.0,0.0,20.484998765933433,20.32507727257978,302.6586379609027,450.5897038243827,0.0
0.063,7.114557807850259,-3.57598876518659,10.0,0.0,20.827423107912832,20.630146424771095,307.90540522793674,450.5897038243827,0.0
0.064,7.072910655111773,-3.6291133473267863,10.0,0.0,21.171138020152735,20.942999499101475,312.4158852449841,450.5897038243827,0.0
0.065,7.0475825625579684,-3.649494984537138,10.0,0.0,21.513477482873434,21.261308375876347,316.0688992750901,450.5897038243827,0.0
0.066,7.04323289587203,-3.6339920039498823,10.0,0.0,21.85150474276284,21.582245493655716,318.77962276795614,450.5897038243827,0.0
0.067,7.064222152064155,-3.5807144418534382,10.0,0.0,22.1821174864165,21.902539310798087,320.4911923632221,450.5897038243827,0.0
0.068,7.114318158441339,-3.4892255451994854,10.0,0.0,22.50216733440807,22.21856435245202,321.13140018902163,450.5897038243827,0.0
0.069,7.196479782473028,-3.360519923088864,10.0,0.0,22.80857197230025,22.52645505616001,320.23630891183666,450.5897038243827,0.0
0.07,7.313206754694494,-3.196009889325424,10.0,0.0,23.098316169281137,22.822178802582364,319.3843192984356,450.5897038243827,0.0
0.07100000000000001,7.464922042449746,-2.999735909106011,10.0,0.0,23.368713283719664,23.10178318212972,317.9676841889653,450.5897038243827,0.0
0.07200000000000001,7.652420075529942,-2.7740217625311114,10.0,0.0,23.617165308348024,23.361359204404913,318.0403196610142,450.5897038243827,0.0
0.073,7.8631174292074935,-2.5419302321511443,10.0,0.0,23.84345680586504,23.598521098341703,316.2141662561595,450.5897038243827,0.0
0.074,8.097562127352878,-2.304198447478057,10.0,0.0,24.047005762013775,23.810914009377292,310.29397213372886,450.5897038243827,0.0
0.075,8.35328573641989,-2.06465071277625,10.0,0.0,24.227466180680725,23.996637374908282,301.4167475897595,450.5897038243827,0.0
0.076,8.638432636922976,-1.8080575224225175,10.0,0.0,24.382623120442204,24.153025522788194,296.40756524790123,450.5897038243827,0.0
0.077,8.959822803390452,-1.519177763814075,10.0,0.0,24.508692339472123,24.276789100549877,296.95710674758783,450.5897038243827,0.0
0.078,9.271238302304056,-1.2696411867347193,10.0,0.0,24.609970768482572,24.369741439222558,285.71349763356966,450.5897038243827,0.0
0.079,9.58830557390947,-1.0321461679598514,10.0,0.0,24.686787502164805,24.431763142041557,279.3589574499535,450.5897038243827,0.0
0.08,9.930919395137302,-0.7679279744828986,10.0,0.0,24.735435681666004,24.460747500327873,288.3532460692641,450.5897038243827,0.0
0.081,10.074040204556747,-0.8417167665342822,10.0,0.0,24.792876428106126,24.479381089911822,295.3066942392401,450.5897038243827,0.0
0.082,10.129633481559265,-1.032102557412745,10.0,0.0,24.86664100793676,24.497211342805297,307.93807890519,450.5897038243827,0.0
0.083,10.111939075835883,-1.3061963611950995,10.0,0.0,24.96305861558094,24.523137345792094,313.05862519300246,450.5897038243827,0.0
0.084,10.050008609361786,-1.6126158449609989,10.0,0.0,25.083392267935814,24.562747916499546,320.1802307427439,450.5897038243827,0.0
0.085,9.963435832595328,-1.917186672210066,10.0,0.0,25.226092208285685,24.619334496151296,329.1125910987884,450.5897038243827,0.0
0.08600000000000001,9.849372599996011,-2.225640571445106,10.0,0.0,25.391065033209117,24.696213639691134,338.36935094573465,450.5897038243827,0.0
0.08700000000000001,9.711318750977217,-2.5338343551841684,10.0,0.0,25.57804526721312,24.79594744243539,349.54925019575916,450.5897038243827,0.0
0.088,9.553871909824073,-2.8351516080836734,10.0,0.0,25.786363818072715,24.920344502342296,360.9045562924044,450.5897038243827,0.0
0.089,9.371503924691105,-3.140704370408336,10.0,0.0,26.016887851163744,25.071619721297548,370.9673968275906,450.5897038243827,0.0
0.09,9.177525493076434,-3.428639313501409,10.0,0.0,26.2681043189582,25.250333769292677,380.2789948787226,450.5897038243827,0.0
0.091,8.978663675888292,-3.688302578371849,10.0,0.0,26.537754154477547,25.45623307484228,387.95190692754556,450.5897038243827,0.0
0.092,8.782068003501498,-3.9098873057721315,10.0,0.0,26.822806624365235,25.68814433917953,394.1707437280078,450.5897038243827,0.0
0.093,8.597518500635747,-4.081384321619014,10.0,0.0,27.119193798167036,25.943704212663185,401.15804431453614,450.5897038243827,0.0
0.094,8.432015518136055,-4.1983350970452955,10.0,0.0,27.422647857075447,26.21970664922496,406.06596820196285,450.5897038243827,0.0
0.095,8.29846447727983,-4.24913343984859,10.0,0.0,27.72777506370328,26.51148983269057,408.4813008727113,450.5897038243827,0.0
0.096,8.209483476642854,-4.225274105691156,10.0,0.0,28.028435357829554,26.81305981813394,408.53876403197,450.5897038243827,0.0
0.097,8.174579379749847,-4.125300498862439,10.0,0.0,28.318428117677954,27.117488475097453,406.504307254618,450.5897038243827,0.0
0.098,8.20206900738965,-3.9506174136102414,10.0,0.0,28.591649063928394,27.417100642340134,402.64881223610723,450.5897038243827,0.0
0.099,8.297431003370415,-3.706493494145882,10.0,0.0,28.842402331989515,27.703858764202106,397.5468797968257,450.5897038243827,0.0
0.1,8.46165182092919,-3.4033412064160458,10.0,0.0,29.065850572975084,27.969905730712338,391.09170373544197,450.5897038243827,0.0
0.101,8.689713005178096,-3.0580811920166138,10.0,0.0,29.25861160780646,28.208248302578312,384.64888310576623,450.5897038243827,0.0
0.10200000000000001,8.979088464971333,-2.6795196111064987,10.0,0.0,29.4177416225852,28.412482032006054,379.93667390998,450.5897038243827,0.0
0.10300000000000001,9.32076143523097,-2.28242768102391,10.0,0.0,29.541487512328857,28.57751511783828,374.47176217318474,450.5897038243827,0.0
0.10400000000000001,9.67954299597082,-1.9214491485395322,10.0,0.0,29.63362540240891,28.702370242082868,359.7266490279514,450.5897038243827,0.0
0.105,10.084552802318454,-1.5444639336312358,10.0,0.0,29.691176427590342,28.78299037982014,347.3255530914256,450.5897038243827,0.0
0.106,10.523600906223493,-1.1597868665214062,10.0,0.0,29.712489738794353,28.81705841293576,343.7878170084433,450.5897038243827,0.0
0.107,10.975605478077778,-0.7909645075195888,10.0,0.0,29.698354833370438,28.804520951995304,340.5798650218167,450.5897038243827,0.0
0.108,11.322531961380188,-0.6272669357992067,10.0,0.0,29.670061163095646,28.75818187916178,350.61878743122054,450.5897038243827,0.0
0.109,11.442445548360396,-0.8191984143458448,10.0,0.0,29.662712390922305,28.703926116849317,363.4424391930024,450.5897038243827,0.0
0.11,11.422041105167128,-1.1876572158204013,10.0,0.0,29.689284073111793,28.657804678171832,371.4891691703704,450.5897038243827,0.0
0.111,11.336703050071383,-1.595432232275682,10.0,0.0,29.74975710700992,28.62813569320965,382.3998290191473,450.5897038243827,0.0
0.112,11.192111585836548,-2.0276796559608368,10.0,0.0,29.844685405462823,28.622532590648365,394.3610393636051,450.5897038243827,0.0
0.113,10.998785110225782,-2.467456918159415,10.0,0.0,29.973613588419305,28.64680262586333,406.49137797545006,450.5897038243827,0.0
0.114,10.766522141466147,-2.9005231683342965,10.0,0.0,30.135315471498892,28.705154137659918,418.6208604758843,450.5897038243827,0.0
0.115,10.503512459104625,-3.31563223527698,10.0,0.0,30.328013652312112,28.800449121956973,430.32585703142337,450.5897038243827,0.0
0.116,10.219368201802677,-3.69957599993933,10.0,0.0,30.549054236917154,28.934110197385223,441.05121368281476,450.5897038243827,0.0
0.117,9.925891999911752,-4.036739962793914,10.0,0.0,30.7946054688719,29.10595016336616,450.0541036589149,450.5897038243827,0.0
0.11800000000000001,9.63765510740133,-4.3094819425237,8.093966665146738,0.0,31.059415552370996,29.104268885267842,455.6306868451386,450.5897038243827,0.0
0.11900000000000001,9.280872714202102,-4.449206600867876,5.255265241827343,0.0,31.310218792330907,28.872403614439484,458.59998941646097,450.5897038243827,0.0
0.12,8.815099287640411,-4.410859756181781,3.6905111002453737,0.0,31.50713978171308,28.59273650633892,457.30993952699487,450.5897038243827,0.0
0.121,8.324398081994753,-4.218320138144235,4.268333687952303,0.0,31.635606071809715,28.489255632405623,453.64494865181535,450.5897038243827,0.0
0.122,7.955636389214106,-3.9467610432256093,6.070276677267733,0.0,31.712931541242682,28.637061751972343,448.87536609061385,450.5897038243827,0.0
0.123,7.8086874533182025,-3.6588050214452457,8.472211335206172,0.0,31.76834550424236,29.036489955026514,444.07158388166795,450.5897038243827,0.0
0.124,7.923101145279754,-3.3923481682796828,10.0,0.0,31.831730197617095,29.53149914514846,438.23154539895654,450.5897038243827,0.0
0.125,8.240537752442735,-3.136834484510107,10.0,0.0,31.912835403983536,29.934294109079406,427.1951723167357,450.5897038243827,0.0
0.126,8.658702736608179,-2.835253514532076,10.0,0.0,31.99549081624655,30.26209631506735,414.56111146016065,450.5897038243827,0.0
0.127,9.13854991974176,-2.475067526374197,10.0,0.0,32.06605625888447,30.516782301379763,403.47146764496654,450.5897038243827,0.0
0.128,9.656081191272836,-2.0704394980990566,10.0,0.0,32.11412653266116,30.700926265287634,394.3732903823764,450.5897038243827,0.0
0.129,10.19141187762473,-1.6498851721408552,10.0,0.0,32.133589479878296,30.81775179739899,387.3861048574999,450.5897038243827,0.0
0.13,10.713940951857182,-1.266073440253896,10.0,0.0,32.1247749383369,30.872716179718875,370.39724182254434,450.5897038243827,0.0
0.131,11.257213672780644,-0.866315141748915,10.0,0.0,32.08220299366493,30.866767961093373,357.7336299491649,450.5897038243827,0.0
0.132,11.802184856342139,-0.47628621020023143,10.0,0.0,32.00438782211232,30.802643266880715,378.58754611310803,450.5897038243827,0.0
0.133,12.002926518366491,-0.6426553991644663,10.0,0.0,31.95014259839525,30.720517653946978,387.26853228818527,450.5897038243827,0.0
0.134,12.019611036692464,-1.0405128794527707,10.0,0.0,31.93520996669858,30.64135219953929,397.7489402810019,450.5897038243827,0.0
0.135,11.944249489245662,-1.5006198675773446,10.0,0.0,31.96048724662163,30.57706664280512,410.4161072449859,450.5897038243827,0.0
0.136,11.786136713978165,-2.000401661688257,10.0,0.0,32.027183170349915,30.538376159541645,423.556149659104,450.5897038243827,0.0
0.137,11.565371815809753,-2.507394978008681,10.0,0.0,32.13411190023316,30.532927328023177,437.05723499899835,450.5897038243827,0.0
0.138,11.293869655536831,-3.0049972915030985,10.0,0.0,32.27946919529741,30.566373841293213,450.38000198876006,450.5897038243827,0.0
0.139,10.983499402813887,-3.4775542239737653,8.22459839543819,0.0,32.46064065161908,30.44714296243768,461.9932782268603,450.5897038243827,0.0
0.14,10.561893139024054,-3.8612903703119263,2.3039245323632915,0.0,32.6492572811955,29.76770519469688,468.581238635294,450.5897038243827,0.0
0.14100000000000001,9.83514867730745,-4.016488088959602,-1.169971019962686,0.0,32.76430285862808,28.92787692271364,469.68771610046116,450.5897038243827,0.0
0.14200000000000002,8.92402373019229,-3.9682056287786285,-1.914189875307036,0.0,32.77699800331269,28.22936721667287,467.2321484734529,450.5897038243827,0.0
0.14300000000000002,8.03687913471935,-3.8020568208374574,-0.8528305082936214,0.0,32.70077911865303,27.814644370660403,464.1110315050121,450.5897038243827,0.0
0.14400000000000002,7.339190257895285,-3.5949808687144813,0.5725146991205072,0.0,32.56959297120399,27.647820630424576,459.7337939175675,450.5897038243827,0.0
0.145,6.892298172400918,-3.373924271167372,2.669692591910959,0.0,32.412597598267325,27.74317800623637,453.65958534255805,450.5897038243827,0.0
0.146,6.72517251902668,-3.1626668689762836,5.676098064233923,0.0,32.25980975193995,28.136947831217164,447.16692896875145,450.5897038243827,0.0
0.147,6.8605372766745365,-2.9861040440634325,8.956653999693534,0.0,32.14436833602489,28.79029760736946,442.22405302171904,450.5897038243827,0.0
0.148,7.280992767710004,-2.8550859319360327,10.0,0.0,32.09315967523166,29.403834308556707,434.3241815836423,450.5897038243827,0.0
0.149,7.843989456641731,-2.705103113917644,10.0,0.0,32.09323762177576,29.88273793267072,422.5834065131674,450.5897038243827,0.0
