timestamp,iq,id,iq_ref,id_ref,vq,vd,omega,omega_ref,r
0.0,0.0,0.0,0.0,0.0,0.0,0.0,0.0,473.9393886491382,0.0
0.001,0.0,0.0,10.0,0.0,0.0,1.0999999999999999,4.174647147072404,473.9393886491382,0.0
0.002,0.5172430324866868,-0.29109540355609104,10.0,0.0,0.14202049439116998,1.933103266426464,8.85058686227413,473.9393886491382,0.0
0.003,0.9877258509954563,-0.55737325046281,10.0,0.0,0.37952887511004774,2.6505175759383017,13.753194328446606,473.9393886491382,0.0
0.004,1.367524661145177,-0.7714848220559477,10.0,0.0,0.6859173431143991,3.2828682516394605,18.81270874687904,473.9393886491382,0.0
0.005,1.6676130218313816,-0.9402608797634746,10.0,0.0,1.0413262825203278,3.853410974996954,23.974867578999397,473.9393886491382,0.0
0.006,1.9070478433365168,-1.073926252427115,10.0,0.0,1.4312640307373383,4.3791033732005875,29.209412873280485,473.9393886491382,0.0
0.007,2.1020051923557053,-1.1815350432084022,10.0,0.0,1.8452775572123161,4.8721693462285,34.503304205479004,473.9393886491382,0.0
0.008,2.264142743921075,-1.2709379911086682,10.0,0.0,2.275954564703805,5.341444517419121,39.81289400758649,473.9393886491382,0.0
0.009000000000000001,2.4026544597052863,-1.3466522965435312,10.0,0.0,2.7179259326840377,5.793244959019218,45.14023216356342,473.9393886491382,0.0
0.01,2.5238823158383443,-1.4124048357358703,10.0,0.0,3.1673558442830663,6.232112546240535,50.464111852517036,473.9393886491382,0.0
0.011,2.632537257644349,-1.4705777334370687,10.0,0.0,3.6214710167995317,6.661296600862292,55.7696173263499,473.9393886491382,0.0
0.012,2.7317670448803137,-1.523254496930599,10.0,0.0,4.078305792533803,7.083145040095624,61.0713579241663,473.9393886491382,0.0
0.013000000000000001,2.8237886762703,-1.5719781713359582,10.0,0.0,4.536474771167635,7.499362031398515,66.34235240005907,473.9393886491382,0.0
0.014,2.9105979071140187,-1.617145629404139,10.0,0.0,4.994929734711819,7.911145422355585,71.57786214050827,473.9393886491382,0.0
0.015,2.9935449604401283,-1.6591721161251507,10.0,0.0,5.45288877995592,8.319339887013934,76.75059030460802,473.9393886491382,0.0
0.016,3.0741803554293945,-1.697362767931448,10.0,0.0,5.9096520739729295,8.724470386815302,81.9581840790632,473.9393886491382,0.0
0.017,3.15212794148444,-1.7337541398920744,10.0,0.0,6.36487323296598,9.126996285522072,87.10647490219183,473.9393886491382,0.0
0.018000000000000002,3.227957272835109,-1.7683988632385537,10.0,0.0,6.81827187177891,9.527229959669443,92.15151349075477,473.9393886491382,0.0
0.019,3.3029722291624783,-1.7998355240295383,10.0,0.0,7.269465599578825,9.925286778400865,97.139359618391,473.9393886491382,0.0
0.02,3.377106379859831,-1.828743095748807,10.0,0.0,7.718211102753103,10.321252681025701,102.04314165222969,473.9393886491382,0.0
0.021,3.450730848465783,-1.8549532573563592,10.0,0.0,8.164272687932074,10.715139193665808,106.74111580389794,473.9393886491382,0.0
0.022,3.5251889195900246,-1.8765859950915469,10.0,0.0,8.607234265391956,11.106789070422188,111.54791738984231,473.9393886491382,0.0
0.023,3.5991626171373046,-1.8961919573471664,10.0,0.0,9.04700500125225,11.496177591229959,116.1837204818635,473.9393886491382,0.0
0.024,3.673610229251138,-1.9125024565907667,10.0,0.0,9.483335610901534,11.883154833185937,120.65116487058192,473.9393886491382,0.0
0.025,3.7493500613790873,-1.9244686383114655,10.0,0.0,9.915884058778328,12.267480506498309,124.99403591495238,473.9393886491382,0.0
0.026000000000000002,3.8266524174873973,-1.9319731926243033,10.0,0.0,10.344316068355885,12.648882596416488,129.20826588868158,473.9393886491382,0.0
0.027,3.9058507234335673,-1.934820905199624,10.0,0.0,10.768283288807659,13.027048888207611,133.33778726243688,473.9393886491382,0.0
0.028,3.988156694675134,-1.9313786600100609,10.0,0.0,11.187263292296766,13.401533599087685,137.45414488739692,473.9393886491382,0.0
0.029,4.072078237000356,-1.9245121160499985,10.0,0.0,11.601072869141257,13.772059529285308,141.19670398612777,473.9393886491382,0.0
0.03,4.1578281711733975,-1.9143159048292075,10.0,0.0,12.009501163526377,14.138320546811833,144.8629895697471,473.9393886491382,0.0
0.031,4.250048982321785,-1.8935465488166785,10.0,0.0,12.411530063176464,14.499511502139622,148.40014964747076,473.9393886491382,0.0
0.032,4.339567445552396,-1.877764327230987,10.0,0.0,12.807946817580017,14.855861429055762,150.67315538316475,473.9393886491382,0.0
0.033,4.438578767495688,-1.8474319235428494,10.0,0.0,13.197178147044998,15.206221977939185,154.1425974193911,473.9393886491382,0.0
0.034,4.538740758223452,-1.816592633621166,10.0,0.0,13.579433400597317,15.550441899120147,156.00827188202555,473.9393886491382,0.0
0.035,4.643271433277419,-1.780513024836014,10.0,0.0,13.954224756845349,15.887968599189584,158.92799679780427,473.9393886491382,0.0
0.036000000000000004,4.756372010351222,-1.7326264050101476,10.0,0.0,14.320382915382528,16.217826008149295,160.3228437007151,473.9393886491382,0.0
0.037,4.863383893683185,-1.6974780394753628,10.0,0.0,14.679523544951394,16.54067319067098,162.38194037782978,473.9393886491382,0.0
0.038,4.993532966259108,-1.62737822582425,10.0,0.0,15.027675333969267,16.853903438747352,162.97918714585524,473.9393886491382,0.0
0.039,5.102451131413976,-1.595453117534675,10.0,0.0,15.36952420511765,17.1599463334766,165.0119529255868,473.9393886491382,0.0
0.04,5.240194802157026,-1.5199796518994488,10.0,0.0,15.699809648487133,17.45550720371757,165.6535722587597,473.9393886491382,0.0
0.041,5.365241657001526,-1.4689425476667028,10.0,0.0,16.02176328773452,17.742162813945924,167.91865359119933,473.9393886491382,0.0
0.042,5.509758640881982,-1.3898286344973738,10.0,0.0,16.331994964673708,18.017701827397783,164.39283649017935,473.9393886491382,0.0
0.043000000000000003,5.641926797634445,-1.3351086524998588,10.0,0.0,16.633529316376126,18.28361677979441,168.21599528455695,473.9393886491382,0.0
0.044,5.787110967470347,-1.2631620837866753,10.0,0.0,16.924134805409487,18.538445095007184,169.5824581423373,473.9393886491382,0.0
0.045,5.941468396934746,-1.1794455357411158,10.0,0.0,17.202673222462913,18.781323652059292,166.51669146669929,473.9393886491382,0.0
0.046,6.098535126561204,-1.0947289913663414,10.0,0.0,17.469163999115434,19.01203442914727,164.70947707265324,473.9393886491382,0.0
0.047,6.241570511691325,-1.037782583970515,10.0,0.0,17.726659836441712,19.232159981123655,169.11618554160563,473.9393886491382,0.0
0.048,6.367045609004941,-1.0147460088169038,10.0,0.0,17.978454086040056,19.443650654781823,175.43999904633299,473.9393886491382,0.0
0.049,6.435243303163738,-1.0822431515026105,10.0,0.0,18.233873029491356,19.652924690649687,181.09529673491758,473.9393886491382,0.0
0.05,6.489762662296686,-1.163499501586204,10.0,0.0,18.492940709266644,19.861498064712862,183.4566260456996,473.9393886491382,0.0
0.051000000000000004,6.535203348388041,-1.251642033745981,10.0,0.0,18.75584207350746,20.070667587468513,187.9174644890901,473.9393886491382,0.0
0.052000000000000005,6.553816861923098,-1.3790721242690513,10.0,0.0,19.0265061382357,20.283617214744755,196.2357072953693,473.9393886491382,0.0
0.053,6.584911603046654,-1.477387875456889,10.0,0.0,19.300939190944177,20.499103999377947,197.99992868787263,473.9393886491382,0.0
0.054,6.608435214322142,-1.580761270101962,10.0,0.0,19.579865532744197,20.718208760989597,206.94272466078718,473.9393886491382,0.0
0.055,6.60844614987076,-1.7183309780766884,10.0,0.0,19.86690865045615,20.9435297138225,210.54507688149408,473.9393886491382,0.0
0.056,6.626930601317613,-1.8149282512095506,10.0,0.0,20.15702955464507,21.172989702839633,218.73286735758197,473.9393886491382,0.0
0.057,6.609801658463541,-1.9657871501669266,10.0,0.0,20.45671287347079,21.410584811602362,221.6803525720563,473.9393886491382,0.0
0.058,6.611746659621971,-2.073481007191163,10.0,0.0,20.760525106573304,21.654003501815417,232.24137612498285,473.9393886491382,0.0
0.059000000000000004,6.588017092428396,-2.216103260554385,10.0,0.0,21.07290949468659,21.906091248720305,234.9239845207127,473.9393886491382,0.0
0.06,6.55748497492158,-2.3601761539640953,10.0,0.0,21.393686014420467,22.167329896999846,242.64123790677675,473.9393886491382,0.0
0.061,6.539796630628456,-2.4690351625033986,10.0,0.0,21.719042509014137,22.436162729121992,251.22292530951978,473.9393886491382,0.0
0.062,6.495434386514933,-2.612224585488165,10.0,0.0,22.05340888380358,22.71535089090085,257.75392023002263,473.9393886491382,0.0
0.063,6.4511752275887755,-2.742596787530207,10.0,0.0,22.39516648528675,23.004481759021502,262.35342033043923,473.9393886491382,0.0
0.064,6.4007417950323635,-2.870314359136221,10.0,0.0,22.744406624289912,23.303980386470368,268.690872404149,473.9393886491382,0.0
0.065,6.356515752281669,-2.9736338371520583,10.0,0.0,23.09876057900332,23.612813695451653,275.1242119866474,473.9393886491382,0.0
0.066,6.308680255783452,-3.0702635703724566,10.0,0.0,23.4581585450176,23.931018713193453,281.01583975834444,473.9393886491382,0.0
0.067,6.2647708712573555,-3.1485978537317547,10.0,0.0,23.821087690041956,24.257694703095396,286.9596406895641,473.9393886491382,0.0
0.068,6.225111761405694,-3.209870865618382,10.0,0.0,24.186348208028,24.591919416748,292.48645552274525,473.9393886491382,0.0
0.069,6.192758786793059,-3.2514467730764407,10.0,0.0,24.55246576528222,24.93240994694282,297.3486025940891,473.9393886491382,0.0
0.07,6.173046687740062,-3.2674156929990783,10.0,0.0,24.917361441947413,25.277307980993278,301.9809866369373,473.9393886491382,0.0
0.07100000000000001,6.168916645322255,-3.256602454516774,10.0,0.0,25.278908208918864,25.62446296298065,306.32341672075864,473.9393886491382,0.0
0.07200000000000001,6.179922542940959,-3.2242061780718916,10.0,0.0,25.63556033936777,25.971805174304187,308.63267622537717,473.9393886491382,0.0
0.073,6.2038028845970645,-3.1787977872912863,10.0,0.0,25.986610517682735,26.317561598934283,304.7350397220954,473.9393886491382,0.0
0.074,6.260865996546636,-3.0911784979230887,10.0,0.0,26.327947282706518,26.657809260034966,302.4802768946397,473.9393886491382,0.0
0.075,6.3642327177793145,-2.943272018700675,10.0,0.0,26.65378161751721,26.98736612331186,307.83666348580056,473.9393886491382,0.0
0.076,6.480383619507325,-2.794284986482532,10.0,0.0,26.96507869642275,27.304807801764376,308.31854962639574,473.9393886491382,0.0
0.077,6.600282303842522,-2.6636128847133724,10.0,0.0,27.26410617441055,27.609607674002604,299.7331432129927,473.9393886491382,0.0
0.078,6.767547715788943,-2.481963735156938,10.0,0.0,27.54503620638988,27.896630098345046,301.9809512177542,473.9393886491382,0.0
0.079,6.974760034363205,-2.2608434265194224,10.0,0.0,27.804068735150974,28.16192258252747,296.70637337029274,473.9393886491382,0.0
0.08,7.156781910745884,-2.107775640018046,10.0,0.0,28.04910100602541,28.408638787951407,293.0636648725067,473.9393886491382,0.0
0.081,7.411551100938497,-1.8637010399038267,10.0,0.0,28.268984142207255,28.628982207763034,287.79258704649357,473.9393886491382,0.0
0.082,7.6325806377935494,-1.6985747027907745,10.0,0.0,28.473190155670775,28.82751404205954,287.07262633070036,473.9393886491382,0.0
0.083,7.909347206588487,-1.466455794272664,10.0,0.0,28.652946934651734,28.998379267073872,276.80270300044447,473.9393886491382,0.0
0.084,8.176789545324315,-1.2687711014186165,10.0,0.0,28.81239043110727,29.143482655911868,273.1850276461763,473.9393886491382,0.0
0.085,8.4402724384245,-1.0969480416217334,10.0,0.0,28.953476227151935,29.263711360657954,272.2163041524391,473.9393886491382,0.0
0.08600000000000001,8.726230101649397,-0.9028417207536288,10.0,0.0,29.072842849369216,29.357205260510163,277.35652500777144,473.9393886491382,0.0
0.08700000000000001,8.89659770678693,-0.9101208445018127,10.0,0.0,29.19236396617098,29.437405572666,281.4797958233328,473.9393886491382,0.0
0.088,8.931914499237656,-1.1055182890313853,10.0,0.0,29.329373930168913,29.51935679416822,286.1322292435512,473.9393886491382,0.0
0.089,8.907665733718906,-1.3655900980282314,10.0,0.0,29.48753194446163,29.609834422051588,298.7423097444467,473.9393886491382,0.0
0.09,8.85942478754212,-1.6321334915431143,10.0,0.0,29.665640975310094,29.71214410500015,303.57979899475833,473.9393886491382,0.0
0.091,8.812843064249922,-1.8600040708950496,10.0,0.0,29.858570401162115,29.826675302839075,313.95766938560683,473.9393886491382,0.0
0.092,8.709310543487243,-2.1539606266726894,10.0,0.0,30.073716519554857,29.959969083530282,320.6636097615438,473.9393886491382,0.0
0.093,8.62499792930511,-2.380736951771094,10.0,0.0,30.30268323438049,30.10968716034404,333.9427730970798,473.9393886491382,0.0
0.094,8.49022405497074,-2.6615632441024824,10.0,0.0,30.552348214310413,30.281312100993965,338.1489838559962,473.9393886491382,0.0
0.095,8.353773010326407,-2.911584826580874,10.0,0.0,30.81890330146164,30.474402921739415,348.98334463912863,473.9393886491382,0.0
0.096,8.21704206807572,-3.126131616637126,10.0,0.0,31.099211893053692,30.688516062326578,361.082394157443,473.9393886491382,0.0
0.097,8.050110248393342,-3.359238994601582,10.0,0.0,31.396397283220782,30.926243938756777,367.1281212489009,473.9393886491382,0.0
0.098,7.881646762106412,-3.5635404122820464,10.0,0.0,31.707779004179393,31.186779231855397,373.77710339564624,473.9393886491382,0.0
0.099,7.7274301730578365,-3.714004042355089,10.0,0.0,32.02858406748324,31.467678357672504,378.29572507570913,473.9393886491382,0.0
0.1,7.580244768204704,-3.8289108882840304,10.0,0.0,32.35653365378986,31.767216305881647,384.2805923654603,473.9393886491382,0.0
0.101,7.4653959305723685,-3.87354540356028,10.0,0.0,32.68540280450783,32.080756935991545,390.83355852946994,473.9393886491382,0.0
0.10200000000000001,7.375360603472679,-3.871230054359851,10.0,0.0,33.01203806960018,32.40458581576691,396.44653926037154,473.9393886491382,0.0
0.10300000000000001,7.317138943454438,-3.8231485105013454,10.0,0.0,33.3331268798284,32.73419936340496,397.39671836382075,473.9393886491382,0.0
0.10400000000000001,7.293478519164469,-3.737758395037913,10.0,0.0,33.64615606653522,33.06498086737378,391.06461541345607,473.9393886491382,0.0
0.105,7.337031191522218,-3.573106249509084,10.0,0.0,33.94370265011468,33.388959741414105,383.3178827449539,473.9393886491382,0.0
0.106,7.451009401035046,-3.3339050743865295,10.0,0.0,34.21922685493206,33.698193310085536,387.0328643104965,473.9393886491382,0.0
0.107,7.622952036465714,-3.0496036790457057,10.0,0.0,34.302692587348496,33.8080313262412,380.88166953880545,473.9393886491382,0.0
0.108,7.754014920960355,-2.823684468468684,10.0,0.0,34.33325751766692,33.8954605149585,365.3998228045961,473.9393886491382,0.0
0.109,7.972944062662051,-2.521826816812056,10.0,0.0,34.37688733376712,34.01546922702466,367.0230876665578,473.9393886491382,0.0
0.11,8.239267191412875,-2.232390996593656,10.0,0.0,34.44538388405753,34.15634207668627,350.8152730395872,473.9393886491382,0.0
0.111,8.540774553310126,-1.9632688438611505,10.0,0.0,34.546209002774084,34.30867221671824,350.5704826365064,473.9393886491382,0.0
0.112,8.886604771617929,-1.6808115864660897,10.0,0.0,34.681791785289356,34.46467185343223,336.90864511157486,473.9393886491382,0.0
0.113,9.277547431253202,-1.3643700297981365,10.0,0.0,34.85167305021865,34.61811469876684,326.57871418865386,473.9393886491382,0.0
0.114,9.659284053675906,-1.090953023843909,10.0,0.0,35.057433544099766,34.76586116186557,321.3481675779008,473.9393886491382,0.0
0.115,10.059197253764664,-0.8068643270812075,10.0,0.0,35.29649256435991,34.904591916214,336.8109034141041,473.9393886491382,0.0
0.116,10.190808310491775,-0.9540099570960927,10.0,0.0,35.37202324213232,34.933673683414455,346.3623259602559,473.9393886491382,0.0
0.117,10.205227712821157,-1.2375613864664121,10.0,0.0,35.45477993920088,34.95684167398082,351.33325598215123,473.9393886491382,0.0
0.11800000000000001,10.130686094130862,-1.61037912853695,10.0,0.0,35.56975220295327,34.994312307276644,367.0385999440453,473.9393886491382,0.0
0.11900000000000001,10.008786833379991,-2.002404210656909,10.0,0.0,35.71636888527251,35.05219660611383,373.3277269775012,473.9393886491382,0.0
0.12,9.8788849943167,-2.3432519036308257,10.0,0.0,35.88768532464947,35.13202435298866,390.0398642141564,473.9393886491382,0.0
0.121,9.686353886545676,-2.7302695301741697,10.0,0.0,36.08901635676624,35.240880372577884,395.2980425121397,473.9393886491382,0.0
0.122,9.481659457452457,-3.077303395151846,10.0,0.0,36.31540343651236,35.3795749695424,408.35930072959263,473.9393886491382,0.0
0.123,9.26645673359394,-3.3803747561775666,10.0,0.0,36.562888779043384,35.548664170118585,423.3568103674791,473.9393886491382,0.0
0.124,9.010676898160433,-3.6960327637487973,10.0,0.0,36.8342261746015,35.75157673954937,430.1767612763282,473.9393886491382,0.0
0.125,8.756418644550948,-3.957074464001445,10.0,0.0,37.12427909449895,35.98674240113558,438.0696308768816,473.9393886491382,0.0
0.126,8.524042079478797,-4.135281960361657,10.0,0.0,37.21644063908769,35.80555474805845,442.0648229335225,473.9393886491382,0.0
0.127,8.168632789595655,-4.173466715815094,10.0,0.0,37.08993469999146,35.413212271586126,440.55216388520984,473.9393886491382,0.0
0.128,7.779243690063348,-4.1019693667244725,10.0,0.0,36.87479301862572,35.13268533835433,436.01583074031277,473.9393886491382,0.0
0.129,7.493288594183533,-3.995102542423985,10.0,0.0,36.60869944040621,34.95355166406877,429.58011998031435,473.9393886491382,0.0
0.13,7.3313152386604665,-3.869651516136147,10.0,0.0,36.32565196948663,34.86147577423096,421.6607935387008,473.9393886491382,0.0
0.131,7.288035292363107,-3.724012040486576,10.0,0.0,36.053106090795886,34.840829395480654,412.4914838494817,473.9393886491382,0.0
0.132,7.351531294845971,-3.553211838343183,10.0,0.0,35.81150952001162,34.87607584159216,403.0175985420219,473.9393886491382,0.0
0.133,7.505529447900851,-3.3574228143814677,10.0,0.0,35.61502876900796,34.95272514111073,392.36986947767093,473.9393886491382,0.0
0.134,7.726997762127985,-3.149473522874282,10.0,0.0,35.47293423926911,35.05809072466501,381.3691411687117,473.9393886491382,0.0
0.135,8.034603967328218,-2.876275422443785,10.0,0.0,35.3873272722469,35.18083710218753,380.4034416588641,473.9393886491382,0.0
0.136,8.338699176839581,-2.665364032867695,10.0,0.0,35.36325165043941,35.313383492431306,363.7986917817875,473.9393886491382,0.0
0.137,8.729624369623656,-2.355199713126086,10.0,0.0,35.39483144841296,35.44733310623878,357.0554208029234,473.9393886491382,0.0
0.138,9.096523367099092,-2.1116834221132517,10.0,0.0,35.48302239849073,35.5793876089234,351.96974012276524,473.9393886491382,0.0
0.139,9.53773492707068,-1.765892085494368,10.0,0.0,35.61921767311877,35.703400175247204,338.34571028439836,473.9393886491382,0.0
0.14,9.96975333736499,-1.4431360549883792,10.0,0.0,35.801052968536865,35.81790107614208,337.5238320367299,473.9393886491382,0.0
0.14100000000000001,10.334890242605038,-1.2394628198979847,10.0,0.0,36.02961750409862,35.924842908073565,346.0211176393743,473.9393886491382,0.0
0.14200000000000002,10.416064280110483,-1.4479186994776834,10.0,0.0,36.32574111545902,36.04754093801903,362.01387751590784,473.9393886491382,0.0
0.14300000000000002,10.395122091354548,-1.741500894021513,10.0,0.0,36.6931250972573,36.19637226461932,374.3169445320215,473.9393886491382,0.0
0.14400000000000002,10.347962248258785,-1.9935344001440436,10.0,0.0,37.13258422726294,36.37616052473652,385.00580412675686,473.9393886491382,0.0
0.145,10.201904284264437,-2.329913153805286,10.0,0.0,37.65366208428901,36.59561319286447,402.51025995087576,473.9393886491382,0.0
0.146,10.048038764199433,-2.5900220058472043,10.0,0.0,38.013527597905764,36.774847585273925,415.42801038898006,473.9393886491382,0.0
0.147,9.809016986601915,-2.9759449016941395,10.0,0.0,38.191113315770465,36.920204105652886,423.62944492004533,473.9393886491382,0.0
0.148,9.593667380326988,-3.3328493128498438,10.0,0.0,38.40087637015526,37.0900817846947,436.306678044006,473.9393886491382,0.0
0.149,9.356019572586607,-3.661833515075234,10.0,0.0,38.639270105138976,37.287935764059505,451.89081649796634,473.9393886491382,0.0
0.15,9.085881147995451,-3.973270147033027,10.0,0.0,38.56723014147117,36.68141784087061,452.3894813993912,473.9393886491382,0.0
0.151,8.550666558811818,-4.033924087163927,10.0,0.0,38.353275917184064,36.17582937442213,452.13903424183025,473.9393886491382,0.0
