timestamp,iq,id,iq_ref,id_ref,vq,vd,omega,omega_ref,r
0.0,0.0,0.0,0.0,0.0,0.0,0.0,0.0,228.50661716581732,0.0
0.001,0.0,0.0,10.0,0.0,0.0,1.0999999999999999,5.306902094457678,228.50661716581732,0.0
0.002,0.5782139531642467,-0.3294824683616376,10.0,0.0,0.14624307151978008,1.926396465151933,11.056795572288665,228.50661716581732,0.0
0.003,1.1091924403682507,-0.6295682634372862,10.0,0.0,0.3902160951774804,2.6321520968798526,17.10202092152849,228.50661716581732,0.0
0.004,1.535360198014899,-0.8689619769306992,10.0,0.0,0.7036998301757217,3.250160799331659,23.341642198510282,228.50661716581732,0.0
0.005,1.8685619919850425,-1.0546827802299896,10.0,0.0,1.0656714131473073,3.805326485277859,29.709603803083265,228.50661716581732,0.0
0.006,2.1309479880807234,-1.199673256116489,10.0,0.0,1.461054150730876,4.315642319295774,36.131682155337636,228.50661716581732,0.0
0.007,2.341865082462174,-1.3149918877046447,10.0,0.0,1.8791653426737123,4.793887823249253,42.57477175927447,228.50661716581732,0.0
0.008,2.5158610045903718,-1.409005309776093,10.0,0.0,2.3124782559295896,5.249089515511379,49.07312801048701,228.50661716581732,0.0
0.009000000000000001,2.663293586977546,-1.487929818798654,10.0,0.0,2.7557216088578596,5.687624705031574,55.59495286903236,228.50661716581732,0.0
0.01,2.791703406491512,-1.55581104552891,10.0,0.0,3.2051718352954253,6.113979956569913,62.051049690934406,228.50661716581732,0.0
0.011,2.9064026150137043,-1.6154835651289265,10.0,0.0,3.658197729131766,6.5313118908558705,68.42987590357289,228.50661716581732,0.0
0.012,3.011119486828709,-1.6689380313652804,10.0,0.0,4.112937493103068,6.941841357282438,74.86877775016157,228.50661716581732,0.0
0.013000000000000001,3.10851166795309,-1.7174973130764677,10.0,0.0,4.568063203645763,7.347125882257949,81.22727357556819,228.50661716581732,0.0
0.014,3.200529515051407,-1.761945423859473,10.0,0.0,5.0226084950007595,7.748246484420605,87.5790276162893,228.50661716581732,0.0
0.015,3.288537597445181,-1.8028494243417823,10.0,0.0,5.475866276381744,8.145948844910166,93.81471080188668,228.50661716581732,0.0
0.016,3.373742638993699,-1.8402049279198527,10.0,0.0,5.9272685810623535,8.54071427374247,100.00842499160993,228.50661716581732,0.0
0.017,3.4568884952113046,-1.8742183820201914,10.0,0.0,6.376375123073387,8.932849396391148,105.8635363085276,228.50661716581732,0.0
0.018000000000000002,3.538869048464894,-1.9044566826704639,10.0,0.0,6.822770601678711,9.322495258680346,111.74106070072808,228.50661716581732,0.0
0.019,3.6201616389755706,-1.9309311033421261,10.0,0.0,7.266100921919804,9.709693703177521,117.70055538028289,228.50661716581732,0.0
0.02,3.701214300925448,-1.9535463470674201,10.0,0.0,7.7060409871895725,10.094402468339705,123.37948644722078,228.50661716581732,0.0
0.021,3.7828037041029834,-1.9715646136686473,10.0,0.0,8.14221377933746,10.476470055782617,128.87100176324438,228.50661716581732,0.0
0.022,3.8654123710078014,-1.9846958310923544,10.0,0.0,8.57424030226545,10.855677104368274,133.95662768341012,228.50661716581732,0.0
0.023,3.949851214974675,-1.9920901189747267,10.0,0.0,9.001666937252029,11.231703914220855,139.25465084264277,228.50661716581732,0.0
0.024,4.035955695092999,-1.9945328012649053,10.0,0.0,9.424148341898304,11.604243602213486,144.26211302806155,228.50661716581732,0.0
0.025,4.124454090492655,-1.9913504390351802,10.0,0.0,9.841261088211043,11.972903683178705,149.16184941234278,228.50661716581732,0.0
0.026000000000000002,4.215775477897176,-1.9823921472933612,10.0,0.0,10.252574979519725,12.33724866201818,153.79554494432213,228.50661716581732,0.0
0.027,4.3105114824989785,-1.9672674834542614,10.0,0.0,10.657617849476603,12.696782785472415,158.13928785686264,228.50661716581732,0.0
0.028,4.409284536854591,-1.9455604646152684,10.0,0.0,11.055873319349324,13.050950107643814,162.21583907783312,228.50661716581732,0.0
0.029,4.512701066563076,-1.9168963186486643,10.0,0.0,11.44678398858397,13.399138156860976,166.06969537170724,228.50661716581732,0.0
0.03,4.621899990579472,-1.88002087185886,10.0,0.0,11.82965273812966,13.740620751735165,169.90596048138934,228.50661716581732,0.0
0.031,4.733599545724435,-1.8409514277277867,10.0,0.0,12.20445398782168,14.07504700025072,173.02974126878678,228.50661716581732,0.0
0.032,4.851005048237342,-1.7950794522154634,10.0,0.0,12.570562514531005,14.401713139158954,175.9134843379914,228.50661716581732,0.0
0.033,4.975298735632041,-1.7409533548167255,10.0,0.0,12.927231651501486,14.719825266259004,178.43936220246795,228.50661716581732,0.0
0.034,5.100574506402446,-1.6888161326804498,10.0,0.0,13.27485125402392,15.029255696435307,180.17622816031638,228.50661716581732,0.0
0.035,5.236314781001518,-1.623578521530829,10.0,0.0,13.611997174306643,15.328826371348026,182.16067250497872,228.50661716581732,0.0
0.036000000000000004,5.3745898741492075,-1.5584956941213168,10.0,0.0,13.938878835148817,15.618301713297488,183.38054460248998,228.50661716581732,0.0
0.037,5.520548924929638,-1.4854667407379394,10.0,0.0,14.254637507503642,15.896844942481847,184.63980501908645,228.50661716581732,0.0
0.038,5.6699832958661975,-1.4115443122956477,10.0,0.0,14.559273457946606,16.164131525688042,185.33742683262628,228.50661716581732,0.0
0.039,5.826429094436836,-1.33096349202658,10.0,0.0,14.85204980572072,16.419438351484516,186.0637271934536,228.50661716581732,0.0
0.04,5.984882094086522,-1.251984085281085,10.0,0.0,15.13319727475775,16.66262675750298,186.09016795988936,228.50661716581732,0.0
0.041,6.152290506105522,-1.1628138465805162,10.0,0.0,15.401529905303319,16.892780674497715,186.31219331766815,228.50661716581732,0.0
0.042,6.311700494889333,-1.0918580815522407,10.0,0.0,15.6591312327277,17.110891448201507,186.7512985155639,228.50661716581732,0.0
0.043000000000000003,6.493441794112483,-0.9873976409021101,10.0,0.0,15.902002413958797,17.314553834250646,189.51836047353115,228.50661716581732,0.0
0.044,6.568435075542099,-1.0630564262079303,10.0,0.0,16.15031978646183,17.515705251852964,198.57825920836098,228.50661716581732,0.0
0.045,6.63462281451276,-1.1416540378766875,10.0,0.0,16.4018097129053,17.715042546472862,200.39184728301646,228.50661716581732,0.0
0.046,6.67712713431334,-1.2492411996849357,10.0,0.0,16.659132987848626,17.915581506486756,211.0784813046541,228.50661716581732,0.0
0.047,6.711103228348791,-1.3615176268542188,10.0,0.0,16.922052366669554,18.11848657084771,213.2088610472137,228.50661716581732,0.0
0.048,6.733739448488734,-1.4837215905686976,10.0,0.0,17.191289985781378,18.32524284337962,223.81338734014122,228.50661716581732,0.0
0.049,6.757134582861371,-1.5947798644845017,8.062715332574136,0.0,17.46527384072882,18.322798834573096,227.97380084540458,228.50661716581732,0.0
0.05,6.635640891796596,-1.6922424148560218,5.987836743146582,0.0,17.72122520710256,18.152732071340036,230.58693582332697,228.50661716581732,0.0
0.051000000000000004,6.416743700883494,-1.6952624074761213,4.660466067610292,0.0,17.933932334200122,17.922868886742737,238.48490583182172,228.50661716581732,0.0
0.052000000000000005,6.135577343848938,-1.6894580781031192,0.6116981767028724,0.0,18.101713753970962,17.33391129943514,239.37200308628508,228.50661716581732,0.0
0.053,5.640697830643385,-1.615536329559669,0.0594956902665178,0.0,18.18574792398791,16.851998101118728,239.97889722347634,228.50661716581732,0.0
0.054,5.188449956378761,-1.5371275886815088,-0.3586741789057033,0.0,18.205301613160362,16.431001449928125,241.64154496107614,228.50661716581732,0.0
0.055,4.791917934600479,-1.485429905640433,-1.3213473256581905,0.0,18.17589761057077,15.99144352897574,242.62104978248047,228.50661716581732,0.0
0.056,4.411810111316929,-1.4361450231798387,-1.9522440625269883,0.0,18.100573855904646,15.570975630614996,242.96603182858402,228.50661716581732,0.0
0.057,4.0585844038608085,-1.3928718560045894,-2.269329232206431,0.0,17.986468487304393,15.191505494915008,242.7470579059136,228.50661716581732,0.0
0.058,3.7467295496619513,-1.3581453379326982,-2.302246678272187,0.0,17.842439456678,14.86889354544186,242.0018282457542,228.50661716581732,0.0
0.059000000000000004,3.4862441389457,-1.3353410840186202,-2.064583958991858,0.0,17.678390931417105,14.616146808071681,240.99585933941648,228.50661716581732,0.0
0.06,3.283514712053624,-1.328290130216295,-1.6864919275589854,0.0,17.504925022566166,14.431178771028215,239.60840166361822,228.50661716581732,0.0
0.061,3.1367852954798936,-1.33483149704279,-1.1037809346378644,0.0,17.331098960784917,14.321791177265181,238.39249221103864,228.50661716581732,0.0
0.062,3.046454876717415,-1.3570193969783408,-0.594684958800288,0.0,17.16609200113013,14.264602236011386,237.61541288130988,228.50661716581732,0.0
0.063,2.99767263154065,-1.3877989695508683,-0.2972332510908311,0.0,17.01503071729907,14.228722963788979,236.9650363909709,228.50661716581732,0.0
0.064,2.970571552795099,-1.4142106289943768,-0.0566291981728817,0.0,16.878085121441934,14.207310715359823,235.89521059149192,228.50661716581732,0.0
0.065,2.95705352148353,-1.4317254735123677,0.40439776730986754,0.0,16.75435537663014,14.22386803051861,234.89995660476023,228.50661716581732,0.0
0.066,2.9679436530825094,-1.4468640396947172,0.8380913662862799,0.0,16.646144431650285,14.268159571123915,233.90217666804043,228.50661716581732,0.0
0.067,3.000069498640027,-1.4584099458585658,1.2830257396239535,0.0,16.55430239924514,14.338381766552743,232.8253696902538,228.50661716581732,0.0
0.068,3.0516427252791014,-1.4660552957098185,1.7782417032728972,0.0,16.47939231904539,14.437070154991462,231.57303452938703,228.50661716581732,0.0
0.069,3.1235288783858173,-1.4709765991876091,2.373745110070589,0.0,16.422306975593543,14.571560167102243,229.95958360439437,228.50661716581732,0.0
0.07,3.2199250966197432,-1.4753998652708742,3.16594090818115,0.0,16.384816513932332,14.758194424906282,228.44274468409023,228.50661716581732,0.0
0.07100000000000001,3.3492934351964716,-1.485609627816989,3.9249990931504897,0.0,16.37081736543689,14.984724098068213,226.57254270178973,228.50661716581732,0.0
0.07200000000000001,3.5055687886517997,-1.5003562666083803,4.879440828941016,0.0,16.38239113174877,15.268702292657355,224.06788980465876,228.50661716581732,0.0
0.073,3.70361353840388,-1.511383226049219,6.176154551118085,0.0,16.422270840038962,15.63831196756217,224.12520550776034,228.50661716581732,0.0
0.074,3.957351813833139,-1.5299145945618866,6.191310816147865,0.0,16.497051725932597,15.937717934937329,225.24716919398483,228.50661716581732,0.0
0.075,4.181054738007438,-1.5249358384364733,5.662923452753945,0.0,16.593562143115467,16.134317282635823,226.46077667483905,228.50661716581732,0.0
0.076,4.3391444610941345,-1.4874053179098485,5.0765781172366164,0.0,16.696002883653215,16.246540783711993,227.53375496303727,228.50661716581732,0.0
0.077,4.441942808099913,-1.417220498270164,4.54981759516531,0.0,16.792076875289712,16.295978883721887,221.17472619508226,228.50661716581732,0.0
0.078,4.508799201945453,-1.3204176757655641,7.802650888850166,0.0,16.873540815484443,16.706833620567533,219.4962038713467,228.50661716581732,0.0
0.079,4.786279609483062,-1.2860776378850822,8.732016183662655,0.0,16.985134459402452,17.124596846349924,222.44876730738017,228.50661716581732,0.0
0.08,5.097558630986031,-1.2912930574519625,7.316312964230289,0.0,17.128262158038066,17.315256218570255,220.30944202931732,228.50661716581732,0.0
0.081,5.288083607434533,-1.2507456121480343,8.467947354626709,0.0,17.27163065085305,17.624154281375738,217.05767156539605,228.50661716581732,0.0
0.082,5.551471416394433,-1.1766699318106215,10.0,0.0,17.423809250283,18.046441425048158,220.20356822700606,228.50661716581732,0.0
0.083,5.865493647124369,-1.173675071655892,8.714237760322836,0.0,17.60341002632356,18.25305477418741,214.08000575192057,228.50661716581732,0.0
0.084,6.097749424890015,-1.0911802954579994,10.0,0.0,17.776667582893765,18.588850421531138,217.4968079647581,228.50661716581732,0.0
0.085,6.37331432393256,-1.0491664978309738,10.0,0.0,17.96238237856433,18.867545056283724,213.1976254457046,228.50661716581732,0.0
0.08600000000000001,6.651572378282158,-0.9679220205082433,10.0,0.0,18.148878403613868,19.10908897014007,211.909711849929,228.50661716581732,0.0
0.08700000000000001,6.891549834048413,-0.9114467088000885,10.0,0.0,18.335479378029415,19.321513155524947,219.53825454465147,228.50661716581732,0.0
0.088,7.067139021003814,-0.931145162490289,9.5475344497038,0.0,18.5273942565649,19.46466877327288,220.22866451843643,228.50661716581732,0.0
0.089,7.127816680266827,-1.041995603266654,9.285108989285126,0.0,18.72642977297012,19.58343952130709,230.6855341005055,228.50661716581732,0.0
0.09,7.129156510472959,-1.18934150632812,4.034885028903713,0.0,18.932538357467244,19.13579576041059,230.22123578394562,228.50661716581732,0.0
0.091,6.8250520233447665,-1.1587911889758944,4.249888001002368,0.0,19.06843771348565,18.863144692474286,237.97495715599726,228.50661716581732,0.0
0.092,6.531439759692706,-1.1866625066266938,0.278343915074748,0.0,19.166853375223692,18.221585091890876,236.23033069194665,228.50661716581732,0.0
0.093,6.061876949888861,-1.1102883739484197,1.0734200118387598,0.0,19.182591642958467,17.82991261548482,239.1063471607995,228.50661716581732,0.0
0.094,5.692794987803085,-1.1052568240204381,-0.47058552253748065,0.0,19.15779910711386,17.337093231475222,240.41072298583632,228.50661716581732,0.0
0.095,5.3044448703801885,-1.0864989276052228,-1.2418144932560846,0.0,19.084190833346376,16.86070909414251,241.76795966666427,228.50661716581732,0.0
0.096,4.927371028613556,-1.0770991048695775,-2.0530462586785303,0.0,18.969458571685585,16.380673960097127,242.41253800572963,228.50661716581732,0.0
0.097,4.5602636629745765,-1.0685149049759204,-2.5143946366103345,0.0,18.8173457590254,15.931144181174552,242.64643461661117,228.50661716581732,0.0
0.098,4.221392741782643,-1.065371282797806,-2.772741116559045,0.0,18.635231293298315,15.521156197537904,242.4982946389244,228.50661716581732,0.0
0.099,3.9181324285133092,-1.0702507101975314,-2.838587902446725,0.0,18.43089764901602,15.159265809291753,242.00449439197556,228.50661716581732,0.0
0.1,3.6551504304861036,-1.0847195634692204,-2.7266665512338895,0.0,18.212351109923233,14.851996328584583,241.28349331080796,228.50661716581732,0.0
0.101,3.435544138008609,-1.1091400167273813,-2.493934772099996,0.0,17.98747383799469,14.599607296423702,240.4124234111138,228.50661716581732,0.0
0.10200000000000001,3.258669887527166,-1.1419699630255344,-2.1774578847058788,0.0,17.763212479603126,14.399714684736253,239.4459121733031,228.50661716581732,0.0
0.10300000000000001,3.1216927210033374,-1.1809076171809396,-1.8035952158753905,0.0,17.545342838376083,14.24864406888861,238.34232144502369,228.50661716581732,0.0
0.10400000000000001,3.020981967107857,-1.2231733961874998,-1.3501568945277471,0.0,17.338412958836155,14.146741550426228,236.95626892936653,228.50661716581732,0.0
0.105,2.955122753509921,-1.2673334600525004,-0.7416271543346618,0.0,17.14642076463906,14.102977590020677,235.80639456206464,228.50661716581732,0.0
0.106,2.9267807192196402,-1.3167618511036396,-0.23968774464618958,0.0,16.974246916198098,14.095977875535715,235.23601810429508,228.50661716581732,0.0
0.107,2.9238314738408837,-1.3663713813937663,-0.02179352514618982,0.0,16.823553245574136,14.091450714352032,234.51315095533715,228.50661716581732,0.0
0.108,2.9266563495100058,-1.4028225085003925,0.2795747114375775,0.0,16.69098975457303,14.10293823727615,233.60943919709635,228.50661716581732,0.0
0.109,2.938639369049917,-1.4284914916409295,0.6804023702451887,0.0,16.575290441838845,14.139808135518042,232.72434166710386,228.50661716581732,0.0
0.11,2.9661935496650043,-1.4474133545865313,1.0807738902285693,0.0,16.47667276529487,14.19854257360016,231.77635431732034,228.50661716581732,0.0
0.111,3.009231077932742,-1.4600704912654545,1.5220701936052978,0.0,16.39499336661874,14.281622092087982,230.712898829759,228.50661716581732,0.0
0.112,3.0692234252919897,-1.467986872769215,2.0317351207465446,0.0,16.330534090257625,14.39370711488433,229.390653285503,228.50661716581732,0.0
0.113,3.149103826914709,-1.4732466688299677,2.6840175316776977,0.0,16.284228657563897,14.546605202991042,227.79485491810163,228.50661716581732,0.0
0.114,3.255817737965274,-1.4795967587743446,3.4890343378555335,0.0,16.25848948888349,14.750672237388624,226.52587136013264,228.50661716581732,0.0
0.115,3.3937026668468113,-1.494271629764972,4.143333574896877,0.0,16.25728167542041,14.981581196424715,224.15525193486872,228.50661716581732,0.0
0.116,3.555533578607835,-1.5027132355351271,5.372156939838326,0.0,16.280067367132048,15.301483504979133,222.30565817479726,228.50661716581732,0.0
0.117,3.773490879576525,-1.5167972307020268,6.358963409784256,0.0,16.334029543938634,15.66557763590498,223.15384529237986,228.50661716581732,0.0
0.11800000000000001,4.025221038629396,-1.533527788031998,5.988397569727331,0.0,16.42070443751177,15.92251751982704,224.7820678150483,228.50661716581732,0.0
0.11900000000000001,4.220700095863515,-1.5200494804184932,5.211531801900803,0.0,16.522755910709,16.06169593394863,225.98238566289572,228.50661716581732,0.0
0.12,4.3474977259394345,-1.454846186173224,4.636615193006303,0.0,16.62148249870784,16.129696535941655,223.51799689859422,228.50661716581732,0.0
0.121,4.4158608871638,-1.3777528992392207,5.918695777829287,0.0,16.709308259485805,16.3412957955208,218.1525710744685,228.50661716581732,0.0
0.122,4.571657347548605,-1.311645312113126,8.704949150805628,0.0,16.803010468429353,16.81773079136892,220.05908607639438,228.50661716581732,0.0
0.123,4.899212337570183,-1.3055176179351005,7.836166960736923,0.0,16.93497298557504,17.097990849590737,221.00676627728782,228.50661716581732,0.0
0.124,5.139345485985638,-1.2872092971998446,7.437325369175497,0.0,17.079812618489235,17.30509730410838,216.3328429108585,228.50661716581732,0.0
0.125,5.333844810267368,-1.2264027821477734,9.896024794939752,0.0,17.224373300115417,17.761428835028536,218.88562368053437,228.50661716581732,0.0
0.126,5.668892891591036,-1.1996502072449613,8.715844344954643,0.0,17.397776348582195,17.997266141560495,217.0757949990487,228.50661716581732,0.0
0.127,5.8921436981772395,-1.162420180789325,9.735066907365164,0.0,17.573595045694404,18.3295692007397,215.79422758829185,228.50661716581732,0.0
0.128,6.183385002939952,-1.0863656709522536,10.0,0.0,17.75706848319578,18.63537020281989,214.44972314996522,228.50661716581732,0.0
0.129,6.44568436008724,-1.0523285819089976,10.0,0.0,17.94979114245866,18.90034860127729,214.81470700252711,228.50661716581732,0.0
0.13,6.71667076271003,-0.9618358739697004,10.0,0.0,18.1401255486581,19.130915915098196,207.823847494486,228.50661716581732,0.0
0.131,6.952167544641279,-0.894373272170558,10.0,0.0,18.32796728650117,19.334265156170744,219.87588676183788,228.50661716581732,0.0
0.132,7.083517629176322,-0.9714935368607902,8.873680275824933,0.0,18.526517629801113,19.400074935781547,222.61518289611595,228.50661716581732,0.0
0.133,7.098348243305161,-1.0583523756878908,7.5629465513829075,0.0,18.720577186356216,19.345923392605567,228.6532945793214,228.50661716581732,0.0
0.134,6.991119459124453,-1.1630459969332156,4.542423935645145,0.0,18.900463342886923,19.009386281317134,231.22275321164892,228.50661716581732,0.0
0.135,6.73043552964439,-1.1498034713723821,3.2305332590230673,0.0,19.026203558611574,18.63799169294056,235.54767706982247,228.50661716581732,0.0
0.136,6.391080504750809,-1.1651002803650323,0.9976607308962411,0.0,19.104045368170905,18.11853572708987,235.8145982784339,228.50661716581732,0.0
0.137,5.985504931710681,-1.113051334611547,0.7911203154643651,0.0,19.11627904806642,17.699638581149422,239.71741134776093,228.50661716581732,0.0
0.138,5.613102443478416,-1.1129790799583623,-1.2723941610185907,0.0,19.08591218682402,17.135841847508907,239.69243891657564,228.50661716581732,0.0
0.139,5.188105487705155,-1.0730455317769574,-1.371766162933529,0.0,18.997810370588397,16.67811796591514,240.91928172050194,228.50661716581732,0.0
0.14,4.816438227896839,-1.0632434144114384,-2.109314210443526,0.0,18.872067450388563,16.213853154671412,241.56029125726153,228.50661716581732,0.0
