timestamp,iq,id,iq_ref,id_ref,vq,vd,omega,omega_ref,r
0.0,0.0,0.0,0.0,0.0,0.0,0.0,0.0,461.7164749515934,0.0
0.001,0.0,0.0,10.0,0.0,0.0,1.0999999999999999,6.04116337591122,461.7164749515934,0.0
0.002,0.3536870031709656,-0.19803972327438066,10.0,0.0,0.13178436956018189,1.9510944296511943,11.934964704137764,461.7164749515934,0.0
0.003,0.7702835015928862,-0.4325789548376049,10.0,0.0,0.3593186633686759,2.6879691084985855,18.13179782659545,461.7164749515934,0.0
0.004,1.1625030180768305,-0.6530008264304881,10.0,0.0,0.6596880092406445,3.3349315670130713,24.540608756029364,461.7164749515934,0.0
0.005,1.5006798840091438,-0.8422697759072498,10.0,0.0,1.0133320321033796,3.9139574541755913,31.14583971454581,461.7164749515934,0.0
0.006,1.7811431682949848,-0.9986069324454049,10.0,0.0,1.4048186391205228,4.442975962296011,37.77165260936453,461.7164749515934,0.0
0.007,2.0109781797167487,-1.1255354442785654,10.0,0.0,1.8224572009842597,4.935764061892571,44.48544823985762,461.7164749515934,0.0
0.008,2.199707361199687,-1.2290841665462342,10.0,0.0,2.257731790952391,5.40257534786694,51.133873316989465,461.7164749515934,0.0
0.009000000000000001,2.3569505013032677,-1.3143783829826627,10.0,0.0,2.7045069271064763,5.8508235106441235,57.871332900224225,461.7164749515934,0.0
0.01,2.4905685393261496,-1.3861323263214793,10.0,0.0,3.1584693575257767,6.285798817977516,64.58809115011988,461.7164749515934,0.0
0.011,2.6068405256111062,-1.447828821733642,10.0,0.0,3.6166021506984367,6.71121909950838,71.28047933328527,461.7164749515934,0.0
0.012,2.710490460755663,-1.5020517946011587,10.0,0.0,4.076811254768221,7.129671859200373,78.14788987524555,461.7164749515934,0.0
0.013000000000000001,2.804505651116126,-1.551459234117792,10.0,0.0,4.537737313018384,7.542995081741941,84.62387438147557,461.7164749515934,0.0
0.014,2.8927679463849607,-1.59497013006764,10.0,0.0,4.998195211857001,7.9523098872784,91.04782009818824,461.7164749515934,0.0
0.015,2.9763750216560494,-1.6345978929244103,10.0,0.0,5.457462746320148,8.358424846817941,97.48210490292792,461.7164749515934,0.0
0.016,3.0563308036557832,-1.6713588959954222,10.0,0.0,5.91506245600018,8.761895998582588,103.7789623984753,461.7164749515934,0.0
0.017,3.1343229610810277,-1.7042937754121312,10.0,0.0,6.3705045365938044,9.163000426641991,109.98729853434605,461.7164749515934,0.0
0.018000000000000002,3.21072711430903,-1.7340932125486135,10.0,0.0,6.823461441224848,9.56191408467399,116.08349070792279,461.7164749515934,0.0
0.019,3.286240240930481,-1.7605469453416813,10.0,0.0,7.273625937431861,9.958689664969818,122.03246087616832,461.7164749515934,0.0
0.02,3.3614625575227657,-1.78336976412909,10.0,0.0,7.720697514786439,10.353284813297819,127.80049192228593,461.7164749515934,0.0
0.021,3.436917609476073,-1.802264391890963,10.0,0.0,8.164371630104293,10.745579771979543,133.35199080562896,461.7164749515934,0.0
0.022,3.513106464776923,-1.8168976512759103,10.0,0.0,8.60432854201326,11.135386422761316,138.68444827875558,461.7164749515934,0.0
0.023,3.5905599768600145,-1.8268581661122014,10.0,0.0,9.040219751847646,11.522450101879675,143.85620545893389,461.7164749515934,0.0
0.024,3.6698363396081515,-1.8316896558557478,10.0,0.0,9.471660067333861,11.906450669288178,148.76112878067923,461.7164749515934,0.0
0.025,3.7513028315695687,-1.8312723290774438,10.0,0.0,9.898262187169253,12.287026661016174,153.29202584451116,461.7164749515934,0.0
0.026000000000000002,3.8353663632896433,-1.8254553129601985,10.0,0.0,10.319625995688792,12.663772941985316,156.6523137916041,461.7164749515934,0.0
0.027,3.9214819246849113,-1.815694946599078,10.0,0.0,10.735512581314744,13.03634889927322,162.55319393660875,461.7164749515934,0.0
0.028,4.014153948722697,-1.7951789336456507,10.0,0.0,11.14490894634562,13.403923152364726,165.56324136590317,461.7164749515934,0.0
0.029,4.1090233287405615,-1.7715672454380622,10.0,0.0,11.547730974609262,13.766170705088578,168.72289706581552,461.7164749515934,0.0
0.03,4.2092769120836495,-1.7403565761801132,10.0,0.0,11.943298498582624,14.12239650499885,171.55463201652472,461.7164749515934,0.0
0.031,4.314164277158082,-1.7033466883414574,10.0,0.0,12.331172869180005,14.47202140299067,175.39823144039178,461.7164749515934,0.0
0.032,4.42395150913605,-1.660729868311555,10.0,0.0,12.710904541191928,14.814443526376216,179.08824259828904,461.7164749515934,0.0
0.033,4.538182079824136,-1.6138499503605976,10.0,0.0,13.082174635566906,15.149129114168495,182.1622119600945,461.7164749515934,0.0
0.034,4.658799042298579,-1.5600710960850441,10.0,0.0,13.444339404492816,15.475347592453735,184.56777184609703,461.7164749515934,0.0
0.035,4.783503370328191,-1.5036160118242503,10.0,0.0,13.797237273628724,15.79264939334453,186.31723552009896,461.7164749515934,0.0
0.036000000000000004,4.91450877239591,-1.4413224860589129,10.0,0.0,14.140287798948545,16.100347250112684,187.88935598928674,461.7164749515934,0.0
0.037,5.050801526790673,-1.3751386716623804,10.0,0.0,14.473145773087225,16.39789822477325,189.05931493080107,461.7164749515934,0.0
0.038,5.192387883021205,-1.305317661725998,10.0,0.0,14.795454574329067,16.68476832774022,189.9181202236632,461.7164749515934,0.0
0.039,5.339029055577259,-1.232411721525921,10.0,0.0,15.106898062420775,16.960467635115823,190.478314439857,461.7164749515934,0.0
0.04,5.490482133076847,-1.1568827924080862,10.0,0.0,15.407188009639908,17.22454793376363,190.74015281279532,461.7164749515934,0.0
0.041,5.646430576571101,-1.0792150885226914,10.0,0.0,15.696068833865695,17.476609399259207,190.68696222062457,461.7164749515934,0.0
0.042,5.80653705902508,-0.9998305063264872,10.0,0.0,15.973312095215736,17.716300571992807,197.36044389184934,461.7164749515934,0.0
0.043000000000000003,5.925622312767327,-0.9942858149543121,10.0,0.0,16.24698407747515,17.948248640500942,202.9639091804671,461.7164749515934,0.0
0.044,6.004351794244445,-1.0534309319180588,10.0,0.0,16.52304507813917,18.176899709959145,212.34391300107896,461.7164749515934,0.0
0.045,6.064471300041738,-1.1381078401609295,10.0,0.0,16.803088094419692,18.404465921715005,214.7351470932062,461.7164749515934,0.0
0.046,6.111026958586817,-1.2382078788683275,10.0,0.0,17.088047665423126,18.632759886541336,223.40793876365947,461.7164749515934,0.0
0.047,6.148722621634429,-1.3447801677316118,10.0,0.0,17.378062627196744,18.863039445635604,230.52027899439014,461.7164749515934,0.0
0.048,6.177334477965402,-1.457602682887631,10.0,0.0,17.673448802480944,19.096522197431863,238.69512260348392,461.7164749515934,0.0
0.049,6.193460204627406,-1.5823821215546823,10.0,0.0,17.975242148518184,19.334707580207418,244.10838843307985,461.7164749515934,0.0
0.05,6.203499491784408,-1.7074103705099302,10.0,0.0,18.28318001122765,19.578310694988478,254.04616088260565,461.7164749515934,0.0
0.051000000000000004,6.204177416702398,-1.8375052509843868,10.0,0.0,18.597744553506917,19.82837310569298,262.6524569076336,461.7164749515934,0.0
0.052000000000000005,6.192808681657527,-1.9766556112419584,10.0,0.0,18.919864473452293,20.086143069659062,270.3905600629667,461.7164749515934,0.0
0.053,6.17400782212603,-2.1157710996332986,10.0,0.0,19.249460597920212,20.3523024364211,278.7621677851009,461.7164749515934,0.0
0.054,6.14644823107213,-2.2559145438012465,10.0,0.0,19.586737670592107,20.627649025374335,285.81812819147405,461.7164749515934,0.0
0.055,6.110600702820406,-2.3952280619425697,10.0,0.0,19.931744747445997,20.91285629489659,295.58497551395527,461.7164749515934,0.0
0.056,6.06758976679562,-2.530896847464957,10.0,0.0,20.284302274792775,21.208416272832213,304.05909702983286,461.7164749515934,0.0
0.057,6.019682795030398,-2.6583577694144225,10.0,0.0,20.643824060757655,21.514515663242882,313.47573781714,461.7164749515934,0.0
0.058,5.969454597056918,-2.773066765443561,10.0,0.0,21.00934698751082,21.8310033252684,320.4317292101117,461.7164749515934,0.0
0.059000000000000004,5.9181367830430505,-2.8736162525829227,10.0,0.0,21.379879741416268,22.157537191328476,327.6256177420082,461.7164749515934,0.0
0.06,5.87142113551538,-2.9518426961744306,10.0,0.0,21.753612020460853,22.493096489261,334.0712218098751,461.7164749515934,0.0
0.061,5.8325815099490095,-3.004708646938943,10.0,0.0,22.128559991542403,22.836278287641747,339.4433402965764,461.7164749515934,0.0
0.062,5.805896409281247,-3.0287088957193142,10.0,0.0,22.502442713212073,23.18518366811036,343.5985953340455,461.7164749515934,0.0
0.063,5.796011282787229,-3.0208116757352785,10.0,0.0,22.872719004075584,23.537407295606748,346.4368246891126,461.7164749515934,0.0
0.064,5.807380165138208,-2.9792037427078184,10.0,0.0,23.236692128169217,23.8900867611163,347.8596160839761,461.7164749515934,0.0
0.065,5.843826287941955,-2.903714309425286,10.0,0.0,23.591648128073622,24.24000020779936,347.7957926894887,461.7164749515934,0.0
0.066,5.908327558174064,-2.7957535891205083,10.0,0.0,23.934979087755202,24.583687231307056,347.13370587164434,461.7164749515934,0.0
0.067,6.003478996110052,-2.657069141702858,10.0,0.0,24.264169971806492,24.917517002961503,343.2536263997183,461.7164749515934,0.0
0.068,6.1297394747364535,-2.492141296503144,10.0,0.0,24.577069526120315,25.2379457475861,340.67307709913763,461.7164749515934,0.0
0.069,6.287619291965109,-2.304283860752936,10.0,0.0,24.871706959984685,25.541517398070713,340.2197551625632,461.7164749515934,0.0
0.07,6.472924862979062,-2.103189602133276,10.0,0.0,25.146996021420428,25.825390812254067,338.4360507116368,461.7164749515934,0.0
0.07100000000000001,6.684041058416917,-1.893068765378871,10.0,0.0,25.402041168674128,26.08703606537463,335.6431739675535,461.7164749515934,0.0
0.07200000000000001,6.914138667457715,-1.6852217388486774,10.0,0.0,25.636984361963737,26.324821732868404,323.3239893511364,461.7164749515934,0.0
0.073,7.168474387418614,-1.4700834062540995,10.0,0.0,25.85062505635367,26.536647199836462,321.4585062010549,461.7164749515934,0.0
0.074,7.443223234663123,-1.2509587971472351,10.0,0.0,26.042131904325597,26.720975173549423,312.5690177017175,461.7164749515934,0.0
0.075,7.7273075295484785,-1.0428587160854532,10.0,0.0,26.212221102045913,26.877519250723342,310.9592814405509,461.7164749515934,0.0
0.076,8.025179713648784,-0.8351537212148515,10.0,0.0,26.36018923908643,27.005492742649707,318.4143728064467,461.7164749515934,0.0
0.077,8.170162218794056,-0.8943430804205103,10.0,0.0,26.514745791076866,27.12249634536253,330.5803499510586,461.7164749515934,0.0
0.078,8.22473133382267,-1.0853856984974972,10.0,0.0,26.685969842535947,27.238702465401403,338.49299809024365,461.7164749515934,0.0
0.079,8.240071392784124,-1.3120850378377789,10.0,0.0,26.874718601999675,27.359268663246837,353.63866835513954,461.7164749515934,0.0
0.08,8.210893789584574,-1.5769294363969575,10.0,0.0,27.08351499574968,27.49001605419566,364.07769127078853,461.7164749515934,0.0
0.081,8.149669763824363,-1.8561389236561627,10.0,0.0,27.312571088832485,27.63501121222623,375.2436524507513,461.7164749515934,0.0
0.082,8.063848570264627,-2.1344901927726276,10.0,0.0,27.56104763314029,27.797240554795994,387.09884342095313,461.7164749515934,0.0
0.083,7.948067602756377,-2.419871514817954,10.0,0.0,27.829507890008113,27.979972312029858,400.0578474618801,461.7164749515934,0.0
0.084,7.815433582597796,-2.6885475780670065,10.0,0.0,28.116095850649472,28.184708851769496,412.4017286203205,461.7164749515934,0.0
0.085,7.660734456094286,-2.9489352387117083,10.0,0.0,28.420454551239096,28.4133210973131,424.3043366155976,461.7164749515934,0.0
0.08600000000000001,7.499329063233316,-3.1755075007399443,10.0,0.0,28.739557678540777,28.66571559031098,435.0110706619694,461.7164749515934,0.0
0.08700000000000001,7.334534317123905,-3.365192868888545,10.0,0.0,29.07058961028813,28.941294314882658,444.47404667353914,461.7164749515934,0.0
0.088,7.1790532038857116,-3.5023232583310966,10.0,0.0,29.40926371047512,29.23787333516702,449.7721478334896,461.7164749515934,0.0
0.089,7.043956299292644,-3.577528136937543,10.0,0.0,29.75062953542413,29.5519677118145,452.1778590514478,461.7164749515934,0.0
0.09,6.940049185971317,-3.5859118399650973,10.0,0.0,30.08943837408995,29.878868046711542,452.8686587863792,461.7164749515934,0.0
0.091,6.88042063711413,-3.5217963814472877,10.0,0.0,30.41991982491166,30.21247930122654,451.2137059431118,461.7164749515934,0.0
0.092,6.8765937156508015,-3.3837524533588144,10.0,0.0,30.736170578598145,30.545602251244595,447.7867274771839,461.7164749515934,0.0
0.093,6.934696303458059,-3.1791231149922248,10.0,0.0,31.032979763978343,30.87060842775607,442.07383528866006,461.7164749515934,0.0
0.094,7.057101420838748,-2.919487468063547,10.0,0.0,31.30609502069319,31.17991136812062,434.79448776575725,461.7164749515934,0.0
0.095,7.243090065078647,-2.6178275763674153,10.0,0.0,31.552242814155722,31.466360840427626,428.5714126005122,461.7164749515934,0.0
0.096,7.487927008431299,-2.2889792728199096,10.0,0.0,31.769264061029418,31.723707967523772,418.1244908813054,461.7164749515934,0.0
0.097,7.779290518927629,-1.95536443354246,10.0,0.0,31.956908746640316,31.9474208898766,404.70848902160293,461.7164749515934,0.0
0.098,8.116806330363083,-1.6160125429686794,10.0,0.0,32.11416769635509,32.13331388440232,395.6473457698417,461.7164749515934,0.0
0.099,8.4933417844145,-1.2762560569601562,10.0,0.0,32.24031035599572,32.278299732615615,383.414429092409,461.7164749515934,0.0
0.1,8.888062751921371,-0.9618093383026083,10.0,0.0,32.33714576030142,32.38174731008644,378.6238577679678,461.7164749515934,0.0
0.101,9.268497011796033,-0.7191178285365969,10.0,0.0,32.41109078303591,32.446633111329575,401.3397409647612,461.7164749515934,0.0
0.10200000000000001,9.405727834907843,-0.8852649025552348,10.0,0.0,32.504832976860996,32.50113378677831,409.60104602968937,461.7164749515934,0.0
0.10300000000000001,9.436404664744824,-1.1892440600644276,10.0,0.0,32.626427255434265,32.557556471013726,425.6385302487424,461.7164749515934,0.0
0.10400000000000001,9.390666204760702,-1.562364911878812,10.0,0.0,32.77950787669823,32.62583431357956,440.16669210274665,461.7164749515934,0.0
0.105,9.29047056061476,-1.9563359907600972,10.0,0.0,32.96371383025119,32.7131565702714,457.897767484978,461.7164749515934,0.0
0.106,9.135495684532877,-2.3655627939671433,9.552849085896574,0.0,33.17930665168199,32.77702587602553,473.3025806063382,461.7164749515934,0.0
0.107,8.924843128838857,-2.753416845904314,1.734581468669008,0.0,33.41829879922616,32.02215163695887,483.8531564752198,461.7164749515934,0.0
0.108,8.405373090403224,-2.9689699712735456,-3.7620732810080533,0.0,33.57773661138046,30.895249868932044,488.4045547652138,461.7164749515934,0.0
0.109,7.634214468596267,-3.006166081578578,-6.304653224141249,0.0,33.61047650639654,29.751897560689876,486.90080646431767,461.7164749515934,0.0
0.11,6.769131744261361,-2.921860839710578,-5.804622388820431,0.0,33.51596164337825,28.894031177548914,483.4947375657614,461.7164749515934,0.0
0.111,5.994829889948587,-2.781358579222393,-4.319370565683976,0.0,33.33049943211267,28.347399715343087,478.71796588912105,461.7164749515934,0.0
0.112,5.404002422980428,-2.621011810122827,-2.1009996367390773,0.0,33.092687173756985,28.12330146500723,473.2968478028971,461.7164749515934,0.0
0.113,5.039004920621046,-2.4639190543335534,0.4937556778598555,0.0,32.84056958075748,28.195312639775675,466.328210040397,461.7164749515934,0.0
0.114,4.904748203305327,-2.3227530088276387,3.931957208221881,0.0,32.606907527087,28.598283816842276,460.05273318926004,461.7164749515934,0.0
0.115,5.010145551755948,-2.2117050048169227,7.0863330514136855,0.0,32.42610517650411,29.237254722779934,454.41727240636135,461.7164749515934,0.0
0.116,5.32430220039997,-2.122988079659711,9.977055468315351,0.0,32.31863176984609,30.047180752626467,448.9483358843656,461.7164749515934,0.0
0.117,5.806751193720549,-2.048536201278096,10.0,0.0,32.29559576946812,30.68905569036001,438.35690747427014,461.7164749515934,0.0
0.11800000000000001,6.332221090051069,-1.9300248139705316,10.0,0.0,32.32675912908129,31.21123289030241,427.62627841494725,461.7164749515934,0.0
0.11900000000000001,6.860836624046218,-1.7582286308763828,10.0,0.0,32.38931140646011,31.631415696435724,415.7378553090375,461.7164749515934,0.0
0.12,7.383757798760545,-1.5358354573376594,10.0,0.0,32.46488144945605,31.96360027581496,409.0086693689342,461.7164749515934,0.0
0.121,7.892381993053735,-1.287671414295367,10.0,0.0,32.54103883309105,32.219403951930765,392.6765324716014,461.7164749515934,0.0
0.122,8.393168092187967,-1.0196149363387628,10.0,0.0,32.60815627382933,32.40724276983665,383.16825681471937,461.7164749515934,0.0
0.123,8.880778065110661,-0.7538401778523736,10.0,0.0,32.660791193630445,32.534380213995625,391.07221150454416,461.7164749515934,0.0
0.124,9.253127059482742,-0.669079905019323,10.0,0.0,32.71421048344055,32.61798511606711,403.0415344437721,461.7164749515934,0.0
0.125,9.38362593681105,-0.9280648335885502,10.0,0.0,32.79998427934777,32.68794007035007,417.54903198761497,461.7164749515934,0.0
0.126,9.417896615886837,-1.272784848622245,10.0,0.0,32.91950554346056,32.75701212287039,434.90666525064205,461.7164749515934,0.0
0.127,9.367940363732842,-1.674397277146689,10.0,0.0,33.074712053401456,32.836966991077674,449.95646003039536,461.7164749515934,0.0
0.128,9.256408740217276,-2.091873771951181,10.0,0.0,33.264299689312246,32.93621593952347,465.7912745749044,461.7164749515934,0.0
0.129,9.093721568906737,-2.5060221122235644,4.944823448309736,0.0,33.48623500895845,32.50520960863885,481.51003174442303,461.7164749515934,0.0
0.13,8.70927972704276,-2.813099171344038,-3.112490704377887,0.0,33.67251315665208,31.344406382420505,486.27089962521205,461.7164749515934,0.0
0.131,7.988297335629246,-2.910727884834407,-5.738468891508584,0.0,33.731751554847264,30.185490479172717,487.40331450718486,461.7164749515934,0.0
0.132,7.131584184446662,-2.8822027930202703,-6.561544728050903,0.0,33.66506047566371,29.17114006863682,485.0494970086221,461.7164749515934,0.0
0.133,6.294139673536253,-2.775785574280943,-5.617966199339809,0.0,33.49218282020171,28.44713175244812,480.1377666274345,461.7164749515934,0.0
0.134,5.598851020471972,-2.6363334647214463,-3.3463139255044068,0.0,33.2499165388029,28.086789773894836,476.2565747050795,461.7164749515934,0.0
0.135,5.126701129022546,-2.4939729877273127,-1.551118961861789,0.0,32.98157755631489,27.957993889848133,469.1463754136317,461.7164749515934,0.0
0.136,4.862215786129693,-2.3542060883314986,1.9296816792417415,0.0,32.71324212950741,28.204551705645972,463.49601156234166,461.7164749515934,0.0
0.137,4.845249895659092,-2.239917455620176,4.737068238779271,0.0,32.485221946356155,28.67284610684421,457.18759103623387,461.7164749515934,0.0
0.138,5.0367715341441635,-2.143030532552396,7.936567340986764,0.0,32.31731854642952,29.37414304611689,451.22616609559003,461.7164749515934,0.0
0.139,5.418801559152195,-2.0652911131320937,10.0,0.0,32.228752713517274,30.143394466572985,446.06484715566603,461.7164749515934,0.0
0.14,5.92752292230545,-1.983882208967156,10.0,0.0,32.21779102067791,30.75409078540534,435.2069599759627,461.7164749515934,0.0
0.14100000000000001,6.460970305234326,-1.858388410851528,10.0,0.0,32.256004900254645,31.249029304579878,421.3136316781542,461.7164749515934,0.0
0.14200000000000002,6.997762973632405,-1.6705411694028525,10.0,0.0,32.32048298521297,31.644582640100126,411.31457579603693,461.7164749515934,0.0
0.14300000000000002,7.523181776295289,-1.4399595151362463,10.0,0.0,32.394583085672636,31.95460030895525,402.4011991097346,461.7164749515934,0.0
0.14400000000000002,8.027495360195694,-1.19647693778513,10.0,0.0,32.4677976760059,32.19080591476842,387.372285176548,461.7164749515934,0.0
0.145,8.53191900005952,-0.921965625924025,10.0,0.0,32.52954994935595,32.36026895448757,378.1469820938735,461.7164749515934,0.0
0.146,9.011381044163068,-0.6695770437367798,10.0,0.0,32.57705566842092,32.47126432911706,392.51074027511805,461.7164749515934,0.0
0.147,9.284167783729956,-0.7408924566465748,10.0,0.0,32.64127893428429,32.550698817278786,405.64799292974476,461.7164749515934,0.0
0.148,9.385159150385336,-1.0269651592322702,10.0,0.0,32.73777816553281,32.62023100027426,422.98070307232575,461.7164749515934,0.0
