timestamp,iq,id,iq_ref,id_ref,vq,vd,omega,omega_ref,r
0.0,0.0,0.0,0.0,0.0,0.0,0.0,0.0,269.062408673219,0.0
0.001,0.0,0.0,10.0,0.0,0.0,1.0999999999999999,8.374087260981787,269.062408673219,0.0
0.002,0.7424683180949697,-0.4070233489531751,10.0,0.0,0.15477256838484924,1.9083284850095532,16.62905099932564,269.062408673219,0.0
0.003,1.7191485631373724,-0.9703700061101496,10.0,0.0,0.43279862722990436,2.5512912345829215,24.076841142089265,269.062408673219,0.0
0.004,2.704224328019561,-1.535303072194327,10.0,0.0,0.8038275258454807,3.059168783396842,32.116010647455745,269.062408673219,0.0
0.005,3.567859676830448,-2.0291756307228206,10.0,0.0,1.2372179402581835,3.4682123364705517,40.24994206224773,269.062408673219,0.0
0.006,4.257098547843553,-2.4244372213359546,10.0,0.0,1.706713717919147,3.8125106533548285,48.38070172683014,269.062408673219,0.0
0.007,4.770261719047889,-2.7186094868608492,10.0,0.0,2.192096082804049,4.1197731561944275,56.40434065420413,269.062408673219,0.0
0.008,5.131929847604435,-2.925885864393346,10.0,0.0,2.6795251403577462,4.41019578280938,64.22948355122877,269.062408673219,0.0
0.009000000000000001,5.377752608240492,-3.0662927679671017,10.0,0.0,3.1606255504353573,4.696895230133807,71.99149271296656,269.062408673219,0.0
0.01,5.5440834130392105,-3.1598765011343417,10.0,0.0,3.631176005850309,4.9871966128120535,79.75036494476481,269.062408673219,0.0
0.011,5.661977945375757,-3.2241009656833794,10.0,0.0,4.089830407760312,5.284217812254939,87.42517761973289,269.062408673219,0.0
0.012,5.755173140168454,-3.2721101063908664,10.0,0.0,4.5369602502559365,5.5883298058407025,94.74904893007036,269.062408673219,0.0
0.013000000000000001,5.8396386751152844,-3.31322434981756,10.0,0.0,4.9738307832304365,5.898384327421228,101.88971470642393,269.062408673219,0.0
0.014,5.926214456748429,-3.3508713646713106,10.0,0.0,5.4017497442651825,6.212441769510976,108.9622388034655,269.062408673219,0.0
0.015,6.0197961182399204,-3.3874489309675218,10.0,0.0,5.821929615549477,6.528457138547489,115.87487139085677,269.062408673219,0.0
0.016,6.122361140358358,-3.4227641235142827,10.0,0.0,6.235211932126175,6.844542621990669,122.62385858969175,269.062408673219,0.0
0.017,6.234080256691996,-3.4552005922183375,10.0,0.0,6.641989425021498,7.159084336171684,129.18297131743404,269.062408673219,0.0
0.018000000000000002,6.3541136671385505,-3.4827006735312254,10.0,0.0,7.042243984302769,7.4707631442383455,135.51942054636888,269.062408673219,0.0
0.019,6.481505014963387,-3.502851358107998,10.0,0.0,7.435582542952893,7.778486813270199,141.63118356333436,269.062408673219,0.0
0.02,6.615507317141201,-3.5132862739797366,10.0,0.0,7.821305946541318,8.08130563150257,147.53967654257312,269.062408673219,0.0
0.021,6.755769802536835,-3.511837135240453,10.0,0.0,8.198475137174091,8.378326057898802,153.662276163055,269.062408673219,0.0
0.022,6.903387141951521,-3.4949156935985375,10.0,0.0,8.565782584189998,8.668526078237033,158.56928723207972,269.062408673219,0.0
0.023,7.0541281072727795,-3.4686594381664877,10.0,0.0,8.922660314857032,8.95133150845184,162.80468875897677,269.062408673219,0.0
0.024,7.215718526477365,-3.4202685356302935,10.0,0.0,9.267070378754175,9.225276632252577,167.67506912025215,269.062408673219,0.0
0.025,7.382838055990473,-3.3587976391030674,10.0,0.0,9.598156059049051,9.489501006008556,170.6780095321838,269.062408673219,0.0
0.026000000000000002,7.559397476155942,-3.2786186581344805,10.0,0.0,9.914350629748764,9.742661169495356,174.70296219438353,269.062408673219,0.0
0.027,7.744901955260256,-3.1813570235574664,10.0,0.0,10.214344769733401,9.98348487520363,177.11178837560985,269.062408673219,0.0
0.028,7.941023287376516,-3.065116712375209,10.0,0.0,10.496608048406122,10.210507322597792,179.79196721781975,269.062408673219,0.0
0.029,8.142889077366057,-2.938596109965925,10.0,0.0,10.760592380797789,10.422809829542125,181.0697808024653,269.062408673219,0.0
0.03,8.360619960635274,-2.7858440212369238,10.0,0.0,11.003871006908627,10.618348779771472,182.3568896346572,269.062408673219,0.0
0.031,8.574445770579171,-2.639370485543929,10.0,0.0,11.227791097392373,10.79731816732783,184.05393489289452,269.062408673219,0.0
0.032,8.814261063615147,-2.450612872935697,10.0,0.0,11.427917515553407,10.956541201042407,181.24798518047388,269.062408673219,0.0
0.033,9.034604252247735,-2.2931673290306875,10.0,0.0,11.608522161566325,11.09801497538241,185.79287435427446,269.062408673219,0.0
0.034,9.288110740953137,-2.081193896096669,10.0,0.0,11.763471098228258,11.217719555018434,179.52824247725383,269.062408673219,0.0
0.035,9.537957175568813,-1.8727247045833275,10.0,0.0,11.894083722450478,11.316000527436376,179.78882278870722,269.062408673219,0.0
0.036000000000000004,9.76830828400332,-1.6939321108273835,10.0,0.0,12.003880688094245,11.39467450745311,182.60983038415296,269.062408673219,0.0
0.037,10.018820276596037,-1.4785761734863585,10.0,0.0,12.088664128005359,11.451207977931691,179.8257599114069,269.062408673219,0.0
0.038,10.271228734870832,-1.2539161955026894,10.0,0.0,12.148063532768424,11.485306634869229,174.3917880056776,269.062408673219,0.0
0.039,10.506045831315262,-1.0511318086393926,10.0,0.0,12.18487317997381,11.498629570563176,170.99830016805564,269.062408673219,0.0
0.04,10.72893656698249,-0.8601202418982687,10.0,0.0,12.200350727555165,11.492131367449323,175.07464021416172,269.062408673219,0.0
0.041,10.895320850853723,-0.7551300020062444,10.0,0.0,12.20399188934628,11.471757375535818,182.15524615971106,269.062408673219,0.0
0.042,10.954488002706803,-0.8136070983633408,10.0,0.0,12.212713918765141,11.448940355127654,182.57608848442072,269.062408673219,0.0
0.043000000000000003,10.97706062985641,-0.9117560714377468,10.0,0.0,12.228493659275912,11.427385922234269,181.64964372516488,269.062408673219,0.0
0.044,10.951551277810314,-1.0683690227025764,10.0,0.0,12.25678591735465,11.41259666167786,186.09134026907304,269.062408673219,0.0
0.045,10.894658205730149,-1.2580813129275876,10.0,0.0,12.300072245981983,11.408118697393322,193.06482176589503,269.062408673219,0.0
0.046,10.83592384022294,-1.433398644244071,10.0,0.0,12.35596992886069,11.414309011884967,191.45133770740028,269.062408673219,0.0
0.047,10.756878480849856,-1.6304682472465126,10.0,0.0,12.426821357917792,11.433577709091285,197.96827240552125,269.062408673219,0.0
0.048,10.654864851183746,-1.859698961031624,10.0,0.0,12.515759196276154,11.46843572515222,202.8455211120059,269.062408673219,0.0
0.049,10.571064200380986,-2.0525060957364882,10.0,0.0,12.618205530084456,11.516899658734545,204.21189331341577,269.062408673219,0.0
0.05,10.454741552465592,-2.3005467503057098,10.0,0.0,12.740610024525733,11.582719317102132,213.2687961446683,269.062408673219,0.0
0.051000000000000004,10.359912958480514,-2.511261177243716,10.0,0.0,12.878054215777118,11.663465377936287,213.75761688723034,269.062408673219,0.0
0.052000000000000005,10.24071008826863,-2.765699856060563,10.0,0.0,13.035709704387262,11.762045281595624,223.50649213743569,269.062408673219,0.0
0.053,10.1429158341513,-2.983613742546274,10.0,0.0,13.20888377522758,11.876098083000835,226.89048549706834,269.062408673219,0.0
0.054,10.017502630047847,-3.250621046167663,10.0,0.0,13.403337383657885,12.008880521259758,233.1041031052805,269.062408673219,0.0
0.055,9.921421971398487,-3.4656775864934524,10.0,0.0,13.612610021470678,12.157144816946214,241.96357563389043,269.062408673219,0.0
0.056,9.795488114598038,-3.7313003937831595,10.0,0.0,13.842849768469451,12.324401864506866,242.2372508271708,269.062408673219,0.0
0.057,9.689986557376841,-3.958643860577777,10.0,0.0,14.089142798798907,12.508303014737647,255.3773819602665,269.062408673219,0.0
0.058,9.58251939732372,-4.1848950688832485,10.0,0.0,14.351810839364163,12.709209725011933,261.24042777800224,269.062408673219,0.0
0.059000000000000004,9.464838920619652,-4.4240824841294755,10.0,0.0,14.632350850494348,12.928162749152234,264.1044349869121,269.062408673219,0.0
0.06,9.373885458856169,-4.611320247634925,8.814821084610802,0.0,14.924936442758687,13.031732867325651,272.37922503737883,269.062408673219,0.0
0.061,9.195674143234998,-4.74545797342594,4.6442578957358425,0.0,15.211503259815888,12.725988081386497,273.43072856458093,269.062408673219,0.0
0.062,8.69433868567422,-4.675574767152765,4.074822933221173,0.0,15.429810386625492,12.511907028934594,270.68843252402166,269.062408673219,0.0
0.063,8.091935087838541,-4.459245156846907,5.429710714992781,0.0,15.581781270438034,12.55704784121518,276.9125366256853,269.062408673219,0.0
0.064,7.617132820023726,-4.252393126112878,2.239157384636311,0.0,15.702478719819696,12.294566129973312,274.59972541173573,269.062408673219,0.0
0.065,7.021896351216726,-3.9736122516118106,3.3401898242259156,0.0,15.756260877251224,12.284149425342832,267.8923774777678,269.062408673219,0.0
0.066,6.596499674828391,-3.6593913114721226,6.70556410316439,0.0,15.771846653806204,12.68017472292054,276.83175861340754,269.062408673219,0.0
0.067,6.5541230887714494,-3.5055862351595506,2.158180035942637,0.0,15.811700033470466,12.504697535914577,269.436608893106,269.062408673219,0.0
0.068,6.367607013300134,-3.283430800385749,5.852012893894547,0.0,15.807121309405712,12.82264186306384,267.7784594571368,269.062408673219,0.0
0.069,6.502322653271489,-3.0876356316841957,6.693927104039952,0.0,15.815478976252924,13.147322238476615,273.44911137395525,269.062408673219,0.0
0.07,6.796963946624591,-3.0098280554208467,3.8147341186233747,0.0,15.848868032254748,13.084176586666427,259.93796566807345,269.062408673219,0.0
0.07100000000000001,6.98774465482569,-2.793776050762989,10.0,0.0,15.849615972725635,13.721816117474447,269.43238683550595,269.062408673219,0.0
0.07200000000000001,7.588570489235979,-2.7433295491754515,5.897410008244294,0.0,15.910664477102188,13.718445896638737,257.751768625573,269.062408673219,0.0
0.073,8.008800253182269,-2.595770170406416,10.0,0.0,15.949544042308789,14.173611331644945,264.748029692901,269.062408673219,0.0
0.074,8.662372258214852,-2.4932342235653486,8.358822259552658,0.0,16.020248834130527,14.29790210539031,252.3038145670059,269.062408673219,0.0
0.075,9.226280620495553,-2.338488422357795,10.0,0.0,16.08031554548021,14.558281409996441,259.0795340452327,269.062408673219,0.0
0.076,9.846446932824108,-2.179128464251514,10.0,0.0,16.144431378775923,14.719638467139122,250.53025705760356,269.062408673219,0.0
0.077,10.46284015130253,-1.9561114992105177,10.0,0.0,16.195333067882885,14.809669810987764,245.86494049428435,269.062408673219,0.0
0.078,10.996733780642073,-1.7468026514148403,10.0,0.0,16.2293539188569,14.843223822319677,247.63969234514892,269.062408673219,0.0
0.079,11.50357646874297,-1.4522148817168206,10.0,0.0,16.233016519677875,14.826410758218088,238.91928152075522,269.062408673219,0.0
0.08,11.956513129336383,-1.1260049069757796,10.0,0.0,16.20169433448207,14.766890654824495,230.57699198317323,269.062408673219,0.0
0.081,12.342638494106529,-0.8124290014422193,10.0,0.0,16.1363211076052,14.672245919731898,225.12083639961742,269.062408673219,0.0
0.082,12.687482372524352,-0.4939328643285552,10.0,0.0,16.036121913879583,14.546456762482618,231.81696797782269,269.062408673219,0.0
0.083,12.911869700838789,-0.3237042565706284,10.0,0.0,15.917823538319373,14.40199243425529,232.45351685730952,269.062408673219,0.0
0.084,12.937575895451811,-0.43347160358211106,10.0,0.0,15.810685261741288,14.259560893170383,233.56018302141592,269.062408673219,0.0
0.085,12.875075208960562,-0.6431222289854316,10.0,0.0,15.72198155403678,14.127790815996331,236.34354800963078,269.062408673219,0.0
0.08600000000000001,12.753765176498693,-0.9082388815393241,10.0,0.0,15.656037534912203,14.013046472475123,239.5952009095413,269.062408673219,0.0
0.08700000000000001,12.59196438664174,-1.2051888473345638,10.0,0.0,15.615226813059904,13.91976714795323,243.19786616653332,269.062408673219,0.0
0.088,12.39822122938104,-1.528471369317805,10.0,0.0,15.601760808700849,13.851428423098401,249.88909853049307,269.062408673219,0.0
0.089,12.197264333284924,-1.8438313733783684,10.0,0.0,15.614264307519047,13.808744797291116,251.15952200145637,269.062408673219,0.0
0.09,11.968795939483176,-2.1943975840438408,10.0,0.0,15.656657777007288,13.794701838303608,260.23056952829864,269.062408673219,0.0
0.091,11.746076600620087,-2.528646930480874,10.0,0.0,15.726669369649379,13.808516965500596,261.2678114663123,269.062408673219,0.0
0.092,11.508226402373856,-2.886776074323305,10.0,0.0,15.827113028105256,13.851888067660557,271.1028069061839,269.062408673219,0.0
0.093,11.286272319893524,-3.2167586867090527,6.242754425280033,0.0,15.954566226855553,13.50970585932128,270.2623175885502,269.062408673219,0.0
0.094,10.768669091794445,-3.429148959224373,6.650999994943563,0.0,16.05511898874971,13.35168347436724,275.4366582467753,269.062408673219,0.0
0.095,10.220015632094615,-3.556800803411112,4.000087170095446,0.0,16.141732036094442,12.979011585954092,277.1672378805807,269.062408673219,0.0
0.096,9.471392057878045,-3.606372116698234,3.0537490611191274,0.0,16.1865929158831,12.651542185944638,276.42306770298904,269.062408673219,0.0
0.097,8.670416006410074,-3.5518015902209794,3.352227559617269,0.0,16.18772229664658,12.48422295975886,278.5363804157853,269.062408673219,0.0
0.098,7.940921367915551,-3.5117432337408356,2.2008314857934845,0.0,16.168146102767093,12.276344890882138,277.45096195664104,269.062408673219,0.0
0.099,7.256958986891782,-3.4335083978727106,2.65965518253139,0.0,16.121534473007188,12.217222492412212,277.21183893677835,269.062408673219,0.0
0.1,6.712593832963824,-3.383221919399799,2.697722389827141,0.0,16.068922602102937,12.211990869770274,277.35278050435744,269.062408673219,0.0
0.101,6.316733937008005,-3.339659725020319,2.544347887726211,0.0,16.016759779427908,12.222870292013912,279.09741812354565,269.062408673219,0.0
0.10200000000000001,6.025999502471965,-3.312531401355111,1.5716789836288392,0.0,15.968352687585366,12.150007844175384,273.36162037600724,269.062408673219,0.0
0.10300000000000001,5.769149433513613,-3.2309966337046125,4.396585740370163,0.0,15.908802518938325,12.425403527459034,275.40286223242305,269.062408673219,0.0
0.10400000000000001,5.790477159788589,-3.2075209518146943,3.3125602765702187,0.0,15.880979958152967,12.514898206384379,277.9652998467382,269.062408673219,0.0
0.105,5.835150538264552,-3.2000405109283925,1.9423125576774414,0.0,15.864301029660083,12.448073372528837,267.05246632479555,269.062408673219,0.0
0.106,5.835395322800305,-3.0720861731289695,7.418828742133012,0.0,15.828607337881865,13.002802194174434,274.5887742401585,269.062408673219,0.0
0.107,6.238554938467926,-3.070536580344716,3.595411128782139,0.0,15.853064985617745,12.978802555286407,269.66311324347726,269.062408673219,0.0
0.108,6.466880394046793,-3.009656690851545,6.052234581420179,0.0,15.865995612774835,13.247049197027476,266.487110247081,269.062408673219,0.0
0.109,6.859339966561399,-2.888009977931045,7.665989063879698,0.0,15.891685501864,13.601821697433492,271.41726699302126,269.062408673219,0.0
0.11,7.355859836711199,-2.8586700070540476,5.177362107711536,0.0,15.948272722417581,13.583106836713393,259.2873285704522,269.062408673219,0.0
0.111,7.728717212485554,-2.6623027189215,10.0,0.0,15.976022732857988,14.091249509200399,267.23056066620876,269.062408673219,0.0
0.112,8.357327107993358,-2.5905424610448864,7.359982909815081,0.0,16.04588205401795,14.147306141891402,255.56680131745205,269.062408673219,0.0
0.113,8.871496027597424,-2.4050140100789497,10.0,0.0,16.09467057930353,14.471272612050125,261.72728510954096,269.062408673219,0.0
0.114,9.48604715043135,-2.2698722295610407,10.0,0.0,16.157966587729117,14.678862182503993,253.22377551786437,269.062408673219,0.0
0.115,10.130681243645917,-2.068707231898347,10.0,0.0,16.21491522041981,14.807258157729764,249.4801873547915,269.062408673219,0.0
0.116,10.699943837883172,-1.8876062846478616,10.0,0.0,16.261099133143087,14.87233685426808,250.94324849108523,269.062408673219,0.0
0.117,11.249312352111453,-1.6072621868666097,10.0,0.0,16.280145682964438,14.880788161802151,240.90106734951456,269.062408673219,0.0
0.11800000000000001,11.73386440784807,-1.3003118790707662,10.0,0.0,16.267171615677324,14.842491952576204,233.42335303240924,269.062408673219,0.0
0.11900000000000001,12.145626823737656,-1.0002255561593518,10.0,0.0,16.22172534175404,14.766279612353657,231.02949080832997,269.062408673219,0.0
0.12,12.513662524029343,-0.6845632905419317,10.0,0.0,16.141480475212017,14.656777575887844,229.09090694538838,269.062408673219,0.0
0.121,12.856444716204326,-0.3443453164627659,10.0,0.0,16.024042537185085,14.516175572278076,235.32657665105057,269.062408673219,0.0
0.122,12.95735683182371,-0.3572778438503592,10.0,0.0,15.909112950353297,14.370217464430212,234.0481731327734,269.062408673219,0.0
0.123,12.943425125060383,-0.511045883188924,10.0,0.0,15.80786567047327,14.22990381758412,235.13004499115917,269.062408673219,0.0
0.124,12.848415754701838,-0.7541163620557079,10.0,0.0,15.72791182617859,14.103808521106437,238.503275398475,269.062408673219,0.0
0.125,12.704613611886016,-1.0387753200893957,10.0,0.0,15.67222561726065,13.997195511853205,241.48878594971583,269.062408673219,0.0
0.126,12.529314533638916,-1.343592444561049,10.0,0.0,15.64213002242073,13.913520059812534,247.21011565233823,269.062408673219,0.0
0.127,12.322781599522452,-1.6775181686102432,10.0,0.0,15.64036010026142,13.856168225462275,250.71849476415727,269.062408673219,0.0
0.128,12.114280150060122,-1.9981468973507241,10.0,0.0,15.664961889803985,13.825244412430797,255.17950757949987,269.062408673219,0.0
0.129,11.87666551225285,-2.3599679958355013,10.0,0.0,15.720605152635065,13.823925755320904,261.4033721963852,269.062408673219,0.0
0.13,11.657384395391789,-2.6853610587108685,10.0,0.0,15.802727249403485,13.850048066681754,266.502744038446,269.062408673219,0.0
0.131,11.411459733210537,-3.0559362996310244,8.759174406771157,0.0,15.916758713503615,13.77013844299951,270.145097280894,269.062408673219,0.0
0.132,11.101299395317922,-3.329366919155134,6.927170899470409,0.0,16.037767684563956,13.552169188771085,276.3777226529401,269.062408673219,0.0
0.133,10.605092486218123,-3.549882941571674,3.737705073650133,0.0,16.146401289366008,13.087057707926366,274.0867901723452,269.062408673219,0.0
0.134,9.852833528660806,-3.577792984508454,4.832927498956323,0.0,16.198525330102257,12.90947627692852,278.13973946007974,269.062408673219,0.0
0.135,9.13682872709334,-3.5850249322035115,2.7156795472204562,0.0,16.228195237482183,12.582253832756924,279.53918796013943,269.062408673219,0.0
0.136,8.334106579070662,-3.55031247222568,1.9111875043214068,0.0,16.218285219632445,12.304538366805758,277.3745979553069,269.062408673219,0.0
0.137,7.554110183617774,-3.4465991178706696,2.9103606139167875,0.0,16.170533312593292,12.249329790168812,277.9275304140592,269.062408673219,0.0
0.138,6.947651243062026,-3.384756052631869,2.545243167132231,0.0,16.116270134961646,12.203622749755993,278.21116565470993,269.062408673219,0.0
0.139,6.467513978335957,-3.3493031822883923,2.311937976991967,0.0,16.059581185966486,12.181798208888015,276.75679291946796,269.062408673219,0.0
0.14,6.113059562426652,-3.296204187477945,2.9621805021504652,0.0,16.000892317058323,12.264535569978925,276.22516596748585,269.062408673219,0.0
0.14100000000000001,5.909971183236262,-3.2730385019906634,3.156366405198849,0.0,15.954328835694579,12.366783509705508,277.8588852107325,269.062408673219,0.0
0.14200000000000002,5.8348027131741,-3.244404395385387,2.251542018200378,0.0,15.919728401568154,12.358915413637678,275.8633387162014,269.062408673219,0.0
0.14300000000000002,5.7503158694541,-3.2023294391286146,3.181305965036125,0.0,15.883459297125404,12.468238229894489,268.4694825938414,269.062408673219,0.0
0.14400000000000002,5.793656121041459,-3.1052728356027313,6.884163287009889,0.0,15.851493907927326,12.955406223918285,277.63013893022514,269.062408673219,0.0
0.145,6.157897502541484,-3.1316871081827533,2.2181578162479596,0.0,15.875317993070494,12.800738555167216,268.99151678175946,269.062408673219,0.0
0.146,6.27729675106036,-3.033370920726624,6.538177809395398,0.0,15.87021397947827,13.176290812237335,269.2236552764217,269.062408673219,0.0
