timestamp,iq,id,iq_ref,id_ref,vq,vd,omega,omega_ref,r
0.0,0.0,0.0,0.0,0.0,0.0,0.0,0.0,67.64415568133508,0.0
0.001,0.0,0.0,10.0,0.0,0.0,1.0999999999999999,12.04468465737075,67.64415568133508,0.0
0.002,0.4329632315019138,-0.22847766568960065,10.0,0.0,0.13513254322585608,1.9423740445347892,21.681505102806472,67.64415568133508,0.0
0.003,0.8244098827122188,-0.4526344591074299,10.0,0.0,0.36336170720167066,2.6752944396205702,32.00727061623916,67.64415568133508,0.0
0.004,1.1485506910399192,-0.6295870204144801,10.0,0.0,0.6592832080980789,3.326004689191412,42.816299894863945,67.64415568133508,0.0
0.005,1.4079854575477002,-0.7717986297144933,10.0,0.0,1.004557335271862,3.915939647662231,53.80974324914773,67.64415568133508,0.0
0.006,1.6177325415215322,-0.8853911799950296,7.9726189473138644,0.0,1.3853706100132066,4.237918775635826,62.4049791752795,67.64415568133508,0.0
0.007,1.702937649207354,-0.9310263155888089,3.7273927493085353,0.0,1.764184409490287,4.111805156026771,66.45544935261348,67.64415568133508,0.0
0.008,1.586250901286434,-0.8651112555795618,1.7140447239287586,0.0,2.0847984591018,3.870855850862766,68.87556110548,67.64415568133508,0.0
0.009000000000000001,1.3947096278780962,-0.7520663101810554,0.4916747932540504,0.0,2.3374803798420167,3.591638341651602,70.10773106261995,67.64415568133508,0.0
0.01,1.185542361991037,-0.6307339421018285,-0.14904593912877084,0.0,2.5247562465523656,3.3284481806937034,69.77329683523439,67.64415568133508,0.0
0.011,0.9936201487892635,-0.5191201082058507,-0.003120236974985202,0.0,2.655921312448125,3.1517834278567007,70.79959488789481,67.64415568133508,0.0
0.012,0.8528252955580361,-0.4338893830098408,-0.5478236553707938,0.0,2.748044155038006,2.9580932355713143,69.55920792184487,67.64415568133508,0.0
0.013000000000000001,0.7234707483088573,-0.3605705881912302,0.05321930524907814,0.0,2.804372933962274,2.877367158290696,70.25460144251078,67.64415568133508,0.0
0.014,0.6512293389544039,-0.31425281832027885,-0.3205819126956301,0.0,2.8426344605284353,2.769871012606948,69.14870493407767,67.64415568133508,0.0
0.015,0.5827727717214841,-0.2759845385408833,0.21732084899349635,0.0,2.862573886792581,2.746665758415518,69.72447329326852,67.64415568133508,0.0
0.016,0.5547135371418559,-0.25525111136389633,-0.09136650672126101,0.0,2.8763008508194936,2.6908422856555623,68.7401562316028,67.64415568133508,0.0
0.017,0.5218961143545889,-0.2372072463449102,0.389832018608922,0.0,2.881295280287402,2.701321892078562,69.4366751419222,67.64415568133508,0.0
0.018000000000000002,0.5182270500103205,-0.23062732098331282,0.023647368843351946,0.0,2.8862948743112327,2.6662361069285367,68.42601197604716,67.64415568133508,0.0
0.019,0.5011945479393987,-0.22114534592579038,0.5211603888337463,0.0,2.8863087124149676,2.695384022976854,69.26508748462928,67.64415568133508,0.0
0.02,0.5093838805577496,-0.2214043481384782,0.08541331650974793,0.0,2.88935926830713,2.667640071466441,68.26161546650674,67.64415568133508,0.0
0.021,0.49865914462375305,-0.21489176429890358,0.5809747277192996,0.0,2.8886113992145566,2.7031064109315004,69.0814740831898,67.64415568133508,0.0
0.022,0.5107630441390667,-0.21761257520028787,0.15667223535922048,0.0,2.8918493660152933,2.681883764963068,68.10223782767856,67.64415568133508,0.0
0.023,0.503797975831882,-0.21249551482386916,0.6417095416514051,0.0,2.8920511867886938,2.7215915053962365,69.0247964880815,67.64415568133508,0.0
0.024,0.5181521309575611,-0.21646153114430058,0.16662380338247007,0.0,2.8966910319270824,2.6985902418440273,68.00206691848508,67.64415568133508,0.0
0.025,0.5110490102508577,-0.21061566183448105,0.6744094758091808,0.0,2.897884060409127,2.7398852553394986,68.97106540455158,67.64415568133508,0.0
0.026000000000000002,0.5257489503441174,-0.21475479648964363,0.1766411355437676,0.0,2.9036010508976804,2.715649671562839,67.91056854474671,67.64415568133508,0.0
0.027,0.5183747595451006,-0.2080788927088794,0.704225436812087,0.0,2.9055470431972754,2.758379462143695,68.91577358070289,67.64415568133508,0.0
0.028,0.5333628394995034,-0.2124167126314518,0.1889067398403188,0.0,2.9121153345542887,2.7333475425138736,67.82488036490412,67.64415568133508,0.0
0.029,0.5259584755004728,-0.20499707327469147,0.7325461009040144,0.0,2.9146640662841485,2.7773935215088965,68.85583634377261,67.64415568133508,0.0
0.03,0.5412431526305012,-0.2096177942931737,0.2049513048453937,0.0,2.9219449984461257,2.752062596476024,67.74644754996996,67.64415568133508,0.0
0.031,0.5340727190460135,-0.20154547355585417,0.7586227830603706,0.0,2.9250305823973277,2.7971142621924647,68.84785590085694,67.64415568133508,0.0
0.032,0.5495562948290467,-0.20651301634580704,0.19588160542165967,0.0,2.9329399274393215,2.7687561777379948,67.63522801900943,67.64415568133508,0.0
0.033,0.5416315117395223,-0.19714660177939092,0.8022848229686711,0.0,2.936142548501463,2.817383163837407,68.75117603848551,67.64415568133508,0.0
0.034,0.5581502770251557,-0.20296233719061907,0.2332406096591273,0.0,2.9446210011082328,2.7909125057812587,67.58049189073367,67.64415568133508,0.0
0.035,0.5515594796411388,-0.1934804680261561,0.8192193214410626,0.0,2.948503379686506,2.838975034585608,68.6427937100271,67.64415568133508,0.0
0.036000000000000004,0.5678714725267199,-0.1994686131193588,0.2780820315074233,0.0,2.9575572879392835,2.8153744321655765,67.54918496791706,67.64415568133508,0.0
0.037,0.5627175631649038,-0.18991547032518225,0.8258361096966282,0.0,2.9622350179664894,2.861433652271629,68.54135900660359,67.64415568133508,0.0
0.038,0.5782610518209765,-0.1957880516684969,0.32077705710067905,0.0,2.971792412377286,2.840559363956565,67.52325629521135,67.64415568133508,0.0
0.039,0.5743942447043923,-0.186058029142587,0.8310374066580319,0.0,2.9771776102242136,2.8844882565607404,68.42489700824349,67.64415568133508,0.0
0.04,0.5891103686090646,-0.19178220001100052,0.3724096368728793,0.0,2.9871441365676503,2.86735367981657,67.51842821895148,67.64415568133508,0.0
0.041,0.5869049571199798,-0.1821407247615968,0.8269013061427184,0.0,2.993282748616208,2.907899331201541,68.28777142118281,67.64415568133508,0.0
0.042,0.6004282658583538,-0.18745175249393548,0.4357935476285779,0.0,3.003542692401458,2.8959278904475054,67.53817052497503,67.64415568133508,0.0
0.043000000000000003,0.6003156597562952,-0.17825804835413028,0.8116538472960689,0.0,3.0105150800000775,2.9315829184545734,68.12722800126963,67.64415568133508,0.0
0.044,0.612234383357646,-0.18277819174244142,0.512294385949424,0.0,3.0209448844536544,2.9263693530188215,67.5788488060768,67.64415568133508,0.0
0.045,0.6146213870903318,-0.17453704318838295,0.787137052298418,0.0,3.028858624143469,2.955803029309276,67.9443239596373,67.64415568133508,0.0
0.046,0.624738042047075,-0.1776937437144369,0.6013977927351479,0.0,3.0393540060367545,2.958816004716303,67.64779111287156,67.64415568133508,0.0
0.047,0.6300779891323227,-0.17075054481822452,0.7496278618026546,0.0,3.0483058283975693,2.980253693335204,67.71743345282887,67.64415568133508,0.0
0.048,0.6377211025400114,-0.17236510896221285,0.7140739141090606,0.0,3.0587532714289933,2.9942622173873326,67.82204192283145,67.64415568133508,0.0
0.049,0.6466921442908262,-0.1677153294476255,0.6599908166928097,0.0,3.0690292011744447,3.0014106486400256,67.33589612301445,67.64415568133508,0.0
0.05,0.650235533158599,-0.16550029483179987,0.9061463121845137,0.0,3.078795225058024,3.0361897028622984,67.9863883885903,67.64415568133508,0.0
0.051000000000000004,0.6652231023685476,-0.16666653557476915,0.5774778523240368,0.0,3.091212988803358,3.0282391697867155,67.19381298721032,67.64415568133508,0.0
0.052000000000000005,0.6665430387669065,-0.15812282669511435,0.9782689799552731,0.0,3.1006424524824086,3.0697038577195452,67.7838224297076,67.64415568133508,0.0
0.053,0.6812834339202831,-0.16350982292540525,0.6818675912229097,0.0,3.1139534452609654,3.0697447150872375,67.53563021636067,67.64415568133508,0.0
0.054,0.686870413423047,-0.15537696319047098,0.8070489525461165,0.0,3.124988939965291,3.087379385835122,67.33532963216757,67.64415568133508,0.0
0.055,0.6934712158831069,-0.15521612682647115,0.9102875051343422,0.0,3.136747988871281,3.1137883476745447,67.78464307404202,67.64415568133508,0.0
0.056,0.7065717887249167,-0.15373302708443437,0.6842259102700469,0.0,3.1498104964626306,3.111458102271671,67.03319228772764,67.64415568133508,0.0
0.057,0.7097199271578556,-0.14597131157725407,1.0660609373633108,0.0,3.1604947710461886,3.1547143115979144,67.53817013436269,67.64415568133508,0.0
0.058,0.7259128822230858,-0.15146003000722935,0.814631869515513,0.0,3.1751176152863834,3.161488036042854,67.60872699390687,67.64415568133508,0.0
0.059000000000000004,0.7343730678186855,-0.1448928269196686,0.7797077266177035,0.0,3.1881782680231208,3.166950616562174,66.96227967180106,67.64415568133508,0.0
0.06,0.7380072847657688,-0.14047754060053685,1.1097501477659508,0.0,3.2000591040738886,3.209511750050298,67.5793355347966,67.64415568133508,0.0
0.061,0.7555355712214493,-0.14399084696843145,0.8018704177335645,0.0,3.215438586432052,3.2099458899389877,67.36256736723348,67.64415568133508,0.0
0.062,0.7616527816958771,-0.13603185830441278,0.913070384656139,0.0,3.228412912726547,3.226687747448802,67.00552227326929,67.64415568133508,0.0
0.063,0.7688305586042203,-0.1346529720279982,1.0979792657188914,0.0,3.2416919045388077,3.261552445729588,67.55024492132301,67.64415568133508,0.0
0.064,0.785182717063831,-0.1353862096298355,0.8265570492921515,0.0,3.2572239119968875,3.260826081084479,67.19245549141581,67.64415568133508,0.0
0.065,0.790553606349954,-0.12697708095601912,1.0099687661449441,0.0,3.2701977457145093,3.2841877884308848,66.9393610973826,67.64415568133508,0.0
0.066,0.8003664987838234,-0.1269814205283729,1.143563909001075,0.0,3.2842949354347084,3.3183463476851953,67.43426496876891,67.64415568133508,0.0
0.067,0.817195131213698,-0.12773094830315873,0.89821088043358,0.0,3.300480666767821,3.320420964772161,67.1724907296131,67.64415568133508,0.0
0.068,0.8238702052999632,-0.11987027175742143,1.033814649528706,0.0,3.314383116978539,3.340710666344689,66.79274212282242,67.64415568133508,0.0
0.069,0.8332249671723162,-0.11867619641833554,1.2322030885091748,0.0,3.3288715508035973,3.379866060312842,67.29455476868527,67.64415568133508,0.0
0.07,0.8517244232739694,-0.1208080491361272,0.984792774704245,0.0,3.3460731251953124,3.385414346805879,67.29788698951074,67.64415568133508,0.0
0.07100000000000001,0.8604783478761976,-0.11337711445574333,0.9865893512097532,0.0,3.361270649455139,3.3940217514972097,66.65418832325197,67.64415568133508,0.0
0.07200000000000001,0.8668610667035491,-0.10785309052871489,1.31833835791997,0.0,3.375275828472948,3.439148033293473,66.89900544142975,67.64415568133508,0.0
0.073,0.886060791528021,-0.11265725710263313,1.2033813012301344,0.0,3.3929768163310032,3.46315129596649,67.36132417232794,67.64415568133508,0.0
0.074,0.9017369796404229,-0.1106931368645529,0.9750502508711107,0.0,3.4110439367786256,3.4610251027412953,67.0852558118909,67.64415568133508,0.0
0.075,0.9069432752126831,-0.10080666303777486,1.118673429784071,0.0,3.4260238549404023,3.4785841704355747,66.44388079559621,67.64415568133508,0.0
0.076,0.9159850018630105,-0.09746383600206099,1.4513636867888038,0.0,3.4409928418197686,3.5301024926821807,66.8219086035575,67.64415568133508,0.0
0.077,0.9389901029661722,-0.10322340833723515,1.2705722535859354,0.0,3.4602837434630853,3.5523117773148556,67.69408925091204,67.64415568133508,0.0
0.078,0.9526041312346754,-0.10487306011865027,0.8339825942128957,0.0,3.479990349377941,3.5267447833510848,68.16932953541392,67.64415568133508,0.0
0.079,0.9434595216045425,-0.09861265175706724,0.5911107134211676,0.0,3.4944644538673466,3.484497186423818,67.89468360218403,67.64415568133508,0.0
0.08,0.9217467764487594,-0.0911196724526282,0.7259284008276237,0.0,3.5025047645752116,3.4674773799316787,67.97481676195825,67.64415568133508,0.0
0.081,0.9072578117155824,-0.09147599299484399,0.6825552101342817,0.0,3.5081531886157653,3.448221015978301,68.73748426499142,67.64415568133508,0.0
0.082,0.8945085616971606,-0.09261193464473255,0.2902881727811326,0.0,3.51143252423299,3.3899970164770963,68.76684423026767,67.64415568133508,0.0
0.083,0.8696383830191547,-0.08202530209073178,0.2643813046536856,0.0,3.5073856373409344,3.341604492521645,68.29919472872825,67.64415568133508,0.0
0.084,0.8447078164697415,-0.07639610839479194,0.4916556649494601,0.0,3.4983908417615246,3.3253994411199974,68.34115596960518,67.64415568133508,0.0
0.085,0.8329871752492108,-0.08000368032135091,0.4637050416282942,0.0,3.489128145448773,3.3056080680010522,68.67218041058153,67.64415568133508,0.0
0.08600000000000001,0.8236677834017021,-0.08354810626813114,0.2879125738476547,0.0,3.4791663925902814,3.2687198240310886,68.78911700712374,67.64415568133508,0.0
0.08700000000000001,0.809680536470607,-0.0810104345725271,0.2179946623186665,0.0,3.4661974024746587,3.2300365868258343,68.3593145722389,67.64415568133508,0.0
0.088,0.7928856341891828,-0.07987314185865385,0.42574429085204557,0.0,3.4505572621685037,3.2191839793651513,68.40263930409765,67.64415568133508,0.0
0.089,0.7862411696846888,-0.08636894627490871,0.39649708869504674,0.0,3.436121786559821,3.203120872169996,68.61636088626314,67.64415568133508,0.0
0.09,0.7812287963327087,-0.09029391582758106,0.2799142455630208,0.0,3.4218903363991235,3.17517380383421,68.49839950315868,67.64415568133508,0.0
0.091,0.7709678347755383,-0.092499779619158,0.3303524988970137,0.0,3.4064907197424628,3.1563909156517607,68.45350049085388,67.64415568133508,0.0
0.092,0.7631131099142265,-0.09666781002320962,0.34470855695422387,0.0,3.3911892006397553,3.1397825485940163,68.50976287440578,67.64415568133508,0.0
0.093,0.7568272375374205,-0.10121741632055575,0.3079212932475687,0.0,3.3762157731302103,3.1197276054563066,68.54145949089126,67.64415568133508,0.0
0.094,0.7496069086402707,-0.10465676588721218,0.2830999469092689,0.0,3.3610670264472073,3.0985497158761848,68.4842894843775,67.64415568133508,0.0
0.095,0.7414297622484232,-0.10805050761899299,0.3032836121357235,0.0,3.3456542835693215,3.081270440038199,68.48392944940605,67.64415568133508,0.0
0.096,0.7345737697945721,-0.11220941467902329,0.29506589194073896,0.0,3.3304784297547143,3.063744419328518,68.49824320319547,67.64415568133508,0.0
0.097,0.7280225273008069,-0.11601137728404715,0.27936813982742337,0.0,3.315444186066548,3.045460916527603,68.4692247812957,67.64415568133508,0.0
0.098,0.7209598879815766,-0.11982855555947619,0.2856266597777062,0.0,3.300466886451355,3.0290591322538045,68.47349430926538,67.64415568133508,0.0
0.099,0.7145663635019683,-0.1237680585692475,0.2751985095135616,0.0,3.2857423119186224,3.0122227760168734,68.46564738586751,67.64415568133508,0.0
0.1,0.7080384059800711,-0.12755090642968242,0.2709070541671692,0.0,3.2711832774500205,2.9958839594475135,68.45745668337767,67.64415568133508,0.0
0.101,0.701560927478531,-0.131358171130796,0.2668693953916639,0.0,3.256827235409861,2.9799691362363374,68.45463142133711,67.64415568133508,0.0
0.10200000000000001,0.6952271547494127,-0.1350554171112081,0.2601772690119233,0.0,3.242683939663433,2.9641463740434353,68.44633447384378,67.64415568133508,0.0
0.10300000000000001,0.6888146630185248,-0.13874207479679135,0.25630395483350377,0.0,3.2287412571579677,2.948774451562456,68.44286446236197,67.64415568133508,0.0
0.10400000000000001,0.6825489258007615,-0.14228417008604693,0.25005187276413965,0.0,3.2150084145599145,2.9335215633698306,68.43567288705074,67.64415568133508,0.0
0.105,0.6761937517571548,-0.14586073526811505,0.24573248836259554,0.0,3.2014815686195397,2.9186444800458036,68.4286787332409,67.64415568133508,0.0
0.106,0.6700035283208806,-0.1491997894529441,0.24138433474845833,0.0,3.188151229249308,2.9040846902441557,68.42644487086135,67.64415568133508,0.0
0.107,0.6637249629135417,-0.15275346646035298,0.2346783740429731,0.0,3.1750554587649016,2.8895824113046324,68.40595863845948,67.64415568133508,0.0
0.108,0.6576364067884437,-0.15576357596699142,0.2373034606726615,0.0,3.1621146127106408,2.8761835578666295,68.42369688145557,67.64415568133508,0.0
0.109,0.651506730219345,-0.15959680791122083,0.22063892717341227,0.0,3.1495195203368036,2.8615845344771356,68.43875713232396,67.64415568133508,0.0
0.11,0.6455235449774707,-0.16191113955087666,0.2051627872293298,0.0,3.1369402790223218,2.8462470277412666,68.38496876553003,67.64415568133508,0.0
0.111,0.6383365212452294,-0.16528067336635804,0.22464883978434225,0.0,3.124432716569006,2.834214315486155,68.44064643549198,67.64415568133508,0.0
0.112,0.6330717739638329,-0.16781435681250118,0.1888450972617972,0.0,3.1122176489764333,2.8185080979718258,68.34865021156136,67.64415568133508,0.0
0.113,0.6259072761579684,-0.17069573689098916,0.22779826392484515,0.0,3.0999450813658544,2.8085293284936617,68.40632303829976,67.64415568133508,0.0
0.114,0.621130619179492,-0.17376376651988243,0.1913401769859998,0.0,3.088210563026914,2.7943750452619294,68.32229548833654,67.64415568133508,0.0
0.115,0.6148334821172757,-0.17633737414624995,0.22657255389759734,0.0,3.0764864847413045,2.7853477993561992,68.38320066289369,67.64415568133508,0.0
0.116,0.610128073211737,-0.1799105173931839,0.18872951680343664,0.0,3.0653993993745807,2.771990435971993,68.37270489199354,67.64415568133508,0.0
0.117,0.6044028299243468,-0.1817608471237394,0.18669191014692688,0.0,3.054253091044001,2.7595971167008173,68.32079860618586,67.64415568133508,0.0
0.11800000000000001,0.5981272456728935,-0.1845940006695949,0.20587862380225663,0.0,3.043275225212101,2.75009247492714,68.37569109161261,67.64415568133508,0.0
0.11900000000000001,0.5935205862098787,-0.18688853671897523,0.1711170269861071,0.0,3.0326687492159956,2.7368688446597274,68.27802906125346,67.64415568133508,0.0
0.12,0.5871776053683986,-0.1891402599404449,0.21360930836649628,0.0,3.0220253019866283,2.7295803580373836,68.33996235405192,67.64415568133508,0.0
0.121,0.5831332830826872,-0.19191760395858842,0.17568459524009927,0.0,3.0120003414277443,2.717741179739642,68.29490493977187,67.64415568133508,0.0
0.122,0.5775466942778668,-0.19391876660651872,0.19170580979575735,0.0,3.0019863135460643,2.7087990854938457,68.3098655852967,67.64415568133508,0.0
0.123,0.5727274801026183,-0.19629396081661257,0.17756838799372232,0.0,2.992320738764606,2.6985087170119106,68.29273842701978,67.64415568133508,0.0
0.124,0.5676095630362707,-0.19809165284433358,0.17964613967533571,0.0,2.982766678794046,2.6891655335385667,68.27061230289273,67.64415568133508,0.0
0.125,0.5626096108308557,-0.20014433245660074,0.18444463552328688,0.0,2.9734415243102807,2.680807135013891,68.27668933502575,67.64415568133508,0.0
0.126,0.558133850106438,-0.2020625635584615,0.17508078291986967,0.0,2.964403524047506,2.671716386306082,68.24785800898185,67.64415568133508,0.0
0.127,0.55332835557153,-0.20385009124958042,0.18345942266535176,0.0,2.9555376946752343,2.6641300481324115,68.25003203800996,67.64415568133508,0.0
0.128,0.5490803451024081,-0.2056845841070871,0.17631364458454712,0.0,2.9469837333602347,2.6559651650587903,68.23081685013751,67.64415568133508,0.0
0.129,0.5446407904374089,-0.2073314680914908,0.18005462683274642,0.0,2.9386314921790837,2.6486902108976005,68.22309456849855,67.64415568133508,0.0
0.13,0.5405017306759363,-0.2089567236542022,0.1781263787805928,0.0,2.930549288971982,2.641468911953307,68.21219670192367,67.64415568133508,0.0
0.131,0.5363956318097866,-0.21047971123754755,0.17789490186214652,0.0,2.9227044522697034,2.6345656228798884,68.20150682066127,67.64415568133508,0.0
0.132,0.5323975181071471,-0.2119014271205084,0.17766633110008867,0.0,2.915094929201602,2.6279440825475704,68.18427568201847,67.64415568133508,0.0
0.133,0.5284967300609797,-0.21324282716045007,0.18088070041465443,0.0,2.907717541252643,2.6219687158219473,68.16701364385352,67.64415568133508,0.0
0.134,0.5248612501445918,-0.2145422625387435,0.1842831398719419,0.0,2.9006098793172317,2.616556166531489,68.169561691116,67.64415568133508,0.0
0.135,0.5214427399600275,-0.21586998863603934,0.177755056142893,0.0,2.8938047841632337,2.6105616736929047,68.13284610294323,67.64415568133508,0.0
