timestamp,iq,id,iq_ref,id_ref,vq,vd,omega,omega_ref,r
0.0,0.0,0.0,0.0,0.0,0.0,0.0,0.0,361.10673929686,0.0
0.001,0.0,0.0,10.0,0.0,0.0,1.0999999999999999,8.51838261056115,361.10673929686,0.0
0.002,0.5222888775279109,-0.2939153773314075,10.0,0.0,0.14233069150645483,1.9325482234719291,17.296854918358864,361.10673929686,0.0
0.003,1.1096122558945627,-0.62488245523083,10.0,0.0,0.3871503610050794,2.636692010902259,26.516132561849776,361.10673929686,0.0
0.004,1.6365895173905123,-0.921089181876128,10.0,0.0,0.7071755114488631,3.2428091215585315,35.99985649807047,361.10673929686,0.0
0.005,2.069283557199264,-1.1631094286453412,10.0,0.0,1.079470017792056,3.777990464429549,45.69796337349202,361.10673929686,0.0
0.006,2.411582931987081,-1.3532082844505913,10.0,0.0,1.4865438794589174,4.263557132819213,55.4483364343967,361.10673929686,0.0
0.007,2.6799310217496752,-1.500897845207077,10.0,0.0,1.9158118849232193,4.715179224410592,65.2700137578691,361.10673929686,0.0
0.008,2.892408282300261,-1.6164905068582809,10.0,0.0,2.3585535961742967,5.143876889626321,75.0096446683194,361.10673929686,0.0
0.009000000000000001,3.0646364856431054,-1.7086895932056732,10.0,0.0,2.808876875703541,5.55715862968338,84.81048690405879,361.10673929686,0.0
0.01,3.2086484475012407,-1.7842253543359452,10.0,0.0,3.2628829441464213,5.96002548991669,94.53966006432414,361.10673929686,0.0
0.011,3.3332688722607964,-1.8477941096551747,10.0,0.0,3.7180122972421588,6.355738143865989,104.16850683295907,361.10673929686,0.0
0.012,3.444799220203607,-1.9023937327617744,10.0,0.0,4.172570251411785,6.746370333703817,113.44152500492552,361.10673929686,0.0
0.013000000000000001,3.5477373518179123,-1.9496623696628193,10.0,0.0,4.62538918297628,7.13318720897668,122.61899130320222,361.10673929686,0.0
0.014,3.645012032524729,-1.990804248129536,10.0,0.0,5.075660829173942,7.516933456317098,132.01912477612723,361.10673929686,0.0
0.015,3.738718870469678,-2.026358152602525,10.0,0.0,5.52277944619324,7.897997238176362,140.86527360979775,361.10673929686,0.0
0.016,3.8308381784422423,-2.0557191774655075,10.0,0.0,5.966166753386732,8.276470448054102,149.35923872969673,361.10673929686,0.0
0.017,3.922638094722693,-2.0786489969332806,10.0,0.0,6.405291320741475,8.652258269952291,158.0164880476291,361.10673929686,0.0
0.018000000000000002,4.0149740287018645,-2.0951274111395386,10.0,0.0,6.8396655409185705,9.025140812821233,166.0572569217456,361.10673929686,0.0
0.019,4.1092249649482655,-2.104015278002972,10.0,0.0,7.2687034745777686,9.394728279773673,173.8934677215189,361.10673929686,0.0
0.02,4.20623018745881,-2.1049651905491666,10.0,0.0,7.691811973277736,9.760532728283096,181.29917472811664,361.10673929686,0.0
0.021,4.307063557053299,-2.097232858057518,10.0,0.0,8.10833001125911,10.121945963381284,188.240063853496,361.10673929686,0.0
0.022,4.412719798212197,-2.0802358811589743,10.0,0.0,8.517545224818242,10.47825582593626,194.74055260482976,361.10673929686,0.0
0.023,4.524192055024413,-2.0534447534503686,10.0,0.0,8.918692848997992,10.828650837753894,200.67923282533528,361.10673929686,0.0
0.024,4.642779089635678,-2.0158656005750704,10.0,0.0,9.310899416402336,11.172191259568624,206.3664205940784,361.10673929686,0.0
0.025,4.767025827747985,-1.9710463234500033,10.0,0.0,9.693685040292713,11.50811702509607,211.20217891550905,361.10673929686,0.0
0.026000000000000002,4.90015569998634,-1.9149238052793973,10.0,0.0,10.066059394119284,11.835326957894718,215.86393911036404,361.10673929686,0.0
0.027,5.04580994134449,-1.8424912632443926,10.0,0.0,10.426510951400916,12.152362664969145,219.16937745540173,361.10673929686,0.0
0.028,5.188175777651609,-1.780694637162576,10.0,0.0,10.776547620213176,12.459536257484089,222.92990950224933,361.10673929686,0.0
0.029,5.35414879875181,-1.6866818273600142,10.0,0.0,11.112574538578244,12.754162783670811,223.95413117542807,361.10673929686,0.0
0.03,5.511862026340108,-1.612835223562209,10.0,0.0,11.437278419405743,13.03724062425166,227.52241453241786,361.10673929686,0.0
0.031,5.692087679172522,-1.5098586167914774,10.0,0.0,11.747230735501777,13.306233379321494,228.79224374638795,361.10673929686,0.0
0.032,5.869409019609893,-1.4190876842365365,10.0,0.0,12.044132058981852,13.561618999574161,228.91998360178965,361.10673929686,0.0
0.033,6.065761094137834,-1.3048438496867942,10.0,0.0,12.325222699664263,13.801330675355864,228.9482525393531,361.10673929686,0.0
0.034,6.254729427602223,-1.21041194459713,10.0,0.0,12.59293037264224,14.026357251691842,228.49708053442123,361.10673929686,0.0
0.035,6.464342687087065,-1.0890554120564082,10.0,0.0,12.843965036427434,14.23448416248333,238.96948886989387,361.10673929686,0.0
0.036000000000000004,6.596129253549501,-1.1021737765576476,10.0,0.0,13.0933655103338,14.43450145885816,243.7281821923716,361.10673929686,0.0
0.037,6.67312609669203,-1.19849483446801,10.0,0.0,13.348291799212138,14.632305285905092,260.0003858454979,361.10673929686,0.0
0.038,6.733212099000074,-1.3106807164309071,10.0,0.0,13.608883078344155,14.829981867312709,262.6470787680391,361.10673929686,0.0
0.039,6.771841532141508,-1.4443040773445328,10.0,0.0,13.8767595985846,15.030301540870292,276.35967742873464,361.10673929686,0.0
0.04,6.792527499458368,-1.5932320996344136,10.0,0.0,14.15292628299951,15.235487737022716,285.6839930165209,361.10673929686,0.0
0.041,6.80240503785544,-1.7444553500577515,10.0,0.0,14.43714019591184,15.44689231245088,301.05080223982645,361.10673929686,0.0
0.042,6.795051579505431,-1.9084272042027823,10.0,0.0,14.730597846527468,15.666485477429934,307.4957026213039,361.10673929686,0.0
0.043000000000000003,6.768469913688386,-2.088206627282528,10.0,0.0,15.034805066576771,15.89631553962902,319.09473361800076,361.10673929686,0.0
0.044,6.7395142184809504,-2.2524259182016664,10.0,0.0,15.347840898611354,16.136502627427777,333.85614285020665,361.10673929686,0.0
0.045,6.688396444764874,-2.433861481499304,10.0,0.0,15.671907575275897,16.389307987806802,345.4421195106276,361.10673929686,0.0
0.046,6.628198951352997,-2.6085723061073063,10.0,0.0,16.006251955385796,16.65535002635253,357.3675498284903,361.10673929686,0.0
0.047,6.557783858913027,-2.7770653829229492,6.989265059978259,0.0,16.35055323154293,16.604185140886567,366.7309947209069,361.10673929686,0.0
0.048,6.3240024097412215,-2.8503137405059067,2.251300059529507,0.0,16.661680280103713,16.126509879418258,370.4153384962508,361.10673929686,0.0
0.049,5.831099581981961,-2.7532081691626287,0.31604217986364613,0.0,16.882513001237992,15.614097628755907,371.27383259132745,361.10673929686,0.0
0.05,5.240085465127957,-2.5627209887474534,-0.21487580061935319,0.0,17.010038691060377,15.196044000793094,370.3250135645824,361.10673929686,0.0
0.051000000000000004,4.688298047250754,-2.343967424148639,0.16735097007595812,0.0,17.060848428802522,14.934688903988063,367.8360496254752,361.10673929686,0.0
0.052000000000000005,4.261810427093603,-2.1423260301697455,1.3445398363433956,0.0,17.06044866539827,14.871614562258737,364.30031972829664,361.10673929686,0.0
0.053,4.011703292868921,-1.986721702489413,3.0804689806183063,0.0,17.038681382056453,15.017234904132625,361.98485151766977,361.10673929686,0.0
0.054,3.9530608068675845,-1.8969363105413215,4.229421963723646,0.0,17.02533251139871,15.259091622301678,357.78572922845115,361.10673929686,0.0
0.055,4.039929704137724,-1.8376015436295705,6.362193209017045,0.0,17.031875229182845,15.688401085179539,354.21312943572525,361.10673929686,0.0
0.056,4.290685122411443,-1.8167179047586546,8.21742920399134,0.0,17.078990768869673,16.231467713504866,355.5746832340705,361.10673929686,0.0
0.057,4.670321060961411,-1.822783901059007,7.591972865446608,0.0,17.176577513402094,16.598334276718926,359.0101734369757,361.10673929686,0.0
0.058,5.025098106098516,-1.7819709514269455,5.895193422592843,0.0,17.29654215538016,16.722652567156768,350.7920532218794,361.10673929686,0.0
0.059000000000000004,5.2568483244223145,-1.6669962595359387,10.0,0.0,17.4047030755925,17.29308725712771,346.9402727336298,361.10673929686,0.0
0.06,5.683811988898645,-1.5907994238729688,10.0,0.0,17.551859467776687,17.731598003439558,351.7148361385361,361.10673929686,0.0
0.061,6.121082714681004,-1.5209216917511958,9.83598847610358,0.0,17.721226713196874,18.07910190351874,337.30972808814965,361.10673929686,0.0
0.062,6.544351389851364,-1.4048555122848372,10.0,0.0,17.896339121662884,18.386286673988685,337.3273901673443,361.10673929686,0.0
0.063,6.950460525190396,-1.2672897133372387,10.0,0.0,18.070687190239713,18.63818477488367,327.304400099517,361.10673929686,0.0
0.064,7.345791308753753,-1.0953474734053317,10.0,0.0,18.235252273645322,18.842902577708262,322.2399820971127,361.10673929686,0.0
0.065,7.708782189785181,-0.9365390628667254,10.0,0.0,18.388083126232896,19.007629419513137,332.719558489825,361.10673929686,0.0
0.066,8.000843586750392,-0.86926796607186,10.0,0.0,18.53629184120016,19.142669817540423,341.94925732582533,361.10673929686,0.0
0.067,8.1284780256221,-1.0254135144430356,10.0,0.0,18.701032445762202,19.26790787295547,352.1706366780866,361.10673929686,0.0
0.068,8.16996999512167,-1.2693499350743362,10.0,0.0,18.88709434619528,19.39380841102897,368.8747353897856,361.10673929686,0.0
0.069,8.17163985486785,-1.5236220636479658,1.7862023692003985,0.0,19.09267068032918,18.62243858107341,372.1636543310402,361.10673929686,0.0
0.07,7.686188805291561,-1.5990639161191256,0.031173748231285714,0.0,19.206308280540224,17.891264509579024,377.5472765217886,361.10673929686,0.0
0.07100000000000001,7.029179672908064,-1.5949557263948715,-2.8250427193921928,0.0,19.234258394186348,17.015354574092726,380.71082857489245,361.10673929686,0.0
0.07200000000000001,6.237384507865102,-1.5287593066049052,-4.602859638724439,0.0,19.164581978639575,16.143360323900236,381.2683479148387,361.10673929686,0.0
0.073,5.410459235859529,-1.4320657024422152,-5.083235394877367,0.0,19.00469944736824,15.399578521459004,380.4707429015017,361.10673929686,0.0
0.074,4.654212924291439,-1.3426833210016762,-4.878072924255267,0.0,18.77756186306308,14.81647611701716,378.3700753018857,361.10673929686,0.0
0.075,4.025906212353048,-1.282733289083695,-4.000372484497538,0.0,18.509127117047672,14.425016893453657,375.9006730645805,361.10673929686,0.0
0.076,3.5603136369506885,-1.2660778444890184,-2.913610703522119,0.0,18.227157324691227,14.201559025329555,373.5733681507119,361.10673929686,0.0
0.077,3.2561074077405125,-1.2884613600505292,-1.8746245351263369,0.0,17.95366746591573,14.104477584955093,370.76997625901504,361.10673929686,0.0
0.078,3.088958195829532,-1.3342055817704908,-0.569560958899471,0.0,17.702626478213915,14.138266785459635,368.62357221945933,361.10673929686,0.0
0.079,3.047517960206942,-1.3967765204836238,0.42847273165238775,0.0,17.48649387037398,14.243192971141356,366.3563668243282,361.10673929686,0.0
0.08,3.09381400310535,-1.4622243681053662,1.5095791539432843,0.0,17.309040695737473,14.419447679942337,363.3373792846033,361.10673929686,0.0
0.081,3.214697845506842,-1.5197428639460122,2.9967665239282963,0.0,17.17263086551096,14.700276884639825,360.9064239459524,361.10673929686,0.0
0.082,3.417145471860919,-1.5790570290800572,4.214247346762824,0.0,17.083894311983197,15.037372802181935,356.5991105993107,361.10673929686,0.0
0.083,3.6846330654739163,-1.626219372827673,6.412980307059169,0.0,17.04233572172332,15.534172130987425,353.3253022022941,361.10673929686,0.0
0.084,4.060274455749081,-1.6797998874633855,8.127698876513119,0.0,17.060035156542423,16.105121703929203,354.2893463462923,361.10673929686,0.0
0.085,4.515976329734845,-1.7331536179590292,7.713850734019699,0.0,17.138392710381957,16.51170498945422,357.70122100745624,361.10673929686,0.0
0.08600000000000001,4.927335191763275,-1.7289957554296618,6.041968586331762,0.0,17.248581935206857,16.665004690906674,350.2282237071083,361.10673929686,0.0
0.08700000000000001,5.199625098579784,-1.6406898252113407,9.887252392403234,0.0,17.353410133995794,17.227855083711592,344.9799978522809,361.10673929686,0.0
0.088,5.641102742681072,-1.5764193999127132,10.0,0.0,17.497853864705654,17.673013014106857,350.09692014328806,361.10673929686,0.0
0.089,6.091638752470065,-1.5087571466600855,10.0,0.0,17.66556887177926,18.04182786382184,335.8122948163861,361.10673929686,0.0
0.09,6.523523103233846,-1.4108154970502178,10.0,0.0,17.843296904192435,18.347530810786555,338.630369737821,361.10673929686,0.0
0.091,6.9397150275306885,-1.267277055396137,10.0,0.0,18.019012615974926,18.59897399813111,325.4587786906142,361.10673929686,0.0
0.092,7.326377696291477,-1.1116962575823384,10.0,0.0,18.186622571970634,18.80447346359873,324.47820964426796,361.10673929686,0.0
0.093,7.693360154015733,-0.9455414277453844,10.0,0.0,18.341300255609617,18.969682534457107,333.45435200127747,361.10673929686,0.0
0.094,7.993038153352167,-0.8627768046919981,10.0,0.0,18.489588517733033,19.104543711243778,335.7784589584089,361.10673929686,0.0
0.095,8.119262878156434,-1.0194690141222384,10.0,0.0,18.654597860590634,19.229859656829017,353.391008854708,361.10673929686,0.0
0.096,8.160512928093096,-1.2632643679939464,9.173880448384244,0.0,18.84088843055258,19.26499653321877,362.82430890626483,361.10673929686,0.0
0.097,8.121160278174436,-1.4914763138333664,4.440054726511775,0.0,19.034728991660934,18.807530437066347,374.83502237247325,361.10673929686,0.0
0.098,7.766706275483001,-1.6409994255024158,-1.7025848373485646,0.0,19.177604309868403,17.82543932563096,375.04935339576116,361.10673929686,0.0
0.099,7.044756164672146,-1.5959397646699303,-1.9491764899815323,0.0,19.20153119130333,17.066016143171108,380.28807154295004,361.10673929686,0.0
0.1,6.280806188118258,-1.541646507434626,-4.760348886036871,0.0,19.141601404661213,16.154979916373804,380.7757607201911,361.10673929686,0.0
0.101,5.444690815070832,-1.4401760242720858,-5.200883688890715,0.0,18.985942153428052,15.393040420508326,379.90237028077075,361.10673929686,0.0
0.10200000000000001,4.674813562084418,-1.3440034282797069,-4.952144779019649,0.0,18.760090597004137,14.799820921318474,377.7688959927739,361.10673929686,0.0
0.10300000000000001,4.035503265349342,-1.2789268204241178,-4.05202920198035,0.0,18.491305545399424,14.40248890089181,375.27850289190195,361.10673929686,0.0
0.10400000000000001,3.56242854983425,-1.259367602737389,-2.9485502874948057,0.0,18.208165049045537,14.176038217909674,372.92490681494127,361.10673929686,0.0
0.105,3.2538218068301195,-1.2807371219937398,-1.8899339241952768,0.0,17.933239773323887,14.078547558983763,370.191867827221,361.10673929686,0.0
0.106,3.0846996507800872,-1.3272731772377677,-0.6142657156387625,0.0,17.68096323016609,14.108568147421956,367.7847259138603,361.10673929686,0.0
0.107,3.0405327556365287,-1.390748906526433,0.5225253748715861,0.0,17.463433369837208,14.22581649747641,365.8894574596939,361.10673929686,0.0
0.108,3.0914344228260613,-1.460873778849794,1.4223324203264465,0.0,17.28646030920934,14.39115703824518,362.92187994620133,361.10673929686,0.0
0.109,3.208540467908125,-1.518703367923516,2.8879697705793257,0.0,17.14937861479601,14.662115608660422,360.38166199218927,361.10673929686,0.0
0.11,3.404732044564439,-1.576018030951151,4.165329520632064,0.0,17.058827263907844,14.997713338614709,355.88997734677656,361.10673929686,0.0
0.111,3.666866274584981,-1.6259464119915406,6.463339462839251,0.0,17.01580979638809,15.503830807091315,352.24452028052707,361.10673929686,0.0
0.112,4.045142147042532,-1.6825012850927852,8.374690186127326,0.0,17.0334275746987,16.103314258437777,353.77899815905886,361.10673929686,0.0
0.113,4.514351352410984,-1.7448918266847118,7.680728658239443,0.0,17.115529331157003,16.501331613314147,357.3582428577139,361.10673929686,0.0
0.114,4.924476341138036,-1.7443466854750482,5.928591273303388,0.0,17.228538776508124,16.64154025457835,353.92190687988216,361.10673929686,0.0
0.115,5.186052231410781,-1.6580616759160698,7.718607586389032,0.0,17.334782241811162,16.968780046497265,342.1671170534001,361.10673929686,0.0
0.116,5.513504913469438,-1.5348389610019344,10.0,0.0,17.450433691230828,17.473569171997237,343.97294530055973,361.10673929686,0.0
0.117,5.952965353352752,-1.4539852429149442,10.0,0.0,17.59733722641809,17.87156448418649,337.9663070638665,361.10673929686,0.0
0.11800000000000001,6.390935058628693,-1.372776049939323,10.0,0.0,17.76122546525911,18.200668555494016,334.4386354426286,361.10673929686,0.0
0.11900000000000001,6.826860643647398,-1.2390948105929636,10.0,0.0,17.927742442948432,18.4696789262556,326.0789996866986,361.10673929686,0.0
0.12,7.221122401565561,-1.1107627380528893,10.0,0.0,18.091729044359035,18.689430420189144,327.87981093204536,361.10673929686,0.0
0.121,7.612701220236081,-0.9355953189267119,10.0,0.0,18.243307039643454,18.86447437239582,324.9995833831041,361.10673929686,0.0
0.122,7.935227286346741,-0.8368602125289573,10.0,0.0,18.388122443107612,19.005609649824798,335.46905084740644,361.10673929686,0.0
0.123,8.065400516965457,-1.0072679648000462,10.0,0.0,18.552302037782052,19.136019145150357,352.41928949033814,361.10673929686,0.0
0.124,8.129343451882054,-1.2283007954929737,9.392772941942042,0.0,18.735714156375106,19.197278683489774,360.4999944097132,361.10673929686,0.0
0.125,8.100974381731284,-1.4751453274816826,5.3584879311259686,0.0,18.931853587154617,18.836814426311125,370.37107998288474,361.10673929686,0.0
0.126,7.8126408577573905,-1.631494780030482,0.3303017376799646,0.0,19.08706264359881,18.050685903693015,375.78050001329376,361.10673929686,0.0
0.127,7.203831169399976,-1.6478856627284926,-2.5211458846888855,0.0,19.148377444708057,17.159399492934593,379.2793989936842,361.10673929686,0.0
0.128,6.418961830310224,-1.5813812072953581,-4.452321971852345,0.0,19.106952725705913,16.259705840414938,380.1271844246782,361.10673929686,0.0
0.129,5.574899604329946,-1.475290489965658,-5.0664191386275315,0.0,18.968696179000084,15.482598305240344,379.63012408847555,361.10673929686,0.0
0.13,4.789141059795414,-1.373592421139321,-5.003122818442362,0.0,18.756428653049777,14.860472253439733,377.68357140075955,361.10673929686,0.0
0.131,4.125191529147671,-1.2991224723083536,-4.195614795623354,0.0,18.496000560831302,14.432701836458307,375.14394886817416,361.10673929686,0.0
0.132,3.6241669601793722,-1.2688527603243043,-3.0661756250438033,0.0,18.21625326730659,14.186302087768762,372.77893535161854,361.10673929686,0.0
0.133,3.2920984842113805,-1.2826878586899646,-2.0003908273135784,0.0,17.941665286205463,14.074026807307034,370.35777617933127,361.10673929686,0.0
0.134,3.1045589876318695,-1.3249092479732172,-0.882321609994654,0.0,17.687814577005767,14.075158682573205,367.43315178457345,361.10673929686,0.0
0.135,3.038114630292289,-1.3819123251945862,0.5167264625071182,0.0,17.46531025085419,14.19894037953636,365.6962333381803,361.10673929686,0.0
0.136,3.08245316145527,-1.4539513104276265,1.3392907452904819,0.0,17.284788784617504,14.35904338256787,362.93334129491564,361.10673929686,0.0
0.137,3.193601712174898,-1.5144066591193595,2.7024707469422675,0.0,17.14425946381139,14.615025140758892,360.22476530265544,361.10673929686,0.0
0.138,3.38034470962673,-1.5704305349056658,4.065578483014409,0.0,17.048939323754567,14.948235597789111,356.27037158927095,361.10673929686,0.0
0.139,3.637236198750149,-1.621081832813589,6.091139016782545,0.0,17.001483647418464,15.421382942635345,353.6839181854374,361.10673929686,0.0
0.14,3.996101636716066,-1.6740909075095616,7.458593929813551,0.0,17.01141275843807,15.935728137174051,354.6005667625669,361.10673929686,0.0
0.14100000000000001,4.4149282242906605,-1.721085609777584,7.065331366591714,0.0,17.07642280431211,16.300216022022596,354.396757552324,361.10673929686,0.0
0.14200000000000002,4.790573499655534,-1.7094943415500439,7.234335789158535,0.0,17.16963564755588,16.620146520673867,350.6129942860622,361.10673929686,0.0
0.14300000000000002,5.130485755692006,-1.656243499862922,9.23115487239742,0.0,17.2797785764371,17.101731413304634,344.5612829086815,361.10673929686,0.0
0.14400000000000002,5.5556256970732045,-1.5930987151680076,10.0,0.0,17.420652283793707,17.567410611772775,345.13162241277433,361.10673929686,0.0
0.145,6.005900269172586,-1.5327611372083507,10.0,0.0,17.588000854532847,17.947642006336615,338.00148979608815,361.10673929686,0.0
