timestamp,iq,id,iq_ref,id_ref,vq,vd,omega,omega_ref,r
0.0,0.0,0.0,0.0,0.0,0.0,0.0,0.0,339.3299413422624,0.0
0.001,0.0,0.0,10.0,0.0,0.0,1.0999999999999999,4.11458494234323,339.3299413422624,0.0
0.002,0.7294916563757887,-0.43099555982472987,10.0,0.0,0.15740951158072025,1.909755917798663,10.028648225183636,339.3299413422624,0.0
0.003,1.6438744080488479,-0.9644401336271313,10.0,0.0,0.43442261130325166,2.560990008855253,16.810987575065763,339.3299413422624,0.0
0.004,2.5167988340364613,-1.4699471574224352,10.0,0.0,0.7991291370386482,3.0879241414365306,23.911379201764916,339.3299413422624,0.0
0.005,3.2477254900024044,-1.890819220446485,10.0,0.0,1.2212992801533258,3.5269628254368426,31.080110682563312,339.3299413422624,0.0
0.006,3.812238947186494,-2.2143721935348646,10.0,0.0,1.6765383837660477,3.909527441618001,38.18692877973772,339.3299413422624,0.0
0.007,4.226000003757791,-2.450588177825505,10.0,0.0,2.1472582671767,4.259490924891312,45.25528226745152,339.3299413422624,0.0
0.008,4.521100768183402,-2.6182533456453534,10.0,0.0,2.621983519190895,4.5932065746572555,52.237479692888826,339.3299413422624,0.0
0.009000000000000001,4.732072481005106,-2.737156412747683,10.0,0.0,3.0940104966833215,4.920767303881892,59.10724488094795,339.3299413422624,0.0
0.01,4.888796524051085,-2.8243764275952596,10.0,0.0,3.5599960203111802,5.247644730326467,65.95450013363373,339.3299413422624,0.0
0.011,5.014159345968097,-2.892594222530626,10.0,0.0,4.018702491515126,5.5762102965089575,72.67971999525129,339.3299413422624,0.0
0.012,5.123885676100522,-2.95040147206912,10.0,0.0,4.470071491716807,5.906973685098197,79.32313007548152,339.3299413422624,0.0
0.013000000000000001,5.227780066319881,-3.002916324284303,10.0,0.0,4.9145784920055275,6.239466515225878,85.84648962770568,339.3299413422624,0.0
0.014,5.331330477440394,-3.052591763812685,10.0,0.0,5.352823225104115,6.572809161048597,92.22371758427029,339.3299413422624,0.0
0.015,5.437158247917531,-3.1000915309336143,10.0,0.0,5.785305969463133,6.906036464957624,98.54041312142151,339.3299413422624,0.0
0.016,5.54634817941864,-3.1447238820859726,10.0,0.0,6.212297730732702,7.238236698151299,104.65856117152752,339.3299413422624,0.0
0.017,5.658913663089541,-3.1855853939893635,10.0,0.0,6.633858781992533,7.568625780263776,110.58433088002076,339.3299413422624,0.0
0.018000000000000002,5.774668369364471,-3.2213562026231597,10.0,0.0,7.049828810168311,7.896524696437454,116.30975977404505,339.3299413422624,0.0
0.019,5.893494146881942,-3.2505769142760617,10.0,0.0,7.459848297339359,8.22131743534717,121.8193365579323,339.3299413422624,0.0
0.02,6.015460239079966,-3.271811111054167,10.0,0.0,7.863388664213338,8.542404836716411,127.09175607498122,339.3299413422624,0.0
0.021,6.1408577771333945,-3.283715549420729,10.0,0.0,8.259780880789384,8.85916346637223,131.89962717366657,339.3299413422624,0.0
0.022,6.269972981015933,-3.2854192136030536,10.0,0.0,8.648278097349799,9.170936757673529,136.64365816936308,339.3299413422624,0.0
0.023,6.403840444529276,-3.2751819016166523,10.0,0.0,9.027959780423972,9.476948172553092,141.21816577296318,339.3299413422624,0.0
0.024,6.543140456518794,-3.252145697683515,10.0,0.0,9.397842827365904,9.776342287568404,145.56930670295506,339.3299413422624,0.0
0.025,6.68852015032266,-3.215719203212592,10.0,0.0,9.756900428762703,10.068186529577849,149.64243325733125,339.3299413422624,0.0
0.026000000000000002,6.840664944552383,-3.1653760522289707,10.0,0.0,10.10406321255728,10.351469977098802,153.238273561836,339.3299413422624,0.0
0.027,7.000540364356375,-3.100191970886287,10.0,0.0,10.438171245286634,10.625076510010969,156.87495112059602,339.3299413422624,0.0
0.028,7.167888812638283,-3.0212295852458793,10.0,0.0,10.758195106427253,10.887923617791888,160.49833170678235,339.3299413422624,0.0
0.029,7.342531648797761,-2.9294194570180094,10.0,0.0,11.063191801983237,11.138951173414053,164.172324243576,339.3299413422624,0.0
0.03,7.523586596588757,-2.826782543085189,10.0,0.0,11.35241962429551,11.377206027134184,167.15228332494684,339.3299413422624,0.0
0.031,7.71359374969415,-2.709622945470461,10.0,0.0,11.624688963150275,11.601467940349849,170.62882804004772,339.3299413422624,0.0
0.032,7.907547409927284,-2.58644609201848,10.0,0.0,11.879779701537561,11.81109576503483,173.41909947511445,339.3299413422624,0.0
0.033,8.106548699802822,-2.455745225744307,10.0,0.0,12.117178821798976,12.005319275806064,175.62756371336135,339.3299413422624,0.0
0.034,8.310143500990085,-2.3183506524159236,10.0,0.0,12.336453986707994,12.183454932294474,177.16586587639088,339.3299413422624,0.0
0.035,8.517431340254799,-2.1756488584547804,10.0,0.0,12.537291949172507,12.344938825317701,177.57076464942818,339.3299413422624,0.0
0.036000000000000004,8.726240077190209,-2.0309806887028596,10.0,0.0,12.719708023959793,12.489462042614807,175.03205465743432,339.3299413422624,0.0
0.037,8.937547634223407,-1.882382692854605,10.0,0.0,12.883435715152274,12.616618801756633,171.2058205502136,339.3299413422624,0.0
0.038,9.170815622052908,-1.6966540740992762,10.0,0.0,13.024562145035084,12.723886251012612,174.1119653768809,339.3299413422624,0.0
0.039,9.403857392080438,-1.5088285899374942,10.0,0.0,13.14349915978497,12.81123768350654,175.31414647750205,339.3299413422624,0.0
0.04,9.609447133522234,-1.3641500402670856,10.0,0.0,13.245241230687132,12.881463220367744,168.8556120045146,339.3299413422624,0.0
0.041,9.82496726848297,-1.200174283907283,10.0,0.0,13.327241100482322,12.93318909320178,168.6505722649652,339.3299413422624,0.0
0.042,10.059454530159996,-0.9989328391201875,10.0,0.0,13.385716769218416,12.964303968297063,173.64331048698793,339.3299413422624,0.0
0.043000000000000003,10.215297560200746,-0.9246606263258306,10.0,0.0,13.435298829630916,12.983357062068716,170.0307210397879,339.3299413422624,0.0
0.044,10.29279488764738,-0.9709646290078275,10.0,0.0,13.487664155802301,12.99849677678573,177.17417042891807,339.3299413422624,0.0
0.045,10.333568485256261,-1.0600202498039533,10.0,0.0,13.545639999089001,13.013648930185674,182.14616805049653,339.3299413422624,0.0
0.046,10.313250505578718,-1.2336821572139787,10.0,0.0,13.617545726994159,13.035726166314909,181.50051230844085,339.3299413422624,0.0
0.047,10.28565627080608,-1.4023343284582506,10.0,0.0,13.701283725484501,13.065618437649949,184.0144275006838,339.3299413422624,0.0
0.048,10.257676756603853,-1.5558481599860796,10.0,0.0,13.794837151014935,13.103697085915043,190.80551336818795,339.3299413422624,0.0
0.049,10.21004448921271,-1.7312413391148764,10.0,0.0,13.900601210207721,13.152282966177674,197.1275886335044,339.3299413422624,0.0
0.05,10.14358955053509,-1.9315162701861883,10.0,0.0,14.020923762134048,13.213420384913947,200.9860518999805,339.3299413422624,0.0
0.051000000000000004,10.066161195644064,-2.146053545227984,10.0,0.0,14.15692415168526,13.288328886620464,203.20381936124355,339.3299413422624,0.0
0.052000000000000005,9.988350769438657,-2.3577636585018626,10.0,0.0,14.307958092161698,13.377131440445126,205.39684290655694,339.3299413422624,0.0
0.053,9.914022926088867,-2.5601339568563035,10.0,0.0,14.472912525659217,13.479555091441402,209.68426959481647,339.3299413422624,0.0
0.054,9.83995258180006,-2.758770640004525,10.0,0.0,14.65144021306937,13.595636280126058,215.10101678937053,339.3299413422624,0.0
0.055,9.759325232095275,-2.9656285190610205,10.0,0.0,14.844491250471705,13.72609042370791,221.14414071214023,339.3299413422624,0.0
0.056,9.67123215164261,-3.1820677735654668,10.0,0.0,15.053022337696914,13.871688222024554,226.90942571020142,339.3299413422624,0.0
0.057,9.578001361037485,-3.403259078384105,10.0,0.0,15.27742674701627,14.03295380539409,232.52475043260708,339.3299413422624,0.0
0.058,9.48093979713212,-3.625871535850332,10.0,0.0,15.517792731013753,14.210277735482151,238.21120866812697,339.3299413422624,0.0
0.059000000000000004,9.381177778100877,-3.8468879583655236,10.0,0.0,15.773940191522298,14.40390907741554,244.14494179425103,339.3299413422624,0.0
0.06,9.280428668063234,-4.062421765757193,10.0,0.0,16.04533459476126,14.613876813120267,250.55734561247164,339.3299413422624,0.0
0.061,9.181132501419974,-4.2675701909089305,10.0,0.0,16.330997319939566,14.839902302808797,257.60017297319837,339.3299413422624,0.0
0.062,9.086987746328958,-4.4555999478662836,10.0,0.0,16.629328110582698,15.081254477439892,264.64665487735857,339.3299413422624,0.0
0.063,9.001567493382817,-4.6205165139711735,10.0,0.0,16.938221564326582,15.336759293945358,270.2250388672416,339.3299413422624,0.0
0.064,8.926715373832549,-4.760063213788707,10.0,0.0,17.255477125665497,15.60498250479572,275.4343133446749,339.3299413422624,0.0
0.065,8.866688651859324,-4.868693153332106,10.0,0.0,17.57838327830717,15.883963368916499,280.4184671258063,339.3299413422624,0.0
0.066,8.827371039920575,-4.938849934264619,10.0,0.0,17.903527848603886,16.171061431982892,284.89241638494826,339.3299413422624,0.0
0.067,8.81412413155235,-4.96472623440248,10.0,0.0,18.227012593383417,16.46302812957344,288.59154863612594,339.3299413422624,0.0
0.068,8.831942941384789,-4.942026642573907,10.0,0.0,18.544589815341514,16.75605409371763,291.6718776462824,339.3299413422624,0.0
0.069,8.887913791225085,-4.863624049419311,10.0,0.0,18.851314622189516,17.045556578259113,293.4020935444657,339.3299413422624,0.0
0.07,8.98292199739937,-4.73322943596651,10.0,0.0,19.142757815258605,17.326890100850477,294.0074085373135,339.3299413422624,0.0
0.07100000000000001,9.120580459243701,-4.550232831974855,10.0,0.0,19.414364360975362,17.595042241748473,293.5443951839136,339.3299413422624,0.0
0.07200000000000001,9.302785745359525,-4.316393245311221,10.0,0.0,19.661733077717155,17.844873826274053,291.44951966824937,339.3299413422624,0.0
0.073,9.52855144657914,-4.0373887151761725,10.0,0.0,19.88099597878911,18.071446949748253,290.137167181669,339.3299413422624,0.0
0.074,9.800558436224378,-3.7116107729807757,10.0,0.0,20.067944373761147,18.269625939133444,287.98067513790204,339.3299413422624,0.0
0.075,10.112303931943067,-3.350734741627644,10.0,0.0,20.219577244147608,18.435109934444725,286.9768566340598,339.3299413422624,0.0
0.076,10.456404802012104,-2.9664606362963037,10.0,0.0,20.333933835753633,18.564475176513106,287.2435495263588,339.3299413422624,0.0
0.077,10.819246216463284,-2.5791119302620134,10.0,0.0,20.41102567579544,18.65586800664632,285.6514918070391,339.3299413422624,0.0
0.078,11.184206564489745,-2.213077233290349,10.0,0.0,20.453157285239847,18.70931351363199,277.26247811370587,339.3299413422624,0.0
0.079,11.560053355066076,-1.850027588119185,10.0,0.0,20.460145170439272,18.72393408738041,266.1237307601535,339.3299413422624,0.0
0.08,11.96771769639078,-1.448475981494263,10.0,0.0,20.42735614421656,18.69670678263397,260.7987794326077,339.3299413422624,0.0
0.081,12.384435029375387,-1.0366033097354639,10.0,0.0,20.35383281231426,18.62716104252484,259.29212996765614,339.3299413422624,0.0
0.082,12.764193686237869,-0.6844069661721964,10.0,0.0,20.24608436851691,18.519611264311383,247.00051114043183,339.3299413422624,0.0
0.083,13.131069951203262,-0.3477951286237056,10.0,0.0,20.10485045258324,18.375482816961945,253.82867622826396,339.3299413422624,0.0
0.084,13.262943635892848,-0.385285283428066,10.0,0.0,19.970817118911967,18.220806480087898,261.65178866155424,339.3299413422624,0.0
0.085,13.230765551142316,-0.6496864804913092,10.0,0.0,19.863428715049313,18.073052769703576,262.8085712865581,339.3299413422624,0.0
0.08600000000000001,13.128016550168685,-0.9775111923416555,10.0,0.0,19.785420486867412,17.94031619923102,266.0453669282251,339.3299413422624,0.0
0.08700000000000001,12.977171067243283,-1.3300634587530522,10.0,0.0,19.73744192664319,17.828617976099583,270.9876519550971,339.3299413422624,0.0
0.088,12.781991719549476,-1.7081903071300253,10.0,0.0,19.721159830785602,17.743252992675934,276.35750919306446,339.3299413422624,0.0
0.089,12.55661307699048,-2.0980983383704332,10.0,0.0,19.737078061124087,17.687636155213447,281.8869130753795,339.3299413422624,0.0
0.09,12.312249865820187,-2.4901608535630975,10.0,0.0,19.785070581041253,17.66379899133419,287.7061088466813,339.3299413422624,0.0
0.091,12.055723741019523,-2.88039186345954,10.0,0.0,19.864884918515468,17.672919037450953,293.8438478146699,339.3299413422624,0.0
0.092,11.791663936393475,-3.266371674542914,10.0,0.0,19.976185295974144,17.715589829964316,300.2407412390269,339.3299413422624,0.0
0.093,11.52467358695798,-3.6435527573972637,10.0,0.0,20.11825283594143,17.79185192136386,306.84465756174274,339.3299413422624,0.0
0.094,11.258329440499436,-4.007429888489502,10.0,0.0,20.289994504643545,17.901322510236255,313.5318625443575,339.3299413422624,0.0
0.095,10.995883058859945,-4.353044783649555,10.0,0.0,20.48988793251937,18.043225867607383,320.16281742929203,339.3299413422624,0.0
0.096,10.742072736190725,-4.672501559155736,10.0,0.0,20.71566644969881,18.216222903706203,326.6197657554176,339.3299413422624,0.0
0.097,10.502710082734863,-4.956334317754063,10.0,0.0,20.964193854460934,18.41828987656654,333.1979472274522,339.3299413422624,0.0
0.098,10.287055573984134,-5.1900139014961075,10.0,0.0,21.23094164265853,18.646331262045074,339.0295216200248,339.3299413422624,0.0
0.099,10.098986317581176,-5.369851051763639,7.897966651623159,0.0,21.511264081276224,18.665550692590877,342.88833344188174,339.3299413422624,0.0
0.1,9.795796779553822,-5.4003934083792995,5.932976819698499,0.0,21.767037506811768,18.547222032534904,345.805253696854,339.3299413422624,0.0
0.101,9.36525617238486,-5.251269316614046,4.409763568666463,0.0,21.968691650127838,18.362727593152115,346.84276495901287,339.3299413422624,0.0
0.10200000000000001,8.866526555990617,-4.934356011005924,3.8158797014195143,0.0,22.098361712474773,18.21730777088405,344.88806203190506,339.3299413422624,0.0
0.10300000000000001,8.404024165986884,-4.520211902849316,4.7376499580769895,0.0,22.158136067519067,18.252618470718744,341.8259447299979,339.3299413422624,0.0
0.10400000000000001,8.13049416339417,-4.111685913392693,6.243748575153217,0.0,22.17466763928374,18.472291957771375,338.3642017731307,339.3299413422624,0.0
0.105,8.129820765120957,-3.76745677357299,7.984277449278147,0.0,22.17773345709161,18.845387217062317,335.00894342687224,339.3299413422624,0.0
0.106,8.420886509463301,-3.505436008911198,9.705116601561267,0.0,22.19242222633318,19.321342584354447,331.3651456931443,339.3299413422624,0.0
0.107,8.970400321290818,-3.3169201713417897,10.0,0.0,22.23512112089379,19.70886421228935,327.5247710415434,339.3299413422624,0.0
0.108,9.629536968776497,-3.1232991724471786,10.0,0.0,22.29288913728912,19.991944839797288,322.40811859933916,339.3299413422624,0.0
0.109,10.300195156791137,-2.8853469659242665,10.0,0.0,22.34894988206713,20.185313171987207,314.1636612816367,339.3299413422624,0.0
0.11,10.944666712229692,-2.5843023548813226,10.0,0.0,22.38800600043684,20.300765456217846,304.0319962639705,339.3299413422624,0.0
0.111,11.562469159479596,-2.203594675412904,10.0,0.0,22.395834336761553,20.347064570219292,296.98970357296014,339.3299413422624,0.0
0.112,12.147441670475708,-1.765917204460032,10.0,0.0,22.363172305843793,20.33134765471598,294.7687347923109,339.3299413422624,0.0
0.113,12.683076795359106,-1.3227704145464987,10.0,0.0,22.287835414286526,20.260866089044022,287.4607003487029,339.3299413422624,0.0
0.114,13.149608271931825,-0.9329056263598092,10.0,0.0,22.17453039651639,20.143936879609356,273.9355372066139,339.3299413422624,0.0
0.115,13.61877090691986,-0.49729383770624214,10.0,0.0,22.01684431070978,19.980427514258196,278.4153203362079,339.3299413422624,0.0
0.116,13.994587452851071,-0.18462988591409335,10.0,0.0,21.82853898013811,19.780852283158936,278.8110641613829,339.3299413422624,0.0
0.117,14.039923834166451,-0.37630181531646745,10.0,0.0,21.663317211265863,19.581175205627055,282.6138718932459,339.3299413422624,0.0
0.11800000000000001,13.978030595833857,-0.6821275062162293,10.0,0.0,21.5263740182326,19.39220527899088,288.1721423211321,339.3299413422624,0.0
0.11900000000000001,13.820250257468588,-1.0781223200480152,10.0,0.0,21.424729324451548,19.22517493055184,293.20365756696054,339.3299413422624,0.0
0.12,13.600608723786229,-1.5129508925036408,10.0,0.0,21.360417260036492,19.08726591290001,298.5145589203147,339.3299413422624,0.0
0.121,13.33902629119604,-1.9629095499331015,10.0,0.0,21.33389266689045,18.98329424281996,304.5095622842142,339.3299413422624,0.0
0.122,13.048411530830174,-2.417389529220454,10.0,0.0,21.345116577198322,18.916419079747648,311.08742919339363,339.3299413422624,0.0
0.123,12.737985997896825,-2.8710749477753477,10.0,0.0,21.39389117641634,18.888594485032367,318.0462200148666,339.3299413422624,0.0
0.124,12.416262151616534,-3.317502744053508,10.0,0.0,21.47957605964607,18.900715177471913,325.31950446494744,339.3299413422624,0.0
0.125,12.089766704058615,-3.750995174446784,10.0,0.0,21.601124413177267,18.952889549759046,332.8023072949958,339.3299413422624,0.0
0.126,11.764277537167468,-4.164991277130896,10.0,0.0,21.75694001557538,19.044540174053036,340.1345200083489,339.3299413422624,0.0
0.127,11.446244572726961,-4.5503194998273715,7.830590272002812,0.0,21.944585263632845,18.935700960497286,346.5460525930798,339.3299413422624,0.0
0.128,10.985462818694328,-4.806954809413263,4.552662867129172,0.0,22.126958667356476,18.565137939145913,349.8697769769282,339.3299413422624,0.0
0.129,10.27453963462663,-4.8523217636434675,2.7854023188583117,0.0,22.25646244044207,18.161842906748106,349.89610672744,339.3299413422624,0.0
0.13,9.422884463671638,-4.735141138967494,2.666575789750654,0.0,22.31934279472266,17.903002279143877,348.4570980301565,339.3299413422624,0.0
0.131,8.623149038661461,-4.551703870651987,3.294808571513462,0.0,22.331044757546824,17.82608196605469,347.872144426377,339.3299413422624,0.0
0.132,8.015731118887954,-4.363484095085815,3.501863342562049,0.0,22.315014690150534,17.833336194479536,346.18355824209203,339.3299413422624,0.0
0.133,7.6083531321709374,-4.175373505289494,4.277620265706245,0.0,22.282503085214415,17.960262106498774,343.7289693140848,339.3299413422624,0.0
0.134,7.4262022926864075,-4.004091829235336,5.460924449991641,0.0,22.24897535350585,18.20961297033856,340.7311372411628,339.3299413422624,0.0
0.135,7.482217287279334,-3.8584633801674917,6.945828527463634,0.0,22.22942916871519,18.574199223502507,336.9115416900458,339.3299413422624,0.0
0.136,7.774005912403442,-3.7411452103326166,8.879810299544301,0.0,22.236847513528833,19.066724588207432,332.58519646704394,339.3299413422624,0.0
0.137,8.300074747896113,-3.6645111242058563,10.0,0.0,22.28551999255601,19.5596706145996,329.9776889414327,339.3299413422624,0.0
0.138,8.972915211257652,-3.5867765135056504,10.0,0.0,22.370835360003927,19.92823562663585,327.596645090382,339.3299413422624,0.0
0.139,9.668839652876613,-3.4312410416363455,10.0,0.0,22.46814413611206,20.198652390268805,325.4686596196584,339.3299413422624,0.0
0.14,10.336129009002086,-3.1803472099907126,10.0,0.0,22.556720744210352,20.385315770391674,324.4043418489594,339.3299413422624,0.0
0.14100000000000001,10.949293044680545,-2.8576186672797466,10.0,0.0,22.622114828129348,20.501395322948696,320.7604855694321,339.3299413422624,0.0
0.14200000000000002,11.502199109784936,-2.496547055953814,10.0,0.0,22.656086867093407,20.557718301837227,310.8935981973938,339.3299413422624,0.0
0.14300000000000002,12.020005519558095,-2.09333240266209,10.0,0.0,22.651551104301078,20.5603765423093,297.8587229440651,339.3299413422624,0.0
0.14400000000000002,12.534386535366433,-1.6296018769537985,10.0,0.0,22.6007565305402,20.51091153481375,289.64961008214294,339.3299413422624,0.0
0.145,13.040766398800614,-1.1364991029594664,10.0,0.0,22.500490913523553,20.410755595871994,286.8826540977428,339.3299413422624,0.0
0.146,13.506919866370211,-0.6835921026319118,10.0,0.0,22.355347522018313,20.26437560632443,274.4132797693309,339.3299413422624,0.0
0.147,13.934091742899408,-0.2794698149876531,10.0,0.0,22.17015608907124,20.07579190483858,279.60451071499614,339.3299413422624,0.0
0.148,14.129780777068067,-0.24538430317405968,10.0,0.0,21.98491724584725,19.870293355213363,283.6504879904371,339.3299413422624,0.0
