timestamp,iq,id,iq_ref,id_ref,vq,vd,omega,omega_ref,r
0.0,0.0,0.0,0.0,0.0,0.0,0.0,0.0,481.55933259781364,0.0
0.001,0.0,0.0,10.0,0.0,0.0,1.0999999999999999,14.71408588359597,481.55933259781364,0.0
0.002,0.4809162203188576,-0.2563618354534508,10.0,0.0,0.13819980189987963,1.937099215764925,31.099932059325354,481.55933259781364,0.0
0.003,0.986310443672984,-0.5127494438437851,10.0,0.0,0.37192856375466593,2.653524287777581,48.13393884911691,481.55933259781364,0.0
0.004,1.4232986686203453,-0.7261603469188865,10.0,0.0,0.674838279879597,3.278664966263781,65.62733445643806,481.55933259781364,0.0
0.005,1.778597838889039,-0.8915434316501615,10.0,0.0,1.0260291225303446,3.8368695220337723,83.41397202647687,481.55933259781364,0.0
0.006,2.0631779770477507,-1.0156925348502712,10.0,0.0,1.4099239069977152,4.3466218829970655,101.33113645177693,481.55933259781364,0.0
0.007,2.2925279526192623,-1.1077281911944885,10.0,0.0,1.8152868802805413,4.82140579037949,119.24379545519638,481.55933259781364,0.0
0.008,2.4805760914678876,-1.1756695158697048,10.0,0.0,2.234145136124159,5.2708558088343205,137.0348654763887,481.55933259781364,0.0
0.009000000000000001,2.638365040006035,-1.2255862089188465,10.0,0.0,2.660873991217551,5.70177034807732,154.59404634378959,481.55933259781364,0.0
0.01,2.7742361019473214,-1.2617219141152851,10.0,0.0,3.0914971753670213,6.118898391577197,171.8105825559312,481.55933259781364,0.0
0.011,2.894415383366167,-1.2868465559330153,10.0,0.0,3.5231731989995168,6.525514938805374,188.56912584283322,481.55933259781364,0.0
0.012,3.003606472896971,-1.3026138020640063,10.0,0.0,3.9538264256478133,6.923828206639782,204.74841853968888,481.55933259781364,0.0
0.013000000000000001,3.105473971137738,-1.3098669620012975,10.0,0.0,4.381885831546513,7.315261956444405,220.222619024306,481.55933259781364,0.0
0.014,3.2030016468825186,-1.3088901124348586,10.0,0.0,4.806102686784122,7.700648902508914,234.86498368459326,481.55933259781364,0.0
0.015,3.29873893577126,-1.2996155107275766,10.0,0.0,5.225426113412287,8.080363014470423,248.5534254128987,481.55933259781364,0.0
0.016,3.394955542695097,-1.281798073997131,10.0,0.0,5.6389214365505085,8.454411604025859,261.1772201019898,481.55933259781364,0.0
0.017,3.4937231398769666,-1.2551628954372975,10.0,0.0,6.045720391056175,8.82250259731881,272.6439328995238,481.55933259781364,0.0
0.018000000000000002,3.596941428836386,-1.2195267654994546,10.0,0.0,6.444994926933006,9.184098050919314,282.88545861393425,481.55933259781364,0.0
0.019,3.7063250769642293,-1.1748906977640878,10.0,0.0,6.835947948430692,9.538461394342983,291.86212196602247,481.55933259781364,0.0
0.02,3.8233674417993675,-1.1214993064575676,10.0,0.0,7.217815309754613,9.884702881923465,299.56407256331727,481.55933259781364,0.0
0.021,3.949295977361746,-1.0598643088670676,10.0,0.0,7.589874147882299,10.221825241614777,306.0096193972361,481.55933259781364,0.0
0.022,4.085032426087928,-0.9907522936208075,10.0,0.0,7.951453366465165,10.548769525145477,311.24072821978973,481.55933259781364,0.0
0.023,4.231167591654156,-0.9151409596307285,10.0,0.0,8.301942964956368,10.864459798456366,315.31645729192917,481.55933259781364,0.0
0.024,4.387956348366323,-0.8341514796220271,10.0,0.0,8.640799901468483,11.167844592702615,318.3055298262018,481.55933259781364,0.0
0.025,4.555334487953128,-0.7489661512856207,10.0,0.0,8.967549132437096,11.457932893388021,320.5687733398227,481.55933259781364,0.0
0.026000000000000002,4.733256944202111,-0.6602135598886647,10.0,0.0,9.281721338607081,11.733789598310224,340.5867536866248,481.55933259781364,0.0
0.027,4.85976276818482,-0.6623914344691602,10.0,0.0,9.59318908677012,12.001341437281601,360.25085903768604,481.55933259781364,0.0
0.028,4.948045029616492,-0.7154852901833011,10.0,0.0,9.906083789396737,12.264838876654485,380.6664062534477,481.55933259781364,0.0
0.029,5.013545929701845,-0.7910093477712534,10.0,0.0,10.221815473475516,12.526953765957673,402.15263804372097,481.55933259781364,0.0
0.03,5.06043821772494,-0.8785327703260499,10.0,0.0,10.541057813981887,12.789927192056732,424.7287868223756,481.55933259781364,0.0
0.031,5.08879096333102,-0.974508362604162,10.0,0.0,10.864355343972566,13.055877630460085,448.19203639638636,481.55933259781364,0.0
0.032,5.09811069945467,-1.076261432355996,10.0,0.0,11.192151246554433,13.326821134504627,472.15367275554746,481.55933259781364,0.0
0.033,5.088428569707901,-1.1802273656786724,8.467109472392579,0.0,11.52468063125055,13.435990151999471,493.3877171374589,481.55933259781364,0.0
0.034,4.987915787803729,-1.2456727661530478,-2.2681965639595822,0.0,11.841033313945491,12.412900032203767,495.2259983975413,481.55933259781364,0.0
0.035,4.361745873851475,-1.0502750600161168,-3.3240038519980573,0.0,12.001293514711557,11.582842014052122,490.68136496176305,481.55933259781364,0.0
0.036000000000000004,3.6814719067981154,-0.8082308877380706,-1.1429074577484397,0.0,12.037851011696642,11.170862931276442,486.52108830468734,481.55933259781364,0.0
0.037,3.2029416054601993,-0.6382067473678319,0.8876133137206796,0.0,12.013272636987702,11.051119420872581,483.4056610426933,481.55933259781364,0.0
0.038,2.9460237955873607,-0.5470046037872945,2.426863660268912,0.0,11.970845754319113,11.11338041051646,481.015090530669,481.55933259781364,0.0
0.039,2.860670639690246,-0.5079150494199318,3.6275913369525,0.0,11.935499829337168,11.288679822948758,477.47274219441454,481.55933259781364,0.0
0.04,2.895898020771395,-0.4931173944926499,5.439631409113723,0.0,11.919981591598315,11.62550328933263,475.18180783568215,481.55933259781364,0.0
0.041,3.050499984322728,-0.5064631145044224,6.64887383610123,0.0,11.94131353002231,12.025334909371413,471.85230995675585,481.55933259781364,0.0
0.042,3.282688012856535,-0.5213409403630755,8.410693001974959,0.0,12.001998540252114,12.545029581721746,470.1302120032308,481.55933259781364,0.0
0.043000000000000003,3.5991629126546707,-0.547398692687115,9.38603318468332,0.0,12.111302091191032,13.07600215760675,467.7010061570384,481.55933259781364,0.0
0.044,3.957728453522909,-0.5610165206526733,10.0,0.0,12.26400992817752,13.586313318357373,464.2654148242576,481.55933259781364,0.0
0.045,4.331940822290473,-0.5511123217364723,10.0,0.0,12.451252457379992,14.017146773422663,459.19796785560436,481.55933259781364,0.0
0.046,4.689717567170056,-0.5062434356104822,10.0,0.0,12.658017543684048,14.388007817652595,452.7451955732109,481.55933259781364,0.0
0.047,5.030782621713324,-0.43259364877257694,10.0,0.0,12.873539438089782,14.708519877538976,445.1745204678613,481.55933259781364,0.0
0.048,5.360179677068006,-0.3389481159134764,10.0,0.0,13.089995838297455,14.985709895333704,465.5026658419433,481.55933259781364,0.0
0.049,5.6069349330540135,-0.34834559550526933,10.0,0.0,13.314495778347528,15.232977443764817,490.07377293110176,481.55933259781364,0.0
0.05,5.737221612807739,-0.475023882466435,0.025775624019768628,0.0,13.555113116005511,14.368939567786953,503.21624308418967,481.55933259781364,0.0
0.051000000000000004,5.3163017127726855,-0.4286330686078801,-6.762028557387948,0.0,13.678895159905858,13.016055052779016,503.92401194248885,481.55933259781364,0.0
0.052000000000000005,4.5057371797624235,-0.23420634415852182,-7.339559779984288,0.0,13.634087516364533,11.900139700621173,500.13850644722453,481.55933259781364,0.0
0.053,3.6949747826150467,-0.05101893248612932,-5.632598770846239,0.0,13.463962753922088,11.165954360912236,496.06967066913757,481.55933259781364,0.0
0.054,3.076734919182435,0.0466442044185561,-3.743284262515996,0.0,13.228520862810194,10.738828825761004,492.8384425485708,481.55933259781364,0.0
0.055,2.673690723751229,0.05927791422911033,-2.24046130174019,0.0,12.973497530584261,10.515441498478854,490.18971091521786,481.55933259781364,0.0
0.056,2.439898210688554,0.016542227721421443,-1.002399268237756,0.0,12.726465061466655,10.431735899262412,487.6858975059863,481.55933259781364,0.0
0.057,2.3270968394525617,-0.05326924662725763,0.18824178729629448,0.0,12.503017184652446,10.46035773453491,485.09130395415764,481.55933259781364,0.0
0.058,2.305250516440605,-0.13227320520288566,1.4502188496471877,0.0,12.312768599746736,10.59195874672095,482.32531461174864,481.55933259781364,0.0
0.059000000000000004,2.359932079701792,-0.2112586897897889,2.8255537007123377,0.0,12.162603338269005,10.823808427002623,479.9581267378788,481.55933259781364,0.0
0.06,2.4837251458861895,-0.28916171407073077,4.025159696246613,0.0,12.058419048792247,11.122589502458803,477.26098893141034,481.55933259781364,0.0
0.061,2.662074777367794,-0.3560033349623486,5.416712036144869,0.0,12.001104843864058,11.503768210054023,474.8993285719873,481.55933259781364,0.0
0.062,2.8963909451427696,-0.4157696916358311,6.664142256114639,0.0,11.993545813213371,11.94040814505416,471.66219474461707,481.55933259781364,0.0
0.063,3.179401772815058,-0.4608242459020555,8.381680548331733,0.0,12.034765016530317,12.480295064067196,469.839614696219,481.55933259781364,0.0
0.064,3.5271120376815706,-0.5058846648305435,9.410167751546727,0.0,12.130357091956345,13.03085540008351,467.443248553897,481.55933259781364,0.0
0.065,3.90819832691166,-0.533411506509796,10.0,0.0,12.27402334183683,13.552073196171854,464.0231693027941,481.55933259781364,0.0
0.066,4.297010000012473,-0.5327572386509447,10.0,0.0,12.455097508456841,13.9906790940061,458.97645428421816,481.55933259781364,0.0
0.067,4.664525232675079,-0.4942181981910361,10.0,0.0,12.657692096426269,14.366993259857036,452.5465543719377,481.55933259781364,0.0
0.068,5.012125151812787,-0.4249252755689543,10.0,0.0,12.870421811100023,14.69137462914131,444.99912831087204,481.55933259781364,0.0
0.069,5.345909573967294,-0.3342840750833407,10.0,0.0,13.085039088407628,14.971350545718904,465.19514732382737,481.55933259781364,0.0
0.07,5.5968524580778265,-0.34399359118620554,10.0,0.0,13.308166688418407,15.220524725338887,489.61273174192894,481.55933259781364,0.0
0.07100000000000001,5.7297914657608215,-0.47155509317943034,0.1533073281799302,0.0,13.547833616448328,14.371844191093722,502.90175453110817,481.55933259781364,0.0
0.07200000000000001,5.317083964149716,-0.42838156802214855,-6.704628285742629,0.0,13.672641095463508,13.022819627516832,503.71476300781393,481.55933259781364,0.0
0.073,4.5109736879728475,-0.2356597160994267,-7.332686828195513,0.0,13.629297701759553,11.905216240031901,499.96785702392754,481.55933259781364,0.0
0.074,3.700768469039901,-0.052546224634116956,-5.643319080513455,0.0,13.460313043135546,11.168211360915478,495.90457561361154,481.55933259781364,0.0
0.075,3.081285193909902,0.04574961899540342,-3.755130805513437,0.0,13.22554495457771,10.738856644696455,492.67265191190694,481.55933259781364,0.0
0.076,2.6767167461017976,0.059029330267385716,-2.2503021478020693,0.0,12.97084039345013,10.513917557349389,490.02692035042566,481.55933259781364,0.0
0.077,2.441657358305598,0.016716448279739726,-1.0121122445875472,0.0,12.723899593831952,10.428965373580253,487.52965299170637,481.55933259781364,0.0
0.078,2.3278347423345602,-0.05287571301566299,0.1768182308331676,0.0,12.500389664721302,10.456384675369199,484.94300039003343,481.55933259781364,0.0
0.079,2.3050753231032903,-0.13178140354304557,1.4363078537474392,0.0,12.30995636304567,10.586730917790282,482.182752082797,481.55933259781364,0.0
0.08,2.358855152056844,-0.21072612044645972,2.8101978125158316,0.0,12.159495877733812,10.817388829659867,479.78097210343,481.55933259781364,0.0
0.081,2.4818355551272493,-0.2885302429519069,4.028871407143171,0.0,12.054916238446658,11.117260051584424,477.1571052234629,481.55933259781364,0.0
0.082,2.660199229520704,-0.35601871186292183,5.384827120870213,0.0,11.99742737563584,11.49526437979893,474.78679289581424,481.55933259781364,0.0
0.083,2.892997988328224,-0.4155954269374815,6.637708681714537,0.0,11.989366385896645,11.930152576741618,471.5278930995493,481.55933259781364,0.0
0.084,3.1746700440308553,-0.46042572381775737,8.367472974829644,0.0,12.02993588033172,12.469835173111125,469.7324725077764,481.55933259781364,0.0
0.085,3.5217222334192866,-0.5056525228360156,9.383451871616487,0.0,12.124943329883445,13.018707474726892,467.33436595204535,481.55933259781364,0.0
0.08600000000000001,3.901698909490091,-0.5331533916622901,10.0,0.0,12.26791009222228,13.541526883816665,463.9481744721631,481.55933259781364,0.0
0.08700000000000001,4.2906373133287685,-0.5330969556203646,10.0,0.0,12.448580902583334,13.98121208928596,458.9338544257043,481.55933259781364,0.0
0.088,4.658414880349416,-0.49514919314593664,10.0,0.0,12.650979462943447,14.358429706910549,452.5327179500712,481.55933259781364,0.0
0.089,5.006206572939362,-0.42632050093584106,10.0,0.0,12.86366825051164,14.683586108294003,445.01032777575335,481.55933259781364,0.0
0.09,5.340082390455061,-0.33600354681123923,10.0,0.0,13.078357221429753,14.964247325295103,464.96961276548984,481.55933259781364,0.0
0.091,5.593345346707102,-0.3426925012978592,10.0,0.0,13.301282371490942,15.21379115067534,489.12309062411055,481.55933259781364,0.0
0.092,5.727328677498407,-0.4696445012005461,0.33181558666844424,0.0,13.54076721952846,14.384967286232671,502.6129347669739,481.55933259781364,0.0
0.093,5.324284662974767,-0.4297610344400984,-6.623642506454846,0.0,13.667764494975287,13.040230421833295,503.58701681496376,481.55933259781364,0.0
0.094,4.523101006685518,-0.23876528436626732,-7.330960372621267,0.0,13.626977658596978,11.918516349118045,499.89567551306783,481.55933259781364,0.0
0.095,3.7123204211810226,-0.05520259131078675,-5.668653150825843,0.0,13.459816159849606,11.175996000938248,495.83428082810116,481.55933259781364,0.0
0.096,3.0898618564269364,0.04442584913352654,-3.780705290645383,0.0,13.225995274640674,10.742425366371496,492.59404535346243,481.55933259781364,0.0
0.097,2.6822213533923995,0.05890290391138264,-2.27093468088251,0.0,12.971603222874846,10.514640864898901,489.9462990131646,481.55933259781364,0.0
0.098,2.444767772288416,0.01732960263172245,-1.030931174887105,0.0,12.724589759826872,10.427541776849935,487.45310128520816,481.55933259781364,0.0
0.099,2.3291387454343058,-0.05190801554559665,0.15673000221717048,0.0,12.500768139265512,10.453038602865503,484.87292608139046,481.55933259781364,0.0
0.1,2.3048877038041256,-0.1306827690244281,1.4136816692902534,0.0,12.309851210062742,10.581502980141149,482.1158480970587,481.55933259781364,0.0
0.101,2.357302144087693,-0.2096025603009387,2.786655506463689,0.0,12.158765841013441,10.810478733339803,479.67798274468663,481.55933259781364,0.0
0.10200000000000001,2.479121247385666,-0.28733162876298735,4.024401681180987,0.0,12.053447583806996,11.110994758200892,477.12280025009545,481.55933259781364,0.0
0.10300000000000001,2.6571750286771896,-0.3555433527905305,5.346358251953759,0.0,11.995438753765713,11.48559739098397,474.74888106764104,481.55933259781364,0.0
0.10400000000000001,2.888239044686256,-0.4150432392398804,6.601422358482692,0.0,11.98655394027602,11.91813985954699,471.44613234168753,481.55933259781364,0.0
0.105,3.168231362904021,-0.45967208641491164,8.353928724020706,0.0,12.02612602931636,12.458276144204763,469.6965361571832,481.55933259781364,0.0
0.106,3.5147849762598815,-0.5053001010244776,9.34735478067919,0.0,12.12032733105374,13.004786837590878,467.291319157435,481.55933259781364,0.0
0.107,3.8933827915382277,-0.5327735745324127,10.0,0.0,12.262325373895779,13.529743081823769,463.9445660299019,481.55933259781364,0.0
0.108,4.282551049305638,-0.533490346598779,10.0,0.0,12.442423347069116,13.97085452352273,458.966942151834,481.55933259781364,0.0
0.109,4.650729752192374,-0.49629268080668504,10.0,0.0,12.644523756137223,14.34925664362926,452.59733098076833,481.55933259781364,0.0
0.11,4.9988308847986325,-0.42804128267421604,10.0,0.0,12.857118659172523,14.675419255074132,445.1014493142766,481.55933259781364,0.0
0.111,5.332887448789158,-0.3381166683509609,10.0,0.0,13.071861139454551,14.956959884965153,464.80929471061853,481.55933259781364,0.0
0.112,5.590021027404752,-0.33944988843065427,10.0,0.0,13.294329335049468,15.20687657188746,488.54985142669955,481.55933259781364,0.0
0.113,5.724563638399267,-0.46695781244747914,0.5762702608064831,0.0,13.533554919218187,14.405209786942503,502.3274327037139,481.55933259781364,0.0
0.114,5.3346936696114335,-0.43171919400014647,-6.520201378759694,0.0,13.663539939206158,13.065488778625172,503.51473253395113,481.55933259781364,0.0
0.115,4.53983934438853,-0.24299130976928607,-7.333405293239688,0.0,13.62614667528268,11.93778593502788,499.8920770078672,481.55933259781364,0.0
0.116,3.727967629258201,-0.058741330612567144,-5.705404974298264,0.0,13.461342234526892,11.187683469038433,495.82851173480844,481.55933259781364,0.0
0.117,3.101325956357664,0.04271678382754396,-3.8163141291388265,0.0,13.228690098450889,10.748442662218228,492.57360705081504,481.55933259781364,0.0
0.11800000000000001,2.689497126227154,0.05880330617754237,-2.2990045316721397,0.0,12.974624158986368,10.51690862432754,489.92003109557703,481.55933259781364,0.0
0.11900000000000001,2.4488466749683293,0.01820853952975454,-1.0558235390307678,0.0,12.72743769923399,10.427051470832513,487.4291607999396,481.55933259781364,0.0
0.12,2.3308638919032125,-0.050570502607993895,0.13091332676668355,0.0,12.503143917076018,10.45014223364763,484.8544905764088,481.55933259781364,0.0
0.121,2.3047250787014084,-0.12918589697137306,1.3852968587461323,0.0,12.311548492373946,10.576304803446755,482.0990367973133,481.55933259781364,0.0
0.122,2.3554599671726333,-0.20808864250575498,2.757626706298881,0.0,12.15962201518715,10.803261795842916,479.6366557467608,481.55933259781364,0.0
0.123,2.4758449832792304,-0.2858131697456572,4.008044000085656,0.0,12.053344555499692,11.103418042234784,477.1262005562831,481.55933259781364,0.0
0.124,2.6531080697653926,-0.35458404593177706,5.3076029157398255,0.0,11.994498017528237,11.475083136450397,474.7422295068949,481.55933259781364,0.0
0.125,2.8825554306131504,-0.4140387822479279,6.567759471343117,0.0,11.98455495500841,11.905852120578734,471.41786050022375,481.55933259781364,0.0
0.126,3.1610634912729845,-0.45880470122111827,8.331358695654583,0.0,12.023012800877284,12.445602836096375,469.7044809454211,481.55933259781364,0.0
0.127,3.506793833190867,-0.504828701877712,9.306596989579837,0.0,12.116214914593531,12.989619227733433,467.289878343546,481.55933259781364,0.0
0.128,3.883830857605183,-0.5322938911402946,10.0,0.0,12.257059386914175,13.517059370518982,463.98656555193253,481.55933259781364,0.0
0.129,4.27329518484839,-0.5339062638985517,10.0,0.0,12.436466135392095,13.959835210401234,459.0487680076905,481.55933259781364,0.0
0.13,4.6419699042655145,-0.4975702775056481,10.0,0.0,12.638196710779642,14.339614565279597,452.71276267257366,481.55933259781364,0.0
0.131,4.990461305474301,-0.429976657545472,10.0,0.0,12.850660225784587,14.666941735270084,445.24458969612573,481.55933259781364,0.0
0.132,5.324759559771859,-0.34049379552381964,10.0,0.0,13.065442927665302,14.949494645801375,464.45498183018213,481.55933259781364,0.0
0.133,5.584879826924991,-0.33830248018966946,10.0,0.0,13.28765643434453,15.200000288623736,487.9871097880876,481.55933259781364,0.0
0.134,5.721778984075108,-0.46366778135308406,0.8306846880107868,0.0,13.5265112509194,14.426594328897988,502.01129042524497,481.55933259781364,0.0
0.135,5.345640378998999,-0.43325848396817745,-6.385925208842212,0.0,13.659541314140224,13.095024749398235,503.4527665975321,481.55933259781364,0.0
0.136,4.558729872495675,-0.24750336463450795,-7.325597634982967,0.0,13.625982442936138,11.961516035928199,499.9257032743623,481.55933259781364,0.0
0.137,3.7463278777801445,-0.06283395235535227,-5.745729680163561,0.0,13.463972503348087,11.20267962032997,495.8660122494665,481.55933259781364,0.0
0.138,3.1150955665793822,0.04060109974959558,-3.858950964232184,0.0,13.23274875455027,10.756584365821947,492.59362163234306,481.55933259781364,0.0
0.139,2.6983519619455363,0.05856591082662105,-2.333098546015753,0.0,12.979096076484003,10.520481714127152,489.9309442126391,481.55933259781364,0.0
0.14,2.453861701385799,0.019159712865492118,-1.0854759523120165,0.0,12.731712730941378,10.42733051353569,487.4406941993032,481.55933259781364,0.0
