timestamp,iq,id,iq_ref,id_ref,vq,vd,omega,omega_ref,r
0.0,0.0,0.0,0.0,0.0,0.0,0.0,0.0,245.8448292037549,0.0
0.001,0.0,0.0,10.0,0.0,0.0,1.0999999999999999,6.699826885576047,245.8448292037549,0.0
0.002,0.44087105140056126,-0.253721222709894,10.0,0.0,0.13790933449808826,1.941504184345938,12.510315796515403,245.8448292037549,0.0
0.003,0.9668724477882128,-0.5523161490749812,10.0,0.0,0.3764863836540222,2.659197440618455,18.619692465170186,245.8448292037549,0.0
0.004,1.4604816256182835,-0.833611548997412,10.0,0.0,0.6909315982494311,3.2799420805818826,24.96620089614645,245.8448292037549,0.0
0.005,1.8816001515250065,-1.0729309249664334,10.0,0.0,1.0595189327390095,3.828669831937069,31.417195135471363,245.8448292037549,0.0
0.006,2.224788924852512,-1.267422574181784,10.0,0.0,1.4651211965691477,4.3258439617987365,37.932566507489724,245.8448292037549,0.0
0.007,2.4993838353462414,-1.4227501453630442,10.0,0.0,1.8950217633402233,4.787087352636216,44.506403298762656,245.8448292037549,0.0
0.008,2.7191632983794514,-1.5470103138153621,10.0,0.0,2.340171955335882,5.223766669238339,51.05875619694601,245.8448292037549,0.0
0.009000000000000001,2.898144500997665,-1.647035566386381,10.0,0.0,2.7942352358904756,5.643802935722146,57.586764469742214,245.8448292037549,0.0
0.01,3.0471741522624294,-1.7300822039904349,10.0,0.0,3.253030692648727,6.052638454000086,64.12965115061017,245.8448292037549,0.0
0.011,3.174995108317736,-1.8011158803924516,10.0,0.0,3.7138133935871283,6.453899957472624,70.62189762115501,245.8448292037549,0.0
0.012,3.2883980402495916,-1.863095151575298,10.0,0.0,4.174751357845037,6.8499174677397985,77.07055152837684,245.8448292037549,0.0
0.013000000000000001,3.391761036132475,-1.9187893133990614,10.0,0.0,4.634703841792656,7.242191123178245,83.4127191695471,245.8448292037549,0.0
0.014,3.4886412705195182,-1.9691216766805955,10.0,0.0,5.092868061232091,7.631609465643865,89.69271966714035,245.8448292037549,0.0
0.015,3.5807786783044424,-2.01577911831686,10.0,0.0,5.548786687921316,8.018736083294394,95.9138543730373,245.8448292037549,0.0
0.016,3.6699596586623415,-2.05876539569571,10.0,0.0,6.0020880298019845,8.403853368087272,102.02720995241056,245.8448292037549,0.0
0.017,3.7573569207898414,-2.0980478969803102,10.0,0.0,6.45246217834139,8.787067169558483,108.05401067088029,245.8448292037549,0.0
0.018000000000000002,3.843551342207358,-2.1339060960110765,10.0,0.0,6.899671869054513,9.168389592001862,114.15577115356345,245.8448292037549,0.0
0.019,3.9289320523020437,-2.1665225180580823,10.0,0.0,7.343522057375526,9.547770807375976,119.93939503707934,245.8448292037549,0.0
0.02,4.015090364493966,-2.193808509827694,10.0,0.0,7.783600643276036,9.924975312804616,125.38497448029733,245.8448292037549,0.0
0.021,4.101909669366588,-2.2164026947303164,10.0,0.0,8.219604321550952,10.299778685866373,130.71862164885206,245.8448292037549,0.0
0.022,4.189768741137302,-2.2340827788052877,10.0,0.0,8.651206836703773,10.671905784603393,135.89907840329298,245.8448292037549,0.0
0.023,4.279354349325775,-2.24610447561206,10.0,0.0,9.078007396023011,11.041004598798969,140.8585313352608,245.8448292037549,0.0
0.024,4.371210835010309,-2.2519807431551606,10.0,0.0,9.499563953291549,11.406665230163494,145.57134351484194,245.8448292037549,0.0
0.025,4.465855527466937,-2.2513122161646644,10.0,0.0,9.915398617325309,11.768423102805041,150.01954308439417,245.8448292037549,0.0
0.026000000000000002,4.5638223952721635,-2.243720549745152,10.0,0.0,10.324997204183603,12.1257587460518,154.18299515259156,245.8448292037549,0.0
0.027,4.665638353131938,-2.228885438587675,10.0,0.0,10.727813551117617,12.478100596973189,158.04250779338224,245.8448292037549,0.0
0.028,4.771806801940359,-2.2065651351296864,10.0,0.0,11.123275566181562,12.824829527705512,161.58143581264756,245.8448292037549,0.0
0.029,4.882796446400842,-2.176604091328012,10.0,0.0,11.510791761028742,13.165284590468426,164.78631155159994,245.8448292037549,0.0
0.03,4.999029100768613,-2.138938839313245,10.0,0.0,11.889758275383883,13.498770070903916,167.6476825596018,245.8448292037549,0.0
0.031,5.120866882307191,-2.0936024233929524,10.0,0.0,12.259566333115977,13.824563825305807,170.16089541730187,245.8448292037549,0.0
0.032,5.2485992128673145,-2.0407276513050867,10.0,0.0,12.619610099744593,14.141926831494496,172.3255499746392,245.8448292037549,0.0
0.033,5.382428996475945,-1.9805512391381557,10.0,0.0,12.969295132711727,14.450113960835822,173.9946154804189,245.8448292037549,0.0
0.034,5.522072688272999,-1.9140600813475168,10.0,0.0,13.308118112080983,14.748428372278141,175.53875783278096,245.8448292037549,0.0
0.035,5.668533568952759,-1.8400490540811565,10.0,0.0,13.635413933236148,15.03607938055635,176.9214966566245,245.8448292037549,0.0
0.036000000000000004,5.821411816413905,-1.7594875592918373,10.0,0.0,13.950623618949459,15.312342871708331,178.32542598254946,245.8448292037549,0.0
0.037,5.980123160597337,-1.6735917490025254,10.0,0.0,14.253295761022706,15.576571516930874,179.79830357338224,245.8448292037549,0.0
0.038,6.14410608138016,-1.583450423654868,10.0,0.0,14.543066965725533,15.828193503994214,181.00696213526393,245.8448292037549,0.0
0.039,6.313173914128912,-1.4894212090380563,10.0,0.0,14.81958144831004,16.06667278042697,182.48295849414228,245.8448292037549,0.0
0.04,6.485869394130347,-1.393860001607964,10.0,0.0,15.082720969608229,16.29164975300223,183.58143055478152,245.8448292037549,0.0
0.041,6.661674062813914,-1.2975076298596457,10.0,0.0,15.332401087216109,16.502831421694598,185.3169150551157,245.8448292037549,0.0
0.042,6.844997714060918,-1.19258943372497,10.0,0.0,15.567653882075106,16.69945538032819,184.72403944063737,245.8448292037549,0.0
0.043000000000000003,7.0183893004107745,-1.1082715460690786,10.0,0.0,15.790818007630769,16.88270238459831,185.83423844416106,245.8448292037549,0.0
0.044,7.127970486579901,-1.1342623607275621,10.0,0.0,16.013692589546864,17.05962108638187,191.72712533244808,245.8448292037549,0.0
0.045,7.212008226279622,-1.196320874142796,10.0,0.0,16.238538111778794,17.232987036673407,199.2423954317346,245.8448292037549,0.0
0.046,7.267471194958817,-1.2971393781185245,10.0,0.0,16.468705127119865,17.406240395001273,205.5728686970015,245.8448292037549,0.0
0.047,7.308977227011567,-1.4112128202607268,10.0,0.0,16.704720670355503,17.581174085191456,212.08104615111836,245.8448292037549,0.0
0.048,7.332589798289019,-1.5453992226361852,10.0,0.0,16.948247798126467,17.760033638166174,217.31691752353376,245.8448292037549,0.0
0.049,7.351217615838381,-1.6775063308227374,10.0,0.0,17.198498086294578,17.943547014402874,223.26420086856191,245.8448292037549,0.0
0.05,7.354174579719434,-1.8262755175486096,10.0,0.0,17.457118222727527,18.133595093981285,228.79243641682783,245.8448292037549,0.0
0.051000000000000004,7.348546411485671,-1.9796226418424738,10.0,0.0,17.724261645280084,18.331149047389683,234.09736300307821,245.8448292037549,0.0
0.052000000000000005,7.331891529026643,-2.141499246777309,10.0,0.0,18.00071907621813,18.53743770310065,241.72996240984077,245.8448292037549,0.0
0.053,7.30496528636767,-2.3101633155767582,7.983417039966493,0.0,18.28709391115205,18.53171444859853,250.21300542573067,245.8448292037549,0.0
0.054,7.180070818212346,-2.432938563022564,3.6982137698017823,0.0,18.55607757367341,18.117463601992732,258.1895486922615,245.8448292037549,0.0
0.055,6.845822523725344,-2.4344621992381548,-0.41350505834869633,0.0,18.75567763279132,17.39761753561676,257.9469280263414,245.8448292037549,0.0
0.056,6.295513395220071,-2.316271108002825,-0.4132157136145249,0.0,18.85031682296179,16.868056619183154,256.8823052810869,245.8448292037549,0.0
0.057,5.730806055952312,-2.2001274378964215,0.008720898239431563,0.0,18.870942109672505,16.503940563300947,256.9729001997883,245.8448292037549,0.0
0.058,5.245217122027039,-2.118873757410422,-0.14785727107160884,0.0,18.845316793971534,16.204623386274374,257.44699231628044,245.8448292037549,0.0
0.059000000000000004,4.83903241183913,-2.061701454558219,-0.5009249604429442,0.0,18.786845875629115,15.93522816002405,257.77599911971265,245.8448292037549,0.0
0.06,4.493826046332151,-2.0172089459059186,-0.784740061318626,0.0,18.702960073572676,15.693147233465792,257.63511128374563,245.8448292037549,0.0
0.061,4.198457139329591,-1.978176743535245,-0.8321989641350234,0.0,18.599406141891798,15.493542007171879,256.8943988184231,245.8448292037549,0.0
0.062,3.953057963409684,-1.9434149409140837,-0.5723384276204397,0.0,18.482813604485017,15.356641378665207,255.57458159822656,245.8448292037549,0.0
0.063,3.7668073716138237,-1.9127611579163377,-0.009727341466885697,0.0,18.361165959864685,15.299093746718604,253.56243126283763,245.8448292037549,0.0
0.064,3.645495316601729,-1.8959631376909882,0.9191718056367488,0.0,18.244387072116922,15.343170728957872,252.2205509353387,245.8448292037549,0.0
0.065,3.5978737997993586,-1.9036226217745016,1.5263547520703744,0.0,18.14470429481931,15.432688503133239,255.34661082653878,245.8448292037549,0.0
0.066,3.6132482552442777,-1.9104082203600714,-0.13169300975749998,0.0,18.06461139367256,15.312661733628943,249.72610083680755,245.8448292037549,0.0
0.067,3.5785716256145874,-1.858633034999757,2.6397492687775896,0.0,17.97476197931457,15.522035653031253,246.37910451587655,245.8448292037549,0.0
0.068,3.642024638224029,-1.8714870812278699,4.307904676121873,0.0,17.91676659527131,15.849943313396716,251.9197204744077,245.8448292037549,0.0
0.069,3.81452085740211,-1.9063839742756379,1.4768477841497631,0.0,17.90107163344189,15.792822803147438,248.28094868192056,245.8448292037549,0.0
0.07,3.8935113521811453,-1.841495933811172,3.2718724856116808,0.0,17.873747463388916,15.958644141586765,240.13933924114605,245.8448292037549,0.0
0.07100000000000001,4.00727005994294,-1.7992854512289962,7.399732105625027,0.0,17.86174357150578,16.5295416874577,243.987581593882,245.8448292037549,0.0
0.07200000000000001,4.294642076478175,-1.8606504803471804,5.49418340535578,0.0,17.915202081426877,16.760786801582224,246.08977221821218,245.8448292037549,0.0
0.073,4.545607912190291,-1.8520606076829742,4.440638663046118,0.0,17.984880715484067,16.852686298872054,247.7975054349036,245.8448292037549,0.0
0.074,4.728943044275076,-1.7680985394009658,3.56724529238892,0.0,18.04763150708013,16.83916868031722,239.97009291717606,245.8448292037549,0.0
0.075,4.828743826025977,-1.6502274561459238,7.539698914118477,0.0,18.090629259185892,17.269837000202553,232.61741409782508,245.8448292037549,0.0
0.076,5.078346841721011,-1.605800008376593,10.0,0.0,18.168685759647516,17.866188522630647,235.47469943877053,245.8448292037549,0.0
0.077,5.46528098965084,-1.6276345169202808,9.99640485253332,0.0,18.301417832723292,18.345645339666618,235.33499539797901,245.8448292037549,0.0
0.078,5.874501679936489,-1.6367614251903388,10.0,0.0,18.469607995019366,18.749716165550446,234.40246286831226,245.8448292037549,0.0
0.079,6.26397916699959,-1.6159833226412967,10.0,0.0,18.659009363311107,19.09141265692675,232.97334236175135,245.8448292037549,0.0
0.08,6.621969829364064,-1.5614928616587438,10.0,0.0,18.857854074228726,19.38239543800513,230.8207289581723,245.8448292037549,0.0
0.081,6.949624318984561,-1.476756280407054,10.0,0.0,19.057136472834554,19.631702324832833,231.38163956949072,245.8448292037549,0.0
0.082,7.2516557957313745,-1.369523342432596,10.0,0.0,19.25047306289789,19.8460598452924,231.525030101151,245.8448292037549,0.0
0.083,7.531934319078078,-1.2504465615109963,10.0,0.0,19.433885629479228,20.03050494991167,232.81108399496887,245.8448292037549,0.0
0.084,7.798751201395592,-1.1206267169465265,10.0,0.0,19.60431203477148,20.18829972890569,226.5996358914976,245.8448292037549,0.0
0.085,8.047119643438442,-1.0000029531531511,10.0,0.0,19.761504861862278,20.322705310727997,231.17540568064493,245.8448292037549,0.0
0.08600000000000001,8.183853935388258,-1.0493140703942183,10.0,0.0,19.923049424960688,20.446832529383105,239.94913521136056,245.8448292037549,0.0
0.08700000000000001,8.259535713878172,-1.1743807757717597,8.657425671408383,0.0,20.094116480033875,20.420060653623064,248.4320195727825,245.8448292037549,0.0
0.088,8.23099575556915,-1.3168490206832488,4.390111587007129,0.0,20.25982048191024,19.96099007814702,252.72165359161227,245.8448292037549,0.0
0.089,7.970010129688506,-1.3813951663316146,2.176526333713676,0.0,20.368722419623563,19.391998742651733,255.52515033902858,245.8448292037549,0.0
0.09,7.559649441196963,-1.385960683812376,0.6779747486527796,0.0,20.409691775482415,18.79062173212881,257.7789741033228,245.8448292037549,0.0
0.091,7.071646353659403,-1.3618015984810228,-0.5682785824900121,0.0,20.38372334014185,18.180953740413177,259.1370441915302,245.8448292037549,0.0
0.092,6.55165568234136,-1.3279182118470756,-1.380235776471464,0.0,20.295899367487344,17.605121889278124,259.41825983173237,245.8448292037549,0.0
0.093,6.038922479066781,-1.300765342717266,-1.6565779028523204,0.0,20.156626625246847,17.107013509676076,258.9557162957518,245.8448292037549,0.0
0.094,5.56941006640578,-1.2948780687676693,-1.5564150057820108,0.0,19.981094247827045,16.705089067111686,258.348603299422,245.8448292037549,0.0
0.095,5.166008441206726,-1.3180018964706361,-1.377896248573773,0.0,19.785525157679608,16.384118320029245,257.9441771239906,245.8448292037549,0.0
0.096,4.831533635161864,-1.3666524457898503,-1.2966766400604248,0.0,19.58253622398675,16.115594920417635,257.6820062541271,245.8448292037549,0.0
0.097,4.553826369715678,-1.4303061089582902,-1.2839629756323987,0.0,19.379509241157344,15.881414325538483,257.3111556310672,245.8448292037549,0.0
0.098,4.318254610311012,-1.4989080261521508,-1.2132009283755814,0.0,19.180276571382613,15.681141601298325,256.7146940762432,245.8448292037549,0.0
0.099,4.1171338126879755,-1.566764247553559,-1.0236687996884477,0.0,18.98771806134355,15.520881366332212,256.2322761681857,245.8448292037549,0.0
0.1,3.948280038213253,-1.6334177575833717,-0.8863343153040208,0.0,18.80504270270106,15.387165483070213,255.69771700519198,245.8448292037549,0.0
0.101,3.8071046785767093,-1.691771210288601,-0.7175836118215262,0.0,18.633015636293873,15.279583636624668,255.04589405517942,245.8448292037549,0.0
0.10200000000000001,3.690233969203377,-1.7406273682007602,-0.48368278532949205,0.0,18.472223734726153,15.201042876496956,254.38795683103612,245.8448292037549,0.0
0.10300000000000001,3.5977484590088347,-1.7800159641511586,-0.2401454495306563,0.0,18.32350113127785,15.147731799925861,252.91876363719192,245.8448292037549,0.0
0.10400000000000001,3.5315785708138927,-1.8040179703740054,0.4237118030570759,0.0,18.186566015242285,15.161822327693205,250.79617414320657,245.8448292037549,0.0
0.105,3.503319452846557,-1.8309290659056365,1.4354931006552318,0.0,18.067453664033255,15.267914465384628,250.8505674669163,245.8448292037549,0.0
0.106,3.5274323953619717,-1.8749350711097819,1.3582390561687596,0.0,17.975433311331415,15.329935381460157,253.05535657749974,245.8448292037549,0.0
0.107,3.5761767693920032,-1.8763900428401485,0.18373922713958724,0.0,17.89853707234561,15.243008978191451,246.6667496014547,245.8448292037549,0.0
0.108,3.5650134768226645,-1.8397206641183188,3.3698235111851016,0.0,17.8165896355548,15.52101526680925,245.3571501304649,245.8448292037549,0.0
0.109,3.668174617944506,-1.8717295316734897,4.029500037412907,0.0,17.774525240523147,15.792270399481712,250.104225206354,245.8448292037549,0.0
0.11,3.843534340686358,-1.888169437293636,1.6133685394423725,0.0,17.765281099204568,15.741564391254329,245.1396557108263,245.8448292037549,0.0
0.111,3.924415428732497,-1.817962947211159,4.102705022135501,0.0,17.744003658229836,15.985849575336122,240.75126409191523,245.8448292037549,0.0
0.112,4.065032502056495,-1.7982130520317912,6.3478364827094325,0.0,17.74781205619185,16.410990525563285,242.09880997771847,245.8448292037549,0.0
0.113,4.313893349651819,-1.8242868139859951,5.7115237320681755,0.0,17.79681932214714,16.67558398088541,244.08630509652443,245.8448292037549,0.0
0.114,4.559057539874362,-1.8107353083685118,4.735361413737504,0.0,17.865633803801646,16.79312463731237,242.6045586784011,245.8448292037549,0.0
0.115,4.747204625389569,-1.7377664017254548,5.5086373280527035,0.0,17.93142983825883,16.98237011251561,239.08483840959528,245.8448292037549,0.0
0.116,4.937652589552367,-1.6571991017484806,7.336097370397213,0.0,18.001438102859588,17.333490683956235,231.6574117577854,245.8448292037549,0.0
0.117,5.197451143022338,-1.6075926815362498,10.0,0.0,18.094906564920752,17.90458135230567,233.30719454397914,245.8448292037549,0.0
0.11800000000000001,5.5739560094909235,-1.6249627001427738,10.0,0.0,18.238544013859592,18.362453223953395,233.61697980422525,245.8448292037549,0.0
0.11900000000000001,5.9695788431272385,-1.6243914328385884,10.0,0.0,18.413368365479784,18.74914819029493,232.25409042460012,245.8448292037549,0.0
0.12,6.345326192277171,-1.5947923879160153,10.0,0.0,18.606129596303678,19.077280115094197,231.56310120819913,245.8448292037549,0.0
0.121,6.692124514405901,-1.5326404718325364,10.0,0.0,18.80588717620515,19.35748462855327,230.32899903764954,245.8448292037549,0.0
0.122,7.010810190909447,-1.4427990247625067,10.0,0.0,19.004428409445513,19.598057007462476,229.82451793212653,245.8448292037549,0.0
0.123,7.3066145373002085,-1.3315095243619552,10.0,0.0,19.195829326679394,19.80507465046685,230.38952144947015,245.8448292037549,0.0
0.124,7.579323831889055,-1.2150732203511816,10.0,0.0,19.377096818053154,19.983490641953317,230.44187428890902,245.8448292037549,0.0
0.125,7.838699948441261,-1.0911538791549753,10.0,0.0,19.545612394946705,20.136387503553646,227.22916127281238,245.8448292037549,0.0
0.126,8.060621838227457,-1.0113328318840509,10.0,0.0,19.705024978523095,20.269028589972347,231.38928227504294,245.8448292037549,0.0
0.127,8.179619499237928,-1.0828314657441367,10.0,0.0,19.870423472581034,20.393476302293525,239.42212597490342,245.8448292037549,0.0
0.128,8.245951973893515,-1.21582773575539,8.406492370965807,0.0,20.045641491827926,20.3406266579926,248.35923893930217,245.8448292037549,0.0
0.129,8.19979672722766,-1.355807182958325,3.9127917914109602,0.0,20.21212052121226,19.837952194465576,253.00106668647393,245.8448292037549,0.0
0.13,7.9095477893765,-1.411145445166677,1.5203155429978903,0.0,20.31637161567634,19.215423529396766,255.65244639436,245.8448292037549,0.0
0.131,7.462252409070502,-1.4000919644914933,0.09654951714880688,0.0,20.34617546869078,18.57918334237712,257.49250181325647,245.8448292037549,0.0
0.132,6.942910631683789,-1.3612916271383335,-0.9399549183944425,0.0,20.305217415399724,17.962424373419097,258.42997309799546,245.8448292037549,0.0
0.133,6.406828312112867,-1.3191584584865481,-1.5345419997063434,0.0,20.202432625363798,17.401981598817834,258.4067413743025,245.8448292037549,0.0
0.134,5.894968902853711,-1.2913858937153233,-1.6485452595653394,0.0,20.05124838643302,16.93165384672453,257.86341732136685,245.8448292037549,0.0
0.135,5.439436307604419,-1.2905034542441227,-1.4970691142736365,0.0,19.86833045349187,16.556032845912977,257.28498117810386,245.8448292037549,0.0
0.136,5.055222585416963,-1.3201327454249137,-1.3222525623856303,0.0,19.669410260188286,16.25510539463136,256.94343772683214,245.8448292037549,0.0
0.137,4.739393048322217,-1.3737985913814972,-1.2624669219805442,0.0,19.465896291230298,16.000106035931775,256.67943330152104,245.8448292037549,0.0
0.138,4.476831298371795,-1.4401167495544733,-1.2388107503026555,0.0,19.26399212223763,15.777983035810468,256.27081187531746,245.8448292037549,0.0
0.139,4.253858043050166,-1.5097146455346744,-1.1387598639164906,0.0,19.067058657108173,15.590552395173598,255.66567682973812,245.8448292037549,0.0
0.14,4.064109476079012,-1.5781012563942198,-0.9344008173866505,0.0,18.877902022662738,15.442293068155498,255.2198756023606,245.8448292037549,0.0
0.14100000000000001,3.9056602178638267,-1.6446397114412,-0.8052506676839428,0.0,18.699470482906605,15.317638869130622,254.70015772949486,245.8448292037549,0.0
0.14200000000000002,3.773315171449747,-1.7016225869591395,-0.6339450165084792,0.0,18.532019408980094,15.218132518688297,254.15541398846068,245.8448292037549,0.0
