timestamp,iq,id,iq_ref,id_ref,vq,vd,omega,omega_ref,r
0.0,0.0,0.0,0.0,0.0,0.0,0.0,0.0,278.2143532676911,0.0
0.001,0.0,0.0,10.0,0.0,0.0,1.0999999999999999,4.7889852011018865,278.2143532676911,0.0
0.002,0.4397010407004002,-0.2550052943582674,10.0,0.0,0.13805058237940937,1.9416328855229552,10.765667031271962,278.2143532676911,0.0
0.003,0.8108391253146714,-0.4678570086322441,10.0,0.0,0.3673230306997281,2.6764793618309906,17.266407922170217,278.2143532676911,0.0
0.004,1.1078401793186679,-0.6367811121926339,10.0,0.0,0.6636060160677216,3.3318097002459583,24.067622347204463,278.2143532676911,0.0
0.005,1.3460502735932498,-0.7714241540189533,10.0,0.0,1.0089152303057038,3.9280022035260638,31.055495883654494,278.2143532676911,0.0
0.006,1.5399183656716053,-0.8804392793259398,10.0,0.0,1.3899580068134039,4.480162988716084,38.1959309854594,278.2143532676911,0.0
0.007,1.7005939645039798,-0.9704455196174796,10.0,0.0,1.7969231193683355,4.999476338087093,45.408384899453075,278.2143532676911,0.0
0.008,1.83655398194484,-1.0460550832823123,10.0,0.0,2.2225400452050907,5.494206017846325,52.6660968510869,278.2143532676911,0.0
0.009000000000000001,1.9539556887955565,-1.1108568717863287,10.0,0.0,2.6614403475328863,5.970469834634137,59.89850067515725,278.2143532676911,0.0
0.01,2.0574925221611715,-1.1672340223165405,10.0,0.0,3.1096304699799684,6.4327822653742395,67.20207397267004,278.2143532676911,0.0
0.011,2.150244207204318,-1.2175932381184218,10.0,0.0,3.564208565489256,6.884515148263949,74.50976991063786,278.2143532676911,0.0
0.012,2.234918504709358,-1.2629561616823064,10.0,0.0,4.0229884691705955,7.328145896540494,81.78408994434503,278.2143532676911,0.0
0.013000000000000001,2.313509783708487,-1.3040815834480823,10.0,0.0,4.484323624470051,7.765493262642665,89.0057064265225,278.2143532676911,0.0
0.014,2.3875072873307275,-1.341506767014182,10.0,0.0,4.946965516824392,8.197885595056109,96.15966952586825,278.2143532676911,0.0
0.015,2.4580636801239946,-1.3755528425231667,10.0,0.0,5.409953269654968,8.626281655292603,103.23085548640577,278.2143532676911,0.0
0.016,2.526102671953868,-1.4063600836225025,10.0,0.0,5.872530188991977,9.051358159615152,110.20270406727752,278.2143532676911,0.0
0.017,2.592394189542622,-1.4339237235289182,10.0,0.0,6.334080994806248,9.473573028422686,117.05851514552525,278.2143532676911,0.0
0.018000000000000002,2.6576028250612738,-1.4581344401876484,10.0,0.0,6.794085749353246,9.89321145619973,123.7810599697807,278.2143532676911,0.0
0.019,2.7223273731073014,-1.4788034103404986,10.0,0.0,7.2520853507734735,10.31041890272389,130.3528380211027,278.2143532676911,0.0
0.02,2.787127230380572,-1.4956866026216344,10.0,0.0,7.707656198153489,10.725224825918056,136.75710157923555,278.2143532676911,0.0
0.021,2.8525372480904907,-1.5085109692717906,10.0,0.0,8.160392401523627,11.137560138155452,142.97795946498562,278.2143532676911,0.0
0.022,2.9190778969387607,-1.5169948145740846,10.0,0.0,8.609893495097241,11.54727016830991,149.0008749057976,278.2143532676911,0.0
0.023,2.987258308554627,-1.5208690831499856,10.0,0.0,9.055756813419263,11.954124866017024,154.81280812338832,278.2143532676911,0.0
0.024,3.057575857602126,-1.519895410886246,10.0,0.0,9.49757342304503,12.35782729950656,160.401506355525,278.2143532676911,0.0
0.025,3.13051860573574,-1.513871847817271,10.0,0.0,9.934925759842217,12.758020623805498,165.75597593748736,278.2143532676911,0.0
0.026000000000000002,3.206572538535048,-1.502624193948888,10.0,0.0,10.367385189094751,13.154293344227675,170.88952491483627,278.2143532676911,0.0
0.027,3.2860062749209624,-1.486360181002275,10.0,0.0,10.794549382578804,13.546207563858424,175.7984621508436,278.2143532676911,0.0
0.028,3.36870092116187,-1.465944368510913,10.0,0.0,11.216105479432944,13.933344707151862,180.38828728834096,278.2143532676911,0.0
0.029,3.4552403991125544,-1.4410977682434645,10.0,0.0,11.631690713026508,14.315231349689215,184.60714392890085,278.2143532676911,0.0
0.03,3.5460416483540214,-1.411803517938915,10.0,0.0,12.040932185983625,14.691365108695129,188.43482385862507,278.2143532676911,0.0
0.031,3.641478700204643,-1.378097053445237,10.0,0.0,12.443448118954361,15.061219575885005,191.8509361720166,278.2143532676911,0.0
0.032,3.741860139502752,-1.3400895272904187,10.0,0.0,12.838854142114918,15.424252601848679,194.84602279173012,278.2143532676911,0.0
0.033,3.8474847199056037,-1.2978589344620077,10.0,0.0,13.22675757560621,15.779908038080716,197.43178988991127,278.2143532676911,0.0
0.034,3.958555187219657,-1.2515749794467328,10.0,0.0,13.606767280248178,16.12762676843816,199.6278942722635,278.2143532676911,0.0
0.035,4.075130713745855,-1.2015676613610986,10.0,0.0,13.978509922022432,16.466861992979315,201.45299408925743,278.2143532676911,0.0
0.036000000000000004,4.19720413505572,-1.1481915531643765,10.0,0.0,14.341630523352588,16.79708563816495,202.9293720797649,278.2143532676911,0.0
0.037,4.3247010203837295,-1.0918187620603348,10.0,0.0,14.695794183128818,17.11779505579206,204.08760907975102,278.2143532676911,0.0
0.038,4.457504440394068,-1.0327930786093529,10.0,0.0,15.04068332142157,17.428516490286228,204.98294283187778,278.2143532676911,0.0
0.039,4.595477334589509,-0.9713889259488289,10.0,0.0,15.375991489376311,17.728805710998852,205.7642000250708,278.2143532676911,0.0
0.04,4.738592227190854,-0.9075838412821815,10.0,0.0,15.701393244820114,18.018233917191502,211.81447668116635,278.2143532676911,0.0
0.041,4.833166058941833,-0.9306747470782974,10.0,0.0,16.02637569582305,18.30228750574267,216.38051046850612,278.2143532676911,0.0
0.042,4.902796726665665,-0.9859009563829604,10.0,0.0,16.35310923454635,18.5837203454069,227.53489226909932,278.2143532676911,0.0
0.043000000000000003,4.944143429233456,-1.0816463943526433,10.0,0.0,16.685292439447366,18.865831424371816,234.85534269632464,278.2143532676911,0.0
0.044,4.9821383403877215,-1.1755365414364662,10.0,0.0,17.021838893554296,19.149183742729058,242.4375067316436,278.2143532676911,0.0
0.045,5.018935819857784,-1.2627878285091998,10.0,0.0,17.361724674193415,19.434187701031107,252.54202798616657,278.2143532676911,0.0
0.046,5.038773461146685,-1.3705828442616985,10.0,0.0,17.70710721146088,19.722865675819776,261.59987253237034,278.2143532676911,0.0
0.047,5.053043755872936,-1.4782092990611637,10.0,0.0,18.057580252350885,20.01584275084933,270.9069776381321,278.2143532676911,0.0
0.048,5.05837385370917,-1.5901974039720166,9.12348227940365,0.0,18.413546123647038,20.21770886538461,280.22907031487233,278.2143532676911,0.0
0.049,5.01407153014115,-1.6877722323710072,4.442288770561725,0.0,18.763715369341888,19.933745403400167,287.98657103525255,278.2143532676911,0.0
0.05,4.749996772577601,-1.6970883082970738,0.4658162326959996,0.0,19.05052036433668,19.351200368203163,291.39343425962426,278.2143532676911,0.0
0.051000000000000004,4.34684551161768,-1.6250805340893264,-1.369406189409185,0.0,19.24237634039018,18.73518648610237,294.04673970349745,278.2143532676911,0.0
0.052000000000000005,3.931278766760853,-1.5338898962988576,-2.8543827757038454,0.0,19.344134438213384,18.09664521887031,295.75099833748993,278.2143532676911,0.0
0.053,3.5242122417447748,-1.438136652536362,-3.8818785433980745,0.0,19.362241649095083,17.47458076986354,295.8768757602451,278.2143532676911,0.0
0.054,3.1475960051229155,-1.341405214582455,-4.121442479701213,0.0,19.30664876825064,16.937813532307477,294.97973434261365,278.2143532676911,0.0
0.055,2.829706664430389,-1.2604049742294468,-3.8405255816347026,0.0,19.194995739675733,16.51366189368287,293.37220123002567,278.2143532676911,0.0
0.056,2.583185354678658,-1.2004266938077948,-3.1883375049640543,0.0,19.04630524165301,16.2136300861821,291.5675812348371,278.2143532676911,0.0
0.057,2.4093371449240886,-1.1652600270262496,-2.4195597870412424,0.0,18.87921206214073,16.023434167809437,289.5930016492833,278.2143532676911,0.0
0.058,2.300332500317577,-1.1479127358626935,-1.546056478080244,0.0,18.708252073382234,15.934198138938463,287.8080472609264,278.2143532676911,0.0
0.059000000000000004,2.248049896232192,-1.1448820360859244,-0.7495162238341573,0.0,18.545304576548684,15.92033514895952,285.812384350062,278.2143532676911,0.0
0.06,2.2397286028797105,-1.1474547608464774,0.1723349207743241,0.0,18.397578837122015,15.985394447887504,283.94876858259505,278.2143532676911,0.0
0.061,2.272604925166186,-1.1564081502429588,1.0467986513587682,0.0,18.27209074711683,16.1124481335132,282.2250962999609,278.2143532676911,0.0
0.062,2.3382886958256943,-1.167809164956871,1.8685273623531398,0.0,18.173021412399287,16.288996710929652,280.5327844228193,278.2143532676911,0.0
0.063,2.4298527195951185,-1.1785527930425908,2.691498989372661,0.0,18.102581657837447,16.510877884086874,278.4843774564723,278.2143532676911,0.0
0.064,2.5448351495987525,-1.1868882486259777,3.7130022306583426,0.0,18.06218345988082,16.79593017768071,276.3616929899035,278.2143532676911,0.0
0.065,2.6899021169184314,-1.1966397331342054,4.79287106672064,0.0,18.055319619819315,17.142200419568365,274.2533240804327,278.2143532676911,0.0
0.066,2.86243580669749,-1.2116269604821477,5.886665813328602,0.0,18.085320268115908,17.545147950824862,271.37853591648883,278.2143532676911,0.0
0.067,3.0693846823522617,-1.215493699310802,7.392418068812569,0.0,18.152891073706176,18.04445655499829,270.17914854912107,278.2143532676911,0.0
0.068,3.3236107361902065,-1.2206499738721917,8.07246379968215,0.0,18.264164181968212,18.534443509988584,270.9921872105611,278.2143532676911,0.0
0.069,3.5754145738399616,-1.2207170857224725,7.738166129533434,0.0,18.413264494461004,18.917829717677918,271.4141751595065,278.2143532676911,0.0
0.07,3.7820766791564764,-1.1940629518382204,7.595173936142579,0.0,18.582860770627665,19.245186378067757,271.32944456116525,278.2143532676911,0.0
0.07100000000000001,3.964289811952133,-1.1469915276770033,7.706388322378464,0.0,18.763321769897768,19.55245368090078,269.5731100637821,278.2143532676911,0.0
0.07200000000000001,4.1338875233314845,-1.1028973377592737,8.670968003109122,0.0,18.95208375287482,19.935198357471755,263.7375673382482,278.2143532676911,0.0
0.073,4.349473437079208,-1.055962901845388,10.0,0.0,19.15552215915991,20.413074014135578,263.92223504517267,278.2143532676911,0.0
0.074,4.632841226170732,-0.9965947945515138,10.0,0.0,19.38034314303968,20.821201028130016,264.5362550638619,278.2143532676911,0.0
0.075,4.875722613419774,-0.9619982893465313,10.0,0.0,19.620282795431326,21.187114164406527,260.54273832220457,278.2143532676911,0.0
0.076,5.107164398959585,-0.9120378643790767,10.0,0.0,19.86767011451708,21.51740016975764,258.1462662041956,278.2143532676911,0.0
0.077,5.3525080378879855,-0.8131658893508759,10.0,0.0,20.112970989225932,21.8147229240555,265.45986243527153,278.2143532676911,0.0
0.078,5.510229745760188,-0.8439414589324642,10.0,0.0,20.367848084297957,22.09194753891781,270.10833857930646,278.2143532676911,0.0
0.079,5.587818176424874,-0.9721728462551933,9.111657853135554,0.0,20.638757628258688,22.2622622553516,282.5646245490759,278.2143532676911,0.0
0.08,5.604791808566649,-1.0823661187571205,2.8400121554369786,0.0,20.910446635568704,21.760547634030935,287.27245065329123,278.2143532676911,0.0
0.081,5.301339519010871,-1.1060617738933396,0.3955181294733192,0.0,21.10629986935563,21.163544977866877,290.4134220748846,278.2143532676911,0.0
0.082,4.9425576012980965,-1.070055682596129,-1.2969582693952901,0.0,21.218669887553393,20.520531935134855,294.94781964787967,278.2143532676911,0.0
0.083,4.558995095973511,-1.0400218198255056,-3.731491719694721,0.0,21.25255793566639,19.740787339360143,297.67780483819854,278.2143532676911,0.0
0.084,4.126414283340448,-0.9902741461758194,-5.291118830559231,0.0,21.199910813916844,18.938940624618482,299.19937453659225,278.2143532676911,0.0
0.085,3.692226391014925,-0.937189832756073,-6.261753892445095,0.0,21.067001935128424,18.164275143506718,299.5749924988458,278.2143532676911,0.0
0.08600000000000001,3.2853779958277167,-0.8874544850514116,-6.663169265883421,0.0,20.864977350994348,17.45974742671526,299.1270796825374,278.2143532676911,0.0
0.08700000000000001,2.925147715904863,-0.8507094067134703,-6.648340121877675,0.0,20.609157848454405,16.846672229604202,297.89037876040413,278.2143532676911,0.0
0.088,2.621610836023296,-0.8288979357864831,-6.22674991573818,0.0,20.31558096543876,16.345335987173286,296.10797512938007,278.2143532676911,0.0
0.089,2.3816657393023974,-0.8247553804833258,-5.514484318843036,0.0,20.000990580107516,15.962267586121447,293.9976668184614,278.2143532676911,0.0
0.09,2.206155059559314,-0.8378576391072892,-4.61716329889142,0.0,19.681035067205876,15.694536366671933,291.7457562590092,278.2143532676911,0.0
0.091,2.091082723789752,-0.8659656711270585,-3.6265220490785017,0.0,19.369262844585386,15.532482895294315,289.4390499398452,278.2143532676911,0.0
0.092,2.02966880104113,-0.9049900875371779,-2.5854158562180176,0.0,19.076474102574096,15.465677625653605,287.26339919219777,278.2143532676911,0.0
0.093,2.014208426677813,-0.9521075088828271,-1.5880809416393795,0.0,18.81107637998379,15.476656289403358,285.3603274125193,278.2143532676911,0.0
0.094,2.034619935556221,-1.0033795392949685,-0.708004793248441,0.0,18.578485045159358,15.544432471976055,283.7753359128405,278.2143532676911,0.0
0.095,2.0808222745074287,-1.0524957144314726,0.028881130139482458,0.0,18.380820521035545,15.64955045070196,282.2059753374625,278.2143532676911,0.0
0.096,2.1442653409546653,-1.093382454849098,0.7736451971307532,0.0,18.217440626891268,15.792428653358364,280.70257622769907,278.2143532676911,0.0
0.097,2.223793594824796,-1.1270832413263985,1.5004625224123984,0.0,18.087984761535388,15.969069634184532,279.2606757369893,278.2143532676911,0.0
0.098,2.3182026631114985,-1.153535448743218,2.2109495430743014,0.0,17.991711315748795,16.176396614439646,277.6553367453658,278.2143532676911,0.0
0.099,2.426708747154399,-1.1727392072193796,3.0192092041093104,0.0,17.927645803924577,16.42417566603597,275.72109338836225,278.2143532676911,0.0
0.1,2.5540852665782117,-1.186792608053452,4.011263481404368,0.0,17.896118584949406,16.72888727888616,273.88314480605413,278.2143532676911,0.0
0.101,2.7069273179920703,-1.201396531978935,4.973549857174795,0.0,17.899681146780225,17.080367106654325,271.6194924667874,278.2143532676911,0.0
0.10200000000000001,2.8829442283510835,-1.2135465604130475,6.171324634817203,0.0,17.939225899093284,17.501354129986357,269.14651470689427,278.2143532676911,0.0
0.10300000000000001,3.0960838486083304,-1.2191978548790772,7.498491900371734,0.0,18.01741502061516,17.996522388526365,268.60394466861555,278.2143532676911,0.0
0.10400000000000001,3.346231218506422,-1.224631636254134,7.865881005501845,0.0,18.137843258845443,18.451749047787104,269.3270094707936,278.2143532676911,0.0
0.105,3.5805730838401857,-1.2186854669185296,7.5932220423817975,0.0,18.291042922738104,18.81655335646256,269.6108582380117,278.2143532676911,0.0
0.106,3.7764896517164956,-1.1873129881699596,7.53733260906954,0.0,18.462011540140065,19.137568548813537,269.37911546972373,278.2143532676911,0.0
0.107,3.952453171473029,-1.1417266775922892,7.7415563711932,0.0,18.643284045660867,19.449205770341877,267.2313815923572,278.2143532676911,0.0
0.108,4.1241352720699895,-1.096736488061227,8.925253026629806,0.0,18.833099965039782,19.858845518878155,261.5414914854784,278.2143532676911,0.0
0.109,4.353584098891664,-1.0500117846591965,10.0,0.0,19.040208451855516,20.32936553507063,262.89506361990976,278.2143532676911,0.0
0.11,4.63031641921552,-0.9965690107969549,10.0,0.0,19.268246633518096,20.73465086162434,263.0122764457111,278.2143532676911,0.0
0.111,4.868885790883789,-0.9641077352959166,10.0,0.0,19.51097321710331,21.098736166008656,257.9814924689106,278.2143532676911,0.0
0.112,5.098906173017669,-0.9122260134023257,10.0,0.0,19.76045329611513,21.427769049995007,257.5287983242757,278.2143532676911,0.0
0.113,5.341661747257174,-0.8141014818848427,10.0,0.0,20.00761377437643,21.72444374413891,264.2539448300327,278.2143532676911,0.0
0.114,5.49312206178797,-0.8521999741268671,10.0,0.0,20.264897753687784,22.00193393783855,268.9766783874141,278.2143532676911,0.0
0.115,5.575157127863352,-0.9697377318216929,8.875132295026082,0.0,20.536750522861983,22.146158808429263,281.6578651769424,278.2143532676911,0.0
0.116,5.575352471298412,-1.0831227702877273,2.500103781169428,0.0,20.807137478832143,21.61394087228672,285.26919888314524,278.2143532676911,0.0
0.117,5.260056995239299,-1.095675779304978,0.6238884719134585,0.0,20.997510926198274,21.054034482276712,288.8324414228963,278.2143532676911,0.0
0.11800000000000001,4.9169753037473996,-1.0635818624493543,-1.2639136795141228,0.0,21.10920052888249,20.41484602374335,293.4729055792144,278.2143532676911,0.0
0.11900000000000001,4.536798066006877,-1.035612222233094,-3.7367312807884083,0.0,21.14304660418972,19.636002135942398,296.0562231192286,278.2143532676911,0.0
0.12,4.105880124695499,-0.984718934884355,-5.206808749310887,0.0,21.090305117979934,18.84504610009438,297.55776686310037,278.2143532676911,0.0
0.121,3.6770954514561374,-0.9324368068511705,-6.151014757200862,0.0,20.95850007559617,18.08160676767073,297.96032106724437,278.2143532676911,0.0
0.122,3.2759624951553232,-0.8841172404312803,-6.549751537268393,0.0,20.75873927318256,17.386748656983237,297.5443858328918,278.2143532676911,0.0
0.123,2.920575769838935,-0.8486302040122398,-6.53508424574412,0.0,20.50604836159965,16.78208225721327,296.3580115634869,278.2143532676911,0.0
0.124,2.6209862771692087,-0.8279211682251604,-6.123333693999632,0.0,20.21623677762566,16.287160270979157,294.63403995392997,278.2143532676911,0.0
0.125,2.383847745658642,-0.8245493990956241,-5.42554475608355,0.0,19.905750349179282,15.908477946163861,292.5873475675683,278.2143532676911,0.0
0.126,2.2099846418722224,-0.838120584415492,-4.545928505901495,0.0,19.589970879172483,15.643148665227717,290.39994345496547,278.2143532676911,0.0
0.127,2.095479577331326,-0.866406089343206,-3.574082351472814,0.0,19.282212121761603,15.481738205931478,288.1543990848595,278.2143532676911,0.0
0.128,2.0337137687799394,-0.9053585866523599,-2.550710624591518,0.0,18.99309011381692,15.41419453353167,286.04237901823916,278.2143532676911,0.0
0.129,2.017150532450546,-0.9523287144525672,-1.572980848786826,0.0,18.730903128511653,15.423013883557791,284.17638125836675,278.2143532676911,0.0
0.13,2.0358748283435704,-1.0031582805295347,-0.6996022487573756,0.0,18.500938327729994,15.48880164338445,282.6442305690978,278.2143532676911,0.0
0.131,2.080331938948912,-1.0521215175427543,0.022174322863044438,0.0,18.305426443419844,15.59097274482057,281.11012547736783,278.2143532676911,0.0
0.132,2.141652292897877,-1.092816906212582,0.7602691466312477,0.0,18.143669718067873,15.731047544752027,279.64739894519244,278.2143532676911,0.0
0.133,2.2190579870240223,-1.1265094098696173,1.4773019559439318,0.0,18.015395366759826,15.90453043012747,278.2485048427796,278.2143532676911,0.0
0.134,2.3111967092399253,-1.1530072624588312,2.176407491399466,0.0,17.919874577868363,16.108207670139056,276.6934909148621,278.2143532676911,0.0
0.135,2.4172023674462757,-1.1722524352836106,2.969123078886513,0.0,17.856125582352036,16.351433531348814,274.8083245157794,278.2143532676911,0.0
0.136,2.541664166731665,-1.1862600448124252,3.9457665659469616,0.0,17.824422457828245,16.650834793248414,273.0144601852426,278.2143532676911,0.0
0.137,2.6912872236358614,-1.2006493397360527,4.894697662039842,0.0,17.827272518293107,16.996527683938687,270.8410350302982,278.2143532676911,0.0
0.138,2.8636443477105016,-1.212916773717203,6.055143421885983,0.0,17.865612386569197,17.40863296114939,268.3418194840395,278.2143532676911,0.0
0.139,3.071491129482361,-1.218747154403221,7.403476532851855,0.0,17.941847463274396,17.898934307320253,267.6231904192468,278.2143532676911,0.0
0.14,3.3186498628556467,-1.2238660149185208,7.868702693732652,0.0,18.059993937775992,18.36041158027845,268.43781956428643,278.2143532676911,0.0
0.14100000000000001,3.5544274911732927,-1.2202952726952867,7.559153458246875,0.0,18.212029521873532,18.72538914409753,268.7756737193653,278.2143532676911,0.0
