timestamp,iq,id,iq_ref,id_ref,vq,vd,omega,omega_ref,r
0.0,0.0,0.0,0.0,0.0,0.0,0.0,0.0,33.03539698939822,0.0
0.001,0.0,0.0,10.0,0.0,0.0,1.0999999999999999,6.549654353761353,33.03539698939822,0.0
0.002,0.64585058991214,-0.3528378970495563,10.0,0.0,0.1488121686754512,1.9189564351096642,12.208787292560492,33.03539698939822,0.0
0.003,1.3166119300599577,-0.7449925968754979,10.0,0.0,0.40424740200468173,2.6035732020587683,17.510539477135374,33.03539698939822,0.0
0.004,1.8914793308216622,-1.0724120004442257,8.490055364704377,0.0,0.7346953760902001,3.0226501050810577,22.424814251131924,33.03539698939822,0.0
0.005,2.2463313143696966,-1.2768699448289123,6.139023805088765,0.0,1.0932224229160237,3.156065045822243,25.93478920480996,33.03539698939822,0.0
0.006,2.340031944191522,-1.3328289886045006,4.45504240609563,0.0,1.4333491745048519,3.1435050094338823,28.58057450396681,33.03539698939822,0.0
0.007,2.254571012152641,-1.2834801139346816,3.1766979813715177,0.0,1.732219280644525,3.052773287936014,30.536036134757616,33.03539698939822,0.0
0.008,2.067126291441542,-1.1759166026464267,2.2239607745225216,0.0,1.980790706525434,2.9287484106535837,31.913232240231054,33.03539698939822,0.0
0.009000000000000001,1.8379386371715607,-1.0434623269359338,1.5465843692774746,0.0,2.178608166874737,2.8003353259416106,32.89633509782829,33.03539698939822,0.0
0.01,1.6068025286852503,-0.909953225796335,1.0564235593945546,0.0,2.330441114349662,2.680534466091887,33.498782292426064,33.03539698939822,0.0
0.011,1.3956244520813756,-0.7873705562573085,0.7505661090653901,0.0,2.4429616784542256,2.5800725028788136,34.157098866092504,33.03539698939822,0.0
0.012,1.217605283681348,-0.681501025928766,0.4101908034652275,0.0,2.5237641681862755,2.4839964110427406,33.751014513927444,33.03539698939822,0.0
0.013000000000000001,1.060363029068175,-0.5990855182586163,0.606076804302465,0.0,2.578871789221082,2.446075846835027,33.86775508012992,33.03539698939822,0.0
0.014,0.9640280845840629,-0.5320974505817927,0.5393829402939114,0.0,2.6181320593638877,2.417187337449373,34.75934212925872,33.03539698939822,0.0
0.015,0.8910981190246802,-0.49592498614231384,0.07634996433090546,0.0,2.6472683611422725,2.351905964067411,33.60461124103235,33.03539698939822,0.0
0.016,0.8152632591250897,-0.4522274086436983,0.6480232659277481,0.0,2.6625178865241694,2.371193286070128,34.61445579440249,33.03539698939822,0.0
0.017,0.794339276804248,-0.4320392195992464,0.12731040119263715,0.0,2.676387466548246,2.328624969730228,34.25562273294868,33.03539698939822,0.0
0.018000000000000002,0.7507477547723587,-0.41592628118899394,0.2945246744840365,0.0,2.6830427156012413,2.3198869693364297,33.85875563279628,33.03539698939822,0.0
0.019,0.73134370481746,-0.39518287850635975,0.4847246381262553,0.0,2.6860379947985695,2.3336366774297623,34.83778356539417,33.03539698939822,0.0
0.02,0.7270198350381607,-0.39541037127355794,-0.0228131939326478,0.0,2.6903411751167168,2.2888613666467665,33.645771744297875,33.03539698939822,0.0
0.021,0.6966544062027621,-0.3803348527139364,0.5670889690665026,0.0,2.688075924355519,2.3222554796984802,34.40473171248331,33.03539698939822,0.0
0.022,0.7085854417571816,-0.3777184636848326,0.1739156377429334,0.0,2.6892395623680074,2.30131950009398,34.223087305908024,33.03539698939822,0.0
0.023,0.6944678356912465,-0.37841685974353995,0.25286093786547925,0.0,2.6882962260755456,2.29688144560069,33.63593202832636,33.03539698939822,0.0
0.024,0.6913922592400695,-0.3676612825544091,0.5404332262670306,0.0,2.6858133205116097,2.3238334989993987,34.72529470088367,33.03539698939822,0.0
0.025,0.7038058410430367,-0.37574874789922397,-0.021147087126481057,0.0,2.6872710878037593,2.2817962493817032,33.520206033231375,33.03539698939822,0.0
0.026000000000000002,0.6818432180037043,-0.36646941815010237,0.5765491562613364,0.0,2.6832777524790723,2.3180109157139435,34.22249150325622,33.03539698939822,0.0
0.027,0.6998333458480823,-0.3664990924961473,0.21353547611033274,0.0,2.6834012747956346,2.302097774336728,34.09738170963082,33.03539698939822,0.0
0.028,0.6912908677668134,-0.370224607259656,0.2654705257207095,0.0,2.682330640623345,2.298250865454925,33.468240038927526,33.03539698939822,0.0
0.029,0.6910150058423518,-0.3605866930702475,0.575712930577062,0.0,2.6798849532716327,2.3282338181130457,34.61145870906733,33.03539698939822,0.0
0.03,0.7062482572595444,-0.3701542610223285,-0.011657021689530311,0.0,2.6818309415375285,2.285582371697159,33.344805783473284,33.03539698939822,0.0
0.031,0.685153423693111,-0.360790820444792,0.6185753531667414,0.0,2.6781915321921956,2.3250626937127863,34.14866900384885,33.03539698939822,0.0
0.032,0.7052598975686616,-0.36184633015176415,0.20551102283445088,0.0,2.6790738364565003,2.3060689820452276,33.88424649806448,33.03539698939822,0.0
0.033,0.6956007370827867,-0.364724952566132,0.3292337806399753,0.0,2.6782746324961293,2.3080665910249873,33.42638142084392,33.03539698939822,0.0
0.034,0.698854955670275,-0.35559080073159355,0.5542564749357987,0.0,2.67672156690383,2.332845231855737,34.445425119944495,33.03539698939822,0.0
0.035,0.7109916567370882,-0.3654885509853558,0.030634344080046838,0.0,2.6789817660000934,2.293839545775617,33.133146769404604,33.03539698939822,0.0
0.036000000000000004,0.6924297082604395,-0.35458224342466443,0.6857960215499286,0.0,2.6758167052445057,2.338427635386479,34.19707492131288,33.03539698939822,0.0
0.037,0.7152266328926977,-0.3585172795091043,0.14221516627664277,0.0,2.6779688765704575,2.309201617911621,33.56266331588261,33.03539698939822,0.0
0.038,0.7009461463533945,-0.35788918268297387,0.4541483057269353,0.0,2.6768747880046098,2.324660695974754,33.58343848575299,33.03539698939822,0.0
0.039,0.710847037994725,-0.35099816731983574,0.4382803058281961,0.0,2.676684285379977,2.332367743045686,34.17735295436761,33.03539698939822,0.0
0.04,0.7133594845810788,-0.35918543438544653,0.12990351187119176,0.0,2.6782530472557484,2.3053449076026924,32.95139787021755,33.03539698939822,0.0
0.041,0.7017227828022529,-0.3458834578842385,0.7437210451380313,0.0,2.6754175593138543,2.3530900901520333,34.33145685038903,33.03539698939822,0.0
0.042,0.7258555723042276,-0.3550853049470407,0.04073095644238145,0.0,2.678785361363004,2.3095391467000543,33.12884157224716,33.03539698939822,0.0
0.043000000000000003,0.705646000462599,-0.34798057498726204,0.6411041496848272,0.0,2.676587750095838,2.3462154107394126,33.84935553287091,33.03539698939822,0.0
0.044,0.7247436821539259,-0.347683863430796,0.27270758393822625,0.0,2.6783159353877095,2.3301740923791066,33.54035745957886,33.03539698939822,0.0
0.045,0.7165654028202336,-0.35028238417133567,0.42215701588244614,0.0,2.6785559747113883,2.3371237150989663,33.29888388543496,33.03539698939822,0.0
0.046,0.7238287779545891,-0.34122285514059714,0.5402589339940268,0.0,2.678444438973899,2.354018342093926,34.0986694152892,33.03539698939822,0.0
0.047,0.7309939480698304,-0.3509654921197905,0.12973344480799676,0.0,2.6811958048676727,2.322157994862726,32.789455224435905,33.03539698939822,0.0
0.048,0.7177483194036531,-0.33707122881771745,0.7867999578842683,0.0,2.6788602041159297,2.371670061128707,34.13864917051651,33.03539698939822,0.0
0.049,0.7421824136042205,-0.3464985149222564,0.10117046303278354,0.0,2.6828853141704783,2.331187244479765,32.9205081314417,33.03539698939822,0.0
0.05,0.72452273547014,-0.33906571164687543,0.7113898711497529,0.0,2.6815477503333405,2.3713225558793085,33.84671531740357,33.03539698939822,0.0
0.051000000000000004,0.7457798597830176,-0.34065019408736796,0.2401730948887637,0.0,2.684606095121079,2.3468596598295477,33.189395412490946,33.03539698939822,0.0
0.052000000000000005,0.7342995704853585,-0.3391906326655356,0.5672930631141493,0.0,2.684735919244261,2.3673196551968094,33.55431446467889,33.03539698939822,0.0
0.053,0.7472469313872401,-0.3345972769337004,0.37964436226737097,0.0,2.6864080869755673,2.3602950640720817,33.4568347313025,33.03539698939822,0.0
0.054,0.7419254447828562,-0.33860373454439796,0.42416985153652265,0.0,2.687697222715766,2.361629276796532,33.08076894439567,33.03539698939822,0.0
0.055,0.7471650975471867,-0.3275781118964535,0.6117490254399623,0.0,2.6877379830870085,2.382517859389124,33.84275107148352,33.03539698939822,0.0
0.056,0.7558854491181435,-0.3378355778717268,0.2226844210751857,0.0,2.6911021031641447,2.35574191939526,32.74867811553339,33.03539698939822,0.0
0.057,0.7469198133542496,-0.3243934618933636,0.7725880877889001,0.0,2.6898710098168097,2.397433458240389,34.05363574293125,33.03539698939822,0.0
0.058,0.7668722136645859,-0.3335279153539278,0.109926886554639,0.0,2.694071390729166,2.35415654467159,32.63801257081659,33.03539698939822,0.0
0.059000000000000004,0.7482593878229931,-0.32123005894247214,0.8217123167977837,0.0,2.6920799334535417,2.402797304735675,33.9043630132576,33.03539698939822,0.0
0.06,0.7722839396769462,-0.32734412752657394,0.1798474353386853,0.0,2.6959472240202524,2.3658230228405053,32.65886002096151,33.03539698939822,0.0
0.061,0.7563469870888506,-0.3204581051060207,0.8063643011710969,0.0,2.6949117541886745,2.4102617125509087,33.76961689102216,33.03539698939822,0.0
0.062,0.78066025671365,-0.3238738728787678,0.24364366712453356,0.0,2.6988682949905023,2.37915471871906,32.76492531146862,33.03539698939822,0.0
0.063,0.7672812986730337,-0.3193774957160044,0.7486941736805981,0.0,2.6987897231633315,2.414451658492928,33.66641253292351,33.03539698939822,0.0
0.064,0.7874612328754105,-0.3198601510822951,0.2916404075179023,0.0,2.702346758358183,2.3885310454205664,32.76553309699148,33.03539698939822,0.0
0.065,0.7753205662851615,-0.3165002160454681,0.7447787644079829,0.0,2.7025816093186004,2.4215112267614134,33.60797617881466,33.03539698939822,0.0
0.066,0.7948201938120353,-0.3162131271083271,0.31783143160222993,0.0,2.706093012884343,2.397454919192825,32.73069162271642,33.03539698939822,0.0
0.067,0.7834766003843088,-0.3132749567475225,0.7595207633181674,0.0,2.7065273174863345,2.4304534741067996,33.58975952981015,33.03539698939822,0.0
0.068,0.803206015081569,-0.3132207451035065,0.32444318436718256,0.0,2.710241465542292,2.4056365054368314,32.66244647045788,33.03539698939822,0.0
0.069,0.7917417571390566,-0.30965884534727794,0.7918292192327221,0.0,2.710711235068911,2.4408942505848246,33.60679763130959,33.03539698939822,0.0
0.07,0.8123433141153027,-0.310762559474645,0.3139396323877536,0.0,2.7148168297092417,2.4130506694222666,32.56371884298637,33.03539698939822,0.0
0.07100000000000001,0.8000058105861448,-0.30556189984666204,0.8401958080134827,0.0,2.71514439706893,2.452632221985246,33.64211863942998,33.03539698939822,0.0
0.07200000000000001,0.8220535084574654,-0.30876390527497655,0.29492869329135885,0.0,2.7198015901423425,2.420497809851069,32.40640846888698,33.03539698939822,0.0
0.073,0.8085365837258083,-0.3014355921948628,0.919073663767972,0.0,2.7199414882019,2.4678585148364953,33.68863902141359,33.03539698939822,0.0
0.074,0.833805964116289,-0.3078514281900675,0.2714259671845116,0.0,2.725582492044318,2.430099641710119,32.32112498325462,33.03539698939822,0.0
0.075,0.8192942558028065,-0.2976363098904991,0.962325706325434,0.0,2.725695686816953,2.4810051862703464,33.663121535913184,33.03539698939822,0.0
0.076,0.8447725658144319,-0.3065440485956308,0.2850501845310023,0.0,2.7319701190089063,2.442474459878602,32.282078952975546,33.03539698939822,0.0
0.077,0.8313645933958905,-0.2942126810399005,0.9831046563640483,0.0,2.732318507524309,2.493712656530965,33.652213519890346,33.03539698939822,0.0
0.078,0.8559133410921268,-0.3048481998346431,0.2918692076017272,0.0,2.7390490975963866,2.454010986316673,32.29779990930524,33.03539698939822,0.0
0.079,0.8428481994770736,-0.2902576867211565,0.9764519836952097,0.0,2.739425150009396,2.5028516550435436,33.653717487031805,33.03539698939822,0.0
0.08,0.8647641164510365,-0.30157310470556153,0.2923099898555912,0.0,2.7460382651632105,2.4622030127724486,32.30831795044191,33.03539698939822,0.0
0.081,0.8515924717729776,-0.28469220475351675,0.9722805485401017,0.0,2.7459551513999663,2.5095867677218626,33.53556014897077,33.03539698939822,0.0
0.082,0.8715843727066308,-0.2967925905784239,0.3536578176799483,0.0,2.7521185759482467,2.475044804269067,32.374086180070535,33.03539698939822,0.0
0.083,0.8625521678973262,-0.2803497473768201,0.9410079102233412,0.0,2.7522817450859947,2.5165615786431137,33.39191556034974,33.03539698939822,0.0
0.084,0.879632868337969,-0.29250388253773896,0.4285280343742246,0.0,2.75808165804709,2.489727506128129,32.47413806622605,33.03539698939822,0.0
0.085,0.8751895394132403,-0.27680783218262117,0.8930293706677916,0.0,2.7587700655699043,2.523036351097663,33.1786795127132,33.03539698939822,0.0
0.08600000000000001,0.8882037787594221,-0.2881377828948711,0.539325822191064,0.0,2.764123771919291,2.508054749009823,32.68924806117268,33.03539698939822,0.0
0.08700000000000001,0.890014314747423,-0.27469520173549855,0.7875030372435823,0.0,2.765851963990299,2.52587419034103,32.86094625100858,33.03539698939822,0.0
0.088,0.8955858145249483,-0.28276798101606876,0.7033984497095283,0.0,2.770211712519785,2.5297564703513,33.037863151567926,33.03539698939822,0.0
0.089,0.9061225744946797,-0.27372585894667045,0.6149153378081571,0.0,2.77344835297691,2.5236910721807853,32.37013721074603,33.03539698939822,0.0
0.09,0.9017464364328349,-0.2740509085897256,0.955430906005627,0.0,2.7758809662527,2.5574841642802695,33.39698175688243,33.03539698939822,0.0
0.091,0.9233763152838729,-0.27693195672585513,0.43839278526258363,0.0,2.781763292209404,2.525438811479442,32.14774957137371,33.03539698939822,0.0
0.092,0.9124962443129411,-0.2647363847081671,1.071885352197191,0.0,2.7824825268870477,2.5734538967199194,33.285156292914195,33.03539698939822,0.0
0.093,0.9346834478185748,-0.27714048961387205,0.5006843983917878,0.0,2.7894177538807794,2.5450229732208434,32.45877836305601,33.03539698939822,0.0
0.094,0.9308119392800964,-0.2613236996516895,0.9196395495843012,0.0,2.7909524778803325,2.5725734789145673,32.78948728665411,33.03539698939822,0.0
0.095,0.9405503870042389,-0.2707644065888067,0.7567441848126947,0.0,2.796285425712007,2.5743044204670307,33.011652840812076,33.03539698939822,0.0
0.096,0.9508616067587279,-0.26210048976374756,0.6458988492195722,0.0,2.800210734995634,2.5647946796841374,32.183349948244306,33.03539698939822,0.0
0.097,0.9454085432379028,-0.25957437712358095,1.0685707659149963,0.0,2.80260130605044,2.604933757285158,33.299473344757935,33.03539698939822,0.0
0.098,0.9684558687174594,-0.26672394868449956,0.5078683041045846,0.0,2.8095784417579712,2.5728042578275003,32.27981171891301,33.03539698939822,0.0
0.099,0.9607419929026578,-0.2512035034536846,1.0252549697318993,0.0,2.810866169257985,2.6081839793178925,32.78854953187327,33.03539698939822,0.0
0.1,0.9744792532021838,-0.2620767726779936,0.7733545378270177,0.0,2.8169143602240183,2.60568334985234,32.94785571118976,33.03539698939822,0.0
0.101,0.9836982278369408,-0.2526104707875621,0.6945768609508584,0.0,2.820957643246703,2.597014347685791,32.101487558128476,33.03539698939822,0.0
0.10200000000000001,0.9788217959612824,-0.24930954663418536,1.1271000317941982,0.0,2.823461259112496,2.6386104968523636,33.173157623245935,33.03539698939822,0.0
0.10300000000000001,1.0020490089559155,-0.25823141441205333,0.5898873928969915,0.0,2.830888543005466,2.610275012953566,32.42930358402108,33.03539698939822,0.0
0.10400000000000001,0.9978024401293368,-0.24247697113738326,0.9678753465631915,0.0,2.8329173426812684,2.6331660018270693,32.41000461066806,33.03539698939822,0.0
0.105,1.005244324276639,-0.2496355409289045,0.9837787570270016,0.0,2.8379773483866537,2.651079194450691,33.1387128469492,33.03539698939822,0.0
0.106,1.0225005133909217,-0.2483972280288516,0.6183914803109236,0.0,2.8441148726669425,2.6255316718779835,32.11902854410466,33.03539698939822,0.0
0.107,1.0145667100439224,-0.23559967084817873,1.1373973161861286,0.0,2.8456885441010575,2.664942448963322,32.653076732953565,33.03539698939822,0.0
0.108,1.0316276215181346,-0.24721676789612557,0.874196424326122,0.0,2.852451782347376,2.6644713207245516,32.98523194025714,33.03539698939822,0.0
0.109,1.0426853399590879,-0.23951579193444794,0.7086204711657469,0.0,2.8575283056189216,2.648096543291487,32.00579033428752,33.03539698939822,0.0
0.11,1.0359271281732019,-0.23091649748291754,1.2086373407016633,0.0,2.8595907861899543,2.691378491590294,32.75056126414044,33.03539698939822,0.0
0.111,1.0569954371206929,-0.2430236555974738,0.8391002330277817,0.0,2.8671929938708813,2.682504146474756,32.888321657950016,33.03539698939822,0.0
0.112,1.0645164460670802,-0.23269428666662328,0.7716907894374744,0.0,2.8718902441086227,2.6709411610260405,31.97165405932236,33.03539698939822,0.0
0.113,1.058918713040197,-0.22544247588427813,1.2406620180520602,0.0,2.874267065280969,2.7139560894519006,32.6958260922775,33.03539698939822,0.0
0.114,1.0805290575685933,-0.23750481904106113,0.8819717105456982,0.0,2.882107073033736,2.7063284458121704,32.92119016373089,33.03539698939822,0.0
0.115,1.0887976949069518,-0.22780752898020512,0.7704317430756757,0.0,2.8872129903089903,2.6908716273031144,31.970494716397138,33.03539698939822,0.0
0.116,1.0819834605104546,-0.21813684642998593,1.2564284894725635,0.0,2.8892958318258994,2.7328783763078475,32.47510655465921,33.03539698939822,0.0
0.117,1.1019168505868382,-0.23035275135600225,1.0097254746889157,0.0,2.8968115204589546,2.7366346202212597,33.02058522594451,33.03539698939822,0.0
0.11800000000000001,1.1156952643869225,-0.22545800412112865,0.7371342566808056,0.0,2.903290683374949,2.7119325131563357,32.12481322002302,33.03539698939822,0.0
0.11900000000000001,1.107410593721623,-0.21088558715627204,1.1941260973353007,0.0,2.9050977008990664,2.7443926456527628,32.0800617397925,33.03539698939822,0.0
0.12,1.1203213673513084,-0.2200395066302484,1.2260551899466199,0.0,2.9111226852322005,2.7712267166267406,32.96373576999515,33.03539698939822,0.0
0.121,1.1434568773251872,-0.22476373266481892,0.7849347870393263,0.0,2.9196567038984824,2.7447215453298894,32.54721442359365,33.03539698939822,0.0
0.122,1.1397264304172554,-0.20866154295296158,0.9980772858981197,0.0,2.922868320439801,2.7502188761925015,31.8153768348064,33.03539698939822,0.0
0.123,1.1395570246710727,-0.20636638109807764,1.3761962818376632,0.0,2.9262170625063297,2.794930630350747,32.50036419835164,33.03539698939822,0.0
0.124,1.1651823600230435,-0.2192053232759743,1.0390529279755092,0.0,2.935137341040148,2.791818643469411,32.99068796156995,33.03539698939822,0.0
0.125,1.176459200532387,-0.2128203223966798,0.7943381366446388,0.0,2.94202365351395,2.765378490519309,32.20337696490991,33.03539698939822,0.0
0.126,1.16653642231558,-0.19651909119285926,1.1963138352195417,0.0,2.9438480340217335,2.790139732877086,31.805988726777,33.03539698939822,0.0
0.127,1.1753216963837847,-0.2012875871561144,1.407302036912208,0.0,2.9486536475825127,2.830730626320637,32.59201767637645,33.03539698939822,0.0
0.128,1.203300275158429,-0.21258505292893737,1.0187213552427,0.0,2.9582328254069465,2.8198994438508103,32.92826819101257,33.03539698939822,0.0
0.129,1.2105958700528834,-0.20349566710277361,0.8516673859084964,0.0,2.964658160103349,2.7960964379496978,32.16185847015492,33.03539698939822,0.0
0.13,1.200477862115839,-0.18780220622664895,1.2436076315297555,0.0,2.9664252739018875,2.8212861696420384,31.741048357197414,33.03539698939822,0.0
0.131,1.2100884274559403,-0.19212997411754146,1.4669561743305157,0.0,2.9711676385665653,2.863624234530087,32.410572284738755,33.03539698939822,0.0
0.132,1.2390958269855348,-0.20462180574569533,1.1384424576064398,0.0,2.981000397053768,2.860738026833289,32.91141121083412,33.03539698939822,0.0
0.133,1.2507624554605767,-0.19962175807772775,0.8892628523443997,0.0,2.988886335362813,2.8340058412063485,32.42668301503946,33.03539698939822,0.0
0.134,1.2414680783176397,-0.18225356994101682,1.137714089985317,0.0,2.991449961059902,2.8416959479366013,31.75752477922512,33.03539698939822,0.0
0.135,1.2423061632469024,-0.178115538260405,1.485071929994218,0.0,2.9942447332568056,2.884413123474459,31.94639681969253,33.03539698939822,0.0
