timestamp,iq,id,iq_ref,id_ref,vq,vd,omega,omega_ref,r
0.0,0.0,0.0,0.0,0.0,0.0,0.0,0.0,189.6062780710659,0.0
0.001,0.0,0.0,10.0,0.0,0.0,1.0999999999999999,5.560271941904856,189.6062780710659,0.0
0.002,0.4641347495758871,-0.26053026819372294,10.0,0.0,0.13865832950130952,1.9389451775466529,10.333020412286471,189.6062780710659,0.0
0.003,0.9052813774657935,-0.5150479483595166,10.0,0.0,0.37273698594345334,2.6639768887166397,15.293530831492786,189.6062780710659,0.0
0.004,1.271034790092097,-0.7237055274345046,10.0,0.0,0.6763181047549722,3.3040918853038477,20.46927854860888,189.6062780710659,0.0
0.005,1.5633598217247053,-0.8905478671121821,10.0,0.0,1.029818692917855,3.882055274760163,25.807540658454652,189.6062780710659,0.0
0.006,1.7974944001826287,-1.0240172632824986,10.0,0.0,1.4187787713920388,4.4147408307730895,31.129219457522773,189.6062780710659,0.0
0.007,1.9880001955745576,-1.1324932186449488,10.0,0.0,1.8327090587482633,4.914439547323608,36.577216563261025,189.6062780710659,0.0
0.008,2.146474767249497,-1.222511705685283,10.0,0.0,2.2640334630447305,5.390034276024376,41.98185954679783,189.6062780710659,0.0
0.009000000000000001,2.2813681131199077,-1.2992700744062537,10.0,0.0,2.707328135470529,5.847948449955717,47.465845193127194,189.6062780710659,0.0
0.01,2.399237208889416,-1.3658572641522744,10.0,0.0,3.158641765231735,6.292784006660561,52.88366691389421,189.6062780710659,0.0
0.011,2.504322488918101,-1.4253417662309422,10.0,0.0,3.615185011018499,6.7278866808255815,58.231107833630425,189.6062780710659,0.0
0.012,2.60001941152259,-1.47933012674207,10.0,0.0,4.074928074278526,7.155657603466568,63.64054090187953,189.6062780710659,0.0
0.013000000000000001,2.688845041165656,-1.5288340624420018,10.0,0.0,4.5363794727985285,7.577811890134769,69.06814775976484,189.6062780710659,0.0
0.014,2.7724242985149217,-1.5748848240143778,10.0,0.0,4.998471704549314,7.995590425976157,74.503485006316,189.6062780710659,0.0
0.015,2.8520843009047723,-1.6179452099815013,10.0,0.0,5.460408701549818,8.409873523719096,79.73124166441454,189.6062780710659,0.0
0.016,2.928692562139976,-1.6584947581482434,10.0,0.0,5.921610155063237,8.82129170267582,84.99145139672306,189.6062780710659,0.0
0.017,3.0032020320510657,-1.6963225201983765,10.0,0.0,6.381588839464834,9.230258250010342,90.23636132504453,189.6062780710659,0.0
0.018000000000000002,3.076038230570132,-1.731731159916388,10.0,0.0,6.839982982908205,9.637059123913588,95.70442181995067,189.6062780710659,0.0
0.019,3.148090832363354,-1.7639741866026803,10.0,0.0,7.296410445935874,10.041821900558784,100.50586722827384,189.6062780710659,0.0
0.02,3.218480552497755,-1.795110414633464,10.0,0.0,7.750773995141818,10.444728802645372,105.54825958581168,189.6062780710659,0.0
0.021,3.2895646586132608,-1.8216371162748801,10.0,0.0,8.202598454536075,10.845666014972537,110.37577772762114,189.6062780710659,0.0
0.022,3.3598924527814544,-1.846362087877754,10.0,0.0,8.651788669083526,11.244666735709062,115.19651903382477,189.6062780710659,0.0
0.023,3.431259340112878,-1.866633087861763,10.0,0.0,9.097942494532097,11.641539326161906,120.05386846760733,189.6062780710659,0.0
0.024,3.5032034480181875,-1.8835381495160732,10.0,0.0,9.540825043263226,12.036139857118053,124.2160790386198,189.6062780710659,0.0
0.025,3.5758877674453613,-1.8971430193130787,10.0,0.0,9.980206875277986,12.42829275579376,128.82598669883663,189.6062780710659,0.0
0.026000000000000002,3.650724034108926,-1.9054374496731696,10.0,0.0,10.415642152600478,12.817663401664657,132.7863349167597,189.6062780710659,0.0
0.027,3.726989459471628,-1.9099701113116105,10.0,0.0,10.846886615254448,13.20399967655745,136.88207324553926,189.6062780710659,0.0
0.028,3.80557581436129,-1.909658351580192,10.0,0.0,11.273560638945453,13.586944925442122,140.7067332117735,189.6062780710659,0.0
0.029,3.887079475974731,-1.9039134926341983,10.0,0.0,11.695232968269078,13.966083512578852,144.42397045794075,189.6062780710659,0.0
0.03,3.971230054455613,-1.8936102202833809,10.0,0.0,12.111576012004884,14.341033946917499,148.02639669306058,189.6062780710659,0.0
0.031,4.059173008008175,-1.8773107394281996,10.0,0.0,12.522089884630418,14.711291423089895,152.0414042406162,189.6062780710659,0.0
0.032,4.151495355370362,-1.8544860136019334,10.0,0.0,12.926230392578292,15.076298510233286,154.1527957051782,189.6062780710659,0.0
0.033,4.247830967273693,-1.8261907663894053,10.0,0.0,13.323573328510607,15.435545245621388,156.9809120983781,189.6062780710659,0.0
0.034,4.340338320952468,-1.8058866343509297,10.0,0.0,13.715156142336394,15.789389148278271,159.70367405222723,189.6062780710659,0.0
0.035,4.449810560683495,-1.7598632680855015,10.0,0.0,14.098105536076474,16.13589006921842,163.44928206337903,189.6062780710659,0.0
0.036000000000000004,4.5562155503728725,-1.7211297090902673,10.0,0.0,14.473609624709741,16.475426010970047,162.94542675389033,189.6062780710659,0.0
0.037,4.676783207142881,-1.6620497815188242,10.0,0.0,14.839405442211941,16.80636037506203,160.30432126777777,189.6062780710659,0.0
0.038,4.783085590960701,-1.6296789437742558,10.0,0.0,15.19874512149693,17.130293298842773,164.52603581387,189.6062780710659,0.0
0.039,4.903369162748019,-1.5783052667495778,10.0,0.0,15.549216729136226,17.445598729115513,166.37648720482747,189.6062780710659,0.0
0.04,5.030499313976013,-1.5192443064303247,10.0,0.0,15.890188750173996,17.751639296207706,167.17167365454696,189.6062780710659,0.0
0.041,5.161764322194555,-1.4573266031087033,10.0,0.0,16.22144728805502,18.048005159302697,167.31658082439318,189.6062780710659,0.0
0.042,5.29787569592085,-1.3916047362605113,10.0,0.0,16.542606330137357,18.334200688848572,167.10862474347934,189.6062780710659,0.0
0.043000000000000003,5.439218603060586,-1.3214626056651197,10.0,0.0,16.85321060526903,18.609705963599996,166.84361298775812,189.6062780710659,0.0
0.044,5.585783177862581,-1.246836374026419,10.0,0.0,17.152797516188382,18.874012464232624,166.40771238794585,189.6062780710659,0.0
0.045,5.736765521840352,-1.1689324400579872,10.0,0.0,17.441033215658926,19.126704593804384,167.34966172111515,189.6062780710659,0.0
0.046,5.892272300757508,-1.0873580670627576,10.0,0.0,17.717520416449794,19.367355158124916,169.64394005373347,189.6062780710659,0.0
0.047,6.04778912263719,-1.009565640376541,10.0,0.0,17.982682530388097,19.596037603474883,176.34136780741747,189.6062780710659,0.0
0.048,6.136280081498585,-1.0471954362166027,10.0,0.0,18.249113879276845,19.820189178427743,181.53471856627507,189.6062780710659,0.0
0.049,6.195425327370716,-1.1264270424765894,9.9094127398344,0.0,18.519656429502184,20.03298306469864,186.27762595386918,189.6062780710659,0.0
0.05,6.236451039456594,-1.21902953388641,7.571245567209315,0.0,18.793818071324566,19.991337925107157,190.2991392272849,189.6062780710659,0.0
0.051000000000000004,6.158534884692205,-1.2634934194170677,5.553560318939257,0.0,19.040364037499838,19.79169079221855,193.37589517738272,189.6062780710659,0.0
0.052000000000000005,5.983648155035958,-1.2672691489501378,3.977486172827186,0.0,19.24226138516206,19.50193004436124,195.2637423059754,189.6062780710659,0.0
0.053,5.748493555083337,-1.2526056561861405,2.97698796618175,0.0,19.393342181772944,19.19115918348424,196.44158053703177,189.6062780710659,0.0
0.054,5.493558428342308,-1.241440208893673,2.3197158259939066,0.0,19.497156248360515,18.8899698529438,197.54076667466035,189.6062780710659,0.0
0.055,5.242715136488204,-1.2438595693955379,1.6907778711436725,0.0,19.560847759363423,18.591713819321058,200.04814305611794,189.6062780710659,0.0
0.056,4.996892969161731,-1.2612217331553828,0.33267103056435676,0.0,19.590230160312316,18.211082172733025,206.55000974205345,189.6062780710659,0.0
0.057,4.7352177068715005,-1.2436096411774837,-3.0876996291132732,0.0,19.576500204752357,17.535118283918603,202.95892366331933,189.6062780710659,0.0
0.058,4.348074254634792,-1.1578036094976962,-1.4256830456687473,0.0,19.487284313301952,17.182372346328435,202.0719634145279,189.6062780710659,0.0
0.059000000000000004,4.067856528149873,-1.1573819043066491,-1.1068597747076474,0.0,19.37252708998335,16.90138232271449,203.0310009652717,189.6062780710659,0.0
0.06,3.8593632751536173,-1.180907651634926,-1.7206257790216064,0.0,19.243738635893237,16.58644516651068,203.95859838027752,189.6062780710659,0.0
0.061,3.6654420075901157,-1.1858340882634901,-2.3279476896166393,0.0,19.09664196214762,16.248701537297944,202.70578687550878,189.6062780710659,0.0
0.062,3.4555720347393213,-1.2022735025053177,-1.8325370252766966,0.0,18.9322396640556,16.01173748015322,202.6162359853561,189.6062780710659,0.0
0.063,3.2989027063377514,-1.2226305222502738,-1.9178611593432588,0.0,18.762656068087836,15.782824763918706,202.73707522479768,189.6062780710659,0.0
0.064,3.1541063662011557,-1.2532104619342994,-2.1095887506013664,0.0,18.590299783261198,15.553969070144149,202.1386873544141,189.6062780710659,0.0
0.065,3.022691898780677,-1.2651725661099282,-1.9357189082430537,0.0,18.413303589602243,15.364813903851271,201.62991866133058,189.6062780710659,0.0
0.066,2.9039250730649777,-1.2931821897214286,-1.8015709676039453,0.0,18.238052936235405,15.201642416023025,201.03849769849162,189.6062780710659,0.0
0.067,2.811388683788092,-1.306100012076775,-1.6201826824587258,0.0,18.065151063645395,15.064865578163799,200.91099542634248,189.6062780710659,0.0
0.068,2.729943828122165,-1.3289980481089763,-1.6694787199369205,0.0,17.898251300268463,14.925273360087933,199.52598697002148,189.6062780710659,0.0
0.069,2.6556447396073164,-1.3391203726274254,-1.0761715807659749,0.0,17.734966766758333,14.85606558434551,198.14869453723927,189.6062780710659,0.0
0.07,2.6126338532153186,-1.358724446684565,-0.47294952903660237,0.0,17.583145133926074,14.841859693742817,196.8675251491439,189.6062780710659,0.0
0.07100000000000001,2.6017286630873193,-1.3848153562490657,0.09502269423030718,0.0,17.4477590346283,14.871106415009386,196.648560540161,189.6062780710659,0.0
0.07200000000000001,2.621678273228906,-1.4055702135676005,0.1340821740308069,0.0,17.330858342596354,14.880203165748062,198.28603155986906,189.6062780710659,0.0
0.073,2.624233934274753,-1.4392692254307564,-0.7714508707112615,0.0,17.230056737573232,14.776619315876413,193.38431725243672,189.6062780710659,0.0
0.074,2.594494856274927,-1.4091848740758521,1.6416258911912016,0.0,17.125330639297584,14.95110431993674,197.99506657474714,189.6062780710659,0.0
0.075,2.6675866764887135,-1.4367901675636459,-0.7476366550008233,0.0,17.051863077052744,14.802381075059817,191.19266476694517,189.6062780710659,0.0
0.076,2.620958469171846,-1.4109331262619778,2.637700381941369,0.0,16.967749619066634,15.063323118978651,194.64296465278747,189.6062780710659,0.0
0.077,2.7406967512553524,-1.426298460448551,0.8621835732030041,0.0,16.920090468444553,15.046961900273994,190.94126747808784,189.6062780710659,0.0
0.078,2.7560574369524065,-1.4266401300243257,2.6996822664826006,0.0,16.875445041325687,15.246858620119895,191.98656994563652,189.6062780710659,0.0
0.079,2.868458362208891,-1.4155389866005166,2.1532281139625544,0.0,16.854029286430926,15.331605686638074,190.20374019128155,189.6062780710659,0.0
0.08,2.9221749004184483,-1.4258727580804447,3.03866836993788,0.0,16.844477539974484,15.503814630746962,190.15527238168335,189.6062780710659,0.0
0.081,3.0350023901778322,-1.3954443420066738,3.0574123316308093,0.0,16.84965139909166,15.639181080534348,188.4080592463666,189.6062780710659,0.0
0.082,3.1107296855448423,-1.4029831892689455,3.9430010875361727,0.0,16.868978074635443,15.851553867194593,189.98517854584807,189.6062780710659,0.0
0.083,3.244941440879688,-1.3748508110176958,3.1506524330476173,0.0,16.904439411210618,15.934601783057232,185.06634738425927,189.6062780710659,0.0
0.084,3.3130291659313285,-1.3490276765214493,5.655467320710082,0.0,16.94210018470246,16.29019663297656,190.28331174063968,189.6062780710659,0.0
0.085,3.4944162575610456,-1.360167435106194,3.040214805824144,0.0,17.01303797062634,16.282000446910306,184.17102105708668,189.6062780710659,0.0
0.08600000000000001,3.557865460301148,-1.2805122513331622,6.150712717740436,0.0,17.067188891550323,16.644859412117597,185.0196350738618,189.6062780710659,0.0
0.08700000000000001,3.725732641011213,-1.3048241517991528,5.772272139324919,0.0,17.155681477791624,16.886283232300986,187.8876828442916,189.6062780710659,0.0
0.088,3.8965092957391123,-1.274482042309556,4.355434206377764,0.0,17.255886436378617,16.94323940203716,182.91890427956974,189.6062780710659,0.0
0.089,3.9861977549067866,-1.1952045412111687,6.906697226653648,0.0,17.343349412054607,17.291169798257073,180.6641912018974,189.6062780710659,0.0
0.09,4.163852036465758,-1.2002815625258545,8.1234746341815,0.0,17.458210377140585,17.70274125066809,183.14379079488657,189.6062780710659,0.0
0.091,4.401844150918248,-1.2164361270594022,6.948299710448713,0.0,17.604468622844614,17.91880204888654,184.49314077200268,189.6062780710659,0.0
0.092,4.5764447858325665,-1.1770812268502926,6.324756094881293,0.0,17.753216539131742,18.0542183946824,184.69120359792092,189.6062780710659,0.0
0.093,4.705158681167823,-1.1021655924068243,6.274875426653621,0.0,17.89278412758306,18.17930393804028,182.81195827419768,189.6062780710659,0.0
0.094,4.822090619764781,-1.019309393241044,7.282441286483923,0.0,18.022538485961224,18.405593362878808,180.5829401625156,189.6062780710659,0.0
0.095,4.982316264175505,-0.962378973465282,8.487183721410467,0.0,18.15651256680175,18.7282197888157,178.64620335009772,189.6062780710659,0.0
0.096,5.198103858181156,-0.932346188241775,9.565152874829085,0.0,18.30661757997509,19.11637578387323,177.87168085708197,189.6062780710659,0.0
0.097,5.455134582567545,-0.9240056130885397,10.0,0.0,18.479910555922224,19.491664669234506,177.98172873019658,189.6062780710659,0.0
0.098,5.718694191428645,-0.9114681167742281,10.0,0.0,18.672107403967726,19.815984242671803,178.75735946998705,189.6062780710659,0.0
0.099,5.960691276561566,-0.8865276765011281,9.847668535605033,0.0,18.874898451085524,20.086350999210467,183.71423865668393,189.6062780710659,0.0
0.1,6.123721943677819,-0.9325519080783223,7.428149336400413,0.0,19.089759139021623,20.06982298500702,188.2362799732147,189.6062780710659,0.0
0.101,6.102804119855261,-0.9926329831798781,5.180828659113544,0.0,19.28762963268916,19.857355025799663,191.81861614592228,189.6062780710659,0.0
0.10200000000000001,5.95417928892648,-1.011339376962487,3.3675371920111887,0.0,19.445923173634295,19.525071610435354,194.2170338101243,189.6062780710659,0.0
0.10300000000000001,5.726914072388013,-0.9983417859395297,2.122220802519597,0.0,19.553542219998118,19.146506928038875,196.23633099639466,189.6062780710659,0.0
0.10400000000000001,5.4676420277544855,-0.9736693028650185,1.0462716801311274,0.0,19.609958896257947,18.73690665169491,197.30128941821104,189.6062780710659,0.0
0.105,5.194424674966666,-0.947138209273248,0.4368423557514838,0.0,19.61710218179305,18.34509152451378,197.38024205307326,189.6062780710659,0.0
0.106,4.931500290705771,-0.9331726066520935,0.3196263985003007,0.0,19.58307872070412,18.01256228529126,197.0808556029157,189.6062780710659,0.0
0.107,4.701213078534035,-0.9433616265651185,0.3945738482605803,0.0,19.52046513001847,17.742002352424517,197.0055707541907,189.6062780710659,0.0
0.108,4.5076828267221405,-0.9795307479246753,0.3582233457918349,0.0,19.440933618265145,17.506474479584316,197.5838054315078,189.6062780710659,0.0
0.109,4.339340778093846,-1.0315670450247456,-0.010669266471140304,0.0,19.351164771870533,17.26291388335956,198.8187966857279,189.6062780710659,0.0
0.11,4.1744482196591495,-1.0837421010038653,-0.720290079727806,0.0,19.251235643679614,16.976817859723734,200.86577209250865,189.6062780710659,0.0
0.111,4.002774180419655,-1.1054951195950726,-1.8563727233326066,0.0,19.13456090742945,16.608700861700445,199.52148378397965,189.6062780710659,0.0
0.112,3.782128076830681,-1.1243012130312602,-1.2833806261972431,0.0,18.99459308509404,16.362672377977802,200.15495118956434,189.6062780710659,0.0
0.113,3.6106219537330153,-1.1583612392332818,-1.7056010601745752,0.0,18.847577738567757,16.091735004189864,200.32222445991155,189.6062780710659,0.0
0.114,3.447513519467918,-1.1775012520670496,-1.8963971592366367,0.0,18.689934990465012,15.832651333109233,199.8912154054125,189.6062780710659,0.0
0.115,3.2848728346186933,-1.2073914645515218,-1.783742005330581,0.0,18.525244673309434,15.614271173237434,199.6804966783865,189.6062780710659,0.0
0.116,3.151376230197663,-1.227192267563872,-1.7791248278907843,0.0,18.357064558088744,15.413699555254391,199.52062177100171,189.6062780710659,0.0
0.117,3.0243557836060724,-1.260999884398742,-1.7983308111977476,0.0,18.189166122413535,15.226845540690297,198.98816187398427,189.6062780710659,0.0
0.11800000000000001,2.917692658843101,-1.2746911656574684,-1.6259197007182085,0.0,18.020540093619537,15.07150710525891,198.74459426344086,189.6062780710659,0.0
0.11900000000000001,2.819964692176166,-1.304150644965393,-1.5955190573702538,0.0,17.85634645407309,14.926143315240484,198.2123941842501,189.6062780710659,0.0
0.12,2.73887595720106,-1.3171620192395377,-1.4154801789067095,0.0,17.69517245585653,14.806339291647355,197.5011812246503,189.6062780710659,0.0
0.121,2.66878202665346,-1.3348350020248128,-1.1388227306426653,0.0,17.539949369465944,14.717929646126777,195.86481544867473,189.6062780710659,0.0
0.122,2.6176348476451228,-1.3511212645063235,-0.3832252164309651,0.0,17.393022386207473,14.70811305898528,194.77069238513565,189.6062780710659,0.0
0.123,2.6045096655294664,-1.3792459636132148,0.11219217219788069,0.0,17.26273729683765,14.73245766808179,194.7644067949836,189.6062780710659,0.0
0.124,2.6203176340372245,-1.4003437737666862,0.06375368003472026,0.0,17.149954689440264,14.729186770950417,195.90951503541092,189.6062780710659,0.0
0.125,2.6149719396488695,-1.4328070335969672,-0.571832809822383,0.0,17.05148323354928,14.646280679897588,191.6606475274439,189.6062780710659,0.0
0.126,2.5909703717158967,-1.407883134944596,1.5320572495973472,0.0,16.95150205269205,14.802188539324431,196.08508485209177,189.6062780710659,0.0
0.127,2.654131569818394,-1.4368167572461488,-0.744949480536846,0.0,16.880541713302915,14.6538101063433,189.4455766431346,189.6062780710659,0.0
0.128,2.6053885166055846,-1.4095564197167167,2.576411638221058,0.0,16.798551591203328,14.907286620920516,193.0916121182884,189.6062780710659,0.0
0.129,2.7182568745038322,-1.4270740946836242,0.7185405601719288,0.0,16.752307680393084,14.876734092156134,189.27691822449106,189.6062780710659,0.0
0.13,2.724682479011875,-1.425785004161587,2.629181105536347,0.0,16.707315931080323,15.073783463040836,190.39601920052078,189.6062780710659,0.0
0.131,2.831686865717619,-1.4164041258501832,2.061733206226935,0.0,16.685509288078283,15.153396821035566,188.84092058985038,189.6062780710659,0.0
0.132,2.880483232158133,-1.4278367628397914,2.8469360863742894,0.0,16.67519604402788,15.310617418298522,188.34828381264086,189.6062780710659,0.0
0.133,2.98400323972571,-1.3966724522711278,3.105834417563303,0.0,16.67809378357637,15.460812181891427,187.7199209540472,189.6062780710659,0.0
0.134,3.0611169140136605,-1.4112904993863586,3.438879418030313,0.0,16.697640853817663,15.622875905723383,187.59735018638216,189.6062780710659,0.0
0.135,3.1760989563688966,-1.369912387612347,3.520254080709677,0.0,16.72674181665173,15.764431839170129,184.7360646383816,189.6062780710659,0.0
0.136,3.256071743475532,-1.367583288978425,4.999598989036796,0.0,16.767245856815073,16.049009282686622,188.71578159129706,189.6062780710659,0.0
0.137,3.417590305429393,-1.3549036661241092,3.018645477376758,0.0,16.8307857697861,16.059513736558063,181.5448675349939,189.6062780710659,0.0
0.138,3.4730322891275733,-1.2920460769793494,6.684716610889058,0.0,16.88223459826978,16.493915663555153,185.72134608133672,189.6062780710659,0.0
0.139,3.6721914547268697,-1.330065829822743,4.6353266576149394,0.0,16.976789485309023,16.606575586126688,185.92873685567864,189.6062780710659,0.0
0.14,3.8000194804798815,-1.2644659484435095,4.568406682597854,0.0,17.065558691421348,16.718488216249018,179.21220134600821,189.6062780710659,0.0
