timestamp,iq,id,iq_ref,id_ref,vq,vd,omega,omega_ref,r
0.0,0.0,0.0,0.0,0.0,0.0,0.0,0.0,157.8527914137661,0.0
0.001,0.0,0.0,10.0,0.0,0.0,1.0999999999999999,5.640758420871701,157.8527914137661,0.0
0.002,0.7618759499736292,-0.41658465663460303,10.0,0.0,0.1558243122298063,1.9061936455028998,11.596039993183464,157.8527914137661,0.0
0.003,1.5840948117722737,-0.8848407500834066,10.0,0.0,0.4240278814999443,2.564525042380377,17.333211800405984,157.8527914137661,0.0
0.004,2.29017236200054,-1.2859341833691036,10.0,0.0,0.7706819502577551,3.114397314589997,23.24134486471946,157.8527914137661,0.0
0.005,2.8398518851915786,-1.5959282318153654,10.0,0.0,1.1677462503569784,3.590543794405705,29.263887264997482,157.8527914137661,0.0
0.006,3.2494483404472687,-1.8255745402902275,10.0,0.0,1.5948799218756222,4.019223241403548,35.35610097724128,157.8527914137661,0.0
0.007,3.5523832526789016,-1.993925591654547,10.0,0.0,2.0383903235075125,4.418521235060549,41.39461040608511,157.8527914137661,0.0
0.008,3.7808001889774774,-2.1199605129569474,10.0,0.0,2.4896598151715352,4.800143955644511,47.40944024535209,157.8527914137661,0.0
0.009000000000000001,3.9606192084280667,-2.2177555600779244,10.0,0.0,2.943461735697835,5.171235430559902,53.364280649115464,157.8527914137661,0.0
0.01,4.1097025575626835,-2.29815710528055,10.0,0.0,3.3968588311641232,5.535996971826081,59.34246425606926,157.8527914137661,0.0
0.011,4.240515653392524,-2.3671037951231444,10.0,0.0,3.8481724916410585,5.896723461462334,65.27391944496361,157.8527914137661,0.0
0.012,4.3601701711202,-2.4293739743279685,10.0,0.0,4.296587687848033,6.254654802190911,71.13955476728742,157.8527914137661,0.0
0.013000000000000001,4.47333818841008,-2.486978205193862,10.0,0.0,4.741668262110364,6.610382591742716,76.86178524903495,157.8527914137661,0.0
0.014,4.582389180016962,-2.5414755801735245,10.0,0.0,5.183232226840749,6.964181730861715,82.53989987190647,157.8527914137661,0.0
0.015,4.689438028026853,-2.5922419246805233,10.0,0.0,5.621059033155967,7.316072489176834,88.123942374862,157.8527914137661,0.0
0.016,4.79474065517924,-2.6403305648849993,10.0,0.0,6.055074321648599,7.666044051785298,93.6453459071053,157.8527914137661,0.0
0.017,4.89949950012992,-2.6844084357111053,10.0,0.0,6.485052916941641,8.01394954030913,99.09696524925454,157.8527914137661,0.0
0.018000000000000002,5.00383499667793,-2.7245902258957435,10.0,0.0,6.9108034197698105,8.359633023339104,104.44687360126385,157.8527914137661,0.0
0.019,5.108210097931276,-2.7602632050340428,10.0,0.0,7.332069430421527,8.702885302176515,109.68904392067907,157.8527914137661,0.0
0.02,5.213077389933986,-2.7907968048047582,10.0,0.0,7.748536034075208,9.043447303087593,114.82248174305731,157.8527914137661,0.0
0.021,5.318922864050721,-2.815530727283874,10.0,0.0,8.159827572929625,9.381005435040116,119.86759746813831,157.8527914137661,0.0
0.022,5.4263497165622505,-2.833661789428162,10.0,0.0,8.565492848704935,9.715178408647727,124.93649664355476,157.8527914137661,0.0
0.023,5.536393690939073,-2.8437243276177107,10.0,0.0,8.964934462842878,10.04547004381577,129.44418537482565,157.8527914137661,0.0
0.024,5.646367091023815,-2.8505285339818864,10.0,0.0,9.358108916402,10.371680042615253,133.6553998303251,157.8527914137661,0.0
0.025,5.761664075653575,-2.8455294465487464,10.0,0.0,9.743968982803867,10.693003552582272,137.8848923053522,157.8527914137661,0.0
0.026000000000000002,5.879672608723632,-2.8334559507584567,10.0,0.0,10.12209729989965,11.008952749401367,141.6832770391292,157.8527914137661,0.0
0.027,6.001837956669036,-2.812436239974754,10.0,0.0,10.49181627173946,11.318861755304837,145.3463180590043,157.8527914137661,0.0
0.028,6.129055763190109,-2.7815042766733136,10.0,0.0,10.852361928130314,11.621979452564076,148.72704101595986,157.8527914137661,0.0
0.029,6.2610757371038295,-2.7416036756483946,8.657195388797135,0.0,11.203085042128281,11.769881419438864,151.24893226407295,157.8527914137661,0.0
0.03,6.301045024793156,-2.633231733832127,7.46228835623752,0.0,11.522004133824389,11.81697735164975,153.76632319450718,157.8527914137661,0.0
0.031,6.250063918050377,-2.4607867767937135,6.244457573212994,0.0,11.795855683715914,11.775250898620662,150.49414137370107,157.8527914137661,0.0
0.032,6.104773902323835,-2.2637648582667893,7.9541349840167,0.0,12.018201471847792,11.980797159564776,154.7038172674751,157.8527914137661,0.0
0.033,6.143785832361537,-2.1045389679537356,5.880786778592594,0.0,12.223322678511737,11.937114084061566,151.48333199776997,157.8527914137661,0.0
0.034,6.066615220653336,-1.9359859507412867,7.554724007605123,0.0,12.386614883968724,12.13205690060897,155.27073547422313,157.8527914137661,0.0
0.035,6.158269175132733,-1.8008755188873764,5.686842828773971,0.0,12.539895533202946,12.090774712975964,150.45459689427923,157.8527914137661,0.0
0.036000000000000004,6.140224676199389,-1.6457269290160885,8.168894063940787,0.0,12.658004658183145,12.363554691113805,154.86756775969968,157.8527914137661,0.0
0.037,6.322890679605059,-1.5776535260472249,5.992260867771228,0.0,12.785644280051244,12.336343714641602,150.93320775134302,157.8527914137661,0.0
0.038,6.391365652095033,-1.4310320700942474,8.028636708573789,0.0,12.882351215960174,12.564679885513566,152.81834578471424,157.8527914137661,0.0
0.039,6.576328849775037,-1.3901091051501324,7.136412148178699,0.0,12.989185763781085,12.64168347081784,152.82367524469828,157.8527914137661,0.0
0.04,6.7475065106705285,-1.2736901729351482,7.184038579877357,0.0,13.080640362456126,12.718851394742877,148.57939971322767,157.8527914137661,0.0
0.041,6.8817892491292785,-1.1944967899461671,9.398910262618044,0.0,13.163119210849525,13.027548282305897,151.7898443870604,157.8527914137661,0.0
0.042,7.182624630487561,-1.1907505345787879,7.854317395968731,0.0,13.268599708899366,13.089820369228303,151.49608620188025,157.8527914137661,0.0
0.043000000000000003,7.399581449019042,-1.094770994225383,8.064763540677673,0.0,13.359239078951267,13.174151405623046,147.11765932791914,157.8527914137661,0.0
0.044,7.579297974090851,-1.0110718058576635,10.0,0.0,13.44100050032053,13.452285574889284,147.96017266837046,157.8527914137661,0.0
0.045,7.878783831116342,-1.0133832833326393,10.0,0.0,13.543490450885416,13.660283825750524,149.74408878464814,157.8527914137661,0.0
0.046,8.199999342047361,-0.985835173568177,9.220264792931506,0.0,13.653477824631103,13.73962152617243,150.19284453670105,157.8527914137661,0.0
0.047,8.43971628749507,-0.9004774942611142,9.072486385675703,0.0,13.751286367418277,13.790409212309328,150.31113680804197,157.8527914137661,0.0
0.048,8.533593025036215,-0.9466186325899564,9.088756796062485,0.0,13.850321926549668,13.841237241651303,152.5494651375873,157.8527914137661,0.0
0.049,8.558545504593791,-1.0559223346759574,8.022625894051604,0.0,13.956098728548287,13.777642915271237,157.84236139174766,157.8527914137661,0.0
0.05,8.483202247353177,-1.1269555289723758,5.376282067191612,0.0,14.051659032060783,13.459086472886593,158.51512024584136,157.8527914137661,0.0
0.051000000000000004,8.199505506830874,-1.0708641624978559,5.033279351824008,0.0,14.098927278728407,13.201128053554879,157.29970049592242,157.8527914137661,0.0
0.052000000000000005,7.8531644360071615,-1.0431861553980286,5.646520135961914,0.0,14.113189191679854,13.079839364617314,159.8888023109377,157.8527914137661,0.0
0.053,7.5877282621489766,-1.080644944586071,4.331609119482556,0.0,14.11829329132409,12.847067684630716,161.90388199386467,157.8527914137661,0.0
0.054,7.307467350431205,-1.060358580212454,3.2835583722180868,0.0,14.097003725032259,12.564121449123276,160.29636983167075,157.8527914137661,0.0
0.055,6.96117967778533,-1.0571235802403418,4.062878669136005,0.0,14.04939550546567,12.438835655544876,163.19090987151668,157.8527914137661,0.0
0.056,6.71266226959286,-1.1082096770356964,2.562227464635531,0.0,13.999671349145117,12.172326822078144,162.24297489433036,157.8527914137661,0.0
0.057,6.421982380746835,-1.1027264770303837,2.9922931184230492,0.0,13.9271547121414,12.019299803978797,162.71315429047075,157.8527914137661,0.0
0.058,6.175088430766996,-1.1583878210096232,2.7085997915858053,0.0,13.852764616865898,11.863068437108362,163.20276957753,157.8527914137661,0.0
0.059000000000000004,5.964367081694043,-1.201322417038114,2.41029236641854,0.0,13.774356586554243,11.705754722795627,163.70012969656077,157.8527914137661,0.0
0.06,5.7514289565516625,-1.2663337871750229,2.103138924075215,0.0,13.69477989259725,11.546843752751833,163.81132752374577,157.8527914137661,0.0
0.061,5.550767738759367,-1.3100101925903713,1.9879546493829139,0.0,13.6114240619259,11.406210827229732,164.44250748162207,157.8527914137661,0.0
0.062,5.353582675394814,-1.3746209272090724,1.6064675097662047,0.0,13.529010938523372,11.250177613373962,164.17133121571146,157.8527914137661,0.0
0.063,5.161306823782418,-1.4111206375480936,1.6788702447020567,0.0,13.442604666866636,11.13246407384635,165.07332931958166,157.8527914137661,0.0
0.064,4.9820432074215395,-1.4758505234176842,1.1556658137088025,0.0,13.359822958765069,10.977400985630782,164.3876859277433,157.8527914137661,0.0
0.065,4.798237258369737,-1.502732029862075,1.4331385644882149,0.0,13.272122779502292,10.88374610055437,165.25379344246775,157.8527914137661,0.0
0.066,4.639109775968933,-1.5639531616146187,0.926074786838968,0.0,13.190292639086486,10.74780090658368,164.3349288463245,157.8527914137661,0.0
0.067,4.477130348695915,-1.586849139629225,1.3206857105850167,0.0,13.104957339579274,10.681971519533063,165.5652856754093,157.8527914137661,0.0
0.068,4.34746239828677,-1.644803993153666,0.6283823534261712,0.0,13.027718705425261,10.546735742984124,164.12793984486143,157.8527914137661,0.0
0.069,4.195409298899419,-1.6607163659510016,1.2843037843891594,0.0,12.94585116950422,10.511803233080716,164.6262629961456,157.8527914137661,0.0
0.07,4.0973299868514435,-1.706409916534462,0.9674074929232734,0.0,12.873544303021152,10.440027607536074,164.28557611060518,157.8527914137661,0.0
0.07100000000000001,3.9952889665977223,-1.743424739995695,1.0734230887251002,0.0,12.804905255706824,10.393273255457874,164.25439240735508,157.8527914137661,0.0
0.07200000000000001,3.914048909262108,-1.7706884480686447,1.0249989304142577,0.0,12.741083537569523,10.34585961658823,164.71672274278546,157.8527914137661,0.0
0.073,3.834504609382239,-1.7988258878112993,0.7251944494088738,0.0,12.681725108649953,10.272248390877767,164.20012707400443,157.8527914137661,0.0
0.074,3.7404011815905682,-1.8069336882376303,0.9200189271970087,0.0,12.621551883700759,10.234047116271427,163.6357427840648,157.8527914137661,0.0
0.075,3.66573371896995,-1.8164239887072955,1.1443815584638344,0.0,12.564538708833254,10.223652677902624,162.92383081799153,157.8527914137661,0.0
0.076,3.620312468129129,-1.830255753899432,1.4496271474582163,0.0,12.513613998782056,10.244179417326945,162.61766542878226,157.8527914137661,0.0
0.077,3.6127482496360974,-1.844598311753381,1.5550611019126896,0.0,12.471273797390424,10.266484142429594,164.44566970074797,157.8527914137661,0.0
0.078,3.6165983101543446,-1.8624363008755662,0.5751301830600162,0.0,12.437216841873118,10.172978485422533,162.36190467702878,157.8527914137661,0.0
0.079,3.5373223626095767,-1.8462677886074954,1.5719215622869873,0.0,12.395258099966126,10.21362291430305,160.61432565446185,157.8527914137661,0.0
0.08,3.539288436688284,-1.8293031701654687,2.4180957311634916,0.0,12.359855252231945,10.328109243264858,162.9249008620487,157.8527914137661,0.0
0.081,3.618074241392162,-1.8495679475041278,1.2120870328872408,0.0,12.341840093859036,10.277837178281272,161.7932114667439,157.8527914137661,0.0
0.082,3.597622430154716,-1.8444303118386667,1.7385275300098577,0.0,12.319831457128469,10.303796902908164,158.92526144016867,157.8527914137661,0.0
0.083,3.6172969978887,-1.8089279061042285,3.161777843033454,0.0,12.298765768259516,10.473884200297565,161.65144498719522,157.8527914137661,0.0
0.084,3.746542150760559,-1.8246341843753926,1.7606995337858873,0.0,12.298898092683574,10.4424848607751,160.74056583796914,157.8527914137661,0.0
0.085,3.7604352375236583,-1.8142065474564282,2.187261364156895,0.0,12.29457314786918,10.47493548406535,157.16347703450637,157.8527914137661,0.0
0.08600000000000001,3.8056310329462533,-1.7589946689723712,3.9826989096808787,0.0,12.287956729601193,10.69210845562021,160.8479704913749,157.8527914137661,0.0
0.08700000000000001,3.9782809915825146,-1.7766302809947447,2.1105003904705293,0.0,12.306211286422794,10.644466738128644,158.47956751292173,157.8527914137661,0.0
0.088,4.003197833315326,-1.7473471475527385,3.288434118705554,0.0,12.314478715014234,10.750694990362103,156.53160681673515,157.8527914137661,0.0
0.089,4.116063652557424,-1.6875724348972525,4.275626312769155,0.0,12.32625983891219,10.931772892596705,159.8653046464431,157.8527914137661,0.0
0.09,4.280513958146601,-1.7039636211030051,2.5886522655884137,0.0,12.357371418252995,10.883521174444738,155.41372779282153,157.8527914137661,0.0
0.091,4.323582014134674,-1.636214719534211,4.83883132860864,0.0,12.372930376809906,11.10450224034328,157.91992520929617,157.8527914137661,0.0
0.092,4.517972385072138,-1.613138233080885,3.585061282416022,0.0,12.407170621606795,11.123572339553029,155.49980390133786,157.8527914137661,0.0
0.093,4.603208429045658,-1.5850032777670975,4.8186518115194605,0.0,12.437029771624992,11.284960050857082,155.49053018976312,157.8527914137661,0.0
0.094,4.791823577469499,-1.5261988876334003,4.846911279546858,0.0,12.473854644410203,11.404072236337644,155.7421270180332,157.8527914137661,0.0
0.095,4.942303436196851,-1.525375557137914,4.7422195093691535,0.0,12.519405726011783,11.488490368173084,153.27088208883652,157.8527914137661,0.0
0.096,5.107188849670771,-1.4449392516168769,6.023661067216786,0.0,12.560003752334389,11.694394687155292,155.06699485374872,157.8527914137661,0.0
0.097,5.3150264060773935,-1.457815445075373,5.153462650360855,0.0,12.619353152258604,11.75401885836892,152.11252226580694,157.8527914137661,0.0
0.098,5.486024501436954,-1.3745622136244193,6.6881016358113365,0.0,12.669443411917568,11.974396410096237,153.62121285361775,157.8527914137661,0.0
0.099,5.710778225007131,-1.3854563046703945,5.976072127507418,0.0,12.738593283112934,12.061062668209656,152.31876762516308,157.8527914137661,0.0
0.1,5.911771431104465,-1.3052169360693575,6.682634979620785,0.0,12.800559521543526,12.210957781011777,150.7955262630591,157.8527914137661,0.0
0.101,6.1010625919587955,-1.2921189956394143,7.51482831217985,0.0,12.870680267649995,12.417723548804105,153.10808179046055,157.8527914137661,0.0
0.10200000000000001,6.369972620435797,-1.2522147497143297,6.405997644712176,0.0,12.950207028277593,12.452844316156884,148.64772073899275,157.8527914137661,0.0
0.10300000000000001,6.534209214110368,-1.1705968040066275,8.72822887719381,0.0,13.016714258009106,12.743562500065373,150.69949020954084,157.8527914137661,0.0
0.10400000000000001,6.824930973643102,-1.1856924092441592,7.773877153962015,0.0,13.108119279191522,12.85332155906399,151.33558493158702,157.8527914137661,0.0
0.105,7.07305528015273,-1.1174801443439684,7.521001857760715,0.0,13.193705398964166,12.918585992810435,146.97647318331101,157.8527914137661,0.0
0.106,7.254765459298775,-1.0351355942299423,9.80932091420327,0.0,13.26888357227065,13.222619567689218,147.92497665432933,157.8527914137661,0.0
0.107,7.568776298184436,-1.0535975403294666,9.434347326288481,0.0,13.369801545306446,13.406913226689761,149.7323442875902,157.8527914137661,0.0
0.108,7.877875683872168,-1.022967771716647,8.611867980919808,0.0,13.475503192930312,13.465285500945633,148.72125509888315,157.8527914137661,0.0
0.109,8.09569104455,-0.9294667690853082,9.20872793842216,0.0,13.56649309061406,13.581401405499559,145.15552408672124,157.8527914137661,0.0
0.11,8.313300964509121,-0.8482053770099524,10.0,0.0,13.651991845882852,13.754317098976285,148.6566273765981,157.8527914137661,0.0
0.111,8.472689593382256,-0.9676087995819671,9.437604790851342,0.0,13.760179285376113,13.833358255033632,154.2546068770823,157.8527914137661,0.0
0.112,8.561653815805817,-1.0838162872997428,6.674596885976081,0.0,13.877040885949013,13.60881494381192,156.5080682141146,157.8527914137661,0.0
0.113,8.409268015933108,-1.076372403100266,5.561313449456451,0.0,13.957781093203335,13.341233105011494,155.33403121178648,157.8527914137661,0.0
0.114,8.112118098777623,-1.0430680056347472,6.1735195526402995,0.0,14.000100050972964,13.218121609420338,156.5765946791455,157.8527914137661,0.0
0.115,7.856685679461743,-1.0740747645581818,5.564999786306996,0.0,14.029619750862757,13.063619990789952,161.48034895141316,157.8527914137661,0.0
0.116,7.623243662769522,-1.0840191853019574,3.076847074796694,0.0,14.041521137593113,12.68303320105177,158.51208001465488,157.8527914137661,0.0
0.117,7.23266044548169,-1.0282670342450446,4.554388657166946,0.0,14.007941525852912,12.569736063871012,160.11650826248314,157.8527914137661,0.0
0.11800000000000001,6.961368559131558,-1.074220906456032,3.7295373647656493,0.0,13.972002609022434,12.3848378965721,161.79034019499903,157.8527914137661,0.0
0.11900000000000001,6.720362688963347,-1.0855234242993357,2.8532459106953727,0.0,13.92195150538577,12.150489834151315,160.88387584705146,157.8527914137661,0.0
0.12,6.430259306244487,-1.1191118130024218,3.2761672403363065,0.0,13.857052403449597,12.019357041807542,161.95126132173164,157.8527914137661,0.0
0.121,6.215345196630835,-1.164430670735826,2.7014898039165622,0.0,13.790179122936308,11.848143405432259,162.4071216572668,157.8527914137661,0.0
0.122,5.990999210309723,-1.2211357418637476,2.4280163337139733,0.0,13.718656176083554,11.68555741468427,162.78705484075073,157.8527914137661,0.0
0.123,5.780773512684399,-1.262429278497885,2.1887071077021636,0.0,13.642002163159757,11.529369815042115,163.39211443958195,157.8527914137661,0.0
0.124,5.56789979440877,-1.3216200801428686,1.8307840780283957,0.0,13.563492844378729,11.365470985101858,163.3040679982169,157.8527914137661,0.0
0.125,5.362816146689083,-1.3562593351791548,1.8202945328664066,0.0,13.479662984519322,11.232966950672854,164.0448013014394,157.8527914137661,0.0
0.126,5.168292906527557,-1.4171818210236518,1.3880077823784251,0.0,13.397320788095485,11.077230406539321,163.58881550859786,157.8527914137661,0.0
0.127,4.977353074695088,-1.447450492169954,1.5586404378508805,0.0,13.310359485868329,10.970983905883566,164.44023986104722,157.8527914137661,0.0
0.128,4.806730866464685,-1.5096573462497742,1.067053777153391,0.0,13.228009731035627,10.827744110426245,163.67653527933743,157.8527914137661,0.0
0.129,4.635124243400998,-1.5350465868010503,1.3906686293525716,0.0,13.141741720060303,10.748277325834964,164.89877834415992,157.8527914137661,0.0
0.13,4.4907740203718784,-1.5965859880056148,0.7090872276373874,0.0,13.062669273450378,10.60408277419719,163.514565481856,157.8527914137661,0.0
0.131,4.328707380372387,-1.61219190270973,1.3445759181084442,0.0,12.978185872943072,10.559503831200818,164.49874798906143,157.8527914137661,0.0
0.132,4.216465844063286,-1.6662130364123477,0.7860250987527824,0.0,12.903479183747109,10.45386486801353,163.52896057597167,157.8527914137661,0.0
0.133,4.089953739547937,-1.6910887328727588,1.2141571136756077,0.0,12.82787538242563,10.41679307819404,163.74884256823793,157.8527914137661,0.0
0.134,4.001745205572647,-1.731574815168919,1.045255605997756,0.0,12.760329494342326,10.361445418922681,163.67421509027818,157.8527914137661,0.0
0.135,3.9140036509479312,-1.7685000320613513,1.0243551082125113,0.0,12.69766034217542,10.313037382759497,163.80530703451913,157.8527914137661,0.0
0.136,3.8374285676255364,-1.7888221493313485,0.8992839798845065,0.0,12.638283482339661,10.25720025947693,163.809644580602,157.8527914137661,0.0
0.137,3.7539319403667393,-1.8057611141344567,0.8375466751747149,0.0,12.580920661114867,10.203887648469491,163.13911109694786,157.8527914137661,0.0
0.138,3.672425725959724,-1.8133139400700211,1.119950220169967,0.0,12.524624282116687,10.189982496749078,162.40324244689387,157.8527914137661,0.0
0.139,3.6203024414988683,-1.8270600378123496,1.4423800348656832,0.0,12.474003568338585,10.209399965614086,162.0963856934757,157.8527914137661,0.0
