timestamp,iq,id,iq_ref,id_ref,vq,vd,omega,omega_ref,r
0.0,0.0,0.0,0.0,0.0,0.0,0.0,0.0,108.94940162467664,0.0
0.001,0.0,0.0,10.0,0.0,0.0,1.0999999999999999,9.961410405558805,108.94940162467664,0.0
0.002,0.6069414273457476,-0.33830362974591305,10.0,0.0,0.14721339927205035,1.923236442991967,20.193520464897748,108.94940162467664,0.0
0.003,1.0719661066819175,-0.6002983047903302,10.0,0.0,0.38746548087351945,2.6337872811584218,30.781290464239234,108.94940162467664,0.0
0.004,1.431381546894762,-0.8014186857395585,10.0,0.0,0.6942507332854577,3.2624227920383273,41.6918221355156,108.94940162467664,0.0
0.005,1.7134814119835633,-0.9581717208885993,10.0,0.0,1.0484526416010946,3.8314364463137958,52.886285084707126,108.94940162467664,0.0
0.006,1.9393318505790955,-1.082254341879123,10.0,0.0,1.4362172824701824,4.3569463763986604,64.22805382512678,108.94940162467664,0.0
0.007,2.123688966326956,-1.182967376021809,10.0,0.0,1.847594059806638,4.850660999215639,75.58337182337539,108.94940162467664,0.0
0.008,2.277581848560992,-1.2663711919706433,10.0,0.0,2.27537191110409,5.321057191596299,87.1193948189567,108.94940162467664,0.0
0.009000000000000001,2.4096764774695556,-1.3356243613149603,10.0,0.0,2.714195406978251,5.774200069511038,98.64114290842109,108.94940162467664,0.0
0.01,2.524888807372151,-1.3952988295932625,6.8116968975161925,0.0,3.1603225008736384,5.863845257948298,106.68990053827724,108.94940162467664,0.0
0.011,2.436729304237076,-1.3402942196959315,2.8099130934521086,0.0,3.564154152451725,5.591675118153045,110.6307828652914,108.94940162467664,0.0
0.012,2.146641940010039,-1.1678545932844429,0.8226581175388854,0.0,3.8819673120861857,5.239552963218935,112.71438026318316,108.94940162467664,0.0
0.013000000000000001,1.8205692964965168,-0.9768226312446598,-0.25679036779206244,0.0,4.113497820703528,4.888524673258628,110.69404946712369,108.94940162467664,0.0
0.014,1.520025512569414,-0.8006170397123571,0.7359285518132013,0.0,4.269300154014951,4.74554491896282,111.96960611691527,108.94940162467664,0.0
0.015,1.3666139429574418,-0.6925615751297308,0.06794818199502384,0.0,4.385100233376885,4.562908178369732,112.48993269162071,108.94940162467664,0.0
0.016,1.2098029471327483,-0.6029721458961407,-0.2276204160271349,0.0,4.462282348173448,4.399997471532482,110.18957338944844,108.94940162467664,0.0
0.017,1.0828323690037374,-0.5178695012875039,0.910157517411281,0.0,4.506989784192014,4.401605959153008,111.80975645799754,108.94940162467664,0.0
0.018000000000000002,1.0595745291823309,-0.48838821166158697,0.07146243480352399,0.0,4.544995409958014,4.305178759791163,110.46993785106187,108.94940162467664,0.0
0.019,0.9890340769166077,-0.44727754448797497,0.7261663760075043,0.0,4.56533039271839,4.310126098651636,110.03563279688015,108.94940162467664,0.0
0.02,0.9843482280103536,-0.42354654202476816,0.9324565913763294,0.0,4.581927307489558,4.332567125037659,111.239598716347,108.94940162467664,0.0
0.021,0.9888935895347812,-0.4211570655889252,0.30757166072619935,0.0,4.599083101038903,4.283076647480247,108.94225175060419,108.94940162467664,0.0
0.022,0.9595415034762294,-0.3923818741473766,1.4563166423383331,0.0,4.60643289118336,4.376135777399028,111.1574069766593,108.94940162467664,0.0
0.023,1.0096199707863849,-0.40266482063808173,0.32665897579094816,0.0,4.623772491333642,4.3190720279393435,108.71149090158023,108.94940162467664,0.0
0.024,0.9773935666971405,-0.37914688141014097,1.5519961205614465,0.0,4.630981953742946,4.419577965153801,110.5888929506848,108.94940162467664,0.0
0.025,1.0339447083974924,-0.38891695637117496,0.5969001827490845,0.0,4.648830951270759,4.386897440652747,108.44330107810767,108.94940162467664,0.0
0.026000000000000002,1.015974036044571,-0.37279607934259795,1.6747571245033384,0.0,4.659755999372932,4.4899273767014956,110.44938106925892,108.94940162467664,0.0
0.027,1.0750038470439611,-0.38292966163172004,0.6567173344818891,0.0,4.681167439091851,4.454310891702223,107.97174141531313,108.94940162467664,0.0
0.028,1.0567699187368467,-0.36277402352817106,1.9053137635484174,0.0,4.69455763032467,4.57451923449608,110.46919607220372,108.94940162467664,0.0
0.029,1.1237790427323269,-0.3792355947674222,0.6413884906278555,0.0,4.720641965930946,4.5249746748993305,107.62132003412204,108.94940162467664,0.0
0.03,1.10095874701098,-0.34980977056705576,2.078607325574241,0.0,4.735761955642488,4.656906653165499,110.3645486781857,108.94940162467664,0.0
0.031,1.1716508697285768,-0.3725939475669633,0.6928415330073192,0.0,4.765363661921484,4.602346670588225,107.75162947209121,108.94940162467664,0.0
0.032,1.1493599950398907,-0.3363678305575384,2.011278857580418,0.0,4.782336484673818,4.718247537968221,109.86758681689754,108.94940162467664,0.0
0.033,1.2092144803135225,-0.35738796352379804,0.9441183332550427,0.0,4.811876587685299,4.686876667836941,108.34670561385212,108.94940162467664,0.0
0.034,1.2015504896802627,-0.3243670624230044,1.7105858948859978,0.0,4.831483092931758,4.758021515864995,108.64638779380505,108.94940162467664,0.0
0.035,1.237602253365804,-0.3335012458005721,1.5637749432182513,0.0,4.857578401638913,4.796156315403382,109.4865536674119,108.94940162467664,0.0
0.036000000000000004,1.266800742914338,-0.3217982909532021,1.138320485987474,0.0,4.883498992562206,4.784903968866455,107.15462456420804,108.94940162467664,0.0
0.037,1.2659723303723396,-0.2983239180463942,2.322232808194091,0.0,4.903237138268203,4.912236926365692,108.49248580370313,108.94940162467664,0.0
0.038,1.335725920515362,-0.32348793716550717,1.6578713466562773,0.0,4.936737550985695,4.936210339653226,109.11662564038141,108.94940162467664,0.0
0.039,1.3595626114740258,-0.30774826137566064,1.3441291881600888,0.0,4.967302259232115,4.931343929960531,107.5164604524543,108.94940162467664,0.0
0.04,1.3633842025104899,-0.2820148882801429,2.1585411938458714,0.0,4.9916505814020145,5.02256136616772,107.28967948244187,108.94940162467664,0.0
0.041,1.4144653200335817,-0.2946225138205777,2.2885289002744327,0.0,5.024329987516047,5.107665711604292,108.38553559434337,108.94940162467664,0.0
0.042,1.468866071798863,-0.30068990225710573,1.7462395046270167,0.0,5.062793224034947,5.121102581004152,108.64566394639665,108.94940162467664,0.0
0.043000000000000003,1.484959317030171,-0.28061949615518267,1.6192127053831735,0.0,5.0964854052863675,5.127265783697782,107.9689759072321,108.94940162467664,0.0
0.044,1.4954630874967787,-0.25663381374285976,1.9673609821398916,0.0,5.124986967677671,5.174753980383853,106.40516570375867,108.94940162467664,0.0
0.045,1.5281649186035071,-0.24904779908616625,2.77470844308579,0.0,5.15479258871034,5.302178087859856,106.80816605227884,108.94940162467664,0.0
0.046,1.605552348921508,-0.269014741060316,2.594620624549685,0.0,5.1966322821510635,5.38377161301918,107.25067947364556,108.94940162467664,0.0
0.047,1.6611722812454086,-0.2720806250664618,2.3903511353766325,0.0,5.242584936584583,5.435376671130522,107.32519910383587,108.94940162467664,0.0
0.048,1.6977391796180374,-0.2634114446946403,2.3693333454898857,0.0,5.2881185627049225,5.482681067380518,107.22431319906154,108.94940162467664,0.0
0.049,1.7311019528837561,-0.2519704063404563,2.437027182133202,0.0,5.3326574434229865,5.534160650471677,107.0235764105897,108.94940162467664,0.0
0.05,1.7676577106182503,-0.24126545046408898,2.556653828509993,0.0,5.376827259615501,5.593740650442407,106.84574743774263,108.94940162467664,0.0
0.051000000000000004,1.8101404071809202,-0.23245284392189125,2.6666048568028664,0.0,5.421675757024958,5.658370439639213,108.08950796098999,108.94940162467664,0.0
0.052000000000000005,1.8487103027135858,-0.2383249345777384,2.053323531816053,0.0,5.469236439650716,5.648643782082838,109.381629781672,108.94940162467664,0.0
0.053,1.8333909901121443,-0.24218014158485968,1.402940339905093,0.0,5.5114337401224835,5.581307344025825,110.40605392303863,108.94940162467664,0.0
0.054,1.7810117193792674,-0.23201198939709766,0.8761617462381617,0.0,5.541520617930653,5.479090993092043,111.76055214317205,108.94940162467664,0.0
0.055,1.707575855836062,-0.21508500493487737,0.17080113098649674,0.0,5.556616886095655,5.32533723557386,112.84267861937936,108.94940162467664,0.0
0.056,1.609657429644347,-0.18160768283954654,-0.409194877064184,0.0,5.551314916106478,5.141759194136596,112.09839103921664,108.94940162467664,0.0
0.057,1.4970926226603933,-0.1440115924147749,-0.06854098112822427,0.0,5.524384542246718,5.030683592983923,111.55929291343817,108.94940162467664,0.0
0.058,1.428922384178614,-0.13256936086904647,0.17490916887339347,0.0,5.488156961091884,4.957768570264514,111.22942008957737,108.94940162467664,0.0
0.059000000000000004,1.3887763392645387,-0.13644087603678412,0.31704539615478455,0.0,5.4488009247645035,4.905457137758231,111.06620282004415,108.94940162467664,0.0
0.06,1.3637856605029344,-0.14746405414996033,0.3774860189677196,0.0,5.409323183260005,4.862015865321082,110.91476688171547,108.94940162467664,0.0
0.061,1.344780055824561,-0.16160159217230496,0.43355033556167566,0.0,5.370893986063566,4.826374324301409,110.78048524936425,108.94940162467664,0.0
0.062,1.3300697069532723,-0.17766066113428403,0.4823803154904085,0.0,5.3343686766904,4.796692754619338,110.82032886720015,108.94940162467664,0.0
0.063,1.3176243923231157,-0.19588099277665183,0.443749234147224,0.0,5.300371387077382,4.7628109733417245,111.11302149227359,108.94940162467664,0.0
0.064,1.302477247136669,-0.21122495368010974,0.2757667229345333,0.0,5.26789128068086,4.712367608634814,111.19181914927967,108.94940162467664,0.0
0.065,1.2772852051488572,-0.2201861594394191,0.21394371918546407,0.0,5.234447141477792,4.661219517625468,111.12266630907361,108.94940162467664,0.0
0.066,1.250242100147375,-0.2288892901049846,0.22678749244452368,0.0,5.2001003394097145,4.61659568802302,111.08584279708495,108.94940162467664,0.0
0.067,1.2267878004953308,-0.23900128970996826,0.22383483671476956,0.0,5.16575112323809,4.574855873222856,111.03273124520196,108.94940162467664,0.0
0.068,1.2050806708853172,-0.24956594771122065,0.2295573164510123,0.0,5.131723839587702,4.5366673588744115,110.95709543543057,108.94940162467664,0.0
0.069,1.1851630706152854,-0.2607446833761346,0.24729828322916525,0.0,5.098404447210634,4.50276311387761,110.87594851103633,108.94940162467664,0.0
0.07,1.1672720026908017,-0.27283304874351966,0.26860627656269176,0.0,5.0662445024053575,4.472852665210682,110.95859201521301,108.94940162467664,0.0
0.07100000000000001,1.1512134853558136,-0.2855651385096259,0.20719262056898446,0.0,5.035589153434514,4.437336211064878,111.017542204026,108.94940162467664,0.0
0.07200000000000001,1.1328391705906808,-0.29358364882337007,0.15703612036899783,0.0,5.005202409183024,4.399263378425324,111.1103683033924,108.94940162467664,0.0
0.073,1.1102808648333196,-0.3039332252514745,0.08901340389863766,0.0,4.975105324396683,4.357275891300496,110.86937024491782,108.94940162467664,0.0
0.074,1.087757428886273,-0.30763940621179714,0.19031274693351996,0.0,4.944123383517847,4.330552594204659,111.29359503383907,108.94940162467664,0.0
0.075,1.070699758238694,-0.32067050386870793,-0.04524158161872971,0.0,4.91496366594997,4.27813057257119,110.84163166312379,108.94940162467664,0.0
0.076,1.0424755138449582,-0.32015584598224794,0.16181780335443685,0.0,4.883290794631449,4.256100947153683,110.88125400933777,108.94940162467664,0.0
0.077,1.0277016790145086,-0.33292390600523813,0.12268810640083827,0.0,4.8539918810844265,4.228075016018861,110.57879676492696,108.94940162467664,0.0
0.078,1.013499775938349,-0.33815400924384353,0.2576227772037367,0.0,4.825267896534641,4.216570368390748,111.4664750785517,108.94940162467664,0.0
0.079,1.0047253014324347,-0.3534177505048371,-0.2113871141473802,0.0,4.799892556183345,4.151226525478703,110.37331132624969,108.94940162467664,0.0
0.08,0.9687993493482379,-0.3463782481661037,0.3209556649878915,0.0,4.769593382906104,4.156991447425327,110.76855053299137,108.94940162467664,0.0
0.081,0.9686503681070785,-0.36364846089251396,0.10514457253390508,0.0,4.744870737574542,4.129744440303959,110.43653514931465,108.94940162467664,0.0
0.082,0.955029188138417,-0.36627138322582514,0.2562809291258844,0.0,4.7200114753934,4.123029819495372,110.99158841765956,108.94940162467664,0.0
0.083,0.9480449521749724,-0.37940171916673604,-0.04166757297639789,0.0,4.698384785079679,4.080847089908649,110.37179463754416,108.94940162467664,0.0
0.084,0.9245489429977843,-0.3755747072249007,0.25400538695262753,0.0,4.674150216165648,4.078738193512298,110.38227056559654,108.94940162467664,0.0
0.085,0.9193248787601355,-0.38784786218424155,0.2344387335172352,0.0,4.653516531668329,4.069647355361365,110.55698582221011,108.94940162467664,0.0
0.08600000000000001,0.914792317884882,-0.3916378320002939,0.13100526323511708,0.0,4.634331296935824,4.048666558433018,110.5684635269285,108.94940162467664,0.0
0.08700000000000001,0.9008938365785403,-0.3946094506531822,0.10907579185340455,0.0,4.615255484337388,4.0279709179100305,110.3979298726357,108.94940162467664,0.0
0.088,0.886897557056701,-0.396090228956395,0.1798573365202123,0.0,4.596150858373325,4.0168431307410035,110.23217593506186,108.94940162467664,0.0
0.089,0.8782844766428061,-0.39990334858333815,0.2499065622032799,0.0,4.578248551664696,4.012722735121252,110.09240866261887,108.94940162467664,0.0
0.09,0.8739227169944072,-0.4051995502702979,0.3083601280453553,0.0,4.562268887054252,4.013347211135597,109.91199475120204,108.94940162467664,0.0
0.091,0.8711702666689816,-0.41294145645582386,0.3889411524885117,0.0,4.5487482841698235,4.0208498020571,109.59243082701354,108.94940162467664,0.0
0.092,0.8747014163450118,-0.41689455155383304,0.5422928225593929,0.0,4.5376874220649155,4.041896996093761,110.79926518891182,108.94940162467664,0.0
0.093,0.885510775376497,-0.4239153254103938,-0.07962299403209572,0.0,4.530570119747404,3.9886354099937873,110.07458106407839,108.94940162467664,0.0
0.094,0.8501094624896226,-0.41627640541886024,0.271467273990602,0.0,4.517927900114013,3.9888295779283416,109.2865357452086,108.94940162467664,0.0
0.095,0.8466875748038302,-0.4151606891416999,0.662118592220178,0.0,4.506522979646844,4.027223243947697,110.12415503884361,108.94940162467664,0.0
0.096,0.86795340576226,-0.42419610883259046,0.23156141126100083,0.0,4.501102971157096,4.006995787948309,110.09663636139058,108.94940162467664,0.0
0.097,0.8526072374963065,-0.42387500135198136,0.2338484026203771,0.0,4.494076541896611,3.9947069543778486,109.09511896472188,108.94940162467664,0.0
0.098,0.8424303251726886,-0.4187703449682762,0.7331499275542762,0.0,4.485965571077725,4.038810657740458,109.75088412037408,108.94940162467664,0.0
0.099,0.8664641597810995,-0.4262245953875047,0.39725252477119943,0.0,4.483947081786941,4.033005673199282,110.1654307873559,108.94940162467664,0.0
0.1,0.8594804104044015,-0.427415092039263,0.1778188996534965,0.0,4.481606355098618,4.007809164225547,108.83521297827834,108.94940162467664,0.0
0.101,0.8427155753556809,-0.41598877104611426,0.8440696906562631,0.0,4.4757112499059915,4.062154451103426,109.53733071769373,108.94940162467664,0.0
0.10200000000000001,0.8721890873176228,-0.4237675969457668,0.4871315300183925,0.0,4.476810117979307,4.061140258527759,109.97196055042222,108.94940162467664,0.0
0.10300000000000001,0.8682108594326509,-0.42481487478213703,0.2595910243966917,0.0,4.477735092290732,4.039609638191952,108.44817699191938,108.94940162467664,0.0
0.10400000000000001,0.8542784904544949,-0.41178592484642734,1.0264950499756853,0.0,4.474970849866138,4.108452203499521,109.5303532893381,108.94940162467664,0.0
0.105,0.8919624390810013,-0.4219876143375752,0.47959738461971446,0.0,4.4806197635581455,4.09802174655023,109.49343408401745,108.94940162467664,0.0
0.106,0.8829057646054138,-0.41903092124286384,0.49261666268662796,0.0,4.484233487050693,4.097473397584567,108.11026264142023,108.94940162467664,0.0
0.107,0.8818437704220351,-0.4075647088787568,1.1925937738178005,0.0,4.486199286868315,4.174234797923901,109.77090360257253,108.94940162467664,0.0
0.108,0.9234881712555523,-0.4202822894214642,0.35405827346269336,0.0,4.497158242721447,4.139686458027171,108.61715256597566,108.94940162467664,0.0
0.109,0.9015973198086615,-0.40753124054074796,0.9342562823481395,0.0,4.502036677817289,4.1847204213538705,108.46300214156777,108.94940162467664,0.0
0.11,0.9273788603839686,-0.4034315861705563,1.0161954893831722,0.0,4.510607214244299,4.22589528656473,109.65365672959501,108.94940162467664,0.0
0.111,0.9472029336820682,-0.4108204800806813,0.41382564432036684,0.0,4.523291958423512,4.194806811212908,107.61643939674447,108.94940162467664,0.0
0.112,0.9297209555021867,-0.39085581959911364,1.4457639330249612,0.0,4.529329379057547,4.28975382635509,109.61601209172301,108.94940162467664,0.0
0.113,0.9821483978155608,-0.40292057806090975,0.43931148086522787,0.0,4.545784529178011,4.2488388909855725,107.67841161470683,108.94940162467664,0.0
0.114,0.9578443781856822,-0.38636544503588566,1.4208216194730137,0.0,4.554560958532106,4.334889320515925,109.09341846563957,108.94940162467664,0.0
0.115,1.0070733216631418,-0.39124983120079343,0.7118780255970137,0.0,4.571767621712215,4.319755229337396,107.88111289191004,108.94940162467664,0.0
0.116,0.9965283077171039,-0.3820694484854964,1.3287136997894484,0.0,4.584681523496128,4.3844488146634975,108.80426135433414,108.94940162467664,0.0
0.117,1.0358347289801002,-0.37875516420432337,0.8685908712808189,0.0,4.602500626190488,4.382753407279116,107.66349199209763,108.94940162467664,0.0
0.11800000000000001,1.0319519088988285,-0.37291538671752317,1.4518346487248648,0.0,4.617759045196235,4.452587669128109,108.82340772115984,108.94940162467664,0.0
0.11900000000000001,1.0746458887624522,-0.3710052337097498,0.8731367232289297,0.0,4.638323329430318,4.442739971127974,106.97212379613278,108.94940162467664,0.0
0.12,1.0678515813089864,-0.3601109157974698,1.818551464027899,0.0,4.654667142000709,4.546890385712623,109.06119805221388,108.94940162467664,0.0
0.121,1.127742714362389,-0.37029003493141144,0.7728963717119742,0.0,4.6810202610563785,4.511127964822697,106.3698155578804,108.94940162467664,0.0
0.122,1.1114661825347951,-0.34509374134788684,2.1443834795466774,0.0,4.698288442631965,4.645286560543878,109.12551383351044,108.94940162467664,0.0
0.123,1.1835671734441873,-0.36865361173791805,0.7647732196433202,0.0,4.730089214300849,4.594190240864472,106.7386479227216,108.94940162467664,0.0
0.124,1.1633463022247015,-0.33234753409039997,1.9803137120572916,0.0,4.749371009589776,4.701834492827703,108.55694211474672,108.94940162467664,0.0
0.125,1.217868602791029,-0.3514675355621513,1.0750912111440303,0.0,4.779955311484501,4.682712957324414,107.59279526224456,108.94940162467664,0.0
0.126,1.2166006741138116,-0.32121949081301737,1.570730701019428,0.0,4.802050544702302,4.732819269616511,106.9922449853008,108.94940162467664,0.0
0.127,1.2413672171505192,-0.323835349325551,1.8905774058850684,0.0,4.827537110711405,4.807614217616834,108.43337648747574,108.94940162467664,0.0
0.128,1.288304090040468,-0.3251735616910594,1.175171906169607,0.0,4.858075559694708,4.790669864813152,106.84583731630855,108.94940162467664,0.0
0.129,1.2872195986924448,-0.2965423738791994,1.989977134836885,0.0,4.880702915716354,4.875845085115904,106.86841843128543,108.94940162467664,0.0
0.13,1.332980756710501,-0.3087156618404022,1.9994964092823535,0.0,4.911210431719962,4.942620014597408,108.00415920289548,108.94940162467664,0.0
0.131,1.3770105857496466,-0.30842114842964474,1.4410784476951424,0.0,4.945190559716562,4.93986136459795,107.44211320493996,108.94940162467664,0.0
0.132,1.384124610863185,-0.2825305095131068,1.7371743308702703,0.0,4.972651784766847,4.978589074691137,105.67583414730599,108.94940162467664,0.0
0.133,1.4086933508187784,-0.27470229023502635,2.6530495344609597,0.0,5.0006374605899975,5.111344028699273,106.901484103467,108.94940162467664,0.0
0.134,1.4861700384769867,-0.29740976785543966,2.060703731592553,0.0,5.041676168962673,5.151028516294638,107.5440258848515,108.94940162467664,0.0
0.135,1.5168430641704145,-0.2887596554006121,1.753486598298557,0.0,5.081400868111382,5.160378733384382,107.62174219184587,108.94940162467664,0.0
