timestamp,iq,id,iq_ref,id_ref,vq,vd,omega,omega_ref,r
0.0,0.0,0.0,0.0,0.0,0.0,0.0,0.0,175.29053198436085,0.0
0.001,0.0,0.0,10.0,0.0,0.0,1.0999999999999999,5.820377893650843,175.29053198436085,0.0
0.002,0.4233076972365486,-0.25291787135936494,10.0,0.0,0.13782096584953002,1.9434361533039797,11.547105579066768,175.29053198436085,0.0
0.003,0.7871552974751981,-0.4600928555676186,10.0,0.0,0.36646351999381965,2.6805206288086283,17.176778650308016,175.29053198436085,0.0
0.004,1.078524972476768,-0.6266228178360036,10.0,0.0,0.6621968122815847,3.3383487239294545,23.05514497946593,175.29053198436085,0.0
0.005,1.3122449278267494,-0.7605419185298047,10.0,0.0,1.0072053863062898,3.937171840428493,29.08369000988888,175.29053198436085,0.0
0.006,1.5026259795139714,-0.8695314234879196,10.0,0.0,1.388245069116883,4.492008786548004,35.22905721759425,175.29053198436085,0.0
0.007,1.6609151830399786,-0.9593336558852237,10.0,0.0,1.7954528287724911,5.013958004465633,41.40082385733824,175.29053198436085,0.0
0.008,1.7947668206441716,-1.03552518354288,10.0,0.0,2.221617779972669,5.511292288455859,47.607491755397554,175.29053198436085,0.0
0.009000000000000001,1.910107864272412,-1.1017876476590434,10.0,0.0,2.6614266202280548,5.990160640744017,53.86996458338844,175.29053198436085,0.0
0.01,2.0118895386832683,-1.1598553215900522,10.0,0.0,3.110866231177966,6.455080468079984,60.12539549532097,175.29053198436085,0.0
0.011,2.103465956662739,-1.2115290658041515,10.0,0.0,3.5669572988907237,6.9093966845437125,66.37552161643055,175.29053198436085,0.0
0.012,2.1871742374692897,-1.2583762383095105,10.0,0.0,4.027507333012026,7.355598239423419,72.59561479520202,175.29053198436085,0.0
0.013000000000000001,2.264795348561039,-1.301456495468751,10.0,0.0,4.490892875771633,7.79553340281526,78.79495505576266,175.29053198436085,0.0
0.014,2.33786664628771,-1.341172808657429,10.0,0.0,4.955871372473627,8.23055197250486,84.93123110399175,175.29053198436085,0.0
0.015,2.407312266743541,-1.378187495252951,10.0,0.0,5.421528328868001,8.661658229622823,91.01771317805007,175.29053198436085,0.0
0.016,2.474022124074139,-1.4126501064553674,10.0,0.0,5.887150955701043,9.089575928566623,97.03970410714818,175.29053198436085,0.0
0.017,2.538713021561979,-1.4445893517179227,10.0,0.0,6.35217178061202,9.514815220148986,102.98095477291754,175.29053198436085,0.0
0.018000000000000002,2.601964298498547,-1.4739726855582747,10.0,0.0,6.816127226459947,9.937721933576068,108.82556201406602,175.29053198436085,0.0
0.019,2.6642807136517948,-1.500688148849175,10.0,0.0,7.278622666689383,10.358511227347744,114.55565115300148,175.29053198436085,0.0
0.02,2.7261228684560512,-1.5245591825631433,10.0,0.0,7.739306151348674,10.777291662888258,120.15126601640226,175.29053198436085,0.0
0.021,2.7879243402234097,-1.5453657948281583,10.0,0.0,8.197849348108097,11.194082662994285,125.57358187525632,175.29053198436085,0.0
0.022,2.850887879431411,-1.5615424948641903,10.0,0.0,8.653788696083495,11.608740908170445,130.74295949955507,175.29053198436085,0.0
0.023,2.913979955471232,-1.575250903011158,10.0,0.0,9.106946091674777,12.021216770654231,135.78179504894888,175.29053198436085,0.0
0.024,2.9782594219107716,-1.5851606599026447,10.0,0.0,9.5569883231319,12.431320965900811,140.61164235488013,175.29053198436085,0.0
0.025,3.044204679040484,-1.5908977305217467,10.0,0.0,10.003568731167157,12.83880778114857,145.1989080472905,175.29053198436085,0.0
0.026000000000000002,3.112231897373102,-1.5922216041890145,10.0,0.0,10.446328035320875,13.243380414229792,149.52423012914048,175.29053198436085,0.0
0.027,3.1827780841658364,-1.5888827707534334,10.0,0.0,10.884888161952755,13.644691906054392,153.45852860716195,175.29053198436085,0.0
0.028,3.255182240984303,-1.5824805905333585,10.0,0.0,11.319052573614053,14.042469265977608,157.44249212078427,175.29053198436085,0.0
0.029,3.333020934511376,-1.5676161959726564,10.0,0.0,11.748007218502067,14.43604711635485,160.62934287889126,175.29053198436085,0.0
0.03,3.412907781421708,-1.550380227321135,10.0,0.0,12.171676871332945,14.825153479958294,164.05738662595033,175.29053198436085,0.0
0.031,3.498614356124144,-1.5251384820506142,9.904488185785443,0.0,12.589285962947834,15.198581018172721,166.6196463790187,175.29053198436085,0.0
0.032,3.583775481124505,-1.4940122274647039,8.710067165304682,0.0,12.999305428670937,15.43748485961344,168.66793661448264,175.29053198436085,0.0
0.033,3.624532299620516,-1.4294657734548766,7.75214800127149,0.0,13.385424484570578,15.596441726858995,170.07099890363145,175.29053198436085,0.0
0.034,3.6379465043281503,-1.3430959495514965,7.10281218750438,0.0,13.739972105515532,15.71519907076303,171.53608134173572,175.29053198436085,0.0
0.035,3.643143310342734,-1.2475298853808616,6.407815474878494,0.0,14.061292129936664,15.787141655505446,172.7055064385508,175.29053198436085,0.0
0.036000000000000004,3.6399467214456616,-1.1454954998707743,5.8489531819290566,0.0,14.347406288625516,15.82990069195638,173.77040242413582,175.29053198436085,0.0
0.037,3.6353463815342097,-1.0419007271729264,5.3317064847387945,0.0,14.598809853948918,15.846160798370969,175.0089470014998,175.29053198436085,0.0
0.038,3.6279619647575023,-0.9436200255517804,4.715250045885422,0.0,14.816924143930091,15.824063791820784,175.31534977153788,175.29053198436085,0.0
0.039,3.610819482229752,-0.8521598362261678,4.561800482994606,0.0,15.001939490448521,15.817084856304572,173.60069682616464,175.29053198436085,0.0
0.04,3.606818022237439,-0.7731102475894733,5.436025307263192,0.0,15.159974555906706,15.927273311064148,169.22291801980353,175.29053198436085,0.0
0.041,3.6702500415001262,-0.7060753618381868,7.685590850089318,0.0,15.30664161874876,16.273938851642963,170.8817291510609,175.29053198436085,0.0
0.042,3.8487603320423327,-0.6791081819838662,6.900273312793628,0.0,15.47101248843802,16.472722148150293,172.97883017598267,175.29053198436085,0.0
0.043000000000000003,3.967520577653928,-0.6577531619516714,5.874839818416532,0.0,15.636745220404089,16.551841168855432,168.1551931927205,175.29053198436085,0.0
0.044,4.034985764000251,-0.6099397922452621,8.358011697964017,0.0,15.78877066077669,16.916791234338696,174.08890979323664,175.29053198436085,0.0
0.045,4.1937370330407475,-0.6488542191098725,5.4031696196171906,0.0,15.966847284312523,16.893796502166264,179.33228198948146,175.29053198436085,0.0
0.046,4.157159625351459,-0.701075646262491,2.741066021443575,0.0,16.130171984995666,16.633236958085256,178.49128721592433,175.29053198436085,0.0
0.047,4.009251490588834,-0.6908063945892529,3.1295558559065038,0.0,16.249456429246827,16.50032487700032,180.66356088721764,175.29053198436085,0.0
0.048,3.910062404804101,-0.6884727108206659,1.98968873123128,0.0,16.343367208266557,16.272793884478784,185.58607491571394,175.29053198436085,0.0
0.049,3.77623774591341,-0.6850742407416102,-0.5745237123303983,0.0,16.40478331526114,15.820471193186467,187.78858895335014,175.29053198436085,0.0
0.05,3.5393572233378165,-0.6636049830700461,-1.8007613008383938,0.0,16.41249790878397,15.334996982316987,187.36571427720952,175.29053198436085,0.0
0.051000000000000004,3.2912997774909956,-0.6241268739333763,-1.710075785696569,0.0,16.36676572243924,14.945996948254814,187.7142001020278,175.29053198436085,0.0
0.052000000000000005,3.0907229250306427,-0.6043525332795934,-2.00855537928238,0.0,16.28492635494222,14.577166967830703,188.26216947174774,175.29053198436085,0.0
0.053,2.91124515647211,-0.5947805060197253,-2.4122564390162173,0.0,16.17353274656044,14.213350514081268,188.56439198713517,175.29053198436085,0.0
0.054,2.7417234042024323,-0.5893641601460224,-2.696106296737674,0.0,16.036396775868386,13.86444248618065,188.44393715399974,175.29053198436085,0.0
0.055,2.584062734184021,-0.5878704127402041,-2.7674129318663496,0.0,15.877973450699578,13.54735388889329,188.07937316076092,175.29053198436085,0.0
0.056,2.4443349252133775,-0.5932984062769968,-2.7130193470109414,0.0,15.704295615082014,13.266621631789745,187.28087321075884,175.29053198436085,0.0
0.057,2.324247687201101,-0.6060172516277055,-2.43367278427388,0.0,15.521257130369058,13.038591320978961,186.45679706156537,175.29053198436085,0.0
0.058,2.2290818702866178,-0.6292966978368296,-2.1332973604491885,0.0,15.336153013675828,12.85457539125179,185.84365252260912,175.29053198436085,0.0
0.059000000000000004,2.1552959525102016,-0.6599448311077005,-1.9322562963535468,0.0,15.1542962158769,12.696726198426536,185.10836298941464,175.29053198436085,0.0
0.06,2.0939147100456985,-0.6936934139892207,-1.6627898398068472,0.0,14.978246041359604,12.57012122217643,184.46456006267567,175.29053198436085,0.0
0.061,2.0453295790204895,-0.7303100315767318,-1.4326286572205098,0.0,14.810830728774835,12.465925343606765,183.8786296630301,175.29053198436085,0.0
0.062,2.0056339417780036,-0.7675690222923591,-1.225544434184414,0.0,14.653469682394418,12.379765843130116,183.37828951531395,175.29053198436085,0.0
0.063,1.9725536481439305,-0.8036619975302626,-1.0562519356358724,0.0,14.50682642797339,12.30627939660039,182.8916114803195,175.29053198436085,0.0
0.064,1.9433985167340528,-0.8375417824532343,-0.8889237130982388,0.0,14.370864700930644,12.245066710293935,182.44867785065986,175.29053198436085,0.0
0.065,1.9177564262887894,-0.8690177709796837,-0.7390383569314043,0.0,14.245501438850207,12.193722305501709,182.04989462950553,175.29053198436085,0.0
0.066,1.8947362186270764,-0.8977090142843513,-0.607240372805685,0.0,14.130381339376838,12.150250741611156,181.7281264825677,175.29053198436085,0.0
0.067,1.8749004509946685,-0.9210299739318997,-0.5107322443188322,0.0,14.024704486589936,12.110863970817565,181.349782915535,175.29053198436085,0.0
0.068,1.8569929084986039,-0.9382821440089165,-0.38215297011423033,0.0,13.927321171114356,12.079798302700524,180.73667753556367,175.29053198436085,0.0
0.069,1.8426289263152482,-0.950960436019659,-0.13006173564059376,0.0,13.83779171079505,12.069946075512895,179.92207192983813,175.29053198436085,0.0
0.07,1.835841334222174,-0.9647695751775056,0.23092566776740675,0.0,13.757622196176161,12.089916822350645,179.29607067364674,175.29053198436085,0.0
0.07100000000000001,1.840249381097839,-0.9825203432666106,0.5038709089702413,0.0,13.689281200801164,12.12573488446371,178.62752840910738,175.29053198436085,0.0
0.07200000000000001,1.8516791318060728,-0.9993822821577069,0.8047720769924531,0.0,13.633033416772099,12.180293524789233,179.11650851978092,175.29053198436085,0.0
0.073,1.8669363028158343,-1.0216217895472537,0.5220222563014838,0.0,13.59014400160243,12.188096039419076,180.42863761057217,175.29053198436085,0.0
0.074,1.8754946667494456,-1.0097014725202018,-0.18542334535625216,0.0,13.550790149465843,12.115048994770927,177.91820935566304,175.29053198436085,0.0
0.075,1.8509834101499423,-0.9755864463525951,1.0435140083852907,0.0,13.50443352836994,12.190410656167366,175.97881349327594,175.29053198436085,0.0
0.076,1.873993918357462,-0.9826781296575537,2.0063291244896906,0.0,13.471369970948485,12.34444451007981,175.99662655810798,175.29053198436085,0.0
0.077,1.931551686385825,-1.0126532795310512,1.9903616463361993,0.0,13.46024250431346,12.462282799699903,177.99619745250894,175.29053198436085,0.0
0.078,1.9839649423942085,-1.0225143518367439,0.9635195444542384,0.0,13.462796579758828,12.449241676788354,177.6125326224268,175.29053198436085,0.0
0.079,1.9938242251848202,-0.9815444907499902,1.1321319531146412,0.0,13.459185839925919,12.46601547113708,175.1843258479886,175.29053198436085,0.0
0.08,2.0073698100830324,-0.9464896109384113,2.3472974016974755,0.0,13.454167215342753,12.611341465814254,172.9013359445825,175.29053198436085,0.0
0.081,2.0667361411645597,-0.9498553909354746,3.512684313798297,0.0,13.464903837283419,12.851279063840671,172.5836694810641,175.29053198436085,0.0
0.082,2.165461325105685,-0.9801939797897361,3.6985861705904677,0.0,13.501864143806662,13.066825792461934,173.52747589352828,175.29053198436085,0.0
0.083,2.260550494541313,-0.998860415271378,3.2443135252667084,0.0,13.558433014554144,13.203212312521355,174.46624516809425,175.29053198436085,0.0
0.084,2.3274823029805383,-0.9867575804032604,2.7831717561463893,0.0,13.621465674042508,13.27902259226562,174.82279869527855,175.29053198436085,0.0
0.085,2.369302824571418,-0.9526514307945616,2.609572325445061,0.0,13.682145447448189,13.335139651007754,174.39549626522006,175.29053198436085,0.0
0.08600000000000001,2.404170037248741,-0.9082366958110084,2.8321738976657134,0.0,13.737824390035414,13.414517960288926,173.80012560953008,175.29053198436085,0.0
0.08700000000000001,2.4499328386948456,-0.8683141386844455,3.1447632892590094,0.0,13.791925935357945,13.518999914221464,172.96881225591355,175.29053198436085,0.0
0.088,2.5094687121622052,-0.8348692217634661,3.5836371633517508,0.0,13.847785806251434,13.657502741460322,172.1079362522804,175.29053198436085,0.0
0.089,2.5853386376290697,-0.8105410031484492,4.0459011224891235,0.0,13.909568317901016,13.82645123676214,171.38033951757936,175.29053198436085,0.0
0.09,2.6759735524431765,-0.7938581673469571,4.448801414507464,0.0,13.98047559816381,14.0151683848545,170.6114501425665,175.29053198436085,0.0
0.091,2.7761237780504255,-0.782255821985506,4.880036920431839,0.0,14.062054435577817,14.22540127322674,169.31015656411222,175.29053198436085,0.0
0.092,2.885656478841505,-0.7750050798943218,5.590487463861464,0.0,14.155817119911225,14.485558866390228,166.7991159933453,175.29053198436085,0.0
0.093,3.0180231346781876,-0.7730641823387232,6.9309219091550744,0.0,14.266078303817446,14.85595524708459,165.65257527908977,175.29053198436085,0.0
0.094,3.20555598946956,-0.7753112807756031,7.600571833335553,0.0,14.402619597206089,15.241290307838367,167.5369681080914,175.29053198436085,0.0
0.095,3.4009116803989743,-0.7825880828825449,6.735911057597434,0.0,14.564818244578642,15.48032300982831,169.5063904305824,175.29053198436085,0.0
0.096,3.533107940229458,-0.7647156036978857,5.809041311889719,0.0,14.732661556681549,15.605775210413986,169.92114923186725,175.29053198436085,0.0
0.097,3.606702182263365,-0.7296815636221438,5.655355738772231,0.0,14.892590738016247,15.721056402540118,166.6922223044733,175.29053198436085,0.0
0.098,3.674388696137929,-0.6872620442529531,7.355802299268086,0.0,15.043739313700236,16.02267879686696,165.50569222489557,175.29053198436085,0.0
0.099,3.8381640694933936,-0.6501793496486051,8.046915736651599,0.0,15.206280370035728,16.35093339590639,168.98728144504213,175.29053198436085,0.0
0.1,4.009303278265439,-0.6486761749078126,6.369153631971506,0.0,15.38559825836617,16.453964115555404,167.85269173028797,175.29053198436085,0.0
0.101,4.073057110879275,-0.638414785320715,7.010826891889313,0.0,15.556173708721294,16.646683702210524,171.37126819435514,175.29053198436085,0.0
0.10200000000000001,4.139286616559118,-0.6749436440344561,5.290731297755787,0.0,15.733084361060795,16.634913919983134,178.29238096907707,175.29053198436085,0.0
0.10300000000000001,4.098401704038357,-0.7166541853168091,1.8001564205476583,0.0,15.895349840897538,16.28040953609496,177.99032281043208,175.29053198436085,0.0
0.10400000000000001,3.903684830788926,-0.6980844761686869,1.924187591609444,0.0,16.003478560942668,16.04714132310038,178.26483956819675,175.29053198436085,0.0
0.105,3.754950089606505,-0.6810265386041214,1.7571861368887491,0.0,16.0757769116432,15.842815984477449,180.46615197885217,175.29053198436085,0.0
0.106,3.6281078494113213,-0.6782400740132366,0.604773731616127,0.0,16.12027696168204,15.553522963763731,183.55893036256631,175.29053198436085,0.0
0.107,3.4734527933012598,-0.6657879382835059,-1.0242994440230015,0.0,16.13005583436127,15.145678958627846,186.65394718897073,175.29053198436085,0.0
0.108,3.2618381429307335,-0.6509962892123413,-2.685442009271309,0.0,16.096569859218445,14.634893351832208,186.29403998940288,175.29053198436085,0.0
0.109,3.012329572902369,-0.6116339389345236,-2.615523489537801,0.0,16.011171978870493,14.221469967224426,186.0825460989871,175.29053198436085,0.0
0.11,2.8077878753278505,-0.5884453039081541,-2.6176966854761803,0.0,15.89081442174644,13.859915397324992,185.8868611881475,175.29053198436085,0.0
0.111,2.6374721468123545,-0.5794604987913818,-2.6258175220942377,0.0,15.745580721132267,13.538298281795454,185.6532350007838,175.29053198436085,0.0
0.112,2.492347490810881,-0.5815854406856723,-2.612631458576626,0.0,15.583032270686097,13.250111737985572,185.0150861755684,175.29053198436085,0.0
0.113,2.367351862808068,-0.5912221331757563,-2.390802587880996,0.0,15.40895879765852,13.011056591173705,184.354896504531,175.29053198436085,0.0
0.114,2.2663736858646812,-0.6110709121765905,-2.151351397564005,0.0,15.2304741560177,12.812478597151927,183.71420848508845,175.29053198436085,0.0
0.115,2.185405947272843,-0.6384182026926125,-1.9152441528499988,0.0,15.052789893305551,12.647383892859274,183.03476564435232,175.29053198436085,0.0
0.116,2.1201720358643423,-0.6705121650891104,-1.6529650690818487,0.0,14.879621449393797,12.513885912361047,182.4060161706829,175.29053198436085,0.0
0.117,2.0684052232310233,-0.7063947046615956,-1.4097451741103613,0.0,14.714046191552406,12.405594293406233,181.85835552148916,175.29053198436085,0.0
0.11800000000000001,2.026840703438426,-0.7439346616701928,-1.201593084884772,0.0,14.557969867474892,12.316093270478708,181.40408453674002,175.29053198436085,0.0
0.11900000000000001,1.9923522061828982,-0.7808834546845175,-1.035593118033992,0.0,14.41224004117387,12.239491282397704,180.96435510346433,175.29053198436085,0.0
0.12,1.9619202297946499,-0.8158730454443331,-0.8724666325871828,0.0,14.276902365748285,12.175263056655485,180.56542009849025,175.29053198436085,0.0
0.121,1.9350018240501639,-0.8486235834247519,-0.7257480112414381,0.0,14.151928298561284,12.121088374306508,180.20931469846903,175.29053198436085,0.0
0.122,1.910760966865682,-0.878632406556202,-0.5968831383719093,0.0,14.037007635022745,12.074939013508768,179.87864984881216,175.29053198436085,0.0
0.123,1.8885081859318724,-0.9054449394111808,-0.47743189218798765,0.0,13.931613392141012,12.035968908119356,179.64101348492372,175.29053198436085,0.0
0.124,1.869653601119114,-0.9261403293924102,-0.4021185252493955,0.0,13.834869930577899,11.999297823402184,179.17604877317316,175.29053198436085,0.0
0.125,1.8522818616465817,-0.940403154640632,-0.20849133726224167,0.0,13.745495663576877,11.978887703503473,178.45793242312797,175.29053198436085,0.0
0.126,1.8404118363901216,-0.9541687617965463,0.11889283337268375,0.0,13.664389399820745,11.986789141167979,177.9095195706809,175.29053198436085,0.0
0.127,1.8384921082771692,-0.9722506277190812,0.36690938373301196,0.0,13.594035255386604,12.009890257363573,177.34329799533947,175.29053198436085,0.0
0.128,1.8439747047107624,-0.9882871857578845,0.629492511293948,0.0,13.53460983974048,12.049427543135472,176.87818782223843,175.29053198436085,0.0
0.129,1.8537807950407452,-1.0071339353552626,0.8461710394656916,0.0,13.486993471111475,12.099253521616884,179.37219334870346,175.29053198436085,0.0
0.13,1.8695248540709084,-1.0203571138573562,-0.44164833741025,0.0,13.450387419332777,11.993874563059167,177.46092069979943,175.29053198436085,0.0
0.131,1.8359850464436231,-0.9776154074697012,0.49228409988737987,0.0,13.402070257388505,12.014830476480151,175.11528048613434,175.29053198436085,0.0
0.132,1.837718223583376,-0.9704178817426374,1.666856721702191,0.0,13.360316092214664,12.148196698829619,174.26428308860852,175.29053198436085,0.0
0.133,1.884643087126002,-0.996771750844191,2.1026179094226225,0.0,13.33904486665159,12.295094483639561,175.8054221511278,175.29053198436085,0.0
0.134,1.9433211404108452,-1.0223679621625406,1.3268994764953141,0.0,13.337142586679828,12.32950339068709,176.8795513310943,175.29053198436085,0.0
0.135,1.96943956833575,-1.0000616472781263,0.7739446930447342,0.0,13.336161768659524,12.304927090643506,174.7989925751411,175.29053198436085,0.0
0.136,1.969262511997901,-0.9567269188052524,1.8191394651135202,0.0,13.328277645453717,12.403491972040737,172.27684542690972,175.29053198436085,0.0
0.137,2.008487827564606,-0.9487390013901396,3.11034990480373,0.0,13.330593099077285,12.618676598347184,171.56386492383317,175.29053198436085,0.0
