timestamp,iq,id,iq_ref,id_ref,vq,vd,omega,omega_ref,r
0.0,0.0,0.0,0.0,0.0,0.0,0.0,0.0,343.9126451636285,0.0
0.001,0.0,0.0,10.0,0.0,0.0,1.0999999999999999,4.19863325672222,343.9126451636285,0.0
0.002,0.6945654975104929,-0.39897332429917204,10.0,0.0,0.15388706567290897,1.913597795273845,9.839949764739918,343.9126451636285,0.0
0.003,1.49040302893109,-0.8545581337812344,10.0,0.0,0.41986980010594654,2.5806280441064358,16.178519705836276,343.9126451636285,0.0
0.004,2.201712794953481,-1.260480877350361,10.0,0.0,0.7660529396767229,3.137267842550816,22.86026147615739,343.9126451636285,0.0
0.005,2.7724335460278517,-1.5847860967973317,10.0,0.0,1.164896091838335,3.617195790149878,29.748558835629193,343.9126451636285,0.0
0.006,3.2062108931609896,-1.8303427548156543,10.0,0.0,1.5956159037312376,4.047006957531293,36.72211879049258,343.9126451636285,0.0
0.007,3.5292538912940983,-2.012227582085756,10.0,0.0,2.0437966155925196,4.445712033040546,43.74744264783306,343.9126451636285,0.0
0.008,3.771473456987664,-2.1476786191566175,10.0,0.0,2.5001105296236927,4.825950949940041,50.742300172483326,343.9126451636285,0.0
0.009000000000000001,3.958899902881846,-2.251279360417616,10.0,0.0,2.9588585151096987,5.195602653161278,57.69041320236793,343.9126451636285,0.0
0.01,4.111151543335708,-2.334182271689731,10.0,0.0,3.4167801851965516,5.559290568618012,64.5766486884923,343.9126451636285,0.0
0.011,4.2419043800246055,-2.4039813504958945,10.0,0.0,3.87212734937635,5.9195415639065185,71.38522878558695,343.9126451636285,0.0
0.012,4.360104258721161,-2.4654163843693055,10.0,0.0,4.32402475960503,6.277607717794419,78.10515260667852,343.9126451636285,0.0
0.013000000000000001,4.471289438166878,-2.5211864883621837,10.0,0.0,4.772059405300115,6.634008626364334,84.68447051132154,343.9126451636285,0.0
0.014,4.578716934983453,-2.5726556613752556,10.0,0.0,5.216034585274194,6.9888677357914,91.2545996073619,343.9126451636285,0.0
0.015,4.684164736371182,-2.6204427010873013,10.0,0.0,5.655840040831765,7.342113469088685,97.7366861378301,343.9126451636285,0.0
0.016,4.78886732616231,-2.6642114817572584,10.0,0.0,6.091326219639883,7.693552367748851,104.09679961077964,343.9126451636285,0.0
0.017,4.893596893916777,-2.703403963798097,10.0,0.0,6.522281155650998,8.04292276786873,110.3241036134313,343.9126451636285,0.0
0.018000000000000002,4.998899883544654,-2.737375155906478,10.0,0.0,6.948422544384502,8.389915588396212,116.41320409534622,343.9126451636285,0.0
0.019,5.105263612632266,-2.7654165324196054,10.0,0.0,7.369393915792765,8.73417628544094,122.34515014416351,343.9126451636285,0.0
0.02,5.213245259105097,-2.7867006751617627,10.0,0.0,7.784755061701178,9.075293706100881,128.00753655164564,343.9126451636285,0.0
0.021,5.323746983419927,-2.799901240049108,10.0,0.0,8.193931055794932,9.41276012607577,133.58150656048,343.9126451636285,0.0
0.022,5.436873786072946,-2.8051143960466125,10.0,0.0,8.596377533987654,9.74605857241386,138.9907262941043,343.9126451636285,0.0
0.023,5.553377109296704,-2.801484755417036,10.0,0.0,8.991457816965683,10.074587724409337,144.1886975109251,343.9126451636285,0.0
0.024,5.674017160192861,-2.788237326338424,10.0,0.0,9.378462066053105,10.397666617136723,149.28465433279231,343.9126451636285,0.0
0.025,5.798668380684392,-2.76614948723019,10.0,0.0,9.756776591493402,10.714632811755003,154.0655250299861,343.9126451636285,0.0
0.026000000000000002,5.928782764556295,-2.7334721049265083,10.0,0.0,10.125582650189177,11.024667769434497,158.53358859366494,343.9126451636285,0.0
0.027,6.065563300849105,-2.6888839263818793,10.0,0.0,10.483933672966451,11.326835122062125,162.6855573445677,343.9126451636285,0.0
0.028,6.208518223712774,-2.6338493122708018,10.0,0.0,10.831058402961988,11.620263605552642,166.89884452013922,343.9126451636285,0.0
0.029,6.3559749927150175,-2.5718622853508344,10.0,0.0,11.166545281486936,11.904271018332054,170.49682854573032,343.9126451636285,0.0
0.03,6.5094553407515345,-2.501124609437537,10.0,0.0,11.48972293935607,12.178018107092022,173.47335048396894,343.9126451636285,0.0
0.031,6.670034087346388,-2.420456391339572,10.0,0.0,11.799791413082641,12.44057939411784,176.0083011608571,343.9126451636285,0.0
0.032,6.838691473486204,-2.3287297718577182,10.0,0.0,12.095825922177113,12.6909448748043,178.41523152789918,343.9126451636285,0.0
0.033,7.015394407011379,-2.2263425828190533,10.0,0.0,12.376948203831354,12.92812650950519,181.48430439200163,343.9126451636285,0.0
0.034,7.199715671530599,-2.11421621138145,10.0,0.0,12.642366391822504,13.151193899139557,181.68659381046209,343.9126451636285,0.0
0.035,7.3741510950570035,-2.0214952760127165,10.0,0.0,12.894471460801794,13.361151684666886,177.44083135239129,343.9126451636285,0.0
0.036000000000000004,7.566678951752289,-1.9025070431393818,10.0,0.0,13.130200305173506,13.555890488538193,180.7881005358009,343.9126451636285,0.0
0.037,7.784446422638416,-1.7441458004947936,10.0,0.0,13.34560029113301,13.732699153229028,183.40450549696294,343.9126451636285,0.0
0.038,7.973054007569141,-1.6359006828276232,10.0,0.0,13.546817794448703,13.8947977904132,178.62742392165492,343.9126451636285,0.0
0.039,8.175368741112036,-1.507832760358839,10.0,0.0,13.731118390856349,14.040439769370117,180.86837288357594,343.9126451636285,0.0
0.04,8.40024563254508,-1.3429771899972036,10.0,0.0,13.89469969200383,14.167234299349904,180.36295172736087,343.9126451636285,0.0
0.041,8.588115694246994,-1.240347403587521,10.0,0.0,14.044961595233087,14.279290568573574,175.9087699941311,343.9126451636285,0.0
0.042,8.815887608318643,-1.0706597294853406,10.0,0.0,14.173763588774651,14.371991191266947,183.7923647096913,343.9126451636285,0.0
0.043000000000000003,8.928745143816505,-1.0928745654902356,10.0,0.0,14.303095953932957,14.458165341281088,183.73728935061865,343.9126451636285,0.0
0.044,9.003434803878953,-1.1657357117418372,10.0,0.0,14.435905075304468,14.541568025557758,193.338983656781,343.9126451636285,0.0
0.045,9.034999287904414,-1.294848569000329,10.0,0.0,14.577247355802411,14.62718615690173,194.56157805005233,343.9126451636285,0.0
0.046,9.034122658889897,-1.463612004497488,10.0,0.0,14.730290070717066,14.718788777192957,198.2633270821786,343.9126451636285,0.0
0.047,9.047989934955218,-1.5916802579010074,10.0,0.0,14.88958864968879,14.815001240289188,207.13878526838377,343.9126451636285,0.0
0.048,9.029198736388047,-1.7630934534102232,10.0,0.0,15.060153386044943,14.919728019576018,211.85865428703488,343.9126451636285,0.0
0.049,8.991893694759797,-1.9569723505503722,10.0,0.0,15.243746873424488,15.03495423716321,212.85031900698672,343.9126451636285,0.0
0.05,8.959767207435661,-2.132745962160369,10.0,0.0,15.437899942130503,15.160178044919013,220.07028070876007,343.9126451636285,0.0
0.051000000000000004,8.932876292482433,-2.2897418599215245,10.0,0.0,15.640671897379116,15.294931514541455,228.80545980643103,343.9126451636285,0.0
0.052000000000000005,8.882195401370286,-2.4796751262800356,10.0,0.0,15.855964704386933,15.441792821599309,236.54200419942563,343.9126451636285,0.0
0.053,8.822652172200852,-2.6769779685471877,10.0,0.0,16.084218341385565,15.601540224949677,243.2156536985498,343.9126451636285,0.0
0.054,8.752399054932468,-2.884133532987917,10.0,0.0,16.32643543868517,15.775270662272707,249.7107536050115,343.9126451636285,0.0
0.055,8.680917320045474,-3.08331330743551,10.0,0.0,16.581642089531957,15.963010225258284,255.4450968444695,343.9126451636285,0.0
0.056,8.607420969746062,-3.274465970172317,10.0,0.0,16.849137026749187,16.164866278214035,261.08188299221644,343.9126451636285,0.0
0.057,8.526780172222384,-3.4659631649994243,10.0,0.0,17.129221240343885,16.381421743820546,267.366727980039,343.9126451636285,0.0
0.058,8.441379361047535,-3.653244951092648,10.0,0.0,17.421638603661748,16.61291776547987,274.0459659875829,343.9126451636285,0.0
0.059000000000000004,8.352558546150533,-3.8336995714532303,10.0,0.0,17.725941023192483,16.859422202831972,281.04669194770923,343.9126451636285,0.0
0.06,8.263944123833264,-4.001210481608848,10.0,0.0,18.041085298418874,17.12056581670787,287.1228471021671,343.9126451636285,0.0
0.061,8.184188753402244,-4.1414316942378155,10.0,0.0,18.36457873179785,17.394996443243063,292.69766590463763,343.9126451636285,0.0
0.062,8.115179709044947,-4.2526854474094895,10.0,0.0,18.69400158521503,17.681126791637613,297.79160016495877,343.9126451636285,0.0
0.063,8.061200339266916,-4.3304310759331575,10.0,0.0,19.026534669735845,17.976834030766444,302.4129609473232,343.9126451636285,0.0
0.064,8.027550912024807,-4.3694816825526965,10.0,0.0,19.35890328016037,18.27938549773333,306.3780903004474,343.9126451636285,0.0
0.065,8.019975697414186,-4.364914426614548,10.0,0.0,19.687397272019734,18.585415458380716,309.5728492481811,343.9126451636285,0.0
0.066,8.043983050986501,-4.313090180330731,10.0,0.0,20.007989866226072,18.890975261110242,311.979318017526,343.9126451636285,0.0
0.067,8.104381741266936,-4.21215517104643,10.0,0.0,20.316494572726285,19.191634560592327,313.755126398766,343.9126451636285,0.0
0.068,8.204744529232489,-4.062519792863075,10.0,0.0,20.60876419701737,19.482642481002827,315.02625420287654,343.9126451636285,0.0
0.069,8.346777877585438,-3.8674128155624627,10.0,0.0,20.88094223719915,19.759156531362205,315.43334168869046,343.9126451636285,0.0
0.07,8.53165745295208,-3.630146720062122,10.0,0.0,21.129405677666657,20.01632056089702,315.61309597884565,343.9126451636285,0.0
0.07100000000000001,8.75918336356912,-3.354942937651506,10.0,0.0,21.35083942193074,20.249435477110907,316.6408065828832,343.9126451636285,0.0
0.07200000000000001,9.014138708798455,-3.069095413727605,10.0,0.0,21.54475009358228,20.45561244726075,314.04055460828346,343.9126451636285,0.0
0.073,9.28848035705583,-2.7872105736089177,10.0,0.0,21.711738537909827,20.632934759704746,306.59136677628777,343.9126451636285,0.0
0.074,9.597081846145494,-2.4843919657719264,10.0,0.0,21.849269170588144,20.7780209380198,296.0851054322088,343.9126451636285,0.0
0.075,9.952563355015647,-2.1357289778755715,10.0,0.0,21.9522306152399,20.886334610686372,294.7398731440699,343.9126451636285,0.0
0.076,10.337876473252074,-1.7629626471221571,10.0,0.0,22.018209616189232,20.955283432634154,292.3742993337118,343.9126451636285,0.0
0.077,10.68861818204427,-1.4677457373129412,10.0,0.0,22.05573940246693,20.989206815697315,279.3150414001289,343.9126451636285,0.0
0.078,11.069404949971515,-1.1409629158135652,10.0,0.0,22.059914607156326,20.985111711697847,277.1835682034549,343.9126451636285,0.0
0.079,11.462754180573848,-0.8014466211842481,10.0,0.0,22.029183816782613,20.94238309088029,275.3399249993393,343.9126451636285,0.0
0.08,11.73801342389319,-0.664060360531659,10.0,0.0,21.985535917639023,20.874509228648016,280.13341728282376,343.9126451636285,0.0
0.081,11.83543189011981,-0.7964652284917011,10.0,0.0,21.95540382026869,20.801094523872862,290.01486700737996,343.9126451636285,0.0
0.082,11.790620951382797,-1.1155756821032685,10.0,0.0,21.954721563375543,20.737911467761535,292.0059075228844,343.9126451636285,0.0
0.083,11.700673398374057,-1.4557651783329664,10.0,0.0,21.98201896660975,20.690424613015615,298.90812354461417,343.9126451636285,0.0
0.084,11.57858217207011,-1.7957400990637598,10.0,0.0,22.03583329036401,20.662946743431068,310.4207650533392,343.9126451636285,0.0
0.085,11.41533963269346,-2.157767661025315,10.0,0.0,22.11794167739286,20.660333860248773,318.37401541212284,343.9126451636285,0.0
0.08600000000000001,11.20807236319184,-2.5556794514147927,10.0,0.0,22.23172795872383,20.687360078339022,323.93093812197793,343.9126451636285,0.0
0.08700000000000001,10.993062077258164,-2.931715689485102,10.0,0.0,22.374223102014565,20.74464076151102,330.41352705778326,343.9126451636285,0.0
0.088,10.768554679280419,-3.2908209423606682,10.0,0.0,22.54393801472903,20.83298860161311,337.96848997483175,343.9126451636285,0.0
0.089,10.536444188628618,-3.631667743592517,10.0,0.0,22.739418315789006,20.95276022896836,346.4885361883745,343.9126451636285,0.0
0.09,10.29819733873571,-3.9534702081934086,6.1876882221014355,0.0,22.959317552572294,20.684634476706936,352.8982063166501,343.9126451636285,0.0
0.091,9.793774670972182,-4.108155887546938,2.8929975464334223,0.0,23.144211690533993,20.19412239176055,359.8553813025841,343.9126451636285,0.0
0.092,9.03577896629655,-4.077787286324892,-0.7450173079231277,0.0,23.256677803276915,19.48225150271912,360.42788231998793,343.9126451636285,0.0
0.093,8.048326558343366,-3.864953166022792,-1.1964201881886476,0.0,23.263602148620393,18.94057995339858,358.44770795772473,343.9126451636285,0.0
0.094,7.12067015935948,-3.5882231792018366,-0.35168363499801014,0.0,23.187354947150183,18.643370723006754,356.34397107356824,343.9126451636285,0.0
0.095,6.421739013137243,-3.348599770826995,0.575871547980837,0.0,23.065420267734787,18.529447262197465,353.8614957156543,343.9126451636285,0.0
0.096,5.98624494126957,-3.1637590899839854,1.7176207214175427,0.0,22.926350469371023,18.57195457321904,351.15527160621986,343.9126451636285,0.0
0.097,5.803043530414869,-3.0332238196333563,2.9983065117088588,0.0,22.792927909015656,18.741559332975093,348.066835898925,343.9126451636285,0.0
0.098,5.840855812386666,-2.945161521389913,4.5009824580033335,0.0,22.68142658056816,19.027357491784052,344.5010232861965,343.9126451636285,0.0
0.099,6.072147933640324,-2.890031699749702,6.278004983141877,0.0,22.60447154344832,19.428807409651462,340.7216332382767,343.9126451636285,0.0
0.1,6.47846249315683,-2.864043255421938,8.199610126355312,0.0,22.573049571167548,19.93364149218796,336.26702867742614,343.9126451636285,0.0
0.101,7.037540445645057,-2.8645261236482797,10.0,0.0,22.59556620431668,20.506241374732976,329.58040288198805,343.9126451636285,0.0
0.10200000000000001,7.735853189404322,-2.842701974839878,10.0,0.0,22.670685677354214,20.93460541131333,325.30766556075037,343.9126451636285,0.0
0.10300000000000001,8.421406621398717,-2.7306103167699374,10.0,0.0,22.769017765846424,21.259217241457602,325.10394564461626,343.9126451636285,0.0
0.10400000000000001,9.041370529649912,-2.5452065256792835,10.0,0.0,22.870704328064562,21.49986060184898,325.57085108634885,343.9126451636285,0.0
0.105,9.586641543034396,-2.315223723519887,10.0,0.0,22.962842499773387,21.67282811003324,317.9559800549798,343.9126451636285,0.0
0.106,10.064182540469472,-2.0708450899972335,10.0,0.0,23.038481783463872,21.790635884985967,305.72708778390756,343.9126451636285,0.0
0.107,10.544225241183351,-1.738982776913626,10.0,0.0,23.084276848176614,21.856197523708282,301.41245993553304,343.9126451636285,0.0
0.108,11.01348823586259,-1.3702081394717842,10.0,0.0,23.094801983302546,21.87296400262207,296.7385840933509,343.9126451636285,0.0
0.109,11.422146809071082,-1.0703464778648488,10.0,0.0,23.076654216404915,21.84884653405092,284.00758105960983,343.9126451636285,0.0
0.11,11.8518297870653,-0.7195648878763343,10.0,0.0,23.022322121057258,21.782147493799844,290.4818562363097,343.9126451636285,0.0
0.111,12.148392032159446,-0.5780461312802823,10.0,0.0,22.954694083893585,21.6883601308587,295.48638945458777,343.9126451636285,0.0
0.112,12.170221373988232,-0.8486749743956024,10.0,0.0,22.915634474460816,21.597753095345077,299.48153036389465,343.9126451636285,0.0
0.113,12.132347685968947,-1.1572915485683573,10.0,0.0,22.902661657147803,21.51668520153995,310.28390761623194,343.9126451636285,0.0
0.114,12.023297654031621,-1.5195297978004656,10.0,0.0,22.919639373859386,21.454043582016947,317.74274896445974,343.9126451636285,0.0
0.115,11.842532909414608,-1.9452864378197368,10.0,0.0,22.971866004857304,21.4181575177059,322.63011922047104,343.9126451636285,0.0
0.116,11.646388377552451,-2.3456184385954795,10.0,0.0,23.055060320009474,21.410850973984413,329.56996375857716,343.9126451636285,0.0
0.117,11.426946199976697,-2.7393689080680956,10.0,0.0,23.168513780908505,21.434771710365006,338.0094146111284,343.9126451636285,0.0
0.11800000000000001,11.189564921385635,-3.1229577591206557,10.0,0.0,23.311271238276742,21.491563238066707,347.1780352166024,343.9126451636285,0.0
0.11900000000000001,10.936481322362411,-3.4966511313040174,5.88218832641195,0.0,23.48270248510798,21.12945745774701,357.3848211171081,343.9126451636285,0.0
0.12,10.382569516181015,-3.7079035762466126,0.6440736166242864,0.0,23.62028086444597,20.344090341491373,361.42507491111644,343.9126451636285,0.0
0.121,9.416702448220267,-3.687381821088207,-1.5511775778547543,0.0,23.661194776707738,19.562627549914144,361.96232555138084,343.9126451636285,0.0
0.122,8.306340453677073,-3.517490094915141,-2.0002997018644795,0.0,23.601388146258167,18.94843265574468,360.44882322838856,343.9126451636285,0.0
0.123,7.281483220875859,-3.30804327927613,-1.4089103210159397,0.0,23.46480245697804,18.56085131674335,357.8513608447819,343.9126451636285,0.0
0.124,6.482342203897355,-3.133811331132923,-0.24956628602413122,0.0,23.28604615658643,18.397640432294374,355.36396077244973,343.9126451636285,0.0
0.125,5.962890814219414,-3.0284455601289295,0.8796205940537307,0.0,23.098996482460077,18.39464036540457,353.1942939736932,343.9126451636285,0.0
0.126,5.698821448910303,-2.9805065770678794,1.8716375053313374,0.0,22.926132138630702,18.494918445518085,351.16454137974955,343.9126451636285,0.0
0.127,5.637616906370764,-2.959986668805139,2.8139948401419614,0.0,22.778804237117324,18.665713226979975,348.7201410590614,343.9126451636285,0.0
0.128,5.730145390027817,-2.942412416201422,3.9881200415317046,0.0,22.661560635197695,18.913635760321423,345.63097085240395,343.9126451636285,0.0
0.129,5.955927494638203,-2.920878284515345,5.515521887972678,0.0,22.578640634844746,19.2574038845608,342.07198078628414,343.9126451636285,0.0
0.13,6.315327974812643,-2.9016237141032257,7.3134235648060235,0.0,22.536486785522545,19.703722130555118,338.6013217497575,343.9126451636285,0.0
0.131,6.808471252286465,-2.8952896242186084,9.101866317208046,0.0,22.542675941548822,20.2292910972933,332.04827029380044,343.9126451636285,0.0
0.132,7.4305159599449535,-2.880572752323879,10.0,0.0,22.599247563636712,20.72033887547569,327.2712934407057,343.9126451636285,0.0
0.133,8.11556017305793,-2.798845857514903,10.0,0.0,22.69042401162401,21.08982328485488,324.8186752604638,343.9126451636285,0.0
0.134,8.758560795061886,-2.6405881089999217,10.0,0.0,22.792840172361938,21.367597271805558,324.9738901859226,343.9126451636285,0.0
0.135,9.333437362766755,-2.4254272304021947,10.0,0.0,22.890706996560546,21.571029059907474,322.3269771880876,343.9126451636285,0.0
0.136,9.832797294553895,-2.1937963376987093,10.0,0.0,22.975802527738075,21.714723524799524,310.49496391715286,343.9126451636285,0.0
0.137,10.307056352113833,-1.9044607522366452,10.0,0.0,23.037247346813267,21.80538319930639,301.7210650507216,343.9126451636285,0.0
0.138,10.785912173148951,-1.541961816295927,10.0,0.0,23.06463212433276,21.84518983853183,301.17746066672265,343.9126451636285,0.0
0.139,11.223920766683838,-1.205620887347317,10.0,0.0,23.059886575197915,21.840361904508192,288.24045010980126,343.9126451636285,0.0
0.14,11.631571306339904,-0.8980047512259706,10.0,0.0,23.024658421890322,21.79508073554661,282.34397799770625,343.9126451636285,0.0
0.14100000000000001,12.06296143897709,-0.5367792603042325,10.0,0.0,22.951766324377157,21.707428458956898,295.359423231592,343.9126451636285,0.0
0.14200000000000002,12.157643293920206,-0.7126873782261729,10.0,0.0,22.90036035683697,21.615151097557472,295.9358011567799,343.9126451636285,0.0
0.14300000000000002,12.149541352849269,-1.0028118427459765,10.0,0.0,22.875021859828816,21.528798907611204,303.40003427777384,343.9126451636285,0.0
0.14400000000000002,12.072362958249759,-1.3424442960254757,10.0,0.0,22.8780403187424,21.456956690953987,315.08410533239805,343.9126451636285,0.0
0.145,11.923031627141274,-1.7416545797748304,10.0,0.0,22.91408951677853,21.408255204329787,319.49617593782796,343.9126451636285,0.0
0.146,11.733234027531509,-2.1551021575917284,10.0,0.0,22.983150777071003,21.38741320881761,325.60572685669183,343.9126451636285,0.0
0.147,11.527619472701819,-2.5467849668371585,10.0,0.0,23.08217234502183,21.39628116392106,333.56829307858084,343.9126451636285,0.0
