timestamp,iq,id,iq_ref,id_ref,vq,vd,omega,omega_ref,r
0.0,0.0,0.0,0.0,0.0,0.0,0.0,0.0,251.76924771417387,0.0
0.001,0.0,0.0,10.0,0.0,0.0,1.0999999999999999,8.415418751088575,251.76924771417387,0.0
0.002,0.3657198259560331,-0.18600769530021627,10.0,0.0,0.1304608464830238,1.9497708191448364,17.50527649981408,251.76924771417387,0.0
0.003,0.7648527682663453,-0.4103318107247523,10.0,0.0,0.35566826597592566,2.687363215628917,25.984130681648193,251.76924771417387,0.0
0.004,1.1273253747131997,-0.6128658818610647,10.0,0.0,0.6521496898386944,3.3378364571278287,34.83468534639533,251.76924771417387,0.0
0.005,1.4334806144237993,-0.7810545702968901,10.0,0.0,1.0005057104816548,3.922858166559429,44.01286938340873,251.76924771417387,0.0
0.006,1.684454203967957,-0.917928766244295,10.0,0.0,1.3859025746733358,4.459667764659416,53.274739550800845,251.76924771417387,0.0
0.007,1.8893813583814811,-1.0288005253289176,10.0,0.0,1.7972678637956818,4.961303838278522,62.60173972051106,251.76924771417387,0.0
0.008,2.058457657731684,-1.119088406260292,10.0,0.0,2.226483180679309,5.43736371206357,72.01303881995011,251.76924771417387,0.0
0.009000000000000001,2.2003883962300526,-1.1937674679360357,10.0,0.0,2.667694771228096,5.894817511917153,81.38885410812563,251.76924771417387,0.0
0.01,2.322073296961628,-1.256768478051764,10.0,0.0,3.1167139032033364,6.33868105914477,90.73507240026203,251.76924771417387,0.0
0.011,2.4289018360858163,-1.3107602052384968,10.0,0.0,3.570526556593196,6.772525874550804,100.034829617187,251.76924771417387,0.0
0.012,2.5247995732525683,-1.357773661322781,10.0,0.0,4.026973989082078,7.198887008058119,109.21901320865325,251.76924771417387,0.0
0.013000000000000001,2.612697878247983,-1.3991388297188396,10.0,0.0,4.484492825635527,7.619546935285763,118.46273927628911,251.76924771417387,0.0
0.014,2.695150021359373,-1.43506663395186,10.0,0.0,4.941864178038066,8.035702000753687,127.43928058528388,251.76924771417387,0.0
0.015,2.7730134778598035,-1.4673755302340195,10.0,0.0,5.3983086022958515,8.448238236131143,136.1931005129862,251.76924771417387,0.0
0.016,2.848321730313553,-1.4950344209988422,10.0,0.0,5.853081596686913,8.85766001719172,144.78459420024168,251.76924771417387,0.0
0.017,2.9220041015021776,-1.518251261243586,10.0,0.0,6.305596733264198,9.264264941279132,153.14089626189238,251.76924771417387,0.0
0.018000000000000002,2.9949510600951887,-1.5369156620170172,10.0,0.0,6.755341764275129,9.668173544882194,161.21897490918803,251.76924771417387,0.0
0.019,3.068071856615887,-1.550643712475333,10.0,0.0,7.201826594087952,10.069351973194689,168.9842939383,251.76924771417387,0.0
0.02,3.1421704968349347,-1.5590870703503819,10.0,0.0,7.644572272612414,10.467641399198332,176.3658389964686,251.76924771417387,0.0
0.021,3.2179874860166144,-1.5619383125868491,10.0,0.0,8.083101528952053,10.86277756804626,183.4813042186637,251.76924771417387,0.0
0.022,3.2964828797667396,-1.558515085753255,10.0,0.0,8.516886409168464,11.254376722222664,190.17052304069668,251.76924771417387,0.0
0.023,3.378064211134212,-1.5490498273556015,10.0,0.0,8.945445770625469,11.642005456490148,196.43683507089227,251.76924771417387,0.0
0.024,3.463711256300468,-1.532873622097719,10.0,0.0,9.368227339369131,12.025121891821971,202.20588389949538,251.76924771417387,0.0
0.025,3.553876330147016,-1.5101947636411253,10.0,0.0,9.784709482393959,12.403143152823521,207.4787811139654,251.76924771417387,0.0
0.026000000000000002,3.6493461811584966,-1.4806997755493687,10.0,0.0,10.194327877110936,12.775410469154597,212.2359907864879,251.76924771417387,0.0
0.027,3.7505203029023217,-1.4446971171042953,10.0,0.0,10.596545821441278,13.141238438442558,216.45370464688423,251.76924771417387,0.0
0.028,3.857943836139638,-1.402237960417351,10.0,0.0,10.990814287616272,13.499900557796096,220.126743114956,251.76924771417387,0.0
0.029,3.971862371354682,-1.3538067209791866,10.0,0.0,11.376619274337791,13.850666508290495,223.23559162926196,251.76924771417387,0.0
0.03,4.092592673645911,-1.2996979030021487,10.0,0.0,11.753452699853504,14.192795214507722,225.80622842921952,251.76924771417387,0.0
0.031,4.2201479572580505,-1.2405974300396938,10.0,0.0,12.12085568959327,14.525570614480372,227.80255636078053,251.76924771417387,0.0
0.032,4.354629927211335,-1.1769266186170406,10.0,0.0,12.478383135829457,14.848291309570993,229.30490416003403,251.76924771417387,0.0
0.033,4.495807853019507,-1.1095118159575164,10.0,0.0,12.825650986772768,15.160307927636808,230.30656109270885,251.76924771417387,0.0
0.034,4.6437303744068545,-1.0385654982767503,10.0,0.0,13.162263767510037,15.460989970895842,230.9925212704563,251.76924771417387,0.0
0.035,4.797858322744894,-0.965113838238224,10.0,0.0,13.487913255072058,15.749790238799392,235.05395313630476,251.76924771417387,0.0
0.036000000000000004,4.953297729023283,-0.8974251527918677,10.0,0.0,13.80316658186951,16.02671837346155,243.66660504614555,251.76924771417387,0.0
0.037,5.03808984970382,-0.9505790075615026,8.812009156492664,0.0,14.121111200332557,16.169027295339344,252.93830473894351,251.76924771417387,0.0
0.038,5.071615382295914,-0.9907353070292224,4.164468739845983,0.0,14.425377903530837,15.826710362101295,256.1248629748257,251.76924771417387,0.0
0.039,4.90333851062224,-0.9842278895290482,2.5276334692983706,0.0,14.66386886416579,15.434321028123122,261.3054527387638,251.76924771417387,0.0
0.04,4.651839200102407,-0.9455402726347966,-0.15802346291657177,0.0,14.835081231656059,14.85194796920854,263.5231530695554,251.76924771417387,0.0
0.041,4.307562981804981,-0.8772772493433143,-1.3844126818661948,0.0,14.923813000112721,14.272242599079648,265.68871214515644,251.76924771417387,0.0
0.042,3.9374554693593122,-0.8055880084901992,-2.6063868639765397,0.0,14.938497868449906,13.674496739152726,266.73744205675246,251.76924771417387,0.0
0.043000000000000003,3.5609238352215606,-0.7360517649579581,-3.2804337632003318,0.0,14.88500756958066,13.113785939589388,266.6792895438779,251.76924771417387,0.0
0.044,3.203737626439533,-0.6782825675276734,-3.400457925060108,0.0,14.775135971359994,12.632860167907772,266.2439033968862,251.76924771417387,0.0
0.045,2.8901684152822065,-0.6393257839637072,-3.3275114083913655,0.0,14.624451401575502,12.229184923163897,265.49058864774867,251.76924771417387,0.0
0.046,2.6263635667423495,-0.6206577487182448,-3.0880674431583484,0.0,14.446803848253712,11.902300958152717,264.62300501360113,251.76924771417387,0.0
0.047,2.4131877264473522,-0.6200580789902471,-2.782813199078853,0.0,14.254353370445354,11.64233545545394,263.6228429660289,251.76924771417387,0.0
0.048,2.2456884796077548,-0.6339110197554251,-2.4012681278112806,0.0,14.056681210329405,11.444332029392251,262.58198375947615,251.76924771417387,0.0
0.049,2.1189960220558643,-0.65850450459674,-1.9889658849879335,0.0,13.861542677543778,11.30016070378534,261.5644698179426,251.76924771417387,0.0
0.05,2.0272158231391124,-0.690371057815688,-1.5781611352588527,0.0,13.674760251481695,11.200787054807845,260.5186496493028,251.76924771417387,0.0
0.051000000000000004,1.9642023790567262,-0.7260212325917299,-1.1427450702902386,0.0,13.50032155682124,11.142473924631043,259.5195686780434,251.76924771417387,0.0
0.052000000000000005,1.9259003670647936,-0.7628446023475587,-0.7207077942992393,0.0,13.341189487534532,11.118201264593488,258.68885832726136,251.76924771417387,0.0
0.053,1.90792060997651,-0.7986857825961688,-0.3745487250390864,0.0,13.199117655302533,11.115894541649515,257.3971520162755,251.76924771417387,0.0
0.054,1.904132022956874,-0.8311915047210346,0.2150253874328123,0.0,13.074239551630583,11.161239816457329,256.35384843870673,251.76924771417387,0.0
0.055,1.9217361070031784,-0.8620003596048589,0.6908311689718802,0.0,12.969447702622578,11.234031313146449,255.46149263024765,251.76924771417387,0.0
0.056,1.9552416946868583,-0.8908753707525947,1.1000866240406855,0.0,12.885282350861706,11.325814943703296,254.42053806493604,251.76924771417387,0.0
0.057,2.000825690763161,-0.914688388423412,1.5940510031888682,0.0,12.821042579164914,11.445568019492427,253.67837314628264,251.76924771417387,0.0
0.058,2.060873670943332,-0.9327561069095068,1.946042208194481,0.0,12.776951411073476,11.574551761433046,253.05503853667898,251.76924771417387,0.0
0.059000000000000004,2.127270697733652,-0.9472223736311484,2.2448516047712594,0.0,12.751578346139762,11.708873940798714,251.76103459599216,251.76924771417387,0.0
0.06,2.2003586010655667,-0.9513694852212617,2.891935706296487,0.0,12.742486325243686,11.888042053837843,251.36582654306616,251.76924771417387,0.0
0.061,2.2923141467691717,-0.95175632043986,3.0935739444705614,0.0,12.752221398499271,12.054709287673269,250.8057640441173,251.76924771417387,0.0
0.062,2.382407723561077,-0.9529407525178917,3.3832400306455606,0.0,12.777776106989243,12.226539454558152,248.49477041779122,251.76924771417387,0.0
0.063,2.481533837086456,-0.9391634678015093,4.571481616772427,0.0,12.816431015679122,12.501549052495871,250.016692901607,251.76924771417387,0.0
0.064,2.6185204604379235,-0.9333782910011512,3.828045922990203,0.0,12.878222796692908,12.645185571898086,246.95727005652907,251.76924771417387,0.0
0.065,2.719073333476889,-0.9197050401262715,5.4058771221056166,0.0,12.946752845717304,12.951942456501207,247.09543683788198,251.76924771417387,0.0
0.066,2.8777326010356563,-0.8989012283580556,5.383531840192082,0.0,13.036953891513818,13.200193373843737,247.0114912887194,251.76924771417387,0.0
0.067,3.023165229133393,-0.8909792234902569,5.473082179027909,0.0,13.142296542047161,13.428302297707578,243.592749917638,251.76924771417387,0.0
0.068,3.174282591739602,-0.8562058082512174,7.264217842533973,0.0,13.256169964285931,13.82509543022997,246.4914623826867,251.76924771417387,0.0
0.069,3.3733748371344485,-0.854816212380807,5.867639463324492,0.0,13.398530236159713,14.001672640008525,241.07719369902807,251.76924771417387,0.0
0.07,3.5265379743830216,-0.8166044751759778,8.681694345305267,0.0,13.540122806690144,14.483482954163193,245.52653731790895,251.76924771417387,0.0
0.07100000000000001,3.764771956723869,-0.8120610738577754,6.51944963982748,0.0,13.715619494810044,14.64060992084806,239.21711894059686,251.76924771417387,0.0
0.07200000000000001,3.929194753688427,-0.7665311239615983,9.799680116219292,0.0,13.884316350311042,15.166317491291622,244.30999328389527,251.76924771417387,0.0
0.073,4.1896020467757396,-0.7642917761360747,7.327835488872876,0.0,14.088923248544452,15.324618202198936,238.44747174611857,251.76924771417387,0.0
0.074,4.375514268216042,-0.7025966933959804,10.0,0.0,14.282135462422099,15.788359802908758,241.29166378637538,251.76924771417387,0.0
0.075,4.62064599835755,-0.695788101165904,9.06714755624252,0.0,14.502268620665046,16.070607682909596,248.18038697763012,251.76924771417387,0.0
0.076,4.81045452930231,-0.7119026455462693,5.658674567980588,0.0,14.730453936887931,15.962612965360902,253.61684614861258,251.76924771417387,0.0
0.077,4.790588733932428,-0.7642908975522302,2.921968998144971,0.0,14.930622812010517,15.625366691190202,258.9892761124704,251.76924771417387,0.0
0.078,4.639832950221375,-0.7504550925570808,0.16355373223309222,0.0,15.075004351134238,15.082187786651398,261.0029236224131,251.76924771417387,0.0
0.079,4.353442643125743,-0.7166502793754403,-0.9356067818206504,0.0,15.147049674491685,14.544436798535461,263.30816456907,251.76924771417387,0.0
0.08,4.033661125466247,-0.6641491673551623,-2.203616423698066,0.0,15.152678292511375,13.971488049972475,264.31360626693464,251.76924771417387,0.0
0.081,3.689610161493472,-0.6167885151763972,-2.8317808581579866,0.0,15.095764513253336,13.434626837556346,264.9114771878064,251.76924771417387,0.0
0.082,3.3597556020957886,-0.5751896900682265,-3.2621386133301833,0.0,14.986753726439373,12.9375461516257,264.7105338677187,251.76924771417387,0.0
0.083,3.053770449184444,-0.5484586941635639,-3.2910798148217943,0.0,14.83641152841532,12.51075232222064,264.2927747668623,251.76924771417387,0.0
0.084,2.78787104038609,-0.537419485010497,-3.2074355349204713,0.0,14.657477164205368,12.147283022196449,263.83871366939246,251.76924771417387,0.0
0.085,2.5630630739425078,-0.5420538468438227,-3.1010996457377407,0.0,14.460709478307193,11.835197602985582,262.9236557843941,251.76924771417387,0.0
0.08600000000000001,2.3747948923522317,-0.5581057180367671,-2.755114783940762,0.0,14.25412938129064,11.590100353322317,261.96633399625546,251.76924771417387,0.0
0.08700000000000001,2.2257451179423615,-0.5846209155766913,-2.378424752692257,0.0,14.046453722026875,11.401343667112267,260.9875213413464,251.76924771417387,0.0
0.088,2.1117067290000926,-0.6194524188413477,-1.9812011615094507,0.0,13.844236273452196,11.261676503354026,259.94392194278805,251.76924771417387,0.0
0.089,2.027865531861178,-0.6595508316179339,-1.5411482045164213,0.0,13.652336363731933,11.168270048267402,259.08761862340947,251.76924771417387,0.0
0.09,1.9709643974246869,-0.7023285222456378,-1.1861802539194857,0.0,13.474590361316324,11.105080905529775,258.1855835737696,251.76924771417387,0.0
0.091,1.9335346607731412,-0.7445051789269597,-0.7993260876954968,0.0,13.312511700197179,11.072988615290319,257.3390378139089,251.76924771417387,0.0
0.092,1.9133345602074217,-0.783951380520305,-0.43175110876249523,0.0,13.167348991774455,11.066310107679005,256.4369075893724,251.76924771417387,0.0
0.093,1.9071973885168627,-0.8196123551873464,-0.027362595246255506,0.0,13.039562948630316,11.087063254564304,255.30462076059354,251.76924771417387,0.0
0.094,1.9148213909399416,-0.8512738232634874,0.5034270886789916,0.0,12.929756976230822,11.146405450559831,254.37392694508077,251.76924771417387,0.0
0.095,1.9400976394523566,-0.8804284951036015,0.9427272041263066,0.0,12.839756219892486,11.229143798263676,253.45653506441272,251.76924771417387,0.0
0.096,1.9789915514956586,-0.9060894109441788,1.3845502709579427,0.0,12.769560527982426,11.334790203920663,252.54073804519018,251.76924771417387,0.0
0.097,2.0307186840738454,-0.9266097713523912,1.8347338772590485,0.0,12.718949676315574,11.462653320382593,252.00173661910236,251.76924771417387,0.0
0.098,2.0945348482249964,-0.9421740870029216,2.1019097012536747,0.0,12.687693092579073,11.591054037877194,251.22417337296324,251.76924771417387,0.0
0.099,2.161818620221561,-0.9521116015750194,2.496142067735343,0.0,12.673339722412107,11.737419774043614,249.9189178526637,251.76924771417387,0.0
0.1,2.2393927098274347,-0.9528635861889725,3.1672731265002145,0.0,12.675041606040294,11.929735380239329,250.12082301620822,251.76924771417387,0.0
0.101,2.336610439593795,-0.9525510054193541,3.082804791707609,0.0,12.695762958194436,12.077068577385216,248.67764653921108,251.76924771417387,0.0
0.10200000000000001,2.4219133231326686,-0.9486966877081483,3.835309041955806,0.0,12.728724645707219,12.286949601015547,247.2610639184688,251.76924771417387,0.0
0.10300000000000001,2.5351480874854415,-0.9319242497517541,4.588682190283994,0.0,12.777571841833659,12.54288189960432,248.5794252497805,251.76924771417387,0.0
0.10400000000000001,2.6661784660160457,-0.9287595543733934,3.9613997492720747,0.0,12.846947156094279,12.68828989395743,244.56540620503665,251.76924771417387,0.0
0.105,2.7698513847839186,-0.9076813573311806,6.040447686735377,0.0,12.921638783643294,13.050969000553216,246.48882620375207,251.76924771417387,0.0
0.106,2.9469080095979856,-0.8943711035759334,5.131541902481887,0.0,13.023875813154326,13.245639744059938,244.3485616062098,251.76924771417387,0.0
0.107,3.0808591016104026,-0.8810744751062407,6.275881062332655,0.0,13.134026687470815,13.553069427719986,244.04251002802383,251.76924771417387,0.0
0.108,3.256788008088075,-0.8514930701084198,6.506174228287149,0.0,13.2607844544566,13.836647418309745,243.82286726762277,251.76924771417387,0.0
0.109,3.4251636795972975,-0.8378931628866464,6.6954594129531895,0.0,13.40202406805836,14.106299790391589,241.65451145033273,251.76924771417387,0.0
0.11,3.6052583613310807,-0.7978491605548388,7.880784684236618,0.0,13.551836116323845,14.47347715634431,242.68756976615708,251.76924771417387,0.0
0.111,3.8071647197301086,-0.7898316253904614,7.455072305804611,0.0,13.72290320751329,14.739827623581409,240.18339861858044,251.76924771417387,0.0
0.112,4.005811769999912,-0.7432538337936168,8.823016370548867,0.0,13.898455254583501,15.131548612174237,240.9254005427423,251.76924771417387,0.0
0.113,4.226344859087847,-0.7356010318891366,8.560453880182255,0.0,14.095248165512444,15.436819222730056,239.69084037767934,251.76924771417387,0.0
0.114,4.452125887129215,-0.6884264374420705,9.29851803607868,0.0,14.297776169033938,15.792424163181794,241.49384420245656,251.76924771417387,0.0
0.115,4.676220595931104,-0.672235708536796,8.499770158807241,0.0,14.514302632013347,16.015085894193884,251.68433263382195,251.76924771417387,0.0
0.116,4.798199799951525,-0.7410986358362497,3.405375093928064,0.0,14.739179451088026,15.673561354684493,253.06060077239525,251.76924771417387,0.0
0.117,4.695023351115406,-0.7407065386167857,2.7043274940592026,0.0,14.906684374337157,15.375074867108896,259.4189827701409,251.76924771417387,0.0
0.11800000000000001,4.509398023679498,-0.7451916654741149,-0.5513608553732796,0.0,15.028087441430312,14.791459299706476,260.35000800319693,251.76924771417387,0.0
0.11900000000000001,4.212343203767546,-0.6899204864360605,-1.102681074791541,0.0,15.072863964111157,14.281077032027895,262.9870406922925,251.76924771417387,0.0
0.12,3.8915757016672754,-0.6508227273806946,-2.5333753491205155,0.0,15.058376566050343,13.706661352435152,263.2480219763234,251.76924771417387,0.0
0.121,3.554059336298011,-0.6012441358974925,-2.7786537337574564,0.0,14.982833672363741,13.209483946598445,263.86871569183137,251.76924771417387,0.0
0.122,3.240324031092826,-0.5693660737288253,-3.2099952712880153,0.0,14.862116526538408,12.740610926613641,263.46778137087796,251.76924771417387,0.0
0.123,2.9528205446147924,-0.5488764910353505,-3.126513447378351,0.0,14.704648719822531,12.348537940510683,263.1423069505311,251.76924771417387,0.0
0.124,2.7067961972486816,-0.5449681762239276,-3.077506829568505,0.0,14.523495376365629,12.008669025411905,262.62631893162865,251.76924771417387,0.0
0.125,2.4982407174408934,-0.5543471471008008,-2.928083532291815,0.0,14.3275412456891,11.721099023304848,261.72033165061805,251.76924771417387,0.0
0.126,2.3247583625068424,-0.5737760607068393,-2.5746007311509587,0.0,14.124468918657424,11.497076987738247,260.7842905482415,251.76924771417387,0.0
0.127,2.1882792515723084,-0.6024921333727622,-2.1967306083033455,0.0,13.92226609962944,11.326458687180418,259.7287923477962,251.76924771417387,0.0
0.128,2.0846342946577776,-0.6385113906956614,-1.7485769544169192,0.0,13.726896690027333,11.208236289625862,258.9349144797369,251.76924771417387,0.0
0.129,2.0115783484069776,-0.6792593770497901,-1.423294688042915,0.0,13.543364067555707,11.120598408147266,258.03560899932927,251.76924771417387,0.0
0.13,1.959652978574328,-0.7208615247224113,-1.0363055606906522,0.0,13.373589675563833,11.067668265133463,257.1432631782127,251.76924771417387,0.0
0.131,1.927101907484877,-0.7608907764949473,-0.6438728047727511,0.0,13.219486904688011,11.045412773220807,256.42037269763597,251.76924771417387,0.0
0.132,1.9113569278510354,-0.7983814768207268,-0.32893881431901084,0.0,13.082292546226624,11.042097401851404,255.24168614254484,251.76924771417387,0.0
0.133,1.9072585347300222,-0.8315564284114768,0.22568007894284614,0.0,12.961760424146153,11.083546243574032,254.2835968243423,251.76924771417387,0.0
0.134,1.9225680399802332,-0.8622805012620366,0.6795812469424243,0.0,12.860474296943654,11.151454898954958,253.4599875009983,251.76924771417387,0.0
0.135,1.9527153699772462,-0.8907350264502821,1.0744785107461878,0.0,12.778930405041693,11.238180652168792,252.4881908753974,251.76924771417387,0.0
0.136,1.9945122824397155,-0.9141177972023026,1.5531873919343964,0.0,12.716501037182153,11.35249225809281,251.78062356631887,251.76924771417387,0.0
0.137,2.050435870878735,-0.9319753225982141,1.9068572879522172,0.0,12.673476266787002,11.477512740784876,251.21183285563495,251.76924771417387,0.0
