timestamp,iq,id,iq_ref,id_ref,vq,vd,omega,omega_ref,r
0.0,0.0,0.0,0.0,0.0,0.0,0.0,0.0,448.84834984052355,0.0
0.001,0.0,0.0,10.0,0.0,0.0,1.0999999999999999,9.222395574630047,448.84834984052355,0.0
0.002,0.4311406591395537,-0.2212706764048165,10.0,0.0,0.13433977440452977,1.9425745274946489,17.783909212306384,448.84834984052355,0.0
0.003,0.7873522952187997,-0.4213044991034856,10.0,0.0,0.35929403785087694,2.679453706302964,26.460386769424762,448.84834984052355,0.0
0.004,1.0754335818910685,-0.5766561676482858,10.0,0.0,0.6505291381463623,3.337013568401926,35.550880120136455,448.84834984052355,0.0
0.005,1.307479932919332,-0.6999541998271165,10.0,0.0,0.9904059814764186,3.9352966685741544,44.824066070176315,448.84834984052355,0.0
0.006,1.4970602852303867,-0.7991096369136328,10.0,0.0,1.3657975682484207,4.489205767818232,54.20947714202645,448.84834984052355,0.0
0.007,1.6548788590136618,-0.8798635865804942,10.0,0.0,1.76693228636012,5.00979887622205,63.691668106199465,448.84834984052355,0.0
0.008,1.788711864981457,-0.9468805246766795,10.0,0.0,2.1865771671949426,5.505302700678034,73.2247331566426,448.84834984052355,0.0
0.009000000000000001,1.9043949012869021,-1.0035013156684145,10.0,0.0,2.619366060020011,5.98183382683798,82.77255604406876,448.84834984052355,0.0
0.01,2.0063184927650584,-1.0520809220402536,10.0,0.0,3.061306724969551,6.443935964964896,92.30524648777119,448.84834984052355,0.0
0.011,2.0977703021266385,-1.0943016188540824,10.0,0.0,3.509422017822632,6.89498149265908,101.79443274566152,448.84834984052355,0.0
0.012,2.1812390724460804,-1.1313250303226825,10.0,0.0,3.961480702453231,7.337466950227636,111.21205332134896,448.84834984052355,0.0
0.013000000000000001,2.258636744617075,-1.1639140133238108,10.0,0.0,4.415796618393064,7.773230674266775,120.52908885923746,448.84834984052355,0.0
0.014,2.331463297903572,-1.1925263786741729,10.0,0.0,4.871078785501356,8.203612673356185,129.71478604956496,448.84834984052355,0.0
0.015,2.4009300467587917,-1.2173861239492216,10.0,0.0,5.3263193841345124,8.629571612406266,138.736236116245,448.84834984052355,0.0
0.016,2.4680510040622003,-1.2385396601169858,10.0,0.0,5.780710108335064,9.051770079599835,147.55826527148915,448.84834984052355,0.0
0.017,2.5337098857951568,-1.2559015472401427,10.0,0.0,6.233579879056787,9.470636505076516,156.14363229487563,448.84834984052355,0.0
0.018000000000000002,2.5987081153036455,-1.269293188998125,10.0,0.0,6.68434877697615,9.886410048649093,164.45350964635423,448.84834984052355,0.0
0.019,2.6637977376357047,-1.2784768032496545,10.0,0.0,7.132494420610927,10.299173251494908,172.4482252529171,448.84834984052355,0.0
0.02,2.729702156823525,-1.2831860465716152,10.0,0.0,7.577528000789705,10.708876108532278,180.0884074459564,448.84834984052355,0.0
0.021,2.797126560339697,-1.2831545578224806,10.0,0.0,8.018977952458718,11.11535439768889,187.30546293968087,448.84834984052355,0.0
0.022,2.866795423100385,-1.278083928097995,10.0,0.0,8.456373283494294,11.518340522228225,194.07951889234823,448.84834984052355,0.0
0.023,2.9393994320668444,-1.2677474599628735,10.0,0.0,8.889241388682622,11.917477815058485,200.40792283803717,448.84834984052355,0.0
0.024,3.0155236149022113,-1.2521114716718789,10.0,0.0,9.317119818604485,12.312340569102323,206.25225117183737,448.84834984052355,0.0
0.025,3.095772322435139,-1.231126346526822,10.0,0.0,9.739544677055498,12.702438774733697,211.5925967238048,448.84834984052355,0.0
0.026000000000000002,3.1806953959134465,-1.2048341738695334,10.0,0.0,10.156054582483698,13.08723059463975,216.41170985070445,448.84834984052355,0.0
0.027,3.2707756068335643,-1.1733708720608933,10.0,0.0,10.56619463788731,13.46613463063159,220.7012950533347,448.84834984052355,0.0
0.028,3.366418299325649,-1.1369617052902283,10.0,0.0,10.969520716023052,13.838542374499673,224.4606173840814,448.84834984052355,0.0
0.029,3.4679403138285134,-1.095916232074904,10.0,0.0,11.365604050346047,14.20383095712413,227.69339368730738,448.84834984052355,0.0
0.03,3.5755684152949385,-1.0506090377097965,10.0,0.0,11.754034572851186,14.561375143902165,230.406795617159,448.84834984052355,0.0
0.031,3.6894372634622683,-1.0014629944654496,10.0,0.0,12.134423468970382,14.910558671969167,232.67995182791915,448.84834984052355,0.0
0.032,3.8094694066275583,-0.9491390796864967,10.0,0.0,12.506427658091129,15.250797889574885,234.35981756406304,448.84834984052355,0.0
0.033,3.9360222215080354,-0.8934130946183263,10.0,0.0,12.869648730850649,15.581493116126897,235.6417046612244,448.84834984052355,0.0
0.034,4.068318442196873,-0.8358555851525775,10.0,0.0,13.223843152798876,15.902153871172697,236.52419457523487,448.84834984052355,0.0
0.035,4.206595751145611,-0.7761889632031758,10.0,0.0,13.56869645473708,16.212280451131264,244.15436931094757,448.84834984052355,0.0
0.036000000000000004,4.314842703464622,-0.7731144434253483,10.0,0.0,13.910335553521252,16.515355311622198,254.86914885188318,448.84834984052355,0.0
0.037,4.375870632457722,-0.8399516779277028,10.0,0.0,14.255501069469142,16.8166559932764,265.85922025406734,448.84834984052355,0.0
0.038,4.4284149433945394,-0.9125578879159555,10.0,0.0,14.603598412741343,17.117173563446848,277.14999534558797,448.84834984052355,0.0
0.039,4.47030430862905,-0.9942383805636235,10.0,0.0,14.955196570794731,17.41836672386105,289.15751922937176,448.84834984052355,0.0
0.04,4.503012779907655,-1.081684034364016,10.0,0.0,15.310556446075772,17.721421345850864,301.38997956734727,448.84834984052355,0.0
0.041,4.5262283356791215,-1.1740622039561124,10.0,0.0,15.66997293814481,18.027479866747726,314.2070783507183,448.84834984052355,0.0
0.042,4.5386230189423316,-1.2721636993336196,10.0,0.0,16.03392101589224,18.33774292516057,327.5981609058351,448.84834984052355,0.0
0.043000000000000003,4.54053669448061,-1.373588633793684,10.0,0.0,16.402676319543044,18.65328792803029,341.0164464431829,448.84834984052355,0.0
0.044,4.5313989924614955,-1.477451257306744,10.0,0.0,16.776521232357567,18.975178244955607,354.64294623440884,448.84834984052355,0.0
0.045,4.511912824681522,-1.5808002073836007,10.0,0.0,17.1555004438565,19.304316122905444,368.2332370355076,448.84834984052355,0.0
0.046,4.4829299407096235,-1.680744459210942,10.0,0.0,17.539455900200764,19.64143138976931,381.50358727140684,448.84834984052355,0.0
0.047,4.446524130691126,-1.7730053886008694,10.0,0.0,17.927876597311602,19.986945485843524,394.1608165439473,448.84834984052355,0.0
0.048,4.405723578308723,-1.8527675335868534,10.0,0.0,18.319857860973343,20.340874244683288,406.1664197988291,448.84834984052355,0.0
0.049,4.364437139625759,-1.9152332793484257,10.0,0.0,18.71410748473679,20.702741756736543,416.7329074363141,448.84834984052355,0.0
0.05,4.327992673196165,-1.955049577212666,10.0,0.0,19.10887403263668,21.071443506881252,425.5318316117332,448.84834984052355,0.0
0.051000000000000004,4.302827914708745,-1.9670213574382753,10.0,0.0,19.501952833607213,21.44515541557079,432.25269120242905,448.84834984052355,0.0
0.052000000000000005,4.29498062781484,-1.9485029614479863,10.0,0.0,19.890938203988462,21.821415567461894,436.7469411610206,448.84834984052355,0.0
0.053,4.3105243631506545,-1.8981620924800269,10.0,0.0,20.27329874089413,22.19715995744612,438.935774193895,448.84834984052355,0.0
0.054,4.354302008063838,-1.8172183447012922,10.0,0.0,20.646597259541675,22.56890585853541,438.47631517778257,448.84834984052355,0.0
0.055,4.428999294865027,-1.7100170951752192,10.0,0.0,21.00875781646331,22.933028096281525,436.3628143127736,448.84834984052355,0.0
0.056,4.538808963414644,-1.5770265243493014,10.0,0.0,21.357557591171794,23.285622075272737,431.7548799148646,448.84834984052355,0.0
0.057,4.678903119820715,-1.4312633258781091,10.0,0.0,21.692032740185,23.623524373316513,426.60606926774614,448.84834984052355,0.0
0.058,4.854550909915661,-1.2672140625512125,10.0,0.0,22.010262817119994,23.943163641110846,417.3795571803594,448.84834984052355,0.0
0.059000000000000004,5.046693791657717,-1.1163311930707338,10.0,0.0,22.313677190131344,24.24328275072857,412.4081278919743,448.84834984052355,0.0
0.06,5.277118858476143,-0.9423623396286169,10.0,0.0,22.599134291619517,24.520306058153047,401.25854607900203,448.84834984052355,0.0
0.061,5.52738154848522,-0.7702792462357473,10.0,0.0,22.86655856196251,24.77294809975108,392.5949122361471,448.84834984052355,0.0
0.062,5.778600570300889,-0.6296573620157673,10.0,0.0,23.118757033100742,25.001936898723976,403.8951659565493,448.84834984052355,0.0
0.063,5.956077722469048,-0.630196659499867,10.0,0.0,23.370100078587896,25.216236368393062,421.07282805050477,448.84834984052355,0.0
0.064,5.981627168994546,-0.8312366437257874,10.0,0.0,23.63984777178325,25.433204528047842,441.5846807192119,448.84834984052355,0.0
0.065,5.985990587482843,-1.0225100903853908,9.843776795801135,0.0,23.92334719091484,25.638041607026338,458.43474869585805,448.84834984052355,0.0
0.066,5.933426721858856,-1.2488392107841768,1.3228788189247247,0.0,24.2219638448084,24.920834034009253,470.332308262531,448.84834984052355,0.0
0.067,5.501002601493268,-1.28329088739615,-4.8407405486318265,0.0,24.420524469234216,23.75946074760475,476.808144891703,448.84834984052355,0.0
0.068,4.8375348799953946,-1.2190638722428266,-8.358256813729632,0.0,24.475682214144022,22.477447464959198,479.1668521029939,448.84834984052355,0.0
0.069,4.119279043339435,-1.1069654241876268,-9.84079544199978,0.0,24.385434297163748,21.27362066342761,478.23743587551877,448.84834984052355,0.0
0.07,3.455123071388355,-0.9887909636242465,-9.669978188612163,0.0,24.171950285546927,20.280641633054564,474.6720448721545,448.84834984052355,0.0
0.07100000000000001,2.916017519736908,-0.8867177273632738,-8.145519637246345,0.0,23.870470460671417,19.58425442363565,469.8457546356141,448.84834984052355,0.0
0.07200000000000001,2.5420018377754348,-0.817147350485701,-5.942348566927056,0.0,23.52286788824763,19.19021285439178,464.190508844299,448.84834984052355,0.0
0.073,2.335267601679012,-0.7807955694979676,-3.2681472613072557,0.0,23.16731842400197,19.0919462268959,458.3162649733958,448.84834984052355,0.0
0.074,2.287436141590824,-0.7750110228432195,-0.42570447718436455,0.0,22.83722446110913,19.257072127171096,452.55822988381135,448.84834984052355,0.0
0.075,2.3780814164725204,-0.7940781463623348,2.4162142671749773,0.0,22.558807713586752,19.646413380329918,447.43455748375754,448.84834984052355,0.0
0.076,2.583557440902198,-0.8314503498529032,4.99218839076954,0.0,22.351087037281268,20.202220889633992,442.35790706612846,448.84834984052355,0.0
0.077,2.875900748143038,-0.8746973186822764,7.595418027328033,0.0,22.224102624073062,20.912168095610394,440.1835416347003,448.84834984052355,0.0
0.078,3.2451059405531963,-0.9211462947641293,8.769248825100345,0.0,22.18548829046402,21.603822092964993,433.35597711283356,448.84834984052355,0.0
0.079,3.6214389835348255,-0.9435384219170646,10.0,0.0,22.221899434177356,22.30838899568059,430.36024454120366,448.84834984052355,0.0
0.08,4.0186101012636986,-0.9356329124499236,10.0,0.0,22.324032626478004,22.893907318226617,420.73847987493025,448.84834984052355,0.0
0.081,4.385929528586028,-0.8832782189616297,10.0,0.0,22.468824370614144,23.394653701919925,415.4000710275799,448.84834984052355,0.0
0.082,4.723887724558922,-0.8139761434777846,10.0,0.0,22.64211189733766,23.826302414373725,406.3686098711804,448.84834984052355,0.0
0.083,5.064286129692089,-0.6987455217921652,10.0,0.0,22.829253195003627,24.198050765649576,396.19303951392584,448.84834984052355,0.0
0.084,5.380319820663666,-0.5984720826070777,10.0,0.0,23.02497742593708,24.519978689608912,391.68135770825864,448.84834984052355,0.0
0.085,5.70108525715049,-0.47723807984931765,10.0,0.0,23.22098902026162,24.797162383161808,410.58076199164276,448.84834984052355,0.0
0.08600000000000001,5.827317761913692,-0.6394715498807666,10.0,0.0,23.44417584624003,25.055550945632785,426.1659894888385,448.84834984052355,0.0
0.08700000000000001,5.8832938226795735,-0.8412325523155426,10.0,0.0,23.691454221435205,25.305524292817893,444.13695644893113,448.84834984052355,0.0
0.088,5.880897241018939,-1.0788471340317858,7.706903499412473,0.0,23.96312208779381,25.303810912329702,462.00297865726435,448.84834984052355,0.0
0.089,5.758855402550459,-1.2459263191463363,-1.3576538929215456,0.0,24.223454394013174,24.368665944790262,470.44327343683267,448.84834984052355,0.0
0.09,5.225211112509706,-1.2460935779737228,-5.793750518668796,0.0,24.362586579476538,23.213224103237636,476.0787844861367,448.84834984052355,0.0
0.091,4.5626953271721815,-1.1715935834915698,-8.883810389776956,0.0,24.364064690256978,21.9592343383089,477.13987493680537,448.84834984052355,0.0
0.092,3.866118913544637,-1.0606041925956062,-9.697270866074096,0.0,24.228532180412767,20.842209554915144,475.4367786117952,448.84834984052355,0.0
0.093,3.2518841967076058,-0.9508823796414094,-9.111606991281729,0.0,23.983890937697602,19.956491684582264,471.4237081712639,448.84834984052355,0.0
0.094,2.7727238232492053,-0.861540852286237,-7.330825354323487,0.0,23.666411682341142,19.371476112240703,466.44807504991235,448.84834984052355,0.0
0.095,2.4593382418726297,-0.8053986882588027,-5.019006045741593,0.0,23.316896572516704,19.079387289388904,460.67881083066345,448.84834984052355,0.0
0.096,2.3075742232321206,-0.779790576901198,-2.2526785460185437,0.0,22.970868620780468,19.07629385596025,454.85714988884206,448.84834984052355,0.0
0.097,2.3088233462709105,-0.7834574555450087,0.5980639244089674,0.0,22.659793558639386,19.32317032372997,449.6353639530476,448.84834984052355,0.0
0.098,2.4396469951740447,-0.8109745273098797,3.201086751180956,0.0,22.407503858597085,19.75769861460029,444.53704765857407,448.84834984052355,0.0
0.099,2.669136142947609,-0.8491752076254027,5.793357920237218,0.0,22.2278228617631,20.358729136941754,440.1937085566395,448.84834984052355,0.0
0.1,2.9837084707650345,-0.8914929491598321,8.051573884043354,0.0,22.13048596161229,21.071861487111615,437.33464737217656,448.84834984052355,0.0
0.101,3.3572222737842137,-0.932071052424992,9.596241500958282,0.0,22.11823640043738,21.813337395418042,431.94974248113084,448.84834984052355,0.0
0.10200000000000001,3.7567013671234224,-0.9531070035765598,10.0,0.0,22.183267559804612,22.468199953264648,427.3124508629164,448.84834984052355,0.0
0.10300000000000001,4.137768025551035,-0.932478334380253,10.0,0.0,22.304802345896682,23.022119244779276,417.58268555557885,448.84834984052355,0.0
0.10400000000000001,4.495026590132286,-0.8666676692497419,10.0,0.0,22.46254269605861,23.497312310231976,411.99763721813895,448.84834984052355,0.0
0.105,4.824127220806268,-0.7911847613668563,10.0,0.0,22.6443833045338,23.908131620427266,403.25659031768373,448.84834984052355,0.0
0.106,5.159536976849127,-0.6704381367170562,10.0,0.0,22.836594483548357,24.262448993592585,392.65280940786363,448.84834984052355,0.0
0.107,5.473657731022969,-0.5641835496690133,10.0,0.0,23.03453574364919,24.56935656194412,399.4677268290093,448.84834984052355,0.0
0.108,5.745462093347033,-0.5183098035885068,10.0,0.0,23.239390068376725,24.83861022715667,413.20497213471106,448.84834984052355,0.0
0.109,5.851128366236441,-0.6859864639572502,10.0,0.0,23.469587497254132,25.092518711926147,429.91282790029476,448.84834984052355,0.0
0.11,5.877185730227749,-0.9181434199269289,10.0,0.0,23.72601653027373,25.34224644379626,450.93510872272327,448.84834984052355,0.0
0.111,5.87700771746501,-1.1331152667073416,3.741295689066849,0.0,24.00310076676452,24.904466986622488,462.02396716175735,448.84834984052355,0.0
0.112,5.568444456404812,-1.2307517071461223,-1.934889703662531,0.0,24.21728892386932,24.010320727313264,471.5410857574674,448.84834984052355,0.0
0.113,5.032811488879078,-1.2241827216465178,-6.920376360686984,0.0,24.31894468652337,22.791200225117276,475.40584026686537,448.84834984052355,0.0
0.114,4.349632544947309,-1.1375262331554907,-9.118328519649394,0.0,24.27905629881339,21.582030832647906,475.8534890584084,448.84834984052355,0.0
0.115,3.6780264691388767,-1.0272428533612499,-9.612204307599757,0.0,24.110975203735027,20.524487604469172,473.31121010956014,448.84834984052355,0.0
0.116,3.1000084247297583,-0.9226418241052574,-8.585693435865991,0.0,23.84354461592641,19.730611467497614,469.0360660414207,448.84834984052355,0.0
0.117,2.6706879210259546,-0.8436700272109389,-6.649998563805258,0.0,23.51582858583568,19.23348628761502,463.96613588168475,448.84834984052355,0.0
0.11800000000000001,2.4051255941861336,-0.7980565215676868,-4.266211344348882,0.0,23.16694387311395,19.021080319046547,458.1597012242274,448.84834984052355,0.0
0.11900000000000001,2.296158332079895,-0.7805794193466175,-1.4561075294572339,0.0,22.83024068861966,19.089630799069553,452.3942950822332,448.84834984052355,0.0
0.12,2.3342957889261005,-0.7912213319282156,1.3911360891227513,0.0,22.53540825198329,19.397466879661565,447.4069789928255,448.84834984052355,0.0
0.121,2.4956572599663462,-0.8236993364752107,3.8992078423035954,0.0,22.304308828444103,19.875083177948866,442.47018878151414,448.84834984052355,0.0
0.122,2.7466847774116827,-0.8639371126098663,6.431384558549363,0.0,22.148182352416917,20.509287213100166,438.5765376324342,448.84834984052355,0.0
0.123,3.0810850032675257,-0.900204492776002,8.480928255170214,0.0,22.074675961564502,21.230312486929755,435.1613760422716,448.84834984052355,0.0
0.124,3.455071418382015,-0.9453629595476138,10.0,0.0,22.085227494723505,21.98069254585218,430.7826151633474,448.84834984052355,0.0
0.125,3.8661206140733135,-0.9523791481246786,10.0,0.0,22.17008207653461,22.600423487375075,423.9988797808756,448.84834984052355,0.0
0.126,4.227627827389661,-0.9345821333904832,10.0,0.0,22.306396460810365,23.131011491418896,417.39362098921964,448.84834984052355,0.0
0.127,4.585084127042596,-0.8478948539375528,10.0,0.0,22.47278057647045,23.586467012657256,407.73965524277196,448.84834984052355,0.0
0.128,4.907183882177358,-0.7689594079855804,10.0,0.0,22.660255806428165,23.981158983269488,401.81418987220144,448.84834984052355,0.0
0.129,5.234297472354798,-0.6532251416878164,10.0,0.0,22.8565112956181,24.322367782448104,390.80404041969973,448.84834984052355,0.0
0.13,5.557655355408243,-0.525481196290717,10.0,0.0,23.054367624476196,24.616783019393747,398.215860861856,448.84834984052355,0.0
0.131,5.777518172952515,-0.5567917829897076,10.0,0.0,23.26660144813391,24.8805910344313,418.4732554086296,448.84834984052355,0.0
0.132,5.851600983341441,-0.7568801385728385,10.0,0.0,23.505689304176762,25.133291149363522,434.7764523092585,448.84834984052355,0.0
0.133,5.883090385003639,-0.9622230430931553,10.0,0.0,23.766725222049956,25.381907032327863,453.2873510478344,448.84834984052355,0.0
0.134,5.860240341241248,-1.2001377571939111,2.2377365291410394,0.0,24.05063632593815,24.780744335819087,465.6234722728216,448.84834984052355,0.0
0.135,5.4880281182425374,-1.2518004831741893,-4.098075307675517,0.0,24.249343802503468,23.689487196101013,472.45065630764043,448.84834984052355,0.0
0.136,4.862445454225612,-1.2056289567039287,-7.747690389756114,0.0,24.313459322268912,22.454218948162442,475.40229831956384,448.84834984052355,0.0
0.137,4.168601606467278,-1.1050387599023292,-9.489050880508223,0.0,24.23703325888048,21.263902570445598,474.9655351174508,448.84834984052355,0.0
0.138,3.5110453860092212,-0.9932309157557191,-9.53184113222099,0.0,24.0379252031711,20.263074647153527,471.8288624281605,448.84834984052355,0.0
0.139,2.966571503605973,-0.8934853882047631,-8.193309913452197,0.0,23.7487912311143,19.543401612061185,467.3068599719589,448.84834984052355,0.0
0.14,2.5789863443229253,-0.8234765705279894,-6.116893786665742,0.0,23.409899838085025,19.118992573728327,461.98396427117046,448.84834984052355,0.0
0.14100000000000001,2.354395467506432,-0.7861666343913482,-3.5868020805779994,0.0,23.05905267572713,18.981510371184594,456.2327497806606,448.84834984052355,0.0
0.14200000000000002,2.2852806578597527,-0.77744061110715,-0.7850388347244293,0.0,22.72895524615074,19.110941432935423,450.56449836406307,448.84834984052355,0.0
0.14300000000000002,2.3558867534755477,-0.7943789349715511,2.0319253883389323,0.0,22.446761141565013,19.467810259017778,445.6130310679206,448.84834984052355,0.0
