timestamp,iq,id,iq_ref,id_ref,vq,vd,omega,omega_ref,r
0.0,0.0,0.0,0.0,0.0,0.0,0.0,0.0,282.75185325363265,0.0
0.001,0.0,0.0,10.0,0.0,0.0,1.0999999999999999,6.8731057377857185,282.75185325363265,0.0
0.002,0.3558242569468614,-0.18060547848812905,10.0,0.0,0.12986660263369415,1.950859331735845,14.609238696871824,282.75185325363265,0.0
0.003,0.7717847890689501,-0.39704744159220373,10.0,0.0,0.35383503933417043,2.687421974597514,22.74286852849297,282.75185325363265,0.0
0.004,1.1632225875147135,-0.5989765840050116,10.0,0.0,0.6491106826851339,3.3338266443352502,31.186819637166664,282.75185325363265,0.0
0.005,1.5016546312333383,-0.7697816165295904,10.0,0.0,0.9962684908283503,3.911805264609719,39.80019293334686,282.75185325363265,0.0
0.006,1.7836822107192778,-0.9079972143387064,10.0,0.0,1.3800040456184486,4.439063090364796,48.52595683342665,282.75185325363265,0.0
0.007,2.0160499058633703,-1.0175667336252268,10.0,0.0,1.788762318648471,4.929228518352382,57.3113616097058,282.75185325363265,0.0
0.008,2.2082293296011195,-1.1040226566127807,10.0,0.0,2.2140757635100163,5.392437171184501,66.10968785078198,282.75185325363265,0.0
0.009000000000000001,2.3693489403289725,-1.1726546340383524,10.0,0.0,2.6498636874555554,5.836054940276877,74.86348683416442,282.75185325363265,0.0
0.01,2.50705952509111,-1.2279231044932666,10.0,0.0,3.0918278078915633,6.2653527566380145,83.5798131034266,282.75185325363265,0.0
0.011,2.627535348518341,-1.2730046128809682,10.0,0.0,3.5369315791381823,6.68404196867726,92.27834904605032,282.75185325363265,0.0
0.012,2.7354862036436693,-1.3101550021292454,10.0,0.0,3.9830296221974972,7.094702800807733,100.85844283064023,282.75185325363265,0.0
0.013000000000000001,2.8340943536929237,-1.3414767077863308,10.0,0.0,4.428657827893725,7.499139966076926,109.32232006951875,282.75185325363265,0.0
0.014,2.925996942629035,-1.36788951587581,10.0,0.0,4.872759121380521,7.8985730321063405,117.65278133725656,282.75185325363265,0.0
0.015,3.013084781042178,-1.390031757929494,10.0,0.0,5.314565110666589,8.293812284545409,125.82652675167655,282.75185325363265,0.0
0.016,3.096787292350982,-1.4082262829340795,10.0,0.0,5.753494401597924,8.685371812809338,133.81807343799088,282.75185325363265,0.0
0.017,3.1782270244584474,-1.422557980549971,10.0,0.0,6.189081257750221,9.073546971921278,141.59655078393033,282.75185325363265,0.0
0.018000000000000002,3.2583215007069164,-1.4329520907496018,10.0,0.0,6.620926979344285,9.458467305670997,149.13574672348776,282.75185325363265,0.0
0.019,3.3378729163612375,-1.4392057357024206,10.0,0.0,7.048664121996724,9.840130467245658,156.40784467279016,282.75185325363265,0.0
0.02,3.4176052248305724,-1.4410542075418797,10.0,0.0,7.471934661994203,10.218425987153012,163.38357177872504,282.75185325363265,0.0
0.021,3.498197597810946,-1.4382050789524627,10.0,0.0,7.8903758111194335,10.593151171126232,170.0458536639493,282.75185325363265,0.0
0.022,3.5803271097133855,-1.430327766038699,10.0,0.0,8.303607350594845,10.964019629035189,176.36431763364638,282.75185325363265,0.0
0.023,3.6646165517702203,-1.4171774865769793,10.0,0.0,8.711234824301961,11.330673851593563,182.3080644478175,282.75185325363265,0.0
0.024,3.751670500068761,-1.3985582640948038,10.0,0.0,9.112848361215784,11.692692359374547,187.8533353241022,282.75185325363265,0.0
0.025,3.842077957795177,-1.3743257742972634,10.0,0.0,9.508023013563408,12.049596089201883,192.9808234086353,282.75185325363265,0.0
0.026000000000000002,3.9363931054811623,-1.3444157818740257,10.0,0.0,9.896322799390425,12.40085631961306,197.67454091027895,282.75185325363265,0.0
0.027,4.035120003950629,-1.3088588063778621,10.0,0.0,10.277306462295513,12.745903698211043,201.9227817377323,282.75185325363265,0.0
0.028,4.138703971648968,-1.2677780871245514,10.0,0.0,10.650533187406989,13.084137737777606,205.7184384987059,282.75185325363265,0.0
0.029,4.24752001452147,-1.2213883481715515,10.0,0.0,11.015568579871674,13.414937120859673,209.05916245239186,282.75185325363265,0.0
0.03,4.361863522804395,-1.1699890480418864,10.0,0.0,11.371990345773364,13.737670479397604,211.94750954278626,282.75185325363265,0.0
0.031,4.4819436083716395,-1.113953250145534,10.0,0.0,11.719393326171378,14.051707304342344,214.3910587567534,282.75185325363265,0.0
0.032,4.6078791693196495,-1.0537135400121793,10.0,0.0,12.05739368088836,14.356428633983802,216.40254372387474,282.75185325363265,0.0
0.033,4.7396976698107975,-0.9897463122011163,10.0,0.0,12.385632135139906,14.651237186688268,218.0001294985496,282.75185325363265,0.0
0.034,4.877336357680814,-0.9225558497421182,10.0,0.0,12.703776320644362,14.935566658886648,219.20813364452678,282.75185325363265,0.0
0.035,5.020645355354144,-0.8526597372164928,10.0,0.0,13.011522367064988,15.208889999550275,220.05883254600138,282.75185325363265,0.0
0.036000000000000004,5.169392143323735,-0.7805766645093566,10.0,0.0,13.308595966037375,15.470726554089673,220.41297395159086,282.75185325363265,0.0
0.037,5.323024526668408,-0.7072313037053362,10.0,0.0,13.594798701605097,15.72067471878416,228.76560749784525,282.75185325363265,0.0
0.038,5.438787736606485,-0.7019690984902454,10.0,0.0,13.877530591119879,15.963050711306218,237.83122262220405,282.75185325363265,0.0
0.039,5.519735199792085,-0.7506415998841889,10.0,0.0,14.161633488140874,16.201715704676523,246.05535490881476,282.75185325363265,0.0
0.04,5.585170054093252,-0.8186162034382396,10.0,0.0,14.448183076173798,16.43853612907062,255.32441253964976,282.75185325363265,0.0
0.041,5.63870877868945,-0.8978045779134649,10.0,0.0,14.73779072299958,16.675094558666032,264.67981720779596,282.75185325363265,0.0
0.042,5.68058558704271,-0.9865789534310578,10.0,0.0,15.031066745664504,16.912886848311572,274.51247341379326,282.75185325363265,0.0
0.043000000000000003,5.712322470820878,-1.0813833359812457,9.252366562533213,0.0,15.328335133352839,17.07091554400566,284.0488162193779,282.75185325363265,0.0
0.044,5.7063804633050434,-1.1700548314185206,4.471225530083442,0.0,15.620485372514342,16.72539001936888,289.9593499071761,282.75185325363265,0.0
0.045,5.512346696128746,-1.1844621225783256,1.4438837196489107,0.0,15.849566122369227,16.179720176602864,293.85954417443673,282.75185325363265,0.0
0.046,5.17453148730746,-1.1347741212050404,-0.6172903231894526,0.0,15.99556205989936,15.550289001789634,296.0157027366026,282.75185325363265,0.0
0.047,4.754158586113088,-1.047352770787351,-1.8280080991020737,0.0,16.054895817662945,14.928696190331912,296.66865345782946,282.75185325363265,0.0
0.048,4.311209653312426,-0.9481473607210515,-2.2936514617574852,0.0,16.03609853690128,14.380603097259476,296.3232308895781,282.75185325363265,0.0
0.049,3.8951598418779105,-0.8566754453063901,-2.2566539539912576,0.0,15.955301818313595,13.93550173482875,295.35719077494673,282.75185325363265,0.0
0.05,3.5366071545142583,-0.7845811947107582,-1.8996872718887134,0.0,15.831058986930229,13.601007494231597,294.0431102733776,282.75185325363265,0.0
0.051000000000000004,3.2496426007643855,-0.736423359240874,-1.3555595913015877,0.0,15.68121459522975,13.371803346638231,292.5729285187911,282.75185325363265,0.0
0.052000000000000005,3.036451170370694,-0.711661012753306,-0.7186794666599408,0.0,15.521191948181057,13.235732123344675,291.09719636510704,282.75185325363265,0.0
0.053,2.8918207016988724,-0.7065827357393157,-0.06426682093264535,0.0,15.363253456501212,13.176659784709155,289.68169535812774,282.75185325363265,0.0
0.054,2.8062595821038068,-0.715859421063108,0.5741852615120528,0.0,15.216272798281555,13.179351851849582,288.2413075025557,282.75185325363265,0.0
0.055,2.7689540908247845,-0.734290710055491,1.2394846468088496,0.0,15.08619408753383,13.237123050856944,286.74414798014766,282.75185325363265,0.0
0.056,2.7719454975033457,-0.758052540319818,1.9481414607477126,0.0,14.977329856200765,13.346706404921672,285.4050585766807,282.75185325363265,0.0
0.057,2.8103102087942387,-0.784123296462785,2.5911541092507178,0.0,14.892940548280569,13.493899619467353,284.10240616110343,282.75185325363265,0.0
0.058,2.8775255257589705,-0.8077726766629834,3.2289747879646384,0.0,14.834050216867542,13.674654692186728,282.9610942846129,282.75185325363265,0.0
0.059000000000000004,2.9684763288650498,-0.8278266720407383,3.7975383159001024,0.0,14.80109387155732,13.878276570606616,281.70495079503735,282.75185325363265,0.0
0.06,3.0773314922343147,-0.8428196109440267,4.43607908527383,0.0,14.79324403194568,14.111729916065677,279.77058877294814,282.75185325363265,0.0
0.061,3.2050887199382525,-0.851837268419802,5.433072741125277,0.0,14.810366523774416,14.411372094053858,279.91150703097975,282.75185325363265,0.0
0.062,3.3638788393200727,-0.8606086802457432,5.391017074336004,0.0,14.856615662945192,14.651976902665794,278.94319012164635,282.75185325363265,0.0
0.063,3.5181732170165527,-0.8538978892885585,5.913262160322565,0.0,14.921474467936537,14.915629180107235,277.73438512545096,282.75185325363265,0.0
0.064,3.6797142959621474,-0.8387881070283908,6.56783933970208,0.0,15.004617652033845,15.2099565742685,276.14308080649835,282.75185325363265,0.0
0.065,3.856937450468524,-0.8197172177839827,7.429579223649728,0.0,15.10693255714326,15.55353202665757,274.9222496696815,282.75185325363265,0.0
0.066,4.059960283500725,-0.8013477784131656,8.118290827897667,0.0,15.231543587542305,15.919562021857988,273.9679024462242,282.75185325363265,0.0
0.067,4.284533890952046,-0.7817465044770159,8.683303947700411,0.0,15.378324068682215,16.294041579224775,273.01635753928826,282.75185325363265,0.0
0.068,4.524089439417869,-0.7586848042921367,9.256431358311808,0.0,15.545533683163832,16.67903973868136,272.0712888056772,282.75185325363265,0.0
0.069,4.7769933333342,-0.7314222662043334,9.83577136959688,0.0,15.731753889955138,17.074831297929563,271.1326612736108,282.75185325363265,0.0
0.07,5.042866335568434,-0.700221660766501,10.0,0.0,15.935771790774856,17.43522047985697,269.74275290111683,282.75185325363265,0.0
0.07100000000000001,5.3066189875602126,-0.6593919891262441,10.0,0.0,16.15124756187929,17.751976185672813,267.96127590936607,282.75185325363265,0.0
0.07200000000000001,5.560310349372117,-0.6049894171110606,10.0,0.0,16.371275340249596,18.03333537473814,265.8534402873155,282.75185325363265,0.0
0.073,5.8032979023735365,-0.5385104961110778,10.0,0.0,16.59066760409955,18.284369705521915,273.3145058158177,282.75185325363265,0.0
0.074,5.987534332113751,-0.5438487125426997,9.724897042974282,0.0,16.814476067660383,18.484142372598072,284.4242478948715,282.75185325363265,0.0
0.075,6.092649033827867,-0.6249284269676054,4.153302057035006,0.0,17.044746337995157,18.06647394754848,288.63375956061213,282.75185325363265,0.0
0.076,5.957675854564887,-0.6465146535549726,1.989727161094887,0.0,17.211786426571862,17.547220300079378,293.35008723884994,282.75185325363265,0.0
0.077,5.686642216794571,-0.6274461592371589,-0.4744190178761878,0.0,17.30788374490315,16.875639663849537,296.18475369404854,282.75185325363265,0.0
0.078,5.3073592477289955,-0.57768406557534,-2.026081249879647,0.0,17.321930122418706,16.17379622956466,297.6885913657516,282.75185325363265,0.0
0.079,4.877270512015016,-0.5161287416890319,-2.9273674668523784,0.0,17.25811405406334,15.503433846150738,298.19998628108715,282.75185325363265,0.0
0.08,4.4434136066944605,-0.4588688808570922,-3.337546254794688,0.0,17.12796032274947,14.901042661966866,297.9632969990341,282.75185325363265,0.0
0.081,4.038652732438404,-0.41621408456934483,-3.371316051222193,0.0,16.946463417165262,14.38644746045735,297.2191396185254,282.75185325363265,0.0
0.082,3.6831057121288673,-0.3933187930530626,-3.143910224616751,0.0,16.729564747884616,13.96557699092273,296.1521157491383,282.75185325363265,0.0
0.083,3.386087580252541,-0.39116011896438274,-2.7444009148782715,0.0,16.492260397343973,13.635892191521986,294.9041514654129,282.75185325363265,0.0
0.084,3.1491701565342383,-0.40784874171165264,-2.2419417551333627,0.0,16.24757533716042,13.389811586772057,293.5722722607573,282.75185325363265,0.0
0.085,2.968906516956041,-0.4398231188423325,-1.6842063428768128,0.0,16.006101017777127,13.217656666345958,292.22063509934713,282.75185325363265,0.0
0.08600000000000001,2.839199243163765,-0.4827875790881,-1.1030755806288743,0.0,15.775964985145276,13.10938199947021,290.88077753593126,282.75185325363265,0.0
0.08700000000000001,2.7530066000331965,-0.5323565626068726,-0.5144360417439224,0.0,15.563038032673642,13.056044355680157,289.5901044949032,282.75185325363265,0.0
0.088,2.703614938466875,-0.5845017015640822,0.06251796635740803,0.0,15.371310286520277,13.048897482865238,288.3628206602227,282.75185325363265,0.0
0.089,2.6848146673699897,-0.6356896016643688,0.6200502096317395,0.0,15.203149845322208,13.080425642600627,287.20120786035307,282.75185325363265,0.0
0.09,2.6912368361821772,-0.6831493484713617,1.1563630634993642,0.0,15.059666957365256,13.144509592455059,285.83506065474364,282.75185325363265,0.0
0.091,2.718045338398752,-0.7257599689702752,1.8086045922929657,0.0,14.941153323976256,13.251335584601275,284.5350365531494,282.75185325363265,0.0
0.092,2.767311971093134,-0.7636026033893224,2.4407848100949288,0.0,14.848910236721881,13.393493778290026,283.27742846709043,282.75185325363265,0.0
0.093,2.8377247656863207,-0.7957265530240998,3.0643331009898263,0.0,14.783262485677453,13.567227612626581,282.1868832054974,282.75185325363265,0.0
0.094,2.9281618443512056,-0.820665707011113,3.615255432267697,0.0,14.743974960613347,13.762145311249448,281.02830560171446,282.75185325363265,0.0
0.095,3.0334674487100193,-0.8392780890249909,4.211779710678345,0.0,14.729905928399592,13.983071689123186,279.37633085362995,282.75185325363265,0.0
0.096,3.1537758426073417,-0.8524400743752345,5.071522308720628,0.0,14.74059813176298,14.256924101703607,279.067089491681,282.75185325363265,0.0
0.097,3.3018158640811492,-0.8588709090277769,5.2629906273146325,0.0,14.778182128006346,14.50184326400409,278.23830071627,282.75185325363265,0.0
0.098,3.4513670608428697,-0.855204578357339,5.722520540393759,0.0,14.836032036135151,14.759692285522581,277.1957402392108,282.75185325363265,0.0
0.099,3.6083784481116226,-0.8421219338696286,6.299361909067562,0.0,14.912479428015976,15.040622906493478,275.8263798390536,282.75185325363265,0.0
0.1,3.777895238440843,-0.8243838738297151,7.053296843291969,0.0,15.0075547826463,15.361192900569792,274.23983633457675,282.75185325363265,0.0
0.101,3.9685580839006778,-0.805717081377473,7.931688764720939,0.0,15.123303634651878,15.729019447619164,273.2955281613786,282.75185325363265,0.0
0.10200000000000001,4.187116154559361,-0.7881990269818493,8.49840610224254,0.0,15.262519938102832,16.10305845375938,272.4163002036675,282.75185325363265,0.0
0.10300000000000001,4.422381033539222,-0.7679912623380281,9.041375611597754,0.0,15.423170838255855,16.483981106303336,271.5117253757984,282.75185325363265,0.0
0.10400000000000001,4.670313555103756,-0.7432285991515086,9.606064304310653,0.0,15.603327098343886,16.874642716130758,270.61099177832943,282.75185325363265,0.0
0.105,4.930441127600015,-0.7139294803884519,10.0,0.0,15.80155861697379,17.255805122824,269.5157223453507,282.75185325363265,0.0
0.106,5.196486332909656,-0.6780863782568665,10.0,0.0,16.014433474363184,17.588071386894914,267.88079296866084,282.75185325363265,0.0
0.107,5.453517880986512,-0.6295551664909551,10.0,0.0,16.234267470147785,17.882785492062318,265.96352653476595,282.75185325363265,0.0
0.108,5.69976509211992,-0.5678120285367587,10.0,0.0,16.455283043813374,18.145494708547545,271.88652696614315,282.75185325363265,0.0
0.109,5.920367421401011,-0.5221694286479033,9.983094463883774,0.0,16.676064727152696,18.380371167668432,278.4483809971421,282.75185325363265,0.0
0.11,6.050480988315369,-0.5939565620509515,6.745202170949192,0.0,16.906608898743393,18.24573258328175,286.4771116755125,282.75185325363265,0.0
0.111,6.0250030768729745,-0.6456883087638465,2.6935842475452025,0.0,17.105607415540742,17.738416931775514,290.9476905169829,282.75185325363265,0.0
0.112,5.8032754499382175,-0.6422240077859136,0.3763364541765011,0.0,17.233076124933035,17.111486878911528,294.4203225202807,282.75185325363265,0.0
0.113,5.45940351092517,-0.6010000524272463,-1.4766642401388816,0.0,17.28060496602002,16.41494774085425,296.41590459419444,282.75185325363265,0.0
0.114,5.043576126536092,-0.5412510096153536,-2.611095790501369,0.0,17.24756685403686,15.728860230007353,297.28515014436834,282.75185325363265,0.0
0.115,4.607464378308193,-0.48032084765873573,-3.191051534495676,0.0,17.143118974780222,15.09944086117225,297.32421263686365,282.75185325363265,0.0
0.116,4.189553998108385,-0.4308679692195081,-3.356306374575638,0.0,16.98134343155698,14.551749190665841,296.7744256385896,282.75185325363265,0.0
0.117,3.8144816261043792,-0.3998805899724891,-3.2216385992881857,0.0,16.778062192672643,14.096193993688614,295.83902150559067,282.75185325363265,0.0
0.11800000000000001,3.4952122861198727,-0.3897149000733452,-2.8848082153082952,0.0,16.54874520588258,13.732939760683847,294.6741561604909,282.75185325363265,0.0
0.11900000000000001,3.2358519877712975,-0.3993890616360383,-2.4215985718269932,0.0,16.30720030914194,13.45600094866219,293.3926361406249,282.75185325363265,0.0
0.12,3.0345528209431754,-0.42584183619973637,-1.8872463907639259,0.0,16.06492908445957,13.256297477018364,292.0689799209159,282.75185325363265,0.0
0.121,2.886010024212795,-0.4649681338587661,-1.318589547582262,0.0,15.830954000077917,13.123872676982105,290.7461751944705,282.75185325363265,0.0
0.122,2.783424010787409,-0.5123728690245459,-0.73713040376792,0.0,15.611957202022449,13.049365819408548,289.45728343817717,282.75185325363265,0.0
0.123,2.719907270951199,-0.5638710415427097,-0.1597388274667102,0.0,15.412600149640515,13.02406943098952,288.2277074248915,282.75185325363265,0.0
0.124,2.6890898123278246,-0.6157254014179537,0.40029063746354154,0.0,15.235838161515964,13.039951054603728,287.0607563066153,282.75185325363265,0.0
0.125,2.6852868744664615,-0.6648535967952836,0.9406771660718092,0.0,15.08322609245804,13.09052068912018,285.81006232929104,282.75185325363265,0.0
0.126,2.703573215466303,-0.7094258993017662,1.5354420639773556,0.0,14.955343865079493,13.178742899874127,284.48782434704043,282.75185325363265,0.0
0.127,2.742918837816168,-0.7492151160833046,2.179201344168584,0.0,14.853003172335105,13.306075383608322,283.260207398699,282.75185325363265,0.0
0.128,2.8038444487565357,-0.7839963265272968,2.787926276888645,0.0,14.777057838219594,13.464654338512005,282.1015946630673,282.75185325363265,0.0
0.129,2.885064917061968,-0.8112798420919278,3.3737352306101305,0.0,14.727218307613674,13.649807604691741,281.0109512745839,282.75185325363265,0.0
0.13,2.983031192686273,-0.8325715691992756,3.936465944642339,0.0,14.702947311512482,13.857539794563621,279.74087664026166,282.75185325363265,0.0
0.131,3.0959478531428557,-0.8472143266001999,4.601613027937155,0.0,14.703274420051624,14.098169367966317,278.71825207246,282.75185325363265,0.0
0.132,3.2290944793057585,-0.8530003517551566,5.153261323649703,0.0,14.728121810270157,14.355281574304737,278.09410749080655,282.75185325363265,0.0
0.133,3.374169070077945,-0.8562312033062988,5.511911072104698,0.0,14.776493215519757,14.60847554968078,276.77453763446186,282.75185325363265,0.0
0.134,3.528282156647834,-0.845872247715352,6.231469156468748,0.0,14.844175084151487,14.901250466224713,275.6726220815357,282.75185325363265,0.0
0.135,3.69748927955262,-0.836197922952129,6.853219244652811,0.0,14.93340567140639,15.215641354180203,274.42190309701425,282.75185325363265,0.0
0.136,3.885459897680101,-0.8203927265371251,7.561878238479709,0.0,15.043510460373334,15.56026650373977,273.4515261726857,282.75185325363265,0.0
0.137,4.093138851947748,-0.8029318083434012,8.140069971453453,0.0,15.175304636362378,15.916989139140755,272.49861718300275,282.75185325363265,0.0
0.138,4.316238514820319,-0.7817962280580346,8.719056827001229,0.0,15.327441353643168,16.286661392007765,271.5696184147276,282.75185325363265,0.0
0.139,4.553406566615588,-0.7566440538863639,9.295378559527862,0.0,15.498776241126546,16.66832812426984,270.652306968287,282.75185325363265,0.0
