timestamp,iq,id,iq_ref,id_ref,vq,vd,omega,omega_ref,r
0.0,0.0,0.0,0.0,0.0,0.0,0.0,0.0,461.736025982828,0.0
0.001,0.0,0.0,10.0,0.0,0.0,1.0999999999999999,11.13514064035508,461.736025982828,0.0
0.002,0.8335029725604161,-0.4748811091075316,10.0,0.0,0.16223692200182846,1.8983146730183544,19.52894076447352,461.736025982828,0.0
0.003,1.6637618222111612,-0.9469886510381322,10.0,0.0,0.43526463762660034,2.550028127199078,29.019730685806298,461.736025982828,0.0
0.004,2.3323650535820044,-1.3266990472586675,10.0,0.0,0.7832079952719204,3.0986292405699203,38.56325093131569,461.736025982828,0.0
0.005,2.831887906479873,-1.6088789087305926,10.0,0.0,1.1784598092894985,3.578903096863155,48.25497547523152,461.736025982828,0.0
0.006,3.197404888384464,-1.8144767689485595,10.0,0.0,1.6020077935439003,4.015463109448297,58.02701620199245,461.736025982828,0.0
0.007,3.4684052414902027,-1.9659194251085244,10.0,0.0,2.041459694206792,4.42456705017778,67.68953701632283,461.736025982828,0.0
0.008,3.676768975054132,-2.0808384816279575,10.0,0.0,2.4890034685318794,4.816495779739626,77.42466111262989,461.736025982828,0.0
0.009000000000000001,3.8444047727588355,-2.1727195790344833,10.0,0.0,2.939943468530168,5.197629713365922,87.02730980017458,461.736025982828,0.0
0.01,3.986710632054276,-2.2488105802108356,10.0,0.0,3.391354061046591,5.571766967083964,96.57998023337316,461.736025982828,0.0
0.011,4.112963028594734,-2.31445692797533,10.0,0.0,3.8414975079255074,5.941166849655349,105.84441828694055,461.736025982828,0.0
0.012,4.229558861508202,-2.371740756218365,10.0,0.0,4.289211356002758,6.30707807100241,115.09453350852063,461.736025982828,0.0
0.013000000000000001,4.339786084758879,-2.4228918559186408,10.0,0.0,4.7337987240915895,6.670210518794052,124.20901798427114,461.736025982828,0.0
0.014,4.446428426396535,-2.4678753954168213,10.0,0.0,5.174677278498498,7.0308600732677755,133.3971606150733,461.736025982828,0.0
0.015,4.550974714694485,-2.5070227105835956,10.0,0.0,5.6113893021854535,7.389098859438419,141.89109921091438,461.736025982828,0.0
0.016,4.655733404665831,-2.538259701965488,10.0,0.0,6.043298598021118,7.7447069763468255,150.3120583307573,461.736025982828,0.0
0.017,4.760838817356604,-2.5626495518027737,10.0,0.0,6.46994828953234,8.09743120265169,158.4119357728361,461.736025982828,0.0
0.018000000000000002,4.86828709659125,-2.5778957075047444,10.0,0.0,6.890638613151768,8.446779718888282,166.13070947595656,461.736025982828,0.0
0.019,4.978753949739952,-2.5838269244905425,10.0,0.0,7.304694728344331,8.792185544809145,173.47949103133587,461.736025982828,0.0
0.02,5.093526962575201,-2.579293118196577,10.0,0.0,7.711327783747532,9.132936036776794,180.14915168450042,461.736025982828,0.0
0.021,5.214072091008062,-2.562901611772939,10.0,0.0,8.109614855163517,9.468162551088735,186.47652717371972,461.736025982828,0.0
0.022,5.340491067521585,-2.5356133788035953,10.0,0.0,8.4987580803067,9.796994484978915,192.29314784104434,461.736025982828,0.0
0.023,5.474724527510669,-2.4954200212895374,10.0,0.0,8.877721789327737,10.118356057160739,197.50740693606303,461.736025982828,0.0
0.024,5.617144680057449,-2.44290489702775,10.0,0.0,9.245550554571196,10.431153960846224,202.12072387999862,461.736025982828,0.0
0.025,5.768657599770337,-2.3777888065004236,10.0,0.0,9.601238614943465,10.734212731044558,206.0922105854256,461.736025982828,0.0
0.026000000000000002,5.929735090515501,-2.3004317837973494,10.0,0.0,9.94380563470628,11.026331035475451,209.40464214414575,461.736025982828,0.0
0.027,6.10069776331104,-2.211327918377719,10.0,0.0,10.272299927966774,11.306299092339474,212.04292644781043,461.736025982828,0.0
0.028,6.281628394307533,-2.1111879441121673,10.0,0.0,10.5858172390726,11.57292703016148,214.00181543341628,461.736025982828,0.0
0.029,6.472386450337252,-2.000867653865025,10.0,0.0,10.883511780665522,11.825069825458574,215.2904747866773,461.736025982828,0.0
0.03,6.672615960251972,-1.8813149777487226,10.0,0.0,11.164603556158536,12.061650129854925,215.94007988777383,461.736025982828,0.0
0.031,6.881748837375166,-1.753536646081534,10.0,0.0,11.428384094819656,12.281679259976535,216.01272273651043,461.736025982828,0.0
0.032,7.099000594762474,-1.6185918817506986,10.0,0.0,11.674223351867106,12.484277166410724,215.48869782262,461.736025982828,0.0
0.033,7.323044520382711,-1.4781478606634098,10.0,0.0,11.901639079176935,12.66872689366189,214.9577318774856,461.736025982828,0.0
0.034,7.553851432565853,-1.331392825647415,10.0,0.0,12.110019592840013,12.83432489983498,215.32952145670848,461.736025982828,0.0
0.035,7.788095180739473,-1.1827729038007977,10.0,0.0,12.299241214701121,12.980742413579799,220.07229323321138,461.736025982828,0.0
0.036000000000000004,7.9873726788027355,-1.0963626184452853,10.0,0.0,12.476163493579964,13.111862250831027,227.9645504182873,461.736025982828,0.0
0.037,8.070872113249152,-1.1920185641324714,10.0,0.0,12.659891785175189,13.240370169436536,234.80445439814028,461.736025982828,0.0
0.038,8.115141648631534,-1.3326831351031565,10.0,0.0,12.852614582821346,13.370365470793432,241.2003599358136,461.736025982828,0.0
0.039,8.134917692730832,-1.4937802911368,10.0,0.0,13.055378672292564,13.50490085228214,247.5281397318886,461.736025982828,0.0
0.04,8.134290884465416,-1.6708024406499198,10.0,0.0,13.269181355851646,13.646525813919293,255.91684474967388,461.736025982828,0.0
0.041,8.115395685992004,-1.8626068668563223,10.0,0.0,13.495094532606103,13.797440751498064,266.5178105903424,461.736025982828,0.0
0.042,8.08406450763554,-2.0603579900816333,10.0,0.0,13.733342464735717,13.95911299062888,278.3763263545599,461.736025982828,0.0
0.043000000000000003,8.043802050771163,-2.257952671714786,10.0,0.0,13.983690731312844,14.13255835753109,290.2028705725931,461.736025982828,0.0
0.044,7.995574951789381,-2.452968189944426,10.0,0.0,14.245824468111412,14.31859637072015,301.7871900507655,461.736025982828,0.0
0.045,7.93848791047931,-2.645831663543409,10.0,0.0,14.519613459462613,14.51804125982444,306.4653116233515,461.736025982828,0.0
0.046,7.862582358820765,-2.8531835832035433,10.0,0.0,14.80684811701575,14.732699299422764,320.013636607722,461.736025982828,0.0
0.047,7.762279659634313,-3.0843297414364046,10.0,0.0,15.11017767098242,14.964889242210496,333.17696735009037,461.736025982828,0.0
0.048,7.675688897125322,-3.269986986574782,10.0,0.0,15.424504099214092,15.212715103000248,343.25173043577433,461.736025982828,0.0
0.049,7.58039776787839,-3.4479653542609663,10.0,0.0,15.749901518695665,15.476807137126261,352.07809569390923,461.736025982828,0.0
0.05,7.474395244666335,-3.6238607210174596,10.0,0.0,16.08673710630804,15.757737076048686,363.5786529433814,461.736025982828,0.0
0.051000000000000004,7.38270951671199,-3.7565846233633557,10.0,0.0,16.4308228046419,16.053282984682966,373.54934776019826,461.736025982828,0.0
0.052000000000000005,7.306527954118631,-3.8475821131784174,10.0,0.0,16.77873700886199,16.361145986892932,381.7639540282992,461.736025982828,0.0
0.053,7.255382367249349,-3.8875033144126148,10.0,0.0,17.12612745011869,16.677878308233595,390.04735335479273,461.736025982828,0.0
0.054,7.227720289667108,-3.888016661547164,10.0,0.0,17.47010933555624,17.000207814231217,386.33404901276697,461.736025982828,0.0
0.055,7.2656409130664885,-3.789042957157018,10.0,0.0,17.801033742095534,17.320254668823075,394.14080471392595,461.736025982828,0.0
0.056,7.307537569300005,-3.7048426949726823,10.0,0.0,18.122598101643725,17.637159852657987,398.89523298413235,461.736025982828,0.0
0.057,7.456512650803231,-3.477651878869015,10.0,0.0,18.419547556471006,17.9385626616612,387.21514602572006,461.736025982828,0.0
0.058,7.630351607392155,-3.2492109279473493,10.0,0.0,18.694085750275555,18.221887600837082,391.836168164581,461.736025982828,0.0
0.059000000000000004,7.85158379282468,-2.9946867283062395,10.0,0.0,18.94378936616591,18.481736714644132,391.4991242273446,461.736025982828,0.0
0.06,8.162210750181535,-2.6477581166863464,10.0,0.0,19.158890626566173,18.70861463520459,381.43972335787225,461.736025982828,0.0
0.061,8.511635676712507,-2.2887660805009054,10.0,0.0,19.339149715118246,18.898984417404186,369.62497776932395,461.736025982828,0.0
0.062,8.883966813123125,-1.9435266395493254,10.0,0.0,19.486033454892258,19.050880954499178,361.26077442650484,461.736025982828,0.0
0.063,9.281214494896325,-1.6036149964379358,10.0,0.0,19.599480588065635,19.16230227823112,352.9800458226779,461.736025982828,0.0
0.064,9.703452688100116,-1.2595271971541515,10.0,0.0,19.67827459880475,19.23145245847252,345.21995465684546,461.736025982828,0.0
0.065,10.1392345664042,-0.9192608655328716,10.0,0.0,19.722115808008613,19.257853397082286,350.7252294023345,461.736025982828,0.0
0.066,10.532293429619365,-0.6679425813440995,10.0,0.0,19.739970642208498,19.247119706580833,359.67866990654863,461.736025982828,0.0
0.067,10.61394703823312,-0.9051968767033394,10.0,0.0,19.783577779269653,19.234193560234143,370.10407437085587,461.736025982828,0.0
0.068,10.581571752598528,-1.2537604804332778,10.0,0.0,19.85750104144673,19.231298559734192,381.65200039154143,461.736025982828,0.0
0.069,10.480411799895583,-1.636614596319302,10.0,0.0,19.96237079406627,19.24688922744291,392.93485284507375,461.736025982828,0.0
0.07,10.32866639174015,-2.0301130859078427,10.0,0.0,20.097768930890602,19.28708819901279,402.71845380960906,461.736025982828,0.0
0.07100000000000001,10.131619031418198,-2.4337689587926086,10.0,0.0,20.26411431231093,19.356964842661966,413.42850613902743,461.736025982828,0.0
0.07200000000000001,9.88928934157396,-2.854638824381318,10.0,0.0,20.46307194644005,19.46117415236791,430.94688049936497,461.736025982828,0.0
0.073,9.617187727015544,-3.2697093500791614,10.0,0.0,20.69400380729774,19.602366175219156,447.7607937948412,461.736025982828,0.0
0.074,9.359766147030504,-3.6015304584997225,10.0,0.0,20.948311301024056,19.778127539523815,454.6606732856984,461.736025982828,0.0
0.075,9.07156637033416,-3.932840869909881,10.0,0.0,21.22789011597912,19.99087127640739,471.46984708213563,461.736025982828,0.0
0.076,8.795212717479611,-4.200090401182756,1.5737924751476964,0.0,21.526869767452958,19.310932597411394,469.11333865905243,461.736025982828,0.0
0.077,7.878986941992693,-3.978430768641896,2.6782735599270513,0.0,21.700902530987573,19.03266204481164,468.5903409763819,461.736025982828,0.0
0.078,7.1068735966349275,-3.7322412069577404,2.871229251326765,0.0,21.80484070744891,18.885572349265995,467.56299562026715,461.736025982828,0.0
0.079,6.588184787716273,-3.42360792563792,3.3266322330097635,0.0,21.85218833138122,18.861084847519656,461.76195444001314,461.736025982828,0.0
0.08,6.278913317347888,-3.1685993383915356,6.226893538564913,0.0,21.867387830961754,19.187088545786747,466.36906377502635,461.736025982828,0.0
0.081,6.4179325194216785,-2.9497260216933476,3.8770084931363265,0.0,21.892141771446603,19.17613702920069,447.9379825757573,461.736025982828,0.0
0.082,6.5016702786957685,-2.5892704970805567,10.0,0.0,21.87586379168394,19.857963013031593,446.4314953962899,461.736025982828,0.0
0.083,7.1088577854925035,-2.5026719267782487,10.0,0.0,21.923474920793506,20.342795437279616,446.64123942327876,461.736025982828,0.0
0.084,7.836222289503279,-2.3072065958064862,10.0,0.0,21.99417297871305,20.709967511640567,433.7962912905684,461.736025982828,0.0
0.085,8.549312021347824,-2.0237462128096326,10.0,0.0,22.0652924494568,20.97632595889459,419.9013141738803,461.736025982828,0.0
0.08600000000000001,9.211000969278931,-1.699852174405378,10.0,0.0,22.12314207745707,21.15750562154361,408.2052758105498,461.736025982828,0.0
0.08700000000000001,9.837984264658859,-1.342220106580592,10.0,0.0,22.157224121845537,21.26400100771527,398.4593443837247,461.736025982828,0.0
0.088,10.43985052130309,-0.9675475980685988,10.0,0.0,22.160909845154247,21.303319604431543,388.70439968667466,461.736025982828,0.0
0.089,11.009842224817136,-0.6087053805979501,10.0,0.0,22.132432936967067,21.28239448898696,392.85788214878465,461.736025982828,0.0
0.09,11.336476426736091,-0.6242196317669215,10.0,0.0,22.11000619785743,21.230484349092173,406.5715516679647,461.736025982828,0.0
0.091,11.36763137598227,-1.0065082862011847,10.0,0.0,22.126527728145376,21.181361846878005,421.096422903379,461.736025982828,0.0
0.092,11.271235278078887,-1.4729467488104828,10.0,0.0,22.183970199525778,21.14971886817589,434.6511952129261,461.736025982828,0.0
0.093,11.091712312522596,-1.9602904759861097,10.0,0.0,22.28144755126115,21.14576799971418,446.68023670706214,461.736025982828,0.0
0.094,10.845671489768124,-2.454974749510505,10.0,0.0,22.418323913792747,21.177229214119617,458.71799398687006,461.736025982828,0.0
0.095,10.53993289041859,-2.9584040157774116,8.520149260212733,0.0,22.59508913806585,21.08761919966196,471.80680676803763,461.736025982828,0.0
0.096,10.072797953319418,-3.3789906634905194,1.8750350617768499,0.0,22.786447077051644,20.356810111734728,480.2505935997576,461.736025982828,0.0
0.097,9.062341999332972,-3.424195704439054,-2.532004030252441,0.0,22.88635500137334,19.406373373927448,479.24626080484495,461.736025982828,0.0
0.098,7.71849034532916,-3.2357766892314697,-2.2049399810162758,0.0,22.860050317399818,18.77873766106989,479.8666276061346,461.736025982828,0.0
0.099,6.58506219433266,-3.0298601008635937,-2.696429397894173,0.0,22.752845895969507,18.265139154821384,476.5301862916451,461.736025982828,0.0
0.1,5.682557173491265,-2.7966598689228057,-1.176150343737599,0.0,22.58140920642757,18.052266917963287,470.99754635805283,461.736025982828,0.0
0.101,5.156682833089595,-2.6115988193171638,1.4975544193062982,0.0,22.387804249016796,18.17126409646584,465.2553316312056,461.736025982828,0.0
0.10200000000000001,5.056659239841884,-2.5295225599618174,4.33346872624614,0.0,22.21828172716433,18.54995843936324,468.10997843349503,461.736025982828,0.0
0.10300000000000001,5.347648600249895,-2.5047536529162655,2.842405800594751,0.0,22.10167707460539,18.648445965317237,451.5389586040228,461.736025982828,0.0
0.10400000000000001,5.59909518286959,-2.3239636132537114,10.0,0.0,21.986942424605324,19.502921034126956,453.1777390325778,461.736025982828,0.0
0.105,6.405064523197043,-2.417679592799461,10.0,0.0,21.981245404632894,20.102757027451805,452.9094877336952,461.736025982828,0.0
0.106,7.286325839628336,-2.3459573832704335,10.0,0.0,22.027275083146534,20.55316066804277,437.4116947647577,461.736025982828,0.0
0.107,8.086895763678204,-2.1634713560969034,10.0,0.0,22.09438591697411,20.883876833944818,424.43261911572273,461.736025982828,0.0
0.108,8.79049802331132,-1.9178210720409044,10.0,0.0,22.16266061303471,21.118841917320285,414.36297755812774,461.736025982828,0.0
0.109,9.44535603302369,-1.598223967208746,10.0,0.0,22.214905169135825,21.272139603492242,404.92313786505446,461.736025982828,0.0
0.11,10.066069599185138,-1.2387682961458397,10.0,0.0,22.240910885475422,21.353602064476465,394.8288849462274,461.736025982828,0.0
0.111,10.66362675280475,-0.8613610882146086,10.0,0.0,22.23454204011767,21.369994699759694,383.0433356084557,461.736025982828,0.0
0.112,11.236734202654667,-0.4898615348602702,10.0,0.0,22.193358464034354,21.327044939031524,398.245583209671,461.736025982828,0.0
0.113,11.391783101710589,-0.7519246418570678,10.0,0.0,22.184540206789748,21.27294749237019,413.2366105598142,461.736025982828,0.0
0.114,11.36543186944176,-1.18287879546493,10.0,0.0,22.215978356430362,21.227827089190654,427.98691371017014,461.736025982828,0.0
0.115,11.232686726119907,-1.6637984853112995,10.0,0.0,22.28835227513599,21.204700994735862,441.0833995676023,461.736025982828,0.0
0.116,11.0244042351943,-2.156869714441985,10.0,0.0,22.400604830831483,21.2127085241657,452.6906216849727,461.736025982828,0.0
0.117,10.75249845064997,-2.656593402089528,10.0,0.0,22.55247177725033,21.25896736761272,465.56256141629456,461.736025982828,0.0
0.11800000000000001,10.424162857818072,-3.1626230275229856,4.96433604631001,0.0,22.744443935293198,20.79526184381709,476.1310342875927,461.736025982828,0.0
0.11900000000000001,9.663286977536231,-3.392196116865525,-0.4638504723867003,0.0,22.891041068725567,19.93079320158826,480.56298649884315,461.736025982828,0.0
0.12,8.451597584984043,-3.3285837214021954,-2.8680961831720833,0.0,22.927238530197425,19.082923048304046,480.19296483184394,461.736025982828,0.0
0.121,7.158324272603799,-3.111290919392645,-2.8676547381626394,0.0,22.85176314592725,18.47769384299064,478.6371644628552,461.736025982828,0.0
0.122,6.093157928981453,-2.883850437304564,-2.2587659384685406,0.0,22.700466854543166,18.096648937972464,474.09185917747277,461.736025982828,0.0
0.123,5.351006877887995,-2.6734147584099013,-0.1096716277237757,0.0,22.505322181938148,18.039875332686737,468.1171076661887,461.736025982828,0.0
0.124,5.025216906045788,-2.539352881639271,2.8138933110846516,0.0,22.31137216640922,18.297781207222272,466.59690539207384,461.736025982828,0.0
0.125,5.106457699252154,-2.5264662434929432,3.525385654049626,0.0,22.16253082845836,18.5473356141183,461.23633174755946,461.736025982828,0.0
0.126,5.406484149850516,-2.401311357045733,6.210669418659498,0.0,22.03989089386445,19.013126235573324,449.22325345407717,461.736025982828,0.0
0.127,5.9112037125487396,-2.388996048952275,10.0,0.0,21.975990879849626,19.757528440333985,454.8450242532887,461.736025982828,0.0
0.128,6.762549428382702,-2.4101175188055444,9.553514182564005,0.0,21.99536760247715,20.245492844370972,445.92905806960954,461.736025982828,0.0
0.129,7.581779947441879,-2.2601764141171103,10.0,0.0,22.044898357031364,20.658574878421177,429.91305438240704,461.736025982828,0.0
0.13,8.337507773254174,-2.054526787954275,10.0,0.0,22.10966219170414,20.95589917069865,420.03414755560937,461.736025982828,0.0
0.131,9.023901290858262,-1.7843626895671043,10.0,0.0,22.17002051757643,21.16202140853733,410.72537045012064,461.736025982828,0.0
0.132,9.671472278831596,-1.44999916150917,10.0,0.0,22.21087688754286,21.289198381678343,401.6972499846968,461.736025982828,0.0
0.133,10.289181630927532,-1.082941308728694,10.0,0.0,22.22333258930147,21.346270975651088,389.87185730168056,461.736025982828,0.0
0.134,10.882666720375726,-0.7056595118524077,10.0,0.0,22.20241956115291,21.339775614084072,392.98779414558527,461.736025982828,0.0
0.135,11.327599051908878,-0.5428779166340874,10.0,0.0,22.16881514215725,21.288830780284737,406.3573572484394,461.736025982828,0.0
0.136,11.393291840133724,-0.9013871020624339,10.0,0.0,22.17454050803052,21.236843104576366,419.6287035457629,461.736025982828,0.0
0.137,11.318130347993149,-1.3639145978517682,10.0,0.0,22.22178750242818,21.19955142504388,432.7767503752147,461.736025982828,0.0
0.138,11.152907903628007,-1.8541048378036975,10.0,0.0,22.309876280869645,21.18813646686316,445.0720671859604,461.736025982828,0.0
0.139,10.918084987703736,-2.3520811377623727,10.0,0.0,22.43789017624481,21.21085017865267,457.04563466980994,461.736025982828,0.0
0.14,10.621938390107486,-2.8577199802159226,9.187989553694798,0.0,22.606014562931726,21.185000656283528,470.37628877946264,461.736025982828,0.0
0.14100000000000001,10.213812736394486,-3.317137996858301,2.436259870902102,0.0,22.800221152119164,20.485910720108308,479.4480802212505,461.736025982828,0.0
0.14200000000000002,9.24737484749502,-3.402514137332801,-2.276756392376056,0.0,22.909895284056102,19.5274628555785,479.3234142900155,461.736025982828,0.0
0.14300000000000002,7.906912612262095,-3.237986025504763,-2.390297309830416,0.0,22.893805362640535,18.848254319394798,479.97316983384945,461.736025982828,0.0
0.14400000000000002,6.726538736504617,-3.0343601811453627,-2.8975465202576194,0.0,22.790650017986906,18.29713214469645,477.21210843006605,461.736025982828,0.0
0.145,5.769967388714582,-2.803749583113627,-1.6717766428382994,0.0,22.61936708298891,18.0241329411223,471.4667123911622,461.736025982828,0.0
0.146,5.172641786003783,-2.6094406916925843,1.1036145125302763,0.0,22.418844649057284,18.1104807955424,466.00953170492926,461.736025982828,0.0
0.147,5.01814615619544,-2.5244197421047807,3.789469798425743,0.0,22.239600028420398,18.446853054273955,469.13339979697173,461.736025982828,0.0
0.148,5.2559242234360255,-2.490864289324051,2.15356201426307,0.0,22.109076205410354,18.497154672257274,451.7553686568806,461.736025982828,0.0
