timestamp,iq,id,iq_ref,id_ref,vq,vd,omega,omega_ref,r
0.0,0.0,0.0,0.0,0.0,0.0,0.0,0.0,376.04842159556256,0.0
0.001,0.0,0.0,10.0,0.0,0.0,1.0999999999999999,9.942562079451134,376.04842159556256,0.0
0.002,0.841526933460179,-0.4703457887305909,10.0,0.0,0.161738036760365,1.8974320373193805,19.676039097462972,376.04842159556256,0.0
0.003,1.577506413510343,-0.8773521880721307,10.0,0.0,0.4271127196168949,2.5587522011119432,29.803720104094133,376.04842159556256,0.0
0.004,2.138823832552186,-1.1835711028978368,10.0,0.0,0.7616959672044403,3.126092695516801,40.22503290429632,376.04842159556256,0.0
0.005,2.5565592514790225,-1.4067448465699484,10.0,0.0,1.141041862129392,3.629819743348394,50.69502539758278,376.04842159556256,0.0
0.006,2.871165328519108,-1.5710634552333262,10.0,0.0,1.5486691818612592,4.090679361604182,61.235363322772784,376.04842159556256,0.0
0.007,3.1152400710419834,-1.6947308649412827,10.0,0.0,1.9735799604267592,4.5225135891004635,71.89302644087958,376.04842159556256,0.0
0.008,3.3118071017401234,-1.7903393925140643,10.0,0.0,2.4084633478212636,4.934473845752098,82.44010662738977,376.04842159556256,0.0
0.009000000000000001,3.4758031235152353,-1.8673829097069437,10.0,0.0,2.8485731237569696,5.33265252338974,92.8548806946225,376.04842159556256,0.0
0.01,3.6176556945217664,-1.9312778495866751,10.0,0.0,3.290747798077712,5.72106048826422,103.2071748353053,376.04842159556256,0.0
0.011,3.74471641522244,-1.9847973020215344,10.0,0.0,3.732793991822865,6.102286970516319,113.21450543927166,376.04842159556256,0.0
0.012,3.860887274795041,-2.0313986745214936,10.0,0.0,4.173349170869359,6.478087236571743,123.23209650754374,376.04842159556256,0.0
0.013000000000000001,3.9706621230819743,-2.0701522675169803,10.0,0.0,4.6112257401212515,6.8494494692104375,133.1578275221609,376.04842159556256,0.0
0.014,4.076334901068559,-2.1016760836762005,10.0,0.0,5.045530959559382,7.216936878414796,142.84418330728488,376.04842159556256,0.0
0.015,4.179433315785264,-2.1265197305025696,10.0,0.0,5.475571960963443,7.58082197080356,152.22861988159573,376.04842159556256,0.0
0.016,4.2814388284847915,-2.1444649662142954,10.0,0.0,5.900722910926003,7.941133031844075,161.20469188265272,376.04842159556256,0.0
0.017,4.383716082216441,-2.154992301209207,10.0,0.0,6.3203684264886775,8.297697638993306,169.80334982192548,376.04842159556256,0.0
0.018000000000000002,4.487704190669736,-2.1571972422363963,10.0,0.0,6.733843121373053,8.650154417591336,177.95597480400372,376.04842159556256,0.0
0.019,4.594644359063887,-2.1503922664979216,10.0,0.0,7.140445427887288,8.99798945037918,185.61568137649678,376.04842159556256,0.0
0.02,4.70575483386214,-2.1339061288237664,10.0,0.0,7.539425581642114,9.340548459995793,192.73956514702093,376.04842159556256,0.0
0.021,4.8222009393981065,-2.10717224935202,10.0,0.0,7.929987755617963,9.677051617165253,199.49350594834667,376.04842159556256,0.0
0.022,4.945097544215827,-2.0697305328992917,10.0,0.0,8.311292777898094,10.006606510540767,205.52811135559278,376.04842159556256,0.0
0.023,5.075301714986821,-2.021561841000283,10.0,0.0,8.682498648343401,10.328242924070109,210.94939575701702,376.04842159556256,0.0
0.024,5.213718026745339,-1.9625465795140276,10.0,0.0,9.042737581252613,10.640912530705318,215.401859641565,376.04842159556256,0.0
0.025,5.361723279299557,-1.891706051958897,10.0,0.0,9.391017276118221,10.943442655304548,219.8632545142741,376.04842159556256,0.0
0.026000000000000002,5.518453495127161,-1.8116128361485817,10.0,0.0,9.726620165493607,11.23478746571492,223.4104547729457,376.04842159556256,0.0
0.027,5.685572140984743,-1.720532433768872,10.0,0.0,10.048579334868826,11.513742335135738,227.23928192580573,376.04842159556256,0.0
0.028,5.859631048226511,-1.6249142749879069,10.0,0.0,10.3566308808065,11.77952234121398,230.1805460468158,376.04842159556256,0.0
0.029,6.037052426787267,-1.5313773249881848,10.0,0.0,10.65112238984607,12.031753738708895,231.81617141175985,376.04842159556256,0.0
0.03,6.22850862602597,-1.4225551167854054,10.0,0.0,10.930352814328863,12.26892517922763,233.0883930019354,376.04842159556256,0.0
0.031,6.425283541696476,-1.312596325772494,10.0,0.0,11.19437009548586,12.4905718394114,233.67953278818283,376.04842159556256,0.0
0.032,6.629999528148062,-1.1970498334300816,10.0,0.0,11.442539788298001,12.69590455233952,234.10008989805297,376.04842159556256,0.0
0.033,6.840197373007086,-1.0793759325540773,10.0,0.0,11.6746371189488,12.884446360186072,236.55117873297755,376.04842159556256,0.0
0.034,7.05398185577235,-0.9619684267446571,10.0,0.0,11.8906408106889,13.055929405657457,241.81826645294663,376.04842159556256,0.0
0.035,7.146502789789497,-1.0440327458198344,10.0,0.0,12.11239358795849,13.223825057841477,252.26732121387587,376.04842159556256,0.0
0.036000000000000004,7.215209378615056,-1.1431849699394032,10.0,0.0,12.338846754181922,13.390473907103418,262.6424806302235,376.04842159556256,0.0
0.037,7.243103737551502,-1.2919023862325996,10.0,0.0,12.574686882260261,13.560721874466754,268.3512987985249,376.04842159556256,0.0
0.038,7.269262693967078,-1.425401297604533,10.0,0.0,12.817165500355081,13.734930516285237,280.75475888522436,376.04842159556256,0.0
0.039,7.276607106553685,-1.5737689292498191,10.0,0.0,13.067802571189537,13.91541985991099,291.5634532298384,376.04842159556256,0.0
0.04,7.271419859149185,-1.726519657701791,10.0,0.0,13.326743773116382,14.10356801759797,303.0510813043995,376.04842159556256,0.0
0.041,7.2477259033400205,-1.8936647775820266,10.0,0.0,13.595464126521541,14.301349942373896,313.956693593338,376.04842159556256,0.0
0.042,7.211445270286336,-2.063547942265515,10.0,0.0,13.874106333980167,14.509979640090567,324.9948997527941,376.04842159556256,0.0
0.043000000000000003,7.161313594106536,-2.2366099599969105,10.0,0.0,14.163085280768206,14.730762266830668,336.96881262525915,376.04842159556256,0.0
0.044,7.096051384582605,-2.4135843358228946,10.0,0.0,14.462981156715005,14.965042051861403,349.0073787570941,376.04842159556256,0.0
0.045,7.021068617264685,-2.5835931477864493,10.0,0.0,14.773246649127923,15.213478928293469,361.51620834719984,376.04842159556256,0.0
0.046,6.939251534641679,-2.7409027055556034,10.0,0.0,15.092933243177733,15.476348717738983,373.9904264325382,376.04842159556256,0.0
0.047,6.855063795252572,-2.8784820491450613,6.105956628737863,0.0,15.420498788984254,15.324997897312652,381.3309244588504,376.04842159556256,0.0
0.048,6.452419357068252,-2.814802771540408,2.3828825869488757,0.0,15.691792184195089,14.89439001343183,383.79962680346296,376.04842159556256,0.0
0.049,5.805847521347419,-2.5635335330469955,1.0710193625635958,0.0,15.865892628038528,14.49399450074313,382.8277345472213,376.04842159556256,0.0
0.05,5.185358277190691,-2.2751741059554695,1.4891723611678227,0.0,15.953336631633618,14.271952144297991,381.15310823621934,376.04842159556256,0.0
0.051000000000000004,4.766506865181723,-2.040053055560171,2.275438650262249,0.0,15.98685227795212,14.203034948550638,378.7535384421383,376.04842159556256,0.0
0.052000000000000005,4.55625050494374,-1.8662744290759161,3.4481723788370218,0.0,15.99336020165472,14.28443876976824,376.2331590814837,376.04842159556256,0.0
0.053,4.542847465151061,-1.7508278433489246,4.7065146843051116,0.0,15.996396376943693,14.4844150883249,374.03939356871837,376.04842159556256,0.0
0.054,4.690208276976872,-1.6763662037287939,5.823487720956209,0.0,16.012090252058492,14.758637283832968,371.7199945120454,376.04842159556256,0.0
0.055,4.9491940563968075,-1.621382698807455,7.026471520127869,0.0,16.048333390067473,15.101150307226145,368.9538427578807,376.04842159556256,0.0
0.056,5.298513157843622,-1.5833056097503593,8.480493185587036,0.0,16.111564871867802,15.525113643924744,362.52635601835703,376.04842159556256,0.0
0.057,5.747150373610804,-1.556899166942546,10.0,0.0,16.208345601339673,16.019752425344425,357.80921812639497,376.04842159556256,0.0
0.058,6.2960673324959195,-1.5210561667127096,10.0,0.0,16.341233470409122,16.403515840105506,356.3989272700027,376.04842159556256,0.0
0.059000000000000004,6.7924884813547735,-1.4281330927766018,10.0,0.0,16.489345785917056,16.7130745435118,354.3104643435048,376.04842159556256,0.0
0.06,7.23581376976317,-1.2941177689808274,10.0,0.0,16.63979028533666,16.962687037891936,347.92891868101674,376.04842159556256,0.0
0.061,7.632895585655333,-1.1489090810840754,10.0,0.0,16.78551878182162,17.163136985911947,338.07968604690114,376.04842159556256,0.0
0.062,8.031730575014736,-0.9462799201199728,10.0,0.0,16.91588230263302,17.318213758107852,335.9492955186479,376.04842159556256,0.0
0.063,8.400746174636982,-0.759200100160611,10.0,0.0,17.03016465999696,17.434215839100442,333.6387424704009,376.04842159556256,0.0
0.064,8.713051045577954,-0.6474248715346875,10.0,0.0,17.134194512774524,17.51938256792289,347.8253991540438,376.04842159556256,0.0
0.065,8.786290042350403,-0.8716633715584297,10.0,0.0,17.262122040445433,17.60150236820529,356.1075948281835,376.04842159556256,0.0
0.066,8.793943908289819,-1.1283836737654889,10.0,0.0,17.41146564362004,17.68809340594093,371.99359692917534,376.04842159556256,0.0
0.067,8.754432702369897,-1.3983151290835698,7.878096071461049,0.0,17.58165924731367,17.551973039391758,383.0939266960294,376.04842159556256,0.0
0.068,8.480097803064258,-1.6165650885528635,2.257476137029336,0.0,17.742529634971454,16.879216643229206,388.9782801043433,376.04842159556256,0.0
0.069,7.73558957886891,-1.5875415501352832,-0.8139991522154064,0.0,17.814662255426583,16.087319398644507,392.92622775050035,376.04842159556256,0.0
0.07,6.809939074433453,-1.4677273370783224,-2.9567510368433076,0.0,17.78750256132564,15.271213659393112,393.90558626035363,376.04842159556256,0.0
0.07100000000000001,5.856656800233829,-1.321059259885159,-3.625001938417861,0.0,17.66651291634897,14.577526989447446,393.1178831583844,376.04842159556256,0.0
0.07200000000000001,5.02881436435416,-1.2101107893968122,-3.4018450030614726,0.0,17.477515917893616,14.053869639108395,391.3605439866558,376.04842159556256,0.0
0.073,4.392252590262023,-1.1575286412955696,-2.676296641108089,0.0,17.250378332663637,13.703000445210357,389.25432023019493,376.04842159556256,0.0
0.074,3.9548528423263933,-1.1610704783464725,-1.7552437492239878,0.0,17.011783010123462,13.500313101198845,387.0531268607656,376.04842159556256,0.0
0.075,3.69157430647965,-1.202849747555917,-0.764694117161345,0.0,16.78133878667869,13.418371531406303,384.3080372150937,376.04842159556256,0.0
0.076,3.568281730885108,-1.2665297885365467,0.5252545494792917,0.0,16.57233184041491,13.464497951215312,382.51476405708286,376.04842159556256,0.0
0.077,3.5820633287861763,-1.3443122854367684,1.3572277038695058,0.0,16.39675750500763,13.560979693208498,380.34096053678365,376.04842159556256,0.0
0.078,3.668216400864908,-1.406070021368363,2.4012040746068966,0.0,16.25440430332387,13.7274344747492,378.3103586550431,376.04842159556256,0.0
0.079,3.8304028885608177,-1.452747667906672,3.393885644882367,0.0,16.14744886372245,13.944784684064619,375.601088683233,376.04842159556256,0.0
0.08,4.053701115599665,-1.48299332309241,4.752993959910713,0.0,16.07578423461777,14.2463384873414,373.61947584937195,376.04842159556256,0.0
0.081,4.362254334980837,-1.5107436403122354,5.768089834303145,0.0,16.044191527093552,14.57693203855138,371.0679251603127,376.04842159556256,0.0
0.082,4.718053106136742,-1.520942064643243,7.093670143185263,0.0,16.049661768946965,14.970917506487707,368.54173666939715,376.04842159556256,0.0
0.083,5.1385833583737694,-1.5301714974794296,8.431831237904696,0.0,16.094896786777348,15.417293029111555,362.49579452309274,376.04842159556256,0.0
0.084,5.624400115640197,-1.5313153514413607,10.0,0.0,16.18027938469452,15.933436913362401,358.8592762809286,376.04842159556256,0.0
0.085,6.197714662453536,-1.5171192700168095,10.0,0.0,16.307165103748748,16.33261654878213,357.0172879861337,376.04842159556256,0.0
0.08600000000000001,6.707683064381863,-1.4413096206384886,10.0,0.0,16.453083113822153,16.65420341382132,354.6361865275757,376.04842159556256,0.0
0.08700000000000001,7.160585909594976,-1.3159813114629464,10.0,0.0,16.60353999187661,16.91350376440978,348.8241612543981,376.04842159556256,0.0
0.088,7.5643899323172,-1.1743298681296106,10.0,0.0,16.750552841509553,17.122030353697514,338.74685215166437,376.04842159556256,0.0
0.089,7.9641298962395375,-0.9788658274169295,10.0,0.0,16.883632535062915,17.284472213215537,336.79357784588854,376.04842159556256,0.0
0.09,8.337977453262258,-0.788881961581648,10.0,0.0,17.000704860377994,17.40685202450383,333.17706078701013,376.04842159556256,0.0
0.091,8.674731323834104,-0.6397191540465434,10.0,0.0,17.10379986411988,17.49539663700212,341.71323381155344,376.04842159556256,0.0
0.092,8.781948257562384,-0.8216380543788482,10.0,0.0,17.226942535849307,17.57696996462037,358.63891937625834,376.04842159556256,0.0
0.093,8.796164799469695,-1.0785968230783047,10.0,0.0,17.372374548721243,17.662208576377218,367.8488532797886,376.04842159556256,0.0
0.094,8.74883852855833,-1.3730408340465385,9.783796731172746,0.0,17.54160647500117,17.735032223893903,379.64889873048617,376.04842159556256,0.0
0.095,8.659503565712996,-1.6400992002320154,3.8477692344747325,0.0,17.727629553575504,17.17604929054228,390.07045638103557,376.04842159556256,0.0
0.096,8.02742642134554,-1.6773996963733242,-1.503229938654699,0.0,17.84058450187093,16.230952460557962,393.1487743190995,376.04842159556256,0.0
0.097,6.995104374223676,-1.5040891954877407,-3.213392434922042,0.0,17.82829711227955,15.364287579283229,394.0879549839608,376.04842159556256,0.0
0.098,5.972524740666984,-1.3260916960669735,-3.863378101236666,0.0,17.7127253535924,14.630824188064915,393.19956303560843,376.04842159556256,0.0
0.099,5.096049938120798,-1.1959705010653239,-3.5906935414609427,0.0,17.522831075196173,14.081831550282708,391.27327673059614,376.04842159556256,0.0
0.1,4.428883165900971,-1.1347596097848964,-2.7797989403051293,0.0,17.291594974770508,13.7198439058872,389.3964905956039,376.04842159556256,0.0
0.101,3.976747978838962,-1.1387156615354315,-1.974886562809421,0.0,17.048330994553222,13.49442603425627,387.09249715605176,376.04842159556256,0.0
0.10200000000000001,3.6932948730141795,-1.1785195193633946,-0.9333305986382481,0.0,16.811190489038157,13.400404073820685,384.41156289024093,376.04842159556256,0.0
0.10300000000000001,3.5573456056662107,-1.2438863221697913,0.32350512132038567,0.0,16.595154147761445,13.432026516780912,382.593729235038,376.04842159556256,0.0
0.10400000000000001,3.5601100828585737,-1.3196203425666702,1.1669688725271046,0.0,16.411560759124033,13.517432151585963,380.25333629245114,376.04842159556256,0.0
0.105,3.6332914329626242,-1.3882611890762429,2.295116196851641,0.0,16.261660425742942,13.683577148470878,378.3578794308412,376.04842159556256,0.0
0.106,3.7927512898141336,-1.4424710216001186,3.2197500493038262,0.0,16.14864129850099,13.89173709210306,375.68535662642716,376.04842159556256,0.0
0.107,4.007626248363947,-1.4765063158775014,4.559642101202195,0.0,16.070941862391724,14.18387926896016,373.6024635637103,376.04842159556256,0.0
0.108,4.3059031291685415,-1.506789214105846,5.625548212879163,0.0,16.03321735344143,14.512226328983106,371.31566337552397,376.04842159556256,0.0
0.109,4.656543704637084,-1.5209920868270228,6.816275889172703,0.0,16.03335948840551,14.888699520890743,369.43092846833355,376.04842159556256,0.0
0.11,5.061252869324385,-1.5277058167328663,7.824818274040203,0.0,16.071731210626375,15.285560390315604,363.4864491381328,376.04842159556256,0.0
0.111,5.502950224023148,-1.5165216336323506,10.0,0.0,16.144654450127533,15.831217293656971,358.126453137718,376.04842159556256,0.0
0.112,6.0862727652966875,-1.5213322135324294,10.0,0.0,16.265492061632717,16.248100507361624,355.9157972338977,376.04842159556256,0.0
0.113,6.615055938379586,-1.4513996217294187,10.0,0.0,16.40819354246052,16.583046237219953,354.67730862355467,376.04842159556256,0.0
0.114,7.076354396009505,-1.3384778660024033,10.0,0.0,16.558397380979432,16.853312543566755,349.57438130158584,376.04842159556256,0.0
0.115,7.488838569342024,-1.1993867808201006,10.0,0.0,16.70643666446835,17.0708123286405,339.94837181455574,376.04842159556256,0.0
0.116,7.887616569997628,-1.015750313156515,10.0,0.0,16.84261289752458,17.24162532521696,338.06514626470835,376.04842159556256,0.0
0.117,8.269384356133637,-0.8187520024109922,10.0,0.0,16.96241935742746,17.370967968973,327.1836088740621,376.04842159556256,0.0
0.11800000000000001,8.631818012524459,-0.6291313062298411,10.0,0.0,17.064291142243185,17.463306970002087,343.4769835695177,376.04842159556256,0.0
0.11900000000000001,8.76635082229545,-0.781156413224597,10.0,0.0,17.183828617411486,17.54542497689894,352.04333843858876,376.04842159556256,0.0
0.12,8.786352844528848,-1.04136868175868,10.0,0.0,17.326727244221438,17.630430036274976,364.82335000193007,376.04842159556256,0.0
0.121,8.762300797240169,-1.3066816518922866,10.0,0.0,17.490418818317362,17.7240701978185,380.65988409776384,376.04842159556256,0.0
0.122,8.688673585589322,-1.5968277673658977,3.2041951855919217,0.0,17.676368194158794,17.08503544384107,386.7081199972421,376.04842159556256,0.0
0.123,8.005154181611836,-1.6060539910345883,0.07348025183600448,0.0,17.77793258046717,16.326529370597473,391.25857626078744,376.04842159556256,0.0
0.124,7.112849791891863,-1.5042861298959203,-2.3538494265889227,0.0,17.782203193858404,15.509649516849317,393.12660300972635,376.04842159556256,0.0
0.125,6.156213164224721,-1.3613270852991919,-3.4586446152000194,0.0,17.68965094424145,14.773937520998313,392.860309308262,376.04842159556256,0.0
0.126,5.283655233053425,-1.2381783921491307,-3.4936166415948398,0.0,17.52066595420055,14.196157534905563,391.3799866424408,376.04842159556256,0.0
0.127,4.585752668431257,-1.1679326974769562,-2.9067709591530333,0.0,17.304305925072015,13.79220349654727,389.4424194272402,376.04842159556256,0.0
0.128,4.086629942400714,-1.155867576833855,-2.071927329869509,0.0,17.0685617886965,13.540897675725866,387.27511938778315,376.04842159556256,0.0
0.129,3.7671909949483204,-1.1865581033759094,-1.100544288063178,0.0,16.834758093002446,13.419798778614368,384.73063093134016,376.04842159556256,0.0
0.13,3.5983647393637037,-1.2445805223927433,0.08487784680054133,0.0,16.61830043799308,13.423488504701346,382.569529391673,376.04842159556256,0.0
0.131,3.5666773537775516,-1.3186936847591237,1.1002175386730304,0.0,16.431429744763488,13.506793987294653,380.72615812020314,376.04842159556256,0.0
0.132,3.6309221322925875,-1.388218497171131,1.9751258091615416,0.0,16.278483266857833,13.641784565648166,378.5270559045288,376.04842159556256,0.0
0.133,3.761649588592265,-1.4371181123805203,3.049890573909037,0.0,16.15901420412702,13.843718907385288,376.1047014272398,376.04842159556256,0.0
0.134,3.9639078466580635,-1.4736421427576023,4.260505014236789,0.0,16.07521412903237,14.114991715639952,373.731105543427,376.04842159556256,0.0
0.135,4.241483007029151,-1.5024397439068402,5.470476116664521,0.0,16.029723838095308,14.443237227363294,371.9331056406645,376.04842159556256,0.0
0.136,4.586271557444206,-1.521292367511832,6.410629227594758,0.0,16.023392940009337,14.790275301056706,368.88925157632684,376.04842159556256,0.0
0.137,4.966374328427146,-1.5208040037052812,8.004147959955947,0.0,16.05215669284654,15.229498587718634,363.9634249065367,376.04842159556256,0.0
0.138,5.433693764613977,-1.5285896085850426,10.0,0.0,16.122827699241046,15.783680347808597,360.1398594144116,376.04842159556256,0.0
0.139,6.024685338233085,-1.5437023424976462,10.0,0.0,16.243434325686692,16.20921663339234,358.060714385195,376.04842159556256,0.0
0.14,6.551208301471267,-1.4891782589301221,10.0,0.0,16.388385141514597,16.55225234284227,355.36692395332346,376.04842159556256,0.0
0.14100000000000001,7.018078096960886,-1.372749004195129,10.0,0.0,16.54088246951953,16.829389115058515,352.4616847459544,376.04842159556256,0.0
0.14200000000000002,7.431018493689505,-1.2346560367739121,10.0,0.0,16.691817808076603,17.053307197168383,341.9389635516777,376.04842159556256,0.0
0.14300000000000002,7.821811959045758,-1.0646369416648884,10.0,0.0,16.832730250201177,17.231069127701065,338.04423020304824,376.04842159556256,0.0
