timestamp,iq,id,iq_ref,id_ref,vq,vd,omega,omega_ref,r
0.0,0.0,0.0,0.0,0.0,0.0,0.0,0.0,308.2127125544073,0.0
0.001,0.0,0.0,10.0,0.0,0.0,1.0999999999999999,17.04849969743347,308.2127125544073,0.0
0.002,0.5683440153078457,-0.3217313737753853,10.0,0.0,0.14539045111529236,1.9274821583161372,30.799970684330383,308.2127125544073,0.0
0.003,1.07220541729644,-0.5970223789284104,10.0,0.0,0.3860547697797481,2.6370138318465224,45.7688720419217,308.2127125544073,0.0
0.004,1.470319995627152,-0.8153070343039153,10.0,0.0,0.6948642259705723,3.260904780293823,61.15608657490425,308.2127125544073,0.0
0.005,1.7822334695912252,-0.9824579392588453,10.0,0.0,1.0513855843783309,3.822958243162734,76.79377433669424,308.2127125544073,0.0
0.006,2.0287674096919317,-1.112333307445346,10.0,0.0,1.4410749346831713,4.340458896914094,92.60585440138966,308.2127125544073,0.0
0.007,2.2275650580095667,-1.2146710260615774,10.0,0.0,1.8535038106985835,4.825776018406868,108.47328281632083,308.2127125544073,0.0
0.008,2.3912783214699953,-1.2972560081662967,10.0,0.0,2.2812824821070885,5.287783832854435,124.31438295958215,308.2127125544073,0.0
0.009000000000000001,2.5299070483888,-1.3641489053642826,10.0,0.0,2.7190164366902314,5.732756705671634,140.02506346893927,308.2127125544073,0.0
0.01,2.6500747582869364,-1.4191547274928635,10.0,0.0,3.1628559945589436,6.165173525845818,155.53799063113902,308.2127125544073,0.0
0.011,2.756964053757685,-1.464278816485066,10.0,0.0,3.6099668702260597,6.588176474386653,170.75577469817014,308.2127125544073,0.0
0.012,2.854508807595846,-1.5006765133091884,10.0,0.0,4.058219458941279,7.0039291856726305,185.57891620556813,308.2127125544073,0.0
0.013000000000000001,2.9458380944159535,-1.5288403597278823,10.0,0.0,4.505956106051391,7.413861110689698,199.88995115830085,308.2127125544073,0.0
0.014,3.033724999011405,-1.5485212973657707,10.0,0.0,4.951795545628176,7.818819241278771,213.57332870407038,308.2127125544073,0.0
0.015,3.1204151987894972,-1.5594993525589578,10.0,0.0,5.394557631001064,8.21920844983698,226.52280402848467,308.2127125544073,0.0
0.016,3.207835544277594,-1.5615833264055077,10.0,0.0,5.833201885263673,8.615085610070748,238.63107871850485,308.2127125544073,0.0
0.017,3.297970904918061,-1.5542142474641087,10.0,0.0,6.266737991701376,9.00619879349183,249.78608272577776,308.2127125544073,0.0
0.018000000000000002,3.3926555378418324,-1.5369470001721441,10.0,0.0,6.694206099424717,9.392040313199363,259.89256771213013,308.2127125544073,0.0
0.019,3.4935833072169054,-1.5095070740569678,10.0,0.0,7.114665828946727,9.771889283406459,268.8736083910918,308.2127125544073,0.0
0.02,3.6022789023386284,-1.4718458095473859,10.0,0.0,7.527196142702342,10.144852091775403,276.6543686846696,308.2127125544073,0.0
0.021,3.7198063260835377,-1.4245877929177309,10.0,0.0,7.930947936735125,10.509930590022293,283.2885266642826,308.2127125544073,0.0
0.022,3.8479346016450036,-1.3670315520354588,10.0,0.0,8.324973794858565,10.865957581773461,288.64248327632595,308.2127125544073,0.0
0.023,3.986782588074722,-1.3009319878158974,10.0,0.0,8.708504376689449,11.211792464410202,292.797208455445,308.2127125544073,0.0
0.024,4.136952238987824,-1.226977088314358,10.0,0.0,9.080791345297943,11.546266735230212,295.77075063335354,308.2127125544073,0.0
0.025,4.29862974378046,-1.14611654954369,9.694186691454117,0.0,9.441141933857832,11.834599982870966,297.35437461358123,308.2127125544073,0.0
0.026000000000000002,4.454392061559836,-1.0505231049914878,9.010958080748535,0.0,9.784584114812773,12.042520870603674,297.4340201460232,308.2127125544073,0.0
0.027,4.58370892829796,-0.9325490119846032,9.078922238611383,0.0,10.102452950660254,12.265634998967174,306.36656006495764,308.2127125544073,0.0
0.028,4.697122397340661,-0.8790839866105775,4.631113804038668,0.0,10.406144903898264,11.997103715770127,318.1513393743392,308.2127125544073,0.0
0.029,4.488767527321718,-0.8187996967819549,-1.3606621188514403,0.0,10.646517911865356,11.19523065943691,324.5680998987775,308.2127125544073,0.0
0.03,3.9492651319903276,-0.6316601779833921,-4.732596254514294,0.0,10.762683809232866,10.24384892862598,322.9344674353582,308.2127125544073,0.0
0.031,3.2911647935272237,-0.4073085269056249,-4.062997571614151,0.0,10.74928765735196,9.573593170386161,320.80652814522443,308.2127125544073,0.0
0.032,2.784298171850465,-0.27688235721030763,-3.1249660824554315,0.0,10.658102182679457,9.11468517476051,319.65927885291427,308.2127125544073,0.0
0.033,2.436511155482801,-0.23154681660249454,-2.6658070992854195,0.0,10.526461808141734,8.766864510070956,318.9650724926437,308.2127125544073,0.0
0.034,2.1881694241996206,-0.23256420535072098,-2.4262275185324915,0.0,10.373768672757212,8.486263758725185,318.26476182792555,308.2127125544073,0.0
0.035,1.9990502458945894,-0.25648731659512547,-2.1765926789086087,0.0,10.210906144125966,8.261837497827356,317.514312766644,308.2127125544073,0.0
0.036000000000000004,1.8526363942824475,-0.29348128272984453,-1.894384150390212,0.0,10.045717347430436,8.08632853179126,316.7243889001113,308.2127125544073,0.0
0.037,1.7402929007849313,-0.3378847148971791,-1.5845389805808936,0.0,9.884010971677906,7.954006111851657,315.92705556640914,308.2127125544073,0.0
0.038,1.6565908115154622,-0.3853691661816864,-1.2630157438498273,0.0,9.730022246826294,7.859098195557758,315.0636762730285,308.2127125544073,0.0
0.039,1.5968592645254953,-0.4327993468640863,-0.8998357343457091,0.0,9.586684078192677,7.8007502163624345,314.2125574540496,308.2127125544073,0.0
0.04,1.559086641207764,-0.47966798611183414,-0.5342747738526943,0.0,9.456526177013316,7.774040796877522,313.3527689919554,308.2127125544073,0.0
0.041,1.540511490718194,-0.5237552730450106,-0.15578110718106064,0.0,9.341094039173568,7.776630763272787,312.44689338302936,308.2127125544073,0.0
0.042,1.5397714341427067,-0.5634996377426676,0.2548148889957238,0.0,9.241395119004734,7.808694796875691,311.55428333738257,308.2127125544073,0.0
0.043000000000000003,1.557199895096977,-0.5983311186598321,0.6677042039893664,0.0,9.158306513466982,7.866969868518227,310.35351792665875,308.2127125544073,0.0
0.044,1.5919764537687973,-0.6265629408154755,1.246678855628761,0.0,9.09211146127521,7.967015754128775,309.40827818431825,308.2127125544073,0.0
0.045,1.6489015366398379,-0.6582489690393132,1.7073430704999035,0.0,9.045743647746736,8.089406869549428,308.421237331187,308.2127125544073,0.0
0.046,1.7220642215302333,-0.6841158952393666,2.1987782492977304,0.0,9.018780228712943,8.236894675084981,309.04483633023335,308.2127125544073,0.0
0.047,1.80909981299523,-0.7087169459280663,1.8786575120162943,0.0,9.01170937844984,8.317967437062418,306.89274508732314,308.2127125544073,0.0
0.048,1.8742426926388676,-0.6903648272818512,2.9679028081422443,0.0,9.01118814585282,8.506948666916323,304.809472463657,308.2127125544073,0.0
0.049,1.982760995534991,-0.7050900883286975,4.043571520882806,0.0,9.031420459402508,8.773125171443198,306.03156355027136,308.2127125544073,0.0
0.05,2.1438919313423366,-0.7320211774649719,3.4543374676169947,0.0,9.079062359244435,8.922495603975864,305.1374477131175,308.2127125544073,0.0
0.051000000000000004,2.2606095842642895,-0.7110690217177498,3.932148034606809,0.0,9.134303064331883,9.108917053677649,303.3870506121853,308.2127125544073,0.0
0.052000000000000005,2.389820595527407,-0.689081657328777,4.8556032044951385,0.0,9.200452755355446,9.3659763572261,301.1297553426407,308.2127125544073,0.0
0.053,2.553861464038297,-0.6936888375191955,6.055080411385111,0.0,9.286420071096334,9.709900255157507,301.54318626763313,308.2127125544073,0.0
0.054,2.7800936482815195,-0.7055397093262791,5.915060211756632,0.0,9.39944056915315,9.977386369260183,300.33641847192666,308.2127125544073,0.0
0.055,2.978224845336769,-0.693175276133636,6.597207050434673,0.0,9.526429032445291,10.286330166175498,299.3513714551652,308.2127125544073,0.0
0.056,3.196919929803837,-0.6806264635244753,7.178343969807837,0.0,9.670356304044667,10.612106875151937,298.3377355109215,308.2127125544073,0.0
0.057,3.4323973723852905,-0.6667569818787599,7.783911712364532,0.0,9.831068364526812,10.956784155038886,297.43273326288175,308.2127125544073,0.0
0.058,3.685886314277686,-0.6512602813203199,8.344212629299662,0.0,10.008611004704463,11.313113327240302,296.4346956870006,308.2127125544073,0.0
0.059000000000000004,3.954278136823314,-0.6322885277070647,8.9610115859143,0.0,10.202100372192621,11.686820511236512,301.112941470001,308.2127125544073,0.0
0.06,4.234614037341008,-0.621241235694074,6.692886405258181,0.0,10.41258603674629,11.7586911233121,313.0091769732752,308.2127125544073,0.0
0.061,4.269893781527677,-0.6738730194086278,0.6968040094323884,0.0,10.615110165180882,11.206458016045866,321.1642223591854,308.2127125544073,0.0
0.062,3.923189055959345,-0.5831630135813599,-3.510233781570478,0.0,10.731654151567241,10.365377616552042,321.25719221348186,308.2127125544073,0.0
0.063,3.36448792340149,-0.4074546446927969,-3.687163505309466,0.0,10.734014878846116,9.70065784127065,319.77518019285685,308.2127125544073,0.0
0.064,2.8792402856016035,-0.28465071696333116,-3.061782171381458,0.0,10.65791620750761,9.220997589047172,318.7101270909214,308.2127125544073,0.0
0.065,2.522636733974945,-0.23344870915693505,-2.6342297657788682,0.0,10.537057196499191,8.856844360490127,318.1003312903248,308.2127125544073,0.0
0.066,2.262185682724893,-0.22891141100349294,-2.4282080528397425,0.0,10.391881681017102,8.560490998176466,317.48010122984516,308.2127125544073,0.0
0.067,2.061195268695665,-0.24854370113320318,-2.210766909354307,0.0,10.233793305747652,8.320618164230678,316.80124795417174,308.2127125544073,0.0
0.068,1.9036187511728029,-0.28235330469542996,-1.9572256255152425,0.0,10.071049218101122,8.129962418727185,316.06908070422116,308.2127125544073,0.0
0.069,1.7807991509874292,-0.3244932770203403,-1.6697056820380922,0.0,9.90981126558901,7.983124010798652,315.30713094535724,308.2127125544073,0.0
0.07,1.6872877971051625,-0.37073054888057955,-1.3596749865156315,0.0,9.754677967716635,7.875131878409656,314.49121592774156,308.2127125544073,0.0
0.07100000000000001,1.618970941719059,-0.41761951249925044,-1.0145025114411341,0.0,9.60895419967205,7.803874035328944,313.6663446722023,308.2127125544073,0.0
0.07200000000000001,1.5729403811177973,-0.46458741071599274,-0.656603204849445,0.0,9.475374603291502,7.765466991838457,312.8433988274649,308.2127125544073,0.0
0.073,1.5469481749051486,-0.5092479356301185,-0.29143714521133335,0.0,9.355755240958352,7.75653080363062,311.9707669701454,308.2127125544073,0.0
0.074,1.5385847681903242,-0.5505827922559123,0.10729823929103777,0.0,9.251304425017429,7.777395582385638,311.1010302877548,308.2127125544073,0.0
0.075,1.5489930206514118,-0.5863971926954973,0.5132834031528746,0.0,9.162911404028193,7.82517127401297,310.0184249719931,308.2127125544073,0.0
0.076,1.5764835250016327,-0.616841380166197,1.0365289368578507,0.0,9.091125970917997,7.909907378493664,309.1012960663029,308.2127125544073,0.0
0.077,1.6248975476255703,-0.6472350954225269,1.4862075545840043,0.0,9.038031558370383,8.018172884382961,308.1303195540271,308.2127125544073,0.0
0.078,1.6891285948641275,-0.673044191675639,1.972519740725705,0.0,9.003608201101734,8.152718677756894,307.2821083358221,308.2127125544073,0.0
0.079,1.7673959059253272,-0.6988673199855276,2.405931392014054,0.0,8.988664212048903,8.305212622102522,308.0682748918957,308.2127125544073,0.0
0.08,1.8633715144764127,-0.7101397151191313,2.0142924906023576,0.0,8.99144574851751,8.383773733610125,304.61480204504954,308.2127125544073,0.0
0.081,1.927258430276496,-0.6877347458848538,3.777008019119026,0.0,8.999227971922918,8.646504180112286,304.42665288058595,308.2127125544073,0.0
0.082,2.0719713759875766,-0.7214042989896352,3.9089431980890375,0.0,9.036432718171863,8.865345963836083,305.0362496406826,308.2127125544073,0.0
0.083,2.2190333382765495,-0.7276846540782742,3.6359094471779447,0.0,9.092155311697,9.0199412930278,303.68773581257324,308.2127125544073,0.0
0.084,2.336643474981308,-0.7014573566493338,4.35541612865098,0.0,9.154817372520725,9.235058925709371,302.0307707784547,308.2127125544073,0.0
0.085,2.47916751738801,-0.6888644555691947,5.245718063469763,0.0,9.231602044385708,9.511167603922802,300.48229694414505,308.2127125544073,0.0
0.08600000000000001,2.6623737574508692,-0.6879674018814969,6.097259136727223,0.0,9.328346369990689,9.833382934228672,299.88823567235437,308.2127125544073,0.0
0.08700000000000001,2.880745099482598,-0.6926626758424138,6.477534541443092,0.0,9.448163246738337,10.144177262627764,299.10426042575386,308.2127125544073,0.0
0.088,3.102502094219399,-0.6872786207994181,6.9606066860298785,0.0,9.586438669856793,10.462999471718375,298.18869566719616,308.2127125544073,0.0
0.089,3.3326210733050416,-0.6754443984454706,7.518629234180843,0.0,9.74152084766396,10.79722324331045,297.2968390146355,308.2127125544073,0.0
0.09,3.576941764685353,-0.660099185666865,8.073716295858885,0.0,9.912947553667511,11.144438120566129,296.333255795601,308.2127125544073,0.0
0.091,3.835949790316306,-0.6414235597619442,8.674302472964193,0.0,10.100052210074516,11.508540113655798,295.2537347289248,308.2127125544073,0.0
0.092,4.112456734732944,-0.6205142814480151,9.343652784557113,0.0,10.302743335794306,11.894739361951846,309.2637828194224,308.2127125544073,0.0
0.093,4.3502802148937665,-0.6956484863386787,2.3281180366581884,0.0,10.532259129092836,11.46078995923194,319.7822539948817,308.2127125544073,0.0
0.094,4.100678034154633,-0.6346103725104506,-3.046812965476233,0.0,10.68796286821951,10.601934488040992,320.35891515740724,308.2127125544073,0.0
0.095,3.544403242127658,-0.45199853366744547,-3.4566055727689884,0.0,10.722733765179973,9.911901266416521,319.3058202181164,308.2127125544073,0.0
0.096,3.0400413298251023,-0.31510592387156844,-3.040989179760672,0.0,10.671792181592826,9.394081248387396,318.3860768209205,308.2127125544073,0.0
0.097,2.6548235166829226,-0.24724329076544294,-2.682851123827839,0.0,10.568066791017763,8.995518436347613,317.7479121514424,308.2127125544073,0.0
0.098,2.367117336630761,-0.22968160949825311,-2.4591207850591394,0.0,10.433604499687906,8.675263824833845,317.19671127310613,308.2127125544073,0.0
0.099,2.146148910925126,-0.24146044406899758,-2.273360333077998,0.0,10.282034264955106,8.413214256695808,316.5829430332171,308.2127125544073,0.0
0.1,1.9718867896779442,-0.2699085549744224,-2.050178517921568,0.0,10.122427600735673,8.201864166125823,315.89997824703556,308.2127125544073,0.0
0.101,1.8344682772338776,-0.3083902252451437,-1.7855687817570933,0.0,9.961595096501911,8.035937086173796,315.1557348077107,308.2127125544073,0.0
0.10200000000000001,1.7279490482706512,-0.3526042275657518,-1.4828772846276965,0.0,9.80473185824888,7.911512361177696,314.3793729433789,308.2127125544073,0.0
0.10300000000000001,1.648808398873663,-0.3986588939495615,-1.1563629563515034,0.0,9.655736344600555,7.824373725139032,313.5733776017313,308.2127125544073,0.0
0.10400000000000001,1.592663583659229,-0.44575911142406766,-0.8069719360009495,0.0,9.517646995971555,7.771601793474817,312.7841238797336,308.2127125544073,0.0
0.105,1.5576699811525565,-0.4911570302331374,-0.45805918825537173,0.0,9.392612157933286,7.748472460286221,311.92509577977796,308.2127125544073,0.0
0.106,1.5407059506989131,-0.5333139036488899,-0.06566897053125298,0.0,9.281951147267627,7.756342480409685,311.0697737197606,308.2127125544073,0.0
0.107,1.5424116940687653,-0.5716784188457762,0.33342144782390726,0.0,9.186941767618379,7.791978169220848,310.180449111927,308.2127125544073,0.0
0.108,1.5617342534556524,-0.6047994235383274,0.7584063861655106,0.0,9.10825656017938,7.855198366121131,309.03522132613784,308.2127125544073,0.0
0.109,1.5989702404899568,-0.6320891138433856,1.3227951913427707,0.0,9.046432549060947,7.958158208793667,308.07893429227227,308.2127125544073,0.0
0.11,1.6573946204032117,-0.6626957929142625,1.8022764908969102,0.0,9.004180761116354,8.085684399066174,307.0761607591881,308.2127125544073,0.0
0.111,1.7323262752778639,-0.6895318465207877,2.3150287753911853,0.0,8.981552670099479,8.240182491578722,308.7119211164198,308.2127125544073,0.0
0.112,1.8242908565055127,-0.7123997417788833,1.492156511155223,0.0,8.978884305377871,8.271957706441132,304.8254034200569,308.2127125544073,0.0
0.113,1.8653991364917355,-0.6782013394798233,3.46928845068017,0.0,8.975669795409189,8.522399534349036,303.953035982492,308.2127125544073,0.0
0.114,1.9996387406569311,-0.7104711238593697,3.948068935181768,0.0,9.001712579532908,8.7660149887109,304.96636572631206,308.2127125544073,0.0
0.115,2.1561524123866196,-0.7293715314094644,3.4738675315526875,0.0,9.051268977667153,8.915049108956119,303.8181327235764,308.2127125544073,0.0
0.116,2.2716658563245655,-0.7066821661554014,4.091929831228822,0.0,9.108088313759051,9.115722981875027,302.66973194048256,308.2127125544073,0.0
0.117,2.4061781113315615,-0.6911368204617983,4.721560028914993,0.0,9.177810009159893,9.351448886248566,300.70977075549047,308.2127125544073,0.0
0.11800000000000001,2.5649693141423318,-0.6827840340377832,5.77657003940021,0.0,9.263368772408299,9.664207259142232,299.4718689342021,308.2127125544073,0.0
0.11900000000000001,2.771328732374657,-0.6899425666831991,6.482929386246434,0.0,9.372518463076464,10.000283475142153,299.1809685967343,308.2127125544073,0.0
0.12,3.002738989150078,-0.6951020925312044,6.718696994557066,0.0,9.504856768794635,10.309146347991636,298.33397791084946,308.2127125544073,0.0
0.121,3.2271030279660122,-0.6852719161874212,7.240979683935075,0.0,9.65371461656964,10.633084242174467,297.4236152990899,308.2127125544073,0.0
0.122,3.462125555919868,-0.6703048651990009,7.80405196236804,0.0,9.818532395140142,10.972620417763592,296.52552228169225,308.2127125544073,0.0
0.123,3.712386045896854,-0.6523600458940035,8.369970373794004,0.0,9.998997753798836,11.326126627505447,295.53799615152195,308.2127125544073,0.0
0.124,3.9785038511995916,-0.6315505833248758,8.990480602908004,0.0,10.194657604876287,11.698155339543739,302.2885853616226,308.2127125544073,0.0
0.125,4.246004964953386,-0.6388166014644467,5.674427269785523,0.0,10.408961698670876,11.654812252091448,312.8854857917558,308.2127125544073,0.0
0.126,4.2157995558127395,-0.6657570119934229,0.32924932234544446,0.0,10.600391859317561,11.088422448019665,320.44285358422326,308.2127125544073,0.0
0.127,3.8528365392219786,-0.5646797502973577,-3.571735984186445,0.0,10.70465212060055,10.261781913909202,320.242353740068,308.2127125544073,0.0
0.128,3.3019280608022026,-0.39121199919935945,-3.5917824739654147,0.0,10.697751622340368,9.622006500987984,318.7106744164172,308.2127125544073,0.0
0.129,2.8334187050607142,-0.2765797388383251,-2.930922430760118,0.0,10.616688761485353,9.164440593530605,317.75429147715,308.2127125544073,0.0
0.13,2.4929349270172656,-0.23290167416678642,-2.548146750353945,0.0,10.494317331459838,8.812789837173456,317.2226159017699,308.2127125544073,0.0
0.131,2.2426748641524767,-0.2323435055969416,-2.3724079961375395,0.0,10.349393350905201,8.523694288743906,316.6292575459116,308.2127125544073,0.0
0.132,2.04746658047911,-0.2535735374921899,-2.159894268123433,0.0,10.192393098757238,8.289605330216652,315.97408924554605,308.2127125544073,0.0
0.133,1.8938147966125378,-0.2880274007665079,-1.909923884852034,0.0,10.031261600612577,8.103546460595638,315.2589038256379,308.2127125544073,0.0
0.134,1.7738249813644584,-0.3302768650835476,-1.6227930876102636,0.0,9.871940267762405,7.9607273738247555,314.5239229340654,308.2127125544073,0.0
0.135,1.6826291026245406,-0.37629198597490765,-1.3184147456205995,0.0,9.718908328175043,7.855700020601302,313.72161331383546,308.2127125544073,0.0
0.136,1.6158951136208597,-0.42276901263239175,-0.9723489430999068,0.0,9.575329168947487,7.787324443601843,312.9183938140153,308.2127125544073,0.0
0.137,1.571333859988794,-0.4692384223879678,-0.6177960057859075,0.0,9.443917232749275,7.7512030714684,312.1106431994349,308.2127125544073,0.0
0.138,1.5464650624341194,-0.5133535481145701,-0.25290000494597686,0.0,9.326422322689911,7.744435628842423,311.25700024291234,308.2127125544073,0.0
