timestamp,iq,id,iq_ref,id_ref,vq,vd,omega,omega_ref,r
0.0,0.0,0.0,0.0,0.0,0.0,0.0,0.0,74.65389222856128,0.0
0.001,0.0,0.0,10.0,0.0,0.0,1.0999999999999999,7.429361601188529,74.65389222856128,0.0
0.002,0.33674202229220906,-0.17475725304375264,10.0,0.0,0.1292232978348128,1.9529583775478563,17.230346646215573,74.65389222856128,0.0
0.003,0.7151076859906397,-0.37802015221354535,10.0,0.0,0.35143145001916953,2.695290444340505,27.702144859327245,74.65389222856128,0.0
0.004,1.061229792117997,-0.5658346681490101,10.0,0.0,0.6442789614255585,3.351320344635297,38.49395023333275,74.65389222856128,0.0
0.005,1.355365194114319,-0.724602908644168,10.0,0.0,0.989031073015901,3.942138332882928,49.56572120454223,74.65389222856128,0.0
0.006,1.598478859059808,-0.8540791049541019,10.0,0.0,1.3710444714611132,4.48454858434079,60.79318763132271,74.65389222856128,0.0
0.007,1.7981769331985193,-0.9589134802065589,8.15270535066455,0.0,1.779334574522261,4.788181087564682,70.69419653865943,74.65389222856128,0.0
0.008,1.9017650418115162,-1.0118975229096274,3.2417978538952106,0.0,2.1819388185444972,4.571154761414987,76.35594796066913,74.65389222856128,0.0
0.009000000000000001,1.8076921094429748,-0.9590532136116842,0.393901585569282,0.0,2.5162372910997353,4.163315881380995,78.51790821240442,74.65389222856128,0.0
0.01,1.5854131519343897,-0.8342945579493266,-0.7257187001367966,0.0,2.7631270193661694,3.7585214238637756,78.67821383639631,74.65389222856128,0.0
0.011,1.3256300030335273,-0.6869288850243692,-0.8461147282110912,0.0,2.9298856915891185,3.4432013814978193,78.01149313529731,74.65389222856128,0.0
0.012,1.0914208466138233,-0.5518805758309021,-0.546330386728954,0.0,3.0350548350711435,3.23343462415169,77.33802480545016,74.65389222856128,0.0
0.013000000000000001,0.9107311731155014,-0.44560521330748326,-0.23643754757426594,0.0,3.098390581684714,3.1037855983011884,76.90994830946842,74.65389222856128,0.0
0.014,0.7840200682910293,-0.3694765701201936,-0.04495986039246658,0.0,3.1351164539265057,3.0235299916912535,76.62737634796177,74.65389222856128,0.0
0.015,0.6992726911328925,-0.31801009744956094,0.07659127916685238,0.0,3.1552441527212305,2.9744834818853505,76.36261452655913,74.65389222856128,0.0
0.016,0.6446263962967167,-0.28405918388521256,0.19188496688819545,0.0,3.165234494890521,2.948984805853661,76.12404030704589,74.65389222856128,0.0
0.017,0.6116548708510133,-0.262539176204587,0.29647059585996915,0.0,3.169648243530488,2.9404669188024166,75.91918307608073,74.65389222856128,0.0
0.018000000000000002,0.5939905277303437,-0.24973542697183027,0.38624630286735484,0.0,3.171575616262536,2.9436850292902044,75.73978979647036,74.65389222856128,0.0
0.019,0.5870473692482212,-0.2424692169193024,0.465083966993447,0.0,3.1729608171567074,2.9551355559880426,75.74364834529756,74.65389222856128,0.0
0.02,0.5874763554387028,-0.23860743203206966,0.45225713141248614,0.0,3.1750004163941754,2.963263601484573,75.91402705453129,74.65389222856128,0.0
0.021,0.589404691677251,-0.23653813796198042,0.3544664285359206,0.0,3.177459855758712,2.9599462662702494,75.7273778599429,74.65389222856128,0.0
0.022,0.5882987343074964,-0.23370008465626435,0.4370561695162962,0.0,3.1790501247424348,2.9674103257234767,75.48841596621348,74.65389222856128,0.0
0.023,0.5899056098284536,-0.23141388102390476,0.5481918790044864,0.0,3.181004670906606,2.9854982208826484,75.364628524185,74.65389222856128,0.0
0.024,0.5963595625515973,-0.23014697943424423,0.6029782370624925,0.0,3.184456054831739,3.0061940573894823,75.54666893618199,74.65389222856128,0.0
0.025,0.6050163611249307,-0.23026682590519404,0.5030302639877886,0.0,3.189657736142742,3.0127355997035132,75.6442548705644,74.65389222856128,0.0
0.026000000000000002,0.609662478427626,-0.2292553131016889,0.44433367037655314,0.0,3.1948809386809525,3.0132615054331895,75.39532305218331,74.65389222856128,0.0
0.027,0.6110509409357581,-0.2264610988143734,0.5613852713308733,0.0,3.199337163094741,3.0276135131819397,75.09600937208863,74.65389222856128,0.0
0.028,0.6159359762434691,-0.22429274203173802,0.706620939942942,0.0,3.2045723887388085,3.0552578808762108,75.29770336274755,74.65389222856128,0.0
0.029,0.6265632544578714,-0.22383601515523793,0.599335833271617,0.0,3.2120199721993075,3.066287465694988,75.47078396511073,74.65389222856128,0.0
0.03,0.63327080404838,-0.22293731540622247,0.5046266147245367,0.0,3.219731466092008,3.066982129731659,75.28692550967864,74.65389222856128,0.0
0.031,0.6354044944372456,-0.21988424159415343,0.5902255096294069,0.0,3.226414425877268,3.0785738169320696,74.90724402626476,74.65389222856128,0.0
0.032,0.6394046865730667,-0.21726524263568125,0.77753273335931,0.0,3.2333306992567312,3.109003752821154,75.07377422715997,74.65389222856128,0.0
0.033,0.6511392608346659,-0.21569571784848326,0.6900688129257181,0.0,3.2424518811501493,3.1243374177268652,75.32807386470543,74.65389222856128,0.0
0.034,0.6595249105829282,-0.21486146231247286,0.5561771777915476,0.0,3.252118238483708,3.124391317941231,75.1531030525864,74.65389222856128,0.0
0.035,0.6621784183319182,-0.21136400157979784,0.6386704756108104,0.0,3.2604469719801132,3.1356116136240715,74.7255281450773,74.65389222856128,0.0
0.036000000000000004,0.666388686019,-0.20809185406892514,0.8517415702001987,0.0,3.268739900076293,3.168719046146818,74.94495440523713,74.65389222856128,0.0
0.037,0.679289523350466,-0.20609537227222782,0.7391178183535296,0.0,3.279327387092601,3.1834487151482906,75.19658843046267,74.65389222856128,0.0
0.038,0.6879028089709913,-0.20497941326841745,0.6078738437217448,0.0,3.2902263016349744,3.1836351132152743,74.93690973391148,74.65389222856128,0.0
0.039,0.690948262258332,-0.2009293864342954,0.7348830169438383,0.0,3.299619621168093,3.1999273447251415,74.64287285224894,74.65389222856128,0.0
0.04,0.6977694242046661,-0.19674292790638917,0.8820116515382291,0.0,3.309282821729158,3.2297238698292734,74.93652369899323,74.65389222856128,0.0
0.041,0.7098379478106094,-0.19531846233690298,0.7323599134617672,0.0,3.3208445281171644,3.238314758967553,74.92175547338132,74.65389222856128,0.0
0.042,0.7166872384142741,-0.19287470764457532,0.737065393819518,0.0,3.3318545844197374,3.24858411332058,74.71030890983778,74.65389222856128,0.0
0.043000000000000003,0.7223625570626376,-0.18973380740397564,0.8422245087785263,0.0,3.342469509047813,3.2698921935651906,74.46334523688196,74.65389222856128,0.0
0.044,0.7324850671675461,-0.18563411340691816,0.9676118151732267,0.0,3.3537341919002728,3.3018152478769194,74.81882638702218,74.65389222856128,0.0
0.045,0.7464373942208288,-0.18471916299999278,0.788221898518507,0.0,3.3670050642938674,3.3092521702719426,74.70384004906904,74.65389222856128,0.0
0.046,0.7537672490896409,-0.18211774320082733,0.84521558929,0.0,3.379415535013765,3.3246689320531972,74.26786548223679,74.65389222856128,0.0
0.047,0.7621882399442692,-0.17805988751607088,1.0670631401693735,0.0,3.3917062849124693,3.362765347972014,74.73308214713907,74.65389222856128,0.0
0.048,0.7781539494197687,-0.1767008307744546,0.8336629085324526,0.0,3.406468683728452,3.368716678166203,74.64748963233293,74.65389222856128,0.0
0.049,0.7854548322694747,-0.17422355149878796,0.8765231918978047,0.0,3.420091065529349,3.3819543086904167,74.14431872560259,74.65389222856128,0.0
0.05,0.7933909414261504,-0.16952417768890862,1.133204380292565,0.0,3.4331828138762477,3.422236779053332,74.62233809636065,74.65389222856128,0.0
0.051000000000000004,0.8102913403596071,-0.16756126750479194,0.8945102362355402,0.0,3.448824708042594,3.4291973266933122,74.60077901427866,74.65389222856128,0.0
0.052000000000000005,0.8181611196458736,-0.16530052175371607,0.9058209094193626,0.0,3.463369414625527,3.4399604527445646,74.04014996670041,74.65389222856128,0.0
0.053,0.8258837259777339,-0.15990869186790374,1.192272855827094,0.0,3.4769654693253638,3.4817275553183555,74.50457647261646,74.65389222856128,0.0
0.054,0.8433931843002475,-0.15773047767705722,0.9615527604285166,0.0,3.49319294355046,3.4905850087946715,74.48847079596693,74.65389222856128,0.0
0.055,0.8522110021025165,-0.15572233717631656,0.9712598130792254,0.0,3.5084843023875054,3.502759575716406,73.87957998092432,74.65389222856128,0.0
0.056,0.8611622906710809,-0.15016564557676776,1.2834483430769015,0.0,3.522872827362076,3.5485930260383878,74.49078405303331,74.65389222856128,0.0
0.057,0.8805010405952028,-0.1485955579785096,0.9794773887776864,0.0,3.5402887021515776,3.5526855439467737,74.22536719985456,74.65389222856128,0.0
0.058,0.8885825693212142,-0.14624710324158036,1.1164710656541281,0.0,3.556129612107885,3.5755238308820494,73.85307772685519,74.65389222856128,0.0
0.059000000000000004,0.9014311848421299,-0.14083571221524116,1.3106239471708738,0.0,3.5720984912965625,3.6163167278974644,74.43746437458661,74.65389222856128,0.0
0.06,0.9198599821855653,-0.14016053711506488,1.02059490184491,0.0,3.5905296169171566,3.6188838177766156,73.92905233268041,74.65389222856128,0.0
0.061,0.92791059851975,-0.13670674334826055,1.2820493217568174,0.0,3.607001173400261,3.6539963080501545,73.95509923739867,74.65389222856128,0.0
0.062,0.9451928419720816,-0.13176830693951858,1.276013799309315,0.0,3.6248281331951144,3.6821457126598904,74.31131391380883,74.65389222856128,0.0
0.063,0.9603742633234108,-0.13130134987293673,1.1013322442517588,0.0,3.64368535655822,3.6886111230421577,73.54353781935504,74.65389222856128,0.0
0.064,0.969858838649452,-0.12616477877764842,1.496323835570718,0.0,3.660743045373425,3.74062011624582,74.29390768212511,74.65389222856128,0.0
0.065,0.9925118508601696,-0.1240629896329919,1.124738749650044,0.0,3.6811160335325175,3.7419127180562537,73.80479905372822,74.65389222856128,0.0
0.066,1.0011502293710708,-0.12129328122359889,1.3777839955968205,0.0,3.699297333023157,3.775940494900812,73.81214017040419,74.65389222856128,0.0
0.067,1.0189000723153827,-0.11576595138038248,1.3825309578404041,0.0,3.7184829710505287,3.8045092384585426,74.10675825294028,74.65389222856128,0.0
0.068,1.0345733384637845,-0.11525896894672294,1.2406932563285693,0.0,3.7386064248616657,3.814943493827617,73.3006568320961,74.65389222856128,0.0
0.069,1.0465520587343526,-0.10928631386695442,1.657276320715314,0.0,3.7571090365941586,3.8724282565702803,74.32412144637148,74.65389222856128,0.0
0.07,1.0712872971155352,-0.10918410812933671,1.1488417213995203,0.0,3.7795583473473275,3.8633200786240964,73.63347241726355,74.65389222856128,0.0
0.07100000000000001,1.0782593275332224,-0.10472511510796051,1.504370434066463,0.0,3.7983624420555877,3.9010405829722363,75.2525166335156,74.65389222856128,0.0
0.07200000000000001,1.091198203640828,-0.10855870176834154,0.6888620818908949,0.0,3.8195244621906896,3.8422546844227465,74.87807849175945,74.65389222856128,0.0
0.073,1.07319029760049,-0.10666874746587168,0.8738392901369854,0.0,3.832445459617458,3.8220764125960547,75.45437807318494,74.65389222856128,0.0
0.074,1.0597294281632665,-0.10137969603937302,0.5776846409780048,0.0,3.8414936340049897,3.7720819007824518,75.75793614551083,74.65389222856128,0.0
0.075,1.0347851980921172,-0.09879708832018336,0.41486516564556697,0.0,3.8444063434375617,3.715652318407436,75.42613517734083,74.65389222856128,0.0
0.076,1.0073120401148208,-0.091172914044095,0.5730432202427718,0.0,3.840571990596198,3.6869573510489895,75.97380602657242,74.65389222856128,0.0
0.077,0.9865781743922302,-0.08943412664906142,0.28600865764686345,0.0,3.8341365514324326,3.62959885636044,75.5434834851537,74.65389222856128,0.0
0.078,0.9608563366826086,-0.08494621255678403,0.4922740157902983,0.0,3.8221325240399886,3.60551426573694,75.833698487259,74.65389222856128,0.0
0.079,0.9443173369300426,-0.08461547795989827,0.3353684521506717,0.0,3.8089289386597063,3.5648775374504376,75.7627809826763,74.65389222856128,0.0
0.08,0.9255038844538392,-0.08568423665127006,0.359738316900869,0.0,3.7931029097908184,3.53313795398833,75.68124770773333,74.65389222856128,0.0
0.081,0.9101795634302083,-0.08657619674765887,0.39023139958063346,0.0,3.7757729534863005,3.507597807220655,75.75905509956056,74.65389222856128,0.0
0.082,0.897507274693842,-0.09006263299736905,0.34027607495703005,0.0,3.7579965665219697,3.478319371514667,75.694708568855,74.65389222856128,0.0
0.083,0.8852556926814876,-0.09327878468629247,0.36204117690686743,0.0,3.739388887006757,3.4543058062775556,75.70051701006915,74.65389222856128,0.0
0.084,0.8747199513117606,-0.09748935606976522,0.3486707084847175,0.0,3.720671620254648,3.430180842797246,75.68944536012701,74.65389222856128,0.0
0.085,0.8648453184260264,-0.10202158869894917,0.3438510021401294,0.0,3.7018700237050948,3.40718103817981,75.67668602518462,74.65389222856128,0.0
0.08600000000000001,0.855570540467391,-0.10676187559511152,0.34000273164508976,0.0,3.683124715581039,3.3851474209247434,75.669613412213,74.65389222856128,0.0
0.08700000000000001,0.8467664777970119,-0.1116793993140287,0.33338182629438573,0.0,3.6645441012840005,3.363628516813307,75.6619067162946,74.65389222856128,0.0
0.088,0.8382390684146788,-0.11665005746370422,0.32715502937625307,0.0,3.646167255164799,3.3426346774811764,75.65502587795164,74.65389222856128,0.0
0.089,0.8299025842754195,-0.12162125280888247,0.3205841120538251,0.0,3.628025834630777,3.322073743695548,75.64892458547799,74.65389222856128,0.0
0.09,0.821687556157468,-0.12655479079466092,0.3136844347214873,0.0,3.610135439996578,3.3018817941533287,75.64296664956368,74.65389222856128,0.0
0.091,0.8135452745499359,-0.13142036193340506,0.30677265846861834,0.0,3.59250076731698,3.2820422021830677,75.63703307728461,74.65389222856128,0.0
0.092,0.8054512102648754,-0.13620146890939072,0.299908036120916,0.0,3.5751228687642884,3.2625460357014378,75.63098145108886,74.65389222856128,0.0
0.093,0.7973941654087044,-0.14088900987324043,0.29316295699351813,0.0,3.5580009618549653,3.2433937178234915,75.62502900181468,74.65389222856128,0.0
0.094,0.7893734886934374,-0.14547568386465698,0.28642781389807204,0.0,3.5411336725781983,3.2245727300833,75.62355161639704,74.65389222856128,0.0
0.095,0.7814027365806122,-0.14992833736529193,0.2774699127285364,0.0,3.5245149386002432,3.205825670457014,75.62243374981283,74.65389222856128,0.0
0.096,0.7733642549514821,-0.15427716479402748,0.2683434308081256,0.0,3.5081172165396115,3.1871816348540896,75.61078071502368,74.65389222856128,0.0
0.097,0.7652616226942448,-0.1584743271980682,0.26460106333807576,0.0,3.491913062714906,3.1692527397348966,75.60176161977662,74.65389222856128,0.0
0.098,0.7573133723256763,-0.1625594624227012,0.25963191704944966,0.0,3.47594382801142,3.151780417546073,75.59901975435957,74.65389222856128,0.0
0.099,0.7494763605515107,-0.16659676978714882,0.2515515744999919,0.0,3.4602275370172464,3.134401846679704,75.5882094511274,74.65389222856128,0.0
0.1,0.7416316310792626,-0.1705327975207157,0.24761355389041895,0.0,3.4447376080128995,3.1176216750832015,75.5741213274366,74.65389222856128,0.0
0.101,0.7339299056691204,-0.17435646000380162,0.24545532474706433,0.0,3.4294998973451407,3.101541245246633,75.56683152613034,74.65389222856128,0.0
0.10200000000000001,0.7264357580780324,-0.17812728693511004,0.23997083242450223,0.0,3.414554469098113,3.0857107144438163,75.55835041233034,74.65389222856128,0.0
0.10300000000000001,0.7190172025604655,-0.18182456833937066,0.2351668074868125,0.0,3.399889523280663,3.0702361957076785,75.5445362381624,74.65389222856128,0.0
0.10400000000000001,0.7116822945392982,-0.18540816246879172,0.23316745447477516,0.0,3.3855008427115365,3.055403400008615,75.53223940574357,74.65389222856128,0.0
0.105,0.7045269636680306,-0.18890330543118788,0.23053239891236532,0.0,3.371416380413989,3.0410588905564304,75.52220950198921,74.65389222856128,0.0
0.106,0.6975252126614686,-0.1923238831991186,0.22686417805526493,0.0,3.357647225525824,3.0270618713830597,75.51012933693042,74.65389222856128,0.0
0.107,0.6906269739084004,-0.19564497523497065,0.22434188950096878,0.0,3.344186398555403,3.0135356578585806,75.49647847060295,74.65389222856128,0.0
0.108,0.6838609754137872,-0.19886033579483922,0.22274146024428554,0.0,3.3310395116708023,3.000540436103692,75.4834755178667,74.65389222856128,0.0
0.109,0.6772558080113027,-0.2019820561693718,0.22094710371936033,0.0,3.3182190269347736,2.988007581339984,75.47059688586978,74.65389222856128,0.0
0.11,0.6707991462716696,-0.20500909217975502,0.2192193731447315,0.0,3.3057290619533743,2.97591803789842,75.45683257519924,74.65389222856128,0.0
0.111,0.664483565401881,-0.20793341957317676,0.21807212501362094,0.0,3.29357054477913,2.9643096795924753,75.44248130066336,74.65389222856128,0.0
0.112,0.6583211033183632,-0.21075457878063392,0.21736187156054176,0.0,3.2817481277306024,2.953194365021663,75.42797423578527,74.65389222856128,0.0
0.113,0.6523211039300119,-0.21347501893625054,0.21687458392734615,0.0,3.2702674577548905,2.9425602164098423,75.41319500473068,74.65389222856128,0.0
0.114,0.6464846587399491,-0.21609393352199865,0.21667117169294692,0.0,3.2591323161184427,2.932405922169204,75.39797383755881,74.65389222856128,0.0
0.115,0.6408137725665751,-0.21860946548809948,0.21684093918890812,0.0,3.2483457785919896,2.9227396847630542,75.38234927163073,74.65389222856128,0.0
0.116,0.6353137202127187,-0.22102117974907737,0.21736865172225284,0.0,3.2379114043266144,2.913566064945773,75.3663919896121,74.65389222856128,0.0
0.117,0.6299896083392806,-0.22332926083294524,0.21822229512106095,0.0,3.227832877282662,2.904885645114757,75.35010005158507,74.65389222856128,0.0
0.11800000000000001,0.6248451998450382,-0.2255335693284624,0.21940618590433492,0.0,3.218113554083674,2.8966997499302534,75.33345013849434,74.65389222856128,0.0
0.11900000000000001,0.6198840032264783,-0.22763392195092608,0.2209355633503698,0.0,3.2087565693896485,2.88901119209863,75.31643857396303,74.65389222856128,0.0
0.12,0.615109802855859,-0.22963057323846184,0.22281588216201031,0.0,3.1997650554972683,2.881822882950169,75.30182992235804,74.65389222856128,0.0
0.121,0.61054082244237,-0.2314985346931464,0.22364083102653654,0.0,3.19113937132642,2.8749810403560763,75.2931660905987,74.65389222856128,0.0
0.122,0.6061354127909643,-0.2332100884760454,0.22158000828583002,0.0,3.182861662614819,2.8681647788717037,75.28370032512844,74.65389222856128,0.0
0.123,0.6017611675151031,-0.23474253659777766,0.220014810055292,0.0,3.174881552381502,2.861487921970487,75.2713483560988,74.65389222856128,0.0
0.124,0.5974298855267721,-0.2360702046087095,0.22001623329473563,0.0,3.1671624864813803,2.8551292468406624,75.24635804548615,74.65389222856128,0.0
0.125,0.5931646633103314,-0.23729426568952783,0.22658673043181243,0.0,3.15970082969707,2.849783134710418,75.20622337490926,74.65389222856128,0.0
0.126,0.5892091089788027,-0.2385367328086529,0.24113075425677766,0.0,3.152575158150461,2.8461520645184457,75.17308742564725,74.65389222856128,0.0
0.127,0.5859010340696935,-0.2398988019805183,0.2525067769169198,0.0,3.14593634967703,2.843601789142063,75.15071203144818,74.65389222856128,0.0
0.128,0.5831511976325638,-0.24133264834788148,0.2587262759875876,0.0,3.139850496921994,2.841482446386139,75.12794151959875,74.65389222856128,0.0
0.129,0.5807134312665742,-0.2427075652355396,0.2653710390019277,0.0,3.1342981975608395,2.839875837507064,75.10627314158661,74.65389222856128,0.0
0.13,0.5785256260678694,-0.2439609442918448,0.271681418877743,0.0,3.129264589775209,2.8387186346441737,75.09122472016115,74.65389222856128,0.0
0.131,0.5765818559585926,-0.24499540916004348,0.2748323046744751,0.0,3.1247198798267917,2.837649221587925,75.08797223104565,74.65389222856128,0.0
0.132,0.5746844028613052,-0.24587541485473147,0.2721177492073795,0.0,3.120609155545325,2.8360914510227206,75.07626477261196,74.65389222856128,0.0
0.133,0.5726025442886917,-0.24651317310974752,0.27374775298371784,0.0,3.116815079986589,2.834694860967973,75.05270221079417,74.65389222856128,0.0
0.134,0.5704984048459293,-0.24691798019149824,0.2815409340702878,0.0,3.1132989041746955,2.8341101089975647,75.02683551329102,74.65389222856128,0.0
0.135,0.5686403910030136,-0.24721442012107317,0.29074484997456407,0.0,3.1101044310683843,2.8343500537099047,75.0026036671732,74.65389222856128,0.0
