timestamp,iq,id,iq_ref,id_ref,vq,vd,omega,omega_ref,r
0.0,0.0,0.0,0.0,0.0,0.0,0.0,0.0,28.171351548305523,0.0
0.001,0.0,0.0,10.0,0.0,0.0,1.0999999999999999,24.565891342506784,28.171351548305523,0.0
0.002,0.40277142726233645,-0.21666217181670352,2.0331504346476956,0.0,0.13383283889983733,1.0693416908123894,20.750051795581744,28.171351548305523,0.0
0.003,0.49069696860286516,-0.2856511864414532,4.015283205637454,0.0,0.25663873288148537,1.3471915016210851,32.17874181378586,28.171351548305523,0.0
0.004,0.6043926510465759,-0.3352644597486011,-1.7391357061194088,0.0,0.39971658846337693,0.9451022430885212,25.24089538277091,28.171351548305523,0.0
0.005,0.45955668004491546,-0.26696055021290643,1.7590920710434144,0.0,0.48026816985182497,1.0569478542075015,32.685008051280725,28.171351548305523,0.0
0.006,0.4415102787424341,-0.24309835661854445,-2.008100828241246,0.0,0.5620073520133033,0.716827310093744,26.03281257710961,28.171351548305523,0.0
0.007,0.28862788336688505,-0.1670952150227644,1.339382298556271,0.0,0.593438837907666,0.8414244110263689,31.955235520741713,28.171351548305523,0.0
0.008,0.28124856260185255,-0.15168088641823976,-1.6596680129841428,0.0,0.6332513405753151,0.5926174862481454,26.15274545616888,28.171351548305523,0.0
0.009000000000000001,0.17490228744623468,-0.10034216081441509,1.2617630802236401,0.0,0.6387087839680013,0.735644724642237,31.303155042103985,28.171351548305523,0.0
0.01,0.19434065955431054,-0.10217084469086914,-1.3447597476818967,0.0,0.6586377493432765,0.5457814778510565,26.251398640332194,28.171351548305523,0.0
0.011,0.1234006991131322,-0.06976447091796575,1.2003179822837315,0.0,0.654004505548122,0.6909190102214067,30.869009863318,28.171351548305523,0.0
0.012,0.1569779147769307,-0.0810548271100913,-1.1354642123592953,0.0,0.6659143422883806,0.5342897529373872,26.3797926417307,28.171351548305523,0.0
0.013000000000000001,0.10515234494699964,-0.05858681918651397,1.1270599875001028,0.0,0.6583858851926971,0.6727864738246901,30.59874037640784,28.171351548305523,0.0
0.014,0.14287281402974242,-0.07323488312517114,-1.0066877681194906,0.0,0.6672959130078001,0.5346756744995441,26.49230108156425,28.171351548305523,0.0
0.015,0.10024949997576517,-0.055254941537864324,1.0633223839697168,0.0,0.6593795838948878,0.6653713214111969,30.439109504778816,28.171351548305523,0.0
0.016,0.13795109737076625,-0.07058980837664322,-0.9327594072022992,0.0,0.6671910871525708,0.537363263316589,26.562427144483276,28.171351548305523,0.0
0.017,0.09955099357343121,-0.05445384378197458,1.0216710169836931,0.0,0.6594923295012234,0.6624863533210469,30.35402647496899,28.171351548305523,0.0
0.018000000000000002,0.1363454613880595,-0.06973115945080761,-0.8959553975257981,0.0,0.6669176209849748,0.5394126562244375,26.587884547056483,28.171351548305523,0.0
0.019,0.09973914436568591,-0.05423832464771257,1.002950236442946,0.0,0.6594360286256615,0.6618393814181285,30.319980952229585,28.171351548305523,0.0
0.02,0.13594316737063378,-0.06945209361871667,-0.884584260182846,0.0,0.6667737109564899,0.5403089181872264,26.575906839297264,28.171351548305523,0.0
0.021,0.09986077340867311,-0.05403117749840572,1.003407243373397,0.0,0.6593761402682008,0.6625507834358072,30.322149099896155,28.171351548305523,0.0
0.022,0.1360567980235446,-0.06937463922749966,-0.8912218624419546,0.0,0.6667845031250025,0.5401972017681943,26.53456762908244,28.171351548305523,0.0
0.023,0.09974110348520805,-0.0537098141333156,1.0189367121571344,0.0,0.6593401061517115,0.6642402354624423,30.35153640256714,28.171351548305523,0.0
0.024,0.13647389221240602,-0.06939331140994878,-0.9113495231278333,0.0,0.6669262851965456,0.5392976907572234,26.469835372311,28.171351548305523,0.0
0.025,0.09940138587332904,-0.05327094020136124,1.046516153760183,0.0,0.6593292960606638,0.666721408822112,30.403027644926972,28.171351548305523,0.0
0.026000000000000002,0.1371267430586241,-0.06948171148824346,-0.9423967435140177,0.0,0.6671787861985017,0.537763466344108,26.385236102355304,28.171351548305523,0.0
0.027,0.09888435446146587,-0.05272904031615052,1.0843601822313187,0.0,0.6593426315329565,0.6699025742499577,30.474112592311048,28.171351548305523,0.0
0.028,0.13799213706329266,-0.06963471877003906,-0.9831056731866088,0.0,0.6675311544661993,0.5356710625730695,26.2822913798002,28.171351548305523,0.0
0.029,0.09821601780415862,-0.052093036489464103,1.1316955347538689,0.0,0.6593790321030271,0.6737507967293498,30.564081062789235,28.171351548305523,0.0
0.03,0.13906434402831383,-0.06985388088061881,-1.033126601885486,0.0,0.6679792050976326,0.5330378210467024,26.1610063939948,28.171351548305523,0.0
0.031,0.09740394341567822,-0.05136410850492486,1.1885141840548386,0.0,0.6594365798192753,0.678275995381241,30.673542543442526,28.171351548305523,0.0
0.032,0.14034836673470974,-0.07014451613986859,-1.0927758006203945,0.0,0.668522777065808,0.5298372930095914,26.020204659925593,28.171351548305523,0.0
0.033,0.09644159060799347,-0.05053729920344262,1.2554046100218714,0.0,0.6595118864111665,0.6835230152242906,30.804176188266307,28.171351548305523,0.0
0.034,0.1418582359050992,-0.07051547831269843,-1.1629094005480938,0.0,0.6691643289148413,0.5260078321389883,25.85768829706478,28.171351548305523,0.0
0.035,0.09531149509882365,-0.04960274466498944,1.3334711775650778,0.0,0.6595998263672779,0.6895687232523935,30.958654644441857,28.171351548305523,0.0
0.036000000000000004,0.14361679301482566,-0.0709795221649551,-1.2448850270848246,0.0,0.6699084360472848,0.521455036528258,25.670241838694462,28.171351548305523,0.0
0.037,0.09398643360614603,-0.04854595409893229,1.4243324728849838,0.0,0.6596933558246147,0.6965234590018292,31.140718435228337,28.171351548305523,0.0
0.038,0.14565644026582317,-0.07155403642943967,-1.3405994942511816,0.0,0.6707618506085854,0.516048835494449,25.45348087199048,28.171351548305523,0.0
0.039,0.09242879537942943,-0.04734719089488129,1.5301979941308976,0.0,0.6597831997313142,0.7045373082136941,31.35560091097622,28.171351548305523,0.0
0.04,0.14802094933485796,-0.072262614864346,-1.4527045189886807,0.0,0.6717340263056814,0.5096044038623522,25.201165064964687,28.171351548305523,0.0
0.041,0.09058443837347667,-0.04597775479820404,1.6542152688504947,0.0,0.6598559909405074,0.7138240121423923,31.61033335396056,28.171351548305523,0.0
0.042,0.15077274759216897,-0.07313815837492914,-1.5847586937039917,0.0,0.672838212933956,0.501882443174856,24.905058663782196,28.171351548305523,0.0
0.043000000000000003,0.08838482416826333,-0.04440136450990431,1.8005415802304234,0.0,0.6598954044703863,0.7246705777305654,31.914596770518262,28.171351548305523,0.0
0.044,0.15399640071474233,-0.0742258568408826,-1.7416599253597371,0.0,0.6740937524038023,0.49254929697573296,24.553379101704845,28.171351548305523,0.0
0.045,0.0857338611456639,-0.04256606540554946,1.9751286335129783,0.0,0.6598793154871969,0.7374937307396893,32.28278662019764,28.171351548305523,0.0
0.046,0.15781488019242187,-0.0755923372276152,-1.9306894764523408,0.0,0.6755302534534284,0.48110286225984294,24.127645140462615,28.171351548305523,0.0
0.047,0.08248592836473348,-0.04039195385158085,2.187318327493601,0.0,0.6597747058854674,0.7529622088498245,32.74362834922994,28.171351548305523,0.0
0.048,0.1624239103424169,-0.07735206973572921,-2.166396044899304,0.0,0.6771982643143174,0.4664249394855107,23.588598104833412,28.171351548305523,0.0
0.049,0.07829361771816452,-0.03769016033071339,2.4569466117336796,0.0,0.659493328770458,0.7724423008625153,33.32986694878272,28.171351548305523,0.0
0.05,0.1682308725604971,-0.07969871758002461,-2.465272964245748,0.0,0.6791781833101593,0.4476754516644674,22.928005561077935,28.171351548305523,0.0
0.051000000000000004,0.07294069569294549,-0.034409690783891486,2.788091189478922,0.0,0.659015988956018,0.7958273175135567,34.03379914050475,28.171351548305523,0.0
0.052000000000000005,0.17516334699042566,-0.0825353759780766,-2.8234300761564763,0.0,0.6814319162615214,0.4251494031737837,22.14022904482363,28.171351548305523,0.0
0.053,0.06651906654979058,-0.030579239089865422,3.183666196718901,0.0,0.658342027492852,0.8236497730326285,34.88111178457767,28.171351548305523,0.0
0.054,0.18341906336174418,-0.08601936847931375,-3.25387277552084,0.0,0.6840291401886555,0.39784542489987557,21.192480499544427,28.171351548305523,0.0
0.055,0.05873581153584635,-0.02601997249261405,3.6602315774833922,0.0,0.657412771949172,0.8570012490718096,35.904842378411544,28.171351548305523,0.0
0.056,0.1933099737430951,-0.09030270222348279,-3.7732842702512266,0.0,0.6870447171810928,0.36470207686069495,20.04800836330951,28.171351548305523,0.0
0.057,0.04929517241194699,-0.020570722173717866,4.2363661691497505,0.0,0.6561702055659269,0.8971800929738363,37.172921945801306,28.171351548305523,0.0
0.058,0.2051705918816057,-0.09566890092235818,-4.416106326071105,0.0,0.6905890661864402,0.32286793329086905,18.612483633594593,28.171351548305523,0.0
0.059000000000000004,0.037295978121726296,-0.013689040837902886,4.959701509179361,0.0,0.6543660583798289,0.9473174241762932,38.76426034468768,28.171351548305523,0.0
0.06,0.21991622383260584,-0.10251464064753683,-5.222115934331003,0.0,0.6948009150223252,0.2701746948880734,16.81154309456924,28.171351548305523,0.0
0.061,0.02219306549296534,-0.0051409711701348,5.867840775265577,0.0,0.6518786534311394,1.0100788865581218,40.778166932696266,28.171351548305523,0.0
0.062,0.23832138750066556,-0.11134391197818866,-6.241539297641842,0.0,0.699895097349737,0.20301771078202183,14.517684110767908,28.171351548305523,0.0
0.063,0.0029485988344933865,0.005713852706318863,7.025238787697713,0.0,0.6484653957754885,1.0899559770651726,43.34491627157691,28.171351548305523,0.0
0.064,0.26175611389404174,-0.12276395225819053,-7.540112939939504,0.0,0.7061756271799212,0.1173784211258819,11.632463050264757,28.171351548305523,0.0
0.065,-0.02161080767448384,0.01929093788400532,8.481502555696983,0.0,0.6439462638846947,1.1896193022404824,46.57192135731136,28.171351548305523,0.0
0.066,0.2908441963566458,-0.1371398669907138,-9.172232295916379,0.0,0.7137918624680921,0.009082450621156313,7.983443696791146,28.171351548305523,0.0
0.067,-0.052702888721490024,0.03648662741020889,10.0,0.0,0.6379359935983685,1.279981474487944,49.87715725445393,28.171351548305523,0.0
0.068,0.3146977796194912,-0.14858414804904507,-10.0,0.0,0.7188496642468231,-0.01936685824637252,6.0013314314287545,28.171351548305523,0.0
0.069,-0.0562378324998006,0.03851520660907246,10.0,0.0,0.639305497790015,1.2637879333741198,50.326202811824196,28.171351548305523,0.0
0.07,0.30775039883139244,-0.14356537376853765,-10.0,0.0,0.7179310845290554,-0.033075232380741865,5.3021151452712,28.171351548305523,0.0
0.07100000000000001,-0.06291043272340302,0.04372820457589034,10.0,0.0,0.6365846965970423,1.252023050898126,50.22914511628505,28.171351548305523,0.0
0.07200000000000001,0.30146871293886224,-0.14010028391592372,-10.0,0.0,0.7139768453036612,-0.043311447282491214,4.785136801196855,28.171351548305523,0.0
0.073,-0.06704787473394316,0.04799989041083364,10.0,0.0,0.6315670252606951,1.2428073353262457,50.00510388391435,28.171351548305523,0.0
0.074,0.2972768148519305,-0.13808100332090695,-10.0,0.0,0.7083599655366583,-0.05168762406136053,4.310918122598872,28.171351548305523,0.0
0.075,-0.06938772586584553,0.051282188554903435,10.0,0.0,0.6253333558026078,1.2349225528922037,49.74206229977419,28.171351548305523,0.0
0.076,0.2943602986562522,-0.13696841714568508,-10.0,0.0,0.7018716232831418,-0.0591098769276021,3.8540437869768707,28.171351548305523,0.0
0.077,-0.0707192550371058,0.054012206907459094,10.0,0.0,0.61846244633079,1.227710994134116,49.45929681845218,28.171351548305523,0.0
0.078,0.2921377517133393,-0.1363280530945757,-10.0,0.0,0.6949235090206005,-0.06605620588505455,3.4132819091783455,28.171351548305523,0.0
0.079,-0.0715282553428003,0.05644007260097185,10.0,0.0,0.6112538490129824,1.2208312512103527,49.15730549467828,28.171351548305523,0.0
0.08,0.2902424482665752,-0.13599259570507138,-10.0,0.0,0.6877351754862867,-0.07276844087213587,2.991829414340402,28.171351548305523,0.0
0.081,-0.07205515824142741,0.058730122460008374,10.0,0.0,0.6038645744227931,1.2141104126529292,48.82974330753973,28.171351548305523,0.0
0.082,0.28852854277747925,-0.1357979901776672,-10.0,0.0,0.68041423838995,-0.07937286245802141,2.595023607702604,28.171351548305523,0.0
0.083,-0.07244533419722654,0.06093280020100493,10.0,0.0,0.5963749403812657,1.207460119816245,48.47507086422317,28.171351548305523,0.0
0.084,0.28691840141689884,-0.1356640315280993,-10.0,0.0,0.6730158297948649,-0.0859338756250837,2.2246524460891015,28.171351548305523,0.0
0.085,-0.07277373876243491,0.0630737354811763,10.0,0.0,0.5888261080346592,1.2008353901949473,48.095583709396465,28.171351548305523,0.0
0.08600000000000001,0.2853513633746335,-0.135583675928316,-9.980533831080814,0.0,0.6655719779576148,-0.09034064679880455,1.9286844453684633,28.171351548305523,0.0
0.08700000000000001,-0.07230427252829998,0.06474778357310801,10.0,0.0,0.5815026225296478,1.1958629375995047,47.71727100074264,28.171351548305523,0.0
0.088,0.28460168505940003,-0.13598027354993478,-9.791716849688155,0.0,0.6585439619628572,-0.07469117545499505,2.1148873378667603,28.171351548305523,0.0
0.089,-0.06446484506230947,0.06225827197010699,10.0,0.0,0.5770122355688609,1.2064866565911194,47.57288597507124,28.171351548305523,0.0
0.09,0.291361064884191,-0.14053977920660304,-9.718375831492805,0.0,0.6560416361035143,-0.058176492563198956,2.4006860203155274,28.171351548305523,0.0
0.091,-0.05469306149472443,0.058798446033066214,10.0,0.0,0.5767465963811396,1.2193589260316617,47.57574874188342,28.171351548305523,0.0
0.092,0.2987257223490096,-0.14527419721053275,-9.718653147578076,0.0,0.657575975499681,-0.04736091324031694,2.6571170297037434,28.171351548305523,0.0
0.093,-0.047562329502926416,0.05702834342342619,10.0,0.0,0.579356426876999,1.2285384205782754,47.595714607668796,28.171351548305523,0.0
0.094,0.3032752168994922,-0.14829989280913528,-9.727653466952333,0.0,0.6611578978903658,-0.040257557310582115,2.9124617576291945,28.171351548305523,0.0
0.095,-0.04310358229885532,0.05693148077988603,10.0,0.0,0.583270890556392,1.2349346691009047,47.577874963216864,28.171351548305523,0.0
0.096,0.305681669438001,-0.14997357075918152,-9.717541218088202,0.0,0.6655036760021523,-0.0332172622044174,3.224188169776714,28.171351548305523,0.0
0.097,-0.039553547643276975,0.05740993572099751,10.0,0.0,0.5878167535445937,1.2412379507322617,47.529826451921124,28.171351548305523,0.0
0.098,0.30767537675837886,-0.1512597050605924,-9.691805553939544,0.0,0.6703715401772358,-0.024442606839708947,3.618929015233338,28.171351548305523,0.0
0.099,-0.0356514039993992,0.05770267955780432,10.0,0.0,0.5930302336735769,1.2489552716088987,47.489342755550155,28.171351548305523,0.0
0.1,0.3101608049148599,-0.15280849593882007,-9.669402740290485,0.0,0.6760086988159572,-0.01474573619721542,4.074187436786547,28.171351548305523,0.0
0.101,-0.03138067881121552,0.057868939471798726,10.0,0.0,0.5990395870133538,1.2575772174253883,47.44507042978784,28.171351548305523,0.0
0.10200000000000001,0.3129486017979314,-0.1544583847697812,-9.644615056313091,0.0,0.6824624617739514,-0.003922354796139144,4.600533275092935,28.171351548305523,0.0
0.10300000000000001,-0.02675780048273662,0.05790360344373566,10.0,0.0,0.6059099998904335,1.2672351214950808,47.39631958888243,28.171351548305523,0.0
0.10400000000000001,0.31611144178302986,-0.1561555701836483,-9.617048367609357,0.0,0.689798660805537,0.008187452296626374,5.2018707691241515,28.171351548305523,0.0
0.105,-0.02174244306051531,0.05775512454531843,10.0,0.0,0.6137229205528243,1.2780718399780977,47.35269692137979,28.171351548305523,0.0
0.106,0.3196943670310516,-0.1579403307783352,-9.591553096798199,0.0,0.6981088001264218,0.02118230258374776,5.866393573604076,28.171351548305523,0.0
0.107,-0.01647797317626412,0.05750904864463388,10.0,0.0,0.6225107517134609,1.2898000040256963,47.31147561364649,28.171351548305523,0.0
0.108,0.323540139040927,-0.1597213203316515,-9.56678706697468,0.0,0.7073841126676126,0.03497030640099391,6.591603351038764,28.171351548305523,0.0
0.109,-0.011043878314562243,0.05722146873199808,10.0,0.0,0.6322511572771146,1.3023297857024132,47.269097051857194,28.171351548305523,0.0
0.11,0.3275975135959877,-0.1614609272003097,-9.540956690068917,0.0,0.7175919367989984,0.04967052167359848,7.383925480194343,28.171351548305523,0.0
0.111,-0.005402900977139222,0.05688424942203595,10.0,0.0,0.6429279185780312,1.3157425243302725,47.22175732189076,28.171351548305523,0.0
0.112,0.3319146017334003,-0.16317779783563904,-9.512106689269315,0.0,0.728727779409396,0.06556469273497859,8.245053083875586,28.171351548305523,0.0
0.113,0.0005523893950123912,0.05641442351669453,10.0,0.0,0.6545741061767616,1.3302604514789957,47.178001220396524,28.171351548305523,0.0
0.114,0.3366266758780971,-0.16489959544348728,-9.484542318886456,0.0,0.7408458404409355,0.08236875141862215,9.173809878511678,28.171351548305523,0.0
0.115,0.00676226268876521,0.0558776074412972,9.707528768753907,0.0,0.6672025987657266,1.3135124659356645,46.451367016298505,28.171351548305523,0.0
0.116,0.33016505741895724,-0.16004615144020384,-9.11404995481944,0.0,0.7499974382155558,0.11301016281179563,10.565538206676694,28.171351548305523,0.0
0.117,0.01449920675758827,0.053976964181008516,9.004922583407756,0.0,0.6787607831008666,1.2600976119060738,44.734521005821186,28.171351548305523,0.0
0.11800000000000001,0.31167519537522637,-0.14789484341146403,-8.245200510739647,0.0,0.7537026683984587,0.1708033675864155,12.690949016483714,28.171351548305523,0.0
0.11900000000000001,0.028480109152964603,0.04747913138164568,7.931389509247307,0.0,0.6887110854311587,1.1839820887391463,42.25638328703064,28.171351548305523,0.0
0.12,0.28808952662200454,-0.13205619368812171,-6.992177943413406,0.0,0.7532391583814673,0.2545964727035088,15.454341238078298,28.171351548305523,0.0
0.121,0.05033871570746819,0.03547564475739463,6.536013184165036,0.0,0.6981520069534767,1.090687607501991,39.24737674753588,28.171351548305523,0.0
0.122,0.2617280163573339,-0.11375761033186005,-5.471264822556059,0.0,0.7502736605924067,0.35594809048209075,18.56080005399289,28.171351548305523,0.0
0.123,0.07746671328623334,0.01942363665494638,4.968129039158564,0.0,0.7075669274460124,0.9906834317282124,36.10103248327384,28.171351548305523,0.0
0.124,0.23531029158233155,-0.09459248814699237,-3.8812839848315956,0.0,0.7464779879369511,0.46063978763573726,21.62489838031591,28.171351548305523,0.0
0.125,0.10555336218885904,0.002202076041619032,3.4222475983272664,0.0,0.7167060146607817,0.8952259164052229,33.19338108417783,28.171351548305523,0.0
0.126,0.21120287849353586,-0.07627928585446553,-2.4122140489624173,0.0,0.7429707470396332,0.5556311218492395,24.298998047489818,28.171351548305523,0.0
0.127,0.13076352124752233,-0.013566594492966537,2.073701004389746,0.0,0.7249663170562752,0.8143223767884831,30.787549890880726,28.171351548305523,0.0
0.128,0.19150960483503676,-0.060515513016575595,-1.1967369007314603,0.0,0.7404229635163899,0.6332502803715256,26.370938423419936,28.171351548305523,0.0
0.129,0.15119245349248725,-0.026385605053130867,1.0295729642477904,0.0,0.7320029566275821,0.7544718699247602,29.067786499759954,28.171351548305523,0.0
0.13,0.1777909970265399,-0.048466561745083646,-0.32781542343676284,0.0,0.7393173136987279,0.6878244672365261,27.721584945643865,28.171351548305523,0.0
0.131,0.16542835950087045,-0.03512893512089682,0.34978301964789815,0.0,0.7375475462983556,0.7183088287035523,28.037636671209633,28.171351548305523,0.0
0.132,0.17036435708023176,-0.04065972097106678,0.19309430563597338,0.0,0.7397449544944836,0.720889448202694,28.499613001957847,28.171351548305523,0.0
0.133,0.1741170543433337,-0.040258554178822244,-0.04117647427465712,0.0,0.7418812476152643,0.6988654111983365,27.539885307917178,28.171351548305523,0.0
0.134,0.16719812758858338,-0.035316394925845325,0.44500203514956105,0.0,0.7410618818736264,0.7358783599579167,28.518431186976272,28.171351548305523,0.0
