timestamp,iq,id,iq_ref,id_ref,vq,vd,omega,omega_ref,r
0.0,0.0,0.0,0.0,0.0,0.0,0.0,0.0,21.291271341660366,0.0
0.001,0.0,0.0,10.0,0.0,0.0,1.0999999999999999,4.971942979071684,21.291271341660366,0.0
0.002,0.7868616871943376,-0.44037047164209264,8.518599210651896,0.0,0.15844075188063014,1.7404911275803312,8.879774981932503,21.291271341660366,0.0
0.003,1.3160332460212703,-0.7314361288640906,6.688798172818765,0.0,0.3927000589092293,2.0959728567235105,12.143945521033668,21.291271341660366,0.0
0.004,1.566358399487028,-0.8640938567297831,5.148186161474449,0.0,0.6507633016422929,2.265918981492723,14.77400900908874,21.291271341660366,0.0
0.005,1.6264139384319625,-0.889610554123939,3.8983270407726294,0.0,0.9014950920136713,2.3184955771452795,16.85431856973236,21.291271341660366,0.0
0.006,1.5730142145250186,-0.8513293629424168,2.9025417881700992,0.0,1.1279452649092585,2.3003244307096704,18.449180711648662,21.291271341660366,0.0
0.007,1.4590954995257552,-0.7803200330635243,2.1335316235120656,0.0,1.3225050914968632,2.2439792120316726,19.63997066110899,21.291271341660366,0.0
0.008,1.3207644641579173,-0.6957178238924727,1.5546496555874154,0.0,1.483378263847881,2.170814809795573,20.50108428001296,21.291271341660366,0.0
0.009000000000000001,1.1794641099100343,-0.6110958664255539,1.1319947167519038,0.0,1.6123852855105365,2.0945106700391154,21.12826636708635,21.291271341660366,0.0
0.01,1.0483210901050541,-0.5331121939320906,0.8200337229609491,0.0,1.7131292066316686,2.0216612151319873,21.57162635415024,21.291271341660366,0.0
0.011,0.9326687333284697,-0.4649588100817058,0.5955501793041056,0.0,1.7897967546513673,1.9560078470107158,21.85618799050853,21.291271341660366,0.0
0.012,0.834728172495613,-0.4070822856970916,0.4476201946364786,0.0,1.846547327213165,1.90017604575052,22.04004543062695,21.291271341660366,0.0
0.013000000000000001,0.7547760238710198,-0.3600869973337515,0.34820373368760305,0.0,1.8874489459166421,1.8539613017552001,22.16599953149136,21.291271341660366,0.0
0.014,0.6914270448940245,-0.32236303604759897,0.2764794013570889,0.0,1.9159592454923964,1.8157315482841154,22.249642734235394,21.291271341660366,0.0
0.015,0.6417898863356278,-0.2922748275796627,0.225074086059321,0.0,1.934863076444855,1.784065056409919,22.195266190497144,21.291271341660366,0.0
0.016,0.6031991970095965,-0.26832888407676336,0.24322240944007834,0.0,1.946376703414009,1.7637145697835286,22.1000392935477,21.291271341660366,0.0
0.017,0.5767561902255022,-0.25321614611279925,0.28274817839592736,0.0,1.9532809772826012,1.7532396697210182,22.069925931193485,21.291271341660366,0.0
0.018000000000000002,0.5609639586303642,-0.24530992406050509,0.29001831367770337,0.0,1.9577287767119704,1.7463798596506797,22.136970573864662,21.291271341660366,0.0
0.019,0.5507596813169792,-0.24037434803946436,0.2480390000200714,0.0,1.9605819640495774,1.7369249328636756,22.218071002654913,21.291271341660366,0.0
0.02,0.5413355742905166,-0.23355558336182786,0.19822078901500073,0.0,1.9615036316203935,1.7245752164149286,22.1291272300461,21.291271341660366,0.0
0.021,0.5307691991045422,-0.2257506601489097,0.2343141164355489,0.0,1.9603078068826085,1.7190891466946407,22.01832955974514,21.291271341660366,0.0
0.022,0.5249631393034899,-0.22242742964034634,0.28244236940518175,0.0,1.9583954515227606,1.7194982788513136,21.94269883009484,21.291271341660366,0.0
0.023,0.5242614568620553,-0.22275823019883503,0.3137434593459869,0.0,1.956784865281084,1.7226562240906735,21.961042845702664,21.291271341660366,0.0
0.024,0.5260873185018886,-0.2250479248784433,0.2978737365016523,0.0,1.955899690596684,1.7230707741648497,22.062080113653664,21.291271341660366,0.0
0.025,0.5267089645560995,-0.22534843175847138,0.2396470148062193,0.0,1.9551546471981474,1.7170589871555482,22.054728806310525,21.291271341660366,0.0
0.026000000000000002,0.5232728334387136,-0.22137594857787,0.2356880938312873,0.0,1.9534429512198688,1.7121048513004897,21.95148789033614,21.291271341660366,0.0
0.027,0.5197551056017791,-0.21826179296179926,0.2807063863317224,0.0,1.95110417896795,1.7128191495687957,21.85865720110426,21.291271341660366,0.0
0.028,0.5199724477362555,-0.21865049144929485,0.3214478723532225,0.0,1.9491446121578393,1.7172004364092777,21.835127054262824,21.291271341660366,0.0
0.029,0.5230085701738383,-0.22148147216967498,0.32777438864791675,0.0,1.9481266516071538,1.7209043397701136,21.907668252317382,21.291271341660366,0.0
0.03,0.5258763569095293,-0.22385588004035956,0.28533982051406725,0.0,1.9478137525061932,1.7191198937655758,21.98908462110316,21.291271341660366,0.0
0.031,0.5254826557707362,-0.2221478192783705,0.2376535033267504,0.0,1.947142067952349,1.7127334382347532,21.92184656252204,21.291271341660366,0.0
0.032,0.5214782377928404,-0.21787542882890926,0.2649667804086946,0.0,1.945446023958986,1.7108363324186968,21.817710213981123,21.291271341660366,0.0
0.033,0.5197347544953597,-0.21647509468316073,0.3117705659559449,0.0,1.9436185609318153,1.7139863554072312,21.74264401604235,21.291271341660366,0.0
0.034,0.5216942037635511,-0.21817815784107836,0.3447899381815104,0.0,1.9424901867950441,1.71956974863106,21.773151886448346,21.291271341660366,0.0
0.035,0.5255242180901826,-0.22156231616004898,0.32471719753063333,0.0,1.94238821617784,1.7215420628417282,21.87289167390615,21.291271341660366,0.0
0.036000000000000004,0.5274613035699103,-0.2222176587873739,0.2690311004792738,0.0,1.9425319201492395,1.7172074260409642,21.89901434244349,21.291271341660366,0.0
0.037,0.5250930573193803,-0.21880679141970347,0.2498923362027725,0.0,1.9418460412067058,1.7120520981598721,21.807840112673485,21.291271341660366,0.0
0.038,0.5214545830351643,-0.21508602805311625,0.2903137633776436,0.0,1.9403380420736676,1.7123580095133943,21.712274823618802,21.291271341660366,0.0
0.039,0.5211653831335906,-0.2148159913020456,0.3338863730854007,0.0,1.939018937580334,1.7168667298606959,21.66959976207475,21.291271341660366,0.0
0.04,0.5240492778424644,-0.21729592747159174,0.3514406196532831,0.0,1.9385581089172248,1.7219677883323314,21.736246407666457,21.291271341660366,0.0
0.041,0.5276151216281588,-0.2201491563212965,0.3136675461973689,0.0,1.9389425247793628,1.7218186736753258,21.826847414758202,21.291271341660366,0.0
0.042,0.5281446197466556,-0.21919419476987342,0.2630112819205178,0.0,1.939140009530431,1.716505867379162,21.82016902709106,21.291271341660366,0.0
0.043000000000000003,0.5249223452622993,-0.21497387740518692,0.2610614988997809,0.0,1.9383317798821764,1.712395921872673,21.71571905511237,21.291271341660366,0.0
0.044,0.5217334325631477,-0.21194432521715495,0.3090420077546069,0.0,1.9369023310810614,1.7142320594083094,21.626394929641073,21.291271341660366,0.0
0.045,0.52259827488835,-0.21238456860471971,0.3503528346104482,0.0,1.9358781632081337,1.7196790023931003,21.603330679857276,21.291271341660366,0.0
0.046,0.5262278531463652,-0.21531275062265393,0.35876436612037765,0.0,1.9358188040090751,1.7246003893045243,21.68034113543086,21.291271341660366,0.0
0.047,0.5298262889160509,-0.21776636286330295,0.31636844039587986,0.0,1.936498134947357,1.72391650230802,21.76422857726126,21.291271341660366,0.0
0.048,0.5299276397173882,-0.21638241372466732,0.2696951471246716,0.0,1.9368643735645035,1.7186836698719568,21.75640036641018,21.291271341660366,0.0
0.049,0.526685197246565,-0.2120167065322412,0.2689579623027136,0.0,1.9362043167765484,1.7147540693233148,21.652061941708677,21.291271341660366,0.0
0.05,0.5236003863554469,-0.20897641287800747,0.3175192686529819,0.0,1.934926530382483,1.7168074434708056,21.56310924053537,21.291271341660366,0.0
0.051000000000000004,0.5246478336324822,-0.20938088731698346,0.35927724025088625,0.0,1.934056755167404,1.7224893980670226,21.533894956569497,21.291271341660366,0.0
0.052000000000000005,0.5284830338054818,-0.21227283482220172,0.3714581460847304,0.0,1.934156222414638,1.728027102061594,21.60377599167031,21.291271341660366,0.0
0.053,0.5324829010568765,-0.21497114413125243,0.33339258203422417,0.0,1.9350674078855492,1.7283103278816143,21.688127690719586,21.291271341660366,0.0
0.054,0.5332046474837472,-0.2140659803831808,0.28724816901899436,0.0,1.935789246285993,1.723921726441111,21.70627560016567,21.291271341660366,0.0
0.055,0.5304910826591733,-0.21013008704538105,0.2740241717108986,0.0,1.9355761440726653,1.719356683005937,21.619342119571524,21.291271341660366,0.0
0.056,0.5271728228600102,-0.20632270390417612,0.31421020422886087,0.0,1.934548394524998,1.7201174101726662,21.526607866969137,21.291271341660366,0.0
0.057,0.5272999814423581,-0.20582653920333674,0.3582239652769667,0.0,1.9336829883630897,1.7250917730160178,21.464929552438466,21.291271341660366,0.0
0.058,0.5306396063342016,-0.2080426815380919,0.38732654043452097,0.0,1.9336502964055398,1.7318772174634143,21.502201805581056,21.291271341660366,0.0
0.059000000000000004,0.5353155240245837,-0.21149558489898762,0.3665811092240194,0.0,1.9346570760348345,1.7349268703885614,21.59074547556825,21.291271341660366,0.0
0.06,0.5379420748570668,-0.21206678145328373,0.31931453289134254,0.0,1.9358964455810792,1.732538205484965,21.657264540106482,21.291271341660366,0.0
0.061,0.536582452031414,-0.20939647441634396,0.2823950686377662,0.0,1.9364735659427321,1.7270996927409321,21.634166564789254,21.291271341660366,0.0
0.062,0.5329857681043122,-0.20457783961313852,0.29051510406509123,0.0,1.935945776235834,1.7239071808507345,21.531642590945623,21.291271341660366,0.0
0.063,0.5303909187624484,-0.2016953428524671,0.3393733784940543,0.0,1.934882626014964,1.7265238176001128,21.442772368133163,21.291271341660366,0.0
0.064,0.5319798896259061,-0.2021499990582431,0.3822934796355564,0.0,1.9342662916413613,1.7328043687453434,21.402684736829045,21.291271341660366,0.0
0.065,0.5364020530077293,-0.20501998273477406,0.4012231613359286,0.0,1.934650797462002,1.7395777470509508,21.44779790016305,21.291271341660366,0.0
0.066,0.5412552653121937,-0.20823067788467048,0.3771013140838994,0.0,1.9359986671608633,1.7423799063736622,21.52861100159058,21.291271341660366,0.0
0.067,0.5436228560109324,-0.20858401636966423,0.3343213667708321,0.0,1.9374987261039593,1.7403601581482537,21.594533412239034,21.291271341660366,0.0
0.068,0.5423759999925788,-0.20601354071660544,0.29832754074081824,0.0,1.9383605186235187,1.7353216993185314,21.598100003159725,21.291271341660366,0.0
0.069,0.5390140449998746,-0.2012841355715355,0.29347595866547904,0.0,1.9381377561987227,1.7310568763447647,21.496806697695668,21.291271341660366,0.0
0.07,0.5357946515059793,-0.19760889001116622,0.34206725783715486,0.0,1.93715380475884,1.732910331889933,21.406835230166276,21.291271341660366,0.0
0.07100000000000001,0.5368982708324328,-0.19733858019923833,0.38589735271679143,0.0,1.936460612393754,1.7386618521207922,21.338108299356133,21.291271341660366,0.0
0.07200000000000001,0.5410753860739839,-0.19964685451656916,0.4197924485449055,0.0,1.9366685045612873,1.7466106142010454,21.340604020512718,21.291271341660366,0.0
0.073,0.546702545515459,-0.2034779860170353,0.4180512611780896,0.0,1.9380488254419714,1.7526775913352495,21.427677370331438,21.291271341660366,0.0
0.074,0.5513859567843031,-0.20547865457621373,0.3731505259820189,0.0,1.9400795741745123,1.752895330201044,21.499661257682448,21.291271341660366,0.0
0.075,0.551710944052751,-0.20432399057362094,0.3350746831462932,0.0,1.9417820021945018,1.7495661202067034,21.55405374025654,21.291271341660366,0.0
0.076,0.549255956421363,-0.2007455335351941,0.305250617873286,0.0,1.942599182778857,1.7441134837742596,21.54434430276875,21.291271341660366,0.0
0.077,0.5454713540806657,-0.1956766916064407,0.30757460700609673,0.0,1.942267593619754,1.740233464881997,21.435806399293813,21.291271341660366,0.0
0.078,0.5424662625933447,-0.19225933643069448,0.36039820816723017,0.0,1.9412559408372905,1.742788359239646,21.355758436330003,21.291271341660366,0.0
0.079,0.5442931603776269,-0.19209726630227816,0.39977731870243904,0.0,1.9406172886064696,1.748559055359401,21.28235653172299,21.291271341660366,0.0
0.08,0.5487667382052815,-0.19418479003773553,0.4365674191053197,0.0,1.9408508195228908,1.756868111999864,21.255652814802268,21.291271341660366,0.0
0.081,0.554804000765943,-0.19798893742363782,0.45027546283426145,0.0,1.9422894839868108,1.7648902367706814,21.35131371351904,21.291271341660366,0.0
0.082,0.5609131134427278,-0.20082247973775463,0.4018445897572884,0.0,1.9446601426621144,1.766177909266213,21.406990329509785,21.291271341660366,0.0
0.083,0.5619961333662882,-0.20039460349367633,0.37284909188342186,0.0,1.9468471009094508,1.7648106432795418,21.46853100486727,21.291271341660366,0.0
0.084,0.5606674758942191,-0.19799531635710518,0.3403061575726105,0.0,1.9484189939108054,1.7606660144419843,21.50229554831325,21.291271341660366,0.0
0.085,0.5575124028259032,-0.19383343612779647,0.3213136437830919,0.0,1.94898542077441,1.7556630620773739,21.49215982216749,21.291271341660366,0.0
0.08600000000000001,0.5540465914001713,-0.18898233718749147,0.3243726220509,0.0,1.948502907634052,1.752093148909085,21.373923801624418,21.291271341660366,0.0
0.08700000000000001,0.5514117731578124,-0.18580766342865113,0.38266410772279574,0.0,1.947410951366832,1.755468621277223,21.307815813160268,21.291271341660366,0.0
0.088,0.5541245619928822,-0.1857789931939103,0.41555265723987184,0.0,1.946794330974915,1.7611074214177032,21.232417282191438,21.291271341660366,0.0
0.089,0.5589039398539081,-0.18749185482100533,0.45384046331897593,0.0,1.946991954117565,1.7695048490021117,21.182368317464597,21.291271341660366,0.0
0.09,0.5653569202281783,-0.1908832615038619,0.4799539759243541,0.0,1.9483654838232347,1.778909870405586,21.2387697231753,21.291271341660366,0.0
0.091,0.5723452220521741,-0.19462463546120112,0.45227828925385394,0.0,1.950919799767163,1.7835020985825736,21.29584513531714,21.291271341660366,0.0
0.092,0.5758838920778567,-0.1956328886147567,0.42369484524636536,0.0,1.953751401041715,1.7847037428775516,21.343478121759414,21.291271341660366,0.0
0.093,0.5764089637364034,-0.19461846971182561,0.39935628422423797,0.0,1.9562983380074521,1.7836546044159447,21.39747061137097,21.291271341660366,0.0
0.094,0.5749726678584453,-0.19240520880256112,0.3712980467213541,0.0,1.9582523529194653,1.7802852962451374,21.462238249501098,21.291271341660366,0.0
0.095,0.572112598668176,-0.18872441653882865,0.3372045585778827,0.0,1.9592912809832776,1.7742788637140088,21.486272217960384,21.291271341660366,0.0
0.096,0.5678592492436904,-0.18344143555933592,0.3232375655852398,0.0,1.9590813530024895,1.7682208006394091,21.34063779999088,21.291271341660366,0.0
0.097,0.563564961193081,-0.17867564360300403,0.3955611099866865,0.0,1.9578152042069186,1.7712726490795982,21.30764806783732,21.291271341660366,0.0
0.098,0.5661434333920354,-0.17789443233043487,0.4118922088016968,0.0,1.9569425798145041,1.774639308399457,21.244904556716833,21.291271341660366,0.0
0.099,0.5696816921375633,-0.17828513013837133,0.44372763221137584,0.0,1.9565446726649165,1.7805572011949842,21.169540354407452,21.291271341660366,0.0
0.1,0.5750326955338013,-0.17970509640916563,0.4826270432385952,0.0,1.9569306348215472,1.7892508671887668,21.093833823281813,21.291271341660366,0.0
0.101,0.5819886881058458,-0.1827740918446807,0.5224546839852005,0.0,1.9584707571970923,1.8003941600217257,21.153026493126,21.291271341660366,0.0
0.10200000000000001,0.5902110331258951,-0.1872375952827931,0.4942407975484508,0.0,1.961431492042216,1.8062404338669498,21.20027373411546,21.291271341660366,0.0
0.10300000000000001,0.594717398811108,-0.18881500466900733,0.4715271531291699,0.0,1.9648096607854522,1.8091683150152371,21.234098734447866,21.291271341660366,0.0
0.10400000000000001,0.5964774275408875,-0.18843620398026578,0.45518637903509174,0.0,1.9680853585995701,1.8104223367134407,21.266562367171602,21.291271341660366,0.0
0.105,0.5967152407885273,-0.18695188919700734,0.4392016524181112,0.0,1.9709994021828254,1.810275054666366,21.29281406990147,21.291271341660366,0.0
0.106,0.595820356450704,-0.18488355977821186,0.42606037377076555,0.0,1.973394640114813,1.8092490272069237,21.32611297101677,21.291271341660366,0.0
0.107,0.5943434609331348,-0.1824872153212581,0.4090625069195524,0.0,1.9752048369115798,1.806980283383017,21.378909073197278,21.291271341660366,0.0
0.108,0.5922166602602363,-0.17956815394954223,0.38178807851392915,0.0,1.9763100063399608,1.8025084042839148,21.405018546510682,21.291271341660366,0.0
0.109,0.5890393169567276,-0.17534720176946703,0.36759586980872383,0.0,1.9764223567895016,1.7976340711207022,21.34585746097656,21.291271341660366,0.0
0.11,0.585933405118433,-0.17081333376887833,0.3966305513826226,0.0,1.9755795229195037,1.7969040202481232,21.301409918421005,21.291271341660366,0.0
0.111,0.5859481041576332,-0.16848865087160061,0.4187529368927942,0.0,1.9745375909105536,1.7982731306534872,21.252656055622744,21.291271341660366,0.0
0.112,0.5879687937204428,-0.16759382313682192,0.4435160211523009,0.0,1.9736615789211813,1.8016817233693465,21.221849133560756,21.291271341660366,0.0
0.113,0.591700071838936,-0.16772814202480446,0.4596137042642908,0.0,1.973237750757358,1.8057947362170004,21.182693948920466,21.291271341660366,0.0
0.114,0.5959555425252453,-0.1683412056742429,0.4802770705118347,0.0,1.9733337005072404,1.811135269425307,21.144442323506794,21.291271341660366,0.0
0.115,0.6010522764079118,-0.1692322409695964,0.5008711734002063,0.0,1.9740459918489606,1.8174919759227868,21.089394517393572,21.291271341660366,0.0
0.116,0.6067360705661436,-0.17045425497673874,0.5304138446994855,0.0,1.9754482358940892,1.825753743700149,21.031627164355083,21.291271341660366,0.0
0.117,0.6133899761458496,-0.1726320214078183,0.561893962991783,0.0,1.9777637664797876,1.8358218537312623,21.048599016193698,21.291271341660366,0.0
0.11800000000000001,0.6208194635324011,-0.17593685322295347,0.5558347603271419,0.0,1.9811963088453812,1.8433826877850767,21.0959749899522,21.291271341660366,0.0
0.11900000000000001,0.6263684268837006,-0.17779434646815892,0.5340997369649726,0.0,1.9852129563186192,1.8476643410320999,21.119062881421055,21.291271341660366,0.0
0.12,0.6291672559382515,-0.1777495112763486,0.5242778758329384,0.0,1.989232597565684,1.8508040576483549,21.146502765496884,21.291271341660366,0.0
0.121,0.6307780096243711,-0.17679006775508344,0.5120056195566588,0.0,1.993059155914246,1.8526308425336921,21.155185859798713,21.291271341660366,0.0
0.122,0.6313522943150877,-0.17519555046771942,0.5090249272243604,0.0,1.996519934450089,1.8544053873924446,21.166191781902207,21.291271341660366,0.0
0.123,0.6319273694776046,-0.17347700308176978,0.5047727617701955,0.0,1.9996389945786421,1.855853108921301,21.168068885273676,21.291271341660366,0.0
0.124,0.6324027544433681,-0.17172941243326628,0.5050662346483275,0.0,2.002415871349749,1.857496226386655,21.17085267280939,21.291271341660366,0.0
0.125,0.6331749067908281,-0.17010224544573477,0.5048785275689811,0.0,2.004917859728138,1.8591489543665112,21.168406293401453,21.291271341660366,0.0
0.126,0.634114603960209,-0.16859259516170794,0.5073303677555379,0.0,2.007185132205306,1.8610625427123793,21.165769500251876,21.291271341660366,0.0
0.127,0.6353896292796475,-0.16724078736998238,0.5099037827444113,0.0,2.009283433915094,1.8631392009048413,21.16051820692621,21.291271341660366,0.0
0.128,0.6369148711990706,-0.16602662152447092,0.5138369607545864,0.0,2.011259531108061,1.8654699125223266,21.154930880648973,21.291271341660366,0.0
0.129,0.6387339368140502,-0.164948391229682,0.5179940285033187,0.0,2.0131646260695075,1.8679982635711638,21.148184712664335,21.291271341660366,0.0
0.13,0.6407867122393145,-0.16398076282761798,0.5227979787855976,0.0,2.0150363898184147,1.8707435382241973,21.141448968249346,21.291271341660366,0.0
0.131,0.6430666340292269,-0.1631077069822643,0.5276640747272023,0.0,2.016909144798766,1.8736584291949332,21.135706092680564,21.291271341660366,0.0
0.132,0.6455210282456649,-0.16230523376946346,0.5320911650013912,0.0,2.0188065718832005,1.8766602413914666,21.130708820597057,21.291271341660366,0.0
0.133,0.6480674858811735,-0.1615389596560013,0.5361954262537778,0.0,2.020738172058493,1.8797032465140693,21.126243254053996,21.291271341660366,0.0
