timestamp,iq,id,iq_ref,id_ref,vq,vd,omega,omega_ref,r
0.0,0.0,0.0,0.0,0.0,0.0,0.0,0.0,334.969598072873,0.0
0.001,0.0,0.0,10.0,0.0,0.0,1.0999999999999999,4.233923534883724,334.969598072873,0.0
0.002,0.5262193894540257,-0.29307611581663673,10.0,0.0,0.14223837273982998,1.932115867160057,8.930426446641938,334.969598072873,0.0
0.003,0.8996155015960062,-0.5022531773781322,10.0,0.0,0.3735432105352809,2.6594326064370137,13.864968687947758,334.969598072873,0.0
0.004,1.1938722946757396,-0.6663485906002649,10.0,0.0,0.670407963317702,3.3085138694484693,18.96744532692731,334.969598072873,0.0
0.005,1.4303517204958776,-0.7970382309014217,10.0,0.0,1.0152292734239325,3.899303312527603,24.186341566126224,334.969598072873,0.0
0.006,1.6233938206060992,-0.9037270457116864,10.0,0.0,1.395076270053571,4.446626105555523,29.483771100664985,334.969598072873,0.0
0.007,1.7845071936050445,-0.991752289462059,10.0,0.0,1.8002867349874758,4.961409268914833,34.83960782879326,334.969598072873,0.0
0.008,1.9217155805210977,-1.0658927036632821,10.0,0.0,2.2237296628885512,5.451753373600828,40.23248557039657,334.969598072873,0.0
0.009000000000000001,2.0409472285960626,-1.1296751350836403,10.0,0.0,2.6601373717823473,5.923663963189245,45.64498835364704,334.969598072873,0.0
0.01,2.1466194506041263,-1.1856347311842472,10.0,0.0,3.1056131000024676,6.381592636768061,51.063823656739,334.969598072873,0.0
0.011,2.242021060808706,-1.2355942127067596,10.0,0.0,3.5572700697649275,6.828838560908584,56.478531271059055,334.969598072873,0.0
0.012,2.329594331872655,-1.2808722055808763,10.0,0.0,4.012966919366122,7.267846545896313,61.880222936585874,334.969598072873,0.0
0.013000000000000001,2.411167613805325,-1.3223964500820142,10.0,0.0,4.4711097694723545,7.700426089043434,67.26198675821495,334.969598072873,0.0
0.014,2.4878398714538905,-1.3612808802569316,10.0,0.0,4.9305583337569034,8.127943747364451,72.60870324435702,334.969598072873,0.0
0.015,2.560920527459755,-1.3974970501183817,10.0,0.0,5.390408741828113,8.551382346697665,77.91619162008202,334.969598072873,0.0
0.016,2.631335641600575,-1.4311035357861488,10.0,0.0,5.849952520750359,8.971447270909241,83.17956603148944,334.969598072873,0.0
0.017,2.699705505172972,-1.462266021883405,10.0,0.0,6.308640222815559,9.38864354674033,88.39139809294412,334.969598072873,0.0
0.018000000000000002,2.766532133718344,-1.4910511456068425,10.0,0.0,6.766033521005956,9.803321734690565,93.54312189706607,334.969598072873,0.0
0.019,2.8322416985303107,-1.5174407261824583,10.0,0.0,7.221770310798419,10.215711647820951,98.62540761909705,334.969598072873,0.0
0.02,2.897212255676326,-1.5413500043551767,10.0,0.0,7.675538537717917,10.625946582979608,103.62834460931842,334.969598072873,0.0
0.021,2.961791065618427,-1.562647343737804,10.0,0.0,8.127057050011693,11.034080883792177,108.54157220007963,334.969598072873,0.0
0.022,3.0263087853537125,-1.5811670110295974,10.0,0.0,8.576061331165619,11.440102444681404,113.35418469734947,334.969598072873,0.0
0.023,3.091087878984792,-1.5967224754723022,10.0,0.0,9.022293244708857,11.843941754495036,118.05499127550434,334.969598072873,0.0
0.024,3.156454403693429,-1.6091069506646751,10.0,0.0,9.465492635505864,12.245477797899985,122.63304058166278,334.969598072873,0.0
0.025,3.2227455173649733,-1.6180956133237965,10.0,0.0,9.905390599704248,12.644541818787363,127.07356355632696,334.969598072873,0.0
0.026000000000000002,3.29027562606423,-1.6235123063176606,10.0,0.0,10.341711119174263,13.040923833185632,131.36479842392148,334.969598072873,0.0
0.027,3.3593783741989665,-1.6251663862522476,10.0,0.0,10.77416556999997,13.434373696883252,135.49387974435376,334.969598072873,0.0
0.028,3.4303733273357415,-1.622911180424977,10.0,0.0,11.202454948672528,13.824605601929989,139.44601890230663,334.969598072873,0.0
0.029,3.503563631892517,-1.6166489166424136,10.0,0.0,11.626272283024687,14.211302270369417,143.21606299405602,334.969598072873,0.0
0.03,3.5793035197080316,-1.6062169604614471,10.0,0.0,12.045292658243493,14.594111520785983,146.77706644092527,334.969598072873,0.0
0.031,3.65755790118963,-1.5921135988951514,10.0,0.0,12.459244870771595,14.972691300597956,150.1118270844365,334.969598072873,0.0
0.032,3.7389134913434696,-1.573821310354084,10.0,0.0,12.86778872190423,15.346641752579437,153.22873664156953,334.969598072873,0.0
0.033,3.823812880128188,-1.5510626839275377,10.0,0.0,13.270552707100233,15.715526167611246,156.12565216468687,334.969598072873,0.0
0.034,3.9124029011018524,-1.5240472817428579,10.0,0.0,13.667184627303772,16.078902631240222,158.79499014281237,334.969598072873,0.0
0.035,4.004859613071682,-1.4929261600415202,10.0,0.0,14.057337832484556,16.436320302419716,161.23227566720072,334.969598072873,0.0
0.036000000000000004,4.1013412667192775,-1.457858003174047,10.0,0.0,14.440671198226802,16.78732311221779,163.43479697642596,334.969598072873,0.0
0.037,4.201966893730837,-1.4190370645520909,10.0,0.0,14.816851886694888,17.131454975175494,165.40160396198118,334.969598072873,0.0
0.038,4.306820184209142,-1.3766795183575626,10.0,0.0,15.18555657191676,17.468264115001737,167.13389373031865,334.969598072873,0.0
0.039,4.415944942967501,-1.331024039536117,10.0,0.0,15.546473175390656,17.797307618808908,168.63498945160353,334.969598072873,0.0
0.04,4.529342091123512,-1.282330895022468,10.0,0.0,15.899302777789593,18.118155993873174,169.91015903038613,334.969598072873,0.0
0.041,4.646968140927319,-1.2308798248497286,10.0,0.0,16.243761571181196,18.430397597674038,170.9661891667208,334.969598072873,0.0
0.042,4.768735335390926,-1.1769665446114983,10.0,0.0,16.57958269548925,18.733642789541037,171.81040661962896,334.969598072873,0.0
0.043000000000000003,4.894514121499409,-1.1208967936672802,10.0,0.0,16.906517686751705,19.02752758012482,172.44924560561344,334.969598072873,0.0
0.044,5.0241412988016965,-1.0629721543129305,10.0,0.0,17.224336645126765,19.311716189134316,172.88525360182157,334.969598072873,0.0
0.045,5.157434273384593,-1.0034663880888615,10.0,0.0,17.53282618067417,19.585901877649277,173.1180324587962,334.969598072873,0.0
0.046,5.294207594421434,-0.9425982428046562,10.0,0.0,17.831784893199305,19.84980581529926,173.5256102235431,334.969598072873,0.0
0.047,5.434525917622901,-0.8800799860715536,10.0,0.0,18.12096980144912,20.103147948094954,178.74278442441707,334.969598072873,0.0
0.048,5.495805926403112,-0.9486629683929628,10.0,0.0,18.414739742776217,20.354736740702258,184.05886130907012,334.969598072873,0.0
0.049,5.5469018729013015,-1.0221888013891784,10.0,0.0,18.7116935810377,20.60553589415454,189.3522037971995,334.969598072873,0.0
0.05,5.586228014547389,-1.1091874160325021,10.0,0.0,19.012866540099065,20.857135599971656,194.96377208238428,334.969598072873,0.0
0.051000000000000004,5.623844601424512,-1.1925345222952086,10.0,0.0,19.31738036937847,21.10994806797317,200.68947433546325,334.969598072873,0.0
0.052000000000000005,5.650523481741497,-1.2883523115834268,10.0,0.0,19.626430548289168,21.365372161136385,206.65830063533167,334.969598072873,0.0
0.053,5.676608820466434,-1.3780857127163393,10.0,0.0,19.93903061485685,21.623556264417775,212.7840318499047,334.969598072873,0.0
0.054,5.688466334896886,-1.4854593683022896,10.0,0.0,20.25710285319903,21.886138490827687,219.13302277585834,334.969598072873,0.0
0.055,5.703859914349634,-1.5781326762612635,10.0,0.0,20.578746417667613,22.15269499983533,225.69177664134492,334.969598072873,0.0
0.056,5.699223922780316,-1.6974878797983388,10.0,0.0,20.90708361589959,22.42542410925622,232.26557760125328,334.969598072873,0.0
0.057,5.701896505253189,-1.793685932538743,10.0,0.0,21.23924823901653,22.7033736835705,239.46980729208676,334.969598072873,0.0
0.058,5.684545062362317,-1.914803094530393,10.0,0.0,21.578352264544883,22.988680147307786,246.23209235879537,334.969598072873,0.0
0.059000000000000004,5.666736965206216,-2.024977451485155,10.0,0.0,21.922984541539233,23.28115174348243,253.3954081240712,334.969598072873,0.0
0.06,5.646179157575807,-2.1272788447294664,10.0,0.0,22.27255216013895,23.580922685606843,260.66699360792086,334.969598072873,0.0
0.061,5.608293086078877,-2.24744834389149,10.0,0.0,22.6293357420665,23.88963518516713,267.41234138733773,334.969598072873,0.0
0.062,5.567252453490131,-2.359742094761623,10.0,0.0,22.99246283336143,24.207290401833944,274.33885274635827,334.969598072873,0.0
0.063,5.525119616626419,-2.4602316946937055,10.0,0.0,23.360973655677363,24.533717011692683,281.19904301480693,334.969598072873,0.0
0.064,5.481231196056346,-2.5505938410042472,10.0,0.0,23.734210996842428,24.868758440691217,287.72462919328467,334.969598072873,0.0
0.065,5.440494414080271,-2.6232826134146467,10.0,0.0,24.11072089029287,25.21166162271807,294.0568152953992,334.969598072873,0.0
0.066,5.399433808670206,-2.686227247103343,10.0,0.0,24.490067134582613,25.56203477466263,299.6835752047867,334.969598072873,0.0
0.067,5.367579175259131,-2.7252182451888682,10.0,0.0,24.870175633090355,25.918398639462822,304.6856494016957,334.969598072873,0.0
0.068,5.346427726393879,-2.740879326953329,10.0,0.0,25.249242477240585,26.279145080674848,309.1994858906171,334.969598072873,0.0
0.069,5.336901281020343,-2.735609807681327,10.0,0.0,25.625741023159424,26.642559956683122,313.0075889126931,334.969598072873,0.0
0.07,5.339347907559311,-2.713163343619309,10.0,0.0,25.99851478623311,27.006918806309432,315.7819642796042,334.969598072873,0.0
0.07100000000000001,5.3579949207240345,-2.6709671908887347,10.0,0.0,26.366029945802307,27.370092442097743,317.3897164914531,334.969598072873,0.0
0.07200000000000001,5.401905190299193,-2.5983927390350043,10.0,0.0,26.72554972481681,27.729056570742543,318.2443747025196,334.969598072873,0.0
0.073,5.4701671707676764,-2.5014903761816325,10.0,0.0,27.07508042339902,28.08100654926851,318.31109076713545,334.969598072873,0.0
0.074,5.561954589300495,-2.3856957828239693,10.0,0.0,27.413084668334783,28.42330060356619,317.58977835674165,334.969598072873,0.0
0.075,5.678798186837725,-2.2517191432118677,10.0,0.0,27.73793840978298,28.753230755383896,315.91727871106303,334.969598072873,0.0
0.076,5.8150589664112635,-2.1112159610743175,10.0,0.0,28.049184208629136,29.068833016386947,314.11559054423407,334.969598072873,0.0
0.077,5.98391310322399,-1.9438113817812566,10.0,0.0,28.34385618179011,29.366788283920634,309.435378095218,334.969598072873,0.0
0.078,6.14613432678305,-1.8145439092105429,10.0,0.0,28.6263111081985,29.648259428793686,305.2170261648379,334.969598072873,0.0
0.079,6.38214689244652,-1.5905706882676514,10.0,0.0,28.885323276875358,29.905489781832884,302.17918380927136,334.969598072873,0.0
0.08,6.575644359009448,-1.4616079312239927,10.0,0.0,29.13221109292307,30.143973720770557,296.158043734209,334.969598072873,0.0
0.081,6.825696364453006,-1.26352597150841,10.0,0.0,29.357759133261503,30.35772730148608,292.62416218271863,334.969598072873,0.0
0.082,7.0543231137222735,-1.1222527294370916,10.0,0.0,29.568568490606967,30.550011905798698,286.76817159097726,334.969598072873,0.0
0.083,7.322995630763131,-0.9329772518763211,10.0,0.0,29.758117802538163,30.71688127603281,280.61958691233343,334.969598072873,0.0
0.084,7.563716118651453,-0.8072790405648929,10.0,0.0,29.933465071830998,30.862226111939314,289.2315428702426,334.969598072873,0.0
0.085,7.69824007329845,-0.8615185001171903,10.0,0.0,30.11303542044908,30.998180761052165,294.61961313834365,334.969598072873,0.0
0.08600000000000001,7.7095365164050955,-1.0624423620663612,10.0,0.0,30.309803429335503,31.13859961092028,304.7565190277762,334.969598072873,0.0
0.08700000000000001,7.674979454349176,-1.3102548807049392,10.0,0.0,30.526186660750863,31.288567617947457,312.5572618947873,334.969598072873,0.0
0.088,7.656661727574809,-1.4967033538558572,10.0,0.0,30.75395957658762,31.44684652673806,323.59013466396686,334.969598072873,0.0
0.089,7.5790141549250745,-1.7556620295733991,10.0,0.0,31.00140406131719,31.620432891957005,331.3891601108925,334.969598072873,0.0
0.09,7.517495700087102,-1.9526044860545146,9.3056878451421,0.0,31.26053681755143,31.731021286398327,343.02371442174405,334.969598072873,0.0
0.091,7.3883038218404895,-2.1512327095303765,3.4078695262276035,0.0,31.52469481762391,31.22824314554566,349.1249316719874,334.969598072873,0.0
0.092,6.926083302915692,-2.2221760395113668,0.2157075651147915,0.0,31.71797668766704,30.55955132455152,354.4954678438398,334.969598072873,0.0
0.093,6.396934915359552,-2.2169203753259312,-2.6648192185210737,0.0,31.82377363224622,29.745704663514214,358.27677333065685,334.969598072873,0.0
0.094,5.810062017087523,-2.1703924780089228,-4.788543714507449,0.0,31.832540704200746,28.878282471250774,360.1421132543675,334.969598072873,0.0
0.095,5.226752274853052,-2.088097902612228,-5.972938828177704,0.0,31.745101725412997,28.047728330528336,360.3725078477029,334.969598072873,0.0
0.096,4.694091752344289,-1.9950522651987788,-6.342165222593705,0.0,31.573939156070278,27.315474313803925,359.1745828281827,334.969598072873,0.0
0.097,4.245439733110736,-1.901983691401186,-5.9852525603867015,0.0,31.337360355245785,26.72630721549522,356.7788693522844,334.969598072873,0.0
0.098,3.9001459836154178,-1.8210524877937333,-5.005488535231678,0.0,31.057550978014024,26.31009965533207,353.62031154647565,334.969598072873,0.0
0.099,3.6708019953988393,-1.7563550703842523,-3.6127167670633282,0.0,30.757794378610154,26.072714068917897,350.0131290814677,334.969598072873,0.0
0.1,3.556053830081736,-1.7082900483255998,-1.9595608446452992,0.0,30.459634702252913,26.007339673291774,346.0896757340519,334.969598072873,0.0
0.101,3.5466582673030773,-1.6768658211880696,-0.10903494754920207,0.0,30.181777539204226,26.105599069301412,341.9506617209086,334.969598072873,0.0
0.10200000000000001,3.639214027417667,-1.6511624186006264,1.890661422542097,0.0,29.93901890004814,26.357433061903905,338.0224651646519,334.969598072873,0.0
0.10300000000000001,3.814328099061494,-1.6470520355905653,3.8242310297526547,0.0,29.745524415962663,26.73416649414311,333.70217769798,334.969598072873,0.0
0.10400000000000001,4.062275171995683,-1.6450741680906737,5.997048966837542,0.0,29.60887626191478,27.248028374450758,329.7706909666337,334.969598072873,0.0
0.105,4.399391495492601,-1.6271443012886242,8.014781403573084,0.0,29.535326604629216,27.862458315137598,327.4951601719258,334.969598072873,0.0
0.106,4.789811515718723,-1.613922292711391,9.2272911799365,0.0,29.52929978486542,28.48171400806991,325.3525594614048,334.969598072873,0.0
0.107,5.169723577059993,-1.6126238565510334,10.0,0.0,29.585790608479375,29.073428195630683,320.5960399274038,334.969598072873,0.0
0.108,5.543992028740794,-1.5856770195164633,10.0,0.0,29.6928526007758,29.56652254952467,316.2112503565791,334.969598072873,0.0
0.109,5.9198776966077045,-1.4571517431704106,10.0,0.0,29.824649517204264,29.983408928310332,312.9842307906926,334.969598072873,0.0
0.11,6.225564461635502,-1.3833089192178005,10.0,0.0,29.97811792199713,30.341919673385902,306.53262081374595,334.969598072873,0.0
0.111,6.553715506151217,-1.2340367490041912,10.0,0.0,30.136409050334297,30.646886437186748,302.97225179579715,334.969598072873,0.0
0.112,6.851029320683765,-1.1112648185746288,10.0,0.0,30.297355551572704,30.9077626282878,295.68378467351795,334.969598072873,0.0
0.113,7.1661508687060484,-0.9443790829506393,10.0,0.0,30.45116531018305,31.126955618265463,291.2590997706786,334.969598072873,0.0
0.114,7.45112968288308,-0.8204211121149667,10.0,0.0,30.599546872494418,31.311413831027142,290.26713151178564,334.969598072873,0.0
0.115,7.728765104556829,-0.7047108620728277,10.0,0.0,30.74004755205456,31.46457427050145,296.56722522665825,334.969598072873,0.0
0.116,7.775675060329149,-0.9255170120607183,10.0,0.0,30.907259986605194,31.61408499306613,306.9925993267452,334.969598072873,0.0
0.117,7.768476168626418,-1.1772152432244436,10.0,0.0,31.098180993885357,31.76662686447441,314.26694797745046,334.969598072873,0.0
0.11800000000000001,7.760854280585927,-1.3855297555167903,10.0,0.0,31.305661701618877,31.92377306823732,325.81866140662316,334.969598072873,0.0
0.11900000000000001,7.700027364605788,-1.6472510717696205,10.0,0.0,31.534815158620212,32.09256746427471,333.4481869535489,334.969598072873,0.0
0.12,7.639755727053184,-1.8682866331213694,7.2451481040671215,0.0,31.779629408111305,31.970385668826843,343.23919455247875,334.969598072873,0.0
0.121,7.400918744550664,-2.0354792094219616,2.266948339806131,0.0,32.003924880888064,31.390519374463253,350.08219330540334,334.969598072873,0.0
0.122,6.925026835866123,-2.0834336388213304,-1.3056769889814666,0.0,32.1514072384217,30.597822208419938,355.1860890124574,334.969598072873,0.0
0.123,6.347981830736295,-2.072202965323094,-4.059789751904336,0.0,32.203156725218854,29.690632875578125,358.50100094666567,334.969598072873,0.0
0.124,5.732822849122592,-2.021853334680182,-5.952559747746404,0.0,32.153586177416365,28.760570890713016,360.0246635441467,334.969598072873,0.0
0.125,5.133430544101453,-1.949733690550412,-6.964941701199644,0.0,32.00853682135978,27.885905298368915,360.02665549290936,334.969598072873,0.0
0.126,4.593764185306354,-1.8695093506989626,-7.216508249781348,0.0,31.782422360732077,27.120022205261368,358.69605829525636,334.969598072873,0.0
0.127,4.141393214660152,-1.7912099463725242,-6.788474253178685,0.0,31.494520345778984,26.502079523697045,356.2749920120381,334.969598072873,0.0
0.128,3.7931885876171036,-1.7242165474684765,-5.790995050961217,0.0,31.167027984328605,26.056362080340005,353.06533610082704,334.969598072873,0.0
0.129,3.5580016601988014,-1.6729253887281663,-4.367124475635214,0.0,30.82274102121516,25.79150663218291,349.3944350588741,334.969598072873,0.0
0.13,3.436028623261287,-1.638223707306954,-2.675922324518746,0.0,30.483092936228417,25.701566728188666,345.4749529461333,334.969598072873,0.0
0.131,3.419397171296825,-1.618887825039535,-0.8212348168809731,0.0,30.166635739105715,25.77436933977089,341.38549603840096,334.969598072873,0.0
0.132,3.5002057217932787,-1.6078493047748825,1.1593346573299321,0.0,29.888083644447075,25.998506482495173,337.45291614610414,334.969598072873,0.0
0.133,3.6652207044019938,-1.6093716251389416,3.1007914227460276,0.0,29.66007831396942,26.348785688352844,333.47799319007123,334.969598072873,0.0
0.134,3.8952468176782804,-1.6243608604378923,5.1031689495905015,0.0,29.49153502980454,26.818430678241405,329.1958817107254,334.969598072873,0.0
0.135,4.209035104181136,-1.6108845444707942,7.301961852884885,0.0,29.385178285935634,27.413883834436017,326.1441681784095,334.969598072873,0.0
0.136,4.588885309904405,-1.6048499206623932,8.916072917987492,0.0,29.34847348661382,28.056074648988066,324.59029481428945,334.969598072873,0.0
0.137,4.98287230801679,-1.6101522632832468,9.796802632633337,0.0,29.380301852605776,28.671574992377636,321.96213377346055,334.969598072873,0.0
0.138,5.360982134726164,-1.6028552349628475,10.0,0.0,29.46964171979605,29.204600340334405,315.71980970382145,334.969598072873,0.0
0.139,5.729482834821173,-1.5232239556092202,10.0,0.0,29.59466366461727,29.6544711877975,313.8265232774789,334.969598072873,0.0
0.14,6.077222835083651,-1.4023615239775922,10.0,0.0,29.739671945016735,30.037290751968484,307.39732079322465,334.969598072873,0.0
0.14100000000000001,6.366623336038011,-1.3298847630802286,10.0,0.0,29.901697534410953,30.36797253265996,303.2880340034244,334.969598072873,0.0
0.14200000000000002,6.704195365095513,-1.1479200643740781,10.0,0.0,30.061297393686203,30.647549776034943,296.95885213492767,334.969598072873,0.0
0.14300000000000002,6.9803987804201455,-1.0486716799780118,10.0,0.0,30.223797316074908,30.888122625604797,293.10906978214126,334.969598072873,0.0
0.14400000000000002,7.300640221294389,-0.8660265556323439,10.0,0.0,30.37500605134768,31.08842365811363,285.4433553736906,334.969598072873,0.0
0.145,7.58967473046223,-0.729152967912797,10.0,0.0,30.51789437293835,31.255224079299122,292.1217250394881,334.969598072873,0.0
0.146,7.725956779523415,-0.8353712264667159,10.0,0.0,30.676226648806647,31.407532610220095,300.61076210423266,334.969598072873,0.0
0.147,7.758872776028134,-1.0385408640580582,10.0,0.0,30.855243027729703,31.55818557651089,308.29611642668254,334.969598072873,0.0
