timestamp,iq,id,iq_ref,id_ref,vq,vd,omega,omega_ref,r
0.0,0.0,0.0,0.0,0.0,0.0,0.0,0.0,173.93871787005693,0.0
0.001,0.0,0.0,10.0,0.0,0.0,1.0999999999999999,16.677426373779458,173.93871787005693,0.0
0.002,0.5423988077685421,-0.2781141086865784,10.0,0.0,0.1405925519555235,1.9303361311454603,33.23260300739077,173.93871787005693,0.0
0.003,1.1168763754123379,-0.5984971112561615,10.0,0.0,0.3826204510258292,2.633929360008794,49.45399631391013,173.93871787005693,0.0
0.004,1.6198615697603975,-0.8745005096752515,10.0,0.0,0.6979614268758414,3.2417824601909766,66.49550937166946,173.93871787005693,0.0
0.005,2.0264359140594475,-1.0943550132616524,10.0,0.0,1.0639775765693842,3.780691022010528,83.8011549024221,173.93871787005693,0.0
0.006,2.345367381557576,-1.264526733542224,10.0,0.0,1.463803311670527,4.271293624635675,101.2828614033583,173.93871787005693,0.0
0.007,2.5950490434480007,-1.395074397041285,10.0,0.0,1.885365259306161,4.728542872375455,118.76228449457591,173.93871787005693,0.0
0.008,2.7933218193037255,-1.495813175134043,10.0,0.0,2.3202717259074213,5.162910201379596,136.1570164015454,173.93871787005693,0.0
0.009000000000000001,2.954804217644756,-1.5744202464333028,10.0,0.0,2.7627636688109627,5.581551108084492,153.36670375843707,173.93871787005693,0.0
0.01,3.0905862205544206,-1.636330275913707,10.0,0.0,3.20889454062449,5.989255922072601,170.2875707360469,173.93871787005693,0.0
0.011,3.208868762586165,-1.6849913711122937,3.517262903600998,0.0,3.655916426832516,5.676049001644967,175.32060165598372,173.93871787005693,0.0
0.012,2.9708402045533515,-1.5449092193177762,0.9869286057733131,0.0,4.011019784727592,5.252721526887769,174.1818194215176,173.93871787005693,0.0
0.013000000000000001,2.5746019438719596,-1.298866645857065,1.5538887074917738,0.0,4.262616197794711,5.036112012657732,177.46812842429037,173.93871787005693,0.0
0.014,2.246506599019978,-1.077464461313188,-0.12455989943695167,0.0,4.445498203566894,4.70815224870497,174.00994498364182,173.93871787005693,0.0
0.015,1.9030584334964258,-0.865615183107018,1.6038195497514764,0.0,4.5562066336093405,4.672681231963786,175.81063713026765,173.93871787005693,0.0
0.016,1.7268800186628441,-0.7256779235642328,0.684754283836452,0.0,4.639022513205781,4.5493923301348875,173.7175584399601,173.93871787005693,0.0
0.017,1.572353093862066,-0.616834026784515,1.7335052232911954,0.0,4.6906544586093455,4.586503340027443,174.7852585324252,173.93871787005693,0.0
0.018000000000000002,1.5234471867778072,-0.5499408767640883,1.1911897704349688,0.0,4.734564502927361,4.558758614793632,173.03282419426975,173.93871787005693,0.0
0.019,1.479350127462695,-0.5001893875850735,2.07646587627056,0.0,4.766505337980704,4.645344510139296,174.31434037802723,173.93871787005693,0.0
0.02,1.5053075041001884,-0.4736640437707939,1.4319515593121197,0.0,4.801490406135499,4.643420281508671,172.19079362614872,173.93871787005693,0.0
0.021,1.5086716926264625,-0.44692763582893985,2.5112041776904555,0.0,4.830108793176292,4.770239426776274,174.2051801978895,173.93871787005693,0.0
0.022,1.5757174807790943,-0.44029431752161696,1.5013462685417438,0.0,4.8680849551053775,4.758020205219527,171.17905528331923,173.93871787005693,0.0
0.023,1.5928062105970473,-0.4164961411826573,3.042005351694251,0.0,4.89849011247167,4.929182297851179,174.1076490472103,173.93871787005693,0.0
0.024,1.6877664787472666,-0.4223636490483682,1.5760191579771885,0.0,4.9438543709931135,4.899328882617548,170.35378601667148,173.93871787005693,0.0
0.025,1.7092266093984891,-0.39502128165965944,3.488799991780448,0.0,4.978630526647636,5.1006519767248175,174.20098526193033,173.93871787005693,0.0
0.026000000000000002,1.8206656924985807,-0.40734571491099814,1.5625776952322892,0.0,5.0316904874789685,5.04226441819399,169.62471942491413,173.93871787005693,0.0
0.027,1.8372528114303381,-0.3704151134617867,3.8938505981918143,0.0,5.0694200858821565,5.270013661638912,174.08988528728068,173.93871787005693,0.0
0.028,1.9593108964821517,-0.38776373180250123,1.6597559928363035,0.0,5.1284293028214885,5.196437286794578,169.291414975826,173.93871787005693,0.0
0.029,1.9763771217818364,-0.34321449202749466,4.105464177505953,0.0,5.169106058023797,5.42683161356338,173.2723230355977,173.93871787005693,0.0
0.03,2.09939217403548,-0.3614095789990751,2.121674095964691,0.0,5.23120152234738,5.382219198864396,169.67758362938977,173.93871787005693,0.0
0.031,2.1351336776771364,-0.3193121615490495,3.9616551414753305,0.0,5.2778135319794846,5.567811973011201,171.76184103229332,173.93871787005693,0.0
0.032,2.243237875822815,-0.3293048093925486,2.9412952084011934,0.0,5.339843783500346,5.5973332208536695,170.83036628002216,173.93871787005693,0.0
0.033,2.3124649302900417,-0.30076994073842456,3.43811610043712,0.0,5.3953843726229795,5.688425332508732,169.90338824196508,173.93871787005693,0.0
0.034,2.389054005067181,-0.29011689160988874,3.9419584157465817,0.0,5.453593627281258,5.818684209993419,174.05656906524763,173.93871787005693,0.0
0.035,2.4919704447731554,-0.29003134188709234,1.8641894921533977,0.0,5.5191049642439545,5.697590202827237,173.76764962045513,173.93871787005693,0.0
0.036000000000000004,2.4551816357296445,-0.27359770213137957,2.0103598970456646,0.0,5.564148921917865,5.637089097239868,176.46119196369523,173.93871787005693,0.0
0.037,2.3941892445674218,-0.2742462228108151,0.6383639844892333,0.0,5.598874046937939,5.441102518485906,177.1810416282766,173.93871787005693,0.0
0.038,2.2662988139580045,-0.23761633194817333,0.2460159146163492,0.0,5.6064922283789285,5.252206805004311,176.93172098479502,173.93871787005693,0.0
0.039,2.114297138990441,-0.20455308171196251,0.3407462052097594,0.0,5.5911883617103,5.112747573619313,177.46383012648462,173.93871787005693,0.0
0.04,1.985243887386658,-0.1835296013512625,0.03944051180068131,0.0,5.561487008232721,4.964288790451762,177.23193830993586,173.93871787005693,0.0
0.041,1.8628127754441688,-0.16881943755340822,0.12245421567627579,0.0,5.518502028571989,4.852027204411249,177.2755223312784,173.93871787005693,0.0
0.042,1.763707426848607,-0.16694670490827024,0.06729416039278435,0.0,5.468530489320289,4.749472813114862,177.09309225830444,173.93871787005693,0.0
0.043000000000000003,1.679917266635716,-0.17277534842593711,0.126965452997295,0.0,5.413960542977515,4.667518013899734,177.10319270798013,173.93871787005693,0.0
0.044,1.6129388316031155,-0.18664960685112564,0.09027047978021807,0.0,5.358119993339103,4.590198266243379,176.97927365311628,173.93871787005693,0.0
0.045,1.554761880785987,-0.20395171433357262,0.12182444938154857,0.0,5.301896013137712,4.5245940050166915,176.97184299257367,173.93871787005693,0.0
0.046,1.5054933321573252,-0.22442847068528016,0.09520852842768601,0.0,5.2468134269576545,4.461522251732578,176.8787592549884,173.93871787005693,0.0
0.047,1.4602631574038267,-0.2454664737774308,0.11234998337100155,0.0,5.193041336843811,4.405883768148769,176.84002295340755,173.93871787005693,0.0
0.048,1.4196420153203944,-0.26705384756912265,0.10270508332792261,0.0,5.141246838469136,4.353215594239431,176.75995626307588,173.93871787005693,0.0
0.049,1.3814590840148497,-0.2880865500032922,0.1145260445635714,0.0,5.0914626960708365,4.305825453642686,176.6939181969989,173.93871787005693,0.0
0.05,1.346125948030996,-0.30853287740730273,0.11999307433263673,0.0,5.043956722842792,4.262183892173194,176.6121752471023,173.93871787005693,0.0
0.051000000000000004,1.3129857118930897,-0.3280471026933818,0.134129975510487,0.0,4.99877929229803,4.22294837297505,176.52800863555794,173.93871787005693,0.0
0.052000000000000005,1.2821988844798118,-0.3465554159016693,0.1503203736276577,0.0,4.956036825087981,4.187813386077438,176.4082764869843,173.93871787005693,0.0
0.053,1.2536958955509032,-0.3639609459379647,0.18549086174520002,0.0,4.915784631081087,4.158451961368386,176.35349819750286,173.93871787005693,0.0
0.054,1.2283469700491843,-0.3805846553422028,0.18873220321146444,0.0,4.878276066738079,4.130509654325563,176.2503839031644,173.93871787005693,0.0
0.055,1.2042777119798938,-0.3955505660948046,0.2171726900496238,0.0,4.843204141213834,4.107100890822863,176.15502012592535,173.93871787005693,0.0
0.056,1.1825513677503043,-0.40910874090259824,0.24269155611046167,0.0,4.8106402720130745,4.08719768680088,176.0570629760373,173.93871787005693,0.0
0.057,1.1630299476631434,-0.4212698122194903,0.2704866799946881,0.0,4.780544605426973,4.0707607839949675,175.95372553733492,173.93871787005693,0.0
0.058,1.1457572029276382,-0.4319659135083431,0.30200532267309255,0.0,4.752869775647494,4.057851891986852,175.85055897838208,173.93871787005693,0.0
0.059000000000000004,1.130841335823645,-0.4412293982091701,0.33447019106625886,0.0,4.727583561949356,4.048190373232149,175.57853597652678,173.93871787005693,0.0
0.06,1.118240567544647,-0.44905237938489206,0.4540835109292116,0.0,4.704627710827884,4.051036127323747,175.38813501474874,173.93871787005693,0.0
0.061,1.1126294602350781,-0.4576142301763493,0.5347898203713131,0.0,4.685115594003018,4.059474495855299,175.26509662176264,173.93871787005693,0.0
0.062,1.1119416355015717,-0.4663775409396176,0.5830452293473078,0.0,4.66927687138984,4.06963839739174,175.09064880111052,173.93871787005693,0.0
0.063,1.113763057283535,-0.4736002963887055,0.6587498303628316,0.0,4.656745281183391,4.0848397538918135,174.98220526391916,173.93871787005693,0.0
0.064,1.1189308730672247,-0.4794322342368016,0.7025367250198908,0.0,4.647556271256396,4.100777082604973,174.9413246424987,173.93871787005693,0.0
0.065,1.125400557408365,-0.48343105317336504,0.7129509680057011,0.0,4.641261445897955,4.114249488116296,174.64487032662407,173.93871787005693,0.0
0.066,1.1311302215862382,-0.4844825784289387,0.8541166013773431,0.0,4.637019023215238,4.14060368156551,174.46509802509235,173.93871787005693,0.0
0.067,1.1433029190181832,-0.48571036358456365,0.9387389505928527,0.0,4.63596080326028,4.1705133154057865,173.91850801220286,173.93871787005693,0.0
0.068,1.1605645654252978,-0.48486678028354147,1.2122360556161342,0.0,4.637894296670174,4.224787567796481,175.4686421834946,173.93871787005693,0.0
0.069,1.1895207604318963,-0.4913911115525548,0.42186972683588486,0.0,4.645787978250748,4.181139912086379,172.76880797419636,173.93871787005693,0.0
0.07,1.1752283912043673,-0.4741670403803421,1.7834859304436135,0.0,4.646567634960625,4.302189558355093,174.9425659433041,173.93871787005693,0.0
0.07100000000000001,1.2309732513129739,-0.4810356155554611,0.686568465157279,0.0,4.660302074607369,4.270660264146127,172.81043282906677,173.93871787005693,0.0
0.07200000000000001,1.229962160608153,-0.4701500305400121,1.7639178726858404,0.0,4.668244040765092,4.373803621382354,174.0847843524375,173.93871787005693,0.0
0.073,1.2833978002346245,-0.47047310561840794,1.1252814461766647,0.0,4.685850540139442,4.380515307253475,172.8123657514892,173.93871787005693,0.0
0.074,1.3012156656303855,-0.46377453796774154,1.7727542678364916,0.0,4.701627484971113,4.464499240325324,173.48328653956924,173.93871787005693,0.0
0.075,1.3523962552748154,-0.45888497949672713,1.441848187101356,0.0,4.723754262871496,4.493336391268761,172.6344091933097,173.93871787005693,0.0
0.076,1.3812577628348568,-0.4528631151209131,1.8793299469985993,0.0,4.745938568579556,4.57027159936878,172.90160197223923,173.93871787005693,0.0
0.077,1.4337808685178393,-0.44426072834495883,1.7561047165120058,0.0,4.772711920625214,4.618313197727579,172.57789384435722,173.93871787005693,0.0
0.078,1.4735556948191575,-0.4392908858169359,1.93156702071001,0.0,4.801151438491867,4.680911077385394,172.01274885654482,173.93871787005693,0.0
0.079,1.5242074689683494,-0.42520487566121823,2.2333992047513327,0.0,4.831507029845782,4.7663660911732615,172.75549580378507,173.93871787005693,0.0
0.08,1.5833177295547316,-0.42455951070350495,1.8738579517939264,0.0,4.867442433399302,4.797747692128995,170.2025240877437,173.93871787005693,0.0
0.081,1.625208016005684,-0.4051121829125923,3.187705747637736,0.0,4.900789704285623,4.973686514513159,173.81827377367856,173.93871787005693,0.0
0.082,1.7280626310363738,-0.420119773681745,1.381035345634098,0.0,4.950241438584241,4.912598854779835,169.05622706564674,173.93871787005693,0.0
0.083,1.7401967495992927,-0.3830507968347224,3.810883607694109,0.0,4.984411570118803,5.147608940404729,173.75759770619848,173.93871787005693,0.0
0.084,1.863051852155939,-0.40318453952761957,1.4620094890568214,0.0,5.041251098527087,5.066467674854286,168.68343342116566,173.93871787005693,0.0
0.085,1.8744314206403594,-0.36050757942541484,4.051644476062146,0.0,5.0793967445013255,5.307449876948953,173.28680977157967,173.93871787005693,0.0
0.08600000000000001,2.000342154452017,-0.38058618693730745,1.756475381839913,0.0,5.1404614625149385,5.23604708816264,168.71092600759593,173.93871787005693,0.0
0.08700000000000001,2.0210972621636505,-0.3357090190999041,4.096695182456393,0.0,5.183142155311323,5.457242964556191,172.2689507523044,173.93871787005693,0.0
0.088,2.1405858520041945,-0.35246860536568503,2.3343804812796876,0.0,5.245966692635037,5.430394313649084,169.3890259479257,173.93871787005693,0.0
0.089,2.1845385625035334,-0.31324616395344945,3.8198398026903515,0.0,5.2953418467176645,5.5898967416754735,170.7431668446961,173.93871787005693,0.0
0.09,2.282990337713135,-0.3179964006982488,3.174724864558751,0.0,5.356644478650719,5.642179037730841,170.29274537484832,173.93871787005693,0.0
0.091,2.3603076598175394,-0.2932400982381863,3.4363953244347285,0.0,5.414274381357948,5.723077879662264,169.35562927097712,173.93871787005693,0.0
0.092,2.436110331896859,-0.27998155745033665,3.950784262361129,0.0,5.473020301525535,5.84805078553673,175.9737361363236,173.93871787005693,0.0
0.093,2.518861528512763,-0.30692796223305,0.6213806470252243,0.0,5.541485610197788,5.5866781008673385,174.01525413436303,173.93871787005693,0.0
0.094,2.404711337978393,-0.2648548367516317,1.5998562853624443,0.0,5.572069611685091,5.512599604827505,176.63538406476928,173.93871787005693,0.0
0.095,2.309591765088919,-0.2542662281355398,0.2628246582121958,0.0,5.591443347726725,5.3014507742829835,176.66619924744376,173.93871787005693,0.0
0.096,2.1633988141901748,-0.21309362070761012,0.2201422531010908,0.0,5.583341726378834,5.137159480976325,176.54046910110253,173.93871787005693,0.0
0.097,2.0198475789675907,-0.1866385447973869,0.2569898139612481,0.0,5.557122805559217,5.00729591697677,176.90874223655368,173.93871787005693,0.0
0.098,1.90126097928092,-0.17208622942813837,0.04315300257070698,0.0,5.519203216490095,4.875515306046955,176.5984073039765,173.93871787005693,0.0
0.099,1.7928711513645499,-0.1650551985894198,0.1717235745201,0.0,5.471269634996334,4.780138943405482,176.7399829187249,173.93871787005693,0.0
0.1,1.7086654823998106,-0.17051700136506365,0.07292311665921791,0.0,5.419262884001512,4.685531828101546,176.52026000428484,173.93871787005693,0.0
0.101,1.6349254849224613,-0.18086695130632974,0.15696915253697363,0.0,5.364079973041561,4.612687160786543,176.60272151105738,173.93871787005693,0.0
0.10200000000000001,1.576337172385976,-0.1980909234916997,0.08909836274069605,0.0,5.3089220238870825,4.53900973627492,176.4549272548299,173.93871787005693,0.0
0.10300000000000001,1.5228445767464276,-0.21674549757115985,0.13783339700670894,0.0,5.253791890623776,4.478522123361222,176.482574847273,173.93871787005693,0.0
0.10400000000000001,1.4774839632490162,-0.23798795144063323,0.09857103101298992,0.0,5.200276133580281,4.418218789338913,176.3833684928538,173.93871787005693,0.0
0.105,1.434562645436484,-0.25896545617268857,0.1237277019946259,0.0,5.148176719820733,4.366021809306804,176.3581656889065,173.93871787005693,0.0
0.106,1.3959955946686062,-0.2802425977000478,0.11213462577978461,0.0,5.098198259954618,4.316120943214845,176.2818530908267,173.93871787005693,0.0
0.107,1.3594054528449415,-0.3007243888951492,0.12685957261198477,0.0,5.050267785082108,4.271587237752084,176.22205638403452,173.93871787005693,0.0
0.108,1.3255733975496753,-0.3205089103594807,0.1339245408683012,0.0,5.004648466599697,4.230699377052464,176.14632197560238,173.93871787005693,0.0
0.109,1.2938670715300775,-0.33930695690426604,0.14971570402891698,0.0,4.961372233800848,4.194154124148875,176.06758868209934,173.93871787005693,0.0
0.11,1.2644948504875377,-0.3570558017849531,0.16779364266001018,0.0,4.920533491462951,4.161680315928056,175.96080735901037,173.93871787005693,0.0
0.111,1.2374219418468602,-0.37368073132372026,0.20096340931495926,0.0,4.882182496337222,4.134522206981311,175.90508952463523,173.93871787005693,0.0
0.112,1.2133115612837964,-0.3894244108986345,0.20915860995674862,0.0,4.846516345287243,4.109195996596244,175.8118371829125,173.93871787005693,0.0
0.113,1.1906785932540607,-0.4035579032260715,0.23705358768955143,0.0,4.813281435664024,4.088070810366521,175.72402427058174,173.93871787005693,0.0
0.114,1.1703252546740852,-0.4162558765584999,0.2631069798496912,0.0,4.782512940523449,4.070334112721232,175.63097845955747,173.93871787005693,0.0
0.115,1.1521464426025407,-0.42752211406488316,0.29270727946681996,0.0,4.754159931524779,4.056085870304768,175.51787414161515,173.93871787005693,0.0
0.116,1.1362613293070278,-0.43733852006883556,0.3334678757223959,0.0,4.728184541469702,4.046180388163815,175.39345202544925,173.93871787005693,0.0
0.117,1.1231725132199162,-0.4459903001938253,0.381131592251424,0.0,4.704669673959745,4.040784236723718,175.09684825283924,173.93871787005693,0.0
0.11800000000000001,1.1132042540543226,-0.45362060294066237,0.5178521747286073,0.0,4.683719493557676,4.049104460931175,174.98222953436562,173.93871787005693,0.0
0.11900000000000001,1.1111088183693694,-0.46241047771532345,0.5647264173223316,0.0,4.666586936814306,4.05841742087191,174.850453286775,173.93871787005693,0.0
0.12,1.111877797705053,-0.47051453472025057,0.6214971869504549,0.0,4.652902479262139,4.070756329293614,174.66718869926413,173.93871787005693,0.0
0.121,1.1152058336596258,-0.47684751277602067,0.7058447724138213,0.0,4.642435945323448,4.0888450336609745,174.7208283535741,173.93871787005693,0.0
0.122,1.1223495243855115,-0.4818109378588982,0.6712038404236691,0.0,4.635307582193917,4.098671710203876,174.4098059055551,173.93871787005693,0.0
0.123,1.1260319882966818,-0.48375362545227374,0.8220041840781889,0.0,4.630038784416075,4.123403695778466,174.32178306249406,173.93871787005693,0.0
0.124,1.1371034081805984,-0.48465715982383156,0.8621849536843305,0.0,4.627850026878415,4.146866452689821,174.33171616886636,173.93871787005693,0.0
0.125,1.1488613358805848,-0.48593862753781497,0.8532884175100857,0.0,4.628358346890477,4.1652009736328885,173.61893519127764,173.93871787005693,0.0
0.126,1.1602880837933833,-0.48166627407632145,1.2128767330922392,0.0,4.630166513437734,4.220257191565227,174.44824894090257,173.93871787005693,0.0
0.127,1.1894177382511697,-0.48391691880767235,0.7931245475713178,0.0,4.637589779578563,4.2171299862847045,172.96681857310296,173.93871787005693,0.0
0.128,1.1944266885166042,-0.47641122362146904,1.5435587244406663,0.0,4.643109865659462,4.301543421472536,174.0897529381673,173.93871787005693,0.0
0.129,1.2393254310380066,-0.47684338374875007,0.9805811912273934,0.0,4.656641881216918,4.303746879152822,172.82743262694098,173.93871787005693,0.0
0.13,1.2513554453168068,-0.47064129816651085,1.6228541992717123,0.0,4.668354489971339,4.382488684692377,173.39311318596572,173.93871787005693,0.0
0.131,1.297231233054923,-0.46650398347696964,1.3454699666002536,0.0,4.686376934644242,4.412666538370709,172.87433827691984,173.93871787005693,0.0
0.132,1.3241265240118922,-0.4629070555328649,1.6155012170545615,0.0,4.705260631290734,4.471606406897302,172.494210491872,173.93871787005693,0.0
0.133,1.3664275532905132,-0.4523764013956478,1.8200101833603344,0.0,4.727027542449584,4.541952171713898,173.37154392167753,173.93871787005693,0.0
0.134,1.4133645465181166,-0.4526397922082236,1.3870152079413625,0.0,4.753786618504964,4.553025455243327,170.67567813019681,173.93871787005693,0.0
0.135,1.4376227138094921,-0.4341552857820472,2.7675785010803207,0.0,4.776941185692742,4.719660201555049,173.8129926203058,173.93871787005693,0.0
