timestamp,iq,id,iq_ref,id_ref,vq,vd,omega,omega_ref,r
0.0,0.0,0.0,0.0,0.0,0.0,0.0,0.0,494.56705273845665,0.0
0.001,0.0,0.0,10.0,0.0,0.0,1.0999999999999999,4.181170949858523,494.56705273845665,0.0
0.002,1.0355250288942748,-0.5804449377287726,10.0,0.0,0.17384894315016494,1.8760922468216295,9.741555595336088,494.56705273845665,0.0
0.003,2.163755118615225,-1.2210819833494158,10.0,0.0,0.4725878423084595,2.4782101036957505,15.636839074608309,494.56705273845665,0.0
0.004,3.104936621732474,-1.7588059946589643,10.0,0.0,0.8544079080261805,2.9577424003526027,21.55828358844918,494.56705273845665,0.0
0.005,3.796257120908434,-2.154750284984016,10.0,0.0,1.2841758286604745,3.3608700340373567,27.467346035803203,494.56705273845665,0.0
0.006,4.269755303389941,-2.4258657685049325,10.0,0.0,1.7371429808838659,3.72149010133586,33.36422275587306,494.56705273845665,0.0
0.007,4.5857517162466275,-2.6061716627134803,10.0,0.0,2.1979979181424985,4.06132025353743,39.2328690776299,494.56705273845665,0.0
0.008,4.8014086687766335,-2.728778987538467,10.0,0.0,2.6584341236840885,4.392690583594974,45.09411429920725,494.56705273845665,0.0
0.009000000000000001,4.960636331405873,-2.817720682979911,10.0,0.0,3.1145212549275816,4.7216090278370055,50.91568390587882,494.56705273845665,0.0
0.01,5.091037476337366,-2.8908090463043115,10.0,0.0,3.565041820482199,5.05049249146301,56.64316691832771,494.56705273845665,0.0
0.011,5.20940793104881,-2.956964046032463,10.0,0.0,4.009944842180809,5.379822926712934,62.30425290915766,494.56705273845665,0.0
0.012,5.324759934809875,-3.019731062704052,10.0,0.0,4.4495334270711435,5.709205604741125,67.9306399343943,494.56705273845665,0.0
0.013000000000000001,5.4401817802042,-3.0815427171334897,10.0,0.0,4.884273033095783,6.038065990499762,73.51999402673607,494.56705273845665,0.0
0.014,5.557955759122767,-3.1402725113607213,10.0,0.0,5.314266877914526,6.365713379057903,79.13906830929999,494.56705273845665,0.0
0.015,5.6758146296650525,-3.198934766939306,10.0,0.0,5.739891627278578,6.691808677271634,84.58232749654525,494.56705273845665,0.0
0.016,5.794522785060884,-3.2546127918567405,10.0,0.0,6.161101391712734,7.015977612212282,89.92965369098086,494.56705273845665,0.0
0.017,5.913655746384006,-3.3064991294729307,10.0,0.0,6.577757790086142,7.337933085910697,95.20449621247072,494.56705273845665,0.0
0.018000000000000002,6.033355777035152,-3.353240265667807,10.0,0.0,6.989566757597327,7.657382978318214,100.37476138942044,494.56705273845665,0.0
0.019,6.153058113641883,-3.3951239125673105,10.0,0.0,7.396279607395143,7.97409852151587,105.38959154422886,494.56705273845665,0.0
0.02,6.2741166697438855,-3.4295732417978364,10.0,0.0,7.797363316279303,8.287694377568386,110.30800351683423,494.56705273845665,0.0
0.021,6.396738136726475,-3.4562026503567376,10.0,0.0,8.192282981529473,8.597761243097004,115.12411352137158,494.56705273845665,0.0
0.022,6.5215438340308225,-3.4741173086555976,10.0,0.0,8.580421685134777,8.903810976564127,119.91532250331952,494.56705273845665,0.0
0.023,6.650711406429108,-3.4799279872675934,10.0,0.0,8.960811519790592,9.205109231054298,124.64600284635172,494.56705273845665,0.0
0.024,6.779959479028883,-3.4810996556089973,10.0,0.0,9.333362973161274,9.501391031299038,128.6601623244079,494.56705273845665,0.0
0.025,6.912679351890903,-3.4724043831452507,10.0,0.0,9.697319264564939,9.791993091567551,132.38322814178443,494.56705273845665,0.0
0.026000000000000002,7.052457664934285,-3.4482748972497386,10.0,0.0,10.051372842131217,10.075882159243427,136.18813714720145,494.56705273845665,0.0
0.027,7.196679031657444,-3.4134595638787415,10.0,0.0,10.394821576896604,10.352321110699231,139.80948406106702,494.56705273845665,0.0
0.028,7.346837083442201,-3.3659728675575,10.0,0.0,10.726693950069404,10.6203858684569,143.1161306880956,494.56705273845665,0.0
0.029,7.502125786927047,-3.3075695685648956,10.0,0.0,11.046236065774718,10.879251210890596,146.36431490715395,494.56705273845665,0.0
0.03,7.666729544991025,-3.2317533020449583,10.0,0.0,11.3519547478256,11.127630704299266,149.38793500671196,494.56705273845665,0.0
0.031,7.829602816701183,-3.157062920290148,10.0,0.0,11.644481731684436,11.36547409426468,150.6018344330882,494.56705273845665,0.0
0.032,8.003608286996249,-3.062798273158241,10.0,0.0,11.921918148786963,11.59127397460408,148.63723738936622,494.56705273845665,0.0
0.033,8.200535768545562,-2.9294783284905654,10.0,0.0,12.180468364771055,11.802315540352318,155.25115007833713,494.56705273845665,0.0
0.034,8.374489731850307,-2.8326482242830977,10.0,0.0,12.424949603715415,12.000942309976114,150.47575546380094,494.56705273845665,0.0
0.035,8.563507682164502,-2.7104856075906922,10.0,0.0,12.65237580893363,12.185102091630453,157.33499013354182,494.56705273845665,0.0
0.036000000000000004,8.776065320339837,-2.5482777427650403,10.0,0.0,12.858854132831558,12.352097354945029,153.2445853528509,494.56705273845665,0.0
0.037,8.961501869545257,-2.428895975403953,10.0,0.0,13.049874234909693,12.504768480287105,157.85118402970693,494.56705273845665,0.0
0.038,9.182709725993302,-2.2493575376004067,10.0,0.0,13.218504028829434,12.638796004585554,152.7847590146291,494.56705273845665,0.0
0.039,9.378661783160215,-2.108649066439742,10.0,0.0,13.369991048337415,12.756941108122255,158.20434333220553,494.56705273845665,0.0
0.04,9.590565342114886,-1.9392427076390808,10.0,0.0,13.500916261491797,12.857070532342732,152.71026603362708,494.56705273845665,0.0
0.041,9.810855801485555,-1.7518342468277526,10.0,0.0,13.609841028651552,12.938166620515375,153.0702031409971,494.56705273845665,0.0
0.042,9.993086026872277,-1.6233483113419922,10.0,0.0,13.703723559617277,13.0042031563879,155.998225254378,494.56705273845665,0.0
0.043000000000000003,10.212118047056006,-1.4288900366664956,10.0,0.0,13.774715940214234,13.050753071803399,150.46166766351155,494.56705273845665,0.0
0.044,10.422497464437098,-1.241638626291496,10.0,0.0,13.824611001898552,13.078795818026961,146.7615323092543,494.56705273845665,0.0
0.045,10.59962700255755,-1.103315154104644,10.0,0.0,13.858977764199985,13.09164334077716,148.04420727875421,494.56705273845665,0.0
0.046,10.776059080008704,-0.959066269146855,10.0,0.0,13.876708459922808,13.08900655434406,149.37324184242027,494.56705273845665,0.0
0.047,10.962982042435907,-0.7880026341206534,10.0,0.0,13.875027896426737,13.069609311034071,150.8736325540423,494.56705273845665,0.0
0.048,11.075751477101448,-0.732613842306729,10.0,0.0,13.867193534200004,13.041448327516537,149.3347534033806,494.56705273845665,0.0
0.049,11.088019966647837,-0.8275912118154123,10.0,0.0,13.868327908408286,13.01509816662464,148.2568807350889,494.56705273845665,0.0
0.05,11.051213237953622,-0.9855499081681787,10.0,0.0,13.883139512010267,12.99566788429458,152.10592731689664,494.56705273845665,0.0
0.051000000000000004,10.988017999714554,-1.1715731073446953,10.0,0.0,13.913409891964932,12.986245199477086,157.9676510235695,494.56705273845665,0.0
0.052000000000000005,10.940737079158696,-1.3169681177857333,10.0,0.0,13.953844184599134,12.985360770015559,155.3150409052337,494.56705273845665,0.0
0.053,10.88142825286333,-1.4750890373040146,10.0,0.0,14.00608595606636,12.994659374450539,159.04128742574568,494.56705273845665,0.0
0.054,10.789107099890382,-1.6885709395322905,10.0,0.0,14.07593521088029,13.017814534152812,164.35599240548163,494.56705273845665,0.0
0.055,10.738790601281313,-1.82799250969431,10.0,0.0,14.154316609878592,13.050250706683517,161.9975127488066,494.56705273845665,0.0
0.056,10.649122847730577,-2.0377968296628968,10.0,0.0,14.249787745725062,13.096641689765475,171.04066543363018,494.56705273845665,0.0
0.057,10.58513113695806,-2.204833060988678,10.0,0.0,14.356626808541229,13.154083098773352,167.88124949594982,494.56705273845665,0.0
0.058,10.501012383448565,-2.40958758417052,10.0,0.0,14.479378741213308,13.225077418940376,177.28980394351578,494.56705273845665,0.0
0.059000000000000004,10.438357013335562,-2.5783438931955995,10.0,0.0,14.61347056139583,13.307298403535246,176.59066805514962,494.56705273845665,0.0
0.06,10.342012464154111,-2.8086169325792705,10.0,0.0,14.766017769261532,13.404677818397701,181.77068555121105,494.56705273845665,0.0
0.061,10.289043325013866,-2.962622761329307,10.0,0.0,14.927686108595578,13.512437172374101,188.49458635848103,494.56705273845665,0.0
0.062,10.189323226527966,-3.1998146417379365,10.0,0.0,15.10851459795131,13.636026944328313,186.63834604190188,494.56705273845665,0.0
0.063,10.10949279908618,-3.401841808715305,10.0,0.0,15.303470285130318,13.773124734056417,194.74142057847712,494.56705273845665,0.0
0.064,10.047336656132604,-3.5703908544195637,10.0,0.0,15.509160305921927,13.92204718498008,202.04851935309102,494.56705273845665,0.0
0.065,9.948912388317025,-3.801313084026584,10.0,0.0,15.732889524526472,14.08685150092072,203.57248583450416,494.56705273845665,0.0
0.066,9.852373404616085,-4.0271230491293295,10.0,0.0,15.973256126729856,14.267183352656694,205.10724919641623,494.56705273845665,0.0
0.067,9.78744869131987,-4.193161089477609,10.0,0.0,16.22362533867378,14.459695008064983,213.40509263198058,494.56705273845665,0.0
0.068,9.71444596523066,-4.36869615739012,10.0,0.0,16.485857272031033,14.665373471863687,220.0008716423449,494.56705273845665,0.0
0.069,9.628862473251546,-4.562372436398968,10.0,0.0,16.761982898444288,14.88539143947506,223.97204271563712,494.56705273845665,0.0
0.07,9.548881541950575,-4.742208883358149,10.0,0.0,17.050343005352765,15.118962240489928,227.42031306249666,494.56705273845665,0.0
0.07100000000000001,9.485445514561643,-4.888576284113015,10.0,0.0,17.34752623128534,15.36419012579394,232.3138298537126,494.56705273845665,0.0
0.07200000000000001,9.434490600454497,-5.008840619711915,10.0,0.0,17.651279326063378,15.619584225438704,237.90129928573518,494.56705273845665,0.0
0.073,9.392815560895354,-5.109809430128044,10.0,0.0,17.96010044711788,15.883888929807226,243.2778915715124,494.56705273845665,0.0
0.074,9.366205798232055,-5.183205989142792,10.0,0.0,18.271533859891242,16.155155599341718,248.2842367634642,494.56705273845665,0.0
0.075,9.356818257034973,-5.227274580618275,10.0,0.0,18.583064177812865,16.43120547510514,252.48488082355675,494.56705273845665,0.0
0.076,9.369517952164164,-5.236200047821243,10.0,0.0,18.891587566996243,16.709312553208207,256.1978021110653,494.56705273845665,0.0
0.077,9.412848680130573,-5.198392110479169,10.0,0.0,19.19282119729194,16.985821879294292,259.2261552867184,494.56705273845665,0.0
0.078,9.478788907655904,-5.130565495606831,10.0,0.0,19.484499548904132,17.25798351805321,263.20204983022273,494.56705273845665,0.0
0.079,9.582333287916043,-5.011242087136246,10.0,0.0,19.76177892044796,17.521366348544092,261.7665416356635,494.56705273845665,0.0
0.08,9.701090469151751,-4.881030891586285,10.0,0.0,20.024538640460698,17.77411098700695,253.74997237243835,494.56705273845665,0.0
0.081,9.892368464364035,-4.64818336142392,10.0,0.0,20.261985735956088,18.008004125963804,258.6273504228365,494.56705273845665,0.0
0.082,10.14049477498867,-4.339341042154763,10.0,0.0,20.467433255979653,18.216871546357915,263.6646115863182,494.56705273845665,0.0
0.083,10.36689293121789,-4.0860059686207455,10.0,0.0,20.648444331144205,18.402974442636005,255.4773520994035,494.56705273845665,0.0
0.084,10.626361415091079,-3.8015664989096978,10.0,0.0,20.801209597487247,18.56229060513899,253.76543115514983,494.56705273845665,0.0
0.085,10.972839495397784,-3.3947471942809972,10.0,0.0,20.912724224634236,18.68543377403097,256.60333608632277,494.56705273845665,0.0
0.08600000000000001,11.268670942250408,-3.086997202719958,10.0,0.0,20.995617399930296,18.778337410397732,244.14412076697192,494.56705273845665,0.0
0.08700000000000001,11.637999408770522,-2.676413347256119,10.0,0.0,21.037424897148007,18.83257218380873,249.28804743889964,494.56705273845665,0.0
0.088,11.978787793472032,-2.3228609090403087,10.0,0.0,21.04569019233595,18.85177079194844,237.54823705460063,494.56705273845665,0.0
0.089,12.362243963992308,-1.90717730850536,10.0,0.0,21.012859147142386,18.831103773882756,235.62309565227585,494.56705273845665,0.0
0.09,12.694797697167134,-1.5768851705222449,10.0,0.0,20.94906920548882,18.776474004160264,232.68566406681137,494.56705273845665,0.0
0.091,13.074353806057122,-1.1673085712364797,10.0,0.0,20.844444776486757,18.682502582598506,223.37184298975896,494.56705273845665,0.0
0.092,13.410830048722401,-0.8193008528747405,10.0,0.0,20.706700565201785,18.554249034688436,218.16925985383241,494.56705273845665,0.0
0.093,13.726437585709993,-0.4941521488938987,10.0,0.0,20.537619140000036,18.393694353798892,213.88613598984358,494.56705273845665,0.0
0.094,14.030761214893678,-0.17063143864329397,10.0,0.0,20.33705459814174,18.201967474637804,212.65807675046284,494.56705273845665,0.0
0.095,14.185917858508322,-0.07779734146739767,10.0,0.0,20.13039727896633,17.995332834701223,214.75603121121705,494.56705273845665,0.0
0.096,14.119092139685447,-0.30901987409025583,10.0,0.0,19.950105047275077,17.797598322347415,216.09404934788694,494.56705273845665,0.0
0.097,13.972990287440672,-0.6175052074448709,10.0,0.0,19.79968974886034,17.61701098461856,217.20390382434232,494.56705273845665,0.0
0.098,13.776769428117223,-0.9616782115240377,10.0,0.0,19.681031423629353,17.459564126824247,218.9049402752816,494.56705273845665,0.0
0.099,13.551496081581778,-1.3194660743869626,10.0,0.0,19.594409180016168,17.328813981811937,221.4579658617758,494.56705273845665,0.0
0.1,13.320332386179778,-1.664253189371244,10.0,0.0,19.537722850282716,17.225651899968398,228.01403389210324,494.56705273845665,0.0
0.101,13.075676232700348,-2.0204425588943424,10.0,0.0,19.512121904835947,17.15173793326459,226.63330137520873,494.56705273845665,0.0
0.10200000000000001,12.84372743754433,-2.3494838428153075,10.0,0.0,19.514322304799556,17.105723074618854,235.64842384495628,494.56705273845665,0.0
0.10300000000000001,12.59906534994518,-2.7006377796106835,10.0,0.0,19.547037699110504,17.0891230835184,233.71701011734717,494.56705273845665,0.0
0.10400000000000001,12.358963861143858,-3.045822627553305,10.0,0.0,19.60928034878605,17.101419173851234,241.88330575257547,494.56705273845665,0.0
0.105,12.144514165248943,-3.346971417287431,10.0,0.0,19.69620286091865,17.139898371778774,247.36593537911062,494.56705273845665,0.0
0.106,11.891913418279175,-3.716980113852584,10.0,0.0,19.815970510355577,17.208863486334543,246.8702297302514,494.56705273845665,0.0
0.107,11.673330841525651,-4.027686794350286,10.0,0.0,19.961135554193476,17.304426930351607,254.41059149810593,494.56705273845665,0.0
0.108,11.474313206653704,-4.3011984499703315,10.0,0.0,20.128319653362517,17.42465664841914,263.39054023030116,494.56705273845665,0.0
0.109,11.253034211649647,-4.611292609885252,10.0,0.0,20.322183555455858,17.571932317698558,267.55357765966176,494.56705273845665,0.0
0.11,11.033971108901587,-4.915469951455485,10.0,0.0,20.54174720024138,17.745750961611606,267.9267234169941,494.56705273845665,0.0
0.111,10.844803098363581,-5.1638421802497625,10.0,0.0,20.781015516691326,17.94276195574362,273.2802447122415,494.56705273845665,0.0
0.112,10.686965312469331,-5.35336187520792,10.0,0.0,21.034421545066927,18.159469158450396,279.22504658975544,494.56705273845665,0.0
0.113,10.540675965977371,-5.5201959961499085,10.0,0.0,21.30061424722969,18.39435969397923,284.93864992019394,494.56705273845665,0.0
0.114,10.420607124285908,-5.6422888560958135,10.0,0.0,21.57543860611368,18.644125125292593,290.6632936442489,494.56705273845665,0.0
0.115,10.327834436189514,-5.72105585989471,10.0,0.0,21.855200514059028,18.905400756636713,295.32430082793854,494.56705273845665,0.0
0.116,10.26907788735329,-5.749427112055898,10.0,0.0,22.135446962043996,19.17406050913198,299.42218672270377,494.56705273845665,0.0
0.117,10.257044283910902,-5.71095147423223,10.0,0.0,22.410018707797782,19.444615062066518,302.4577625408474,494.56705273845665,0.0
0.11800000000000001,10.284984022431555,-5.622683165169649,10.0,0.0,22.674863976650997,19.712377627011282,299.97058388191374,494.56705273845665,0.0
0.11900000000000001,10.35823037148691,-5.482136191461473,10.0,0.0,22.92542349109609,19.97207076133601,292.2055653116739,494.56705273845665,0.0
0.12,10.519000761258578,-5.224547995541401,10.0,0.0,23.14996713571502,20.21389825428844,295.31728766104095,494.56705273845665,0.0
0.121,10.761287954582027,-4.863351409466221,10.0,0.0,23.339083422658234,20.42895347503966,301.54926385203703,494.56705273845665,0.0
0.122,11.003087316764237,-4.53771178010313,10.0,0.0,23.49858520961306,20.617239744503273,293.7772508824201,494.56705273845665,0.0
0.123,11.279681243665403,-4.194761947539129,10.0,0.0,23.626497359530347,20.7746402273787,284.33329419286434,494.56705273845665,0.0
0.124,11.672244694087963,-3.699140555719735,10.0,0.0,23.70626948796897,20.88867583668085,291.7427172576736,494.56705273845665,0.0
0.125,12.047275189342761,-3.262607448084097,10.0,0.0,23.746405536572208,20.96195737792283,275.43563459789675,494.56705273845665,0.0
0.126,12.453262953653713,-2.8059728372189,10.0,0.0,23.74399165832051,20.99101602077929,279.96733330492776,494.56705273845665,0.0
0.127,12.905513638459201,-2.296332926349855,10.0,0.0,23.69323098809268,20.97123971383944,264.75136801952317,494.56705273845665,0.0
0.128,13.338567467087035,-1.8315549004971494,10.0,0.0,23.599539570458553,20.905251556269786,264.72008390653144,494.56705273845665,0.0
0.129,13.765778615523619,-1.3844394129895692,10.0,0.0,23.464083555463553,20.79383038465193,255.80525146130677,494.56705273845665,0.0
0.13,14.212385980448023,-0.9032836994530005,10.0,0.0,23.282575051192325,20.635151030039047,247.5495826502818,494.56705273845665,0.0
0.131,14.613635662566214,-0.4858889444916379,10.0,0.0,23.062247595976547,20.434517369076566,241.00605701232544,494.56705273845665,0.0
0.132,14.99438936757622,-0.08562838863171507,10.0,0.0,22.80403480659112,20.194043917958844,238.71993491645773,494.56705273845665,0.0
0.133,15.289936112263936,0.19472285131118916,10.0,0.0,22.52075992019735,19.92309392814881,240.09545726103102,494.56705273845665,0.0
0.134,15.262560456214375,-0.016977332103743414,10.0,0.0,22.264808056037015,19.656878238292716,240.25827566600873,494.56705273845665,0.0
0.135,15.097641060511835,-0.38294621129956496,10.0,0.0,22.045969384184495,19.409556307972984,242.12900088683267,494.56705273845665,0.0
0.136,14.857280087590974,-0.8047892713792093,10.0,0.0,21.867025434302064,19.18987321656425,244.31500375889541,494.56705273845665,0.0
0.137,14.579626170751272,-1.233545513844847,10.0,0.0,21.726952326337425,19.002402360431297,246.65560684241333,494.56705273845665,0.0
0.138,14.27685147407273,-1.6669423334402773,10.0,0.0,21.625525531286797,18.850199956581427,249.31485329110166,494.56705273845665,0.0
0.139,13.962426457003412,-2.097950802770618,10.0,0.0,21.562098138786627,18.734634118522315,252.61059815814,494.56705273845665,0.0
0.14,13.656549905341755,-2.502219847175611,10.0,0.0,21.5336164119218,18.654784295531186,261.1272274583264,494.56705273845665,0.0
0.14100000000000001,13.333718303409848,-2.932016950976609,10.0,0.0,21.543232866418414,18.61252399284858,259.76069741720715,494.56705273845665,0.0
0.14200000000000002,13.027026862443549,-3.3328772134532967,10.0,0.0,21.587458303031525,18.60595910837087,267.7623475921268,494.56705273845665,0.0
0.14300000000000002,12.74215064369318,-3.694477343934167,10.0,0.0,21.662372119263686,18.632742725655127,274.8170452644231,494.56705273845665,0.0
0.14400000000000002,12.424809363068938,-4.11336970794094,10.0,0.0,21.774935074336994,18.69639814151533,275.0502376796727,494.56705273845665,0.0
0.145,12.13472788743606,-4.4841007444106395,10.0,0.0,21.919198765860585,18.793679860810215,279.72191273405616,494.56705273845665,0.0
0.146,11.879966270209092,-4.788980679211555,10.0,0.0,22.08859374262472,18.920782740466617,289.2912148777361,494.56705273845665,0.0
0.147,11.622884695487194,-5.093687853318157,10.0,0.0,22.28422849948179,19.077846186880926,296.4124314354824,494.56705273845665,0.0
0.148,11.366915527578021,-5.394031484230537,10.0,0.0,22.505996852953878,19.264352557062303,299.4588358673142,494.56705273845665,0.0
