timestamp,iq,id,iq_ref,id_ref,vq,vd,omega,omega_ref,r
0.0,0.0,0.0,0.0,0.0,0.0,0.0,0.0,236.75521113837272,0.0
0.001,0.0,0.0,10.0,0.0,0.0,1.0999999999999999,5.480751530014191,236.75521113837272,0.0
0.002,0.44735913210712913,-0.2429849404960718,10.0,0.0,0.13672834345456783,1.9407904954682156,10.873895980602239,236.75521113837272,0.0
0.003,0.8176422996152913,-0.4550950534010712,10.0,0.0,0.3647651651250898,2.67491721863024,16.23261010865109,236.75521113837272,0.0
0.004,1.1141902232983423,-0.6226645110558399,10.0,0.0,0.6597225161577365,3.3295175117130595,21.807471004631186,236.75521113837272,0.0
0.005,1.352193143380989,-0.7562137515471742,10.0,0.0,1.0036588832728994,3.924938668618603,27.527490856051124,236.75521113837272,0.0
0.006,1.5460188634005563,-0.864525221674237,10.0,0.0,1.383322498676164,4.47627054654378,33.372762855882364,236.75521113837272,0.0
0.007,1.7069112938144801,-0.9539650041797945,10.0,0.0,1.788908201705961,4.994675688071431,39.25960560204495,236.75521113837272,0.0
0.008,1.8431076330727592,-1.029488111358398,10.0,0.0,2.2131889925501333,5.488426212735025,45.13004429670343,236.75521113837272,0.0
0.009000000000000001,1.9608702506585887,-1.094456966591986,10.0,0.0,2.6508080997801566,5.963637839474818,51.06350425113646,236.75521113837272,0.0
0.01,2.0648696027655147,-1.1512671342257126,10.0,0.0,3.0977858888485312,6.424827911707731,57.00164843903436,236.75521113837272,0.0
0.011,2.1582623800425247,-1.2021783595414155,10.0,0.0,3.5512170393417493,6.875363543644787,63.02748260471296,236.75521113837272,0.0
0.012,2.2439935187122972,-1.2477954051428812,10.0,0.0,4.008867400742356,7.317692229956557,68.94625764538596,236.75521113837272,0.0
0.013000000000000001,2.323185061308585,-1.2903579845069457,10.0,0.0,4.469211307908112,7.753699325478313,74.81758280758157,236.75521113837272,0.0
0.014,2.397852142564516,-1.329489380057077,10.0,0.0,4.93100036162634,8.184718638652281,80.62961251109151,236.75521113837272,0.0
0.015,2.4688337945227348,-1.3660173943386043,10.0,0.0,5.39333920890561,8.611753614977832,86.38513458162836,236.75521113837272,0.0
0.016,2.5371432390318054,-1.3998927907591683,10.0,0.0,5.855508682552955,9.035514756022339,92.11195249957319,236.75521113837272,0.0
0.017,2.603451463074011,-1.4312236436471502,10.0,0.0,6.316944962793488,9.456505920127578,97.79113535722684,236.75521113837272,0.0
0.018000000000000002,2.6682418803785413,-1.460133734262297,10.0,0.0,6.777203532859277,9.875077732183266,103.40784395063648,236.75521113837272,0.0
0.019,2.731991262379586,-1.486544733227638,10.0,0.0,7.235909536104094,10.291453692192905,108.94863763600658,236.75521113837272,0.0
0.02,2.795112354423432,-1.5103396168313536,10.0,0.0,7.692735862232148,10.70575683022124,114.39752891896235,236.75521113837272,0.0
0.021,2.857993142335926,-1.531347466150299,10.0,0.0,8.147382784139278,11.118026611309613,119.73824920935522,236.75521113837272,0.0
0.022,2.9210090978940255,-1.5493606032389484,10.0,0.0,8.59956335855109,11.528231159247596,124.9541214753222,236.75521113837272,0.0
0.023,2.9845277278257183,-1.5641551285810427,10.0,0.0,9.048993596732267,11.936276420096055,130.02820718300586,236.75521113837272,0.0
0.024,3.0489162024428973,-1.5754988706487336,10.0,0.0,9.495385203554195,12.342012632769213,134.9448056714663,236.75521113837272,0.0
0.025,3.1145511257144594,-1.5831497986162997,10.0,0.0,9.938439435617004,12.745238428043553,139.68957537294358,236.75521113837272,0.0
0.026000000000000002,3.181817494573191,-1.5868674913297136,10.0,0.0,10.377843260919763,13.145704115654986,144.24285171723832,236.75521113837272,0.0
0.027,3.2510836223912447,-1.586460411222219,10.0,0.0,10.813271316714431,13.54311700666416,148.50599137320881,236.75521113837272,0.0
0.028,3.322528043594508,-1.5820757031408237,10.0,0.0,11.244419608942675,13.937165189097707,152.49318501089934,236.75521113837272,0.0
0.029,3.396821256234362,-1.5730721131317327,10.0,0.0,11.67091134237126,14.327465573332367,156.3183168875659,236.75521113837272,0.0
0.03,3.4742672763648375,-1.559424644421323,10.0,0.0,12.092372755222396,14.713608962398467,159.8334362555393,236.75521113837272,0.0
0.031,3.5549783746170958,-1.5414416350188145,10.0,0.0,12.508460709347862,15.095180393236628,163.18296560970492,236.75521113837272,0.0
0.032,3.639590688864497,-1.5185783067194096,10.0,0.0,12.918761875125686,15.471703232818825,166.17528586831082,236.75521113837272,0.0
0.033,3.727958680740078,-1.4915636964502421,10.0,0.0,13.322942234437328,15.842729549056743,169.04227910672356,236.75521113837272,0.0
0.034,3.8206821710732575,-1.4599008246001302,10.0,0.0,13.720594419640783,16.20775536558415,171.5050074675867,236.75521113837272,0.0
0.035,3.917776363342031,-1.4240138750490905,10.0,0.0,14.111353032244518,16.566290692732917,173.86544432668907,236.75521113837272,0.0
0.036000000000000004,4.019141267234536,-1.3845047275687172,10.0,0.0,14.494902179575426,16.917869150921696,175.87023338364526,236.75521113837272,0.0
0.037,4.12572918324716,-1.3401807632976197,10.0,0.0,14.870773713397103,17.26193365630223,177.56497578392876,236.75521113837272,0.0
0.038,4.236060989837136,-1.293820155657543,10.0,0.0,15.238808117176973,17.598108244962106,179.35505209133802,236.75521113837272,0.0
0.039,4.3515765231534145,-1.2433423992007167,10.0,0.0,15.598567592310989,17.925865424535083,180.44586108884965,236.75521113837272,0.0
0.04,4.473237340893492,-1.1873004388315815,10.0,0.0,15.949466999812865,18.244595299045926,180.9857240249534,236.75521113837272,0.0
0.041,4.595469932404256,-1.1351880964711247,10.0,0.0,16.29197751595968,18.55431314996709,182.2126856613536,236.75521113837272,0.0
0.042,4.722145805539397,-1.080755726534714,10.0,0.0,16.625742328314526,18.85459824728105,183.06352468595847,236.75521113837272,0.0
0.043000000000000003,4.857503579406672,-1.0166906569728302,10.0,0.0,16.949656335212843,19.144608719705058,183.7538035363829,236.75521113837272,0.0
0.044,4.997233437736545,-0.9500411927039709,10.0,0.0,17.26348919828977,19.42399283889889,183.75703970930854,236.75521113837272,0.0
0.045,5.142285539102614,-0.8790917201662518,10.0,0.0,17.56673923964193,19.692263399914054,186.5032065967591,236.75521113837272,0.0
0.046,5.205378243914862,-0.9460927551045217,10.0,0.0,17.874570941528972,19.95854223244723,192.97156134071662,236.75521113837272,0.0
0.047,5.245905782964026,-1.043537963202517,10.0,0.0,18.188296319022033,20.22514924966851,201.2611485614901,236.75521113837272,0.0
0.048,5.288825128860316,-1.12959717576484,10.0,0.0,18.505801921788787,20.492152250258865,208.68802684964456,236.75521113837272,0.0
0.049,5.330985348293594,-1.2094917517885002,10.0,0.0,18.826185075574884,20.759997080388167,214.4734502694352,236.75521113837272,0.0
0.05,5.36978390604861,-1.2877631240164553,10.0,0.0,19.14912530218014,21.02924950372443,218.90962571979054,236.75521113837272,0.0
0.051000000000000004,5.3780811245101345,-1.4127682484093391,10.0,0.0,19.47966459841943,21.303345998934372,229.3612395023351,236.75521113837272,0.0
0.052000000000000005,5.398917212757126,-1.5079221948603405,9.58768962406074,0.0,19.813776497421465,21.53552363537137,234.0210202808476,236.75521113837272,0.0
0.053,5.399696878379851,-1.58622388516845,7.285141143379741,0.0,20.145356616636384,21.528860066613333,240.715269239213,236.75521113837272,0.0
0.054,5.26370924601099,-1.6682758632430275,3.8984160831886427,0.0,20.451355067739126,21.22147303105518,245.33408974103915,236.75521113837272,0.0
0.055,5.022561451473855,-1.6239128317147629,1.5032170462489027,0.0,20.69031451692692,20.77098628177705,247.56326284452857,236.75521113837272,0.0
0.056,4.682617304897705,-1.6003571978348043,0.2805499774426359,0.0,20.85818185685662,20.313885143324228,250.53710708366313,236.75521113837272,0.0
0.057,4.364004553109912,-1.5385049185084567,-1.3441911015775503,0.0,20.956984154560953,19.784433965936397,252.1577194233534,236.75521113837272,0.0
0.058,4.0129555150751335,-1.4931684116199146,-2.3085223542724913,0.0,20.98859261179161,19.263408375717486,252.7550848784063,236.75521113837272,0.0
0.059000000000000004,3.6892035949059916,-1.428639465301411,-2.767203819199282,0.0,20.958292845251147,18.788936762466793,253.46172475601435,236.75521113837272,0.0
0.06,3.3950259759605466,-1.3842828494731498,-3.287588894179719,0.0,20.879341955761745,18.335348809170856,253.17942339561105,236.75521113837272,0.0
0.061,3.1303937687722625,-1.337186508409311,-3.3106803365504547,0.0,20.75819032853295,17.948056120945846,252.63019732920264,236.75521113837272,0.0
0.062,2.908450091630596,-1.3006797005931088,-3.19481716525455,0.0,20.606879809755387,17.622120884500415,251.5857700150587,236.75521113837272,0.0
0.063,2.7281145968867175,-1.2724112049230452,-2.8209090969494373,0.0,20.435362352765498,17.371236843272793,250.0198058619363,236.75521113837272,0.0
0.064,2.593353914115775,-1.253386822327827,-2.170572967623876,0.0,20.254098240223062,17.209107674169065,248.26394973841462,236.75521113837272,0.0
0.065,2.5073592415919324,-1.2472804535282092,-1.4077322918634545,0.0,20.074266165282477,17.130585930911764,246.61506872195883,236.75521113837272,0.0
0.066,2.4683712228002967,-1.248774962686355,-0.6818903594714216,0.0,19.904790583205628,17.1175760956335,245.0401249678397,236.75521113837272,0.0
0.067,2.4629709290479473,-1.2594746605365825,0.022732379293482374,0.0,19.752123597480576,17.159373919740435,243.26831316767147,236.75521113837272,0.0
0.068,2.4894961179754924,-1.2670072459895212,0.843507259084606,0.0,19.619624680160044,17.261992498534003,242.06256760947718,236.75521113837272,0.0
0.069,2.5442753657941037,-1.2797190160857441,1.3933064734707017,0.0,19.51196048130698,17.38760902712994,240.46670526843758,236.75521113837272,0.0
0.07,2.612831349111471,-1.2872560730390499,2.1541227026898557,0.0,19.428326313762707,17.5610959103645,240.4568579672604,236.75521113837272,0.0
0.07100000000000001,2.7124626436548707,-1.2787025085440038,2.1220298849895736,0.0,19.369387988632344,17.687458433715353,239.61979050102082,236.75521113837272,0.0
0.07200000000000001,2.7729914328275918,-1.291149630651877,2.5119178244828793,0.0,19.330434467426905,17.83283761987579,235.70635316947343,236.75521113837272,0.0
0.073,2.8676109309273015,-1.253059261771904,4.479125069945566,0.0,19.305599805160185,18.162474596006355,238.29923263726803,236.75521113837272,0.0
0.074,3.026750772897926,-1.2677543555933142,3.1672451210593104,0.0,19.318209670742352,18.276126353829305,232.93323533744626,236.75521113837272,0.0
0.075,3.1077430250947837,-1.2347785069951471,5.888463528979461,0.0,19.33714943126458,18.68480899746631,235.4441604597905,236.75521113837272,0.0
0.076,3.311617802775272,-1.233786449995844,4.646111474593159,0.0,19.395284112314343,18.869030139707256,230.56544384152835,236.75521113837272,0.0
0.077,3.4253101819025438,-1.2081592813179705,7.147367456692683,0.0,19.463218371498655,19.317736900476707,233.78449210202766,236.75521113837272,0.0
0.078,3.653120731603334,-1.2024809872071007,5.56755051680648,0.0,19.568861540176055,19.505651751203338,227.6400237086447,236.75521113837272,0.0
0.079,3.781748875662969,-1.1534116078702175,8.730936587795242,0.0,19.677391028272442,20.037239080583134,231.3542741061379,236.75521113837272,0.0
0.08,4.036885882456892,-1.1721392784530873,6.92782075937099,0.0,19.83077703805464,20.269765234691285,226.98585807479984,236.75521113837272,0.0
0.081,4.208306494405797,-1.0961787833849859,9.209722305675747,0.0,19.983534131106126,20.747112805498173,227.0040543319236,236.75521113837272,0.0
0.082,4.438334642124738,-1.1127998790376719,9.29813574517835,0.0,20.17133819740562,21.155318901282172,228.23783622008264,236.75521113837272,0.0
0.083,4.680091645973443,-1.070868649280078,8.766418550281736,0.0,20.376403820423704,21.457818779337895,224.08276816206936,236.75521113837272,0.0
0.084,4.88200744917582,-0.9982222811623739,10.0,0.0,20.583641080750184,21.871793194994048,222.26224221826843,236.75521113837272,0.0
0.085,5.105237373045154,-0.9847442705999278,10.0,0.0,20.810795939128944,22.230221947026457,223.01114301959566,236.75521113837272,0.0
0.08600000000000001,5.328877567137583,-0.9378494406154334,10.0,0.0,21.04605453568039,22.55315518758202,222.53590310463375,236.75521113837272,0.0
0.08700000000000001,5.547150923755786,-0.8708279827189709,10.0,0.0,21.283177184563492,22.845547296450093,224.754890133839,236.75521113837272,0.0
0.088,5.742405206999911,-0.8223865275302384,10.0,0.0,21.52116843395329,23.113117221729,229.78506454655715,236.75521113837272,0.0
0.089,5.839810011432411,-0.9120245925653423,8.57730579944366,0.0,21.772462152637743,23.21247093170267,233.0738884370925,236.75521113837272,0.0
0.09,5.834061879787298,-1.0049896238499585,6.969707081188786,0.0,22.017891643242073,23.16601606807023,238.74692858207067,236.75521113837272,0.0
0.091,5.734958053443883,-1.0969126132813813,4.113269834262726,0.0,22.24331457694735,22.86146146946347,247.16943613450567,236.75521113837272,0.0
0.092,5.533756812229599,-1.106933627601184,-0.2021261919161077,0.0,22.415922839102265,22.184916531947643,246.5862615914819,236.75521113837272,0.0
0.093,5.166558493195817,-1.042572736915849,-0.008849424935312378,0.0,22.496435873171542,21.69608112171014,249.13913287849812,236.75521113837272,0.0
0.094,4.849868849491965,-1.0478815767870273,-1.4091242858446753,0.0,22.52124164410282,21.139381431150564,251.42307339900975,236.75521113837272,0.0
0.095,4.534821837899858,-1.0276827784000373,-2.6977731687068633,0.0,22.485621912663724,20.54457193307241,252.926122498651,236.75521113837272,0.0
0.096,4.20250528757676,-1.018317777884098,-3.6110068321302755,0.0,22.393255042487848,19.951516547929835,253.87152680906954,236.75521113837272,0.0
0.097,3.8830167434695846,-1.0028075638538336,-4.254872144046506,0.0,22.24920684727712,19.37865774095594,254.09476355299861,236.75521113837272,0.0
0.098,3.5798774083662717,-0.9949002518576047,-4.539886040157305,0.0,22.061562888710796,18.853917561125623,253.83762597207226,236.75521113837272,0.0
0.099,3.3080772624580526,-0.9936785960350424,-4.582141398031123,0.0,21.84015399899756,18.387955675715567,253.44751556071378,236.75521113837272,0.0
0.1,3.072192985477936,-1.0003486917798554,-4.554009236575295,0.0,21.5950357368048,17.9731954502228,252.63166274649134,236.75521113837272,0.0
0.101,2.867954032177452,-1.012554313340397,-4.304847345545261,0.0,21.33422919569624,17.62263334955204,251.57794516386923,236.75521113837272,0.0
0.10200000000000001,2.6998069420234456,-1.030064008951793,-3.92621589448917,0.0,21.06625110893311,17.336658435927294,250.40798429274446,236.75521113837272,0.0
0.10300000000000001,2.5670280715154936,-1.0523063552518916,-3.4777631904705015,0.0,20.79874490062072,17.11095089277454,249.20613943686593,236.75521113837272,0.0
0.10400000000000001,2.466720648156584,-1.0772799993669278,-3.001350045516167,0.0,20.53794323621394,16.938690429875013,247.95468824993915,236.75521113837272,0.0
0.105,2.3946575325809007,-1.1029820432120068,-2.487619223168445,0.0,20.288573180339704,16.816245974313208,246.27736316766314,236.75521113837272,0.0
0.106,2.3481382096931678,-1.128119794776945,-1.7441782023233423,0.0,20.0544038167304,16.762146657151533,244.5405169042361,236.75521113837272,0.0
0.107,2.333463032485654,-1.156898382595798,-0.9536081282684634,0.0,19.841155724910273,16.77071770954663,242.9490180655813,236.75521113837272,0.0
0.108,2.34953331361514,-1.1861079822621035,-0.21979677821314247,0.0,19.653014817596787,16.82800591258943,241.40348206934854,236.75521113837272,0.0
0.109,2.3863414006645067,-1.2182261063591042,0.5064885105934787,0.0,19.492657718972932,16.929416286100636,240.01588129496878,236.75521113837272,0.0
0.11,2.4484480658985586,-1.23867412542491,1.1676821962173989,0.0,19.36040546841885,17.063654712623645,240.65480874196652,236.75521113837272,0.0
0.111,2.5160080578886554,-1.270702168369941,0.8092224966825903,0.0,19.258120890105776,17.118391035167313,236.85311454699033,236.75521113837272,0.0
0.112,2.5640447391995433,-1.255570178633885,2.709090560084511,0.0,19.169553602577956,17.36538691657056,237.87653111767312,236.75521113837272,0.0
0.113,2.6920622546447257,-1.2608091597901918,2.186169074950108,0.0,19.1152702397678,17.48870487719605,235.89799593908097,236.75521113837272,0.0
0.114,2.754442883572172,-1.2760063501280683,3.1840088162391016,0.0,19.080366310426808,17.70367259784353,232.98795757404312,236.75521113837272,0.0
0.115,2.879638416925827,-1.2484421932788188,4.676700534401322,0.0,19.067265516927876,18.034723142697494,235.52039172331263,236.75521113837272,0.0
0.116,3.0351284726025156,-1.274530323405406,3.4228316539171706,0.0,19.09172519314664,18.162654108890393,230.29774649003514,236.75521113837272,0.0
0.117,3.1243587028941375,-1.2362234880586684,6.098728917039291,0.0,19.12205736517342,18.578864909058836,233.21516880128183,236.75521113837272,0.0
0.11800000000000001,3.325339417570639,-1.242565218648908,4.675418184786851,0.0,19.19205805873275,18.751949116922624,228.07465319106709,236.75521113837272,0.0
0.11900000000000001,3.435304017977236,-1.2084174338417242,7.332481569367283,0.0,19.268547430087835,19.211148754084384,231.68333601621555,236.75521113837272,0.0
0.12,3.6606228099036087,-1.209789716118786,5.578858908014623,0.0,19.38380025692214,19.38892281696303,225.60965425631179,236.75521113837272,0.0
0.121,3.7860888915432054,-1.152973996960465,8.727155356787113,0.0,19.499041755430692,19.912745511154668,229.17227417202577,236.75521113837272,0.0
0.122,4.032583624692409,-1.1739258936432793,7.021674768593593,0.0,19.65801423933425,20.150764496758953,225.41851243765535,236.75521113837272,0.0
0.123,4.204839720478593,-1.0967316349397274,9.011922622785974,0.0,19.816190485983654,20.600377678831286,224.7512884843628,236.75521113837272,0.0
0.124,4.421396958049819,-1.1084572469602152,9.465573825972353,0.0,20.005572186084652,21.02874758599493,226.36371406061855,236.75521113837272,0.0
0.125,4.666548663903364,-1.0733266500017389,8.763276008622015,0.0,20.214871085106264,21.32662828524373,222.92853991116138,236.75521113837272,0.0
0.126,4.867150644378256,-0.9977869847461931,10.0,0.0,20.425070106942076,21.739098720901183,220.3456723702393,236.75521113837272,0.0
0.127,5.088093216926785,-0.9835567496050175,10.0,0.0,20.65468634094707,22.096677112087114,221.16007652150182,236.75521113837272,0.0
0.128,5.307635171762611,-0.9397643852968471,10.0,0.0,20.892423932947683,22.419519098248493,220.82944383430154,236.75521113837272,0.0
0.129,5.523275249021358,-0.8740409925957378,10.0,0.0,21.13188031481032,22.71232565604368,223.16492795639962,236.75521113837272,0.0
0.13,5.715914513586319,-0.8272819471201196,10.0,0.0,21.37218545319092,22.980763277916072,228.47937871030175,236.75521113837272,0.0
0.131,5.813213016567534,-0.9149769982789759,8.391754261306515,0.0,21.625417886002914,23.060704177500696,231.9741519881318,236.75521113837272,0.0
0.132,5.801766842777632,-0.9976114320096054,6.692178213893893,0.0,21.869534002690962,22.989335386726328,236.51304342605167,236.75521113837272,0.0
0.133,5.693130436634819,-1.079991622847342,4.425154172057174,0.0,22.090337105287613,22.728973745508082,245.14091739894374,236.75521113837272,0.0
0.134,5.502112268479593,-1.1111166940348105,0.027360123005426118,0.0,22.265623689425016,22.075567108129654,245.57248493666188,236.75521113837272,0.0
0.135,5.153410107172931,-1.0396319798319131,-0.2765963838365346,0.0,22.349866382136632,21.55201957370289,247.22145881469885,236.75521113837272,0.0
0.136,4.824289409077347,-1.035821713736366,-1.2057457996182803,0.0,22.373625770005944,21.022800446499843,249.4674932894775,236.75521113837272,0.0
0.137,4.517652994495107,-1.0225500211287943,-2.4558858585186476,0.0,22.34066552284214,20.45109405710589,251.19516352973278,236.75521113837272,0.0
0.138,4.197857421529272,-1.0146886612009334,-3.464120502559895,0.0,22.25309862878932,19.86696902055984,252.18854186257954,236.75521113837272,0.0
0.139,3.8829816371020494,-1.0006925742498611,-4.115142976225343,0.0,22.11441496452185,19.30240805315767,252.49440505852328,236.75521113837272,0.0
0.14,3.583714560226322,-0.9929162961557341,-4.42546651339872,0.0,21.932428140220072,18.782580072328606,252.27625140191677,236.75521113837272,0.0
