timestamp,iq,id,iq_ref,id_ref,vq,vd,omega,omega_ref,r
0.0,0.0,0.0,0.0,0.0,0.0,0.0,0.0,238.87880903392895,0.0
0.001,0.0,0.0,10.0,0.0,0.0,1.0999999999999999,8.754751074545398,238.87880903392895,0.0
0.002,0.5170078332436823,-0.26309253764281154,10.0,0.0,0.13894017914070925,1.9331291383431946,19.75545355927047,238.87880903392895,0.0
0.003,1.089364585121316,-0.5759411733772716,10.0,0.0,0.3790816787560296,2.639050216392038,30.60476180419285,238.87880903392895,0.0
0.004,1.6017622274995664,-0.8600908558036037,10.0,0.0,0.693929114924254,3.247753163454698,41.504045175053214,238.87880903392895,0.0
0.005,2.02425707471416,-1.0917905736407454,10.0,0.0,1.0608075743197447,3.7857201026580913,52.6130063631607,238.87880903392895,0.0
0.006,2.360106557988656,-1.27333988677004,10.0,0.0,1.4624483089618758,4.273859699192646,63.86629900439231,238.87880903392895,0.0
0.007,2.624562147225548,-1.4141018912589411,10.0,0.0,1.8864072571557362,4.727617789554644,75.16669464120153,238.87880903392895,0.0
0.008,2.83472919162346,-1.5238789346699926,10.0,0.0,2.3240139742967365,5.157922146708428,86.4537904454332,238.87880903392895,0.0
0.009000000000000001,3.0054937561160138,-1.6108992204243762,10.0,0.0,2.7693649164378873,5.5722743082107336,97.68809594206455,238.87880903392895,0.0
0.01,3.1484601621307515,-1.6814134864731547,10.0,0.0,3.2185023469229743,5.975707688760226,108.8891809231727,238.87880903392895,0.0
0.011,3.272454017493136,-1.7393517158697986,10.0,0.0,3.668737434987646,6.371501814273564,119.90677489852293,238.87880903392895,0.0
0.012,3.3829652649108253,-1.788682074626134,10.0,0.0,4.118375383966415,6.761823737379712,130.71702331549668,238.87880903392895,0.0
0.013000000000000001,3.484766259165616,-1.8304093803874728,10.0,0.0,4.566178430404104,7.1479842661792725,141.32799396753782,238.87880903392895,0.0
0.014,3.581003562667942,-1.8653499248603334,10.0,0.0,5.011243411912384,7.530740953299939,151.70019907052648,238.87880903392895,0.0
0.015,3.6739459174284432,-1.8938383602932738,10.0,0.0,5.452861886434796,7.910467183870733,161.77875533169967,238.87880903392895,0.0
0.016,3.765398219944835,-1.9157285953699539,10.0,0.0,5.890414178066152,8.287252309107492,171.50961292021594,238.87880903392895,0.0
0.017,3.856877164837057,-1.9305870741812063,10.0,0.0,6.323305283376518,8.660965990070732,180.8082461450346,238.87880903392895,0.0
0.018000000000000002,3.949647853132185,-1.937962885287596,10.0,0.0,6.750941400685763,9.031307427205139,189.63234072929853,238.87880903392895,0.0
0.019,4.0450509575854845,-1.9370702149811105,10.0,0.0,7.172676098132747,9.397811697750118,197.93971791248813,238.87880903392895,0.0
0.02,4.144253032385467,-1.927329979678097,10.0,0.0,7.587825253709264,9.759880813801834,205.74785995157876,238.87880903392895,0.0
0.021,4.248491267435392,-1.9080488569722518,10.0,0.0,7.995642884188686,10.116783748698538,212.97627042901837,238.87880903392895,0.0
0.022,4.358635121230921,-1.8791655065244564,10.0,0.0,8.39538468778764,10.467704711586508,219.55412102265407,238.87880903392895,0.0
0.023,4.475695377534954,-1.8404277995067384,10.0,0.0,8.786272093048025,10.811732568890086,225.45422450529864,238.87880903392895,0.0
0.024,4.600552168544531,-1.791800366763484,10.0,0.0,9.167511902981145,11.147882736541328,230.65730943507194,238.87880903392895,0.0
0.025,4.733893531635108,-1.7335274778989236,7.618330590709558,0.0,9.53831900523841,11.213139251368945,232.76897043047774,238.87880903392895,0.0
0.026000000000000002,4.755139291919116,-1.607331984376817,6.623598479041171,0.0,9.865272273353924,11.222343366748575,232.13185983294574,238.87880903392895,0.0
0.027,4.721002506686195,-1.4402600903541067,7.009623269817003,0.0,10.143334672788573,11.319699949482278,233.59720945069142,238.87880903392895,0.0
0.028,4.725552063804598,-1.2761211612185235,6.329764456776535,0.0,10.386941927288436,11.355640577408511,231.66349124916673,238.87880903392895,0.0
0.029,4.717912244951734,-1.1299489907822386,7.368776735386506,0.0,10.595344969674308,11.534323682414609,231.7240216848385,238.87880903392895,0.0
0.03,4.806540061351238,-0.9956673371686271,7.41005939104152,0.0,10.787466758129064,11.700304292502164,231.78928823114103,238.87880903392895,0.0
0.031,4.9185231127733084,-0.9032920096993968,7.448321325918137,0.0,10.96815595926162,11.861263149213881,229.3347399125233,238.87880903392895,0.0
0.032,5.0667753905624755,-0.7971558989152094,8.771036176441056,0.0,11.136120907040524,12.154123134533851,231.05941050133106,238.87880903392895,0.0
0.033,5.279793327581512,-0.7518419960241998,7.986894867363158,0.0,11.312652190363364,12.31306147330171,235.58481898173932,238.87880903392895,0.0
0.034,5.431322108781723,-0.7517239851888955,5.757130527680924,0.0,11.487864337067737,12.221788455688976,243.92613901770204,238.87880903392895,0.0
0.035,5.390209544368072,-0.793118493577122,1.535997209861831,0.0,11.640982543371454,11.72117460284217,243.2259169289625,238.87880903392895,0.0
0.036000000000000004,5.10064286324112,-0.7224265003799024,1.842637175281264,0.0,11.720537479424545,11.393316894564576,247.79530876213087,238.87880903392895,0.0
0.037,4.7852905248582065,-0.6751704622001031,-0.5312237385849392,0.0,11.754859906776758,10.873802440951424,247.4352520326752,238.87880903392895,0.0
0.038,4.379709058287137,-0.5961553361348622,-0.4367598038445699,0.0,11.72557954254706,10.485261755333902,248.5987692456254,238.87880903392895,0.0
0.039,4.009248916254665,-0.5409179889247708,-1.1157180124366257,0.0,11.65508718924612,10.093711860520493,248.6606831562697,238.87880903392895,0.0
0.04,3.657880440523927,-0.503966229918061,-1.244493708982187,0.0,11.548976761775297,9.761837906234296,248.40356636181372,238.87880903392895,0.0
0.041,3.351860729158539,-0.4872271663872121,-1.2111828850330437,0.0,11.418818202224609,9.487640735722383,248.17307870454923,238.87880903392895,0.0
0.042,3.096512103029906,-0.4934395414052244,-1.188881753107002,0.0,11.27510653346509,9.254995594339462,247.91118087067923,238.87880903392895,0.0
0.043000000000000003,2.885243867641417,-0.5164871752310882,-1.1482565545395071,0.0,11.124974633413895,9.056175580373493,247.41026896235797,238.87880903392895,0.0
0.044,2.7097597517090373,-0.5510707053593433,-0.9831151996631688,0.0,10.973547633947067,8.897174245248399,246.87010204951113,238.87880903392895,0.0
0.045,2.568831709546573,-0.5943145732103144,-0.7929446733955698,0.0,10.825774191076745,8.77194493150835,246.29775456688492,238.87880903392895,0.0
0.046,2.457595042697905,-0.6436598192994698,-0.5809603874120226,0.0,10.685250699510743,8.67670452398252,245.86964704265966,238.87880903392895,0.0
0.047,2.372011285633501,-0.6956727809957088,-0.4368150053867028,0.0,10.554483489674457,8.59897380382422,245.38900375357372,238.87880903392895,0.0
0.048,2.303535775286072,-0.7465796268290906,-0.26159530804017717,0.0,10.434099552230672,8.540448616153558,244.8252366713661,238.87880903392895,0.0
0.049,2.249893383232686,-0.7941367008079773,-0.03917604331073887,0.0,10.324623699443551,8.503667383674754,244.3194048791391,238.87880903392895,0.0
0.05,2.2114410466619367,-0.8379159975192567,0.15933389435065193,0.0,10.22675746058571,8.482921922762829,243.85314923860182,238.87880903392895,0.0
0.051000000000000004,2.185578341033123,-0.8767371929321741,0.34271831257257235,0.0,10.140435838050767,8.475111944937566,243.33984153489328,238.87880903392895,0.0
0.052000000000000005,2.1699827913061647,-0.9095779580261178,0.5547618394171958,0.0,10.065189652193,8.48239862982571,242.52474412874588,238.87880903392895,0.0
0.053,2.1647683677707104,-0.9372049866599248,0.9258511915427277,0.0,10.000907318908595,8.520549052196246,241.82184143892206,238.87880903392895,0.0
0.054,2.1785304801383556,-0.9621978215091016,1.2478722124047046,0.0,9.949341202736765,8.57860164117906,241.16590556177627,238.87880903392895,0.0
0.055,2.208769391245954,-0.9846049190288844,1.5529691856991281,0.0,9.910951809459082,8.652844157402017,240.64173493769334,238.87880903392895,0.0
0.056,2.2539313611788767,-1.0017079077502338,1.7974252387029477,0.0,9.885482864915613,8.734997251190839,240.18645541627137,238.87880903392895,0.0
0.057,2.3077007747354528,-1.0141442403255518,2.011988535590509,0.0,9.871973090901443,8.82208252748213,239.41380944750378,238.87880903392895,0.0
0.058,2.3680738277885016,-1.01913894356962,2.392961515838556,0.0,9.868947875948914,8.932766351901018,238.60386709624967,238.87880903392895,0.0
0.059000000000000004,2.4447876911784117,-1.0178611545992717,2.800682110842403,0.0,9.877103061114346,9.065284013588347,238.76578448583646,238.87880903392895,0.0
0.06,2.537914647959356,-1.0160788131865321,2.7208536615299326,0.0,9.89751121426627,9.163030265637072,237.91008916389865,238.87880903392895,0.0
0.061,2.619849633547953,-1.0059070770722078,3.1583885211991434,0.0,9.924552109749433,9.293888248005917,235.92632602352032,238.87880903392895,0.0
0.062,2.7193495432122456,-0.9876415210457007,4.179794921492395,0.0,9.960067220119385,9.512218236914572,236.95636914932257,238.87880903392895,0.0
0.063,2.8697367654402717,-0.9799188255992615,3.683997757437332,0.0,10.013196977404371,9.631967390571928,236.2925637248503,238.87880903392895,0.0
0.064,2.985999943359732,-0.9663517468572825,4.0417629227642475,0.0,10.071573522619428,9.7780816670697,233.544445721863,238.87880903392895,0.0
0.065,3.1141738624410054,-0.9343898408381455,5.469165557378556,0.0,10.135343702088079,10.055922309273756,235.5443933646737,238.87880903392895,0.0
0.066,3.3104337008309384,-0.9224482880362714,4.50253589266576,0.0,10.219526976082257,10.171445772707644,233.6500897266042,238.87880903392895,0.0
0.067,3.4466620758915174,-0.9006192237466203,5.501974904773766,0.0,10.304562487476563,10.390417282303806,232.09485774002096,238.87880903392895,0.0
0.068,3.63016517913766,-0.8615846000544669,6.347430411004464,0.0,10.398916080727808,10.660177850037607,233.4935130503712,238.87880903392895,0.0
0.069,3.8420742703322697,-0.8524574281598151,5.701955715664917,0.0,10.510196728755822,10.81146597977455,230.4784423988509,238.87880903392895,0.0
0.07,4.018256978715734,-0.8160980852096986,7.2934947077758565,0.0,10.621569868949164,11.123016390415959,232.1162906336626,238.87880903392895,0.0
0.07100000000000001,4.264573385570153,-0.7914999826644469,6.542195774372663,0.0,10.750618538336836,11.29065782374696,229.78735803923377,238.87880903392895,0.0
0.07200000000000001,4.459705329023301,-0.7613494745130054,7.797576581534033,0.0,10.880455909247635,11.581043509094101,230.15336536550416,238.87880903392895,0.0
0.073,4.713879403576051,-0.7232171511791996,7.7018273550830845,0.0,11.022455061116863,11.806280311250116,229.18232118010258,238.87880903392895,0.0
0.074,4.945465155335674,-0.6972664046347504,8.28431432632214,0.0,11.170304719128222,12.065291715530234,229.4676973639654,238.87880903392895,0.0
0.075,5.205817186385949,-0.6507410369750003,8.235737351090357,0.0,11.324412268789324,12.27569574229765,239.71577171050515,238.87880903392895,0.0
0.076,5.359167353498777,-0.7466781182844004,3.103330551054725,0.0,11.495167798781692,11.902126145030929,239.55714355050753,238.87880903392895,0.0
0.077,5.213884999924709,-0.7227735045929033,3.1758612858877493,0.0,11.607901937728988,11.659806069886377,246.38427632013926,238.87880903392895,0.0
0.078,4.9965069830342115,-0.7091350201141571,-0.31275977179021996,0.0,11.683869468111356,11.090976550780328,244.61828223234195,238.87880903392895,0.0
0.079,4.602870876004346,-0.6271581079476543,0.5128425401243053,0.0,11.686476218051354,10.753455393114868,247.02754623737567,238.87880903392895,0.0
0.08,4.258135967158661,-0.5740957033035472,-0.7732768344270218,0.0,11.650053081841618,10.334202350792886,247.51184521308141,238.87880903392895,0.0
0.081,3.8966491815881876,-0.5310433466218494,-1.1017566840714168,0.0,11.571141819832112,9.96627690669106,247.3813229803526,238.87880903392895,0.0
0.082,3.5650410325848028,-0.49955840821143527,-1.1215207071712423,0.0,11.46029631995505,9.6612256652886,247.36097625324746,238.87880903392895,0.0
0.083,3.280298578529191,-0.49205810065013333,-1.1961690158118596,0.0,11.329520061477805,9.395586912775288,247.13153655961176,238.87880903392895,0.0
0.084,3.038310401886833,-0.5027117584520038,-1.1639764442508387,0.0,11.186504459030774,9.17149335051381,246.73362638212936,238.87880903392895,0.0
0.085,2.8366102327859273,-0.5280087785879296,-1.0435695289916422,0.0,11.038057196239228,8.98819755603135,246.2717806601798,238.87880903392895,0.0
0.08600000000000001,2.672463085873991,-0.5648086083534589,-0.8865763842793646,0.0,10.889920091351438,8.840490975953045,245.7919239609864,238.87880903392895,0.0
0.08700000000000001,2.5409702987335496,-0.6097079451300278,-0.7157791839532432,0.0,10.746396967692368,8.72278183909887,245.28056527236964,238.87880903392895,0.0
0.088,2.436500375502493,-0.6593076562178986,-0.5241174020292743,0.0,10.610462217565685,8.632042891256596,244.84850438833195,238.87880903392895,0.0
0.089,2.355020058110813,-0.7103698922307877,-0.36778391355445583,0.0,10.484167896517981,8.559982564779636,244.37776639776263,238.87880903392895,0.0
0.09,2.290247807378579,-0.7599331142972195,-0.18740449190813324,0.0,10.368238306994538,8.507087384748585,243.84842291937113,238.87880903392895,0.0
0.091,2.2401244732895527,-0.8061296132082423,0.027571108433193103,0.0,10.263198141079876,8.474598129831852,243.37586623401722,238.87880903392895,0.0
0.092,2.2045267022210986,-0.848336153744993,0.21887887910926418,0.0,10.169593820734939,8.457162404062917,242.94995861313072,238.87880903392895,0.0
0.093,2.1808848574014146,-0.8853282677034159,0.39112119376049925,0.0,10.08725342697766,8.451388020960735,242.36164310514616,238.87880903392895,0.0
0.094,2.166577762470615,-0.9163665575072656,0.6504506070406073,0.0,10.015613925024734,8.466098211101537,241.5824693125795,238.87880903392895,0.0
0.095,2.1651884135853656,-0.9430733958471677,1.0130009005374352,0.0,9.955236761600528,8.509470427612884,240.932591266962,238.87880903392895,0.0
0.096,2.1825941895194645,-0.9674125271769534,1.3174021010158539,0.0,9.907644772232757,8.57039780640673,240.28464395489422,238.87880903392895,0.0
0.097,2.2153115330217465,-0.9888028933080784,1.6273174078400867,0.0,9.873014268642272,8.64809507010439,239.8345074231783,238.87880903392895,0.0
0.098,2.2630608866054107,-1.004501936909642,1.8428286898055495,0.0,9.851129532915465,8.730241389562007,239.3924606981855,238.87880903392895,0.0
0.099,2.317203285587193,-1.0158805589811886,2.0587155356593945,0.0,9.840742560698954,8.818098873373295,238.52458627310273,238.87880903392895,0.0
0.1,2.378580287825029,-1.0184676643718147,2.496194975809037,0.0,9.840350829457474,8.935885735283378,237.9172704949619,238.87880903392895,0.0
0.101,2.4593171613517084,-1.0162979833514694,2.809468250269115,0.0,9.851512421565012,9.063672717601863,238.09727834036718,238.87880903392895,0.0
0.10200000000000001,2.550546650649637,-1.0143955822346014,2.7272796345020973,0.0,9.874148985380986,9.15839580533277,236.88512784536243,238.87880903392895,0.0
0.10300000000000001,2.631224013861735,-1.0014022783196295,3.353291693890137,0.0,9.902583962168979,9.307631238302195,235.55991453341298,238.87880903392895,0.0
0.10400000000000001,2.7404486495812472,-0.9831176968378608,4.049087294870024,0.0,9.941217613651268,9.503856084870353,236.23364875840227,238.87880903392895,0.0
0.105,2.881165897834714,-0.9754870379289934,3.7386717851306464,0.0,9.994953857976986,9.628831498898109,234.96808829095454,238.87880903392895,0.0
0.106,2.999312306206035,-0.9577995006086948,4.410559226284255,0.0,10.053944696756767,9.81210583714164,233.63672311483876,238.87880903392895,0.0
0.107,3.146654590538791,-0.9309728064363123,5.1286626735330465,0.0,10.122589824497162,10.040198143031741,234.65832958289124,238.87880903392895,0.0
0.108,3.3225957335188543,-0.9175168109523812,4.660064234017183,0.0,10.205967777491017,10.175738765403155,232.5151689248263,238.87880903392895,0.0
0.109,3.465020038346056,-0.891658787226691,5.79528096414068,0.0,10.291852174767643,10.421715683444367,232.0264748343782,238.87880903392895,0.0
0.11,3.6625420288084767,-0.8592264898714321,6.108151351360234,0.0,10.390436851648909,10.65444374879944,232.59424478934616,238.87880903392895,0.0
0.111,3.8616606713360806,-0.8461692421664189,5.887112016322083,0.0,10.501323893103551,10.826386613807328,228.8123189012411,238.87880903392895,0.0
0.112,4.044865112326388,-0.8089761168999505,7.878739861701494,0.0,10.61435584561126,11.195352050718355,232.12353147280882,238.87880903392895,0.0
0.113,4.318869520607788,-0.8002260242840347,6.290686351528834,0.0,10.75239056762421,11.31581353411521,228.75522168372217,238.87880903392895,0.0
0.114,4.503905628692827,-0.7627372975754112,8.076077119574228,0.0,10.884631706763766,11.632691933153852,230.25778487929503,238.87880903392895,0.0
0.115,4.765565864876821,-0.7275879194280945,7.411005763334136,0.0,11.031845027564113,11.81316258443633,227.90802784505294,238.87880903392895,0.0
0.116,4.978747773272492,-0.6922439989390119,8.69559209234394,0.0,11.178847743940342,12.117429304862396,233.12284618965523,238.87880903392895,0.0
0.117,5.245535766235921,-0.6646567157681116,6.145742548485531,0.0,11.33889569877765,12.085425451626936,236.3202990242167,238.87880903392895,0.0
0.11800000000000001,5.282623912812468,-0.7191001769800622,4.572601231301923,0.0,11.486003126372706,11.923667913553349,242.1335104924557,238.87880903392895,0.0
0.11900000000000001,5.196340409723379,-0.7195482571718173,1.6334484825971467,0.0,11.60172891160987,11.495083549666507,243.90107160704468,238.87880903392895,0.0
0.12,4.906812454723595,-0.6899492556483158,0.6994452995715035,0.0,11.659763310965127,11.078566618065372,245.11892601368078,238.87880903392895,0.0
0.121,4.565608941934883,-0.6236077148521753,0.028116926455938884,0.0,11.663340997752407,10.679635837204184,246.7719491498797,238.87880903392895,0.0
0.122,4.206874905421237,-0.5757481530459216,-0.8773260428030314,0.0,11.622066701384115,10.26411916910913,246.98755400997848,238.87880903392895,0.0
0.123,3.847107746647175,-0.5269911782082196,-1.066215922612916,0.0,11.538483496229064,9.910290328200258,247.15010261048283,238.87880903392895,0.0
0.124,3.5216825267422185,-0.49980434676314867,-1.2302031586306303,0.0,11.425372745788046,9.599535456304727,246.8471349596719,238.87880903392895,0.0
0.125,3.2375077976710935,-0.4922122801769412,-1.1584025924825965,0.0,11.291934324191548,9.346087899189886,246.66324145367625,238.87880903392895,0.0
0.126,3.0024550865099853,-0.5045107286118955,-1.1443001636822419,0.0,11.14792373903692,9.128488568070443,246.28107896026853,238.87880903392895,0.0
0.127,2.8068037762585223,-0.5317507845948056,-1.0272416162417777,0.0,10.99942770095958,8.950154644493978,245.79167907797478,238.87880903392895,0.0
0.128,2.64768295514939,-0.5696596426951824,-0.8516703755353596,0.0,10.851845448163543,8.808493537690216,245.3109161749144,238.87880903392895,0.0
0.129,2.521182995680659,-0.6154439759705039,-0.675609995415031,0.0,10.709512498046015,8.696175033023874,244.82564999215563,238.87880903392895,0.0
0.13,2.421226008553012,-0.665664766831508,-0.49244531361790855,0.0,10.57524743613556,8.608972863998243,244.39391350298345,238.87880903392895,0.0
0.131,2.3430527067741513,-0.7168265931472138,-0.33172811372236355,0.0,10.450814256499704,8.540511144179067,243.9259950641724,238.87880903392895,0.0
0.132,2.281139756609071,-0.7661592590424693,-0.1482407546192781,0.0,10.336893197830841,8.491057407380977,243.41200216513755,238.87880903392895,0.0
0.133,2.2335866984181396,-0.8119750454473076,0.06342376358606616,0.0,10.233965281194633,8.46121686870672,242.95556447918324,238.87880903392895,0.0
0.134,2.200056127512852,-0.8535845887051734,0.25087505211067995,0.0,10.142464994248936,8.445783421009589,242.55613723437548,238.87880903392895,0.0
0.135,2.178019334046257,-0.8897211451478017,0.4138153925100916,0.0,10.062130317004211,8.440880955518569,241.88660330883863,238.87880903392895,0.0
0.136,2.1644073158745862,-0.9199866459510797,0.7185044125294215,0.0,9.992306700458787,8.461598611714525,241.15307723679837,238.87880903392895,0.0
0.137,2.166243212417629,-0.9464196831371522,1.062524766520859,0.0,9.93414219026994,8.507719420573762,240.54175437036952,238.87880903392895,0.0
