timestamp,iq,id,iq_ref,id_ref,vq,vd,omega,omega_ref,r
0.0,0.0,0.0,0.0,0.0,0.0,0.0,0.0,353.7259736313241,0.0
0.001,0.0,0.0,10.0,0.0,0.0,1.0999999999999999,6.992289383215319,353.7259736313241,0.0
0.002,0.36733405113545514,-0.19985450277437478,10.0,0.0,0.1319839953051812,1.9495932543750996,14.053731924793304,353.7259736313241,0.0
0.003,0.7605112321884703,-0.41613302078268666,10.0,0.0,0.3575210084705247,2.6878494334387306,21.45056747412075,353.7259736313241,0.0
0.004,1.108925018915139,-0.6062119306720991,10.0,0.0,0.6530758331334493,3.3404399511831304,29.100621686717325,353.7259736313241,0.0
0.005,1.3988241590944754,-0.7624339129003685,10.0,0.0,0.9996178560507372,3.928922132066921,36.94011427957274,353.7259736313241,0.0
0.006,1.635792348678678,-0.888042483508905,10.0,0.0,1.3826086177093317,4.470042787701592,44.87438169579745,353.7259736313241,0.0
0.007,1.830008995948992,-0.9891605136693615,10.0,0.0,1.791279266377098,4.976356304634764,52.94005633051796,353.7259736313241,0.0
0.008,1.9915916841843795,-1.0712073697991296,10.0,0.0,2.2177281757440754,5.457073605508206,60.91758704869639,353.7259736313241,0.0
0.009000000000000001,2.128283338550593,-1.139613085543472,10.0,0.0,2.656308084432279,5.918943812133071,68.93505666604136,353.7259736313241,0.0
0.01,2.2468384121438674,-1.1971676872285184,10.0,0.0,3.10286397194206,6.366810847412671,76.96614104181224,353.7259736313241,0.0
0.011,2.351883450688709,-1.2466192721645202,10.0,0.0,3.5544151025549344,6.804177364411293,84.98807697212797,353.7259736313241,0.0
0.012,2.446908895433575,-1.2897924066902107,10.0,0.0,4.008802300754846,7.2335599942348505,92.88621302562825,353.7259736313241,0.0
0.013000000000000001,2.5343221305154082,-1.3282178991296307,10.0,0.0,4.4644841149402055,7.6567778794844905,100.76137686858733,353.7259736313241,0.0
0.014,2.616293278738441,-1.3622710848657933,10.0,0.0,4.920281131738575,8.075099463673986,108.56012243409042,353.7259736313241,0.0
0.015,2.6941906760176537,-1.3925662095790627,10.0,0.0,5.375322537137153,8.489419588905887,116.27388250898248,353.7259736313241,0.0
0.016,2.7691742894642455,-1.4192827513195807,10.0,0.0,5.82892768286339,8.900342618648121,124.04764770935817,353.7259736313241,0.0
0.017,2.8424210153731617,-1.442021810596189,10.0,0.0,6.280498748094251,9.308226556273244,131.29071111685846,353.7259736313241,0.0
0.018000000000000002,2.9137778607421194,-1.4622450314567548,10.0,0.0,6.72969826426643,9.713362420927444,138.4505126367839,353.7259736313241,0.0
0.019,2.9848879671138238,-1.4781746837533534,10.0,0.0,7.176041444830834,10.115796107486243,145.3754599121622,353.7259736313241,0.0
0.02,3.056005321179031,-1.4901781151830709,10.0,0.0,7.619154756928978,10.515508935562144,152.07791162166092,353.7259736313241,0.0
0.021,3.1278499520651355,-1.4977799452174225,10.0,0.0,8.05864418761438,10.91237007618345,158.5182714894097,353.7259736313241,0.0
0.022,3.2009761678727493,-1.5007390993132828,10.0,0.0,8.494120277943576,11.306168608381194,164.6739340161915,353.7259736313241,0.0
0.023,3.275968935383105,-1.4987608837400272,10.0,0.0,8.925181417205607,11.69661695412402,170.51705284397406,353.7259736313241,0.0
0.024,3.353390022141963,-1.4916035548095978,10.0,0.0,9.351413753089101,12.083360187350392,176.0226013018261,353.7259736313241,0.0
0.025,3.4337886265110953,-1.4790710277012513,10.0,0.0,9.772390174014271,12.465982695229464,181.16802995585275,353.7259736313241,0.0
0.026000000000000002,3.517690861315007,-1.4610314434322227,10.0,0.0,10.187672174636322,12.844015334628407,185.93361969460133,353.7259736313241,0.0
0.027,3.605589911085727,-1.4374280931750931,10.0,0.0,10.59681326645047,13.216943037022915,190.30347534548798,353.7259736313241,0.0
0.028,3.697935289528722,-1.4082864518641713,10.0,0.0,10.999363472281022,13.584213077228366,194.26676598303425,353.7259736313241,0.0
0.029,3.7951215068905704,-1.3737182128026455,10.0,0.0,11.394874571665408,13.945244103870953,197.81923672735596,353.7259736313241,0.0
0.03,3.897476809104222,-1.333922696384723,10.0,0.0,11.782905839360254,14.299435916717838,200.96480902323282,353.7259736313241,0.0
0.031,4.005253038958577,-1.2891853726534293,10.0,0.0,12.163030011124043,14.646179842787678,203.7169111986996,353.7259736313241,0.0
0.032,4.118618377299823,-1.2398719953846455,10.0,0.0,12.534839060056182,14.984869368507923,206.09782275386797,353.7259736313241,0.0
0.033,4.2376557991573165,-1.186414840113036,10.0,0.0,12.897949003359944,15.314910383528444,208.12968592631697,353.7259736313241,0.0
0.034,4.362373972600382,-1.1292805963532397,10.0,0.0,13.252001858574516,15.635729666517117,209.76322208963308,353.7259736313241,0.0
0.035,4.492817262710842,-1.068774471074481,10.0,0.0,13.596647025223442,15.946770726550675,210.7580917089624,353.7259736313241,0.0
0.036000000000000004,4.62929006334591,-1.0046437538613897,10.0,0.0,13.93148246357017,16.247464622077008,211.33142130820997,353.7259736313241,0.0
0.037,4.771080436033592,-0.9382036823774214,10.0,0.0,14.256236646943755,16.53734045889609,211.59595019720868,353.7259736313241,0.0
0.038,4.918009752993185,-0.869801413541254,10.0,0.0,14.570643146804748,16.815959809231934,215.61455612315487,353.7259736313241,0.0
0.039,5.052830762891365,-0.828480128919328,10.0,0.0,14.877609613093183,17.0847968566011,223.96000744189678,353.7259736313241,0.0
0.04,5.132584116647918,-0.8781829227879228,10.0,0.0,15.186643657661453,17.350022187047948,232.521485919479,353.7259736313241,0.0
0.041,5.194655979016071,-0.9516952816745592,10.0,0.0,15.498886162356422,17.613598017584014,241.47717585086545,353.7259736313241,0.0
0.042,5.244844051067334,-1.037503103063257,10.0,0.0,15.814965736399392,17.877140546234003,250.79131906094452,353.7259736313241,0.0
0.043000000000000003,5.285829218471116,-1.1300601839056075,10.0,0.0,16.13511480658184,18.14193029172939,260.4447960942629,353.7259736313241,0.0
0.044,5.316893416346775,-1.2298764358578578,10.0,0.0,16.459782161201904,18.4092487596012,270.5620291814244,353.7259736313241,0.0
0.045,5.338402778825611,-1.3355325598191459,10.0,0.0,16.789338638263366,18.680246728253934,281.62856141862864,353.7259736313241,0.0
0.046,5.350055806660258,-1.4465153709339087,10.0,0.0,17.124190812466953,18.9560338083105,291.6892185979144,353.7259736313241,0.0
0.047,5.353892506801922,-1.5578924169643005,10.0,0.0,17.464278124208043,19.237421891044534,302.45402361722,353.7259736313241,0.0
0.048,5.344665644627291,-1.6775586108590725,10.0,0.0,17.810545023916546,19.5257332185199,313.36216157448337,353.7259736313241,0.0
0.049,5.328462616655257,-1.7935103793987368,10.0,0.0,18.16257439900215,19.821530167673757,324.24925856339553,353.7259736313241,0.0
0.05,5.301336610971063,-1.9112011851874413,10.0,0.0,18.520767002445943,20.125772189766334,334.7195583074466,353.7259736313241,0.0
0.051000000000000004,5.267418728499897,-2.0225445644206452,10.0,0.0,18.884635411412383,20.43886897700902,345.07250956346326,353.7259736313241,0.0
0.052000000000000005,5.2269910796176235,-2.1265210561350267,9.795967572965035,0.0,19.253750638502687,20.738707222002574,354.27670901302696,353.7259736313241,0.0
0.053,5.176621058906705,-2.212741687155568,5.1883604943661545,0.0,19.624382671878443,20.545813136619646,359.09764123991465,353.7259736313241,0.0
0.054,4.95966945586154,-2.1933211878770935,2.7241777048364035,0.0,19.935663632147484,20.207648603178164,361.1802702194596,353.7259736313241,0.0
0.055,4.652800321286132,-2.094826087015569,1.608320249182574,0.0,20.171359786943494,19.86791221565396,361.23338888333336,353.7259736313241,0.0
0.056,4.3355424214564255,-1.9575132820525476,1.5066867647256013,0.0,20.335393229970165,19.617527651263558,359.7497726601195,353.7259736313241,0.0
0.057,4.068950021382653,-1.8117066156017163,2.1882568860445764,0.0,20.443319266995168,19.510726520814337,357.65504837217685,353.7259736313241,0.0
0.058,3.89096779819896,-1.6787246119907309,3.196328282607377,0.0,20.51660263354005,19.546382380070728,355.4746501430351,353.7259736313241,0.0
0.059000000000000004,3.8110562498897345,-1.5667281824165145,4.269040632061146,0.0,20.575133462139025,19.700729082612433,352.83936176299443,353.7259736313241,0.0
0.06,3.823829100314446,-1.4702506557775048,5.595550940764775,0.0,20.63375331449773,19.978479079192915,352.0609621677672,353.7259736313241,0.0
0.061,3.9192080463160113,-1.3994804658844833,6.001400853013973,0.0,20.707466235656767,20.255330493055666,346.6921257469748,353.7259736313241,0.0
0.062,4.0626631647862315,-1.3167886471752694,8.756157542253654,0.0,20.793104607927088,20.796006520770216,346.13584884852133,353.7259736313241,0.0
0.063,4.310677197139925,-1.2834173733667293,9.110197239308413,0.0,20.92140282380999,21.276728590349762,343.8434399781139,353.7259736313241,0.0
0.064,4.594500501738273,-1.2297436123738517,10.0,0.0,21.07937302409142,21.78780575808289,339.3467550891416,353.7259736313241,0.0
0.065,4.899267746390533,-1.1824297556450463,10.0,0.0,21.26798613448778,22.22398803759817,338.0352800873069,353.7259736313241,0.0
0.066,5.201489056078131,-1.1087869871218852,10.0,0.0,21.473728595825776,22.605216728582437,332.46694147635765,353.7259736313241,0.0
0.067,5.497347363753263,-1.0083681221398813,10.0,0.0,21.686710032665612,22.939374595854694,324.31007159330056,353.7259736313241,0.0
0.068,5.779920320955132,-0.9002774932489168,10.0,0.0,21.9009233320205,23.233290377868254,319.41512620645176,353.7259736313241,0.0
0.069,6.051751861793923,-0.7909811760120944,10.0,0.0,22.112165191034116,23.4921601716957,315.81370579782066,353.7259736313241,0.0
0.07,6.327719953159248,-0.6640143853570333,10.0,0.0,22.315296459729428,23.718628997399968,329.17768597181674,353.7259736313241,0.0
0.07100000000000001,6.5036283398461485,-0.6928050017833747,10.0,0.0,22.52519811983908,23.92617382578143,339.1660502455807,353.7259736313241,0.0
0.07200000000000001,6.5829610401126,-0.8452368693055918,10.0,0.0,22.751343696039104,24.12698682417327,350.17555902499635,353.7259736313241,0.0
0.073,6.618691743657979,-1.033153530802204,7.867023573299365,0.0,22.994102528547707,24.092568623021528,361.1818604522509,353.7259736313241,0.0
0.074,6.54394038703869,-1.1972656900074274,2.2893139914628335,0.0,23.22531682858788,23.5022297917644,370.24071745043847,353.7259736313241,0.0
0.075,6.232322766490555,-1.2613894596123556,-2.4052619458221063,0.0,23.379788308562816,22.566950441048103,374.8926438390276,353.7259736313241,0.0
0.076,5.718265977275347,-1.2412495728270112,-4.9428918421937,0.0,23.422428080226194,21.561882714781106,377.2636085983164,353.7259736313241,0.0
0.077,5.120554226964322,-1.179881392004067,-6.363750571508035,0.0,23.35374800107386,20.59127530168835,377.7906995994394,353.7259736313241,0.0
0.078,4.520087731695372,-1.1075956615575377,-6.86794333175068,0.0,23.187537439986592,19.729682202632553,377.1256586516721,353.7259736313241,0.0
0.079,3.972712617144558,-1.042446837878749,-6.7694197080705125,0.0,22.94534511180228,19.007713481228766,375.27134457792596,353.7259736313241,0.0
0.08,3.507795486587055,-0.9922760799633041,-6.057716380663462,0.0,22.650307849162104,18.45669166214071,372.6060242411359,353.7259736313241,0.0
0.081,3.144437683470956,-0.962249826245829,-4.9138567183665565,0.0,22.326870950547374,18.085296015313226,369.59537326232487,353.7259736313241,0.0
0.082,2.8895952292482576,-0.9535443029655707,-3.5672252252710424,0.0,21.997980832087713,17.879786202857893,366.6473609246887,353.7259736313241,0.0
0.083,2.738222423276993,-0.9626787995992835,-2.22243292938661,0.0,21.682520594091002,17.81050178153307,363.07448673857454,353.7259736313241,0.0
0.084,2.6751977233914372,-0.9840322426259043,-0.5294809674020255,0.0,21.393935471528064,17.894795560328216,359.45552631658086,353.7259736313241,0.0
0.085,2.6993575082362913,-1.017666993600936,1.2227037167422452,0.0,21.14612452727792,18.114324421291798,355.58018061156673,353.7259736313241,0.0
0.08600000000000001,2.8024130531337805,-1.0598393761486493,3.1418344994468814,0.0,20.94935017811965,18.46960732889979,353.7909137530783,353.7259736313241,0.0
0.08700000000000001,2.9792637130068034,-1.1105467365995267,4.035818527473548,0.0,20.812937640462128,18.830408428949987,350.29391647358324,353.7259736313241,0.0
0.088,3.1869725226029537,-1.1431785390511837,5.818637738798495,0.0,20.72932889124055,19.30757897573804,350.33382261752877,353.7259736313241,0.0
0.089,3.4434292382747502,-1.1764848359192472,5.832606176963684,0.0,20.7051354462509,19.68624677838212,344.8743283882807,353.7259736313241,0.0
0.09,3.6877261255515723,-1.1761441249284386,8.650869744018166,0.0,20.720857584846957,20.310189673813436,346.48760795093625,353.7259736313241,0.0
0.091,4.011499678608648,-1.1948943695103222,7.916613619494255,0.0,20.799467733140457,20.731187562229536,340.5761478859608,353.7259736313241,0.0
0.092,4.305937161852706,-1.1622658734026705,10.0,0.0,20.908540018428553,21.32531135210797,338.424506575237,353.7259736313241,0.0
0.093,4.64185687137592,-1.1504730831554422,10.0,0.0,21.06514653220957,21.816089334507204,336.1709983667546,353.7259736313241,0.0
0.094,4.975707153679064,-1.1007383236649244,10.0,0.0,21.249817297210924,22.24008583608651,332.8619824302011,353.7259736313241,0.0
0.095,5.291000943845167,-1.0259534981859644,10.0,0.0,21.450691652662293,22.608805949912774,324.3688731016822,353.7259736313241,0.0
0.096,5.590636923218958,-0.930563685757337,10.0,0.0,21.658605552838786,22.930934468072085,319.5851166099655,353.7259736313241,0.0
0.097,5.870580599241828,-0.8350250714705494,10.0,0.0,21.868385565366303,23.213844079864348,316.23030724412536,353.7259736313241,0.0
0.098,6.151413198528983,-0.7174091038468289,10.0,0.0,22.073496167524553,23.461348582568775,317.78067510051045,353.7259736313241,0.0
0.099,6.393580394970881,-0.6521113036617763,10.0,0.0,22.276839561393306,23.680783629602843,331.0078060223891,353.7259736313241,0.0
0.1,6.508969022985554,-0.7691884359393786,10.0,0.0,22.49532358313097,23.88833843420319,344.1825764935727,353.7259736313241,0.0
0.101,6.569852097296748,-0.9378176295190852,10.0,0.0,22.730093123125897,24.09144290862318,355.8825274402454,353.7259736313241,0.0
0.10200000000000001,6.595484207712489,-1.1255401167534087,4.197273255708799,0.0,22.980659338223305,23.657203246326013,364.1020824190814,353.7259736313241,0.0
0.10300000000000001,6.3719496340478186,-1.2280360126269134,-0.016265321586781845,0.0,23.172142289255007,22.910827319915978,370.56160878254553,353.7259736313241,0.0
0.10400000000000001,5.954699668127933,-1.2470716891518352,-3.4143848548310647,0.0,23.27090831800154,21.97024166888073,374.0180120185968,353.7259736313241,0.0
0.105,5.4079776181035,-1.2087081475180754,-5.345506856729413,0.0,23.26132883242492,21.011115886790776,375.7061179731428,353.7259736313241,0.0
0.106,4.821465310852825,-1.1470244117816932,-6.409361277420609,0.0,23.15039314168231,20.108281101392443,375.6674320660014,353.7259736313241,0.0
0.107,4.255609391406202,-1.0816728407713116,-6.6094329081966965,0.0,22.953695706020355,19.32964591834785,374.6207071290924,353.7259736313241,0.0
0.108,3.7555937974487987,-1.026694518635457,-6.295017774719872,0.0,22.69341039589529,18.695134047172566,372.4935678006374,353.7259736313241,0.0
0.109,3.3427800468009474,-0.9873964549832136,-5.41912405218549,0.0,22.391929425884822,18.231658346878024,369.74443444188415,353.7259736313241,0.0
0.11,3.0318373315465132,-0.9676014203601987,-4.204741980914476,0.0,22.072464509673928,17.939280771397854,366.83781538953946,353.7259736313241,0.0
0.111,2.825219525389686,-0.9669615357316963,-2.8825508723242823,0.0,21.755835890573202,17.797110194601533,363.7717410703134,353.7259736313241,0.0
0.112,2.7137959975568844,-0.9811407801058868,-1.4499713871011446,0.0,21.45821919143037,17.79204605586346,360.104427021712,353.7259736313241,0.0
0.113,2.6874938073175496,-1.00622767405081,0.31990110329566823,0.0,21.19247551421821,17.93986584582432,356.40458612127287,353.7259736313241,0.0
0.114,2.7457221295593572,-1.043953759481398,2.1430354286157516,0.0,20.971987184181263,18.222507202600134,353.6828888482997,353.7259736313241,0.0
0.115,2.882164117920027,-1.0884472308090043,3.50431491293259,0.0,20.806328843817322,18.57191865521906,351.4332680795311,353.7259736313241,0.0
0.116,3.0674267533124997,-1.1318242683480775,4.65205235283481,0.0,20.69650402216769,18.963446982076213,348.7522807513388,353.7259736313241,0.0
0.117,3.289357751569363,-1.1578282212389528,6.042282945730822,0.0,20.639241179811354,19.423728201447897,347.72454795147013,353.7259736313241,0.0
0.11800000000000001,3.54304666693639,-1.1834744435075981,6.61616360246369,0.0,20.636293788548453,19.855793110250637,343.6557507791939,353.7259736313241,0.0
0.11900000000000001,3.8091100246191862,-1.1772558080263376,8.751264417123103,0.0,20.675907115166495,20.446748991900577,342.770365021076,353.7259736313241,0.0
0.12,4.126417410367278,-1.1901637775947167,9.303513382284551,0.0,20.77213676029505,20.98972381721302,340.43962304638836,353.7259736313241,0.0
0.121,4.461324388487381,-1.1703901213665808,10.0,0.0,20.91073674156123,21.52544846906845,336.7294956156565,353.7259736313241,0.0
0.122,4.794461468295081,-1.1456117576189369,10.0,0.0,21.086521306436374,21.981199778690144,334.2356054339586,353.7259736313241,0.0
0.123,5.115998090956433,-1.0841675359365412,10.0,0.0,21.283791465038576,22.3769167561425,329.97900082117485,353.7259736313241,0.0
0.124,5.42044943461468,-0.9979520361535168,10.0,0.0,21.49203704276649,22.72251477013406,320.6205252937316,353.7259736313241,0.0
0.125,5.710361735365654,-0.8961513410845177,10.0,0.0,21.703681942661007,23.02553170085322,317.5370030493948,353.7259736313241,0.0
0.126,5.986136462382678,-0.7917779871100832,10.0,0.0,21.914000983651494,23.291975331525563,313.4238492057803,353.7259736313241,0.0
0.127,6.261823183418542,-0.6719949404526111,10.0,0.0,22.117800082017588,23.525238711185942,321.21335849681935,353.7259736313241,0.0
0.128,6.447170846833827,-0.6909465967635349,10.0,0.0,22.32782812117388,23.737924286951568,334.9914384526948,353.7259736313241,0.0
0.129,6.53440380796644,-0.8360711684120492,10.0,0.0,22.553896100309338,23.942601959965835,348.7540907420658,353.7259736313241,0.0
0.13,6.578353924629891,-1.0150400536475397,7.34412130817316,0.0,22.796060380492097,23.853309824269612,358.3852225080199,353.7259736313241,0.0
0.131,6.49410693395423,-1.1573559879353295,2.4819629364291336,0.0,23.018944083006257,23.29859136632866,365.6614214868122,353.7259736313241,0.0
0.132,6.188514131471469,-1.2287748692800209,-1.2754910315218728,0.0,23.17050048707994,22.4897075100424,371.2955912340348,353.7259736313241,0.0
0.133,5.724336376540659,-1.2272446337377918,-4.268272081160301,0.0,23.22513035039455,21.533239929028994,373.8669875794154,353.7259736313241,0.0
0.134,5.1607259465777275,-1.1793157394438256,-5.755380393331517,0.0,23.17339359325944,20.60158335835254,374.9510515655913,353.7259736313241,0.0
0.135,4.584066542107313,-1.1171776329777048,-6.509663165762121,0.0,23.027308952001857,19.747615177376677,374.4841721509543,353.7259736313241,0.0
0.136,4.044948650934051,-1.0564872598602457,-6.483805443639927,0.0,22.804381396794195,19.02835890151476,373.00862726135097,353.7259736313241,0.0
0.137,3.5806953657353344,-1.0084030605196173,-5.938859535138532,0.0,22.5271386113248,18.464097652892313,370.63701281514113,353.7259736313241,0.0
0.138,3.2096045592169182,-0.9776567815158737,-4.922162703871786,0.0,22.218292730843107,18.071102898804543,367.8256199280146,353.7259736313241,0.0
0.139,2.941378067009924,-0.9663737742611223,-3.657462723275418,0.0,21.900098294992812,17.841267067707903,364.9511712877743,353.7259736313241,0.0
0.14,2.773912047199274,-0.9725451782467066,-2.3324903797197685,0.0,21.59153140412885,17.751434331378146,361.5870255920749,353.7259736313241,0.0
0.14100000000000001,2.6956203582437293,-0.9916105504170027,-0.7290280514775804,0.0,21.30687340561718,17.80979673785307,358.2108149450964,353.7259736313241,0.0
0.14200000000000002,2.703630272349477,-1.0220439397387313,0.9142288588739502,0.0,21.05967446670786,17.996916733244383,354.21164801498156,353.7259736313241,0.0
0.14300000000000002,2.7875479134283268,-1.061423175173703,2.908955580094788,0.0,20.85993480323323,18.334441364058797,352.3952173316364,353.7259736313241,0.0
