timestamp,iq,id,iq_ref,id_ref,vq,vd,omega,omega_ref,r
0.0,0.0,0.0,0.0,0.0,0.0,0.0,0.0,54.3944905945194,0.0
0.001,0.0,0.0,10.0,0.0,0.0,1.0999999999999999,5.006468124015618,54.3944905945194,0.0
0.002,0.6238345152618086,-0.3539288878904755,10.0,0.0,0.14893217766795225,1.9213782033212008,9.078340237106344,54.3944905945194,0.0
0.003,1.1011594443017017,-0.6290205423415306,10.0,0.0,0.3918297510119407,2.629244407035306,13.509704218759703,54.3944905945194,0.0
0.004,1.4699488131069212,-0.8392138596214975,10.0,0.0,0.7015945357492268,3.2548201664342256,18.05985983362177,54.3944905945194,0.0
0.005,1.7587640505008104,-1.0039658536295906,10.0,0.0,1.0589612041207663,3.8207330459417057,22.694058527652615,54.3944905945194,0.0
0.006,1.9898247431658145,-1.1355497287238476,10.0,0.0,1.4500091999261875,4.343262780516378,27.369613648834225,54.3944905945194,0.0
0.007,2.1790653128314847,-1.2430100407998395,10.0,0.0,1.8647101651859503,4.834138485477557,32.14354497073731,54.3944905945194,0.0
0.008,2.337794129265757,-1.3331317245002656,10.0,0.0,2.2958673865021417,5.301828952357478,36.85051815131686,54.3944905945194,0.0
0.009000000000000001,2.474327925300071,-1.4104766962922175,10.0,0.0,2.738284662434817,5.752434665281594,41.62565901510388,54.3944905945194,0.0
0.01,2.5945229900596267,-1.4785378993426987,8.115645266135335,0.0,3.1882340646842695,5.983086394618246,45.378807618742584,54.3944905945194,0.0
0.011,2.5861643027947108,-1.4725584684102948,6.32922779407375,0.0,3.6149153502093725,6.060126922904785,48.52811211214253,54.3944905945194,0.0
0.012,2.4857128137950486,-1.4135485278918951,4.813239332197545,0.0,4.000201260862919,6.034203047746726,50.99642396247965,54.3944905945194,0.0
0.013000000000000001,2.332007322287652,-1.3226539057411324,3.6130640733493813,0.0,4.334957883903906,5.948443846491109,52.7113421217901,54.3944905945194,0.0
0.014,2.1558012609089774,-1.2187225481287252,2.772436478421449,0.0,4.617139421399373,5.842114556648145,54.232200887356576,54.3944905945194,0.0
0.015,1.9834883844735152,-1.1160059665846027,2.0136299927098404,0.0,4.85021036576727,5.7167662678541395,55.016876574251945,54.3944905945194,0.0
0.016,1.8174060227065303,-1.016026608645312,1.6150682894648307,0.0,5.0374688232610945,5.607552110906502,55.90312034098589,54.3944905945194,0.0
0.017,1.6737898031737164,-0.934316418117321,1.156860108633192,0.0,5.187091691932087,5.495704893074919,55.20894177683844,54.3944905945194,0.0
0.018000000000000002,1.5477962104879992,-0.8533544482642289,1.49580487888373,0.0,5.302478837174264,5.464293823429572,57.05882578222306,54.3944905945194,0.0
0.019,1.4745115423346746,-0.8143801555415348,0.5442195243143813,0.0,5.39970860842672,5.346300116137851,55.89874142630012,54.3944905945194,0.0
0.02,1.3710881401916406,-0.7431923715681603,1.1092191939580442,0.0,5.467975118514914,5.332138301461245,57.4084281067732,54.3944905945194,0.0
0.021,1.3245915282160918,-0.7212715176113735,0.32423647859896576,0.0,5.526299380031118,5.238301617171066,56.24780115052346,54.3944905945194,0.0
0.022,1.2513700971924033,-0.6655504347645966,0.8860168511637965,0.0,5.563497436393105,5.236916086890093,57.471345518458946,54.3944905945194,0.0
0.023,1.224813420406522,-0.6564487130123052,0.2434761179566567,0.0,5.5963931555265125,5.165280651031198,56.34327686587324,54.3944905945194,0.0
0.024,1.175689885860527,-0.612350970095491,0.78802258153597,0.0,5.61407602465736,5.175561871029526,57.320380218349314,54.3944905945194,0.0
0.025,1.1637926699674996,-0.6134950154746863,0.2702120090596354,0.0,5.6315855512958395,5.124996086735691,56.357163439276604,54.3944905945194,0.0
0.026000000000000002,1.134587490384154,-0.5779341726195559,0.7321936701484182,0.0,5.6383644136732265,5.140327519574853,57.007844079431344,54.3944905945194,0.0
0.027,1.1302465650028455,-0.5854263866986315,0.3807198152219289,0.0,5.647178285074045,5.111707204711146,56.42672078304084,54.3944905945194,0.0
0.028,1.1184120465665546,-0.5571623952380791,0.650959161531965,0.0,5.649064776646956,5.12132976289144,56.51862356705159,54.3944905945194,0.0
0.029,1.1138138065815724,-0.5654827275539467,0.5837664398012685,0.0,5.652922751349958,5.120472582771503,56.68746492871003,54.3944905945194,0.0
0.03,1.1193273416477023,-0.547185803046989,0.4764160156301438,0.0,5.654213345551742,5.108297827435221,55.88313572045681,54.3944905945194,0.0
0.031,1.1065240478620582,-0.5464570495939187,0.8636941684973771,0.0,5.654260211164952,5.142607205776933,56.99414027808926,54.3944905945194,0.0
0.032,1.128360625999789,-0.5459412188449786,0.28219539284545436,0.0,5.6576838742031565,5.103122629462405,55.49343059849768,54.3944905945194,0.0
0.033,1.1079284013541948,-0.5268851066269535,1.0215608326014616,0.0,5.654725699269597,5.157539973705223,56.71853282231184,54.3944905945194,0.0
0.034,1.1339065437596079,-0.544123809234552,0.38576929841645624,0.0,5.65959189466269,5.1258271249614396,55.687781269874705,54.3944905945194,0.0
0.035,1.1248913967673106,-0.5174721814753563,0.8882121678814723,0.0,5.657696119562511,5.160650259207553,55.984833380553816,54.3944905945194,0.0
0.036000000000000004,1.1367393707911766,-0.5343561634540923,0.7237826846815725,0.0,5.661595989692211,5.167296402059852,56.27494635639059,54.3944905945194,0.0
0.037,1.1492012607720867,-0.5185990226508704,0.5599216391444717,0.0,5.6638683617860295,5.156035169305144,55.1472682126394,54.3944905945194,0.0
0.038,1.1403087079948584,-0.5142316282891168,1.1162329348388667,0.0,5.664464531423234,5.210062949722352,56.45548956005856,54.3944905945194,0.0
0.039,1.1699916476140648,-0.526261585214453,0.44151227147389704,0.0,5.671770831343845,5.17561113424858,55.296818245945246,54.3944905945194,0.0
0.04,1.1591580803349317,-0.4983715315593078,1.0118246520162952,0.0,5.6717131142536985,5.216305220604459,55.48056689749287,54.3944905945194,0.0
0.041,1.1739436899756377,-0.5166494462396151,0.9090895632127483,0.0,5.678020048659539,5.234185390308652,56.19331219643667,54.3944905945194,0.0
0.042,1.1918014357514082,-0.5056490150463353,0.534728697721675,0.0,5.684091480017152,5.208939396228098,54.75690937299736,54.3944905945194,0.0
0.043000000000000003,1.1795709831783074,-0.48877279207784463,1.2493059216565496,0.0,5.685284788616347,5.270696175219908,55.69109264288522,54.3944905945194,0.0
0.044,1.2082487757375817,-0.5106744935735075,0.7692482662289613,0.0,5.6951123936490085,5.263167631128821,55.82844925280692,54.3944905945194,0.0
0.045,1.2144424640989548,-0.4879597679764063,0.6862303746852381,0.0,5.700486746938659,5.252648782640416,54.48770341181085,54.3944905945194,0.0
0.046,1.2071157282596643,-0.47927316005009957,1.3556711670103594,0.0,5.703543400434583,5.319055798226954,55.56833639102644,54.3944905945194,0.0
0.047,1.2405033223717725,-0.4999204140774566,0.8036162194374921,0.0,5.715293154161838,5.307961422737439,55.67918223805124,54.3944905945194,0.0
0.048,1.244493591300288,-0.47622411676496995,0.7353463794897745,0.0,5.72194542972277,5.297057273610065,54.35074096718309,54.3944905945194,0.0
0.049,1.2376716358119924,-0.4653904121333566,1.4000045111972113,0.0,5.725887318278521,5.362494177631813,55.16021190611525,54.3944905945194,0.0
0.05,1.2697695995135643,-0.48674102369486355,0.9876118286151738,0.0,5.73843561269895,5.366172808143811,55.79196591252969,54.3944905945194,0.0
0.051000000000000004,1.280629966472949,-0.4699063168511356,0.6577600722278509,0.0,5.748031616860115,5.337704977941348,54.485479096432606,54.3944905945194,0.0
0.052000000000000005,1.2681272402952328,-0.44689450161489674,1.3100935952572612,0.0,5.751458284977365,5.389582639821499,54.3781999668509,54.3944905945194,0.0
0.053,1.2913718085685908,-0.46489698629615794,1.363896066324799,0.0,5.761940443938206,5.433328209140646,55.468468552181584,54.3944905945194,0.0
0.054,1.3200336989665016,-0.4687598728812297,0.8080219940828355,0.0,5.775993836612422,5.4091429025056375,55.10036318859224,54.3944905945194,0.0
0.055,1.3153289086286695,-0.44047102918980485,0.9850159499367788,0.0,5.783072957683812,5.414613687509045,53.991226337820486,54.3944905945194,0.0
0.056,1.3178665684298028,-0.4337539724123894,1.5436170178896451,0.0,5.7895352573398,5.479595293554022,54.39105092541073,54.3944905945194,0.0
0.057,1.3513336048516447,-0.4538072165426923,1.343739120785609,0.0,5.804122515056793,5.5074963921907365,55.240862502163175,54.3944905945194,0.0
0.058,1.3717190855011323,-0.45136524794647587,0.9103696133329493,0.0,5.8195720078788735,5.486486507379502,55.022645982009195,54.3944905945194,0.0
0.059000000000000004,1.3672694919167094,-0.42443926847898256,1.0131963195350413,0.0,5.828438124882158,5.485460503189137,54.033935739459395,54.3944905945194,0.0
0.06,1.3684046140347546,-0.41171967494131634,1.5111569893605414,0.0,5.835185134271613,5.5390017583680935,53.794510929191475,54.3944905945194,0.0
0.061,1.3964362328452258,-0.4264406893373941,1.6368691911477808,0.0,5.848358075758961,5.593640197618468,54.48097037098143,54.3944905945194,0.0
0.062,1.4293260754769597,-0.4370702823939596,1.2927746724881821,0.0,5.866699612114873,5.601687001520728,55.03284453014078,54.3944905945194,0.0
0.063,1.4386925437601994,-0.42548703615781397,1.0104540535522948,0.0,5.882631222208879,5.58244754268716,54.792756546678135,54.3944905945194,0.0
0.064,1.4333851994165059,-0.4002458938259271,1.1265153857620291,0.0,5.892385032215983,5.582992616039418,54.07936699360187,54.3944905945194,0.0
0.065,1.4370363417652052,-0.3858630316486361,1.486361398309335,0.0,5.899888265141414,5.622426312013472,53.47219942682621,54.3944905945194,0.0
0.066,1.4608212723936465,-0.3909908952290339,1.7991680933740994,0.0,5.9112924379873295,5.686897407068676,53.63063248342434,54.3944905945194,0.0
0.067,1.4988097665663467,-0.40630655924271897,1.7275901461859826,0.0,5.929636747459871,5.731119283708895,54.00609669963369,54.3944905945194,0.0
0.068,1.5267843437823532,-0.4114183673049607,1.5437419770301672,0.0,5.950977955895894,5.750548565945059,54.35365087576495,54.3944905945194,0.0
0.069,1.540217197080446,-0.4051008311220931,1.3703732861520812,0.0,5.9713819246511886,5.751739098405544,54.593555615786045,54.3944905945194,0.0
0.07,1.5434589172123643,-0.3904024230248065,1.2484302659288666,0.0,5.988310900248132,5.742948668498204,54.57884881470498,54.3944905945194,0.0
0.07100000000000001,1.5421935701728782,-0.3711118829041823,1.2539400842675414,0.0,6.00069295996235,5.738727294736445,54.35939983380027,54.3944905945194,0.0
0.07200000000000001,1.5442774773388999,-0.3544361529369713,1.3640154823270907,0.0,6.009773251433787,5.747977576666792,54.057854073810965,54.3944905945194,0.0
0.073,1.5549701406925778,-0.3438217179852057,1.518154727528826,0.0,6.017869711406089,5.771910068645595,53.70812183816145,54.3944905945194,0.0
0.074,1.574796556313939,-0.3393728503198661,1.6998845329171615,0.0,6.027166543485373,5.8106338644796365,53.361580225372236,54.3944905945194,0.0
0.075,1.6030206245784304,-0.3409038777814405,1.8834844430032416,0.0,6.039618973637558,5.861887272640909,53.130334483285296,54.3944905945194,0.0
0.076,1.6378388444490355,-0.3469876247422886,2.0117488751590527,0.0,6.056605403481732,5.917985907934427,53.013429855529864,54.3944905945194,0.0
0.077,1.675011753277924,-0.3536085800345147,2.0840117964266636,0.0,6.078170521483373,5.9730987619284175,53.04664244897799,54.3944905945194,0.0
0.078,1.7108316104586,-0.358522634972839,2.0808839811580144,0.0,6.103564749574545,6.020221698229363,53.10731218760967,54.3944905945194,0.0
0.079,1.741406147537625,-0.35918916383239974,2.063420895911271,0.0,6.131156026111863,6.060277101977987,53.18118007879655,54.3944905945194,0.0
0.08,1.767258860576473,-0.3562251901451847,2.03862005547506,0.0,6.159661012976121,6.093994578346484,53.26772030932943,54.3944905945194,0.0
0.081,1.7891542023714544,-0.3503919524119683,2.006617643060522,0.0,6.18807523237702,6.121768588336257,53.372822020439884,54.3944905945194,0.0
0.082,1.8075960192017362,-0.3423060492175397,1.9642834732460888,0.0,6.215594313862755,6.1434602382783225,53.50319264088524,54.3944905945194,0.0
0.083,1.822666803462521,-0.33240658219065866,1.908011142559753,0.0,6.2415225698531085,6.158494648597018,53.66224136292252,54.3944905945194,0.0
0.084,1.8340693679925417,-0.3210470369385382,1.83580927385708,0.0,6.265210885968832,6.166135386976755,53.85250168525812,54.3944905945194,0.0
0.085,1.841317455145067,-0.3085844581821735,1.7460990017818943,0.0,6.286037156100279,6.165551507947367,54.03795876730525,54.3944905945194,0.0
0.08600000000000001,1.8435816403830674,-0.2957811758013663,1.6569357790304708,0.0,6.303438676041317,6.158021212547505,54.07859000693073,54.3944905945194,0.0
0.08700000000000001,1.8413699908062522,-0.28375094142687063,1.6397791650936158,0.0,6.317151721490877,6.152254426682021,53.7854707594098,54.3944905945194,0.0
0.088,1.8405922049110877,-0.27393175488968646,1.792428987205179,0.0,6.3279569756335885,6.165462110472386,53.17610447054951,54.3944905945194,0.0
0.089,1.853249395398224,-0.26839745002569393,2.109295992875021,0.0,6.338491891071397,6.210358354888009,52.51579611337474,54.3944905945194,0.0
0.09,1.8889030978740329,-0.2673370774356192,2.4582371162738528,0.0,6.352401641470717,6.28323798455556,52.66337314111128,54.3944905945194,0.0
0.091,1.9439383369739383,-0.2710671620566423,2.401759776939665,0.0,6.37262929283108,6.33482136845931,53.271407673651154,54.3944905945194,0.0
0.092,1.9838731518675388,-0.2726083827523267,2.1089733398784096,0.0,6.396124750876092,6.347784967178024,53.7004572850864,54.3944905945194,0.0
0.093,1.9960352208510965,-0.26719657308480416,1.9013888672551162,0.0,6.41795631171809,6.3409568447721645,53.34669671586326,54.3944905945194,0.0
0.094,1.9931604267418632,-0.2582723689593748,2.088747090653248,0.0,6.4359943598781815,6.360117788032969,52.390222645440105,54.3944905945194,0.0
0.095,2.0099574418164297,-0.24928342903780332,2.5870268053556185,0.0,6.453245156198225,6.430227208567687,52.54795723756591,54.3944905945194,0.0
0.096,2.063073582806393,-0.2477585058939522,2.5266248428622506,0.0,6.475703962793126,6.477748948301491,53.41426611928438,54.3944905945194,0.0
0.097,2.0989170864130418,-0.25015299632611343,2.103272646755367,0.0,6.500947705880895,6.473388048787752,53.24267733018734,54.3944905945194,0.0
0.098,2.0983147783399123,-0.24399758190151588,2.200585173947206,0.0,6.522529944217486,6.487350202410447,52.640393653845656,54.3944905945194,0.0
0.099,2.104046204694339,-0.24640721425447965,2.519267981524786,0.0,6.54367678778576,6.535519868086427,53.410765511581936,54.3944905945194,0.0
0.1,2.1317862215763594,-0.2570531047511505,2.1439193034860207,0.0,6.568672865195909,6.533517981298119,54.5752568044585,54.3944905945194,0.0
0.101,2.1239763781533276,-0.2656793020894975,1.5598659949483489,0.0,6.591811568988463,6.474859996716253,54.5548855959636,54.3944905945194,0.0
0.10200000000000001,2.077565723894064,-0.26247889006111813,1.5684476491813568,0.0,6.606332296647071,6.4361932695571245,54.03741503449369,54.3944905945194,0.0
0.10300000000000001,2.046409709742048,-0.25725849246187427,1.8307536855165671,0.0,6.614992039208271,6.434576190348444,54.01012385064156,54.3944905945194,0.0
0.10400000000000001,2.042904357356547,-0.2588999046976942,1.8482429448814095,0.0,6.622856858914416,6.433361580104415,54.73699018427103,54.3944905945194,0.0
0.105,2.041465891499543,-0.2633168174222217,1.48138478216916,0.0,6.630283181902883,6.392648800083824,55.584202855816876,54.3944905945194,0.0
0.106,2.012704047081866,-0.26444930559200985,1.0458813237832616,0.0,6.632975999161874,6.315662549796187,55.57875838366707,54.3944905945194,0.0
0.107,1.9596641359013016,-0.2586770502679502,1.036760881966687,0.0,6.627054636698862,6.255542764032935,55.25884624519577,54.3944905945194,0.0
0.108,1.919127394365812,-0.2544386805324549,1.1880733946955742,0.0,6.6153049337881615,6.2215070438751505,55.07705684092311,54.3944905945194,0.0
0.109,1.8974999067162224,-0.2577843821029253,1.2721424343678651,0.0,6.601737040022855,6.199408050904832,54.993492048664145,54.3944905945194,0.0
0.11,1.8855354822642076,-0.2650216331191181,1.307934815955902,0.0,6.5880786769331285,6.1823584512462055,54.97832057112902,54.3944905945194,0.0
0.111,1.8773363881298049,-0.27414247514694723,1.309682254957369,0.0,6.575012110299409,6.166264525829011,55.034525385413794,54.3944905945194,0.0
0.112,1.8698350859143633,-0.28338836724540484,1.2751794999060373,0.0,6.562568647497893,6.14740371114686,55.13960577265901,54.3944905945194,0.0
0.113,1.8601479716814615,-0.2921803125712771,1.215188154502033,0.0,6.550358104573177,6.123921180752311,55.27179638528164,54.3944905945194,0.0
0.114,1.8469587904474516,-0.3001150244907611,1.1403197902830957,0.0,6.537805261759362,6.095284181288114,55.45585496872556,54.3944905945194,0.0
0.115,1.830171493476482,-0.3068119637010177,1.0376768548190736,0.0,6.524301319474442,6.059428269084567,55.705474280767696,54.3944905945194,0.0
0.116,1.809111643762317,-0.31111139052281844,0.8997573619355228,0.0,6.508968147755951,6.01381154950918,55.96027345664981,54.3944905945194,0.0
0.117,1.7826574193915965,-0.3120274980009148,0.7566999453731624,0.0,6.49066439880615,5.959565430010098,56.151047919862854,54.3944905945194,0.0
0.11800000000000001,1.7518627882673092,-0.3097427126968998,0.6437471405132049,0.0,6.468505925343194,5.901042180376935,56.14429896123231,54.3944905945194,0.0
0.11900000000000001,1.7195726441651762,-0.3058706086196096,0.6296235361613487,0.0,6.442307890667758,5.848975309470683,56.078057238814246,54.3944905945194,0.0
0.12,1.6918309675822027,-0.30481065420171105,0.6459087309274316,0.0,6.413445098424041,5.804156612638402,55.981099044306326,54.3944905945194,0.0
0.121,1.669354040979914,-0.3068318157371289,0.6785217436835225,0.0,6.383219643034543,5.76655313088091,55.877216651054596,54.3944905945194,0.0
0.122,1.6518428080717724,-0.31159908405042136,0.7156356797440355,0.0,6.352760572907356,5.735145320953187,55.76949670166342,54.3944905945194,0.0
0.123,1.638373072966116,-0.3184619876624609,0.7557455933681827,0.0,6.322913875514304,5.709179894676107,55.66247398208148,54.3944905945194,0.0
0.124,1.6281734732828572,-0.3269264279600951,0.7965771192835325,0.0,6.29431776462947,5.6879039686159825,55.54848858984092,54.3944905945194,0.0
0.125,1.6205217829417773,-0.3366122585475836,0.842029835450596,0.0,6.2674344691887525,5.671227197533293,55.43162257260469,54.3944905945194,0.0
0.126,1.6151502503522357,-0.3473700150328636,0.8900915242878598,0.0,6.242658321091348,5.658876384306669,55.30466227748015,54.3944905945194,0.0
0.127,1.611490817727581,-0.35950146685912254,0.9444699550205222,0.0,6.220351588617055,5.651132870348004,55.18014524698378,54.3944905945194,0.0
0.128,1.609591502065634,-0.37296489886757245,0.9988719237440637,0.0,6.200860840996992,5.647545797186607,55.05002461651877,54.3944905945194,0.0
0.129,1.6090062922074082,-0.3877043743560328,1.0573768987565741,0.0,6.1844471688064395,5.648305264071269,55.057968193588124,54.3944905945194,0.0
0.13,1.6088409307015044,-0.405318459243713,1.0467703342312094,0.0,6.171540965106173,5.6456079828675625,55.5130353642254,54.3944905945194,0.0
0.131,1.6051058913210081,-0.42212679522126006,0.8080513012155104,0.0,6.161328429764211,5.61614598214452,56.230721553624434,54.3944905945194,0.0
0.132,1.5886484416470519,-0.42258918242462695,0.4308458969249438,0.0,6.149073727116739,5.551276492888112,55.998399531430735,54.3944905945194,0.0
0.133,1.551948847580582,-0.4089303259938496,0.5309678186526801,0.0,6.1300504477289515,5.510326328576127,55.52938736227318,54.3944905945194,0.0
0.134,1.5262451725780204,-0.40762472493353674,0.7541249355539215,0.0,6.1088274522964205,5.497575324708038,55.23156545568466,54.3944905945194,0.0
0.135,1.5173896659592718,-0.41876054848748656,0.8946651402365273,0.0,6.089689652621871,5.497922042007614,55.27649337799545,54.3944905945194,0.0
0.136,1.5155255907815095,-0.43747682524899933,0.8633811512463714,0.0,6.074447736852959,5.491590159977402,56.1337246026962,54.3944905945194,0.0
0.137,1.5117328806321573,-0.4494201685988243,0.41737319881422974,0.0,6.061223429458784,5.436017797060337,56.02596493022705,54.3944905945194,0.0
0.138,1.483031190587641,-0.4367451384294979,0.4549382916917284,0.0,6.042250629760197,5.396391738239811,55.42512081394999,54.3944905945194,0.0
