timestamp,iq,id,iq_ref,id_ref,vq,vd,omega,omega_ref,r
0.0,0.0,0.0,0.0,0.0,0.0,0.0,0.0,59.339137004585204,0.0
0.001,0.0,0.0,10.0,0.0,0.0,1.0999999999999999,4.285473491675759,59.339137004585204,0.0
0.002,0.6283844454276944,-0.36672428176342836,10.0,0.0,0.1503396709939771,1.9208777110029536,9.722770754056583,59.339137004585204,0.0
0.003,1.1906062994777378,-0.6921109552434423,10.0,0.0,0.39985843725401893,2.6191410585137818,15.6514856639483,59.339137004585204,0.0
0.004,1.6346468449067002,-0.9478802744998933,10.0,0.0,0.7191324200225492,3.2293077064428446,21.796545385065038,59.339137004585204,0.0
0.005,1.9780469984623337,-1.144794557807224,10.0,0.0,1.0865985472783743,3.777051476419025,28.086104022009895,59.339137004585204,0.0
0.006,2.246255119659051,-1.2982995427936077,10.0,0.0,1.4870088443216645,4.280698590327088,34.4888564622109,59.339137004585204,0.0
0.007,2.4605010997096466,-1.4207739554148733,10.0,0.0,1.9096799585899065,4.753137045955076,40.955660916316724,59.339137004585204,0.0
0.008,2.636465262473866,-1.5211907186444242,10.0,0.0,2.3471489068231612,5.203385169343529,47.44597314798775,59.339137004585204,0.0
0.009000000000000001,2.7852627394651908,-1.6059161583109594,7.499180340446612,0.0,2.794211403302959,5.362657131824186,52.7642896565907,59.339137004585204,0.0
0.01,2.758632544896219,-1.5878810327114452,4.905770559625083,0.0,3.2096637281702316,5.294858564582425,56.63305668288865,59.339137004585204,0.0
0.011,2.5733975499859456,-1.4770850407283453,2.9984478496930724,0.0,3.5647837559644535,5.1116232337617005,59.1516508386278,59.339137004585204,0.0
0.012,2.306538325300487,-1.3188936825855422,1.7410256334830707,0.0,3.849775158421305,4.890482386884989,60.92047526379148,59.339137004585204,0.0
0.013000000000000001,2.023256907611426,-1.1508146255820506,0.8408000383091685,0.0,4.067246553255844,4.661996535333548,61.617602230538076,59.339137004585204,0.0
0.014,1.7542711886639395,-0.9921004814645996,0.4694519026763424,0.0,4.2243444581689005,4.473015984360164,62.17593248392472,59.339137004585204,0.0
0.015,1.5318100058339472,-0.8594923794152519,0.16191882118962564,0.0,4.3338347677090585,4.310308994290038,62.3267705122264,59.339137004585204,0.0
0.016,1.3503840899097588,-0.7516505181898814,0.056623471962371275,0.0,4.40556882357389,4.18404681550417,62.32149900004868,59.339137004585204,0.0
0.017,1.211649805254206,-0.6689932112022899,0.029435608096596955,0.0,4.44948937081727,4.08909306080328,62.32180618316022,59.339137004585204,0.0
0.018000000000000002,1.1099439519682028,-0.6075940331412306,-0.000544675244921855,0.0,4.4735951513493815,4.0148010847828095,62.34719523601831,59.339137004585204,0.0
0.019,1.0352570282072575,-0.5614796401366058,-0.043319783988297056,0.0,4.483402564776339,3.953141928370086,62.37328312302551,59.339137004585204,0.0
0.02,0.9791652750690019,-0.5251509414329428,-0.0867051886763004,0.0,4.482528308291973,3.899708009120686,62.31036137497667,59.339137004585204,0.0
0.021,0.9360557894030584,-0.49519274768898514,-0.08495655835579674,0.0,4.473465971206303,3.8563373854217926,62.126484163044424,59.339137004585204,0.0
0.022,0.9045620058590194,-0.4714515171896365,-0.020891423974264578,0.0,4.45866085204182,3.826460490196171,61.82977987319569,59.339137004585204,0.0
0.023,0.8853279622864315,-0.4548056472626047,0.10255429226399748,0.0,4.440754921884247,3.8128299569766018,61.526522061882,59.339137004585204,0.0
0.024,0.8790647578020403,-0.44598244356436023,0.23230934734787545,0.0,4.422472437712935,3.8123070950176317,61.260458825337764,59.339137004585204,0.0
0.025,0.8832973207752894,-0.4434430307597571,0.3461277474124669,0.0,4.405774812391334,3.8207025303217943,61.04049043398531,59.339137004585204,0.0
0.026000000000000002,0.8944540532279143,-0.4450120913523971,0.43909840879469186,0.0,4.391784483925546,3.8344923333747207,60.85417657945018,59.339137004585204,0.0
0.027,0.9093695730094519,-0.448773820516957,0.5171049403136068,0.0,4.380970268213805,3.851625995277592,60.681775944925555,59.339137004585204,0.0
0.028,0.9260207034081778,-0.45349860348564136,0.5898788681725173,0.0,4.373432949098435,3.8715074670222487,60.49737655812843,59.339137004585204,0.0
0.029,0.9436018817110254,-0.45864577354172,0.6704961660356474,0.0,4.3691564499455495,3.895019804857933,60.273366047542176,59.339137004585204,0.0
0.03,0.962514493335328,-0.4642456405978131,0.7731591308992047,0.0,4.368223348167131,3.9243354366554746,59.99574398864924,59.339137004585204,0.0
0.031,0.9842029963147053,-0.470732172394637,0.9054040905050333,0.0,4.370972639573395,3.961949901791937,59.68629236045314,59.339137004585204,0.0
0.032,1.0104487602992724,-0.4786710206680418,1.0566583510444043,0.0,4.3780168563447885,4.008723219610144,59.466414089861956,59.339137004585204,0.0
0.033,1.0424814364299608,-0.48741351034668756,1.1653247154872273,0.0,4.38991626860278,4.058703248072457,59.44378597080639,59.339137004585204,0.0
0.034,1.0764331229703716,-0.49572942954498617,1.1755922853527996,0.0,4.406451068696229,4.101503625196984,59.63108413361403,59.339137004585204,0.0
0.035,1.1053490579434886,-0.5004836590516349,1.0790237326586896,0.0,4.426052232546534,4.128110992141756,59.966708209493554,59.339137004585204,0.0
0.036000000000000004,1.122812663260067,-0.49884919425345375,0.9049359826698451,0.0,4.4461266832834205,4.134201934570158,60.337240717841816,59.339137004585204,0.0
0.037,1.1257864709771659,-0.48938792757870253,0.7096886913631479,0.0,4.463778388503218,4.1218024204898445,60.76941569067895,59.339137004585204,0.0
0.038,1.115243834587132,-0.47384522424808734,0.4792984180836446,0.0,4.476809887093382,4.090206999271937,61.09994770074262,59.339137004585204,0.0
0.039,1.0913970690409658,-0.45346746781329383,0.2964243060902354,0.0,4.483292567528219,4.047779738294536,61.07387426624232,59.339137004585204,0.0
0.04,1.0598902775338284,-0.4313227760163187,0.2921136507238129,0.0,4.482652115288514,4.01482531989831,60.52186406734841,59.339137004585204,0.0
0.041,1.0347938269792705,-0.4129507676151606,0.556291479543136,0.0,4.476980792426997,4.016650507487457,59.749519402681024,59.339137004585204,0.0
0.042,1.0337344131849715,-0.4059311466960962,0.9383599878958708,0.0,4.471470682393463,4.0569773726739715,58.94828093049081,59.339137004585204,0.0
0.043000000000000003,1.0618952606719883,-0.4106377316075024,1.3428877847319216,0.0,4.471132190431378,4.130289625545405,58.68898338255026,59.339137004585204,0.0
0.044,1.1154521481660558,-0.42457897260760313,1.4790380949225452,0.0,4.4796452436135406,4.201558410936614,59.33622804980332,59.339137004585204,0.0
0.045,1.1699012144138985,-0.43936476822332016,1.1554448508438364,0.0,4.495920895124338,4.2241410347440365,60.1636430306638,59.339137004585204,0.0
0.046,1.192855689951966,-0.43969797842717356,0.7334923001528095,0.0,4.512716039031063,4.200933611539859,60.77144207570505,59.339137004585204,0.0
0.047,1.179820538318864,-0.426730370647684,0.41526972692098374,0.0,4.524081157268917,4.152604898933207,60.17242387809059,59.339137004585204,0.0
0.048,1.1458780895510232,-0.4047243922912542,0.7064459569931614,0.0,4.527185910880908,4.149060498299389,59.06369417061517,59.339137004585204,0.0
0.049,1.1382568701173172,-0.39226999375923494,1.2635652390705712,0.0,4.528475825013359,4.20505128146798,58.295815045958776,59.339137004585204,0.0
0.05,1.1753159742531556,-0.3943790314637372,1.6579380209850334,0.0,4.53559236418224,4.289229077273491,59.18277413967529,59.339137004585204,0.0
0.051000000000000004,1.235706233410606,-0.4089951584195593,1.2160221027758762,0.0,4.55200171260288,4.306873931127227,60.281735309372046,59.339137004585204,0.0
0.052000000000000005,1.2568690818135309,-0.40937967217182447,0.6571155348796291,0.0,4.5684307468100185,4.265610660418409,60.17663343140721,59.339137004585204,0.0
0.053,1.2320803479033287,-0.3940392654271006,0.7012915095938266,0.0,4.5773992606461205,4.243503432312863,58.81908095834098,59.339137004585204,0.0
0.054,1.2148293748586314,-0.37562980616918445,1.3852683065893827,0.0,4.581388563837134,4.300949186019668,58.20131792922739,59.339137004585204,0.0
0.055,1.251587438977839,-0.3741063975442849,1.7055280118997558,0.0,4.590740031723566,4.3772221975055166,59.47963239025361,59.339137004585204,0.0
0.056,1.3062089871070217,-0.38674580898585625,1.0649658275299618,0.0,4.608189223314763,4.367497827644625,60.20146829282093,59.339137004585204,0.0
0.057,1.3076589081256926,-0.3830325477520421,0.6954245633639478,0.0,4.622386205910614,4.3266336208836185,58.784867580250264,59.339137004585204,0.0
0.058,1.282835980838775,-0.36282856267196983,1.4092676138926286,0.0,4.628891763824312,4.376238702469861,58.07839901052027,59.339137004585204,0.0
0.059000000000000004,1.3139631371404827,-0.3564999309551844,1.775109278698274,0.0,4.639213164467217,4.450965767846126,59.571092660995646,59.339137004585204,0.0
0.06,1.3660120062208208,-0.3684538754983689,1.0264428968964825,0.0,4.657353351800377,4.4278264440669775,59.616006974167696,59.339137004585204,0.0
0.061,1.3583268419086312,-0.3622721393823767,1.0012170406146323,0.0,4.670566057604115,4.414892747791223,57.97354370365326,59.339137004585204,0.0
0.062,1.3520703145947552,-0.34421967337673987,1.8361046088811683,0.0,4.679240169300444,4.497274949156955,58.880364763821085,59.339137004585204,0.0
0.063,1.4058595989287268,-0.3483432537479313,1.3872818012048986,0.0,4.6959192084646,4.508587570478819,59.81138942124305,59.339137004585204,0.0
0.064,1.4194287195285051,-0.3510770172961505,0.917046948327338,0.0,4.712321084031118,4.4722445174225065,58.00703111377994,59.339137004585204,0.0
0.065,1.4018184717255082,-0.3305453184728285,1.8325471609669464,0.0,4.721162642229308,4.548656147611938,58.69602599255566,59.339137004585204,0.0
0.066,1.4510103865257915,-0.3305934417966871,1.49448083169938,0.0,4.7369718181804785,4.566381259150356,59.54768335048,59.339137004585204,0.0
0.067,1.4674623699040272,-0.33543766541231856,1.066566689278263,0.0,4.753504971054853,4.538907085732799,57.67887822435916,59.339137004585204,0.0
0.068,1.457617991775103,-0.3153913977926954,2.0175718401409437,0.0,4.76338385962572,4.625970754391502,59.08320682927178,59.339137004585204,0.0
0.069,1.5133653331665817,-0.321023550961197,1.3179668394377673,0.0,4.781801225730103,4.612618692121095,58.69559756057426,59.339137004585204,0.0
0.07,1.5120059190440145,-0.31868815814328005,1.5182068682266388,0.0,4.7967284342553524,4.632173034829374,57.78010391585895,59.339137004585204,0.0
0.07100000000000001,1.5318716967278005,-0.30240259589453344,1.9915440214715536,0.0,4.81035029827972,4.699130521001957,59.481407099351344,59.339137004585204,0.0
0.07200000000000001,1.5740510983760534,-0.31512738115069816,1.1394697287776963,0.0,4.830868306519574,4.657851824826477,57.458009059168944,59.339137004585204,0.0
0.073,1.5597374495656338,-0.2946379401214042,2.169980028323059,0.0,4.842825557952112,4.746625970355087,59.256119650240166,59.339137004585204,0.0
0.074,1.6154763181381315,-0.30049104058927345,1.2717549063308984,0.0,4.863313234256017,4.71233414802842,57.659148219118336,59.339137004585204,0.0
0.075,1.60298474206267,-0.289922492972403,2.087040509746482,0.0,4.8771018894543285,4.784115405214471,58.90329081704383,59.339137004585204,0.0
0.076,1.6523386611792725,-0.2869283069319222,1.4693276726591478,0.0,4.89646612986313,4.7684422872244046,57.77177783613499,59.339137004585204,0.0
0.077,1.6484664615751148,-0.28265039013746474,2.050757754798072,0.0,4.911886005445059,4.827326823628003,58.77845152937048,59.339137004585204,0.0
0.078,1.6925826694041397,-0.27596995762855603,1.5530277629324738,0.0,4.93096027870112,4.816408789165596,57.57854664298024,59.339137004585204,0.0
0.079,1.6908092297091,-0.27221705698491416,2.1705861097436414,0.0,4.946689306439623,4.882034943987665,58.92716808335388,59.339137004585204,0.0
0.08,1.738801739806237,-0.26890496634022254,1.5003950787691378,0.0,4.967081245922001,4.857477878718434,57.139476651919416,59.339137004585204,0.0
0.081,1.731787325498423,-0.2582645886775786,2.416237398013026,0.0,4.9818409642927755,4.946111790025767,59.16234530759181,59.339137004585204,0.0
0.082,1.78947337774935,-0.2659705657057201,1.406570987146761,0.0,5.00494216320693,4.900720943761038,56.87945099237175,59.339137004585204,0.0
0.083,1.7767116946714259,-0.2428630392536013,2.5726150048789265,0.0,5.018575269923177,5.002521453734476,59.01098859956598,59.339137004585204,0.0
0.084,1.8359232751755084,-0.2614830994335673,1.5101276853320063,0.0,5.043304398849465,4.960330287368487,57.230000553067974,59.339137004585204,0.0
0.085,1.8307704659903052,-0.2319172061430418,2.42171307309618,0.0,5.057903049382766,5.036889341196666,58.264766062557634,59.339137004585204,0.0
0.08600000000000001,1.87237365427365,-0.24919416786246362,1.9150740277716256,0.0,5.080893864967595,5.0377783270289935,58.197536279884595,59.339137004585204,0.0
0.08700000000000001,1.8922965461731454,-0.22759798187657432,1.9601049263551509,0.0,5.099126147501535,5.049121798907897,56.90955754146271,59.339137004585204,0.0
0.088,1.900746355930655,-0.22598175350871874,2.628390090197318,0.0,5.116707725709364,5.133484960734773,58.851608493510255,59.339137004585204,0.0
0.089,1.9582723617218476,-0.23657657882382566,1.662239899284295,0.0,5.1421490553474385,5.091967229021434,57.73295505695687,59.339137004585204,0.0
0.09,1.9462678793705428,-0.21781263657229966,2.237628437037272,0.0,5.158724496949552,5.13199539762175,58.593382901912236,59.339137004585204,0.0
0.091,1.9550117964678493,-0.24325825012630553,1.8148720555863183,0.0,5.180631868164943,5.116339330480896,59.76032479309956,59.339137004585204,0.0
0.092,1.9485011876513627,-0.23572127518895447,1.2271892321075142,0.0,5.197699372166061,5.0448256665482925,58.2036395093709,59.339137004585204,0.0
0.093,1.8953265580744572,-0.22534770313720998,2.016886848923985,0.0,5.204843036197488,5.080697788658955,60.51639440113811,59.339137004585204,0.0
0.094,1.9017620274735596,-0.24203505762636512,0.8487368290748525,0.0,5.216798890751162,4.976063938680454,58.81452676599351,59.339137004585204,0.0
0.095,1.8409493931407184,-0.21512720708109978,1.7049167490330666,0.0,5.2139690377467485,4.99570409501967,60.366898181382204,59.339137004585204,0.0
0.096,1.8335614114404764,-0.23483195088480824,0.9184534295707509,0.0,5.21582278600056,4.918229037727786,59.33249991053656,59.339137004585204,0.0
0.097,1.7910134151500465,-0.21453848617827287,1.4357189359340583,0.0,5.207314325144044,4.918057099660001,60.35463241173589,59.339137004585204,0.0
0.098,1.7764963882435159,-0.2329154965362994,0.9144977312628866,0.0,5.20186392235285,4.855715914732697,59.51840098254008,59.339137004585204,0.0
0.099,1.7433781893185754,-0.21812287096301064,1.3308208060812443,0.0,5.188913482431403,4.8535693899084125,60.555795552536416,59.339137004585204,0.0
0.1,1.731367762107685,-0.2373231549196656,0.7999569356035634,0.0,5.1793033915106355,4.7887741820776295,59.43519058394831,59.339137004585204,0.0
0.101,1.6971061796475957,-0.2249562248041077,1.3592988841039846,0.0,5.1626224237465905,4.799982408776174,60.951764989829066,59.339137004585204,0.0
0.10200000000000001,1.69570433731483,-0.2457794001435314,0.5848854013111693,0.0,5.151144594017295,4.717434400268249,59.2972914520797,59.339137004585204,0.0
0.10300000000000001,1.6505459202543602,-0.23413113092839544,1.4125406257109083,0.0,5.13107020504308,4.7457330266034115,61.1032219842794,59.339137004585204,0.0
0.10400000000000001,1.6617776166663467,-0.253460641430057,0.4919345098141148,0.0,5.118075846447136,4.657964055639066,59.465199092887026,59.339137004585204,0.0
0.105,1.6119341918565488,-0.24826382032010597,1.3096853346272839,0.0,5.096839081187238,4.682426291493175,60.66149967370475,59.339137004585204,0.0
0.106,1.624259914398277,-0.26035657493695497,0.6983114175272247,0.0,5.081554387257697,4.6250357243790585,60.09950410431017,59.339137004585204,0.0
0.107,1.5896137172062297,-0.269159363518489,0.9717055312272664,0.0,5.062906485207496,4.611977175177946,59.86066214445139,59.339137004585204,0.0
0.108,1.583257993278247,-0.2703485578601491,1.0859112597579952,0.0,5.044860301933974,4.608541047353465,61.14669647620591,59.339137004585204,0.0
0.109,1.579550383893836,-0.2887294408590314,0.4248184991645274,0.0,5.0302851293918165,4.530125932826494,59.58446854293607,59.339137004585204,0.0
0.11,1.5338157550939857,-0.2822751882075194,1.203479150415938,0.0,5.00843218602952,4.555352144815735,60.42449447621259,59.339137004585204,0.0
0.111,1.5471485647878267,-0.2939248059723716,0.7726126090614067,0.0,4.992633158683026,4.518764559853985,60.81969945103166,59.339137004585204,0.0
0.112,1.525131347790337,-0.30765045703347893,0.5602044971874056,0.0,4.976148601014081,4.467754825727832,59.65978045313837,59.339137004585204,0.0
0.113,1.494428885745265,-0.30371746193393523,1.1369575616485201,0.0,4.955641639727854,4.4889216261118445,60.489835984712,59.339137004585204,0.0
0.114,1.5068508528155053,-0.3161872688509131,0.710422806060435,0.0,4.940713063320514,4.451561255571356,60.98973019870999,59.339137004585204,0.0
0.115,1.4840612154039308,-0.32853354234051846,0.4439697671201921,0.0,4.924774699514545,4.394030657502609,59.80909910862683,59.339137004585204,0.0
0.116,1.4477301460259187,-0.3238532483435429,1.0295856911213561,0.0,4.904038817207736,4.411510086147139,60.061487222139135,59.339137004585204,0.0
0.117,1.4569436939876885,-0.33393263244830784,0.8961681321896651,0.0,4.888280001187556,4.403259092004463,61.30474327123186,59.339137004585204,0.0
0.11800000000000001,1.4535366123502582,-0.3492127891709531,0.2548840449768377,0.0,4.874851990753568,4.325517156129674,60.36153928216775,59.339137004585204,0.0
0.11900000000000001,1.4046515098425192,-0.345175443540114,0.7162620167330669,0.0,4.854395678188882,4.316714321023759,59.76494815944329,59.339137004585204,0.0
0.12,1.3943435281160275,-0.3484326157214023,1.0102994665467133,0.0,4.835503375766323,4.3351215048987415,60.35899916101655,59.339137004585204,0.0
0.121,1.4075953518058708,-0.3623765825032572,0.703075344195772,0.0,4.821842286597709,4.311502931764082,61.33272377999238,59.339137004585204,0.0
0.122,1.3945388299469736,-0.37382017506872556,0.1962771669537855,0.0,4.808304804546874,4.237773284394296,60.468889137344114,59.339137004585204,0.0
0.123,1.3464469055631967,-0.36807294454983686,0.6168969669503284,0.0,4.788001474681412,4.226558559792069,59.85931272634441,59.339137004585204,0.0
0.124,1.3335685119385925,-0.3714278125718247,0.9164834152325867,0.0,4.769033513129879,4.244118990029471,60.00476086151378,59.339137004585204,0.0
0.125,1.3454241752205096,-0.38475890592400686,0.8371031090786174,0.0,4.75515126234576,4.244865976030964,60.83261115641686,59.339137004585204,0.0
0.126,1.3496349156219831,-0.3969543326895834,0.40824322010876113,0.0,4.743940121250893,4.197424628817407,61.245853012769494,59.339137004585204,0.0
0.127,1.318889334742396,-0.4003998848443679,0.1825551318506009,0.0,4.729363016013529,4.136493332697789,60.521779789109374,59.339137004585204,0.0
0.128,1.2757042751530667,-0.3939319186587941,0.5327653158354195,0.0,4.7094045598859795,4.125420357533342,60.01775857953431,59.339137004585204,0.0
0.129,1.2627811848739907,-0.3979281443461141,0.7779897048734608,0.0,4.6908389163422,4.137921104561723,59.89446167766204,59.339137004585204,0.0
0.13,1.2704286016371704,-0.41056009170899976,0.8340849090788252,0.0,4.676729463808682,4.150062994358359,60.13443827064141,59.339137004585204,0.0
0.131,1.2811183567115443,-0.4238707232981012,0.7061435999285794,0.0,4.66658299550935,4.143845854982849,60.77338996949226,59.339137004585204,0.0
0.132,1.2796081419962313,-0.4320875454560365,0.3723252208540859,0.0,4.6576002042238835,4.102068195277693,61.371338806027595,59.339137004585204,0.0
0.133,1.2512031500155105,-0.4327774587852248,0.053028784571993226,0.0,4.645331648341078,4.034895045184944,60.97099673559171,59.339137004585204,0.0
0.134,1.203217852759395,-0.42362977656618556,0.23688122247986976,0.0,4.626559488859893,4.001623419824246,60.488341093590634,59.339137004585204,0.0
0.135,1.1745130992531922,-0.42087425121735544,0.4667170025903542,0.0,4.606125751824577,3.9959228223976946,60.18717316798186,59.339137004585204,0.0
0.136,1.167314460499818,-0.4275534855090224,0.6088206037607742,0.0,4.587927599775707,4.0025867520657155,60.054452017803406,59.339137004585204,0.0
