timestamp,iq,id,iq_ref,id_ref,vq,vd,omega,omega_ref,r
0.0,0.0,0.0,0.0,0.0,0.0,0.0,0.0,85.33867443009451,0.0
0.001,0.0,0.0,10.0,0.0,0.0,1.0999999999999999,13.5143501512517,85.33867443009451,0.0
0.002,0.45304247268772563,-0.23887183840562026,10.0,0.0,0.1362759022246183,1.9401653280043498,31.195853468808384,85.33867443009451,0.0
0.003,0.901044053753882,-0.4778955467848696,10.0,0.0,0.36684463656487076,2.665191964240327,50.54798799033985,85.33867443009451,0.0
0.004,1.277287615681025,-0.6783701096448955,10.0,0.0,0.6665211259255064,3.303866034285407,70.79202651445188,85.33867443009451,0.0
0.005,1.5795916115139201,-0.8374135509494955,8.14767867504106,0.0,1.015587406269492,3.675393996594213,88.98463856695517,85.33867443009451,0.0
0.006,1.7380260366819336,-0.9175540656800637,-0.985086992579193,0.0,1.3741248770172758,3.044190033707746,93.67461628846888,85.33867443009451,0.0
0.007,1.4415448039851788,-0.754350112800234,-3.4134352719197936,0.0,1.6149343644375485,2.370366839981763,90.78711977194348,85.33867443009451,0.0
0.008,1.0205810604978405,-0.5222250083002584,-2.0241714670755817,0.0,1.7403788617769957,2.0084506151533152,87.46265900001613,85.33867443009451,0.0
0.009000000000000001,0.7185857433460563,-0.35023817550728165,-0.3831809268111236,0.0,1.8004899863374264,1.8908966313741282,86.11836930964971,85.33867443009451,0.0
0.01,0.5665818482114667,-0.26024424693512227,0.2811669695765362,0.0,1.8346551362488872,1.8614779969221869,86.03066002274888,85.33867443009451,0.0
0.011,0.5011443919839053,-0.21887858273918934,0.3181017571004088,0.0,1.8588116239481762,1.8415151698040217,86.22195811073635,85.33867443009451,0.0
0.012,0.46744697364409676,-0.19660179167889472,0.21361987630025214,0.0,1.8765193897910477,1.8171542608594495,86.39189953273947,85.33867443009451,0.0
0.013000000000000001,0.4427811681475223,-0.180556034811516,0.11811691427224247,0.0,1.888478022810365,1.789915976799767,86.16858058060033,85.33867443009451,0.0
0.014,0.42082095417125626,-0.1670215601072172,0.2214773288367533,0.0,1.8951886294729845,1.7810910251527843,85.93885933777683,85.33867443009451,0.0
0.015,0.40883412239330813,-0.15834180441693618,0.3303361011716808,0.0,1.899526251925755,1.78585943950377,85.78685253097062,85.33867443009451,0.0
0.016,0.4059982559729983,-0.1543607180347248,0.4018577235660262,0.0,1.903555831623207,1.7975556423934178,85.8696845800406,85.33867443009451,0.0
0.017,0.40913693402137963,-0.15283114002594145,0.3551315975315764,0.0,1.9082236309227345,1.8022564796265879,86.01480663787451,85.33867443009451,0.0
0.018000000000000002,0.41070961605153405,-0.15111775669558522,0.2758092465368184,0.0,1.9127215576293748,1.798554207474482,85.97631099557537,85.33867443009451,0.0
0.019,0.40835721636615946,-0.14778159635183657,0.2886807020315795,0.0,1.916049620645631,1.7981555296083147,85.72892696712584,85.33867443009451,0.0
0.02,0.40673412312877577,-0.1444395616381254,0.40847019088603165,0.0,1.918670747358575,1.8113326713086901,85.53353280012837,85.33867443009451,0.0
0.021,0.4114466390958767,-0.143465650860026,0.50421869068443,0.0,1.9222737657318085,1.8322540439108466,85.78896620503275,85.33867443009451,0.0
0.022,0.420955996608252,-0.14482261408353436,0.3719990704828575,0.0,1.9277676245903006,1.8349430337032642,85.86824048939043,85.33867443009451,0.0
0.023,0.42381135551929394,-0.14318320023968922,0.3270662677110582,0.0,1.932787091387127,1.8340731023943158,85.76529287001972,85.33867443009451,0.0
0.024,0.42334435860296704,-0.14003289735615893,0.37427389299716096,0.0,1.9368874791946267,1.8395142009550403,85.5351979835323,85.33867443009451,0.0
0.025,0.4248188314235602,-0.1377489756838174,0.48735610070649393,0.0,1.9409022097223263,1.8566213330561796,85.40833524603393,85.33867443009451,0.0
0.026000000000000002,0.43248652908555957,-0.13690956207827445,0.5500908612962851,0.0,1.9461566841274838,1.8773605245731453,85.67514987604399,85.33867443009451,0.0
0.027,0.44273781643627425,-0.13793819653169193,0.41331879183176035,0.0,1.9530811741697534,1.8798280044999751,85.70715769793739,85.33867443009451,0.0
0.028,0.44583426756417743,-0.13568746207401625,0.39363004820663083,0.0,1.9593020960656002,1.8817050475836676,85.61966421687434,85.33867443009451,0.0
0.029,0.44684774591579335,-0.13231412397357015,0.43456689087035727,0.0,1.9647400702337592,1.888635900570438,85.4161842731762,85.33867443009451,0.0
0.03,0.4493566416363316,-0.13010490207259187,0.5355317642886112,0.0,1.9701180512556764,1.9058483895789755,85.20451439405402,85.33867443009451,0.0
0.031,0.45769755421559555,-0.12858557476433663,0.6427083042101079,0.0,1.976534449291358,1.9317647870195191,85.52276828782352,85.33867443009451,0.0
0.032,0.4705790522003096,-0.12989117849099624,0.4817404187480636,0.0,1.9850596569505399,1.9356193960670105,85.55701241619056,85.33867443009451,0.0
0.033,0.47502658725001484,-0.1277354915318002,0.4624349747035855,0.0,1.9928676231457754,1.9390667311097785,85.48581894033882,85.33867443009451,0.0
0.034,0.47744833140246795,-0.12386273894892258,0.496560267527014,0.0,1.9998350803112392,1.9466750494125429,85.42618018444487,85.33867443009451,0.0
0.035,0.481064460822731,-0.12075340675762823,0.5255045879304816,0.0,2.00656332457522,1.95668834712302,85.12552067689948,85.33867443009451,0.0
0.036000000000000004,0.48589071751723145,-0.11885971502831166,0.6779658792351271,0.0,2.013442861415537,1.9823597113861309,85.0564160664569,85.33867443009451,0.0
0.037,0.498852374476353,-0.11837617685278543,0.7153407680927928,0.0,2.0221673287161206,2.007360998069701,85.44399268336134,85.33867443009451,0.0
0.038,0.5126572815023258,-0.11948871746668419,0.5204992771079047,0.0,2.032646692804285,2.007539366714792,85.34008524545534,85.33867443009451,0.0
0.039,0.5158795040766724,-0.11626965213777804,0.5724388879072977,0.0,2.0417307347558245,2.016193211589054,84.88866168016558,85.33867443009451,0.0
0.04,0.5209176277951684,-0.11188569448229277,0.8026507980514661,0.0,2.0503217123108217,2.049172018795617,85.42944940523795,85.33867443009451,0.0
0.041,0.5361885503157927,-0.11303716477096434,0.5313491857638503,0.0,2.0615219741392847,2.045937326343861,85.27243906653028,85.33867443009451,0.0
0.042,0.5383054204209654,-0.10943094035994255,0.6105167087533248,0.0,2.0708705411516264,2.0554874264854823,84.71975340099588,85.33867443009451,0.0
0.043000000000000003,0.5433773614590011,-0.10544190088050204,0.8930487518115098,0.0,2.0798365293782677,2.0947674780075487,85.3180920505529,85.33867443009451,0.0
0.044,0.5622022232173745,-0.10670530210860096,0.5940852508284151,0.0,2.092012788464338,2.093284802278311,85.32938734479318,85.33867443009451,0.0
0.045,0.5659734236931958,-0.10365582785963784,0.5885304745612935,0.0,2.1024750778892085,2.095320046216294,84.79444257997389,85.33867443009451,0.0
0.046,0.5682961544741674,-0.09844227728722155,0.8614451754721429,0.0,2.111551666944915,2.128056371184681,85.00035721939943,85.33867443009451,0.0
0.047,0.5840915930254295,-0.09764141476289895,0.7618710278663221,0.0,2.1229582702199377,2.1430301483832226,85.23690749292288,85.33867443009451,0.0
0.048,0.5946888119511008,-0.09665875504412852,0.6446135604763141,0.0,2.1346215069434913,2.144736888556259,84.81004730991077,85.33867443009451,0.0
0.049,0.5985181690796608,-0.09253563581803767,0.8633299231842064,0.0,2.144845377494311,2.1723553958612305,84.84994874782696,85.33867443009451,0.0
0.05,0.6127822188244729,-0.090728418121104,0.8482664610487893,0.0,2.156651148966144,2.192859543128167,85.12989769022464,85.33867443009451,0.0
0.051000000000000004,0.6256089082909542,-0.09021821450154036,0.7103797572486477,0.0,2.1692887077963046,2.1962086546750674,84.74776180902157,85.33867443009451,0.0
0.052000000000000005,0.6308625651744898,-0.08645282033498877,0.9073568240609118,0.0,2.180588330576014,2.223083319975121,84.80358228895318,85.33867443009451,0.0
0.053,0.6453964850253895,-0.08432853219675457,0.8847975055065194,0.0,2.1932494398542177,2.242402990699271,85.0408422081289,85.33867443009451,0.0
0.054,0.6578891684753173,-0.08347071283980942,0.769145868138319,0.0,2.206503288029135,2.2473318623728837,84.62306026519555,85.33867443009451,0.0
0.055,0.6640375932383525,-0.07957902439670206,0.9851929812539814,0.0,2.2185051310187482,2.277463530623598,84.81365683164229,85.33867443009451,0.0
0.056,0.6804844924764296,-0.07778579988790557,0.895144874015132,0.0,2.2321616187229356,2.2919687787522145,84.92733213904202,85.33867443009451,0.0
0.057,0.6913964454266652,-0.07638561798464455,0.8424206432257915,0.0,2.2457668947052962,2.300454120691804,84.41688437322782,85.33867443009451,0.0
0.058,0.6989845608871046,-0.07271187368696541,1.1068624267015612,0.0,2.258470067229666,2.3383417213547504,84.8992162545905,85.33867443009451,0.0
0.059000000000000004,0.719683504829528,-0.07178068196843357,0.8700910677752602,0.0,2.273625988921833,2.342820609208129,84.7471709611029,85.33867443009451,0.0
0.06,0.7270668526613558,-0.06950933082959065,0.9520287492089781,0.0,2.287473670522033,2.3591428801702796,84.35982475951549,85.33867443009451,0.0
0.061,0.738505545103942,-0.06482394913460104,1.155490346708471,0.0,2.301076132583367,2.3955946684164777,86.0764901211634,85.33867443009451,0.0
0.062,0.755468628128865,-0.07075438032975273,0.289779508973826,0.0,2.317662728511606,2.330747163710067,85.68963334139578,85.33867443009451,0.0
0.063,0.728494481422724,-0.06333646627639505,0.47969830974462635,0.0,2.3252306395185576,2.30672803249718,85.97658980703417,85.33867443009451,0.0
0.064,0.7104557154310563,-0.05611186493498094,0.3298409231560312,0.0,2.328919319296504,2.2691986277658462,86.45909432963589,85.33867443009451,0.0
0.065,0.6872969307360892,-0.051860916969327486,0.07738446285975986,0.0,2.328090832360715,2.2118864733752663,85.87050586939628,85.33867443009451,0.0
0.066,0.6566323104497075,-0.04275440162523947,0.36636037858654524,0.0,2.320654771471253,2.1976761214476266,86.08817987107167,85.33867443009451,0.0
0.067,0.6433316772888427,-0.04153315044511757,0.250028323339078,0.0,2.312498009001601,2.169613336834147,86.19803236167928,85.33867443009451,0.0
0.068,0.6284388347592449,-0.04183843812773308,0.18650849871942643,0.0,2.302396438474455,2.1392225006260097,85.99122589044742,85.33867443009451,0.0
0.069,0.6131079087372832,-0.041203413492347685,0.283386219731826,0.0,2.290193035792492,2.1236898119806527,86.04366881893505,85.33867443009451,0.0
0.07,0.6042287381358867,-0.04360753052795968,0.2501148115996097,0.0,2.2779275076344594,2.1046848193329,86.05415564824256,85.33867443009451,0.0
0.07100000000000001,0.5955124635724766,-0.04661516304530211,0.2377165847643743,0.0,2.265294831434007,2.0861926807595275,86.01048263308851,85.33867443009451,0.0
0.07200000000000001,0.5872142397828722,-0.049634487538011085,0.25283501031145506,0.0,2.252378258365287,2.070899139373201,86.00809335789972,85.33867443009451,0.0
0.073,0.580372423609691,-0.05328115542754225,0.24733545862779793,0.0,2.2395949286877284,2.0557567774191154,86.01196334680472,85.33867443009451,0.0
0.074,0.5738951077048831,-0.05711963811937837,0.23866757500819824,0.0,2.226961462199723,2.04059593359916,86.0063536148224,85.33867443009451,0.0
0.075,0.5674312759507929,-0.060892489363500446,0.2347956491520784,0.0,2.2144518867884577,2.025994842838325,86.00279867719345,85.33867443009451,0.0
0.076,0.5611219187693852,-0.06465087536039252,0.22993187549556304,0.0,2.202108853789453,2.011735998741205,86.00168531855388,85.33867443009451,0.0
0.077,0.554901145534975,-0.06837654938369894,0.2238584459307551,0.0,2.189946479963231,1.9976704877223033,85.99956209243116,85.33867443009451,0.0
0.078,0.5486892529503677,-0.07202499443625282,0.21831118236874847,0.0,2.1779578646332896,1.9838669261784605,85.99656968488812,85.33867443009451,0.0
0.079,0.542497219376586,-0.0755934971362566,0.21322843359233612,0.0,2.1661438055284314,1.9703602342934916,85.99343481656284,85.33867443009451,0.0
0.08,0.5363446058492256,-0.07908902265235601,0.20824826389029072,0.0,2.1545093059253344,1.9571406816593455,85.99002230355012,85.33867443009451,0.0
0.081,0.5302344515062669,-0.08251067748753638,0.20344104166209442,0.0,2.143057727795841,1.9442112324226748,85.9861393534869,85.33867443009451,0.0
0.082,0.5241711507331909,-0.08585694869171168,0.19890786745977784,0.0,2.1317922358397374,1.9315848548983572,85.9818179502074,85.33867443009451,0.0
0.083,0.5181636210242884,-0.08912848378468083,0.19463713389840143,0.0,2.120717061474997,1.9192703122413823,85.97711056823009,85.33867443009451,0.0
0.084,0.5122200141809193,-0.09232581033350773,0.19060646350570165,0.0,2.109836940850475,1.9072727614617286,85.9720160456891,85.33867443009451,0.0
0.085,0.5063466661641147,-0.09544855636512234,0.1868203086202488,0.0,2.0991566060084286,1.8955974155775306,85.96652369043768,85.33867443009451,0.0
0.08600000000000001,0.5005494331386082,-0.09849604072767987,0.1832879936425269,0.0,2.088680765881732,1.8842498398514897,85.9606346229349,85.33867443009451,0.0
0.08700000000000001,0.4948341822354722,-0.10146758532560687,0.18001292546551217,0.0,2.0784141472572477,1.873235208604779,85.95435380229301,85.33867443009451,0.0
0.088,0.4892066116277346,-0.10436246018459752,0.17699654206447257,0.0,2.06836144815905,1.8625582073857672,85.94768403462541,85.33867443009451,0.0
0.089,0.4836721722154721,-0.10717984047404533,0.17424132985296498,0.0,2.058527281932021,1.8522232394988518,85.94062715587027,85.33867443009451,0.0
0.09,0.47823614449035845,-0.10991884089733403,0.17175024197277566,0.0,2.048916151782671,1.8422345028888598,85.93318588904896,85.33867443009451,0.0
0.091,0.47290369761240436,-0.11257854817449334,0.1695257607938898,0.0,2.0395324387835103,1.8325959537533796,85.92536401498407,85.33867443009451,0.0
0.092,0.467679893560243,-0.11515802593446423,0.1675698019774382,0.0,2.0303803876515434,1.8233112715504691,85.91753636074574,85.33867443009451,0.0
0.093,0.46257287486254495,-0.11765053170474155,0.1656950097900891,0.0,2.021463454269612,1.8143627189184341,85.91015380111028,85.33867443009451,0.0
0.094,0.4575787241890795,-0.12005075049878236,0.16367149589766117,0.0,2.0127824579723135,1.805711775992221,85.90205762351366,85.33867443009451,0.0
0.095,0.4526771391451758,-0.12235832058336968,0.16208575276178339,0.0,2.004334297533487,1.7973928639709709,85.89208377404505,85.33867443009451,0.0
0.096,0.4478824581904978,-0.12457561957903823,0.16153858405658206,0.0,1.9961198891250957,1.789495095036326,85.8812409457896,85.33867443009451,0.0
0.097,0.44324055194348155,-0.12671816357452956,0.16153433302735543,0.0,1.9881506515136274,1.7820333291057682,85.87052222862451,85.33867443009451,0.0
0.098,0.43877043873325283,-0.12879357296945465,0.1615752136246008,0.0,1.9804390306637358,1.7749706487737633,85.85977746515488,85.33867443009451,0.0
0.099,0.4344612137088933,-0.1307960658402983,0.16173656500881284,0.0,1.9729918239874769,1.768289727856839,85.84858248413484,85.33867443009451,0.0
0.1,0.4303036407926376,-0.1327185895291479,0.1622349749784296,0.0,1.965812698564216,1.7619996307173404,85.83691303083631,85.33867443009451,0.0
0.101,0.42630090076817195,-0.13455935287103205,0.16308731562027334,0.0,1.9589057347000507,1.7561081297939012,85.82494287567468,85.33867443009451,0.0
0.10200000000000001,0.42245880522377527,-0.13631865598884502,0.1642097087452889,0.0,1.952275432839499,1.750612625523362,85.81310591613709,85.33867443009451,0.0
0.10300000000000001,0.4187847073789309,-0.13798595582267012,0.16538387365365792,0.0,1.9459244206884896,1.74548730550998,85.80207073112449,85.33867443009451,0.0
0.10400000000000001,0.4152715229008485,-0.13955287923587453,0.16626750314965927,0.0,1.9398516663283587,1.7406745831924528,85.79177355223334,85.33867443009451,0.0
0.105,0.411894350184665,-0.1410075904760698,0.16688510137384616,0.0,1.9340492641747764,1.7361313143343655,85.78066473669774,85.33867443009451,0.0
0.106,0.4086307081428052,-0.1423410401168216,0.16801960607561034,0.0,1.9285049076988252,1.731905980579123,85.76777042494099,85.33867443009451,0.0
0.107,0.4054974843674376,-0.14356589638098716,0.17017580200552207,0.0,1.923213853187595,1.728086599251954,85.75500512370499,85.33867443009451,0.0
0.108,0.40254453919377564,-0.14469718875653248,0.17239514568741798,0.0,1.9181821595934403,1.7246361081834383,85.74112153531115,85.33867443009451,0.0
0.109,0.3997655030680404,-0.14574334811478357,0.1753124688321709,0.0,1.9134123508575005,1.7216023734935568,85.71671144058902,85.33867443009451,0.0
0.11,0.39715393344649624,-0.14676322345469547,0.18373714608828995,0.0,1.908917874219975,1.719552054962907,85.69271890620065,85.33867443009451,0.0
0.111,0.3949565188660296,-0.14786737249463017,0.19219296852141343,0.0,1.9047790710341304,1.718318814224288,85.6793047786148,85.33867443009451,0.0
0.112,0.39317858520062127,-0.14901305647043483,0.19549372882913396,0.0,1.901045807839948,1.7172471412078545,85.67027353494335,85.33867443009451,0.0
0.113,0.3915391273670957,-0.15004434527203092,0.1966933596163748,0.0,1.8976806885919573,1.7161708219821996,85.65348099359849,85.33867443009451,0.0
0.114,0.3899022062554771,-0.15087347999980305,0.2019415646537629,0.0,1.89462534127824,1.7155945957444942,85.6362007450418,85.33867443009451,0.0
0.115,0.38844542654980335,-0.1516002137993878,0.20760642578263377,0.0,1.8918895554428004,1.7154849866294974,85.61517950110685,85.33867443009451,0.0
0.116,0.3872439006219377,-0.15218448369944973,0.2153519970399871,0.0,1.8894733896304154,1.7160257241244845,85.60494291063053,85.33867443009451,0.0
0.117,0.3863656625421182,-0.152709782047997,0.21780760747278927,0.0,1.8874048542681066,1.7165480236532704,85.59877585484736,85.33867443009451,0.0
0.11800000000000001,0.3855209116055807,-0.15310833766806664,0.21829012111684382,0.0,1.8856339905296307,1.7169239003116865,85.58410107486101,85.33867443009451,0.0
0.11900000000000001,0.38460075958435186,-0.15331152704717507,0.2231732446623541,0.0,1.8840961661063447,1.7177101905969483,85.56325389481756,85.33867443009451,0.0
0.12,0.3838301931461407,-0.15340802030799594,0.23135104003684692,0.0,1.8827993355188126,1.7191903564550857,85.54267355045454,85.33867443009451,0.0
0.121,0.383390788835625,-0.15348932250953398,0.23960122101475967,0.0,1.881788182885409,1.7212591934322563,85.52394854964854,85.33867443009451,0.0
0.122,0.3832828368262614,-0.15355922825986396,0.24711098022221967,0.0,1.8810919058235838,1.7237710838293352,85.50573198158959,85.33867443009451,0.0
0.123,0.3834423812517842,-0.1535832195680973,0.254548688736742,0.0,1.8807183854940512,1.7266865784181458,85.48684264903041,85.33867443009451,0.0
0.124,0.3838349234868524,-0.1535406969710426,0.26251167282697485,0.0,1.8806688492575936,1.7300331384783,85.4666297192657,85.33867443009451,0.0
0.125,0.38446286744257174,-0.1534321449363786,0.2713385848176182,0.0,1.8809474071529562,1.733866270974083,85.443845808437,85.33867443009451,0.0
0.126,0.38535012943811947,-0.1532705782471342,0.28167882644853975,0.0,1.8815647356928895,1.7383017840893662,85.41379407036293,85.33867443009451,0.0
0.127,0.38655145401405905,-0.15308245280046612,0.2959534990828949,0.0,1.8825448045581166,1.7436990172371865,85.3539986838981,85.33867443009451,0.0
0.128,0.38824579644154916,-0.15291653094176247,0.3256979497772728,0.0,1.8839502197016131,1.7516093123855203,85.30481500730711,85.33867443009451,0.0
0.129,0.3913525808198692,-0.152693966049688,0.3506283823006394,0.0,1.8859832999260526,1.7609892197466577,85.54214496185253,85.33867443009451,0.0
0.13,0.3951331186141384,-0.1530542942667644,0.22992869971035124,0.0,1.8887929246169592,1.7557233836703723,85.55490861921194,85.33867443009451,0.0
0.131,0.39276711083946747,-0.15071328463698042,0.22138452913946965,0.0,1.8905338888897005,1.7518302979670695,85.30325979227405,85.33867443009451,0.0
0.132,0.3896986400348721,-0.14751143465075725,0.347563088986622,0.0,1.8913826547626513,1.762779572261025,85.15206273231631,85.33867443009451,0.0
0.133,0.39283821300277316,-0.14714773150783933,0.42502773594327314,0.0,1.8932334826318433,1.7796020835451256,85.24296804843588,85.33867443009451,0.0
0.134,0.4003655710266424,-0.14818554591225216,0.38053214170007227,0.0,1.8966992754584409,1.7884616509984692,85.41605886232922,85.33867443009451,0.0
