timestamp,iq,id,iq_ref,id_ref,vq,vd,omega,omega_ref,r
0.0,0.0,0.0,0.0,0.0,0.0,0.0,0.0,281.38879334013274,0.0
0.001,0.0,0.0,10.0,0.0,0.0,1.0999999999999999,6.139928471192084,281.38879334013274,0.0
0.002,0.36220565011136874,-0.20819387879864834,10.0,0.0,0.13290132666785123,1.950157378487749,13.270269557063147,281.38879334013274,0.0
0.003,0.7143922331010472,-0.4093025003021873,10.0,0.0,0.3575682680950951,2.693470684165758,20.837064081366094,281.38879334013274,0.0
0.004,1.0109762607584565,-0.5779650555576034,10.0,0.0,0.6506416408104759,3.3558169762062713,28.719324098118538,281.38879334013274,0.0
0.005,1.2525121855765355,-0.7149513831643098,10.0,0.0,0.9940241759425534,3.9576328648608583,36.82597509137959,281.38879334013274,0.0
0.006,1.449268223466611,-0.8262356861059578,10.0,0.0,1.3741214564743958,4.514377613243465,45.07058475469483,281.38879334013274,0.0
0.007,1.6116162334432558,-0.9177759756177741,10.0,0.0,1.7808400726081985,5.037566894122467,53.34220267502626,281.38879334013274,0.0
0.008,1.7479765758033605,-0.9944300069080405,10.0,0.0,2.206722295763332,5.535732950967103,61.75234860541852,281.38879334013274,0.0
0.009000000000000001,1.8648209803515032,-1.0598136555596123,10.0,0.0,2.646258563326186,6.015181343366095,70.16311235320264,281.38879334013274,0.0
0.01,1.9670138064028546,-1.116552722054886,10.0,0.0,3.0953735042006185,6.480565756461304,78.49012363609917,281.38879334013274,0.0
0.011,2.058178056018606,-1.1665394612562632,10.0,0.0,3.551046542944327,6.935317083137216,86.86318827037363,281.38879334013274,0.0
0.012,2.1409142813567326,-1.2112860807169308,10.0,0.0,4.011049671229915,7.381971238728872,95.3223802253195,281.38879334013274,0.0
0.013000000000000001,2.217365130856118,-1.2515212270940501,10.0,0.0,4.473696302152987,7.82237806039837,103.49733281304526,281.38879334013274,0.0
0.014,2.289160082780256,-1.28770689043982,10.0,0.0,4.937697023654965,8.257875926776565,111.50052068915345,281.38879334013274,0.0
0.015,2.3575043144068175,-1.3202004076217653,10.0,0.0,5.40205988990112,8.689424162707457,119.60341673156842,281.38879334013274,0.0
0.016,2.423389462579965,-1.349132045973991,10.0,0.0,5.865998838162676,9.117689937687095,127.55575125601759,281.38879334013274,0.0
0.017,2.487691205687137,-1.3744152632324491,10.0,0.0,6.328862306610946,9.54310868973487,135.43166316805073,281.38879334013274,0.0
0.018000000000000002,2.55108912957213,-1.3960122803124453,10.0,0.0,6.790104143125385,9.965941159226412,143.07353775513414,281.38879334013274,0.0
0.019,2.6143810004448134,-1.4135046203994455,10.0,0.0,7.2492132301763,10.3862864388631,150.47154739564857,281.38879334013274,0.0
0.02,2.6782256393477475,-1.426595031395721,10.0,0.0,7.7057109582945165,10.804118107670618,157.3918140707788,281.38879334013274,0.0
0.021,2.743452608772177,-1.4346488604805379,10.0,0.0,8.15909709757103,11.219279862161548,164.54359223586795,281.38879334013274,0.0
0.022,2.81010009951261,-1.4383169271576877,10.0,0.0,8.608983747412621,11.63158510084383,171.37126250497357,281.38879334013274,0.0
0.023,2.878931865118808,-1.4370725386217265,10.0,0.0,9.054938692732554,12.040743461332767,177.88626752032613,281.38879334013274,0.0
0.024,2.950557513396512,-1.4306509342991922,10.0,0.0,9.49652004697927,12.446390976650319,184.0034604815122,281.38879334013274,0.0
0.025,3.0257114124763347,-1.4186059072636508,10.0,0.0,9.933247280402384,12.848081203444778,189.82742035867864,281.38879334013274,0.0
0.026000000000000002,3.104798676526916,-1.401053855494355,10.0,0.0,10.364660537738366,13.245327070847342,195.415566755081,281.38879334013274,0.0
0.027,3.187687063303608,-1.3790219483944859,10.0,0.0,10.790409066817713,13.637662827338318,200.487542502483,281.38879334013274,0.0
0.028,3.2763723927135144,-1.3500426255802245,10.0,0.0,11.209848912199654,14.024413358720802,205.22430294238723,281.38879334013274,0.0
0.029,3.3684412849106877,-1.3188313062764765,10.0,0.0,11.622876374286378,14.405192096655648,209.65868141885514,281.38879334013274,0.0
0.03,3.469129576465482,-1.277581724546792,10.0,0.0,12.028453623160685,14.779040683856625,214.1287237136476,281.38879334013274,0.0
0.031,3.570398860413274,-1.240121097027757,10.0,0.0,12.427149832657868,15.145929398906228,214.9166471275208,281.38879334013274,0.0
0.032,3.6822128901574276,-1.1908661109827121,10.0,0.0,12.817621850520524,15.50471201296821,219.08886993927888,281.38879334013274,0.0
0.033,3.7975462790018133,-1.1416767148403957,10.0,0.0,13.200006644287907,15.855095034934807,219.2786322430335,281.38879334013274,0.0
0.034,3.924791147758148,-1.07914097270795,10.0,0.0,13.572804223202068,16.195834632406743,219.96023934665686,281.38879334013274,0.0
0.035,4.043011655467563,-1.038486731345136,10.0,0.0,13.938549394843422,16.52804822086243,222.279989311844,281.38879334013274,0.0
0.036000000000000004,4.184876694946487,-0.9656897637627027,10.0,0.0,14.29334028414577,16.84919201837109,221.12220039489472,281.38879334013274,0.0
0.037,4.316492733351001,-0.9169432252782761,10.0,0.0,14.64013231471128,17.160641411229417,230.04208466844557,281.38879334013274,0.0
0.038,4.438666449714347,-0.8913047496545605,10.0,0.0,14.981057314572316,17.463502119442527,235.17363340372628,281.38879334013274,0.0
0.039,4.496628051139976,-0.9698546166002393,10.0,0.0,15.327072755388823,17.76501521782726,248.2814776330506,281.38879334013274,0.0
0.04,4.559500367503257,-1.0331194189376105,10.0,0.0,15.674811591549798,18.064642211669458,258.3491167796358,281.38879334013274,0.0
0.041,4.591983270858094,-1.1405792157988681,10.0,0.0,16.02892717311026,18.366135993538133,264.5330511488748,281.38879334013274,0.0
0.042,4.636299967418661,-1.2188006057093377,10.0,0.0,16.385310329623092,18.66834194778787,280.37138703460994,281.38879334013274,0.0
0.043000000000000003,4.655721396638814,-1.3300966628433641,5.5656215928841615,0.0,16.74773611829525,18.486490807232563,283.91160864206387,281.38879334013274,0.0
0.044,4.499275213989211,-1.3698007999081523,3.7702826361378854,0.0,17.058988708550437,18.22332715281273,288.8585341116953,281.38879334013274,0.0
0.045,4.2866522288476,-1.357130624443131,1.2221224936065482,0.0,17.311008913666328,17.7770849632885,298.7481035226093,281.38879334013274,0.0
0.046,3.996581517762716,-1.3159293105383254,-3.896255313675227,0.0,17.488797436543333,16.892910604220525,301.7191168277414,281.38879334013274,0.0
0.047,3.5361255895458976,-1.2206647309183463,-5.5850652011173585,0.0,17.55032258060669,16.028096668794223,300.0294919545195,281.38879334013274,0.0
0.048,3.069273363227743,-1.0993003742245127,-4.926659750650261,0.0,17.506816383280952,15.39197852535552,299.44180644018485,281.38879334013274,0.0
0.049,2.696696304274307,-1.0134837020151073,-4.81334712448347,0.0,17.39582280096782,14.85731686512349,298.5525493412141,281.38879334013274,0.0
0.05,2.3966913192102015,-0.9532753674839873,-4.540356135008911,0.0,17.236697660786476,14.423192673031396,297.0161582416819,281.38879334013274,0.0
0.051000000000000004,2.1606028504238544,-0.913128683602251,-3.9284342342583125,0.0,17.046258563532376,14.104119567034056,294.91861168948105,281.38879334013274,0.0
0.052000000000000005,1.9885146912197231,-0.8921919946774248,-3.0149591416513615,0.0,16.841054496461034,13.908841715914889,292.38582888160124,281.38879334013274,0.0
0.053,1.880757432244177,-0.8901111339459167,-1.8585380931261408,0.0,16.636823523193698,13.840775224507484,290.92696832988037,281.38879334013274,0.0
0.054,1.8343752883871298,-0.9086464173506817,-1.2244895671631797,0.0,16.448268687894192,13.821297875519274,289.94874040676683,281.38879334013274,0.0
0.055,1.8217205188527106,-0.9305746537150191,-0.8209750762727523,0.0,16.27884835439185,13.82388708984847,288.11712381833695,281.38879334013274,0.0
0.056,1.8265949165619706,-0.9464359861367511,0.02754991316014621,0.0,16.128154439875395,13.897915221879856,286.4536591556516,281.38879334013274,0.0
0.057,1.8608361231033597,-0.9637693226016711,0.8086335863476211,0.0,16.00168078370066,14.023187314670299,285.023533564418,281.38879334013274,0.0
0.058,1.9200880506778986,-0.9810848501315172,1.4873489797215704,0.0,15.902113077086074,14.183957389135697,283.57481991607307,281.38879334013274,0.0
0.059000000000000004,1.9977742319735288,-0.9954219767120934,2.189845538134642,0.0,15.829983077228055,14.381228192318021,282.0384082240788,281.38879334013274,0.0
0.06,2.092416102488325,-1.0069228732007396,2.9515552352923113,0.0,15.785914885022006,14.618688272355847,279.99450838496324,281.38879334013274,0.0
0.061,2.204800603257613,-1.0168611866075092,3.9874480044017906,0.0,15.77097772555021,14.922910756420285,276.44729143732985,281.38879334013274,0.0
0.062,2.3453747197177885,-1.0278086097569161,5.810471497246513,0.0,15.7890613638444,15.371051624849995,272.2182091510926,281.38879334013274,0.0
0.063,2.5404464399664195,-1.055163444926508,8.016718482255543,0.0,15.853050282789306,15.980591555625953,273.51468427529664,281.38879334013274,0.0
0.064,2.8063060587898234,-1.0947201724508078,7.447222010801879,0.0,15.975671994593295,16.42357546264072,276.4142610274532,281.38879334013274,0.0
0.065,3.027414818852866,-1.105464577669892,6.047178957850386,0.0,16.131116243217214,16.664550011605584,278.20924506831733,281.38879334013274,0.0
0.066,3.1690065562406784,-1.0712960041976534,5.181482420136486,0.0,16.291247534741103,16.80238133840531,274.7000954075873,281.38879334013274,0.0
0.067,3.257846352572514,-1.0121739578110869,7.002944229826956,0.0,16.44298709042476,17.14310396589792,266.6698971397176,281.38879334013274,0.0
0.068,3.4240354933778145,-0.9538308973976382,10.0,0.0,16.607798437107707,17.758997395306505,273.12135257775356,281.38879334013274,0.0
0.069,3.69631346829948,-0.9540690882144698,7.998874367856452,0.0,16.818327623657197,18.05139955337167,271.2194513530221,281.38879334013274,0.0
0.07,3.8794195185644624,-0.9255092597031725,9.051518400093274,0.0,17.033900144313844,18.453997628372814,266.46779391271207,281.38879334013274,0.0
0.07100000000000001,4.109016108573177,-0.8610199340798124,10.0,0.0,17.26136699287149,18.908275119208582,267.45335627306923,281.38879334013274,0.0
0.07200000000000001,4.342707886277447,-0.8435109344713282,10.0,0.0,17.510233808956254,19.306976600170085,266.6905707093594,281.38879334013274,0.0
0.073,4.588337724331794,-0.7841433408653163,10.0,0.0,17.76772874622811,19.666012250234974,267.24919592393775,281.38879334013274,0.0
0.074,4.776450813092109,-0.7950425431256246,10.0,0.0,18.037170342963957,19.996657687637484,284.0631021120669,281.38879334013274,0.0
0.075,4.894057205497811,-0.8878486658285398,3.0601204747534574,0.0,18.322832005241192,19.546740420919164,281.3348219027202,281.38879334013274,0.0
0.076,4.70884737123744,-0.8961825495886107,4.424800293800922,0.0,18.53492444060545,19.411443768140796,298.01199176774054,281.38879334013274,0.0
0.077,4.5622546635365735,-0.9341124286721998,-4.080016622985329,0.0,18.716366915017048,18.37598246464422,292.314582114307,281.38879334013274,0.0
0.078,4.111879191052747,-0.8531920519452617,-1.3405696840102879,0.0,18.766838471407016,17.89667424628979,296.3679878818261,281.38879334013274,0.0
0.079,3.798668029888381,-0.824473184046908,-3.5170645131867757,0.0,18.761982178621,17.233484577813876,300.9184224451691,281.38879334013274,0.0
0.08,3.452782912416801,-0.8036744726316672,-5.987578085908641,0.0,18.6892918786893,16.421051953509544,300.1229581422301,281.38879334013274,0.0
0.081,3.064486943256774,-0.7486866008941423,-5.777187582460131,0.0,18.536786667543367,15.769695358181911,300.4873758620206,281.38879334013274,0.0
0.082,2.73004514278918,-0.7153537433403646,-6.15038226757425,0.0,18.331279582365713,15.157974219235253,300.02495932332494,281.38879334013274,0.0
0.083,2.4321344513165912,-0.691383608003826,-6.10553565805834,0.0,18.08284770549969,14.624965317620692,298.6893353113744,281.38879334013274,0.0
0.084,2.1783295140304153,-0.678531199279429,-5.610729071795492,0.0,17.804784062552486,14.19933381306149,296.8758189405669,281.38879334013274,0.0
0.085,1.9786058676705829,-0.6805694984345364,-4.858841142396074,0.0,17.51231637043839,13.885650252761517,294.7715439210825,281.38879334013274,0.0
0.08600000000000001,1.8351210393142503,-0.6974660752451171,-3.9405311384633905,0.0,17.219565331963324,13.68136959507433,293.0198882908076,281.38879334013274,0.0
0.08700000000000001,1.7448094100518956,-0.7286674045123075,-3.181014272832684,0.0,16.938924512018325,13.5511050854237,290.7065769752101,281.38879334013274,0.0
0.088,1.694282091860945,-0.7650014394047965,-2.117536451384707,0.0,16.677006053648267,13.519845225154986,288.38424194621354,281.38879334013274,0.0
0.089,1.6866870912067433,-0.809225947022039,-1.0263234229472267,0.0,16.44265481057731,13.575248336879836,287.3678337371714,281.38879334013274,0.0
0.09,1.7165605128741586,-0.8607968664510437,-0.5779097223965435,0.0,16.242509559046965,13.636727363511348,286.1906851655864,281.38879334013274,0.0
0.091,1.75627195264168,-0.9028861936586294,-0.03735435485857597,0.0,16.072640852131336,13.722951391592588,284.7226815679355,281.38879334013274,0.0
0.092,1.8055979880342776,-0.9354591867313286,0.6633085616888277,0.0,15.931543554681328,13.850204763823468,283.4117296285721,281.38879334013274,0.0
0.093,1.870216449161648,-0.9624516549097155,1.298555168486137,0.0,15.819924765768292,14.0068787962984,282.10997661411875,281.38879334013274,0.0
0.094,1.9479692712002206,-0.9833573827275964,1.942219842972961,0.0,15.737164964372239,14.193267568947144,280.7415919045243,281.38879334013274,0.0
0.095,2.038631217543209,-0.9988992841107099,2.632884212126278,0.0,15.682820572254638,14.413082632176067,279.0982953007718,281.38879334013274,0.0
0.096,2.143470753597872,-1.0108025090354178,3.4774374943961397,0.0,15.657046061399567,14.680850237725899,276.3021660871725,281.38879334013274,0.0
0.097,2.268264371241536,-1.021598819715475,4.926368373725378,0.0,15.661694324110549,15.057521592958508,272.5091722326811,281.38879334013274,0.0
0.098,2.4336332290419733,-1.0435763926325072,6.911661512045587,0.0,15.705854465987763,15.583940937179271,271.1573402790557,281.38879334013274,0.0
0.099,2.664968799933581,-1.072478638800237,7.689892019469075,0.0,15.801199999448617,16.10409356137899,272.71957776864525,281.38879334013274,0.0
0.1,2.905333642040115,-1.0966409729170756,6.995465430389168,0.0,15.94139507627453,16.473469469708995,275.7370237271152,281.38879334013274,0.0
0.101,3.093731637599445,-1.0904638675864895,5.543260147284383,0.0,16.10358713132332,16.648808848547404,274.9246870695984,281.38879334013274,0.0
0.10200000000000001,3.204113064842655,-1.0442045602075973,6.01406953874811,0.0,16.2620671659927,16.87888660385774,268.2267612539613,281.38879334013274,0.0
0.10300000000000001,3.3251684332400373,-0.9860892150434348,9.494652767428384,0.0,16.421776877831903,17.467748372092892,270.2590729456663,281.38879334013274,0.0
0.10400000000000001,3.5824564560931647,-0.9687895323367226,8.589794125520553,0.0,16.62307998366461,17.852263522961934,271.8720054700796,281.38879334013274,0.0
0.105,3.789769940803779,-0.9517289490872194,7.878495742014416,0.0,16.84100062667057,18.129031630471093,263.20776638596,281.38879334013274,0.0
0.106,3.9699606229326436,-0.8854971535848071,10.0,0.0,17.057691124454074,18.622645603556347,269.4424669584785,281.38879334013274,0.0
0.107,4.210051472105865,-0.8613001437785894,9.346690020100914,0.0,17.3000746166441,18.970880002154892,261.22960519376073,281.38879334013274,0.0
0.108,4.432549696212316,-0.8006462610929663,10.0,0.0,17.546613242477612,19.364852611540513,262.968829417186,281.38879334013274,0.0
0.109,4.65456750114864,-0.7664146764542643,10.0,0.0,17.80473633118295,19.715351746469995,274.47248685497857,281.38879334013274,0.0
0.11,4.815251951698006,-0.8139211812024281,7.155616280601909,0.0,18.077665055879375,19.728275956132208,278.36389029335027,281.38879334013274,0.0
0.111,4.795079489373912,-0.898110645867078,5.240163591883885,0.0,18.333379105138015,19.588770474093984,291.1425749775459,281.38879334013274,0.0
0.112,4.696062529614759,-0.9326613398221737,-1.246716566588066,0.0,18.552529882955383,18.80507479559097,290.0367690165764,281.38879334013274,0.0
0.113,4.334046306529692,-0.897245239456429,-0.780293342867743,0.0,18.66715473716092,18.276670733855724,293.9349427023627,281.38879334013274,0.0
0.114,4.023105162369521,-0.8591541901620519,-2.8548416793832088,0.0,18.713640845353666,17.610288378087425,300.102113042032,281.38879334013274,0.0
0.115,3.6676864061361836,-0.8352280993845765,-6.125560046236837,0.0,18.68658914765772,16.71214598347054,297.95998489411613,281.38879334013274,0.0
0.116,3.2425406452130936,-0.7614756270292224,-5.220207887818742,0.0,18.564554869218373,16.076620425779485,299.08955909931274,281.38879334013274,0.0
0.117,2.8996622717115805,-0.7258977753273996,-5.962002648008845,0.0,18.387995423890203,15.435258214284445,299.21951517870923,281.38879334013274,0.0
0.11800000000000001,2.5843599045262584,-0.6988748559120851,-6.205287906092856,0.0,18.162338959326682,14.852287325274123,298.31924690349206,281.38879334013274,0.0
0.11900000000000001,2.305198559421109,-0.6792323193376816,-5.924458304117863,0.0,17.899060602489453,14.365926711796284,296.68079335747706,281.38879334013274,0.0
0.12,2.0756209933934016,-0.6722786555409342,-5.258151531283806,0.0,17.61290554233627,13.994821691786496,294.73321586912965,281.38879334013274,0.0
0.121,1.9030910389237399,-0.6816364873562302,-4.417807012400072,0.0,17.319354384335064,13.734669016442622,292.77017792414006,281.38879334013274,0.0
0.122,1.785822349391971,-0.7060860112916,-3.5501018857453484,0.0,17.03173894391433,13.56939486788,290.96730913966735,281.38879334013274,0.0
0.123,1.7159492524167639,-0.7413701487323964,-2.744452651504341,0.0,16.759994392558546,13.478344308403491,288.3588884118675,281.38879334013274,0.0
0.124,1.683947594613123,-0.780471331754361,-1.5099432383217621,0.0,16.5102675291487,13.499785344235368,286.6855863625469,281.38879334013274,0.0
0.125,1.6973071760245333,-0.8310240963838537,-0.7262601438856198,0.0,16.292827247942046,13.566180065865932,286.05533790811967,281.38879334013274,0.0
0.126,1.7348865349628355,-0.8810861705172321,-0.4578013623518591,0.0,16.108771767527493,13.62188478856803,284.56713184243085,281.38879334013274,0.0
0.127,1.773683706593381,-0.9167099691522763,0.2545182854695669,0.0,15.952110304533122,13.725392169113501,283.1800414739205,281.38879334013274,0.0
0.128,1.827822261930545,-0.9464762187832249,0.930150988386875,0.0,15.824383775365787,13.864511796776894,281.91897496908695,281.38879334013274,0.0
0.129,1.8970245871668396,-0.9709518846344048,1.555382424514101,0.0,15.725736522628853,14.031895069479425,280.63746534766204,281.38879334013274,0.0
0.13,1.9790028035293201,-0.9895885766057708,2.203650515151259,0.0,15.6554976018942,14.229406884699301,279.2425651868281,281.38879334013274,0.0
0.131,2.073977497104911,-1.0034129749005227,2.922562877101291,0.0,15.61336807164771,14.463113871102177,277.3731642523134,281.38879334013274,0.0
0.132,2.184126067669034,-1.0144978063520727,3.8974196352368136,0.0,15.599903280542875,14.75811572978922,273.9935772026553,281.38879334013274,0.0
0.133,2.3197675193814415,-1.0256417105708333,5.6611653214406585,0.0,15.618400135566786,15.192715307415424,269.84145025912136,281.38879334013274,0.0
0.134,2.5073663092502714,-1.0531016551580503,7.8527022240177295,0.0,15.681416417713322,15.789856762834386,270.81903616318385,281.38879334013274,0.0
0.135,2.7662667070361113,-1.091947063886769,7.469606843755972,0.0,15.801843612701393,16.24292678421379,273.694594949222,281.38879334013274,0.0
0.136,2.987935874683928,-1.1056551744761869,6.108769434646009,0.0,15.956654528406148,16.495076757291187,275.5992489104103,281.38879334013274,0.0
0.137,3.132041237507169,-1.075148104036884,5.214337898349068,0.0,16.117706490993942,16.639078831495667,273.50476648896824,281.38879334013274,0.0
0.138,3.22206808483987,-1.0182917867119186,6.340419377581753,0.0,16.27110434054206,16.90913727303868,265.12692665893144,281.38879334013274,0.0
0.139,3.359744844795425,-0.9551453391760003,10.0,0.0,16.429790703233962,17.5445785339341,270.3919067168643,281.38879334013274,0.0
0.14,3.633236237709728,-0.9539216006577964,8.155597637490178,0.0,16.636649408984574,17.864156953287896,270.4790878117992,281.38879334013274,0.0
