timestamp,iq,id,iq_ref,id_ref,vq,vd,omega,omega_ref,r
0.0,0.0,0.0,0.0,0.0,0.0,0.0,0.0,60.71767768630759,0.0
0.001,0.0,0.0,10.0,0.0,0.0,1.0999999999999999,12.526077449813753,60.71767768630759,0.0
0.002,0.5135460713898273,-0.3065222352059594,10.0,0.0,0.14371744587265553,1.9335099321471183,26.514325612085855,60.71767768630759,0.0
0.003,1.0888675156221805,-0.6334111581805111,10.0,0.0,0.3893066995478984,2.6398907175151303,40.01960572748646,60.71767768630759,0.0
0.004,1.5998676183919058,-0.9217975116008298,10.0,0.0,0.7094287160389078,3.2497355528515186,53.77866232903892,60.71767768630759,0.0
0.005,2.015899118546803,-1.1568381829356158,4.283686719735896,0.0,1.081493624727078,3.1611601814849766,60.520281971072556,60.71767768630759,0.0
0.006,2.051688541559564,-1.166682851059704,0.9148508558714296,0.0,1.4062270121900793,2.805463504371602,62.41607408888995,60.71767768630759,0.0
0.007,1.810306426763503,-1.0210900531172433,-0.050029167063090685,0.0,1.6468037387405312,2.472271316689405,63.20596177150772,60.71767768630759,0.0
0.008,1.4841140115258273,-0.8299901811727164,-0.4698558492239755,0.0,1.8104385159332448,2.1933912301503056,62.96020062854955,60.71767768630759,0.0
0.009000000000000001,1.170031150227194,-0.6440122964361223,-0.3694005071673121,0.0,1.9112752381511975,2.0052981750227015,62.044349162708144,60.71767768630759,0.0
0.01,0.919312814304994,-0.497699374901926,0.07525851098938552,0.0,1.9689843401131986,1.9184442245447797,61.45152670932203,60.71767768630759,0.0
0.011,0.7546530409582354,-0.40294331733288435,0.3643312474522973,0.0,2.003277099713955,1.8890033818491243,62.060602678259706,60.71767768630759,0.0
0.012,0.6600489659903749,-0.34922250996593895,0.046364013063939225,0.0,2.0262347708503965,1.8368286267487588,62.627169858865734,60.71767768630759,0.0
0.013000000000000001,0.5890891760132994,-0.3064118605919908,-0.25601449896465667,0.0,2.0375072360056916,1.7689446864406118,61.987011532312636,60.71767768630759,0.0
0.014,0.5248625020661094,-0.26463569679178933,0.05137132585184234,0.0,2.0366967890903607,1.75216794876333,61.2615293959465,60.71767768630759,0.0
0.015,0.48905894106046194,-0.2419412141696241,0.4086738769385192,0.0,2.0322110816483985,1.7765133875047616,60.81226563192233,60.71767768630759,0.0
0.016,0.4851968157408211,-0.23972983073857293,0.6323598794944587,0.0,2.0305921814735814,1.819074944573245,61.43250521022186,60.71767768630759,0.0
0.017,0.5027896382495073,-0.25040838835457113,0.31509181510554973,0.0,2.034588082195165,1.8181082770799066,61.946104027599844,60.71767768630759,0.0
0.018000000000000002,0.5087266462074531,-0.25208897918765666,0.04600814300363609,0.0,2.0381658055107352,1.7907342004704523,62.13150398590882,60.71767768630759,0.0
0.019,0.49848077043706945,-0.2412839293012565,-0.06083009914686488,0.0,2.0374429874379696,1.7585803503522859,61.153925090200644,60.71767768630759,0.0
0.02,0.4791540265213116,-0.2266126363266598,0.4235968746682931,0.0,2.03207127443232,1.7859484360528612,60.585802152688295,60.71767768630759,0.0
0.021,0.4844909136349944,-0.2280099171345081,0.7089770987606607,0.0,2.030273955115904,1.835809771773161,60.9883991986698,60.71767768630759,0.0
0.022,0.509199663276865,-0.24274316408696855,0.5049713606462843,0.0,2.0352491856598505,1.852546214966815,61.57960738533381,60.71767768630759,0.0
0.023,0.526178418277439,-0.25086935570766844,0.2007479703240196,0.0,2.0421470860775206,1.8350614457875478,62.1268035026536,60.71767768630759,0.0
0.024,0.5239664773782189,-0.2457356060837016,-0.08694134649933694,0.0,2.0459607451606536,1.791824453669548,61.44259704515944,60.71767768630759,0.0
0.025,0.5029784343225672,-0.22775212996233957,0.24791268865922622,0.0,2.043142494246564,1.7952899290344662,60.87484569084765,60.71767768630759,0.0
0.026000000000000002,0.4963111182829066,-0.22016423113920985,0.5302166857697197,0.0,2.0402977818510433,1.8263554554358592,60.208303645753766,60.71767768630759,0.0
0.027,0.5082217062110649,-0.22507978445030724,0.8685814487221999,0.0,2.0414606831876663,1.8870502040787345,61.034692334958415,60.71767768630759,0.0
0.028,0.5404609902317514,-0.2430232070530065,0.45221695763336733,0.0,2.050501390208101,1.8891808109786945,61.56239619787218,60.71767768630759,0.0
0.029,0.5533629801192537,-0.24707278631804336,0.17991784106083752,0.0,2.0591171067096155,1.8651163439311929,61.971314268775586,60.71767768630759,0.0
0.03,0.5463354589331347,-0.23770796359230095,-0.037077560215544425,0.0,2.0633941785637457,1.8240754394932646,61.29471588249283,60.71767768630759,0.0
0.031,0.5241658897673604,-0.21886283564696107,0.29545125096398084,0.0,2.061160136941941,1.828682833323427,60.79345016370232,60.71767768630759,0.0
0.032,0.5178831661343934,-0.21057731311723443,0.5453263855852902,0.0,2.058887282666515,1.857236464212911,60.22641520827867,60.71767768630759,0.0
0.033,0.5290168278625197,-0.21407120885221936,0.8337564880774049,0.0,2.060164260663726,1.9106484764874,60.72942859655331,60.71767768630759,0.0
0.034,0.5580704114176012,-0.228756851370088,0.5821322848376249,0.0,2.0682352238082813,1.9251994643790864,61.145219823856465,60.71767768630759,0.0
0.035,0.5756927249424836,-0.23519775478548216,0.3699612498105598,0.0,2.0775158323780643,1.9166319593232939,61.44690602610357,60.71767768630759,0.0
0.036000000000000004,0.5774684832662873,-0.2316385759754009,0.21182586528904768,0.0,2.0845557108820265,1.894556973402594,61.96964889792169,60.71767768630759,0.0
0.037,0.5674825202129669,-0.21962688897301885,-0.06206528273615197,0.0,2.0873984091613607,1.8479630150059057,61.072792486310206,60.71767768630759,0.0
0.038,0.5423653597893342,-0.19812076993020117,0.3828117750695621,0.0,2.0830518855484073,1.8606511381317676,60.518944371893625,60.71767768630759,0.0
0.039,0.5394486560089657,-0.19122725006127939,0.6617231654219925,0.0,2.079865600614182,1.8979369447560626,59.97762624989037,60.71767768630759,0.0
0.04,0.5573720217001628,-0.19650163318019667,0.9397827407877918,0.0,2.0813756421775786,1.9569722443473831,60.236696847307286,60.71767768630759,0.0
0.041,0.5920403691140705,-0.21351396723466268,0.8150572504693372,0.0,2.0904568224585707,1.9901203338886053,60.71212807316265,60.71767768630759,0.0
0.042,0.6208318018472674,-0.2254940532003801,0.5773971336731032,0.0,2.103092379781269,1.9931460004328911,60.9423857809133,60.71767768630759,0.0
0.043000000000000003,0.6321686410170019,-0.22670498496191363,0.4600211988517233,0.0,2.114780349660238,1.9856387664112907,61.079545034946285,60.71767768630759,0.0
0.044,0.6315997078459324,-0.2205257349177326,0.38782289834884276,0.0,2.123856972326675,1.9734589501131579,61.244695051754285,60.71767768630759,0.0
0.045,0.624370117520739,-0.21074841349664805,0.2999777162903762,0.0,2.129794238240777,1.9552533562941403,61.45593466920204,60.71767768630759,0.0
0.046,0.6129237414164326,-0.19757614047530977,0.18697533773755548,0.0,2.131966041363431,1.9290970440964315,60.908764102671576,60.71767768630759,0.0
0.047,0.5972116410378717,-0.18129404555406958,0.4586497568391462,0.0,2.1296457252429257,1.9384016205980603,60.60458595546997,60.71767768630759,0.0
0.048,0.5969517204704559,-0.1747451382830852,0.6118697477483245,0.0,2.127930339534038,1.9605526329050997,60.42729377691136,60.71767768630759,0.0
0.049,0.6092688272956842,-0.17539654179199876,0.7034196761215913,0.0,2.1287387370854334,1.9874978166660646,60.118865444908806,60.71767768630759,0.0
0.05,0.6289056660495977,-0.1792915533504288,0.8636219645368572,0.0,2.132582750494123,2.0264991930533407,59.773294023922055,60.71767768630759,0.0
0.051000000000000004,0.6556408267900261,-0.18859874691499115,1.0458515116540879,0.0,2.1409273413771897,2.0776835611475932,60.14212769600872,60.71767768630759,0.0
0.052000000000000005,0.690055374990749,-0.20234539582676936,0.8671901755137438,0.0,2.154974969426025,2.099590660379442,60.40892484964286,60.71767768630759,0.0
0.053,0.7130524247257071,-0.208457039273597,0.7368791270633226,0.0,2.1703433588831946,2.105978680536008,60.56082882112854,60.71767768630759,0.0
0.054,0.7236333503717244,-0.2070245185722275,0.662495629972273,0.0,2.1845950176986846,2.1054517321034103,60.66428156587436,60.71767768630759,0.0
0.055,0.7261153080548872,-0.2006950622617314,0.6113032188036938,0.0,2.1966869008022254,2.1013481080493013,60.646672014948464,60.71767768630759,0.0
0.056,0.7240627330447198,-0.1918528461682007,0.6208180509802336,0.0,2.2062498839828177,2.1006731931900124,60.56685035599035,60.71767768630759,0.0
0.057,0.7224283015721376,-0.18331115809862097,0.6622371537624646,0.0,2.2139379138327033,2.105642282830874,60.486906896496386,60.71767768630759,0.0
0.058,0.724216184751323,-0.1766597256196295,0.7045165914075573,0.0,2.220707808969694,2.1149068021413386,60.34049026480984,60.71767768630759,0.0
0.059000000000000004,0.7297882606879329,-0.17208872602474165,0.7814967814658091,0.0,2.227290870893383,2.1313718360431784,60.34947110215187,60.71767768630759,0.0
0.06,0.7405822365776757,-0.17010119710270402,0.7806884286363515,0.0,2.234689211829413,2.1448583354468744,60.3871719149818,60.71767768630759,0.0
0.061,0.7520189207880015,-0.1683262977512766,0.7651430799346433,0.0,2.2425210049727724,2.154884018670672,60.40805868063947,60.71767768630759,0.0
0.062,0.7620360020738826,-0.16568963463331549,0.7577958871624887,0.0,2.2502999031747137,2.1630500630691616,60.395397731039985,60.71767768630759,0.0
0.063,0.7706666094749526,-0.16219405668686282,0.7673491615149075,0.0,2.25775936905338,2.171452528953226,60.38625637377793,60.71767768630759,0.0
0.064,0.7789849456893105,-0.1584263145651328,0.7752340532712303,0.0,2.2649336390786607,2.1797037892768527,60.4058912058544,60.71767768630759,0.0
0.065,0.7872295573576102,-0.1545741051573447,0.7685345020375272,0.0,2.2718295425201367,2.186207827096005,60.46024610792206,60.71767768630759,0.0
0.066,0.7947098493052634,-0.1503691639760013,0.7439313667875536,0.0,2.278262237963511,2.1893713161146717,60.533786913796035,60.71767768630759,0.0
0.067,0.8004004432235386,-0.14537088132903475,0.7089998715756816,0.0,2.2838602510850605,2.1887141302434676,60.61140235575129,60.71767768630759,0.0
0.068,0.8034603901650275,-0.1398003304453912,0.6712549039036182,0.0,2.2882699665366038,2.18460014455535,60.54309673200284,60.71767768630759,0.0
0.069,0.8039964376643653,-0.133578068788253,0.7071535253208912,0.0,2.2911985686007323,2.1856364612583077,60.26815432500594,60.71767768630759,0.0
0.07,0.8063982867334643,-0.1285908295323373,0.8491199624323574,0.0,2.293451568427164,2.2018604854428627,59.92710033637641,60.71767768630759,0.0
0.07100000000000001,0.81726828510911,-0.12771895281776663,1.0275527302464318,0.0,2.297055636643365,2.2337236659494093,59.41182311467977,60.71767768630759,0.0
0.07200000000000001,0.8393707088042163,-0.13146065493677733,1.2982498868110315,0.0,2.3039059220888376,2.288430728148182,59.43248704047103,60.71767768630759,0.0
0.073,0.8772906167457903,-0.14069067067954966,1.3007698303737663,0.0,2.3165197699201543,2.331972169261256,60.032017338285115,60.71767768630759,0.0
0.074,0.9144284836279897,-0.14961583688880747,1.0078612849469488,0.0,2.3331158452052385,2.336469745335952,60.49490574640786,60.71767768630759,0.0
0.075,0.9313258184359275,-0.14842371880611216,0.7786448002845742,0.0,2.348281685918093,2.318405115313041,60.883787823820875,60.71767768630759,0.0
0.076,0.9287464442693939,-0.13848324142827395,0.5825426602029337,0.0,2.359042948226637,2.28483716630775,60.434457881351655,60.71767768630759,0.0
0.077,0.9108756263886127,-0.12317175154786902,0.8100398294871028,0.0,2.3637864302907317,2.284627844681137,59.62963460779957,60.71767768630759,0.0
0.078,0.9053494097627561,-0.11291833123264244,1.2233318970482272,0.0,2.3670598706498835,2.328530134812514,59.04347037053318,60.71767768630759,0.0
0.079,0.9278594208664825,-0.11401215516714625,1.5331560888391653,0.0,2.3746190508222065,2.39578591700039,59.78542243023292,60.71767768630759,0.0
0.08,0.9723899878792344,-0.12502518932527795,1.171502611550041,0.0,2.3893483867141336,2.4095186523066334,60.491981917490584,60.71767768630759,0.0
0.081,0.9973274029849828,-0.12815716069623523,0.8204798256093793,0.0,2.404212449056717,2.3860572659993586,60.70162273702545,60.71767768630759,0.0
0.082,0.9953102369606829,-0.12006599330182038,0.7158199653347663,0.0,2.4143226184072186,2.3588973301999996,59.7014322565313,60.71767768630759,0.0
0.083,0.9818702727055552,-0.10629415808260895,1.2260776598796066,0.0,2.419271787042566,2.394097574326127,58.91190345581841,60.71767768630759,0.0
0.084,0.9971185962605082,-0.10285651102529636,1.6388998025409418,0.0,2.4270056404028786,2.464768854416878,59.87939613128625,60.71767768630759,0.0
0.085,1.0409307776226666,-0.11220119751835256,1.1635362803572362,0.0,2.442095528421044,2.4680613262534763,61.27876736616086,60.71767768630759,0.0
0.08600000000000001,1.0562267277947281,-0.11984769189050637,0.45823976612139994,0.0,2.456753342337059,2.3984601256588207,61.182990316477934,60.71767768630759,0.0
0.08700000000000001,1.0236025798614796,-0.1100554986059854,0.5014751646611578,0.0,2.461831648596989,2.3528353012713437,60.49714121537549,60.71767768630759,0.0
0.088,0.9867964745397142,-0.09674803729342624,0.8466050799216993,0.0,2.4604737429806423,2.35353515674793,60.25952790264371,60.71767768630759,0.0
0.089,0.9725058377516069,-0.09402509077211868,0.9699932341242288,0.0,2.4591551639693687,2.365354542918369,60.78665508761006,60.71767768630759,0.0
0.09,0.9733243258419542,-0.09815051105049832,0.7057398676280309,0.0,2.459631407172102,2.3453254406562105,61.69117667358208,60.71767768630759,0.0
0.091,0.9632977704565793,-0.09931511084603373,0.2437440847692759,0.0,2.458143967603072,2.280280976464336,61.56880174696162,60.71767768630759,0.0
0.092,0.9259242527611611,-0.09085824825851363,0.2964203074729652,0.0,2.4493589246891743,2.236017378453381,60.94399379784034,60.71767768630759,0.0
0.093,0.8905005181707468,-0.08177899122493881,0.6065611209182757,0.0,2.436111876617753,2.2324132388320708,60.672121817525806,60.71767768630759,0.0
0.094,0.8769058981635522,-0.08288780416231323,0.7429526697633617,0.0,2.42404188138479,2.240887641459142,60.59625776585449,60.71767768630759,0.0
0.095,0.8780585679610573,-0.09113308458839625,0.7820988948035513,0.0,2.4149222186553256,2.2499870336883836,60.707893577909,60.71767768630759,0.0
0.096,0.8852011651552811,-0.10161297888047671,0.7263788298602829,0.0,2.4086947969896,2.2499696920342025,60.81575503891378,60.71767768630759,0.0
0.097,0.8893374462352196,-0.11082978515576036,0.6714673258318306,0.0,2.403997433072389,2.2434647126383194,61.06872466559854,60.71767768630759,0.0
0.098,0.8888801595518054,-0.11711110254323615,0.5414720426965414,0.0,2.399718084457181,2.223481793031682,61.54422345586008,60.71767768630759,0.0
0.099,0.8797504721662179,-0.1187135254632487,0.2954571898702466,0.0,2.3939818320901556,2.1803072422902274,61.864236033773416,60.71767768630759,0.0
0.1,0.8545238107841213,-0.11538672146513251,0.12398531743891905,0.0,2.3841197772166947,2.1271583998252073,61.44434421010771,60.71767768630759,0.0
0.101,0.8192957412402397,-0.10696509824370354,0.32666456403377175,0.0,2.369035933069702,2.105970493005096,61.08956186922558,60.71767768630759,0.0
0.10200000000000001,0.7971254404409125,-0.10431595710664232,0.5003368926456577,0.0,2.3531344933625347,2.1045566085261433,60.97481059975433,60.71767768630759,0.0
0.10300000000000001,0.7902383721066462,-0.10921040455341069,0.5551411982468147,0.0,2.339246689808705,2.106521593363154,60.985860757385176,60.71767768630759,0.0
0.10400000000000001,0.7909171532306538,-0.11778372644139595,0.5469342887206148,0.0,2.327838286027169,2.105306959650203,61.03442294698146,60.71767768630759,0.0
0.105,0.7926227270154163,-0.12659098875072072,0.5194857413157351,0.0,2.3183323248876375,2.099954852506035,61.09761362763603,60.71767768630759,0.0
0.106,0.7922406847002363,-0.13405823732280714,0.4840910415751649,0.0,2.309975073867479,2.090627508857434,61.161593611386294,60.71767768630759,0.0
0.107,0.7887154429248155,-0.13969447907967736,0.4476618904492453,0.0,2.302066127692011,2.0781278710173763,61.213772301086436,60.71767768630759,0.0
0.108,0.7821684045760008,-0.14361316035438432,0.4166115994513859,0.0,2.2940728048727324,2.063720983645887,61.24588286494997,60.71767768630759,0.0
0.109,0.7734011344990295,-0.1462751189275175,0.3952742657331956,0.0,2.2856917542285315,2.048817778255576,61.256507297763655,60.71767768630759,0.0
0.11,0.7635164754919004,-0.148286713021215,0.3845737532117922,0.0,2.2768531438742947,2.0346027450897197,61.25194581229767,60.71767768630759,0.0
0.111,0.753575650828704,-0.15021956195802666,0.3815118146848836,0.0,2.267669388681008,2.0216901902151574,61.24125358804469,60.71767768630759,0.0
0.112,0.7443004724733625,-0.1524526242074441,0.3816221677940015,0.0,2.25833906187766,2.0101141349084504,61.231504899422546,60.71767768630759,0.0
0.113,0.7359655818966524,-0.15512006375711185,0.3813582399739248,0.0,2.2490552499519474,1.9995566030406655,61.22562115429994,60.71767768630759,0.0
0.114,0.7284865935321853,-0.15816275577533717,0.3792206778553062,0.0,2.2399520877585353,1.9896332904265646,61.21869368048368,60.71767768630759,0.0
0.115,0.7216125466800267,-0.1614267602119287,0.3776742548216726,0.0,2.2310955240908967,1.980324617212111,61.21403825948635,60.71767768630759,0.0
0.116,0.7152079058665951,-0.16483663344581428,0.3750383595885505,0.0,2.2225361954799383,1.971422440727988,61.21118083185638,60.71767768630759,0.0
0.117,0.7091016651467086,-0.16829974532720005,0.3715320419480471,0.0,2.2142894256562777,1.9628028531141106,61.194749891867104,60.71767768630759,0.0
0.11800000000000001,0.7031541092587436,-0.17174991393769667,0.3749767898870906,0.0,2.2063502614819357,1.9552277014694326,61.173220190050756,60.71767768630759,0.0
0.11900000000000001,0.6976787883302284,-0.17535165093729493,0.38118621575783307,0.0,2.198809187944411,1.948807547681435,61.16042646415361,60.71767768630759,0.0
0.12,0.6928428668576083,-0.17918323585733315,0.3831555909279464,0.0,2.191765663353047,1.9429070370811938,61.15570979644879,60.71767768630759,0.0
0.121,0.6883776462125133,-0.18311207413064845,0.3811336036789442,0.0,2.185230296521659,1.9370929277889832,61.188557036084376,60.71767768630759,0.0
0.122,0.6840085501301987,-0.18687638374766669,0.3600011903633832,0.0,2.1791418411193284,1.929338295513237,61.16518817539239,60.71767768630759,0.0
0.123,0.6785019976158164,-0.19013009940824546,0.36721051581852937,0.0,2.17320703365615,1.9233166606738128,61.165491061810144,60.71767768630759,0.0
0.124,0.6733436845121565,-0.19343767714032536,0.3625809388546255,0.0,2.16759483984927,1.917234710767691,61.17044992531736,60.71767768630759,0.0
0.125,0.6681945209454278,-0.1966580690907265,0.3555737847109215,0.0,2.1622568377696876,1.9109900701466278,61.17423676696964,60.71767768630759,0.0
0.126,0.6628751509553451,-0.1997114860709071,0.3491147730781583,0.0,2.1571318437842746,1.9047293127047886,61.17634976253288,60.71767768630759,0.0
0.127,0.6573990284255731,-0.20260797923316437,0.34347155453428657,0.0,2.1521813535312653,1.8985751474634676,61.177211601494875,60.71767768630759,0.0
0.128,0.6518427981176667,-0.20538832885770117,0.33844529590141603,0.0,2.147387369306501,1.8926013175653726,61.17725151369394,60.71767768630759,0.0
0.129,0.6462802789531347,-0.2080916392125305,0.33382960152802055,0.0,2.142744961157189,1.8868443232448855,61.176819455452154,60.71767768630759,0.0
0.13,0.6407624058443243,-0.210745059308927,0.32945421295746724,0.0,2.138255937497815,1.881314992592813,61.17622787647343,60.71767768630759,0.0
0.131,0.6353155222895857,-0.21336418946644115,0.3251645005451693,0.0,2.133924453255534,1.8760055566202956,61.175933218675794,60.71767768630759,0.0
0.132,0.6299460349346669,-0.21595433666648253,0.3207292741203067,0.0,2.1297538987306583,1.8708851128116832,61.176486020960205,60.71767768630759,0.0
0.133,0.6246407836164778,-0.21851081509925596,0.3158647896315754,0.0,2.1257436664330154,1.8658987996733862,61.17831509105564,60.71767768630759,0.0
0.134,0.619368195391067,-0.2210184285680017,0.3103438805363786,0.0,2.1218860987485386,1.8609783716551813,61.17966979982097,60.71767768630759,0.0
0.135,0.6140864467254442,-0.22345131518014402,0.30504660501857805,0.0,2.11816478642334,1.8561650049253098,61.205374708294876,60.71767768630759,0.0
