t,iq,id,vq,vd,omega,r
0.0,0.0,0.0,0.0,0.0,0.0,1937.7603346211824
0.01,0.0,0.0,503.8176870015074,0.0,20.35259535992298,1937.7603346211824
0.02,11.547259759721317,0.029131067743941974,860.9375898055943,-0.0075740776134249135,35.492621407998634,1937.7603346211824
0.03,11.717597706942975,-4.19101253991418,1125.128800980993,-0.23112352179015677,37.72960535536379,1937.7603346211824
0.04,12.025450665855004,-5.759020234455262,1322.899981560085,-2.4473657322430595,41.167496701912945,1937.7603346211824
0.05,12.25198138926001,-5.259917282144659,1470.4388264813795,-3.9809481488423932,46.31649482239248,1937.7603346211824
0.06,12.47881116274089,-4.696493345298291,1579.8678075746634,-4.973172383962482,53.361305021282675,1937.7603346211824
0.07,12.705574754691218,-4.0430369687563985,1660.2387903520357,-5.543550616727155,62.55650977049938,1937.7603346211824
0.08,12.92618080503097,-3.2698054335734685,1718.277690520259,-5.773766100757668,74.22898200451921,1937.7603346211824
0.09,13.125950528835297,-2.342477426219117,1758.9466044755914,-5.715861759231096,88.77745968007206,1937.7603346211824
0.1,13.27718228882275,-1.2223781113669947,1785.8649497427111,-5.397989240461565,106.66668693963099,1937.7603346211824
0.11,13.33268450864905,0.13153543479731145,1801.625815178759,-4.828341791327342,128.84538627950778,1937.7603346211824
0.12,13.216779033523661,1.7591275555760761,1807.922886477649,-3.9983928927189263,156.4932012723463,1937.7603346211824
0.13,12.811657194895936,3.6931311509678153,1805.7136743852936,-2.8859409598894197,190.73067084250852,1937.7603346211824
0.14,11.94057647294791,5.932993449470562,1795.4108580438574,-1.4542240146890433,232.7573776842114,1937.7603346211824
0.15,10.356736223434215,8.397368193427232,1776.979615929124,0.3451422628691809,242.98274713341962,1937.7603346211824
0.16,13.242809004005174,-1.5510601088343468,1760.4577135207785,-2.116201536461865,260.1158917218195,1937.7603346211824
0.17,13.1920959141737,1.9355575860767644,1744.2312329742988,-3.0365427911153087,289.18283013186783,1937.7603346211824
0.18,12.109907749821545,5.579239380828704,1724.9257339616447,-2.5473192048451185,330.6232241046956,1937.7603346211824
0.19,9.7158042648738,9.131315637104974,1699.9251087791506,-0.8812954469756223,343.6170017597242,1937.7603346211824
0.2,13.309197222998458,0.8019021493348486,1677.6460058543325,-3.0872382835029777,369.36791593433577,1937.7603346211824
0.21,12.110143934063403,5.578726707237511,1655.0450728038877,-3.2767373454147286,411.23052320790003,1937.7603346211824
0.22,8.916133505770368,9.913644187939001,1627.5666244717788,-1.632077206510306,427.7477527523467,1937.7603346211824
0.23,12.98261388362917,3.0380116073472925,1602.5527439291452,-3.573670096250383,461.7025250822412,1937.7603346211824
0.24,10.254490133745234,8.521925244608719,1575.842689642535,-3.042766055304204,472.6631973715808,1937.7603346211824
0.25,13.21190111813529,1.7953959514249875,1552.218614722744,-5.435470038228103,502.77628250099417,1937.7603346211824
0.26,10.666823955520913,7.999790277232456,1527.8947286744378,-5.0613564703822735,511.9891020537943,1937.7603346211824
0.27,13.225584959884653,1.691650154922864,1506.2966027518075,-7.298555721031103,542.0248061399783,1937.7603346211824
0.28,10.395712844917618,8.349067745790098,1483.720698629146,-6.612767810175805,552.6152918777614,1937.7603346211824
0.29,13.062279814079979,2.674812860081321,1463.1356608900635,-8.468587048546182,586.154618847265,1937.7603346211824
0.3,9.330738404746072,9.52444741704076,1440.4597800426866,-7.196160770190629,601.8469618128527,1937.7603346211824
0.31,12.434307188057335,4.813084513158214,1418.7749118931176,-8.544337748527782,642.0949338982259,1937.7603346211824
0.32,7.000148800256661,11.34793789866877,1393.3599430763718,-6.422735612023207,668.1295210031404,1937.7603346211824
0.33,10.574179616009701,8.12185343540147,1367.4846357691465,-7.048256868410526,678.484175187246,1937.7603346211824
0.34,12.69055352559395,4.089942419131678,1344.5276607483345,-9.326308018294064,716.7588288575893,1937.7603346211824
0.35000000000000003,6.754465041438004,11.495867943820928,1319.2484522052841,-7.4887918034436645,744.2030810334603,1937.7603346211824
0.36,9.709183128991272,9.138355472703445,1293.094134785183,-7.938570201816689,759.2405472809301,1937.7603346211824
0.37,11.743417098237343,6.314264219574958,1269.0051603788256,-9.807785695734973,800.7969599729806,1937.7603346211824
0.38,3.4562518505684947,12.877581330483594,1241.844008768026,-6.85230924378624,837.9648925513181,1937.7603346211824
0.39,5.845301641204716,11.98374843281964,1212.2032349575645,-6.05887745560445,869.0180626490754,1937.7603346211824
0.4,7.636340873561232,10.929962298222067,1182.0809957371005,-6.708294103506679,893.9435532127774,1937.7603346211824
0.41000000000000003,8.956904275877218,9.876823556718533,1152.9835328159654,-8.178865503004873,913.5295290240929,1937.7603346211824
0.42,9.928719317588268,8.899343261742818,1125.9268126213713,-10.040307058029123,928.8001294550662,1937.7603346211824
0.43,10.648520404756374,8.024138020202848,1101.465976841464,-12.016823661280354,940.5778294336602,1937.7603346211824
0.44,11.188447243317292,7.2523393509462455,1079.8388413917855,-13.943876700884987,949.5015146217511,1937.7603346211824
0.45,11.600787188274108,6.572633748365494,1061.0752392371642,-15.732254826414284,966.9860559997153,1937.7603346211824
0.46,10.670941147673892,6.832664850670394,1042.5850624730767,-14.751389418616437,1003.8601718890616,1937.7603346211824
0.47000000000000003,0.92306956004453,13.301342803081836,1022.0432221863181,-10.82824697293554,1039.615360280058,1937.7603346211824
0.48,0.629367709316174,13.318471160919628,997.7452047634498,-7.940212475660603,1074.3831104518154,1937.7603346211824
0.49,-0.16113908069966953,13.33235958015118,970.9630128830374,-5.619875842453331,1085.6242975211273,1937.7603346211824
0.5,10.874212455385715,7.715522098530463,945.2776027292754,-8.896006138340951,1097.3658374413378,1937.7603346211824
0.51,10.111051861913644,8.691628617438182,923.6906462042602,-12.190422733253111,1113.0170380084987,1937.7603346211824
0.52,9.124551305726165,9.722157232165538,904.0756422481757,-14.230029721736535,1133.1026314282,1937.7603346211824
0.53,7.834722725675105,10.788646698709147,884.863665631865,-15.20495762833146,1158.0602699858775,1937.7603346211824
0.54,6.142916856117074,11.833949056701675,864.7607399276393,-15.207105846616335,1187.163017873166,1937.7603346211824
0.55,3.9465856405579394,12.73586430359242,842.9561489188286,-14.240083126758574,1218.3753924471569,1937.7603346211824
0.56,1.1906006332402503,13.280069574738892,819.282858086456,-12.235468554147825,1248.6294959041063,1937.7603346211824
0.5700000000000001,-2.0635394437533705,13.172683202060686,794.2484452306711,-9.103331716466329,1262.424764452771,1937.7603346211824
0.58,7.8363337998102285,10.787476551804389,769.7879804037508,-12.38007427141551,1286.7186972260847,1937.7603346211824
0.59,4.492821247205925,12.553578574192805,746.7249225194769,-13.276746887694578,1315.7015058562245,1937.7603346211824
0.6,0.39121108245230424,13.32759286843443,723.0826614719351,-11.865663354409806,1336.5842162421227,1937.7603346211824
0.61,-4.092075194697767,12.68986597166089,700.4360193250942,-10.710072022732165,1355.2241652718778,1937.7603346211824
0.62,4.910905887595372,12.395998593939854,677.2783713977835,-12.809270139572494,1382.6299842637568,1937.7603346211824
0.63,-0.10839833063078164,13.307082150837811,654.4590221514707,-11.775815952327141,1394.07829554966,1937.7603346211824
0.64,7.4046092312439145,10.655243228403966,631.6752080529695,-14.263694214319012,1416.8287644363004,1937.7603346211824
0.65,2.787847499347964,12.853830528548222,611.0609860794253,-14.826363428884118,1442.6203311042689,1937.7603346211824
0.66,-3.266002712981181,12.465033410314355,590.3184878604189,-11.791534473709204,1458.6137575213256,1937.7603346211824
0.67,4.353703775603532,12.207041978569114,568.874483297937,-14.154894916330807,1483.8146153050718,1937.7603346211824
0.68,-2.2816553034561426,12.410099425412291,548.3963537351536,-12.280561111494528,1497.352375368917,1937.7603346211824
0.6900000000000001,4.826320643271917,11.836675467872418,527.4361599574066,-15.079049927012075,1521.5824539848993,1937.7603346211824
0.7000000000000001,-2.3291120722002123,12.145273939694876,507.95877870938733,-13.260592309931098,1534.766657641581,1937.7603346211824
0.71,4.353093109274925,11.835147734347391,487.86682525656914,-15.851053114679479,1558.0652353255296,1937.7603346211824
0.72,-3.314663235209016,11.6531114895147,469.3793733017511,-13.437253867409956,1572.5985516275869,1937.7603346211824
0.73,2.5747569873870804,11.970471641867853,450.1107461292535,-15.466809958091773,1593.9375693011252,1937.7603346211824
0.74,-5.104421408956027,10.709454412593663,432.3574801636742,-12.022196141475508,1610.7609576917073,1937.7603346211824
0.75,-0.19634206907244067,11.84290840265688,413.7585906896616,-13.192804502308018,1623.8622625500366,1937.7603346211824
0.76,-7.487087125362604,9.204384645141008,397.5774783933321,-11.440413771308268,1642.334552402517,1937.7603346211824
0.77,-3.438878608640585,11.041694739685788,380.6510188498595,-10.752253439951751,1655.8075157559388,1937.7603346211824
0.78,1.0372471847859037,11.574553200931502,363.1571483364337,-13.401084661657748,1672.8342926680032,1937.7603346211824
0.79,-6.845854961218305,9.10788805961719,347.6892279649363,-9.439266340896518,1689.8991717216286,1937.7603346211824
0.8,-3.4544781894596195,10.717558062643489,331.39011345171315,-9.638985828854633,1702.6102451350232,1937.7603346211824
0.81,0.317799399934132,11.297547685045734,314.68386950230195,-12.563364301244585,1716.951722393136,1937.7603346211824
0.8200000000000001,-7.788251660368947,8.374703220022088,300.44652538241206,-8.320727577187352,1732.9655716497844,1937.7603346211824
0.8300000000000001,-4.9528456740551725,9.789591656560377,285.5383486453843,-7.855181002150436,1746.9788006982108,1937.7603346211824
0.84,-2.046160288846521,10.745345877778732,270.058551854708,-10.03961345382791,1756.4607464688218,1937.7603346211824
0.85,1.2042130577066332,10.997371259545977,254.6164171149968,-13.817852719469656,1770.6198236809814,1937.7603346211824
0.86,-7.410833357669784,7.972104135693861,242.12556385155762,-9.770652445140202,1785.1948329749325,1937.7603346211824
0.87,-5.304018476022093,9.22677762303176,228.86896308246725,-9.005606484054208,1798.5281389118443,1937.7603346211824
0.88,-3.129364868427986,10.123171729579983,214.9937983362934,-10.511771128929702,1808.8979240913566,1937.7603346211824
0.89,-0.808755831145886,10.584363911366328,200.98504906688575,-13.45261107015144,1816.5577841233305,1937.7603346211824
0.9,-9.803822631416931,7.338662663673237,190.404545276517,-12.559230851914958,1827.4676087639943,1937.7603346211824
0.91,-7.431081238633202,7.553598429698834,179.8161361362183,-9.192206676816049,1840.36247700776,1937.7603346211824
0.92,-5.908469722880642,8.435349549046828,168.51682143948412,-8.346801200952424,1852.9062053121709,1937.7603346211824
0.93,-4.456592733894906,9.223846656036683,156.54235285732963,-9.299698659926932,1863.9630004006626,1937.7603346211824
0.9400000000000001,-2.97223108458182,9.771030859759092,144.21851561929302,-11.427627903304996,1872.9597612111072,1937.7603346211824
0.9500000000000001,-1.4727338844720304,10.104830241375698,131.98150492369334,-14.249067619865736,1879.3204492375573,1937.7603346211824
0.96,-6.290229220845115,7.796899378278674,122.03747166385608,-14.648469775233446,1884.7726458456725,1937.7603346211824
0.97,-9.42469011996484,6.815233575027782,114.06287267292798,-13.043417048109381,1892.55173889929,1937.7603346211824
0.98,-7.8893610507616,6.913234089642662,106.24685441223262,-10.409789696090277,1902.927415150341,1937.7603346211824
0.99,-6.841441062218724,7.208914815778319,97.9215391440522,-8.57201090199924,1913.855751474944,1937.7603346211824
1.0,-6.103482828079811,7.744535704502676,88.8241699598149,-8.177103188850397,1924.610373319684,1937.7603346211824
1.01,-5.416080475594422,8.175859260273544,79.12446334948022,-8.756986003665926,1934.880918890687,1937.7603346211824
1.02,-4.7808065861443065,8.5070143163663,69.04985024986257,-9.955586475212916,1944.4937622570267,1937.7603346211824
1.03,-4.209148196827444,8.754753926741087,58.837490770055055,-11.508431707997609,1953.407501285365,1937.7603346211824
1.04,-3.6958186839214577,8.944276957412052,48.690739119145846,-13.226855379239895,1960.9797051413263,1937.7603346211824
1.05,-4.472696390973847,8.166074813344114,39.18459051626681,-14.276085081699527,1966.4450138853751,1937.7603346211824
1.06,-5.147462162569235,7.6180995054344915,30.547431503601004,-15.02154518281477,1966.7122202377986,1937.7603346211824
1.07,-5.02137837068527,7.159027156416609,23.04992981249551,-16.088366863181108,1962.240476352422,1937.7603346211824
1.08,-1.5830393307473245,5.4449799063672035,16.762850627139336,-17.132938750010453,1953.0922870995755,1937.7603346211824
1.09,1.6541763248949446,3.3416195693747466,12.575428162289374,-17.947310038984213,1938.798390940421,1937.7603346211824
1.1,3.9440399512202373,0.4460410001351003,11.449944420002943,-18.029864503325594,1923.098590907909,1937.7603346211824
1.11,4.544392501353141,-0.5686606053652796,14.130276697806794,-17.87755233592927,1911.150708092952,1937.7603346211824
1.12,3.559696195772755,1.1088583244391543,20.02208507212657,-18.171542106337103,1905.457898720221,1937.7603346211824
1.1300000000000001,1.1640715063102163,3.9053913692659963,27.53707266391391,-18.820093242407324,1906.8925324237298,1937.7603346211824
1.1400000000000001,-2.226072291165182,7.319079071523916,34.95088172957276,-19.661815819610663,1908.6343870100034,1937.7603346211824
1.1500000000000001,-3.0993655483325195,7.478218432932522,40.30957870897269,-20.007913867709597,1911.199753698146,1937.7603346211824
1.16,-4.281821702325497,8.014285480167691,44.201874229823765,-20.064929842078424,1915.3102086022955,1937.7603346211824
1.17,-4.7297463241011934,8.666620503500349,46.54404671623605,-19.99084799241074,1921.4123149312186,1937.7603346211824
1.18,-3.9229562183056936,9.039149195010358,46.94407208667472,-19.9053457201106,1929.227043587711,1937.7603346211824
1.19,-3.144579303764045,9.313635529138946,45.37811286562896,-20.02544176446375,1937.2584782641854,1937.7603346211824
1.2,-2.4175715342315125,9.50542927769145,42.027122908700896,-20.55312787176848,1943.9694994226638,1937.7603346211824
1.21,-2.4746978411959164,9.236594312619616,37.608082469019074,-21.143104577246476,1948.5081434678705,1937.7603346211824
1.22,-2.83612816511128,8.91347625069568,32.862800276940234,-21.71684695451486,1950.0240367631186,1937.7603346211824
1.23,-1.9701368599514284,8.147139546799277,28.156233354158022,-22.288956031634008,1948.456958159686,1937.7603346211824
1.24,-0.034676115840150956,6.703700873052618,23.920288533393954,-22.7318546533591,1943.9581083639523,1937.7603346211824
1.25,1.8193978772722275,5.289285421710198,20.816226585052846,-23.057050826696795,1937.1757134913175,1937.7603346211824
1.26,3.2048855712492506,4.135275738791036,19.38242505923506,-23.259990075251324,1929.3984522925498,1937.7603346211824
1.27,3.7789090702480714,3.569717623227815,19.906045534297057,-23.367742301637218,1922.4549449180925,1937.7603346211824
1.28,3.4192780504333515,4.037538491340696,22.275113385857736,-23.501627615398494,1918.2944253132162,1937.7603346211824
1.29,2.3190317891707086,5.803714473569959,25.906520964746175,-23.87435714181387,1916.359416861319,1937.7603346211824
1.3,1.404670585511422,7.167427395436428,29.754164333024004,-24.30475579121212,1914.8255488327054,1937.7603346211824
1.31,0.8440078711317778,7.313858293928657,33.23914476823527,-24.42950177239581,1914.3014328729207,1937.7603346211824
1.32,0.013289344011266024,7.736475888239855,36.41290430322291,-24.39507178641066,1915.482441866711,1937.7603346211824
1.33,-0.9123147723290592,8.447570665558276,39.06640344776438,-24.362936849469932,1918.833825673433,1937.7603346211824
1.34,-1.6843423042196588,9.404028619112578,40.801618381163266,-24.511717981649117,1924.2044887437355,1937.7603346211824
1.35,-1.2414194592653285,9.863740023878798,40.97936823771454,-24.837092624977785,1929.5650574108627,1937.7603346211824
1.36,-1.0336793882411266,9.670615343260671,39.69128720880681,-25.17599372013769,1933.513616119646,1937.7603346211824
1.37,-1.5144691625813045,9.208357582004766,37.5928051704603,-25.34835497067297,1936.1059472370107,1937.7603346211824
1.3800000000000001,-1.3149197997360198,8.386652705818424,35.089348238230386,-25.306078685314574,1937.6544212519264,1937.7603346211824
1.3900000000000001,-1.1045491172486686,7.7400882752612805,32.577103322008995,-25.162837054520296,1938.1988341091303,1937.7603346211824
1.4000000000000001,-0.7778245770783707,7.330386815385006,30.29725184650631,-25.02685386977231,1937.8211800365673,1937.7603346211824
1.41,-0.2838543216061232,7.126046809228297,28.38672326679366,-24.971932539110092,1936.4972294078623,1937.7603346211824
1.42,0.4083142696344635,7.104237788466834,26.942518138649497,-25.040948070601974,1934.217471164535,1937.7603346211824
1.43,1.1735715159833027,7.058569501703433,26.074146373291477,-25.199933885072507,1931.1511227931965,1937.7603346211824
1.44,1.8854809445955119,6.961574626865515,25.866831014427795,-25.394640614638913,1927.483567936344,1937.7603346211824
1.45,2.435901226317875,6.844950171337212,26.390323835774183,-25.572731412913022,1923.7281835937888,1937.7603346211824
1.46,2.7191899645437654,6.797101280310907,27.62467503669182,-25.706884619440885,1920.371172567838,1937.7603346211824
1.47,2.7016006454296893,6.896667491722583,29.47000319150238,-25.80619258247573,1918.1967020433326,1937.7603346211824
1.48,2.417060125059862,7.261589077608179,31.657828062366807,-25.937943363288653,1917.6882897348428,1937.7603346211824
1.49,2.0235553773905464,7.893385422684748,33.806073072147235,-26.204441163008113,1919.2054558871193,1937.7603346211824
1.5,1.4672580884599662,8.663206918161428,35.50032977287135,-26.61066390919053,1922.752948894584,1937.7603346211824
1.51,-0.150485426584257,9.143237864158193,36.65830773744735,-26.742642495103798,1924.8982812205093,1937.7603346211824
1.52,-0.25375719701717325,8.157148760278563,36.75681815886058,-26.516083762168922,1925.8816220734354,1937.7603346211824
1.53,-0.5374905114671327,7.495949434743041,36.491151501394484,-26.068319560475288,1926.136261682114,1937.7603346211824
1.54,-0.8450918745123426,7.186797597744016,36.20608272722465,-25.528014215343937,1926.003688043577,1937.7603346211824
1.55,-1.0341492900326266,7.270130785837717,36.03224902307047,-25.023533138091395,1925.6806140505562,1937.7603346211824
1.56,-1.1785441645794288,7.448202107190517,36.03043910441152,-24.593122927276436,1925.5120110515227,1937.7603346211824
1.57,-1.2910719776091337,7.7050387409693375,36.15662198760637,-24.270934748296142,1925.7490217490902,1937.7603346211824
1.58,-1.345214060748416,8.028878982421332,36.29910173886061,-24.091990614690516,1926.6244176165346,1937.7603346211824
1.59,-1.291044512230681,8.395483913387105,36.284189929734026,-24.09246467225343,1928.1605236131438,1937.7603346211824
1.6,-1.0520247177017437,8.751999317789483,35.9265386028259,-24.302804523531353,1930.1327916975183,1937.7603346211824
1.61,-0.549987653814386,9.013976480578433,35.08523556103694,-24.73364335644325,1932.2204861066994,1937.7603346211824
1.62,0.2580813340371563,9.096677502034018,33.68669780771201,-25.366680828199968,1933.8468824347135,1937.7603346211824
1.6300000000000001,0.4546884424723352,8.580902232536683,32.0618129757217,-25.76247630651042,1934.7729056778023,1937.7603346211824
1.6400000000000001,0.5587691300855959,8.010156904291595,30.454613271793242,-25.94538816549916,1935.1246618238051,1937.7603346211824
1.6500000000000001,0.6316497443704683,7.562128852183202,29.027021148871768,-25.998284729906516,1935.0026983632963,1937.7603346211824
1.6600000000000001,0.6780660439149393,7.3032496960848645,27.892362370344856,-26.001011349249733,1934.6988382212414,1937.7603346211824
1.67,0.6708912464505539,7.217643650138462,27.083839926334985,-26.01231912309219,1933.3954340862665,1937.7603346211824
