t,iq,id,vq,vd,omega,r
0.0,0.0,0.0,0.0,0.0,0.0,1786.751424012433
0.01,0.0,0.0,464.55537024323263,0.0,216.51003357604029,1786.751424012433
0.02,11.684700492897216,-0.7972937627547887,742.7019560578846,0.20729637831624503,275.3164277150852,1786.751424012433
0.03,13.135497226794595,-2.288337908318879,938.2912308070362,-2.5469117593582142,422.9435496691041,1786.751424012433
0.04,13.121028598725214,2.369891619718671,1047.7953063442453,-3.922241764720031,747.7241326455212,1786.751424012433
0.05,9.639307656507087,9.21203157186196,1047.8531042246782,-3.8911756441957444,887.3062876049144,1786.751424012433
0.06,11.394982179372471,6.923305490122588,1014.1674927446928,-6.871442556558862,941.0496774226307,1786.751424012433
0.07,12.095400396386419,5.6106209129536655,975.4987177399021,-10.387125078653614,1278.0039428487983,1786.751424012433
0.08,-0.2393674860446504,13.331184530430983,862.8817957297409,-7.833973030000531,1352.72195074462,1786.751424012433
0.09,8.986083436366052,9.850283358992545,759.5796328867616,-12.06551096055981,1533.1156741375794,1786.751424012433
0.1,4.121326606087992,12.68039608150033,638.1222232215632,-13.961754282173992,1723.3614141547644,1786.751424012433
0.11,-4.578155133393091,12.52271030377866,501.59357114496396,-11.937801728246786,1848.5180313632613,1786.751424012433
0.12,-1.2842215165905007,13.026052196300714,367.6705140803117,-13.592831666528355,1922.1679841740659,1786.751424012433
0.13,0.7554189885452894,12.322430770572586,248.2402235469178,-16.56914929736905,1947.8447397803598,1786.751424012433
0.14,-10.796197862273473,6.5514683512892695,155.36610635787613,-14.65526577136691,1954.1000490714894,1786.751424012433
0.15,-10.500393485118424,6.921742003677499,84.23307164854789,-12.723935712823923,1960.914243882454,1786.751424012433
0.16,-10.153117045123375,7.419841713461209,28.9857367236784,-12.25593395632526,1962.253375702781,1786.751424012433
0.17,-9.646507971923802,8.142802355679066,-13.191769199151896,-13.66922814520553,1430.915617390031,1786.751424012433
0.18,5.691808480410211,-12.057408262147723,79.50422475495023,-10.45287397349033,1605.2043748207084,1786.751424012433
0.19,1.3803210313243666,13.261692638131127,110.94283356591207,-12.067941684791068,1697.8368215038117,1786.751424012433
0.2,-7.174406600599866,11.238579434565866,113.27064298100599,-12.643449689047983,1839.16987927369,1786.751424012433
0.21,-4.086624742165952,12.410860755391631,79.41787536554864,-12.240668075292968,1939.4415695860569,1786.751424012433
0.22,-2.5653568775196556,11.489461962614268,28.845948554538165,-13.676124311994238,1923.6217971652866,1786.751424012433
0.23,-5.9311901056499305,8.68330867021155,-4.9159933736654855,-15.378177738628617,1499.4979734858186,1786.751424012433
0.24,4.84428761135417,-10.605099548422492,69.81978081477422,-12.534018769336653,1596.1859811016097,1786.751424012433
0.25,-4.146298143552082,12.672252739057658,107.05947627708613,-13.76024491199727,1737.3934878797859,1786.751424012433
0.26,0.9163576499681261,13.301806886100948,98.77088532295355,-15.299127054322705,1799.703865674736,1786.751424012433
0.27,-7.933985295656462,10.211329236699585,79.10369746171614,-15.881543709411037,1863.6849128171086,1786.751424012433
0.28,-6.736727077348771,10.527381882780332,48.25409635304119,-15.118544272154063,1907.7553904362987,1786.751424012433
0.29,-5.219680801200215,10.755904144055219,13.680486071275975,-15.904825052112894,1756.2764829707648,1786.751424012433
0.3,8.799974083223432,-1.8330601171601784,20.473820336698275,-15.320670380210695,1705.4999637577494,1786.751424012433
0.31,8.460119281267476,5.0575327610475185,39.13010946409645,-16.63590019829864,1762.6624882779429,1786.751424012433
0.32,-1.2196259241062162,11.482842299863062,41.843067362883666,-18.199133853354226,1799.440047930588,1786.751424012433
0.33,-3.537758428743426,12.238461576125506,35.108602721095224,-19.470255056713526,1810.4559097840136,1786.751424012433
0.34,0.9914460784985875,12.08381053218557,26.11499913913064,-21.077923248826195,1774.7070255468661,1786.751424012433
0.35000000000000003,9.424767062004307,7.347636262835333,25.77517173271293,-22.29238666681199,1741.5819610275587,1786.751424012433
0.36,10.099655172131458,5.757504539979929,33.53753805656188,-22.70924816075168,1752.5697063176196,1786.751424012433
0.37,6.31393135603302,10.57236818187485,37.903045203884616,-23.624281673307916,1770.3625538834735,1786.751424012433
0.38,3.971818328021499,10.92393786670146,37.36558532696338,-24.109277103101437,1800.5991223642914,1786.751424012433
0.39,3.7189850911533773,12.164621527623408,29.63930823044517,-25.27341206003974,1789.8048802570665,1786.751424012433
0.4,7.776553618709544,9.146849999791462,25.142904004137577,-25.870093298653185,1760.090823276563,1786.751424012433
0.41000000000000003,8.869476925988579,9.95540842141265,28.814466701546554,-26.776280003786557,1721.8150015000742,1786.751424012433
0.42,11.437781295821948,6.852367241087078,40.42410467511039,-26.475647807491605,1774.9932559118786,1786.751424012433
0.43,3.8115709094094155,12.776920794163264,38.422311901494915,-27.248664287831634,1786.7223006931722,1786.751424012433
0.44,7.0185471314818155,11.336567996574011,32.83833967195632,-27.65287870261732,1766.15259719943,1786.751424012433
0.45,9.737002223402312,9.108708222313204,32.8671718271023,-27.523748400116236,1746.149291673576,1786.751424012433
0.46,9.603739545992955,7.493130346451464,37.96716744656571,-26.96746420523769,1783.9089670986955,1786.751424012433
0.47000000000000003,4.619298780044809,12.485626748952436,34.067196673508455,-27.96346067456462,1781.6329502910644,1786.751424012433
0.48,7.680209783837928,10.89918141210696,30.57287226492089,-28.33949498795097,1747.5248404305967,1786.751424012433
0.49,10.375663453626764,8.373970723309919,35.58656419984499,-28.070474361666005,1746.6630690849913,1786.751424012433
0.5,7.947435450584175,8.436610359079936,40.414420226055796,-27.500650328681154,1781.433530778674,1786.751424012433
0.51,5.6261711988940455,12.08817502431665,36.24881477472257,-28.209492207603283,1774.1889270587824,1786.751424012433
0.52,8.582448104744389,10.203889567569181,33.782782720669,-28.16593934699611,1752.0376695170883,1786.751424012433
0.53,9.819021822462647,8.05169699929098,37.09242516495195,-27.55115985600834,1769.6475244002036,1786.751424012433
0.54,5.950687368133014,10.219740211903275,36.4664944773526,-27.55575662673031,1788.2674847434146,1786.751424012433
0.55,6.309202395003454,11.74613736156105,31.272277925581534,-28.20916247070856,1765.4654480232552,1786.751424012433
0.56,9.170118326231464,9.679189411344918,31.993193007852078,-28.31046774134812,1735.0217314251493,1786.751424012433
0.5700000000000001,11.146564951002155,6.8614477491227746,39.62123264527376,-27.509300496560986,1778.912596217517,1786.751424012433
0.58,4.155893128968854,12.530880763411758,36.70931222848219,-28.122557602645426,1784.8541432353788,1786.751424012433
0.59,7.1646560136902195,11.244797996552464,31.948722264713744,-28.485164653228512,1757.2206117261337,1786.751424012433
0.6,9.911647711235982,8.918352842657004,34.34418934718933,-28.25668802889287,1743.2210814622813,1786.751424012433
0.61,9.135612039333557,7.701676786736325,39.96016098322303,-27.516866473667825,1790.8743489687336,1786.751424012433
0.62,4.908835776503548,12.396818507064484,33.83449725396003,-28.360961516620343,1783.5281943120153,1786.751424012433
0.63,7.899362595089391,10.741408118542015,29.838305200799862,-28.646082465671537,1743.8380037892036,1786.751424012433
0.64,10.554437631732515,8.147491887424392,35.88705017087956,-28.325126319652107,1745.4536665926676,1786.751424012433
0.65,7.803098950418309,8.528731793838201,40.99818832413093,-27.733707070959873,1775.426657092885,1786.751424012433
0.66,5.958193992617437,11.928021718797934,38.06070924056982,-28.33850392863267,1770.1989636974686,1786.751424012433
0.67,8.477846764934338,10.01702690764146,36.167831067329914,-28.079039597703485,1758.8133914507096,1786.751424012433
0.68,8.069778707853454,8.799060609197948,37.72945699560538,-27.47008693503902,1782.292098041009,1786.751424012433
0.6900000000000001,5.140965494355791,11.080684603327919,34.0511924033647,-27.722649299048182,1794.8035671366918,1786.751424012433
0.7000000000000001,6.445178512250791,11.672080008421737,27.74976618023124,-28.410428615170815,1760.8760484293987,1786.751424012433
0.71,9.285519903312608,9.568536873679443,30.41264143101086,-28.69948378688564,1721.1547919689651,1786.751424012433
0.72,11.72458434092185,6.3491652845384206,41.69004334270928,-27.834771688684928,1782.2620029521781,1786.751424012433
0.73,4.345682162850836,12.605269704264872,37.495527034993785,-28.324677321612107,1785.2510440747512,1786.751424012433
0.74,7.451605140270169,11.056733632102969,32.332015294462245,-28.544013175840924,1756.205339166359,1786.751424012433
0.75,10.138036152353324,8.660138610400802,34.838171203257104,-28.195136468574667,1747.541142146722,1786.751424012433
0.76,8.564298028401268,8.032643028803962,39.42858444619494,-27.531021553521686,1789.3281005077758,1786.751424012433
0.77,5.181157012112969,12.285495097618586,33.70746402616102,-28.338153329789517,1779.138650872008,1786.751424012433
0.78,8.158408846220944,10.546001274212022,30.757271764892913,-28.56329384897633,1742.765985955513,1786.751424012433
0.79,10.770282061266455,7.859949242745763,36.80450804189648,-28.097122202554853,1753.424801093433,1786.751424012433
0.8,6.897874857357142,9.307202984925654,39.99943629775852,-27.71692000255714,1778.8162672358576,1786.751424012433
0.81,6.163030368718518,11.823486560741335,36.365506020436875,-28.29009487701568,1768.9668608593854,1786.751424012433
0.8200000000000001,9.061833764905407,9.780641420428315,35.030305461868046,-28.06805977602032,1754.52627056382,1786.751424012433
0.8300000000000001,8.750942823516684,8.356680402427573,37.7355514869913,-27.44113793613585,1780.6073551385782,1786.751424012433
0.84,5.120332524671065,11.23968068172679,34.501059720588756,-27.79182610991372,1790.004780704493,1786.751424012433
0.85,6.742288017513503,11.5030139557714,29.171803236597746,-28.39655471836032,1756.871570442228,1786.751424012433
0.86,9.561285519925859,9.292986440549335,32.41730643370328,-28.503470108858547,1729.2723445551749,1786.751424012433
0.87,10.953848267416022,6.638960384701047,41.439114744371736,-27.586345182586914,1787.5444108904765,1786.751424012433
0.88,4.613325599608446,12.50979634885297,35.90742960197851,-28.248966966577413,1786.4063428115867,1786.751424012433
0.89,7.644632400777468,10.924164646999834,30.775075345650652,-28.5008216726617,1752.1537528688912,1786.751424012433
0.9,10.307013097281846,8.45832482175036,34.600956865089806,-28.217008778415586,1743.6342601775436,1786.751424012433
0.91,8.699795033446557,7.86580267180981,40.1912658559348,-27.543547296478348,1780.5147934513539,1786.751424012433
0.92,5.544858371175041,12.125688575144416,36.34999758521099,-28.27744479134784,1773.4227191275183,1786.751424012433
0.93,8.524694326801308,10.252188274333403,34.07065032437552,-28.240180565489432,1752.211319170667,1786.751424012433
0.9400000000000001,9.73094341433903,8.126360822213325,37.28986131776059,-27.61120294874306,1770.3683768297822,1786.751424012433
0.9500000000000001,5.860895373764695,10.280713389008744,36.459863248066874,-27.593298650224792,1789.6994713762651,1786.751424012433
0.96,6.228703496776673,11.789021610253318,30.939773340591504,-28.25825230477671,1766.3943631676757,1786.751424012433
0.97,9.094562709997057,9.750215735649583,31.530618024212497,-28.39936272257999,1733.5010092305772,1786.751424012433
0.98,11.531358522765505,6.693694674633813,39.532698460141226,-27.577950307237217,1776.1653932329161,1786.751424012433
0.99,4.3027680478868255,12.32067909195146,37.27670326851753,-28.109477546466557,1783.3971028138076,1786.751424012433
1.0,7.126956034579857,11.268729984294746,32.75946471081048,-28.461274873800054,1758.702520076344,1786.751424012433
1.01,9.879053820832544,8.954444336912907,34.60394603697345,-28.18641623134162,1746.1865355277491,1786.751424012433
1.02,8.887062855612154,7.896133402182194,39.48891044371923,-27.485566687665592,1794.425718993948,1786.751424012433
1.03,4.789889077828507,12.443260842716304,32.62715397153778,-28.322832950714275,1786.6110581222015,1786.751424012433
1.04,7.768183393130992,10.836655597944487,28.19667627635442,-28.712297029930767,1741.3312235660019,1786.751424012433
1.05,10.455962752190437,8.27348902837152,35.27458391586092,-28.549191887156788,1737.2953736276106,1786.751424012433
1.06,8.51077258274504,7.953212152975132,42.351183168636375,-27.801354117613826,1769.2335133182194,1786.751424012433
1.07,5.967973076699676,11.923131934754624,40.63536291578876,-28.37630990008898,1769.7667154483734,1786.751424012433
1.08,7.391166310672153,10.228668147803674,38.51465350723775,-27.994616194538914,1768.8255725806844,1786.751424012433
1.09,6.349426784935352,9.708119529537882,37.50381906085706,-27.43826421239872,1788.9436363924533,1786.751424012433
1.1,5.113207989242447,11.051432887726955,32.21520140675637,-27.69371333513184,1792.230902244282,1786.751424012433
1.11,6.665987852244262,11.16867206364778,26.895578338117534,-28.378125673577397,1757.3768154291336,1786.751424012433
1.12,9.210194961375564,9.641062521902342,30.671632884412784,-28.7590170660586,1718.6693910728136,1786.751424012433
1.1300000000000001,11.693548395931117,6.406145774941009,42.51783852313229,-27.876988515776723,1785.200027005246,1786.751424012433
1.1400000000000001,4.281737244435304,12.627133639404997,37.43605715042471,-28.28944288833986,1788.6443895258917,1786.751424012433
1.1500000000000001,7.3613699951048215,11.117014418131701,31.468995012717016,-28.53725529103003,1757.1879500277162,1786.751424012433
1.16,10.050241387482648,8.761873420171545,33.95359057175333,-28.28701803801115,1742.0087677220777,1786.751424012433
1.17,9.319373273644368,7.507112766369096,39.912889698810595,-27.53458628409068,1785.5994559082917,1786.751424012433
1.18,5.147646359731446,12.29957376224564,35.03252497405283,-28.346131209800173,1778.0111782301083,1786.751424012433
1.19,8.15138611205651,10.55143034047754,32.046248330204676,-28.495530751861587,1747.1871263173587,1786.751424012433
1.2,10.748683435736371,7.8894601954825925,36.70208837738599,-27.943188874445834,1757.2890954680913,1786.751424012433
1.21,6.801408568349971,9.381868298614485,38.983539885155196,-27.615680366342154,1783.4956377950818,1786.751424012433
1.22,6.031404490160979,11.891170575424594,34.478435030835676,-28.253726319569108,1769.9482822104576,1786.751424012433
1.23,8.93312128263616,9.898339352007014,33.38775948297328,-28.206085283310394,1745.790372231727,1786.751424012433
1.24,10.103800603028755,7.662478377359514,38.28798574388856,-27.512707488095757,1776.2283632422073,1786.751424012433
1.25,4.980179682878387,11.36404555856237,36.06204980512024,-27.82504855762349,1787.2093621999593,1786.751424012433
1.26,6.7500636139388295,11.498452895305384,31.046158128607143,-28.360296779895567,1759.539415721658,1786.751424012433
1.27,9.561238442388118,9.293034877023617,33.183208873172504,-28.335097727421076,1736.7904869202048,1786.751424012433
1.28,10.220627945853806,7.147811344212053,40.355802976712035,-27.514934171486274,1790.2103388181024,1786.751424012433
1.29,4.474387291815419,12.56016067335997,34.4308634155796,-28.21769445127736,1788.4760847048358,1786.751424012433
1.3,7.507830676414708,11.018632234177888,29.188018658946667,-28.586763335484225,1748.520650736383,1786.751424012433
1.31,10.211688220036791,8.573167528664044,34.319113061956436,-28.4502031483551,1736.2759050979223,1786.751424012433
1.32,9.245021597644008,7.463707807584369,41.65385190743153,-27.642272788606192,1775.163118106927,1786.751424012433
1.33,5.555983251031171,12.120595195453019,38.79051266066956,-28.3437565116278,1772.7067104596333,1786.751424012433
1.34,8.307944290359021,10.269301558033426,36.15532553464569,-28.148344833629974,1760.7233706584168,1786.751424012433
1.35,8.218199515198863,8.861312472919227,37.17576848443558,-27.55222773364775,1776.5497864498584,1786.751424012433
1.36,5.745615292988602,10.35391328536514,34.856376400884415,-27.563958151044524,1796.1775440722406,1786.751424012433
1.37,6.057993780207055,11.877646616091521,28.175440003696043,-28.31321426117184,1767.5163743343771,1786.751424012433
1.3800000000000001,8.928669922401266,9.90235483077559,29.197338760823495,-28.68266291809202,1721.0160660599042,1786.751424012433
1.3900000000000001,11.457423103580592,6.819474584109498,40.857310114849795,-28.042116341910422,1770.9235876868897,1786.751424012433
1.4000000000000001,3.8905107007516326,12.746236058646014,39.721546513522874,-28.460655768795966,1779.79521196377,1786.751424012433
1.41,7.153915290792649,11.251634271959823,35.488488688607674,-28.658021226118368,1762.6209577142329,1786.751424012433
1.42,9.594621063969404,9.036782003188305,35.784312874875425,-28.171128786635585,1756.3583210923357,1786.751424012433
1.43,7.913257173037359,8.580537499105057,38.13002805298318,-27.552953400516706,1792.1992006068733,1786.751424012433
1.44,4.656813170806139,12.493673153639975,32.11481340700369,-28.449063525714546,1784.696051840285,1786.751424012433
1.45,7.684299017421907,10.896298747218086,28.316712137915665,-28.876091985875057,1739.643194241088,1786.751424012433
1.46,10.407492235260982,8.334379590033087,35.79875812748781,-28.69930060353502,1737.7619040350212,1786.751424012433
1.47,8.310375856712746,8.126709319232498,42.69074446225449,-27.919770971442745,1770.407934656685,1786.751424012433
1.48,5.898413560751285,11.957696067559297,40.621388232373334,-28.489938477250377,1770.5335140661612,1786.751424012433
1.49,7.51720571643255,10.237226614555025,38.27826894052213,-28.10751601677202,1767.5796011722791,1786.751424012433
1.5,6.626962171216591,9.573146886715978,37.55224170612766,-27.519005608800995,1786.9312150002252,1786.751424012433
1.51,5.165439577939379,10.976282445316768,32.73961967398665,-27.72181132123188,1794.0653036615352,1786.751424012433
1.52,6.430022150793995,11.493341979641274,26.92409916160047,-28.455787052356786,1759.69262915561,1786.751424012433
1.53,9.144556931350893,9.703342532707996,30.129779322587005,-28.83979636607508,1717.5284148011683,1786.751424012433
1.54,11.644969300106224,6.49403324424516,42.39346079922189,-28.012202555993568,1781.586611269128,1786.751424012433
1.55,4.21388422820525,12.649939031041246,38.24447093234726,-28.386065604200116,1786.2809083300567,1786.751424012433
1.56,7.336839465472751,11.133218961093833,32.679797950033496,-28.594531525658393,1759.4026677428205,1786.751424012433
1.57,10.02898284061386,8.786198322394643,34.32612835717223,-28.251510654062276,1746.1752751253568,1786.751424012433
1.58,8.996613664186064,7.761002673761556,39.25043688988751,-27.538816217729234,1790.7401393850346,1786.751424012433
1.59,5.020422101672602,12.352050020090388,33.29218694315836,-28.374980265385627,1781.3586119322197,1786.751424012433
1.6,8.007538013606034,10.661008992512485,29.93476060259132,-28.661447309782034,1741.5272843734565,1786.751424012433
1.61,10.655018805345849,8.015506973080619,36.51042489463354,-28.2925588449518,1748.2330848704732,1786.751424012433
1.62,7.317193235246036,8.935826535310753,40.935033967104246,-27.779930071091638,1775.7376230836858,1786.751424012433
1.6300000000000001,6.082723378626497,11.865001225321825,37.88065528129253,-28.346862793406043,1769.5214939665084,1786.751424012433
1.6400000000000001,8.516996270774818,9.941851763524385,36.18777584530336,-28.065226857236905,1758.8719894463095,1786.751424012433
1.6500000000000001,8.001335378632978,8.799085822388388,37.75257579723886,-27.456356925071066,1783.422156681785,1786.751424012433
1.6600000000000001,5.088315803147665,11.193860273263072,33.811640836374316,-27.764973702376988,1794.009003558811,1786.751424012433
1.67,6.563562046498912,11.60592223994012,27.71939365547852,-28.43501163596274,1758.5109855482165,1786.751424012433
1.68,9.39644173334716,9.4596332132694,30.94664448557427,-28.69138589887294,1721.836531253743,1786.751424012433
1.69,11.804174180786093,6.199939490627363,41.916406938652145,-27.746606586986005,1784.8230925656683,1786.751424012433
