t,iq,id,vq,vd,omega,r
0.0,0.0,0.0,0.0,0.0,0.0,649.4140722833955
0.01,0.0,0.0,168.84765879368283,0.0,27.810508152881145,649.4140722833955
0.02,11.546997165770426,0.07273873643713324,285.68451401353707,-0.018912071473654642,54.67656569696419,649.4140722833955
0.03,11.711966444717213,-2.7190928106605603,366.68458386828,0.1824705577754997,64.89216960675053,649.4140722833955
0.04,12.243292525343417,-5.280110407619118,425.07221381695365,-1.4251519783451527,72.96684845516984,649.4140722833955
0.05,12.589239423141965,-4.391904885648811,467.03042572172996,-3.1478360621378356,85.244450011507,649.4140722833955
0.06,12.906414084453463,-3.346976734068975,495.516217229865,-4.1697250759912174,102.37064253609688,649.4140722833955
0.07,13.169961466852538,-2.080839431430748,512.6754810441124,-4.627931362603494,125.2282795378286,649.4140722833955
0.08,13.323154018667726,-0.5209076430958977,519.8941390493851,-4.604824587920444,155.10379167778225,649.4140722833955
0.09,13.258921679307036,1.4066889065388732,517.8792236318102,-4.137111218928937,194.07995710834703,649.4140722833955
0.1,12.791984823063833,3.760704995646723,506.6152110336948,-3.2225364800761382,244.4016771440009,649.4140722833955
0.11,11.62226655377335,6.534577104206445,485.4926112978511,-1.8218623598062764,285.1881724860098,649.4140722833955
0.12,10.515366407989127,5.354775965825121,459.08510592391946,-2.1533721161393733,308.4828481863559,649.4140722833955
0.13,13.317087618373673,0.657993269218135,433.68720819361175,-3.790373560391674,347.5930788944989,649.4140722833955
0.14,12.334300492344875,5.063872938998245,405.2460575045498,-3.758011240210237,407.3258058975713,649.4140722833955
0.15,9.474972330506903,9.3809742092123,368.91971294923627,-2.1685992317639458,433.9034612585556,649.4140722833955
0.16,13.13634002950598,2.283494779275081,334.6979511157676,-4.2353961046028425,483.1829960391575,649.4140722833955
0.17,10.631112471602027,8.047187421324644,297.3375152254613,-3.87588399263874,504.0766848384755,649.4140722833955
0.18,13.24354766193673,1.544740464863863,263.1623101079549,-6.338005497271178,551.6993197877282,649.4140722833955
0.19,10.497962623514344,8.220131296583624,226.67328814705814,-5.948446576498169,574.8984102369667,649.4140722833955
0.2,13.054129202153096,2.714311800672788,192.53349105330906,-8.073716690573402,629.2784430409449,649.4140722833955
0.21,8.995196348902681,9.841962224194198,154.51449303515335,-6.958467497810142,663.5627348458387,649.4140722833955
0.22,11.96541873943194,5.8827316926601965,116.79739679915618,-8.371393704056306,704.3567559115589,649.4140722833955
0.23,10.757560100904026,4.911794640722912,77.68357983288999,-8.053565940254293,756.2354545689219,649.4140722833955
0.24,8.477585541144173,10.291176860318792,36.812507574563035,-7.854922853905678,790.5348568768087,649.4140722833955
0.25,10.68491333769655,7.975613126505831,-3.740268917196369,-9.452217179143965,769.033481979989,649.4140722833955
0.26,2.630031227848743,-11.455107754696018,-34.00706657824025,-6.394133031657941,703.0650002471688,649.4140722833955
0.27,-4.951304833527675,-12.379917537013855,-43.96404419303329,-2.639854434308455,641.0363585616212,649.4140722833955
0.28,-8.779618786964269,-10.03474323205939,-35.62006006857464,0.17238875070928963,583.6563716495967,649.4140722833955
0.29,-12.010343194123084,-5.790460615284335,-13.77716207984135,1.2227255076730095,553.3495089689001,649.4140722833955
0.3,-9.170959464252498,-7.211755322665427,12.806393404353898,3.0398772854131764,567.1358645097256,649.4140722833955
0.31,8.33275021974883,8.283614389654051,30.979857140585896,0.814019990876469,611.3594315301474,649.4140722833955
0.32,10.641851807204398,5.173806029673629,36.54888795362096,-0.4117772034784618,651.1812444824759,649.4140722833955
0.33,9.22931416867446,9.622761441170748,31.424428535301214,-3.1612585523587,688.7312068418498,649.4140722833955
0.34,11.957695272280906,5.898415172997626,17.026096261963833,-4.309463148941994,709.1875486389167,649.4140722833955
0.35000000000000003,12.082137036419674,3.306039554659561,-1.1436149216334506,-5.110049281423503,697.6332995471429,649.4140722833955
0.36,1.7892441335011124,-9.582165531639339,-13.427261350998648,-2.585625847650679,662.5075354085185,649.4140722833955
0.37,-6.923480032415275,-9.373858060544956,-14.531372241130166,-0.2442444072253834,626.5349124374845,649.4140722833955
0.38,-7.756343105691126,-8.715697898039586,-6.504441642786541,1.9280984656594593,608.9770350219156,649.4140722833955
0.39,-9.43630988303144,-5.8775437227967755,6.15627358527038,3.369102854606225,613.0325865830724,649.4140722833955
0.4,2.5500495820717095,5.209307710971964,14.453713504570624,1.955907412525547,634.7271774194644,649.4140722833955
0.41000000000000003,9.31853827243795,6.908936814822353,15.511171857176333,0.2116769177814547,656.877504394481,649.4140722833955
0.42,10.57572884227224,6.6385383136093825,10.767306443388394,-1.445253675608762,669.8938463715745,649.4140722833955
0.43,10.201901656930993,3.899951570345691,2.9704623591933883,-2.392855700762548,668.1580457016324,649.4140722833955
0.44,3.445838452769238,-3.6004695589033453,-2.492071969817113,-1.4177340997442212,655.3210190827521,649.4140722833955
0.45,-2.799637518406363,-6.983429629918533,-3.078074264154099,0.36195290844556416,640.8576650089531,649.4140722833955
0.46,-4.935234044745126,-5.757935800414306,0.4608255716441724,1.7891819202540984,635.0935627417558,649.4140722833955
0.47000000000000003,-2.5802434659659053,-1.2608086494523798,4.720104940429752,2.059412811107574,637.5843690804253,649.4140722833955
0.48,1.8446290326396273,2.7499043430590993,7.147216694639651,1.331829595417684,645.3492640087085,649.4140722833955
0.49,4.8638016107861475,3.725062654727136,6.839627685550576,0.39081234861921965,652.3928038299053,649.4140722833955
0.5,5.20923264574252,2.685006178841092,4.718746928925955,-0.27003863133219286,654.412393680614,649.4140722833955
0.51,3.694124825903501,0.3108130471488144,2.540590552836776,-0.3239999618024738,651.955153419472,649.4140722833955
0.52,1.362167175987755,-1.8825477113120306,1.612670453931285,0.1685705736101423,648.1932488425105,649.4140722833955
0.53,-0.004451896153109702,-1.8985542689332733,1.9702745246818505,0.6433692064196731,644.5444000226175,649.4140722833955
0.54,0.11246966463296564,-1.0803431418972402,3.1948944463091715,0.9052728806236228,643.9089762472216,649.4140722833955
0.55,0.9946360753537153,-0.08503921951917526,4.3200420101609645,0.916579646279636,645.713813390872,649.4140722833955
0.56,2.238852006198301,1.1997472864667724,4.654903200997313,0.6037949596030833,647.7287091257931,649.4140722833955
0.5700000000000001,2.9275544586830065,1.076597588098571,4.317319393853105,0.33587705956212244,649.4619347334337,649.4140722833955
0.58,2.5737618220073433,0.2575403580540049,3.648118996132064,0.2796825423490671,649.6627832389462,649.4140722833955
0.59,2.0782629956689314,-0.0024940648578973823,3.069322011535421,0.28290640279266055,648.2607816188265,649.4140722833955
0.6,1.5251999244918175,-0.6356428813835552,2.9958953434676845,0.4481486113038059,647.341960589777,649.4140722833955
0.61,1.1155106435909945,-0.6665707435807974,3.248330709074055,0.6151005758209775,646.6503654713157,649.4140722833955
0.62,1.4199959397566586,0.019621960456824183,3.5881295253778016,0.6033331586663953,646.4889830704572,649.4140722833955
0.63,1.7787797409351145,0.07672637066974564,3.872732879375414,0.5835805218968299,647.4875916476217,649.4140722833955
0.64,1.941818888615533,0.30187924705423463,3.8572818389165375,0.5058591813694263,647.9114545850986,649.4140722833955
0.65,2.1622235802891003,0.41005383376370086,3.6859376921269944,0.40226397706140626,647.9825426448075,649.4140722833955
0.66,2.005392762774733,-0.1073361867029411,3.5433293386583693,0.43427192394180786,648.2642251914372,649.4140722833955
0.67,1.7481957508396098,-0.05715717563038614,3.3934973185911095,0.4480594277386789,647.6220308504126,649.4140722833955
0.68,1.7420503034719992,-0.05859467949037205,3.4124784988527708,0.46272247264987193,647.2073597115777,649.4140722833955
0.6900000000000001,1.6294373079025135,-0.3242177411227516,3.562070156175629,0.5464331385468837,647.4976489796446,649.4140722833955
0.7000000000000001,1.709247567113519,0.13308131857921657,3.6101630950621924,0.5085898183050598,647.2700597724103,649.4140722833955
0.71,1.9245886241207815,0.1538540474615424,3.6651415482805803,0.4699185791508509,647.5155632457169,649.4140722833955
0.72,1.83967091496075,-0.1378722706327875,3.6782452213185897,0.5073039099899912,647.9474379041958,649.4140722833955
0.73,1.8930899892538324,0.23151091026012582,3.56677838147734,0.44573235061603067,647.6074375107827,649.4140722833955
0.74,1.9265034775527927,0.009084931211623681,3.5398770742934897,0.4456853776036098,647.6978987503413,649.4140722833955
0.75,1.689054748914907,-0.2756178341542688,3.5481266452191025,0.517436863795836,647.749239409342,649.4140722833955
0.76,1.7798437549611315,0.15840424351840876,3.517952628341741,0.473495582139507,647.333262941122,649.4140722833955
0.77,1.8391983550830566,-0.05443521135684534,3.5819215938203266,0.48923277952747085,647.635965112551,649.4140722833955
0.78,1.6886229632456407,-0.14233481274929838,3.602771377924116,0.52569547872872,647.669618053453,649.4140722833955
0.79,1.8571709405574632,0.22324697704414287,3.572570191088254,0.4662279165697497,647.4264897107697,649.4140722833955
0.8,1.876640126863518,-0.07182555303741334,3.6025423940925956,0.48713503012991866,647.8366342126856,649.4140722833955
0.81,1.7348166357974706,-0.036855720234138634,3.560514542712216,0.49599926186042054,647.6549503155181,649.4140722833955
0.8200000000000001,1.8596367728230803,0.15264600977804477,3.5359544790772084,0.45594274211578756,647.3898992370117,649.4140722833955
0.8300000000000001,1.8115890300261,-0.1725674364278128,3.5922314713796655,0.5023367356847994,647.7842295330919,649.4140722833955
0.84,1.740662899578281,0.046220864157592106,3.5612923924046784,0.48859363663954736,647.5059362023514,649.4140722833955
0.85,1.8822926294810451,0.12753271759273843,3.569119891303809,0.4558973387070113,647.415011311858,649.4140722833955
0.86,1.8037928064496471,-0.19326253228689344,3.6196311797110106,0.5074209242775312,647.8224619812677,649.4140722833955
0.87,1.796290210764885,0.13435437062328354,3.564461721814499,0.47055616259260835,647.4936782436755,649.4140722833955
0.88,1.907528289709149,0.08079416146545981,3.5698536159036927,0.4508932243178218,647.5116059168796,649.4140722833955
0.89,1.7616675473297332,-0.2356421839472034,3.6063326513919893,0.5129681337587492,647.8089832392998,649.4140722833955
0.9,1.8098215730362854,0.17251350255736841,3.5516942056755845,0.46575820125436135,647.4412103103687,649.4140722833955
0.91,1.8958729575574143,0.023547307840883852,3.5737586749870434,0.46136103624130526,647.591693038161,649.4140722833955
0.92,1.7161179959335788,-0.23171128180787937,3.600616709650592,0.5218414425897627,647.7665043011367,649.4140722833955
0.93,1.8271642509786743,0.20462965628364865,3.552859067290416,0.46632061913793516,647.4197654512362,649.4140722833955
0.9400000000000001,1.8836599309018975,-0.025636857936510715,3.5834232243045347,0.4750324987642643,647.7089445147386,649.4140722833955
0.9500000000000001,1.6991680642867186,-0.16839776367138037,3.583866278428206,0.518559548739458,647.7187200270647,649.4140722833955
0.96,1.8399570291235225,0.19945445825015934,3.546209440458398,0.4650174119577029,647.4122861899444,649.4140722833955
0.97,1.8542362251644953,-0.0878420508229133,3.5860184539408353,0.48985088975416186,647.784081727251,649.4140722833955
0.98,1.712066218736557,-0.058927608340337556,3.5632032829840474,0.5042936474144207,647.6221725071501,649.4140722833955
0.99,1.8532026536751922,0.1648712884651079,3.548085291478215,0.46083783633008923,647.3762730837327,649.4140722833955
1.0,1.8253066095066812,-0.14958495504658564,3.6039463936931035,0.5013786375268526,647.7971828833469,649.4140722833955
1.01,1.7497102014077393,0.04619272945387598,3.5672880594381793,0.48787267831837894,647.5421547489218,649.4140722833955
1.02,1.8874760211816564,0.13489044675017048,3.5645710609077033,0.45326308945787336,647.427879913511,649.4140722833955
1.03,1.8071268958589908,-0.19351335837157635,3.6112836690214207,0.5049254671019849,647.8260958425373,649.4140722833955
1.04,1.78550864467124,0.1179311726196689,3.558134641289789,0.4723282286371553,647.4833417467863,649.4140722833955
1.05,1.8991100898387014,0.08184439043639016,3.568331279488245,0.4522279988498906,647.4820840107864,649.4140722833955
1.06,1.7649773989675324,-0.23197133443760942,3.61143790216736,0.513358989708033,647.8019818995341,649.4140722833955
1.07,1.8107819073306173,0.17249115976881507,3.5581079973289502,0.46619157482376483,647.4458215949104,649.4140722833955
1.08,1.903074547437463,0.03526684776362987,3.577040709236032,0.45874710600290913,647.587067447962,649.4140722833955
1.09,1.7263369393071466,-0.23207942270103366,3.6025626008184104,0.5194404243828142,647.780950142436,649.4140722833955
1.1,1.827345498176809,0.20107566332418142,3.5510578489806393,0.46483995769151676,647.4279375066985,649.4140722833955
1.11,1.885313474142533,-0.021642263161151587,3.5792136212169696,0.47247770274665785,647.6947176720165,649.4140722833955
1.12,1.6976293793788337,-0.18172349899725776,3.5838539685114696,0.5195093898543333,647.7225503718065,649.4140722833955
1.1300000000000001,1.8358420761910854,0.19969956542524747,3.5461134733949278,0.4657702678537963,647.3990821344238,649.4140722833955
1.1400000000000001,1.8570147466085623,-0.08063575608416962,3.5886302796553697,0.4887325600899331,647.7688090868206,649.4140722833955
1.1500000000000001,1.7124140231004488,-0.06910423772001029,3.5695913107350923,0.5058933043362941,647.6309533124391,649.4140722833955
1.16,1.8559437695226477,0.17298841464893755,3.5513283713731147,0.46022527415037007,647.3891389879841,649.4140722833955
1.17,1.8346055074402523,-0.13869908621237959,3.60154184423128,0.49801692071207804,647.8060956732693,649.4140722833955
1.18,1.7460926718501846,0.03153277910310659,3.56372839030334,0.4884314072831465,647.5529707266011,649.4140722833955
1.19,1.8816151462353623,0.1353374194263536,3.5597760176659397,0.4535590060233257,647.4152406921348,649.4140722833955
1.2,1.8076990453191186,-0.1911148674364398,3.6096756155051555,0.5046022457510636,647.817075961797,649.4140722833955
1.21,1.780041424162107,0.10918910504215867,3.5601725633792194,0.47430192976573776,647.4885528868234,649.4140722833955
1.22,1.8990406383408305,0.09010601036624744,3.568887491544985,0.45196625812093494,647.4741476239908,649.4140722833955
1.23,1.7717708826998042,-0.22785268780111317,3.612342685905947,0.5121090170528869,647.8078683374297,649.4140722833955
1.24,1.8086499825355098,0.16697151820297035,3.558025178630782,0.46641789544210344,647.4483363549925,649.4140722833955
1.25,1.9035015554044343,0.041087358214101255,3.5762305759760995,0.45740489748846674,647.571841243644,649.4140722833955
1.26,1.731481254140479,-0.23405942553211576,3.6044031765049747,0.5186712217089579,647.784670851344,649.4140722833955
1.27,1.826059628062365,0.19887726284324447,3.552164547686042,0.4646225391143932,647.4296982663858,649.4140722833955
1.28,1.888684143495667,-0.013889285122987483,3.579010496759803,0.4702225258748025,647.6817435414649,649.4140722833955
1.29,1.7003614336652244,-0.19093066778353152,3.5863650981736566,0.5197256066472908,647.7321246593123,649.4140722833955
1.3,1.8348796243269794,0.2010507933544461,3.546283105027633,0.46554309369729935,647.4057728648328,649.4140722833955
1.31,1.8608724159688932,-0.07288282776720789,3.586143445704468,0.4865031368503178,647.763072843085,649.4140722833955
1.32,1.7083924783551263,-0.08498892052099227,3.5697469857869413,0.5078714279081037,647.6423104704319,649.4140722833955
1.33,1.8517268649748502,0.17606423894611614,3.54953000264447,0.4612448365769035,647.3892542177019,649.4140722833955
1.34,1.83663666981586,-0.1316876712787879,3.599256816092789,0.4972442734988495,647.8023684709117,649.4140722833955
1.35,1.740544443832743,0.019393157824634993,3.5638764379832923,0.49088517575165647,647.5630818900137,649.4140722833955
1.36,1.8779133988534944,0.14065843253152632,3.55816486287415,0.4545079148717061,647.4101930616175,649.4140722833955
1.37,1.8109271150557336,-0.1851706802501693,3.6086016406766546,0.5040588760620653,647.8168197439322,649.4140722833955
1.3800000000000001,1.7752840900811282,0.1003911412214813,3.5603839164487914,0.4761054725419787,647.4979451488988,649.4140722833955
1.3900000000000001,1.897032171142348,0.09643096201238854,3.5671289224271066,0.45203733383097244,647.4661618551947,649.4140722833955
1.4000000000000001,1.776008139831562,-0.22464505178427663,3.6116325677695573,0.5114093569150081,647.8104356268353,649.4140722833955
1.41,1.804365827861416,0.16039761609382053,3.5577239603475443,0.4674595262127721,647.4480469060811,649.4140722833955
1.42,1.902866728379626,0.0473917394269915,3.5761525007835964,0.4567416501226927,647.555600440979,649.4140722833955
1.43,1.7370481761458363,-0.23416472709284297,3.6070910675246264,0.5180983965611018,647.788957591121,649.4140722833955
1.44,1.8254629260566357,0.1973230535000864,3.5537862900785813,0.4644527553801508,647.43281020787,649.4140722833955
1.45,1.8924924586368066,-0.0061993875056278736,3.5788698728074566,0.4680378266666149,647.6696432109426,649.4140722833955
1.46,1.7034061203840767,-0.19964858375339367,3.588648144176472,0.5198844645674411,647.7418314407612,649.4140722833955
1.47,1.8336501133103227,0.20189871213549368,3.5462715042800235,0.46539431357467875,647.4131647902695,649.4140722833955
1.48,1.864343242264642,-0.0653381824205902,3.583392302210727,0.4844012281253871,647.7566778439183,649.4140722833955
1.49,1.7040705610059252,-0.1012384348116519,3.5698908681046526,0.5100698393522105,647.6545663018453,649.4140722833955
1.5,1.8472091178281063,0.17912718648487091,3.5475548138876856,0.4624843865180275,647.3826845402584,649.4140722833955
1.51,1.8380060568645475,-0.12501307713205573,3.5987110836813248,0.4967790584372108,647.7940797147451,649.4140722833955
1.52,1.7366309055120213,0.00876504940668188,3.5664512992345894,0.49325001482015296,647.5656742148097,649.4140722833955
1.53,1.8767284467198533,0.14763410501468743,3.5602517842883428,0.4549527980104011,647.4045624693911,649.4140722833955
1.54,1.8183437412273205,-0.17646845947771045,3.610238266991736,0.5023109385247526,647.8195550307292,649.4140722833955
1.55,1.7743794500189694,0.09236169243791736,3.561562434952261,0.47653221389611694,647.509619647337,649.4140722833955
1.56,1.8970301037498787,0.10190269318947812,3.5652909153260355,0.4509611305912319,647.4590828271982,649.4140722833955
1.57,1.781098628593783,-0.22244069752646467,3.610428305179855,0.5098147388800075,647.8111978871116,649.4140722833955
1.58,1.8002700298708807,0.15224509981205803,3.5573665321712142,0.46800660595360766,647.4532812691796,649.4140722833955
1.59,1.9024299425618136,0.05316444741936854,3.574514367137157,0.4557063006226925,647.5414612776814,649.4140722833955
1.6,1.741466903224482,-0.2354653176576713,3.6080282230679255,0.5174589276878808,647.7913310115446,649.4140722833955
1.61,1.8230194252217995,0.1939940580023613,3.554644462166606,0.4646658194306902,647.4352788844018,649.4140722833955
1.62,1.8949543346669642,0.0013489288166471658,3.5784454004252737,0.4662550385183855,647.6559514106317,649.4140722833955
1.6300000000000001,1.7061238840759434,-0.20780200194542492,3.591126226840851,0.5202970483123625,647.7501281725678,649.4140722833955
1.6400000000000001,1.8323704320615963,0.20291267162637816,3.5468154134331704,0.4654617336700499,647.417769426867,649.4140722833955
1.6500000000000001,1.8679867007010689,-0.05741112703547713,3.5818618771606343,0.48241775341553783,647.7488538514901,649.4140722833955
1.6600000000000001,1.7010216209802278,-0.11658821008994735,3.5712698864428982,0.5121565767685694,647.6680811352024,649.4140722833955
1.67,1.8439931859857492,0.18285575339308602,3.54614738850755,0.46344819878546745,647.3830198006161,649.4140722833955
1.68,1.8399914303611133,-0.11873376255898471,3.596803282514228,0.49614753458473426,647.7893648827029,649.4140722833955
