t,iq,id,vq,vd,omega,r
0.0,0.0,0.0,0.0,0.0,0.0,2382.606306533184
0.01,0.0,0.0,619.4776396986279,0.0,16.195528417708978,2382.606306533184
0.02,11.546892324373403,0.05979126860319624,1059.9749802446013,-0.015545729836831022,27.918872605171927,2382.606306533184
0.03,11.676765090669349,-4.0292130523169565,1387.5543126913965,-0.30129255651081915,29.47918020906095,2382.606306533184
0.04,11.931330979184139,-5.95156440299007,1632.9947544980414,-2.5033754529312366,31.77749905010656,2382.606306533184
0.05,12.11538800255789,-5.567328921956563,1816.5583955725274,-4.060480355813665,35.132537146478064,2382.606306533184
0.06,12.302221368084647,-5.141315705966639,1953.4454977709668,-5.104688825702426,39.649335878533975,2382.606306533184
0.07,12.493248568787138,-4.6579521225830405,2055.0343084112137,-5.753651648044879,45.47027534481696,2382.606306533184
0.08,12.687523831552404,-4.099331262726579,2129.823655141596,-6.090763402500404,52.778738362165356,2382.606306533184
0.09,12.880675701754603,-3.4447019093103366,2184.1419626235693,-6.173042125717829,61.80349186571022,2382.606306533184
0.1,13.063252994727288,-2.6700559869647478,2222.6776944989506,-6.036835202356842,72.82347064420667,2382.606306533184
0.11,13.218253516255498,-1.7480136606379375,2248.8756184712297,-5.7018770020502645,86.17234851886005,2382.606306533184
0.12,13.317558633997837,-0.6483901663407323,2265.2322839783333,-5.1741146412782495,102.26410703979056,2382.606306533184
0.13,13.316993150235646,0.6599024279047621,2273.510137819567,-4.447678613681772,121.7508704262378,2382.606306533184
0.14,13.149626403485044,2.205697900109322,2274.8560577142844,-3.506699933267848,145.30968628213978,2382.606306533184
0.15,12.71682769528039,4.007501858555694,2269.9455070952686,-2.3264997141086794,173.70905744732352,2382.606306533184
0.16,11.87892187679148,6.055492781174999,2259.0681940874197,-0.8747267749680354,207.82199059439753,2382.606306533184
0.17,10.449772081186392,8.28130673438891,2242.1852968225253,0.8846657643496068,216.21340608212546,2382.606306533184
0.18,13.173383091688018,-2.0590667054289455,2227.270726521217,-1.6637990973045875,230.08373317728302,2382.606306533184
0.19,13.292963220735816,1.0367770203581097,2213.024578207475,-2.7734420385832057,251.85924121505806,2382.606306533184
0.2,12.617517583048883,4.309991626352654,2197.0655978978166,-2.5682453693706475,282.23739074327653,2382.606306533184
0.21,10.946929239813972,7.611998291925953,2177.438129998865,-1.2762086908536143,289.417485444521,2382.606306533184
0.22,13.20201118526549,-1.8667293435050034,2160.2203373170983,-3.800278707397608,304.4579392616384,2382.606306533184
0.23,13.142365447132605,2.2485569220708452,2144.1881520742963,-4.573538729824677,330.1498579232875,2382.606306533184
0.24,11.69829787253766,6.397468613690776,2125.9735924974707,-3.721876164464895,366.8506487647425,2382.606306533184
0.25,8.65976965044895,10.138351314634,2102.9365224999306,-1.5249226108021374,382.74137846824874,2382.606306533184
0.26,13.04432456116114,2.7610459106769545,2081.5707626744625,-3.2184232922672393,410.6212214681687,2382.606306533184
0.27,10.832693408868005,7.773707692423573,2059.036082538104,-2.7507434637176162,419.4336797479527,2382.606306533184
0.28,13.332748386887163,0.12489287303720625,2038.9130513991868,-5.314512970219344,440.9594802954648,2382.606306533184
0.29,11.957475441319685,5.898860809343986,2019.4052700046027,-5.443403885541247,477.4510529963558,2382.606306533184
0.3,7.891732786053614,10.74701500005021,1995.7200596554812,-3.2784717204691596,496.9699812625187,2382.606306533184
0.31,12.284088471813437,5.184491122032898,1972.8408237405586,-4.575911475625443,532.1881056391354,2382.606306533184
0.32,7.90312490825329,10.73864025202093,1947.3214682768253,-3.061440487804455,552.2821288267743,2382.606306533184
0.33,11.972408274110528,5.868493664969531,1922.7883091288463,-4.599494404516278,589.7061723030288,2382.606306533184
0.34,6.614761921973965,11.576817459620798,1895.5253559169053,-2.8798122072572014,614.3083216731449,2382.606306533184
0.35000000000000003,10.746981760875723,7.891778051186077,1868.7443434059758,-4.060039154918093,625.3812630682842,2382.606306533184
0.36,12.969306407442984,3.0943285358274526,1844.814021850705,-6.987399120991861,656.6987734917775,2382.606306533184
0.37,8.253544836995172,10.47171310729472,1820.5395797950669,-6.075654341785777,677.0778024425422,2382.606306533184
0.38,11.34690159207018,7.00182847816575,1796.632686808219,-7.419652797468093,686.2652476947331,2382.606306533184
0.39,13.016776887370975,2.8881304060209185,1775.2393396671,-10.04110969522005,717.6789666161594,2382.606306533184
0.4,7.743851253078729,10.854056640167709,1753.274035115863,-8.591127450185878,740.3588968701195,2382.606306533184
0.41000000000000003,10.488106564939192,8.232702986277175,1730.6041989023943,-9.242913950595966,753.8121398828497,2382.606306533184
0.42,12.285506787746492,5.181129292539665,1709.352077636326,-11.176921186962776,790.3665792739606,2382.606306533184
0.43,4.761854111396284,12.454016348132678,1685.9645227197013,-8.460246272287382,821.7211795833382,2382.606306533184
0.44,7.2010504697285125,11.221526184534817,1660.4563261485248,-7.876368422024192,847.16158790073,2382.606306533184
0.45,9.049977658458902,9.79161284769636,1634.6592276877739,-8.71619812414466,867.0558807615322,2382.606306533184
0.46,10.426229793417662,8.310927148797996,1609.8656288900452,-10.365096002554314,882.1749893396094,2382.606306533184
0.47000000000000003,11.438286936479113,6.851523169087955,1586.9325209365381,-12.39645852982755,893.1466115810501,2382.606306533184
0.48,12.173440775972935,5.439220298136229,1566.3955284380072,-14.531077230128771,929.1252871012833,2382.606306533184
0.49,2.6216457991908015,13.073054389903032,1544.5512853968319,-10.979377682108266,964.1109107727998,2382.606306533184
0.5,3.370698312601088,12.900239170775318,1519.4167437115048,-8.89819570220724,998.2306548333889,2382.606306533184
0.51,3.6491076867550634,12.824265704836392,1492.1145826483935,-7.76034793729607,1031.913962494189,2382.606306533184
0.52,3.4710720172680274,12.873594557415444,1463.3146185090022,-7.088005144125757,1065.565215065854,2382.606306533184
0.53,2.832651576114354,13.028962461612766,1433.4385830932767,-6.516341712506495,1099.3628703789043,2382.606306533184
0.54,1.7165447217220562,13.222376941991401,1402.753687652371,-5.757984861188714,1133.0795477777117,2382.606306533184
0.55,0.10847870964695172,13.332892039888833,1371.484261651491,-4.578046525691331,1158.6521798209694,2382.606306533184
0.56,0.8976911021746181,12.075059186729312,1341.0505834974135,-5.399396815275286,1176.3208759765319,2382.606306533184
0.5700000000000001,8.903696558850601,9.924815633838731,1312.3062285070332,-9.475893392341387,1200.108885470488,2382.606306533184
0.58,6.82231781226785,11.455730332291807,1285.7595753331323,-11.63521352869353,1229.0221080944782,2382.606306533184
0.59,4.13071254596071,12.677341662999407,1259.4201042351401,-12.016222898758553,1260.6777337785813,2382.606306533184
0.6,0.7985727708622328,13.309397405871355,1232.3908970365558,-10.689015784385493,1291.6696735708422,2382.606306533184
0.61,-3.0352354405037376,12.983263210706614,1204.6698961511065,-7.681447661055053,1312.909895783541,2382.606306533184
0.62,6.446284113535491,11.671469440707012,1176.6646084455356,-10.983659532714178,1342.0714561592272,2382.606306533184
0.63,2.174251896646652,13.154862464796283,1149.8382693270396,-11.389440845163765,1372.393652122596,2382.606306533184
0.64,-2.7841558756006046,13.039411560271283,1122.8620093005923,-8.984094701490008,1393.6704233498401,2382.606306533184
0.65,5.672482621818209,12.066512283296618,1095.2757467782164,-12.210103742433802,1422.966409240839,2382.606306533184
0.66,0.17786417335656673,13.332146943145126,1069.0559931789765,-11.830825636033328,1445.1462860219979,2382.606306533184
0.67,-2.157578185741751,11.767163984001646,1043.430942346136,-11.486511700613212,1471.1453963494903,2382.606306533184
0.68,1.7263089093729118,13.22110567718137,1017.6803220024093,-12.599916908590393,1499.0031913604967,2382.606306533184
0.6900000000000001,-4.933386063337766,12.387069053163561,992.570166512777,-9.469049297516904,1523.5444518405952,2382.606306533184
0.7000000000000001,1.8058098862699807,13.210481763827818,966.3453572279496,-11.565299662634379,1550.4803491272014,2382.606306533184
0.71,-5.529163929499863,12.132853086495995,941.3828996682291,-8.671593544227052,1575.3912352446084,2382.606306533184
0.72,0.43677390885666845,13.326177483821827,915.3861454313679,-10.61399084426652,1599.0518190873622,2382.606306533184
0.73,-7.347502256410289,11.126184807463131,891.1366257299728,-7.719066373099526,1624.6821646589688,2382.606306533184
0.74,-2.3306723754019494,13.128051799727025,866.0952869965589,-8.611312676869103,1645.7154802344721,2382.606306533184
0.75,2.7778963073277705,13.040746523244458,840.3590164317606,-12.445160734618197,1671.1211527231892,2382.606306533184
0.76,-6.16653668873647,11.821658218889802,817.127112109841,-9.808307528404114,1695.460038770386,2382.606306533184
0.77,-1.9562681015652306,13.189040635792129,792.8281513081982,-11.009435639598347,1715.9828684870108,2382.606306533184
0.78,2.182756348622755,13.153454014072683,767.9247723396225,-14.485289834196186,1739.4059233619762,2382.606306533184
0.79,-7.5228327142028775,11.008395238721068,745.9767706667533,-10.782772862259526,1763.2297512065932,2382.606306533184
0.8,-4.425333518182138,12.577527619951045,723.140816714092,-10.640692903758827,1785.7119267640603,2382.606306533184
0.81,-1.327167448419064,13.267117408903662,699.5182710405439,-12.777982465741179,1805.3259679406247,2382.606306533184
0.8200000000000001,1.568803863426437,13.24071871976276,675.6334334989937,-16.183921329782255,1826.2101791667014,2382.606306533184
0.8300000000000001,-8.979904609008923,9.855916547479389,655.3164485150169,-11.411030896124357,1847.7237959321192,2382.606306533184
0.84,-7.183323151678071,11.232882367244105,634.5859486895416,-9.67094307736814,1869.971450295243,2382.606306533184
0.85,-5.445144817903781,12.170791908903599,613.2113772923052,-9.942584891074167,1891.8465021390268,2382.606306533184
0.86,-3.8701686285607235,12.759293576224437,591.2891983763192,-11.474504407952104,1912.866327257204,2382.606306533184
0.87,-2.5185940365282002,13.0932983566763,569.098802124645,-13.699332406247102,1932.914192760677,2382.606306533184
0.88,-1.4181345322798258,13.25770237356885,546.9492360282882,-16.209858594777305,1951.9822024223013,2382.606306533184
0.89,-0.5761961336400538,13.32087744082033,525.1272471922224,-18.72867145046826,1970.237906862389,2382.606306533184
0.9,0.010579268911308226,13.333329136297769,503.84105549497303,-21.076823327549715,1987.7221446954102,2382.606306533184
0.91,0.2987858629308189,13.304872283964666,483.2748778696695,-22.58522146971953,2004.442694717338,2382.606306533184
0.92,-4.464335471868066,10.708683144885804,464.8759829393737,-21.458550931882733,2020.2868625323163,2382.606306533184
0.93,-6.077731080818508,9.834631498310994,447.50271208695955,-19.91559800716305,2036.0339437363202,2382.606306533184
0.9400000000000001,-4.471314139984333,10.766731209429608,430.104995948298,-19.642203694552624,2052.8613955542137,2382.606306533184
0.9500000000000001,-0.6864802582605323,13.31564953852407,411.9404747734704,-21.89594317451421,2070.66423783996,2382.606306533184
0.96,-1.5066569140756751,13.247934281277427,394.27266936405795,-23.3712530544797,2088.8829897002183,2382.606306533184
0.97,-2.573181021315231,13.082680046891035,376.942929864458,-23.98895564719569,2107.436226337799,2382.606306533184
0.98,-3.8761440181294367,12.757479583699013,359.8661649838239,-23.765574560959923,2126.0715472296874,2382.606306533184
0.99,-5.387608382726663,12.196370513072775,343.0008011442365,-22.68080282033527,2144.315487343776,2382.606306533184
1.0,-7.051867449553434,11.315871298830967,326.3741782412362,-20.690192666688635,2161.568410441552,2382.606306533184
1.01,-8.775941819676637,10.03795910309603,310.0742641127896,-17.744858730222116,2176.936868719366,2382.606306533184
1.02,-10.426332407742057,8.310798415377757,294.29111906024605,-13.820346640778132,2189.325768947902,2382.606306533184
1.03,-11.839055866846355,6.133068885922333,279.3347931449141,-8.952308191339597,2204.311610064736,2382.606306533184
1.04,-3.2959299441382828,12.911696695856214,261.74928583159755,-13.304097308579342,2221.622238055615,2382.606306533184
1.05,-6.048308484442537,11.882581464260962,245.62461954133406,-15.108171716133944,2238.031310453287,2382.606306533184
1.06,-8.713107729650513,10.092548313943421,230.3919108685484,-14.258346694890108,2252.0451997389614,2382.606306533184
1.07,-11.007594909302156,7.524003727436806,215.92708881240554,-11.049376417472002,2263.250694232034,2382.606306533184
1.08,-12.618973506606538,4.305727048634181,201.8192302135132,-8.964093374555915,2278.3332704171307,2382.606306533184
1.09,-6.115312084972812,11.84823766984623,186.3170314382881,-12.343990783771122,2293.7593496251334,2382.606306533184
1.1,-9.348570085208332,9.50694562621064,172.15584562774256,-11.988178504304653,2305.8001675117252,2382.606306533184
1.11,-11.845996786848298,6.119651779616019,158.92900914141413,-8.48159806281994,2318.596906152509,2382.606306533184
1.12,-6.886787555734989,9.874564233034855,143.78774844433548,-11.19081541868563,2333.5318831479826,2382.606306533184
1.1300000000000001,-8.730751136401564,10.077289435756052,130.06973231282694,-12.120709439178428,2345.7088264603635,2382.606306533184
1.1400000000000001,-11.711296628939909,6.373641741324848,117.46806796437436,-9.133461501551373,2357.343499794595,2382.606306533184
1.1500000000000001,-8.337942643759039,8.101320554958441,103.32792697769159,-10.73251619112697,2371.362700658858,2382.606306533184
1.16,-9.324690957053374,9.530368111108025,90.43902215810222,-11.492237223811856,2382.0790523386218,2382.606306533184
1.17,-12.279991366429506,5.1941880807489555,78.22228507250807,-9.607053836207555,2394.390239705798,2382.606306533184
1.18,-7.587107634158774,10.004772099042196,64.71624657751583,-12.071441557539542,2406.948294951143,2382.606306533184
1.19,-10.844981423699016,7.756555659401988,52.8695312374983,-11.278986898229974,2417.2929490207766,2382.606306533184
1.2,-9.962534430476566,6.133181674503605,40.15571220600568,-11.659540984296752,2428.791055001333,2382.606306533184
1.21,-9.341860666034396,9.51353861999714,27.92781444645924,-13.489702557846345,2438.946104814786,2382.606306533184
1.22,-9.155019422714364,7.368744629280904,15.421862471865882,-14.692959578621586,2440.522998928775,2382.606306533184
1.23,-6.770310878901927,7.1510626684533785,2.5956510661156296,-16.478548426126654,2431.4728693314123,2382.606306533184
1.24,2.736628011923949,3.358374281885749,-10.309714729357035,-17.280215112732417,2411.222491945163,2382.606306533184
1.25,11.130786472192074,-2.18652402981016,-20.127895511139908,-16.678135122162914,2381.860340240156,2382.606306533184
1.26,11.089359053463005,-3.9020815260898543,-22.345335946603225,-15.567325326270563,2350.9437330424125,2382.606306533184
1.27,11.420074265051632,-5.109779313197797,-16.592812913469512,-14.126280167032233,2323.2802025285355,2382.606306533184
1.28,10.45138012992351,-4.9183141486656385,-4.087809698298177,-12.898616281511146,2307.2021453456473,2382.606306533184
1.29,6.2544003838929765,-2.764370256621169,13.402380871901975,-12.229063156276299,2307.4925878612894,2382.606306533184
1.3,-4.234048862566444,6.174242373123822,33.34130282282543,-13.862009875854703,2318.8270081542473,2382.606306533184
1.31,-7.167972342388257,10.522349192354163,49.100180846131124,-15.864435980626347,2331.187088359818,2382.606306533184
1.32,-10.010220278975556,8.80756877601102,59.02195914185792,-15.98209082851461,2342.5561178560097,2382.606306533184
1.33,-9.381548285722749,7.2720357970274065,63.164170674310775,-15.81553606463333,2356.9923223879086,2382.606306533184
1.34,-6.6100577675501295,11.579504051876658,62.7168263382448,-17.689569708678775,2369.6824036529647,2382.606306533184
1.35,-10.442369351428116,8.290639306237637,60.14743169860355,-16.44747730533149,2380.767359714506,2382.606306533184
1.36,-8.81098366344555,7.543244708979612,54.31693754305548,-16.45714148355909,2394.694602292968,2382.606306533184
1.37,-8.068583821884832,10.614882612963559,47.276625841908555,-17.230809744810287,2405.4122225072842,2382.606306533184
1.3800000000000001,-11.255930758356639,6.681597572940208,39.03821783519949,-16.865493841396052,2417.3521230958054,2382.606306533184
1.3900000000000001,-7.235239451914694,9.898306055693414,29.230247630408986,-17.956600661085886,2426.7550829335423,2382.606306533184
1.4000000000000001,-9.368737180076174,8.769080631376342,19.03310773578494,-19.32487308293809,2431.683491386166,2382.606306533184
1.41,-6.016972007126027,10.302010432086012,7.802806591201237,-21.6063348276873,2428.899198159095,2382.606306533184
1.42,1.4227650572390607,8.21345464896725,-4.172662017959133,-23.638812932097924,2416.6279397428552,2382.606306533184
1.43,9.853191415738328,4.55193975118217,-15.102959853734088,-24.740182720915612,2395.759492068714,2382.606306533184
1.44,13.328812879559788,0.34716710595740974,-21.149678062606046,-24.479573459981275,2368.7984307095708,2382.606306533184
1.45,11.502260964275475,-1.0245515310235174,-19.68038169516354,-23.09578707931362,2342.9271548892843,2382.606306533184
1.46,12.773252281088682,-2.905360291094859,-12.17112880973835,-21.957788339636913,2321.7026658960845,2382.606306533184
1.47,12.346976747778061,-0.8311328146878694,0.2051831649796681,-21.74984526976429,2312.4416945903517,2382.606306533184
1.48,8.288221390086166,4.647235287923949,15.807478069800469,-22.966437772771393,2317.00948614925,2382.606306533184
1.49,0.21309355103616134,11.568299256372043,31.878173437051043,-25.701423585377004,2326.9495315458876,2382.606306533184
1.5,-6.8819273884813175,11.339946338710103,44.94901499050926,-26.524114481584878,2337.521563684236,2382.606306533184
1.51,-7.557532694767371,9.427344430885828,52.71133890914902,-25.817409724710505,2350.102074528271,2382.606306533184
1.52,-4.497064232158017,11.496821392248366,55.04662530852962,-26.211183112232483,2364.880507338889,2382.606306533184
1.53,-7.35514521669356,11.121133782988476,54.96026947837718,-24.97574461459726,2375.7790949653977,2382.606306533184
1.54,-10.338101198918316,7.846315152620539,51.794768923047805,-23.427145000193388,2388.2355410444425,2382.606306533184
1.55,-5.257142024153423,11.473946089867425,45.239675977206694,-24.229362876240664,2399.4959730138,2382.606306533184
1.56,-8.91934869900409,9.91075156400118,38.35976880877591,-23.748509777776466,2410.0567464332116,2382.606306533184
1.57,-6.334015993179553,9.672795124424926,29.39524323380437,-24.069093697705043,2418.762847058191,2382.606306533184
1.58,-6.838259593507475,11.446221363820495,20.005363742836096,-25.587813207054012,2424.6559838971,2382.606306533184
1.59,-3.5714038429397865,11.104318473247051,9.591015206437396,-27.183455512179286,2425.283775348494,2382.606306533184
1.6,1.7534573994585607,11.413096780795518,-1.5476300066859177,-29.633841819037148,2416.164697745193,2382.606306533184
1.61,9.598911287840863,6.793064723583864,-12.501426533991419,-30.800601719948812,2398.356409263161,2382.606306533184
1.62,11.112533818075285,3.418445929443621,-18.700410160714966,-30.181956783902482,2377.045940838833,2382.606306533184
1.6300000000000001,13.309817441015575,0.7915411957790628,-19.272003943603845,-28.91589680315998,2353.0872488452064,2382.606306533184
1.6400000000000001,11.683324218102372,1.0943899732731088,-13.774909693254404,-27.630056251383774,2331.893149388959,2382.606306533184
1.6500000000000001,11.807077390227278,0.6180166793825781,-3.7414274388093363,-26.984581533834586,2319.762964744981,2382.606306533184
1.6600000000000001,11.230951160894211,4.062939184137395,9.24352577147235,-27.870706598793035,2318.968207504123,2382.606306533184
1.67,5.743259509022257,9.773550708905853,23.383811029946752,-29.79870447902846,2326.187829685848,2382.606306533184
1.68,-1.618823810343943,12.591206576042861,36.2729716728696,-31.239432937896314,2335.7637607569804,2382.606306533184
