t,iq,id,vq,vd,omega,r
0.0,0.0,0.0,0.0,0.0,0.0,290.53734174047855
0.01,0.0,0.0,75.53970885252443,0.0,134.6758060547925,290.53734174047855
0.02,11.588683491347133,-0.2362094443368633,98.18855302279216,0.06141445552758446,248.61214074403424,290.53734174047855
0.03,12.536696408481182,-2.1231844245638136,86.82479180655524,-0.02213859264732616,304.4996986649786,290.53734174047855
0.04,13.328544303894992,0.357329703335858,65.40486701199143,-1.972980606173244,429.23601970540705,290.53734174047855
0.05,12.27144626852447,5.214344086890945,18.071453552916747,-2.617493798186705,463.010862161513,290.53734174047855
0.06,10.233343775288688,-1.3825193059474794,-27.92262989579274,-2.205895337771451,174.0646513049567,290.53734174047855
0.07,-10.654726821891083,-5.214367198111298,7.462267811340003,-0.9557341776753816,166.54426593326255,290.53734174047855
0.08,4.757432959746789,-1.813739305154834,37.19226077910787,-0.5363056303162379,283.32010854287904,290.53734174047855
0.09,11.49038262101956,1.6185377465986006,32.59702228579206,-1.0841622528526258,405.6165366353296,290.53734174047855
0.1,12.368722203852888,0.35897809017883375,-1.7070702738669374,-1.0092636123908132,302.7424168566232,290.53734174047855
0.11,-3.058032290467441,-5.231072219786078,-2.8108222375559735,0.35440494565535563,230.98114601233976,290.53734174047855
0.12,-3.7796820833825104,-3.201335898150036,13.747976421696334,1.1344415569765043,275.6969501056361,290.53734174047855
0.13,8.20617397159207,0.2359880194294317,14.839514236026217,1.0410713129433518,322.61691911757055,290.53734174047855
0.14,8.387823487619553,-0.09102738882507033,4.251647834568709,1.0670983142321644,295.7283245758444,290.53734174047855
0.15,0.9149945247956791,-1.8646692783451,3.068767729573829,1.5510020527136397,273.40389508678925,290.53734174047855
0.16,0.029450572595772773,-1.4925399021025598,7.576866484259763,1.920415734476854,280.52078823418566,290.53734174047855
0.17,3.1279878982443403,-0.5962963961992697,9.196853581541452,2.0605273984676384,292.58727213492614,290.53734174047855
0.18,4.392448369872841,-0.15895939494882982,7.452949446737655,2.095893877192341,301.05042870145274,290.53734174047855
0.19,3.046129323773924,-0.324153688651897,3.99197700034635,2.178584242292346,288.3295369224912,290.53734174047855
0.2,0.3436836572335825,-1.0835294858009148,4.612240664989819,2.457060371714065,272.0874806477493,290.53734174047855
0.21,0.8644128968838597,-0.8691789815776043,9.165815984302078,2.6722116120662336,292.96863566126484,290.53734174047855
0.22,4.326705099175126,0.43481176012271994,7.232881757153657,2.5504687646185498,305.7726982397669,290.53734174047855
0.23,2.6491353541337106,-0.08935036114544864,2.6504938654635364,2.5780479761175936,281.5947414767264,290.53734174047855
0.24,-0.8101644691845535,-1.2819107079256389,5.365057614561293,2.9104512565668057,274.3392552061835,290.53734174047855
0.25,1.4939233862352839,-0.1848322410896387,9.090612385727463,2.945688532170855,300.76310991582324,290.53734174047855
0.26,4.115868638898699,0.6574498411205183,5.214745182543585,2.772903251068623,300.5863607744189,290.53734174047855
0.27,0.9982777793730392,-0.4974966899770662,2.4858643792245405,2.9088268888738655,271.6252580383276,290.53734174047855
0.28,-0.819232575586136,-0.9739483506979174,7.726479579569313,3.157078493155553,287.6406625784004,290.53734174047855
0.29,3.1852634309969634,0.5384246385618386,7.454134506873053,3.007348603622496,305.57141257263476,290.53734174047855
0.3,2.7059325682717024,0.28599091822584866,2.844619465450984,2.9383752112693937,284.66790553703385,290.53734174047855
0.31,-0.7876583070811033,-1.0468418229803063,4.752864072191974,3.213413994426532,276.1370705511734,290.53734174047855
0.32,0.960303853184719,-0.08427761614300963,8.18068463447803,3.2248577563939116,299.24768325196834,290.53734174047855
0.33,3.364108499700373,0.6794265141634857,4.906927958207384,3.047364086549975,298.6509965221215,290.53734174047855
0.34,0.7062317277898125,-0.37987118851357027,2.734501965866771,3.1529248607051388,273.3300016961187,290.53734174047855
0.35000000000000003,-0.6713579581031114,-0.7229411910920559,7.471162311601469,3.337090858503937,289.74453312949663,290.53734174047855
0.36,2.9277086805736694,0.6191669395926027,6.737301313482984,3.1688780422989398,304.16901932473206,290.53734174047855
0.37,2.1217973494188893,0.23593927186407093,2.6627468314240783,3.1137255010102076,282.314829993522,290.53734174047855
0.38,-0.9534735443064377,-0.9791279020450588,5.206037756489184,3.370658148260563,279.01442828324554,290.53734174047855
0.39,1.2592303549345136,0.12847781001173256,7.782835510174164,3.3274626386370616,300.68031749824297,290.53734174047855
0.4,3.0141759644641457,0.6586008831283997,4.259339231371753,3.1575111871237946,295.83807587604684,290.53734174047855
0.41000000000000003,0.19954625420514077,-0.4608808306867799,2.9608378472529457,3.283926211933642,273.2394680148164,290.53734174047855
0.42,-0.49758442784628804,-0.5391956564636453,7.642659771062876,3.4195082743073217,292.0729401346782,290.53734174047855
0.43,3.02028688121886,0.7131624205559753,6.280175017918974,3.228694088398132,303.8136308950633,290.53734174047855
0.44,1.745130257609626,0.15843613813404941,2.4201648235026254,3.1946323166888386,279.6672034306929,290.53734174047855
0.45,-1.1308375682668117,-0.9802374731123649,5.690632745918212,3.451078421079394,281.29843059544754,290.53734174047855
0.46,1.6031934711363331,0.29648983306178145,7.555909582350303,3.364188689752207,302.06917123892015,290.53734174047855
0.47000000000000003,2.8039902666534484,0.6244922856903109,3.752239266686644,3.2047855938033436,293.30616925059763,290.53734174047855
0.48,-0.1887681191624061,-0.5606630565469422,3.2247820226888595,3.356802911362452,273.36469219788137,290.53734174047855
0.49,-0.28607881396895046,-0.39362042196660446,7.789851989305622,3.453537590508299,294.02475423428194,290.53734174047855
0.5,3.101691956328368,0.7692491261032953,5.902097548705703,3.249596613501776,303.20252027566187,290.53734174047855
0.51,1.4398479712233558,0.0683984224755293,2.300681701541285,3.239505514919171,277.46619316611856,290.53734174047855
0.52,-1.1828329930663224,-0.9338584902070335,6.147767174136195,3.482992706597755,283.4184197016166,290.53734174047855
0.53,1.9353818291514269,0.42330511771836615,7.352947812986672,3.363594791088909,303.0980646854087,290.53734174047855
0.54,2.6226900406364093,0.5671031954217576,3.353425034642262,3.220381011456436,290.79200347081786,290.53734174047855
0.55,-0.48638900576831856,-0.6606671907932824,3.56550825610947,3.3978255130169073,273.96136997302796,290.53734174047855
0.56,-0.015873054253005878,-0.2614597112691227,7.877070636998118,3.4591983660389456,295.7767351632708,290.53734174047855
0.5700000000000001,3.1434445608439106,0.791094553392165,5.531614313035676,3.2508991850442914,302.18074317221425,290.53734174047855
0.58,1.1485083527149011,-0.03442288060602594,2.289546148914882,3.2677600795357797,275.7272447498289,290.53734174047855
0.59,-1.1449074904958048,-0.8617239898454404,6.565766411857203,3.4914640880895336,285.4516534086008,290.53734174047855
0.6,2.240700953820059,0.524057725559388,7.145913085340748,3.3465918395456384,303.8169521163729,290.53734174047855
0.61,2.442113246626114,0.49585841901937133,3.0298150697048576,3.2229092278561957,288.27849751424753,290.53734174047855
0.62,-0.7238404058006842,-0.7538867679109387,3.962530310258305,3.4238783717032333,274.9489410613645,290.53734174047855
0.63,0.2943103924578885,-0.1341899492099459,7.909166938468587,3.45122889081871,297.39964906648186,290.53734174047855
0.64,3.1459173857563645,0.7894654054711302,5.1540876105445115,3.244625985904116,300.80761469921043,290.53734174047855
0.65,0.8571849986677865,-0.1447062518882486,2.3610307887381947,3.2901442654497717,274.4575363224691,290.53734174047855
0.66,-1.047310656642619,-0.7763818572811907,6.925355547721736,3.4905564858239995,287.3875093111389,290.53734174047855
0.67,2.5013744398412223,0.6050158010298358,6.922683464244806,3.3254885589834307,304.22320606160076,290.53734174047855
0.68,2.25685438638667,0.4151997125790774,2.771092020397513,3.2235867917231684,285.7980929742243,290.53734174047855
0.6900000000000001,-0.9103794489773297,-0.8347940028392081,4.399422543432816,3.444785229587153,276.3329922774342,290.53734174047855
0.7000000000000001,0.6293787903123299,-0.007717862572962059,7.8724186361908295,3.4384439338277306,298.8819470275422,290.53734174047855
0.71,3.094914842177404,0.7681939639266941,4.762393695860836,3.2386363245810608,299.0787260930774,290.53734174047855
0.72,0.559151629416137,-0.25787317012693134,2.510649541829345,3.31336528845333,273.6287394489058,290.53734174047855
0.73,-0.8969367331642721,-0.6781504789318601,7.2310950480811265,3.487105681274344,289.29667962401686,290.53734174047855
0.74,2.717226075368411,0.6720776408415583,6.66913302851801,3.3055839898662205,304.3295812073515,290.53734174047855
0.75,2.048178851019812,0.32791380236616396,2.565389905454957,3.2270471776594336,283.32615451481246,290.53734174047855
0.76,-1.0559415831393362,-0.9023502536167038,4.873247578923297,3.464937381623438,278.0758316019673,290.53734174047855
0.77,0.9868059582516908,0.12076508296350369,7.773999377702727,3.4245149575167604,300.2605825891169,290.53734174047855
0.78,2.995246814267558,0.7307835115764107,4.352445543544597,3.235718895336528,297.0180283915931,290.53734174047855
0.79,0.25024353153420764,-0.37287980641833796,2.729588572684986,3.3399754801210593,273.22483623925467,290.53734174047855
0.8,-0.7009598916740634,-0.5679939650065234,7.480398876664939,3.4839251129585715,291.18482123317193,290.53734174047855
0.81,2.8918124554716367,0.7246483273896924,6.380048316213055,3.289836608187186,304.1222216187655,290.53734174047855
0.8200000000000001,1.8142884769024432,0.23424180336801692,2.411657463345468,3.236180222585398,280.87720563801537,290.53734174047855
0.8300000000000001,-1.1619270502342938,-0.9537854121495825,5.379385566598707,3.48650684777797,280.17820560616343,290.53734174047855
0.84,1.3625276571022187,0.2527898916726844,7.610283139147087,3.4112436218215763,301.5227110026341,290.53734174047855
0.85,2.8487327911641214,0.6758064700625355,3.9234505205118473,3.2380618385220443,294.6177871303091,290.53734174047855
0.86,-0.07009553527285756,-0.48783431803098576,3.019100578860037,3.371656825910726,273.2317414929862,290.53734174047855
0.87,-0.45850573954151086,-0.4444507026290518,7.677871634034418,3.4823356654139697,293.09405823867786,290.53734174047855
0.88,3.0220114505894724,0.7662117889998126,6.049761307478997,3.2786760932477277,303.59541427850024,290.53734174047855
0.89,1.5514397012816377,0.13291777615719857,2.3070754047480184,3.2517795893368544,278.5367738357011,290.53734174047855
0.9,-1.207163879243007,-0.9479210572340199,5.887180790986364,3.4995682419792713,282.3801120516878,290.53734174047855
0.91,1.7380024188545389,0.3766964606261186,7.424102563329582,3.39214795164414,302.6324894975417,290.53734174047855
0.92,2.684006345868176,0.6098079603913378,3.517330223868073,3.2373648465486533,292.0660557846474,290.53734174047855
0.93,-0.37045329800731536,-0.6002947221580979,3.363973970895387,3.399539553913672,273.6242242824066,290.53734174047855
0.9400000000000001,-0.17898712569389177,-0.3176101961961751,7.81950377013612,3.476115257703097,294.9310736709653,290.53734174047855
0.9500000000000001,3.107637260307883,0.7916387696109026,5.698226734691857,3.2671130756423006,302.7418482222102,290.53734174047855
0.96,1.2758210820340121,0.02521133560609823,2.268355260020732,3.2684745160808237,276.5611557488335,290.53734174047855
0.97,-1.1874366248334614,-0.8934127784853787,6.345700415942795,3.501013951843083,284.4466379516247,290.53734174047855
0.98,2.0768736321818624,0.48138925211469397,7.237660030512722,3.366918618508409,303.4913208818914,290.53734174047855
0.99,2.521682285518775,0.5374270159972595,3.1738497579437808,3.232001486870268,289.5443288585419,290.53734174047855
1.0,-0.6210860877735744,-0.70350229621299,3.7482721043377514,3.4202863540456176,274.41497154346195,290.53734174047855
1.01,0.12570603427860674,-0.19370490316702857,7.89126379695253,3.4636146059069146,296.6068125171193,290.53734174047855
1.02,3.1414863842822003,0.7961945194065733,5.336448293485185,3.2546669818295353,301.5387895676986,290.53734174047855
1.03,0.9960097464603423,-0.08586404877998671,2.3092188959375166,3.284953579706397,275.04835565645396,290.53734174047855
1.04,-1.1091131773778975,-0.8179591417882071,6.744699279638966,3.49676431608353,286.4257219063532,290.53734174047855
1.05,2.3694802259225223,0.5686023755296948,7.031674585157676,3.3407481070279275,304.0550617965883,290.53734174047855
1.06,2.345360131198458,0.4588924214599265,2.889852340375516,3.2271221012036437,287.0443784262636,290.53734174047855
1.07,-0.8264626918654123,-0.7937019317150227,4.171533903829488,3.4380735276641485,275.59926967804756,290.53734174047855
1.08,0.4548179146171401,-0.07020723896635195,7.893985722200285,3.4483903904782496,298.15244704611234,290.53734174047855
1.09,3.122932698089877,0.7821683685330336,4.957263299753993,3.244324542269997,299.98614201513857,290.53734174047855
1.1,0.7063491854946914,-0.19949528916622203,2.4243048201510056,3.304015001138546,273.9914051415141,290.53734174047855
1.11,-0.9807149039715901,-0.727615583847146,7.082785705515918,3.491200100047141,288.3476782077227,290.53734174047855
1.12,2.6130313225960933,0.6411755226191804,6.797443565128093,3.3172183083276825,304.31566345301496,290.53734174047855
1.1300000000000001,2.1534414216803643,0.3732082226962785,2.6594188281301343,3.226595925652842,284.5617602536471,290.53734174047855
1.1400000000000001,-0.9889019910774982,-0.8695415918746039,4.629502163728631,3.4564088217672015,277.15604950108127,290.53734174047855
1.1500000000000001,0.8033438521435041,0.05682462461605606,7.830123909635523,3.432939003448281,299.58487696163274,290.53734174047855
1.16,3.050790457809455,0.7521403940268208,4.5587797492324365,3.2379507472474685,298.09525471273736,290.53734174047855
1.17,0.4050945291825541,-0.3145185395809973,2.609381055647319,3.3272469714787953,273.3630157280771,290.53734174047855
1.18,-0.8064194926785151,-0.6241467020918332,7.364004961982531,3.4863799286268624,290.24509936260483,290.53734174047855
1.19,2.8114200048352145,0.7007007019559506,6.529211323921743,3.297956279097397,304.2749891016211,290.53734174047855
1.2,1.9337546913143644,0.28262369617790883,2.479838566552564,3.2314811251106996,282.0993881552564,290.53734174047855
1.21,-1.1160634202207012,-0.9304039190477897,5.120597008492274,3.4762123810249044,279.0733464460535,290.53734174047855
1.22,1.170709928719719,0.18642862821698636,7.701311033521232,3.41843689849801,300.9079910576546,290.53734174047855
1.23,2.9300322703705057,0.7057137352055326,4.1402009671020705,3.236815613626742,295.868614835343,290.53734174047855
1.24,0.09110438527386816,-0.4299447186603247,2.8633896381415718,3.3556583778304816,273.1747745757108,290.53734174047855
1.25,-0.587173651441275,-0.5081225292427702,7.584546025157307,3.4834707882469975,292.12968516287305,290.53734174047855
1.26,2.9619437492256,0.7468724856786049,6.220933952373991,3.2842027166781333,303.90294070440257,290.53734174047855
1.27,1.6866312384208741,0.18529734869627243,2.3528969714805203,3.2434941308738883,279.6878109600013,290.53734174047855
1.28,-1.1933562012628722,-0.959887007788479,5.634569888756405,3.4949177263858555,281.2860925423882,290.53734174047855
1.29,1.5510915650588575,0.31643310116301393,7.516182003527195,3.4030462500055876,302.0957238348583,290.53734174047855
1.3,2.765187341919208,0.6439573440076062,3.715052373759153,3.2387816715752398,293.3496929208351,290.53734174047855
1.31,-0.2249143904429387,-0.544207524568091,3.185554502744609,3.3867152014030193,273.37763144949696,290.53734174047855
1.32,-0.32286845786532214,-0.38081384365087473,7.7568993453439425,3.4802847255065656,294.02952109434864,290.53734174047855
1.33,3.070922285041631,0.7815751562763441,5.875667131738426,3.273267046438207,303.21407310549233,290.53734174047855
1.34,1.4144776653836382,0.07983629745403509,2.2775838002242157,3.2603253606629212,277.49309245592696,290.53734174047855
1.35,-1.2056555530426147,-0.9244274005746435,6.123471148302685,3.5014748477868687,283.42440219453124,290.53734174047855
1.36,1.912776191696749,0.4314264989964225,7.33301457203189,3.3800596840420525,303.09905756435785,290.53734174047855
1.37,2.604134050569253,0.5746971215238512,3.337891971132761,3.234952697435815,290.8065234876331,290.53734174047855
1.3800000000000001,-0.5013044120535008,-0.6533611023200001,3.5499023627509705,3.4105735552542535,273.9696172874004,290.53734174047855
1.3900000000000001,-0.030796332329045134,-0.25582107213384453,7.863196540307849,3.4705534229858532,295.78066108273373,290.53734174047855
1.4000000000000001,3.1304371144320142,0.7963178027580093,5.520034653715109,3.2609525835474322,302.18602287076556,290.53734174047855
1.41,1.1375228462615905,-0.029571910777045962,2.279359184379345,3.276604458377044,275.7348681052633,290.53734174047855
1.42,-1.1549815977722635,-0.8579206149904793,6.556159584721591,3.499368099166798,285.4537321287477,290.53734174047855
1.43,2.2316295744813237,0.5276509311392088,7.138099842076601,3.353599650920699,303.82059811169904,290.53734174047855
1.44,2.4352024129704954,0.4990928332880359,3.022780757814449,3.2291120235772017,288.28817630430973,290.53734174047855
1.45,-0.7305908007653721,-0.7507572767662068,3.9547019672592496,3.4292998438692956,274.9461822698228,290.53734174047855
1.46,0.28709942905518315,-0.1320819251486185,7.903960015706049,3.456133571640274,297.39890080289007,290.53734174047855
1.47,3.1409367818406935,0.791893371654718,5.150270495784468,3.248920475758561,300.8164637568656,290.53734174047855
1.48,0.8533364728651411,-0.142335823471213,2.355856247021428,3.2938467235776234,274.4614393018543,290.53734174047855
1.49,-1.0523136394798,-0.7751025228164314,6.920517012221008,3.4939500212751837,287.3824562098727,290.53734174047855
1.5,2.4969926481626326,0.6064029847107593,6.920287000875199,3.328534220022221,304.22538606596265,290.53734174047855
1.51,2.2544234808165298,0.4169428537726795,2.7686664424126026,3.2261931078884323,285.8098351373492,290.53734174047855
1.52,-0.912854856650349,-0.8332957224299925,4.394585100018335,3.447019424257957,276.32617365358834,290.53734174047855
1.53,0.6251859692699973,-0.007226450342641244,7.870536836001794,3.440565344122743,298.87743615278674,290.53734174047855
1.54,3.0926752961379553,0.7694821489534549,4.762156890629594,3.2404277208914185,299.0891467274802,290.53734174047855
1.55,0.5585590472272363,-0.25652509728139383,2.507789938814539,3.314819067674115,273.6320804348998,290.53734174047855
1.56,-0.8996356313482561,-0.6779592506300542,7.228166782757846,3.488523221865115,289.2884596962242,290.53734174047855
1.57,2.714790225257475,0.6724554261628637,6.668981686327762,3.3069052185564702,304.3305762757503,290.53734174047855
1.58,2.047871652084001,0.32891766497306385,2.564953159425306,3.2281111799251025,283.33867134568646,290.53734174047855
1.59,-1.0565630863332771,-0.9015457243113232,4.869724926391459,3.465802244895777,278.0669460081236,290.53734174047855
1.6,0.9839452021859301,0.12058985181925624,7.773649729424155,3.425433426179657,300.25479554596353,290.53734174047855
1.61,2.9948361870858102,0.7314311470138248,4.353589826054059,3.2364672264742547,297.02922861165104,290.53734174047855
1.62,0.2509272156769067,-0.3719757556446294,2.7275810633989264,3.3404952344119967,273.22621147540355,290.53734174047855
1.6300000000000001,-0.7027691694768322,-0.5682587006846374,7.478623057250899,3.4845227390335562,291.17607664706657,290.53734174047855
1.6400000000000001,2.8904039206147467,0.7246994241417729,6.380907967832663,3.2904183017498485,304.1241493290505,290.53734174047855
1.6500000000000001,1.8149007354495983,0.23494411665795334,2.4117551918590854,3.2365798256601988,280.8892721479446,290.53734174047855
1.6600000000000001,-1.1620692653597382,-0.9534508650884431,5.376408378151658,3.486826491749773,280.1676090786282,290.53734174047855
1.67,1.3602230065495537,0.2523524862981206,7.610779499950936,3.4116803366613775,301.5172403788005,290.53734174047855
