t,iq,id,vq,vd,omega,r
0.0,0.0,0.0,0.0,0.0,0.0,1160.4165704054462
0.01,0.0,0.0,301.70830830541604,0.0,12.77135315570228,1160.4165704054462
0.02,11.546877000177185,0.05659763456945774,516.9908372201705,-0.014715384988059013,24.72350921462078,1160.4165704054462
0.03,11.58036587824733,-1.1477500598889967,675.5828826403091,-0.2088313891696158,29.515210833681298,1160.4165704054462
0.04,11.890973875175101,-6.031792277398231,793.3900633673346,-1.3521519858315383,31.175623411991396,1160.4165704054462
0.05,12.076130725822228,-5.651977040879593,881.4498802232246,-3.22399324795788,33.66142889889063,1160.4165704054462
0.06,12.260490307565092,-5.240052976438321,946.930049751973,-4.503287157030998,37.03472097961231,1160.4165704054462
0.07,12.445459222651053,-4.784174172739485,995.2523464393564,-5.330012398488359,41.380574394392355,1160.4165704054462
0.08,12.630764987067696,-4.271013184156949,1030.4625315273124,-5.805392116356548,46.8089058798828,1160.4165704054462
0.09,12.813864661780018,-3.6854647206781057,1055.5676932920687,-6.001141302226841,53.456801549109926,1160.4165704054462
0.1,12.989046218085814,-3.0103913569847216,1072.788538653427,-5.966287703467748,61.491252020442246,1160.4165704054462
0.11,13.14612078090938,-2.2264963937811126,1083.7477158716038,-5.732165442978403,71.11217627018058,1160.4165704054462
0.12,13.268578725645803,-1.3124771918465177,1089.6099794027084,-5.316042812560186,82.55550931764054,1160.4165704054462
0.13,13.331068850619934,-0.24572561488098632,1091.186071614991,-4.7237545365774585,96.12771443975312,1160.4165704054462
0.14,13.296074222665137,0.9960863633026209,1089.0010183524307,-3.9516909819691763,112.24291020179103,1160.4165704054462
0.15,13.109570954739958,2.4324734655112232,1083.3351436852097,-2.9885986558952014,131.32930799227105,1160.4165704054462
0.16,12.695716697124318,4.073887004340762,1074.2782613304355,-1.816850799088152,153.88240587938438,1160.4165704054462
0.17,11.951698229583474,5.910557267022202,1061.7536517960248,-0.4143119160940209,180.4674504699881,1160.4165704054462
0.18,10.744885637414061,7.894631746742261,1045.5335340392953,1.242101741660041,186.1738417883073,1160.4165704054462
0.19,13.007725514314869,-2.9286267638638632,1031.704845672171,-1.4428512473157407,195.4606022304709,1160.4165704054462
0.2,13.330066666517276,-0.295127843455657,1019.393653923888,-2.7918675221452913,209.886971269352,1160.4165704054462
0.21,13.094690378967522,2.511346582364356,1006.7600977045948,-2.9268787375316516,230.0264691208533,1160.4165704054462
0.22,12.179418428889317,5.425822012544184,992.2873159607383,-2.073951361167969,256.28908637067127,1160.4165704054462
0.23,10.426928928832401,8.310049993282576,974.7031755268753,-0.40632509147749396,263.62374237890924,1160.4165704054462
0.24,13.263849493331303,-1.3594390004824213,959.2540178319211,-2.793165382059327,276.54538299352794,1160.4165704054462
0.25,13.118030415899698,2.386431600802362,944.9593541035725,-3.5446040430473875,297.0554661308,1160.4165704054462
0.26,11.830227818867867,6.150080286586716,929.2808301357613,-2.8017506303086464,325.45532302276877,1160.4165704054462
0.27,9.247662656601156,9.60512952372232,910.2289825573639,-0.8470976740813904,336.5721691606106,1160.4165704054462
0.28,13.261914099563834,1.3781916389122797,892.9313182300232,-2.8212894010714917,355.6261138366224,1160.4165704054462
0.29,11.917728875635657,5.9787554076595075,875.696721461032,-2.8297465570585993,384.1803398252637,1160.4165704054462
0.3,8.787536347082614,10.02781046522518,855.5311116448294,-1.0824998400801975,396.9822875110416,1160.4165704054462
0.31,13.033095919122598,2.813572202863762,836.9250194733214,-3.0009202365365124,419.4713612446346,1160.4165704054462
0.32,10.703027907994544,7.9512874038401895,817.8725774124443,-2.6017458586539384,427.27974033216947,1160.4165704054462
0.33,13.32529772131241,0.46283735389878977,800.5955281614243,-5.168204450255934,445.341647089442,1160.4165704054462
0.34,11.7618136410581,6.2799297488743715,784.105117945822,-5.2266042865210265,473.5790221985683,1160.4165704054462
0.35000000000000003,7.533885098183934,11.000834200420428,764.7039920947472,-3.484342769487902,490.3074923720358,1160.4165704054462
0.36,12.135761148315051,5.522778207462677,745.7843864877842,-4.553642339458075,519.0700780981406,1160.4165704054462
0.37,7.710309400346924,10.877909115666466,724.7854209417856,-2.8745934181146042,535.7925656603784,1160.4165704054462
0.38,11.956381055267487,5.9010787013069494,704.511706237257,-4.324467987112195,565.6896095749364,1160.4165704054462
0.39,6.821625544122759,11.4561425756469,682.2863192486658,-2.6222900522051003,584.9276466539741,1160.4165704054462
0.4,11.094116211187483,7.395834183541759,660.5776100072784,-3.882850838213236,592.8428106525888,1160.4165704054462
0.41000000000000003,13.169883712316894,2.081331492537376,641.1054902350276,-6.925247602676777,615.6733244645027,1160.4165704054462
0.42,9.404324114146725,9.45179695792584,622.3751288182225,-6.381790700620501,628.9262108868447,1160.4165704054462
0.43,12.324892985885839,5.086726910719683,604.1435736943348,-8.065465118259674,657.9087413255827,1160.4165704054462
0.44,6.4768343119221266,11.654543966783342,584.2790200366202,-5.976376854519417,678.7275146931435,1160.4165704054462
0.45,10.068173951721658,8.74126141101221,563.8693133179676,-6.507563808186261,690.6799501295947,1160.4165704054462
0.46,12.363678700311219,4.991715814551984,544.6652858318613,-8.700304577656459,719.796086190393,1160.4165704054462
0.47000000000000003,5.8023387571730565,12.004609228324975,524.3961599973761,-6.601480185730125,742.5389766659913,1160.4165704054462
0.48,8.923388692416028,9.907114212617088,503.2555114153761,-6.82051463284223,758.2725186709812,1160.4165704054462
0.49,11.19004600407002,7.249872288845807,482.8250371604814,-8.565876141105337,767.3773384708792,1160.4165704054462
0.5,12.633762540500793,4.262138177959113,464.23881780253527,-11.099621087980882,795.575863401111,1160.4165704054462
0.51,5.544343224857115,12.125924129020383,445.37237076492556,-8.877551800975903,819.4665947163392,1160.4165704054462
0.52,7.8772629565395915,10.757625485733683,424.99933771788073,-8.577035245042206,838.5648511585981,1160.4165704054462
0.53,9.681604081504105,9.167568935480158,404.5360111640627,-9.574626356021092,853.1250131867379,1160.4165704054462
0.54,11.040570567691095,7.475532042444262,384.9736535285519,-11.313370778431878,863.6190190489535,1160.4165704054462
0.55,12.032145363345395,5.745020081174969,367.0033074017661,-13.398167122108841,889.0234527238925,1160.4165704054462
0.56,3.2105869751788063,12.641753166919973,349.23825233866995,-11.278369712974209,917.4277189104456,1160.4165704054462
0.5700000000000001,4.08798599491587,12.691183880282779,328.9678897794135,-9.15485510600733,944.4193038845167,1160.4165704054462
0.58,5.015790853235924,12.35393135379878,307.0130207382891,-8.268076311752807,970.2944027495129,1160.4165704054462
0.59,5.58478616821375,12.107350710750314,284.05369827321704,-8.125531078315225,995.348954709137,1160.4165704054462
0.6,5.824367145839119,11.993937015352698,260.5647443364443,-8.36123323022176,1020.1258051125396,1160.4165704054462
0.61,5.750062414498547,12.029736489514177,236.79125114697794,-8.706965880739157,1045.178663110692,1160.4165704054462
0.62,5.359111409766585,12.2089189806259,212.79237142634685,-8.963145108348801,1070.7233081562829,1160.4165704054462
0.63,4.631524496007125,12.503069967838446,188.56321624364168,-8.973068112446908,1097.0990742835788,1160.4165704054462
0.64,3.5372246978862467,12.855575413587728,164.00090845470237,-8.602909724913326,1124.1034325668782,1160.4165704054462
0.65,2.043750256620833,13.175768010493355,139.05403974051927,-7.730649466559005,1147.109843304786,1160.4165704054462
0.66,1.0104197854786454,12.832605995732107,114.34056148537977,-7.812423687726649,1163.8421244504036,1160.4165704054462
0.67,6.6400784805145765,9.796123410512141,89.92953598805374,-9.425283428247974,1179.305883737516,1160.4165704054462
0.68,8.801534530800737,10.015526330697753,67.75941150170843,-12.281534502967528,1199.2335087452914,1160.4165704054462
0.6900000000000001,6.683717660419908,11.53714418795088,47.11097704487507,-13.679406701152203,1216.9622840444226,1160.4165704054462
0.7000000000000001,5.881444790926653,10.693958321785596,26.536159585443542,-14.698854058971493,1228.95565174606,1160.4165704054462
0.71,9.08730139333058,7.771189270876029,6.44702384070421,-16.029281629800614,1224.6131630184093,1160.4165704054462
0.72,10.075449054011717,-1.4429561451568915,-12.087443165369788,-15.576401139351061,1203.858121050838,1160.4165704054462
0.73,4.917779527742921,-10.098110923796687,-23.91814859371506,-12.965321860615491,1173.1707517166312,1160.4165704054462
0.74,0.5952871468698228,-11.53188358270218,-26.8083837712765,-9.943887347046221,1142.0015742257935,1160.4165704054462
0.75,-1.6089688085632015,-12.20881140696407,-20.913078090563065,-6.85269842147091,1115.0818557199796,1160.4165704054462
0.76,-1.391139578705844,-12.463776341924067,-8.96459563176037,-3.734204686640293,1099.5357966247223,1160.4165704054462
0.77,-1.1542634532151825,-8.652260288237084,6.6972555064220884,-1.6092547751178918,1098.3676173373312,1160.4165704054462
0.78,1.693985935965493,1.3147102398893984,21.76919658844157,-2.0376020403715063,1110.6425520128967,1160.4165704054462
0.79,5.298516166484035,9.75640148143849,32.729277495897115,-4.561119323146619,1127.9828047523195,1160.4165704054462
0.8,6.3160675512387705,10.338817500239658,37.797541040893194,-6.664121311616066,1145.6502826491333,1160.4165704054462
0.81,7.536891072681659,10.853617507604575,37.1021096516989,-8.814304622977902,1162.5795615283732,1160.4165704054462
0.8200000000000001,6.961165527822984,10.411746597340038,32.37003115868006,-11.18504220083335,1177.4310375394723,1160.4165704054462
0.8300000000000001,7.774380105667234,8.581235067725565,24.453747933808344,-12.947187290896983,1188.669540938378,1160.4165704054462
0.84,9.110951921543604,7.681159141676173,14.730732498855057,-14.588867925594695,1191.6665299278602,1160.4165704054462
0.85,10.419691770282531,3.219280553878494,4.27026238729872,-15.34906927818634,1185.1833207412076,1160.4165704054462
0.86,9.207546486098865,-3.0631441024126813,-4.1463582734579685,-14.520459006020257,1171.179909791379,1160.4165704054462
0.87,6.460002325429684,-7.6654208190969095,-8.28468415019361,-12.558081034079187,1153.7130100688053,1160.4165704054462
0.88,3.86972346150269,-9.602069348034979,-7.3756531455440335,-10.138197211781062,1137.6424454573419,1160.4165704054462
0.89,3.317314947529254,-9.407152982790855,-2.3452209141458855,-7.788358129735789,1126.6835415134356,1160.4165704054462
0.9,3.0751079742449887,-5.720699181990747,5.431270424467443,-6.395047872246103,1123.1080298482996,1160.4165704054462
0.91,4.156711137898096,-0.6374289867398059,13.744166864294415,-6.286523327513661,1127.0214272570965,1160.4165704054462
0.92,6.144357985263587,4.419616773347749,20.497852712504315,-7.4419979784514725,1136.6674444705122,1160.4165704054462
0.93,7.475973978617193,7.224835465614208,24.456364369515825,-9.276259031777691,1148.3547449577718,1160.4165704054462
0.9400000000000001,8.501384278405215,7.568502539185886,24.90642786581424,-11.098423575339476,1160.2082949400842,1160.4165704054462
0.9500000000000001,9.08611558863473,7.167879999394673,22.273959996264402,-12.862476941868252,1170.2262492741897,1160.4165704054462
0.96,9.606189165720492,6.686476938037054,17.31461270853649,-14.529282145763938,1175.4000978576196,1160.4165704054462
0.97,10.201552242858302,4.314861339966325,10.9606506681729,-15.584281324774814,1174.5729226721082,1160.4165704054462
0.98,10.89209983266147,0.9304782653394703,4.699903919299114,-15.783057060363413,1168.0508614117434,1160.4165704054462
0.99,9.584693157188587,-3.0297375865831264,0.47345255778604595,-14.986020505198406,1157.7700227763894,1160.4165704054462
1.0,8.072420460468432,-5.637553698226387,-0.76508453674611,-13.550553919525374,1146.593401496936,1160.4165704054462
1.01,6.86812799822539,-6.267106561007962,1.0974848282420817,-11.977481750645568,1137.4846916925205,1160.4165704054462
1.02,6.412282214038144,-4.751388038383963,5.3230295088499995,-10.804791926275819,1132.5084234351173,1160.4165704054462
1.03,6.778003449354645,-1.8380274654004747,10.651670859314448,-10.374418665655533,1132.444006199539,1160.4165704054462
1.04,7.8427251511122,1.550876735688931,15.67412757835142,-10.796026891588658,1136.7449770087762,1160.4165704054462
1.05,9.180058862212173,4.453519198997819,19.240628166762505,-11.938433115971202,1143.8906851556335,1160.4165704054462
1.06,9.606002738096114,5.311978196903557,20.89488227446425,-13.27501225517615,1152.092559874856,1160.4165704054462
1.07,10.230627726370184,5.4272762529870775,20.32996297844428,-14.632984298983756,1159.5946381311824,1160.4165704054462
1.08,10.436901971763374,5.121026515318174,17.84913702905221,-15.91017843043661,1164.632059815493,1160.4165704054462
1.09,10.81837623761093,4.318114200650213,14.036481657636202,-16.981677857452482,1166.0040110671532,1160.4165704054462
1.1,11.188934608077105,1.7753553873185357,9.824962743968918,-17.4000891161488,1163.3829973865538,1160.4165704054462
1.11,11.42791342324907,-0.09279884376205239,6.250197991534028,-17.35820786289748,1157.4978878712875,1160.4165704054462
1.12,10.298912286239037,-2.3097145727958193,4.475281660036715,-16.758610062408188,1149.9979871558182,1160.4165704054462
1.1300000000000001,9.999190038724322,-3.599002945031801,4.658126192392475,-15.84596644242788,1142.8524390376147,1160.4165704054462
1.1400000000000001,9.522746292152181,-3.5068949960845117,6.744692379960082,-14.970163772896223,1137.8274275010272,1160.4165704054462
1.1500000000000001,9.543914845977984,-2.1062637613291875,10.056037824397972,-14.457604144911478,1135.9660013980103,214.70658586766083
1.16,10.121027385542273,0.0926005169641746,-232.23332961431828,-14.502742916935455,1100.0116894542405,214.70658586766083
1.17,-1.5724201725356233,-13.24028974678352,-402.321386308069,-9.640141267799104,1061.7257796573779,214.70658586766083
1.18,-0.4347869542746503,-13.32624245922947,-520.3672410903957,-7.052719244049181,1023.4596243213947,214.70658586766083
1.19,0.1670092048316878,-13.332287339510772,-599.183753930962,-5.728357958543674,994.9383426296403,214.70658586766083
1.2,-6.106145129844709,-9.82183452985001,-649.5026439917683,-1.6665045307266166,970.8757517069797,214.70658586766083
1.21,-10.712973116403719,-7.1956606669170515,-680.1836679092048,2.620859855787527,944.9541240352561,214.70658586766083
1.22,-8.68892691980097,-8.184561360556916,-697.2254420280234,5.223127495788469,908.4223657889116,214.70658586766083
1.23,-1.479474657197768,-13.250997415911275,-702.7239905868823,4.278730292152464,870.2619418854443,214.70658586766083
1.24,-2.9817959838491497,-12.995640441643452,-697.1190181261001,3.2488626174422746,833.6499728202335,214.70658586766083
1.25,-4.927584007069135,-12.389378258454062,-683.6049084117685,3.1786234159197586,800.7242593383219,214.70658586766083
1.26,-7.173016671541693,-11.239466606897441,-664.9791190346126,4.025969377254668,772.7166635387581,214.70658586766083
1.27,-9.47013475291477,-9.385857741272963,-643.5583810320942,5.702774193128407,750.589975403436,214.70658586766083
1.28,-11.485740201543353,-6.7716725999141865,-621.244850341813,8.048925985001013,730.2251959510891,214.70658586766083
1.29,-11.98677625458203,-4.346604371059822,-598.5566919311725,9.321324254033094,696.9180155815194,214.70658586766083
1.3,-7.07367590115654,-11.302251413907538,-575.1444881650677,7.812073658542402,670.567380440473,214.70658586766083
1.31,-10.353825943589614,-8.400956261499543,-550.4337253062602,8.215195750708952,652.7733123839541,214.70658586766083
1.32,-12.620226762168155,-4.302052329903994,-526.4577269356766,10.05563975384849,619.2502460978505,214.70658586766083
1.33,-7.2434748566887714,-11.19418821435013,-501.4590144586274,7.827966829875965,594.6297462941204,214.70658586766083
1.34,-11.109398365151883,-7.372858722513163,-476.00255040420507,8.081539986351649,580.708998046336,214.70658586766083
1.35,-13.173171721390682,-2.060418544017341,-452.2132469823063,10.083890330218871,552.968570346696,214.70658586766083
1.36,-9.752575089131835,-9.092032606003066,-428.9479923063662,8.66999091337437,535.5733506187128,214.70658586766083
1.37,-12.835860166771209,-3.6081119102480557,-406.1640665798292,9.689658841536396,505.6602002625809,214.70658586766083
1.3800000000000001,-9.088736262114077,-9.755647130534722,-382.5291253036214,7.602764119840012,487.34949731888184,214.70658586766083
1.3900000000000001,-12.76009424800248,-3.867527964976049,-359.4435314950989,8.406025645080586,457.8046650855303,214.70658586766083
1.4000000000000001,-9.378746387753832,-9.47717753194337,-335.4069035339235,6.409393333480326,441.13805594889874,214.70658586766083
1.41,-13.026966239276149,-2.841817794746372,-312.44126513668056,7.481332168309671,414.43596698465035,214.70658586766083
1.42,-10.500045624558647,-8.217470393008089,-289.21271078568856,6.01403257361907,401.88787563879026,214.70658586766083
1.43,-13.319924869221339,-0.5978120574867987,-267.6411311653207,7.574523494386421,380.05803626017916,214.70658586766083
1.44,-11.974468228999868,-5.864289250237448,-246.862205009019,6.840942470784604,355.7368670128287,214.70658586766083
1.45,-9.456244448817078,-8.202480909387374,-224.8477800905411,6.014446666680557,339.8383119191353,214.70658586766083
1.46,-13.16481002264799,-2.113185946708143,-204.2630795638256,6.611104065086545,316.33243533597357,214.70658586766083
1.47,-11.677078400426566,-6.436118225146977,-183.36320700382015,5.342675359861156,298.1122456794908,214.70658586766083
1.48,-11.126987147013201,-3.105799609330992,-162.33658069385697,5.171211659544268,284.1814721274604,214.70658586766083
1.49,-13.285897189610324,-1.1237053194152713,-143.44403750567946,5.893950845685893,263.5099228389901,214.70658586766083
1.5,-12.421341248860339,-4.846448117656726,-124.45199544016582,4.9950794000118535,241.40773483047093,214.70658586766083
1.51,-10.751643831191396,-7.633531548353356,-104.31954377289874,4.445933583465352,228.81428918262992,214.70658586766083
1.52,-13.155174021491694,2.1723660469745294,-85.51784201060214,4.5965833542922,215.302295949614,214.70658586766083
1.53,-13.301079214975314,-0.9268600189507508,-68.7185646533261,5.013564409300808,196.24355732030406,214.70658586766083
1.54,-12.792703414369392,-3.758259853942967,-51.52013440026117,4.171936257440819,180.5679820394076,214.70658586766083
1.55,-11.688871999666942,-3.3010482718224408,-34.08814238553734,4.272552581965132,166.243101979603,214.70658586766083
1.56,-11.579045933484618,-0.5958138943558322,-17.31654510197665,4.087474036181586,158.17160409663325,214.70658586766083
1.57,-10.713376574387796,0.15173673013376465,-0.43239723038407596,4.042064347403249,159.75887558552418,214.70658586766083
1.58,-0.9193429523452546,2.209773792417096,13.420553027127067,3.469040528676141,169.88401577081868,214.70658586766083
1.59,8.066209110042534,3.373453582824287,22.41853635135015,2.6140403350659978,184.2029977792966,214.70658586766083
1.6,11.106896880439171,3.103525047611245,27.094112455542668,1.8408583585153173,198.91603565898214,214.70658586766083
1.61,11.581212200725451,2.8791946318383097,27.621381169783238,1.0030266330313082,214.7678512883686,214.70658586766083
1.62,11.245882872443481,2.6367249033452316,24.556474735031305,0.29965193021862224,229.62688505960057,214.70658586766083
1.6300000000000001,11.456253291542533,2.756507636303395,17.811642572257426,-0.39067280618680916,239.99444855548995,214.70658586766083
1.6400000000000001,10.326306352438255,1.946859938910651,8.815724146622735,-0.8692913139405443,243.9590422995916,214.70658586766083
1.6500000000000001,5.465635054354206,0.40458587457880657,0.14516205059131387,-0.9550150419419274,242.6199819517943,214.70658586766083
1.6600000000000001,-0.025391131974813186,-1.0643046752130936,-6.7585383221070865,-0.674249967640735,236.7849696179965,214.70658586766083
1.67,-4.46713513397778,-2.033022835821109,-11.058582912838547,-0.15630707707937747,227.9109184098545,214.70658586766083
