t,iq,id,vq,vd,omega,r
0.0,0.0,0.0,0.0,0.0,0.0,521.1802227006099
0.01,0.0,0.0,135.50685790215857,0.0,66.41855513087198,521.1802227006099
0.02,11.554495278388325,-0.06801970994250289,218.58040922563922,0.01768512458505075,123.45355040330224,521.1802227006099
0.03,12.272727067128695,-4.930126731725516,266.68023001967464,0.3952910641774122,143.12354758662752,521.1802227006099
0.04,12.890168031888843,-3.40900951706631,298.4791337665674,-1.9539679670384489,180.29223304186533,521.1802227006099
0.05,13.277015819837583,-1.2241849115065415,313.12063927135375,-3.2266837036975855,238.2725002634547,521.1802227006099
0.06,13.232256065495854,1.6386510290253744,309.64620046366025,-3.592814841338776,328.80632068705216,521.1802227006099
0.07,12.207270639128001,5.362865029148237,284.3205734806778,-3.089378910877145,461.5907171932152,521.1802227006099
0.08,9.10258985248577,9.742722194294611,231.88972425051716,-1.5787942858940323,512.2462828023844,521.1802227006099
0.09,12.819718531798385,3.665050414829623,180.1953654957197,-3.8466093735347697,630.7713492647098,521.1802227006099
0.1,8.625184963906412,10.167790424481638,112.14097202992292,-3.2929017874702327,691.984707640441,521.1802227006099
0.11,11.662439998542597,6.462605593579993,45.71738602769136,-5.479716337993676,756.4292656409398,521.1802227006099
0.12,13.03418876044768,2.8085051423839458,-21.527499404465978,-5.676240780310428,622.8596784236166,521.1802227006099
0.13,-7.779513776576466,-10.828524515271445,-43.45865199353007,-2.8327393549160114,468.34575240715094,521.1802227006099
0.14,-11.835346229885088,-6.14022453958506,-22.204946586864,-1.1631524252311187,355.5240990622419,521.1802227006099
0.15,-8.881842159408981,-8.725748066207611,22.528226355324577,1.0441398265870092,404.1670013277691,521.1802227006099
0.16,12.889960246986908,3.409795097784462,47.854894590068795,0.07033562050097342,486.4855382666623,521.1802227006099
0.17,10.03942565998519,8.774264082839577,48.496718945939286,-1.9820824194689224,556.1879698790209,521.1802227006099
0.18,13.031159415218607,2.822527603573997,30.798332842687998,-2.644465349387683,619.5002382583912,521.1802227006099
0.19,10.6929147434235,4.511705364795954,2.0328637687960796,-3.984762667637847,582.5097732569842,521.1802227006099
0.2,1.7989712508286235,-9.744159377574555,-13.29042259806464,-1.4061641758205032,493.33220735032694,521.1802227006099
0.21,-7.612419489175895,-10.73950175668513,-3.4394243217333154,1.2886646871418845,445.9084047834897,521.1802227006099
0.22,-7.15133894302314,-6.074797490347295,17.63599211350936,2.7607170170653306,486.64848662007427,521.1802227006099
0.23,10.659871269363807,4.443269829456856,23.018445395812595,1.5447188865030748,550.9844249671528,521.1802227006099
0.24,12.314950364993846,5.11075095123169,11.82874706350132,0.26035633747740383,571.8823844558286,521.1802227006099
0.25,8.606787419899266,1.2667761902812553,-3.1703881957139974,-0.01789796248340561,530.1383033946615,521.1802227006099
0.26,-6.255855206326007,-8.599020204885099,-3.279877330771487,2.2305150526895323,488.47171550868717,521.1802227006099
0.27,-8.199487092277707,-6.209691715161931,7.383223437997878,3.759044696582784,491.6258978403763,521.1802227006099
0.28,3.0203458380102535,2.7955353634120272,13.87297804093394,2.9701085849440374,526.3086631859439,521.1802227006099
0.29,9.39022720235473,4.584792553671881,9.832784651912618,1.8060178746234692,542.4472186079388,521.1802227006099
0.3,6.239608173816363,2.0553519238503704,2.826254267691732,1.3174742999590914,528.1448241324487,521.1802227006099
0.31,-1.2702363636488632,-3.784443361865716,1.6207853907738043,2.3219830932826815,509.6308432571402,521.1802227006099
0.32,-2.6849833880751515,-2.5145076721620736,5.378663377657355,2.9379106544261635,506.17415440842245,521.1802227006099
0.33,0.7356733565959449,-0.1295063508675817,8.946622432595689,2.946437228930114,519.1201339207315,521.1802227006099
0.34,4.8166401329778274,2.7990878608643417,8.087215131433913,2.217379321596709,527.8610335241754,521.1802227006099
0.35000000000000003,3.9481456288554226,0.7203612686089937,5.351251967335472,2.058076270367014,526.5386465217586,521.1802227006099
0.36,1.3166941036936108,-0.5171696154254214,3.7220108714006854,2.1997439830637133,514.8455212790021,521.1802227006099
0.37,-0.5605741912745354,-1.943906541037233,5.581533709998502,2.69998798757914,514.4740352163653,521.1802227006099
0.38,1.2570242105084597,0.3915150099719035,6.929363405041059,2.5787550195760724,516.9940202438397,521.1802227006099
0.39,2.7260932679845866,0.5853046548174181,7.254500161387947,2.4304909594232624,524.0955168881502,521.1802227006099
0.4,3.107731663143821,1.0856595222004612,5.6739123483222125,2.1540725301993167,520.7114959467332,521.1802227006099
0.41000000000000003,1.6415316696233346,-0.6168292751051329,5.429213328734927,2.3253047369486555,520.17091637009,521.1802227006099
0.42,1.1811342101212867,-0.23361322957918873,5.39626612919602,2.3798758838881935,515.2132376608508,521.1802227006099
0.43,1.3010849115174854,-0.4279938503823655,6.611118441334838,2.4888181526918163,519.6255148407661,521.1802227006099
0.44,2.3362081002942094,0.6557472108215695,6.361269377535317,2.314043939374385,518.9046609524777,521.1802227006099
0.45,2.389035934978322,0.16842975141318628,6.339581091359826,2.276809676115172,522.1595533901892,521.1802227006099
0.46,2.099156642738593,0.16289803857508045,5.5403091268256235,2.2361404835997827,517.788337320342,521.1802227006099
0.47000000000000003,1.5825188932441074,-0.36314878157686203,6.0415292867749955,2.3321881471955175,519.5408879053717,521.1802227006099
0.48,1.726889884500707,-0.037878804660346765,6.00067129869649,2.338405148591439,517.2779727755083,521.1802227006099
0.49,2.041182327912409,0.10832313260993365,6.4854244248583095,2.309862346066253,520.7332359174466,521.1802227006099
0.5,2.1729116410983513,0.12213055472651879,6.018073285823307,2.279191633163457,518.8548722886261,521.1802227006099
0.51,2.087621315481487,0.09896952016580163,6.097142099493253,2.254680863467614,520.3120474401887,521.1802227006099
0.52,1.7500332686715363,-0.29841178371927424,5.865481726383127,2.3332576224362835,518.1461401777914,521.1802227006099
0.53,1.893709970444271,0.10821836645612903,6.170797170082928,2.3021367293204977,519.5393370540747,521.1802227006099
0.54,1.775852716570154,-0.316373782649793,6.124302006350082,2.385476096474005,519.056731949229,521.1802227006099
0.55,2.124081951976573,0.35903958643052625,6.125497964895563,2.28896206617557,519.8398000366275,521.1802227006099
0.56,1.7227505141934676,-0.45982968490649634,6.02609863584664,2.412108180115564,519.6180403203383,521.1802227006099
0.5700000000000001,1.9771949279969392,0.34460691163006174,5.922018651940154,2.3179120862426834,519.0430761751056,521.1802227006099
0.58,1.527394818901214,-0.5799565081933962,6.084704221134197,2.4721468474892667,519.7060099566271,521.1802227006099
0.59,1.9790590536134367,0.45896472636019925,5.947346663564193,2.347016453553681,518.8392115513376,521.1802227006099
0.6,1.6025830055471493,-0.4952430539113323,6.144386444029034,2.480369294834229,520.3235054280481,521.1802227006099
0.61,2.0032492371160653,0.5028877606221798,5.838903851807676,2.3446660465333493,518.5581797289564,521.1802227006099
0.62,1.55925025051125,-0.5024354424756171,6.126695278950207,2.4803281391832313,520.400989040078,521.1802227006099
0.63,1.9492084246542618,0.479220591997907,5.811873913066963,2.3507064308390193,518.1005689912804,521.1802227006099
0.64,1.5978701823680606,-0.4356283380072953,6.208837377718155,2.4687620046408947,520.5902286822387,521.1802227006099
0.65,2.0065477670673766,0.49432302176437026,5.825715567787524,2.335881735602086,518.0158667654031,521.1802227006099
0.66,1.684454514370216,-0.35902895420988695,6.224655474691998,2.4341724939143,520.7589727561989,521.1802227006099
0.67,2.003307029918605,0.42902284926511614,5.798521618251652,2.319036263563271,517.7829073136961,521.1802227006099
0.68,1.7203936876834172,-0.3092447492023147,6.250341830906617,2.4037301268485236,520.7052888787949,521.1802227006099
0.6900000000000001,2.009517072786923,0.3630937053933522,5.834580968661599,2.306233315954229,517.7064105919208,521.1802227006099
0.7000000000000001,1.8111125283779201,-0.2188716416181723,6.28222869205223,2.3667708798288873,520.7417037037552,521.1802227006099
0.71,2.024554949466181,0.2807959682951934,5.853232348570124,2.2915752116559553,517.7309117615607,521.1802227006099
0.72,1.8727851198930012,-0.14804827661286646,6.278989421076839,2.3328757232582524,520.6399949233087,521.1802227006099
0.73,2.001027647116416,0.16708647887642036,5.883416196733321,2.2879527559842545,517.7992561904355,521.1802227006099
0.74,1.929776205564806,-0.06511538503829287,6.275333674629968,2.3065536208829744,520.5030637991629,521.1802227006099
0.75,1.9738969904527155,0.04867483902128611,5.923669868442385,2.293247008887057,518.0081523900237,521.1802227006099
0.76,1.9811450718242403,0.02473074065908798,6.24627781141054,2.2873037647059067,520.3252405607228,521.1802227006099
0.77,1.9170290261772007,-0.09130165583473929,5.958236368587483,2.3112895026295295,518.2887478846653,521.1802227006099
0.78,2.0088295653971007,0.11500486494151885,6.198344602592721,2.280475221186387,520.0659008624535,521.1802227006099
0.79,1.835498223272665,-0.2426984671350989,6.002012289957002,2.344726871290928,518.6767202166051,521.1802227006099
0.8,2.0274483493130306,0.21746593498848654,6.132998128828024,2.28575874352257,519.7680872258281,521.1802227006099
0.81,1.733430027374675,-0.4020351001328826,6.044701003806943,2.392462528907005,519.1722799773182,521.1802227006099
0.8200000000000001,2.026658093530705,0.32389157404943614,6.043047953070717,2.3042303686528225,519.4388895892631,521.1802227006099
0.8300000000000001,1.636860671509507,-0.5080316516092553,6.070397941130794,2.4395575138117227,519.6280067721781,521.1802227006099
0.84,2.000920212921338,0.4081877949192556,5.952690102765139,2.3283483706166237,519.0570571866442,521.1802227006099
0.85,1.5743254477818547,-0.5408071926992708,6.099875562817823,2.473040118667627,519.9927588301767,521.1802227006099
0.86,1.9826774153871918,0.4693756512210262,5.88763164046793,2.345594377423167,518.711084352528,521.1802227006099
0.87,1.5631270121150824,-0.516186204486387,6.131146723268832,2.4844965471018376,520.2985240746256,521.1802227006099
0.88,1.9754958484862004,0.4963898807489726,5.837699332058673,2.350273316062241,518.3664457202561,521.1802227006099
0.89,1.5787216308540706,-0.47409804402425776,6.169751695153605,2.4785027063160374,520.5043547003801,521.1802227006099
0.9,1.9838372148523127,0.49761340395468023,5.817329145856754,2.344382240847578,518.115749231782,521.1802227006099
0.91,1.629350774080904,-0.4106971271946738,6.203540738637179,2.4561396279577394,520.6606809226126,521.1802227006099
0.92,1.9945789139959356,0.4656470882949354,5.8056798563300465,2.33096441372911,517.8970815891425,521.1802227006099
0.93,1.6860107232089279,-0.3474178443383723,6.235684128637218,2.425949524140036,520.7223555002893,521.1802227006099
0.9400000000000001,2.0070337083968983,0.4119936586743866,5.816929532654797,2.315356994441311,517.7565431555174,521.1802227006099
0.9500000000000001,1.7586317902225739,-0.27335818072231677,6.265333614001729,2.3905500580158576,520.7460530400812,521.1802227006099
0.96,2.019329237503599,0.33845679242321025,5.836541646439559,2.2998177101785995,517.6936258197605,521.1802227006099
0.97,1.8294357295472685,-0.1985287422412874,6.283255141547844,2.3548197510855666,520.7019752383471,521.1802227006099
0.98,2.0191979404433433,0.24463186041588714,5.8660364057078676,2.2892301799550228,517.7262912212021,521.1802227006099
0.99,1.8969344916873037,-0.1185624740787724,6.286265127296988,2.3225027418196627,520.6069757159604,521.1802227006099
1.0,2.001760730607103,0.13232937073320167,5.8992815834708,2.2869114806882425,517.8652094428312,521.1802227006099
1.01,1.9524960599569434,-0.0354329650957258,6.267821192364026,2.297447345320463,520.4522759264488,521.1802227006099
1.02,1.9584582618750566,0.0014304892350818221,5.934263033580171,2.2967210884683844,518.0796389326767,521.1802227006099
1.03,1.9921626459926298,0.05292571214580616,6.234757640161841,2.282974708202825,520.2383001786146,521.1802227006099
1.04,1.8955073180979185,-0.14012402631216025,5.975741381955744,2.319936212165445,518.4007006706246,521.1802227006099
1.05,2.020870275345251,0.149734219914341,6.182526686123178,2.279604074724595,519.9770837311451,521.1802227006099
1.06,1.8082797368216923,-0.29502879788817443,6.017603569063991,2.3578089043746635,518.8389421719108,521.1802227006099
1.07,2.0312426596435005,0.25213380218582515,6.104264822691997,2.289303827827467,519.651873820634,521.1802227006099
1.08,1.6947808341067407,-0.45569313164369374,6.0578921359274105,2.410305380076686,519.334752877564,521.1802227006099
1.09,2.0223298473919415,0.35853355122642033,6.0135728491387335,2.3125297254413795,519.3167917401846,521.1802227006099
1.1,1.6115564463160252,-0.5285727217633336,6.080828823050595,2.4535439686121108,519.768115027466,521.1802227006099
1.11,1.994046359431723,0.43323895303399984,5.927006019474656,2.3356161136056373,518.9448759647487,521.1802227006099
1.12,1.564818399314744,-0.5363507563106606,6.107162773839609,2.479399699776749,520.1028057296464,521.1802227006099
1.1300000000000001,1.9755942356764196,0.4803852738101124,5.866931401648771,2.349136021023013,518.5878652065636,521.1802227006099
1.1400000000000001,1.563217241364073,-0.5040199229390507,6.1434896399932715,2.4849850537252673,520.3746518774409,521.1802227006099
1.1500000000000001,1.9763237211704943,0.5004237440202355,5.828802483986055,2.349834681050616,518.2962196292232,521.1802227006099
1.16,1.593909057699057,-0.4514269514652284,6.175934456524856,2.4722099258717773,520.5679852582309,521.1802227006099
1.17,1.9810937926033398,0.48615528597319824,5.80713086532964,2.3412952820040935,518.0053035810179,521.1802227006099
1.18,1.6419587922603873,-0.3922983084107475,6.219389113938104,2.4481543950506195,520.6780204715832,521.1802227006099
1.19,2.003078908620034,0.4546075912959652,5.8138315739705195,2.326033438229561,517.8287986162493,521.1802227006099
1.2,1.7160712942833347,-0.3194527843155931,6.2540320661865385,2.4136372380645748,520.7526340217687,521.1802227006099
1.21,2.020446142965723,0.39346323050075804,5.823535597613383,2.3081422702912215,517.7387282533019,521.1802227006099
1.22,1.784790075089093,-0.2497827268931373,6.27020730903153,2.377020411588445,520.7367903661656,521.1802227006099
1.23,2.0188595982247377,0.30583212766085616,5.84402917672643,2.29500623112769,517.6947457680335,521.1802227006099
1.24,1.8515696753052118,-0.1735152674989927,6.284599336254737,2.3431785219540373,520.6696156726719,521.1802227006099
1.25,2.0140180796594187,0.20757273392068376,5.877373390234462,2.28747445845967,517.7783788208795,521.1802227006099
1.26,1.9174996788349576,-0.09050968056289765,6.2783369929844755,2.3130827027452296,520.5630733798474,521.1802227006099
1.27,1.985556388273341,0.08734010260964398,5.907707713422689,2.2894691792610935,517.9253493684389,521.1802227006099
1.28,1.9638086264670793,-0.007439846510868153,6.25706860758081,2.2922769403800154,520.3796711747119,521.1802227006099
1.29,1.9375143351567148,-0.04499525849035456,5.948547630116494,2.3039013091223985,518.1866881976977,521.1802227006099
1.3,2.0035257974532543,0.08618721317895961,6.2173195216284105,2.2810426811109656,520.160739719888,521.1802227006099
1.31,1.8662200631905128,-0.1918348115297427,5.98726779313196,2.331781604240488,518.5404097719886,521.1802227006099
1.32,2.0231601777911514,0.18277124376643084,6.156064879172478,2.282342732745919,519.8685462212408,521.1802227006099
1.33,1.7677870040639623,-0.351930633975969,6.031309615243515,2.3756724100173354,518.999637055784,521.1802227006099
1.34,2.0291622077100757,0.2895225424758612,6.075240814140578,2.2968772426338515,519.5472339010303,521.1802227006099
1.35,1.666765250763543,-0.4823573349166622,6.064944702461595,2.4251853751369428,519.4951950804489,521.1802227006099
1.36,2.012398540866069,0.3848144953162306,5.980166027590119,2.3203100330055557,519.1847698905678,521.1802227006099
1.37,1.5893037669144712,-0.5388120993599367,6.089038488010334,2.4642493237923015,519.8817076005164,521.1802227006099
1.3800000000000001,1.9864336856166354,0.45218264799545316,5.906118165343039,2.3412937143198844,518.8215626788825,521.1802227006099
1.3900000000000001,1.5626152776444053,-0.5270390952526263,6.119968984659839,2.4828457055655218,520.2075713406658,521.1802227006099
1.4000000000000001,1.9758344711482985,0.4904695570607691,5.851180928305904,2.3500532297771954,518.4924233488086,521.1802227006099
1.41,1.5706150314082281,-0.4881898297005727,6.151680682720127,2.481887281069952,520.4459773356547,521.1802227006099
1.42,1.9745007138120767,0.49648643010711335,5.818042448813411,2.3479189109450966,518.1690225118266,521.1802227006099
1.43,1.6065450566403734,-0.43398839613495227,6.195655336659134,2.4657207582412553,520.6082971675347,521.1802227006099
1.44,1.9933343068560054,0.48190426196615227,5.812042504154685,2.3360857661687064,517.9697435537333,521.1802227006099
1.45,1.6708661744454705,-0.36586020024260635,6.22655596472457,2.4360284608514453,520.7223027510171,521.1802227006099
1.46,2.0040380448464803,0.431834169513066,5.8091691302343005,2.3200929747756227,517.7912864796274,521.1802227006099
1.47,1.7319337817005738,-0.300062426338238,6.255450945400135,2.4024275473186947,520.7367880557528,521.1802227006099
1.48,2.0149235233796716,0.3639418158875446,5.830293812591451,2.304802050924551,517.7171348025624,521.1802227006099
1.49,1.8077963861014477,-0.2220626486892618,6.276384494482633,2.3661777577426344,520.7266098452557,521.1802227006099
1.5,2.0180597956215025,0.27540983616188114,5.853075374893677,2.292350573853653,517.7153405483475,521.1802227006099
1.51,1.8727068313148343,-0.14611290448568837,6.282685427742706,2.333094027381551,520.6381805071488,521.1802227006099
1.52,2.0043246914597175,0.1684992730024173,5.886570225053575,2.2878230873560654,517.8126367103446,521.1802227006099
1.53,1.9334128707388856,-0.0623621860853415,6.274078061110429,2.3057222484682782,520.5079425424494,521.1802227006099
1.54,1.9723764984920504,0.04548833927875817,5.921711281428948,2.293271658394947,518.0083306489641,521.1802227006099
1.55,1.9791291996441538,0.024324904565771382,6.2448305863526725,2.287402066600634,520.3146322671847,521.1802227006099
1.56,1.9149350610169416,-0.09369708947804933,5.960073354658792,2.3120065589105843,518.2916441670002,521.1802227006099
1.57,2.0103521199132652,0.11762647060465903,6.1989056684957795,2.2804867056585927,520.0659160800078,521.1802227006099
1.58,1.8355808387274613,-0.24414996688356355,6.002592107646212,2.345141961754366,518.6875035175062,521.1802227006099
1.59,2.027579734965786,0.21875687705359248,6.130741106343309,2.285823674051596,519.7624709876569,521.1802227006099
1.6,1.730778757369984,-0.40498955183107027,6.044702680313505,2.39330852629821,519.1768731299283,521.1802227006099
1.61,2.02586081007518,0.32514688488667587,6.04198002851535,2.3047204407093633,519.432076201337,521.1802227006099
1.62,1.6359106677611657,-0.5087019147572279,6.0713864571023155,2.4402344073951094,519.6353357183738,521.1802227006099
1.6300000000000001,2.001154214834296,0.40972094084003685,5.95163461831167,2.328619943629127,519.0537073320687,521.1802227006099
1.6400000000000001,1.574006553549895,-0.540665650601802,6.099849582535381,2.4732902221939956,519.9981536550855,521.1802227006099
1.6500000000000001,1.9820058351874945,0.46963047599521557,5.886340929073056,2.3457796419292216,518.704265716043,521.1802227006099
1.6600000000000001,1.5627277332502785,-0.515887363584584,6.131779902312007,2.4846066612211652,520.3011969106669,521.1802227006099
1.67,1.9755856204662554,0.49675322318708304,5.837542053862779,2.3502919495566776,518.3681258936731,521.1802227006099
1.68,1.5796871339321097,-0.4727803919981526,6.168934167149227,2.4781823837080683,520.5084246823396,521.1802227006099
1.69,1.982529733496125,0.4963750888590269,5.8158198244604495,2.3443970566847394,518.106131846588,521.1802227006099
