t,iq,id,vq,vd,omega,r
0.0,0.0,0.0,0.0,0.0,0.0,804.792894287755
0.01,0.0,0.0,209.2461525148163,0.0,24.23593607133959,804.792894287755
0.02,11.547562199640494,0.025253447557005176,355.7573316378717,-0.006565896364821346,45.26262421469396,804.792894287755
0.03,11.629471822050169,-1.4198513491837712,460.5187033205582,-0.27788695332989016,49.408364799473986,804.792894287755
0.04,12.144146675618662,-5.504314607545418,538.2550592032943,-2.2169468654344304,54.017038647739554,804.792894287755
0.05,12.423226588239574,-4.841613255417559,595.5170621331771,-3.761522613269963,61.13673350267118,804.792894287755
0.06,12.691394052510622,-4.08733345613931,636.7590456127778,-4.711819347160962,71.0115475887506,804.792894287755
0.07,12.942708891519363,-3.203757844651082,665.29251880371,-5.19416087900642,83.97653782149288,804.792894287755
0.08,13.159118060099079,-2.148345795758205,683.5175100452216,-5.291343037594841,100.4384187453608,804.792894287755
0.09,13.304613003676577,-0.8746717099448489,693.1299952459806,-5.051583569022976,120.94072022558734,804.792894287755
0.1,13.316801552513658,0.6637576280145803,695.2589624638143,-4.49481440311738,147.15151328975685,804.792894287755
0.11,13.094577965581514,2.5119326585489485,690.3111178427007,-3.619321140471868,180.5154469966566,804.792894287755
0.12,12.477247251520225,4.700646636603172,678.2126691413406,-2.404380059155866,222.39554551597726,804.792894287755
0.13,11.22319788022574,7.1984447708567,658.5331274383254,-0.8074862364617068,225.51303960832396,804.792894287755
0.14,12.942947409191381,-3.202794114626137,642.5430809477391,-3.3731150141630004,237.0711274534519,804.792894287755
0.15,13.333324801820206,-0.015083333315330696,628.1507050120624,-4.479619003882208,260.01848090446884,804.792894287755
0.16,12.892257852072946,3.401097654205359,611.8584996579295,-4.253200476327401,296.81505040220907,804.792894287755
0.17,11.379539975812994,6.948657979541933,590.4259669159093,-2.921881862861184,305.24745627337353,804.792894287755
0.18,13.107510441683829,-2.4435522910155028,571.3249648205708,-4.222485553009415,318.4849770857971,804.792894287755
0.19,13.200803151813005,1.8752530295566796,554.501700257749,-5.144996849961254,349.18606858532723,804.792894287755
0.2,11.769977152008078,6.264616158950643,534.4632665670073,-4.3436434907685335,386.59403399331336,804.792894287755
0.21,9.559386449923666,7.492283443858088,509.6603590132904,-3.035866936272998,400.86119247712395,804.792894287755
0.22,12.960535730007054,3.130861122596821,487.6904319995713,-4.401823536690261,436.53039026393606,804.792894287755
0.23,10.420891556619441,8.31761966808746,462.6732530183483,-3.5541234814363727,441.91773418694896,804.792894287755
0.24,13.28437471765894,1.141563024366891,441.7683572646418,-5.798790991174678,469.5699482722121,804.792894287755
0.25,11.291192010317458,7.091315869704365,420.02324096660385,-5.49648192464034,473.2943733900085,804.792894287755
0.26,13.333052448470536,0.0865458497652245,401.55532366725487,-7.331789651500125,496.39621824235985,804.792894287755
0.27,11.62498211562876,6.529744909955457,383.14530995676995,-7.143782946856725,516.6200329951192,804.792894287755
0.28,11.827726087446363,2.562436968892642,363.16356873634373,-6.476530190932152,539.2503476362402,804.792894287755
0.29,11.407777880016507,6.902201215408299,343.68411145854026,-6.675923129617717,548.9128851047436,804.792894287755
0.3,13.304577912593547,0.8752053162005128,325.26503670401854,-7.310616813980696,575.4098292328425,804.792894287755
0.31,10.600779668266927,8.087103820443774,306.38916416339373,-7.051734360918592,578.8992383261001,804.792894287755
0.32,13.046896379022876,2.748867521874689,290.3266240715711,-9.004830837623231,612.6954435524985,804.792894287755
0.33,8.996290568936036,9.781809937440677,271.050939928509,-7.620084523608439,624.5354441784663,804.792894287755
0.34,12.04288941003372,5.399434823999731,253.0034669388898,-8.752074988921834,658.3136916656259,804.792894287755
0.35000000000000003,7.61393781320606,8.706758347825552,231.32075646314803,-6.855375638168546,684.5614190875629,804.792894287755
0.36,9.553989331383681,8.451842342960514,208.86796290574463,-6.850112420473703,692.3332788643868,804.792894287755
0.37,11.730300337295184,4.8582880321659125,189.38452001232994,-8.654334921678082,719.7513491445441,804.792894287755
0.38,7.742561595287176,7.311549180680012,168.20063448713233,-7.287592413111841,748.7143666126522,804.792894287755
0.39,8.304888975937837,9.05633772599975,145.7480536544669,-6.849063603351149,762.9990475429544,804.792894287755
0.4,10.294958006402432,6.513766211686561,124.90947748875739,-8.08283559660169,767.6506228214636,804.792894287755
0.41000000000000003,11.551654709371729,3.7550211017800468,107.23687416204433,-9.630516235817437,788.3239700272202,804.792894287755
0.42,8.129282156029646,5.799584522260056,89.3574763151797,-8.63720866803426,817.7657050426789,804.792894287755
0.43,7.091965078324077,9.241533460416079,69.64236081032547,-7.726155156073768,837.0963812309344,804.792894287755
0.44,8.869542927520449,7.558163670942864,49.706867705618855,-8.240545596766191,848.3761907052974,804.792894287755
0.45,9.967492642785052,5.879217528658271,31.37978304938993,-9.19147765424381,854.7765046452322,804.792894287755
0.46,9.819855673448597,3.1792234849823706,15.092872627569589,-9.384605078538346,843.5829269536869,804.792894287755
0.47000000000000003,6.732162638575694,-3.2177931677663514,3.8551365087068707,-8.51618662006927,816.5339895356367,804.792894287755
0.48,1.8506067799692771,-8.45649076378314,0.7765159345106847,-6.349676953163318,788.032417458476,804.792894287755
0.49,-0.46623659314991217,-8.761754227810547,5.391378444620716,-4.156185761570406,767.5692778345685,804.792894287755
0.5,0.7687045167814361,-5.259504690417674,14.697388413861724,-2.8763320843399165,761.9884244714136,804.792894287755
0.51,4.35933433196538,-0.6618136620567225,24.32857452043542,-2.756855579109345,772.0525132267596,804.792894287755
0.52,8.220116975294737,3.1554151239791173,30.31939182787382,-3.583881647964483,786.340467269756,804.792894287755
0.53,9.576046393797828,3.444153274202485,31.63890644776623,-4.630203420044372,797.5136164476187,804.792894287755
0.54,9.43670279981785,3.644697022700843,29.721742018882274,-5.55243970540834,805.9121839876283,804.792894287755
0.55,9.16157063679404,3.526390059704503,26.05664315542129,-6.213001095251486,812.6158150368036,804.792894287755
0.56,9.152499170636382,2.6456597828659056,21.395387036365236,-6.707530381269294,814.2402822134158,804.792894287755
0.5700000000000001,8.183331283980786,0.4031087944727134,16.981154241055272,-6.78588207000354,809.6871382693731,804.792894287755
0.58,6.091906088254531,-2.027109091451532,14.301062414984788,-6.254802618281413,801.2296578145613,804.792894287755
0.59,5.000476177205844,-2.446839325349372,14.037241592640354,-5.638895484605092,791.8482950232633,804.792894287755
0.6,4.928068436882442,-2.04053325435376,16.135912004858874,-5.132825231726608,786.199014611811,804.792894287755
0.61,5.7363276316382255,-1.0034648704199447,19.398710228102278,-4.892329697960959,786.5817793524302,804.792894287755
0.62,6.8338202051654395,0.12447169777124234,22.22823133750064,-4.934726988085682,791.9041866831371,804.792894287755
0.63,7.6179357755357655,1.0797217162100519,23.484859065760386,-5.214209917322583,797.9204271075686,804.792894287755
0.64,8.409349751059,2.1191266682987395,23.03256187904268,-5.754385633918154,802.0978272672214,804.792894287755
0.65,8.624560576927045,1.9163784205858154,21.506262380089098,-6.231452756587478,803.8283076652307,804.792894287755
0.66,8.259444134057253,0.9172770160957846,19.66889436265446,-6.450780996566524,803.1779622751235,804.792894287755
0.67,7.428038120075488,-0.38728226402776667,18.23043534983434,-6.340914837758347,801.0600405588,804.792894287755
0.68,6.487291881158891,-1.1934839408297648,17.572412491335765,-6.034481835782885,797.3573365569407,804.792894287755
0.6900000000000001,6.337987848466869,-0.8060486979414943,17.88532504226812,-5.836844013726395,793.5399376924478,804.792894287755
0.7000000000000001,6.634496357633621,-0.4100812231511215,19.075149005239776,-5.738283382686517,791.980811256097,804.792894287755
0.71,7.161309991459122,-0.017266467551106057,20.498165393314736,-5.73789491335474,793.3972122208962,804.792894287755
0.72,7.512459990066029,0.16881990947885095,21.451295402878852,-5.781960754494753,796.6769418082463,804.792894287755
0.73,7.64507623102892,0.5531197809860253,21.53489100671566,-5.924083698456331,798.8156578143838,804.792894287755
0.74,7.949555802228705,1.0439423628696431,21.017379218727893,-6.189977514992578,799.4538537704948,804.792894287755
0.75,8.045483609928944,0.839704376678764,20.333427207922586,-6.39786122930036,799.2895750705705,804.792894287755
0.76,7.888022417149115,0.25048685622786504,19.740468806858452,-6.454590768152817,798.897836121722,804.792894287755
0.77,7.419497185822082,-0.48368556886194725,19.36796169371293,-6.326327651686432,798.4720018299911,804.792894287755
0.78,7.020406727974502,-0.5243226928760993,19.201332373656058,-6.194840607227266,796.7345166770295,804.792894287755
0.79,7.145982814012696,-0.07452363950489915,19.44555016350347,-6.180707687884753,794.958016857884,804.792894287755
0.8,7.452043825132062,0.1298976123606237,20.05596295276846,-6.215226303493563,794.6020271661927,804.792894287755
0.81,7.7298659489235355,0.1467113963722202,20.671994921607148,-6.252072290426735,795.9354021764447,804.792894287755
0.8200000000000001,7.690201972299927,-0.06698813563214223,20.950880346023457,-6.233188261198656,797.8899896387416,804.792894287755
0.8300000000000001,7.668152122691559,0.29563661834558363,20.740243101477034,-6.310723663324829,798.2164823123991,804.792894287755
0.84,7.849445858022872,0.5952232040444247,20.4169067667204,-6.462525330192924,797.682420766299,804.792894287755
0.85,7.963554482237907,0.44205302142595126,20.207836055743776,-6.571506883723227,797.2935063779488,804.792894287755
0.86,7.905587924785984,0.0331905121287035,20.11075486145684,-6.57571588666243,797.5180179696554,804.792894287755
0.87,7.535086847414419,-0.4908892345320317,20.047162123984776,-6.447752780562814,797.8129909108779,804.792894287755
0.88,7.413503827418188,-0.12776259086555863,19.937028112137224,-6.41944339928309,796.7245996337655,804.792894287755
0.89,7.605999752486193,0.21525418302661503,20.06156079103349,-6.4766871127786665,795.657944790908,804.792894287755
0.9,7.854021427762973,0.25751296347368724,20.38997913998029,-6.5414879414515585,795.6642408377116,804.792894287755
0.91,7.962716070709547,0.06951514916167012,20.680313577916237,-6.556986750598856,796.8621165733954,804.792894287755
0.92,7.706529546590422,-0.29533678086539955,20.726958727742876,-6.4795040360822345,797.9965418311084,804.792894287755
0.93,7.735983548174589,0.22933859798052714,20.480412162267893,-6.542085439365826,797.5262325053309,804.792894287755
0.9400000000000001,7.902398236513924,0.433702281254829,20.32451699511981,-6.652554646512275,796.7294865769187,804.792894287755
0.9500000000000001,8.036811160293642,0.28405661443939456,20.33778946280179,-6.722072343453969,796.5707833957973,804.792894287755
0.96,7.9858590547474115,-0.07418343869095101,20.398948974971024,-6.699944083249928,797.268040710157,804.792894287755
0.97,7.597817308326058,-0.5108177171020167,20.377615886609608,-6.567873311190313,797.6375048794308,804.792894287755
0.98,7.662044925961598,0.09659265012458995,20.246615089331147,-6.598095577393726,796.6952874562284,804.792894287755
0.99,7.865224194033965,0.31457751699902703,20.312101130255606,-6.678919805312227,795.9170927445781,804.792894287755
1.0,8.055778299353156,0.23938345544056805,20.522983347274845,-6.738013728556784,796.1265025365979,804.792894287755
1.01,8.041713432252951,-0.05892013077268965,20.677199477751685,-6.720300660001478,797.2901173129703,804.792894287755
1.02,7.685860772291502,-0.3898735432849354,20.62335090721086,-6.619522740055122,797.7884975727624,804.792894287755
1.03,7.8150577524852425,0.2413905411221573,20.414409875437837,-6.686183016179731,796.9757269090594,804.792894287755
1.04,7.994146039788082,0.3654221656663412,20.37650203392871,-6.778778873841759,796.2571505147462,804.792894287755
1.05,8.123389171087366,0.19933729357424856,20.485484017039205,-6.826952348514398,796.4085946169494,804.792894287755
1.06,8.025945250042874,-0.1686948625495961,20.574532620418303,-6.781098311315761,797.3902116521962,804.792894287755
1.07,7.68108906744081,-0.37731387182625165,20.49856340392135,-6.68468365326643,797.4519235857616,804.792894287755
1.08,7.825629377015261,0.2086646809949304,20.37533621273447,-6.7427096090433745,796.4936202909009,804.792894287755
1.09,8.029699785658428,0.3279607134622827,20.450272094395544,-6.825892747733617,795.9249872475692,804.792894287755
1.1,8.174658158998792,0.17399339359731814,20.627821061392194,-6.867851422934298,796.3450308192761,804.792894287755
1.11,8.059901855510212,-0.18639985638647216,20.72175859195218,-6.817647526337843,797.5109375303427,804.792894287755
1.12,7.779005820809772,-0.2336626086819682,20.588646219339125,-6.758759246644396,797.45410578381,804.792894287755
1.1300000000000001,7.92630687096908,0.264043507763126,20.440861934546845,-6.829747184749627,796.5040770401532,804.792894287755
1.1400000000000001,8.115014370436985,0.3207448138240152,20.491925866279924,-6.91050040126624,795.9991926038977,804.792894287755
1.1500000000000001,8.220691696318752,0.11810467707545236,20.639170434268298,-6.938000169167616,796.471620296714,804.792894287755
1.16,8.045736091176007,-0.27372911070335393,20.705080188357794,-6.865649553613989,797.5257300528305,804.792894287755
1.17,7.81738386235614,-0.1734430478842528,20.559267706226915,-6.823291652271115,797.2028546004401,804.792894287755
1.18,7.975688591526634,0.26381282405236917,20.46450118740617,-6.893617417003574,796.2376424327265,804.792894287755
1.19,8.173128803892617,0.29823337949684037,20.567709669743614,-6.968519967432227,795.875874198389,804.792894287755
1.2,8.266533512889275,0.08448013502415752,20.73301494911618,-6.98750246874354,796.5389221301656,804.792894287755
1.21,8.050625325652689,-0.31892234458369906,20.779380259654946,-6.903737857801536,797.5905087765562,804.792894287755
1.22,7.8907448602303765,-0.07320598281898505,20.59837336058735,-6.8878935257144365,797.1273534446836,804.792894287755
1.23,8.0519296003311,0.2882669982796995,20.504795877190116,-6.963575005095348,796.1817610993533,804.792894287755
1.24,8.236008003454021,0.2748436785719351,20.606192312849114,-7.032151691541253,795.9156442108128,804.792894287755
1.25,8.292636407239574,0.025186826799639128,20.7544406151223,-7.035951829723441,796.6549384816573,804.792894287755
1.26,8.021681397072781,-0.38993031755096985,20.778825824771747,-6.934318078892192,797.5649434439295,804.792894287755
1.27,7.9323837713334004,-0.009266614394578099,20.594510519529447,-6.935808062325112,796.9363202423352,804.792894287755
1.28,8.102579803329698,0.29492692873476956,20.537593351747937,-7.012581729940098,796.0347475118284,804.792894287755
1.29,8.284134942752669,0.2528658287593899,20.66329648595224,-7.07537757613019,795.9077517110842,804.792894287755
1.3,8.312687499942959,-0.01994518348101426,20.807394687569737,-7.067663170137533,796.7781284743805,804.792894287755
1.31,7.992295753658272,-0.4415652506210552,20.807512352328658,-6.953055656810868,797.5669253979255,804.792894287755
1.32,7.98204809793636,0.06688645646950642,20.610707057623703,-6.974861787999151,796.8396560622225,804.792894287755
1.33,8.15438914921164,0.3122612182293465,20.565968609548186,-7.055380840174086,795.9851953507779,804.792894287755
1.34,8.323217524015785,0.22601720282006665,20.693945286154914,-7.111022700725009,795.9759198094649,804.792894287755
1.35,8.312307359006857,-0.07690063437095596,20.820313923038928,-7.08876836376036,796.9269440828899,804.792894287755
1.36,7.947771373316854,-0.48411825367064765,20.793993748048624,-6.963666624149702,797.5116260551561,804.792894287755
1.37,8.012208779342664,0.12122927732226674,20.60476741757976,-7.0000274187901965,796.6876763626221,804.792894287755
1.3800000000000001,8.19270992761838,0.3103285695342328,20.589328902400958,-7.079500554095875,795.9179174324826,804.792894287755
1.3900000000000001,8.348409006611961,0.19790929362013188,20.727111463077524,-7.127853684741767,796.048614004481,804.792894287755
1.4000000000000001,8.29883343482923,-0.12886632825856825,20.83766196518655,-7.092369346458337,797.0858375601499,804.792894287755
1.41,7.919589742153005,-0.4673606458353821,20.777948912919634,-6.972144241823724,797.4440441224207,804.792894287755
1.42,8.041215131394672,0.16911318168908585,20.60005935188941,-7.02078727552124,796.5533291952992,804.792894287755
1.43,8.225531006340159,0.31215607017092173,20.61063186394008,-7.100256721948789,795.8642326591188,804.792894287755
1.44,8.366862789549343,0.1693599736925253,20.7565592212415,-7.141168754407136,796.1232064976432,804.792894287755
1.45,8.276332580784564,-0.18406014856135244,20.853213587275704,-7.0916195160442586,797.2173270165702,804.792894287755
1.46,7.938696901215518,-0.3694357398230186,20.754866331374448,-6.9974068251758865,797.3182956057129,804.792894287755
1.47,8.075795060301648,0.2007619282161488,20.60218656932725,-7.053299283910315,796.3778065480542,804.792894287755
1.48,8.265390494630223,0.3022733778649678,20.64711981682819,-7.129882742873045,795.8060260596626,804.792894287755
1.49,8.391494026863793,0.13205445614053213,20.80042013669691,-7.161194167690932,796.2130095815088,804.792894287755
1.5,8.256403683021007,-0.23853005343059275,20.878571460723165,-7.097855809237573,797.3309580226119,804.792894287755
1.51,7.973929002466079,-0.26470669956114445,20.74221853878694,-7.0314173678859815,797.195876925055,804.792894287755
1.52,8.11863383716121,0.22743536075825865,20.61171818280024,-7.09319762867874,796.2288660854167,804.792894287755
1.53,8.308623591871083,0.28838173624425467,20.68333954626631,-7.165902526494664,795.7656332544915,804.792894287755
1.54,8.413793557074014,0.0909183765231405,20.8402870439709,-7.186657487028237,796.3150268437928,804.792894287755
1.55,8.230985151401137,-0.299060094826896,20.89834176527487,-7.107992678608012,797.404223404746,804.792894287755
1.56,8.011382955909063,-0.16991726189623957,20.733967803395245,-7.06680479146326,797.0604382799331,804.792894287755
1.57,8.164553108209098,0.24851894387819184,20.627849678023562,-7.133118889490551,796.0965945723493,804.792894287755
1.58,8.351660842118191,0.27234615239803217,20.72177675608217,-7.201443699675257,795.7573161051469,804.792894287755
1.59,8.431495945610362,0.045770356891098984,20.875391748968706,-7.210620530942961,796.434099939713,804.792894287755
1.6,8.198334251656641,-0.3580373792823216,20.911070551658923,-7.117073108760647,797.4468982501666,804.792894287755
1.61,8.04781434958501,-0.08393355309281336,20.72699318957595,-7.098830758749338,796.9288315922767,804.792894287755
1.62,8.207922982151764,0.2659857801280576,20.64460769816082,-7.168826397113562,795.9898082956541,804.792894287755
1.6300000000000001,8.390008381396397,0.24920039276266204,20.7554464798107,-7.230958641430573,795.7719540422866,804.792894287755
1.6400000000000001,8.439029779086452,-0.0026796020505055473,20.902612424962967,-7.227769940969815,796.5666084651664,804.792894287755
1.6500000000000001,8.152919846731468,-0.4195621280238848,20.915868474021995,-7.11871058370411,797.4610776980427,804.792894287755
1.6600000000000001,8.079621236987103,-0.0048315152770821435,20.72070560597197,-7.1216500110123055,796.8047300339429,804.792894287755
1.67,8.24604510511582,0.281755147424672,20.66113463110575,-7.194954664495492,795.9131528442495,804.792894287755
1.68,8.419944150812997,0.22769823432656766,20.783260735718837,-7.251338653946153,795.8202853626345,804.792894287755
1.69,8.434270659733333,-0.053517908596135255,20.91863071179256,-7.2351470153678905,796.7203848476182,804.792894287755
1.7,8.098038673625846,-0.4712206635714189,20.90660972843152,-7.113164821925283,797.44955311547,804.792894287755
1.71,8.103947984495006,0.06434096468645834,20.709107249591785,-7.134605679379476,796.6808797189207,804.792894287755
