t,iq,id,vq,vd,omega,r
0.0,0.0,0.0,0.0,0.0,0.0,2413.4941984121037
0.01,0.0,0.0,627.508491587147,0.0,82.03379145677249,2413.4941984121037
0.02,11.57349369092638,-0.46965702261026604,1056.59522738526,0.12211082587866917,91.78545454630537,2413.4941984121037
0.03,12.308489069710255,-5.126292480789687,1376.7679735732568,-2.311924079046504,113.60053294410392,2413.4941984121037
0.04,12.780119195983357,-3.8008329500565323,1611.516593104532,-3.8727649055518882,151.69046906471897,2413.4941984121037
0.05,13.177611047376049,-2.03183288236273,1778.0771716412712,-4.694805229284091,209.00479153844333,2413.4941984121037
0.06,13.326481747534134,0.42738976405302953,1888.6805447091717,-4.871643318858122,297.6296353862927,2413.4941984121037
0.07,12.773466951297777,3.8231295847618316,1949.3983533085116,-4.387038425109319,433.50268968171224,2413.4941984121037
0.08,10.498690142337095,8.219202094666588,1960.7500670243112,-3.095162316740585,459.80433949366744,2413.4941984121037
0.09,13.28840965909704,1.093593393265639,1962.792428620174,-5.513032792292976,561.4408823215829,2413.4941984121037
0.1,10.957807352480538,7.596330416964575,1939.3481850398857,-5.442728532738482,578.6121685865079,2413.4941984121037
0.11,13.17887590328042,2.0236125379410996,1916.9775149880593,-7.9471669523739585,694.3760207881757,2413.4941984121037
0.12,9.225222903056052,9.626683757489275,1871.9955984712165,-7.228909343083611,744.6470541635073,2413.4941984121037
0.13,11.678734428950662,6.433112770332894,1825.5312943431393,-8.903585796549926,891.9982288053424,2413.4941984121037
0.14,2.872098317249594,13.020323691591916,1754.4262338518015,-6.138774717323276,1019.333053724786,2413.4941984121037
0.15,3.58617942761656,12.842005096195747,1669.8101157881022,-5.399088081552668,1134.2135734848766,2413.4941984121037
0.16,2.647039911680727,13.067936236596314,1578.1253247101076,-5.329391394965907,1240.476347874004,2413.4941984121037
0.17,0.101860851839775,13.332944241413454,1483.3702258279136,-4.787991100655168,1301.3615911982863,2413.4941984121037
0.18,-3.588588925233595,12.841331991015126,1397.822354313352,-5.758628776566965,1349.8359064117424,2413.4941984121037
0.19,5.815553993130385,11.998212764022938,1319.997794166663,-9.297807674670501,1429.7809215662367,2413.4941984121037
0.2,0.6712660954615968,13.316425181213669,1242.9899614701624,-9.738030843349884,1493.0976670219102,2413.4941984121037
0.21,-5.679650153437255,12.063140217718514,1170.3126555218157,-6.660647877764351,1547.3917557220686,2413.4941984121037
0.22,0.9917761530662903,13.296396423090986,1101.3745896983432,-8.99962685097438,1594.4719330640685,2413.4941984121037
0.23,-6.779513821733013,11.48111362711426,1039.2948412871585,-6.128268796176093,1645.563812996024,2413.4941984121037
0.24,-1.7069822906214884,13.223614832460992,979.3184445628233,-7.841125688477955,1667.1893947295869,2413.4941984121037
0.25,3.2713043332377554,12.925801551049652,927.3644560879126,-12.189426954552047,1710.4373899592952,2413.4941984121037
0.26,-6.155571407473447,11.010488512813593,880.1860606405775,-9.697618342076584,1748.7543277591433,2413.4941984121037
0.27,-2.7451097463014227,11.846382269485254,834.5861282689098,-10.586910142027044,1769.1001220302765,2413.4941984121037
0.28,0.9311337477848394,12.158893296102107,794.1255105234112,-13.598440443334802,1780.7914339878866,2413.4941984121037
0.29,-9.539855414378026,8.303098751355705,763.3559888996664,-8.776740965360718,1805.2734696924051,2413.4941984121037
0.3,-6.794318135318786,8.486433360450697,733.7921813518966,-6.900953714864389,1834.0441955474105,2413.4941984121037
0.31,-5.017632056844945,9.18077106438898,704.1544025851391,-7.341150028356795,1855.832250135285,2413.4941984121037
0.32,-3.2788692547910565,9.714878313741753,675.9945299517383,-9.327237019564828,1867.9446869414628,2413.4941984121037
0.33,-1.328989782676251,10.209714283813708,651.1002923840117,-12.267296114051362,1869.4545119964755,2413.4941984121037
0.34,1.2331148207521658,10.704150874624778,630.9893815187872,-15.748578257880498,1871.5219351367173,2413.4941984121037
0.35000000000000003,-10.180911036412658,6.741983275456489,618.7758521001414,-10.422581867828882,1878.6995178821455,2413.4941984121037
0.36,-8.6485087042104,7.061098200528206,607.565878092259,-7.452000105964244,1893.2510128546692,2413.4941984121037
0.37,-6.870051633078173,6.376263933312585,595.1999168373485,-5.982897300259469,1910.5056360785995,2413.4941984121037
0.38,-6.12597958090975,6.745758957551436,581.4933831223709,-5.888826413802263,1926.3981269132935,2413.4941984121037
0.39,-5.479291026890069,7.051294665517195,567.0809884232256,-6.711325767676977,1939.4496852849686,2413.4941984121037
0.4,-4.883707415597877,7.30575000292911,552.8098687070224,-8.10102286552039,1949.4188400772202,2413.4941984121037
0.41000000000000003,-4.307820797439113,7.552794057669406,539.3816710821442,-9.813192381203201,1956.3140084507966,2413.4941984121037
0.42,-3.7456965217779947,7.794447447826588,527.3338124714004,-11.681641486415035,1960.0616191080046,2413.4941984121037
0.43,-3.16651004720641,8.05084824763475,517.0891925617683,-13.607541466482262,1960.72050068274,2413.4941984121037
0.44,-2.500882094263214,8.355375432424335,508.932268313662,-15.547819011481783,1958.4403639782818,2413.4941984121037
0.45,-1.72405181541619,8.693133358417052,503.0270794594104,-17.488382244660773,1949.155162162386,2413.4941984121037
0.46,-11.323964611548465,3.8503130794416336,503.28566076232005,-16.363022847350273,1929.4381818754557,2413.4941984121037
0.47000000000000003,-11.095112364762027,4.537192329661365,508.5299063107062,-11.21949457021565,1915.899366532248,2413.4941984121037
0.48,-10.748674328722954,5.399283309269084,515.9611344797892,-6.604831576367417,1910.5368495576536,2413.4941984121037
0.49,-10.274700093563027,6.310678366658625,522.8644008133656,-3.857335799298177,1912.192377265756,2413.4941984121037
0.5,-9.257059048117604,6.60393024039926,527.4821140898661,-2.451956430948324,1919.7588587583418,2413.4941984121037
0.51,-7.752414667199997,5.95797584904161,528.758484445797,-1.862134980822413,1930.641399971908,2413.4941984121037
0.52,-6.780373102008376,5.570703116401327,526.8156366377016,-1.9573141190004641,1942.9435269044575,2413.4941984121037
0.53,-6.362301480151286,5.790544966678327,522.209141536774,-2.6769425005174323,1954.7277610506321,2413.4941984121037
0.54,-6.020603177195089,5.953507605929166,515.7275108886403,-3.7761262287879656,1965.2987050956472,2413.4941984121037
0.55,-5.729239507566513,6.068382868231782,508.13579419499564,-5.069599805981674,1974.433693545015,2413.4941984121037
0.56,-5.491718621617341,6.143092286695342,500.07248180346005,-6.422086555044262,1982.166895778417,2413.4941984121037
0.5700000000000001,-5.300594736602084,6.191527673229493,492.0126074436026,-7.742422815712049,1988.6642253336686,2413.4941984121037
0.58,-5.145250466576241,6.225341361973005,484.27295176407097,-8.973988215967678,1993.9669358618366,2413.4941984121037
0.59,-5.031248254602139,6.23864520053193,477.08697924216335,-10.08188651757307,1998.313832400911,2413.4941984121037
0.6,-4.949927659061852,6.23786839893123,470.56738181578766,-11.050262171878233,2002.0133168791626,2413.4941984121037
0.61,-4.892304527281381,6.227480244356447,464.71908883479546,-11.875726649489955,2005.1290709805533,2413.4941984121037
0.62,-4.862096753030704,6.202352245155874,459.53337583423274,-12.559861662701714,2007.85549976007,2413.4941984121037
0.63,-4.847252820796225,6.171392050339661,454.9503191235171,-13.110525662658075,2010.266834550422,2413.4941984121037
0.64,-4.855316118807462,6.125274763805276,450.9091954840295,-13.534647779360041,2012.4428303986695,2413.4941984121037
0.65,-4.882911567097618,6.065546978156644,447.34311364068697,-13.840109086541,2014.4518586716536,2413.4941984121037
0.66,-4.928600968800315,5.991777552136398,444.18415211744224,-14.03431741061978,2016.3433523598524,2413.4941984121037
0.67,-4.99158323417004,5.902987427122955,441.3685974754111,-14.123600690382432,2018.15884291017,2413.4941984121037
0.68,-5.070137743145209,5.7990570071798055,438.83752746017564,-14.11321351439851,2019.9781143099794,2413.4941984121037
0.6900000000000001,-5.158898217918646,5.683003436183227,436.5246349965802,-14.008051571846233,2021.755505300593,2413.4941984121037
0.7000000000000001,-5.2636445955822175,5.547664312064646,434.3939931607794,-13.809675666384669,2023.6426187660588,2413.4941984121037
0.71,-5.375268076259271,5.398681287685741,432.3759042518452,-13.520174211217173,2025.3716693587685,2413.4941984121037
0.72,-5.519431162442685,5.20854992248451,430.4955259824912,-13.132678102009466,2027.2897327560618,2413.4941984121037
0.73,-5.649355434438723,5.022768343245307,428.66573046495535,-12.652813035862987,2029.1524666093712,2413.4941984121037
0.74,-5.79813691293542,4.802958043729668,426.8962382320448,-12.07364121257084,2030.8328754170523,2413.4941984121037
0.75,-5.954262905818524,4.5613197706323305,425.22056449017833,-11.3915338107198,2032.2706564754758,2413.4941984121037
0.76,-6.1138602136122415,4.2997910442593,423.67577475778046,-10.603772991480225,2033.2824400435484,2413.4941984121037
0.77,-6.273167057948095,4.023308523456165,422.33395292389815,-9.709609149994078,2033.5349108113164,2413.4941984121037
0.78,-6.429488689541477,3.7397044327509508,421.3312222096911,-8.711651485026954,2032.9599675987643,2413.4941984121037
0.79,-6.591640844955795,3.4815933904662875,420.78416074042576,-7.624057500037233,2031.438618364979,2413.4941984121037
0.8,-6.819320038839141,3.360804988720098,420.82406421230996,-6.491109963639331,2028.7019688875641,2413.4941984121037
0.81,-7.181815766781958,3.446426472072197,421.63441905264136,-5.370179199305785,2024.8091990695646,2413.4941984121037
0.8200000000000001,-7.672736502543451,3.7175576770952725,423.33247498882315,-4.307773031870299,2019.8537704018163,2413.4941984121037
0.8300000000000001,-8.219480045310753,4.0682833640859695,425.96531382672924,-3.3231094454811774,2013.5517094922945,2413.4941984121037
0.84,-8.675071313121249,4.333415358032253,429.60866193167664,-2.399770000372145,2006.6774114504508,2413.4941984121037
0.85,-9.215001113819485,4.758642530214193,434.1665418846376,-1.601689012361619,1999.1772006398346,2413.4941984121037
0.86,-9.493172628947494,4.971359534565535,439.50224698430634,-0.889195286587017,1991.571226576845,2413.4941984121037
0.87,-9.611933078154921,5.116356330096357,445.4116659482362,-0.2786298564196635,1984.661176604594,2413.4941984121037
0.88,-9.634474274931465,5.266571640530307,451.5573998106727,0.19497966101024763,1978.7790914097145,2413.4941984121037
0.89,-9.473273740945245,5.308180383563844,457.58607742264377,0.5350848868748186,1974.4991786803485,2413.4941984121037
0.9,-9.248634225738282,5.3458970463419995,463.1175783205525,0.721282077278154,1971.9732949221448,2413.4941984121037
0.91,-8.942948127156258,5.321565134077339,467.82447343332524,0.762244202615285,1971.0405838731112,2413.4941984121037
0.92,-8.562176419626665,5.203713730090758,471.5022228786155,0.6839580489878828,1971.2890554071048,2413.4941984121037
0.93,-8.04996739238216,4.89169973505666,474.0843693667687,0.5444835711075576,1972.519088891612,2413.4941984121037
0.9400000000000001,-7.579474799804869,4.575691139005602,475.61149553394245,0.3489723165857367,1975.1506419017526,2413.4941984121037
0.9500000000000001,-7.441296044070687,4.655667878798576,476.0751648325749,0.007430572477611454,1978.430483137481,2413.4941984121037
0.96,-7.208410887126206,4.541693382841832,475.55444763905257,-0.38300895952450126,1982.0926081159082,2413.4941984121037
0.97,-7.026829388585504,4.44317322888265,474.2121041133265,-0.7988258915756774,1985.8190654001667,2413.4941984121037
0.98,-6.885481000467172,4.341179645414134,472.2465519134187,-1.210287807952917,1989.5867318955807,2413.4941984121037
0.99,-6.810117947017761,4.2928858727264805,469.8171583269868,-1.6070018562823147,1993.1790819515354,2413.4941984121037
1.0,-6.750379852933737,4.213312006336488,467.08706896317614,-1.9570916085881718,1996.4937521231004,2413.4941984121037
1.01,-6.743611997972758,4.170808657924342,464.2140088899066,-2.2542215901545424,1999.4080980566343,2413.4941984121037
1.02,-6.740910438922842,4.090482132522412,461.3345371343212,-2.47412345226895,2001.8611505887104,2413.4941984121037
1.03,-6.769489077650701,4.025081624259194,458.5734828758052,-2.614355049126046,2003.8100739790564,2413.4941984121037
1.04,-6.824220599085082,3.9718544028380465,456.03339219602043,-2.6742618854253055,2005.2040887482913,2413.4941984121037
1.05,-6.900807619899675,3.931600796031798,453.80272099870456,-2.6565259317916707,2006.023527344071,2413.4941984121037
1.06,-7.0054419123262095,3.919553302161385,451.9538352158865,-2.5705778860075514,2005.991304005101,2413.4941984121037
1.07,-6.991004977028968,3.725883197342503,450.57433710436584,-2.3728476348304186,2005.3022308651052,2413.4941984121037
1.08,-7.085803521493342,3.710139567913834,449.7372490046709,-2.1307034628831545,2004.6404931544898,2413.4941984121037
1.09,-7.421790571946921,4.047662579685756,449.35370452847246,-1.943582553003279,2003.5670533495042,2413.4941984121037
1.1,-7.576357510342212,4.120550874250515,449.36723411447593,-1.7283631182011754,2002.1648792860904,2413.4941984121037
1.11,-7.73385291354726,4.212268256006029,449.76177046482513,-1.5025017928808129,2000.4534896600721,2413.4941984121037
1.12,-7.88522020749864,4.313598995677454,450.51735851230694,-1.2776658107422587,1998.467245530675,2413.4941984121037
1.1300000000000001,-7.977176749432617,4.358326898633731,451.5970970403297,-1.0483562171969751,1996.2501646336405,2413.4941984121037
1.1400000000000001,-8.069998250465947,4.432968749758497,452.97905042313823,-0.8364276643612699,1993.9980124672727,2413.4941984121037
1.1500000000000001,-8.122133790386087,4.488539783347283,454.5855469697514,-0.647293341122014,1992.0675384163815,2413.4941984121037
1.16,-8.223691255289651,4.635173685918316,456.29190369988277,-0.5160359522969816,1990.17245600793,2413.4941984121037
1.17,-8.162011244298146,4.598302613126101,458.0266657043417,-0.3969779079637784,1988.7636701049885,2413.4941984121037
1.18,-8.173451946513701,4.679899169377431,459.67946273527474,-0.33484698575467686,1987.7332723932382,2413.4941984121037
1.19,-8.105403148196764,4.672893890913839,461.15798536758325,-0.30617416445691753,1986.9615977022079,2413.4941984121037
1.2,-7.974798219252862,4.593868128223924,462.4283412086883,-0.2960381529481205,1986.3381708140105,2413.4941984121037
1.21,-7.759719332607331,4.410359233167204,463.48628698543854,-0.28201264942361043,1986.4970935563,2413.4941984121037
1.22,-7.806446441782986,4.575076559221216,464.2525648110016,-0.363534079532526,1986.9988563264371,2413.4941984121037
1.23,-7.70032109452959,4.5234106468802135,464.6768144468618,-0.4627403514209644,1987.7490554277372,2413.4941984121037
1.24,-7.603833919689876,4.470953315272006,464.78699291565306,-0.5766403636170396,1988.6895771156908,2413.4941984121037
1.25,-7.513216114052076,4.412473838775123,464.6153954613364,-0.6971480908497731,1989.7509714224516,2413.4941984121037
1.26,-7.44114716403781,4.363637534102141,464.2069071090984,-0.82029908073536,1990.8769804435728,2413.4941984121037
1.27,-7.392560946943097,4.331753024252289,463.6102173141873,-0.9433127795365621,1992.0181395126133,2413.4941984121037
1.28,-7.350147996779079,4.291963154922289,462.8695869039266,-1.056476722512176,1993.13607534184,2413.4941984121037
1.29,-7.3178756395690785,4.251949695079203,462.0289259472443,-1.1540575856634392,1994.1778488985574,2413.4941984121037
1.3,-7.308406949851288,4.229270732499432,461.1378385780359,-1.2358669901408585,1995.1033261070004,2413.4941984121037
1.31,-7.311550180516999,4.211437307652709,460.2407059497592,-1.298376392456999,1995.8800251620148,2413.4941984121037
1.32,-7.326404112698488,4.1992482938776154,459.3787770692328,-1.3396630721727059,1996.48447795571,2413.4941984121037
1.33,-7.351847309217756,4.193364579530794,458.58853907485417,-1.3591849574368653,1996.9003601795164,2413.4941984121037
1.34,-7.3900960023638405,4.199189077451661,457.90201672037404,-1.3589494237694058,1997.1224436349917,2413.4941984121037
1.35,-7.436590508419592,4.2130458391032555,457.343291877433,-1.3407023741315904,1997.155674347979,2413.4941984121037
1.36,-7.480511432200333,4.222739616818731,456.9264092478413,-1.3040000026770007,1997.0444666600517,2413.4941984121037
1.37,-7.533100645640454,4.24498474010886,456.653538069893,-1.254390401633813,1996.7797273233987,2413.4941984121037
1.3800000000000001,-7.58054263652923,4.262782345158792,456.5255354617982,-1.192927052470148,1996.3924161633636,2413.4941984121037
1.3900000000000001,-7.6392605090011045,4.3006902169697305,456.53942276181965,-1.12809417925547,1995.9003525767916,2413.4941984121037
1.4000000000000001,-7.686219762962893,4.328231984081814,456.682629053395,-1.0593397124236257,1995.283149468872,2413.4941984121037
1.41,-7.721237153664293,4.347468360485354,456.9515161192143,-0.988096019278017,1994.4658382180394,2413.4941984121037
1.42,-7.6845384946379705,4.280788335953899,457.3472353533911,-0.8961782307256421,1993.8751725389184,2413.4941984121037
1.43,-7.7870610353079215,4.412821938234734,457.81454284126727,-0.845829762030183,1993.3159576000342,2413.4941984121037
1.44,-7.801193178842697,4.430854010538161,458.3059536250419,-0.8011804465296977,1992.7989236392905,2413.4941984121037
1.45,-7.80582478269341,4.443491810479203,458.8037100264121,-0.7648978151010447,1992.3463473909694,2413.4941984121037
1.46,-7.801961626337587,4.4512829860435055,459.28828794709807,-0.7380083928734693,1991.975811050852,2413.4941984121037
1.47,-7.790451022011016,4.454207320487099,459.74087808507784,-0.721015378176616,1991.6992113156139,2413.4941984121037
1.48,-7.772565983658947,4.452604703143233,460.1447229874976,-0.713946942625402,1991.5127799049583,2413.4941984121037
1.49,-7.7510353155835405,4.44902464410193,460.4889732339968,-0.7169004606397494,1991.438432009024,2413.4941984121037
1.5,-7.723134691826418,4.4375321298103705,460.7589319220153,-0.7277066512805076,1991.3409721751445,2413.4941984121037
1.51,-7.668064410002583,4.3898204031395744,460.97347604328417,-0.7367435223341178,1991.4245211543266,2413.4941984121037
1.52,-7.6679264460835626,4.417577955565685,461.1138069579451,-0.765411526675903,1991.6043279363794,2413.4941984121037
1.53,-7.637216142081503,4.4003132012294985,461.16685640243185,-0.7974228567665576,1991.8399771792579,2413.4941984121037
1.54,-7.601986528284516,4.373292159310487,461.13994427385154,-0.8294397565876137,1992.1148806625697,2413.4941984121037
1.55,-7.57391539592704,4.352252066032781,461.04517301323784,-0.8620002554366267,1992.4349486109254,2413.4941984121037
1.56,-7.565090935654913,4.35352589556058,460.89290228684234,-0.8991530612352232,1992.7699976322135,2413.4941984121037
1.57,-7.548259567245772,4.3387926137817185,460.69157220861945,-0.9334525507691936,1993.0965345939446,2413.4941984121037
1.58,-7.532283370203372,4.3206239973969005,460.4558597839857,-0.9625415024879583,1993.4045410712233,2413.4941984121037
1.59,-7.524841502643526,4.310082459886426,460.2010429209337,-0.9872580332470645,1993.6863925758037,2413.4941984121037
1.6,-7.523991894347924,4.304800279203114,459.93988781529436,-1.007525649843402,1993.9316956024766,2413.4941984121037
1.61,-7.526516355302639,4.300734797757828,459.6837891476503,-1.02234290964815,1994.1319824028317,2413.4941984121037
1.62,-7.532241308211079,4.2982507911582255,459.44339347956793,-1.0312438947852312,1994.2815872916058,2413.4941984121037
1.6300000000000001,-7.540762260101338,4.29747204521164,459.22799411857477,-1.0341500600353382,1994.3827100706353,2413.4941984121037
1.6400000000000001,-7.555492104955475,4.3038120466540715,459.04485353683947,-1.0327237134266234,1994.4363699975374,2413.4941984121037
1.6500000000000001,-7.573709618366234,4.314060364953578,458.898468610632,-1.0276892281595427,1994.4409166191601,2413.4941984121037
1.6600000000000001,-7.589854251928294,4.321148752287443,458.7912661982921,-1.0181345673985522,1994.3983586543109,2413.4941984121037
1.67,-7.606500724468855,4.329323925842255,458.72528719949105,-1.0049025927769475,1994.297517348869,2413.4941984121037
