t,iq,id,vq,vd,omega,r
0.0,0.0,0.0,0.0,0.0,0.0,1928.3120833282783
0.01,0.0,0.0,501.36114166535236,0.0,74.77954209363902,1928.3120833282783
0.02,11.568271794759081,-0.509467124667492,842.5766487003758,0.13246145241354793,86.44759673857317,1928.3120833282783
0.03,12.236876376132319,-5.294963109695148,1096.2645165256804,-2.3130681864043527,105.65435052045011,1928.3120833282783
0.04,12.696718977608299,-4.07076221135784,1281.8341007136612,-3.9063304617642665,139.59590026853644,1928.3120833282783
0.05,13.104114602306804,-2.4616982486461008,1412.5531345824418,-4.772871250603496,190.99365119822448,1928.3120833282783
0.06,13.331158730215122,-0.24080009880984576,1497.757890097599,-5.0186813439361835,267.75523292196294,1928.3120833282783
0.07,13.030370920130103,2.8261655049917813,1542.4341247437383,-4.645702099524006,386.11613928125286,1928.3120833282783
0.08,11.415663660661181,6.889150961071866,1546.1714242154746,-3.5514948664767028,406.248009133098,1928.3120833282783
0.09,13.278702398774737,-1.2057530354727743,1543.6093689686825,-6.146241401417194,472.9821670129952,1928.3120833282783
0.1,12.481368145173802,4.689693700277068,1525.727016972041,-6.564510764773326,617.4497043226243,1928.3120833282783
0.11,8.143666971607617,10.557389167465837,1476.062463263286,-4.807591099952099,691.8512724808274,1928.3120833282783
0.12,11.422234439993932,6.878251098614694,1420.4585706145435,-6.352821455112975,710.5935662265231,1928.3120833282783
0.13,12.994968260900276,2.9847240535721493,1373.3223793384589,-9.343553620502695,837.4087526393895,1928.3120833282783
0.14,6.988770227103208,11.354949074766187,1307.55931569204,-8.139270302137218,932.9828070092722,1928.3120833282783
0.15,8.4516800704881,10.312462449090033,1234.4153518716134,-8.897130284919035,1009.1039693615353,1928.3120833282783
0.16,8.902517059139136,9.92587365371504,1160.5162098322392,-10.448333291858084,1079.8627253007085,1928.3120833282783
0.17,8.579905061957591,10.206027969076521,1087.4785495372273,-12.038679966705091,1156.1135994228794,1928.3120833282783
0.18,7.430126148084345,11.071178943605377,1013.9271698545264,-13.20189727738088,1245.0157188621697,1928.3120833282783
0.19,5.147782412558168,12.2995168202143,937.0981163206735,-13.528038657312148,1339.3566439338697,1928.3120833282783
0.2,1.3319435696670405,13.26663876439697,856.7595614705176,-12.457371062918961,1413.835679162078,1928.3120833282783
0.21,-3.8691847935310935,12.759591953165488,778.7564200607505,-9.239962368692577,1468.8300573042322,1928.3120833282783
0.22,4.041526703169608,12.706055236986211,705.0892228814718,-11.923340410673214,1540.7376413134152,1928.3120833282783
0.23,-2.8879789975525054,13.016810480585226,633.597459612345,-10.488037786502172,1586.2059886764855,1928.3120833282783
0.24,3.3696560644650893,12.900511454395572,566.995071362566,-13.494398450903363,1641.7434474198838,1928.3120833282783
0.25,-5.063453111125224,12.334472845209643,505.3974814852571,-11.079527879375238,1688.8702454815452,1928.3120833282783
0.26,-0.3527674833638086,13.001050026814553,446.4066036386549,-12.635868626550533,1717.0898849119505,1928.3120833282783
0.27,3.95106918699683,12.734474078553143,393.33164964055356,-16.46846346056329,1759.8362979869398,1928.3120833282783
0.28,-5.56533742809596,10.776173200606596,345.9790654477907,-13.25850143605822,1798.0790813347048,1928.3120833282783
0.29,-2.544338804172917,10.485574979758438,300.25720743786167,-12.937260087034534,1830.9047856306422,1928.3120833282783
0.3,-0.32234379386247547,10.557920390525513,256.9508976016667,-14.596617876221561,1852.889498487864,1928.3120833282783
0.31,1.6181164810876192,10.688707001044143,217.9641026407176,-17.14630239715794,1861.739222228035,1928.3120833282783
0.32,-9.106928010371528,6.953097473553246,189.65288954253913,-13.015124059465608,1872.2560169432686,1928.3120833282783
0.33,-5.933456315965463,6.722597452599961,165.3875314180056,-9.607580589139348,1893.3166414402308,1928.3120833282783
0.34,-4.200506636284532,7.719761247035249,141.5740825958765,-8.370702143433713,1918.2617537142364,1928.3120833282783
0.35000000000000003,-3.2471334085837307,7.7684561344075735,117.24338704358969,-8.422831277400988,1942.7609456777861,1928.3120833282783
0.36,-2.5053223748533227,7.663422957916497,92.62912404641253,-9.250603804082802,1965.8465557923641,1928.3120833282783
0.37,-1.9892063869448335,7.511069916158981,68.1776841275129,-10.463341476210466,1987.0236575827012,1928.3120833282783
0.38,-1.661112725204424,7.3016433687995494,44.37695205275691,-11.763824590695329,2002.138422904641,1928.3120833282783
0.39,-1.4970312871838876,7.0698584049739335,22.591235807870977,-12.515101462491327,1977.2979507347457,1928.3120833282783
0.4,4.280077870438122,-0.09187661450296924,9.250384402546437,-12.350473773777509,1895.9197760160484,1928.3120833282783
0.41000000000000003,5.030484734013892,-10.665698579834917,16.897117725651633,-9.57831090916546,1849.2486029604743,1928.3120833282783
0.42,3.8849925359188604,-7.6196816667514815,36.16990633615962,-7.703850661608423,1856.5187374762495,1928.3120833282783
0.43,-8.75478726815816,7.507344520160879,54.22433720091338,-9.105588111533214,1857.036964081999,1928.3120833282783
0.44,-7.9559823127612095,6.9191823004184325,67.30154139368433,-9.670358155834844,1865.61403555891,1928.3120833282783
0.45,-5.204258843384796,7.553334060632884,74.59344108995822,-9.38002821481692,1890.8639817401292,1928.3120833282783
0.46,-3.7555923876280777,8.06414076219737,73.97210163048427,-8.723573026402729,1917.568740888423,1928.3120833282783
0.47000000000000003,-2.752442551900662,8.053579998209628,66.54516059723542,-9.257094656794408,1942.7364232378902,1928.3120833282783
0.48,-2.0029979381131677,7.944959112444584,54.39386247969084,-10.472438442530953,1964.278051301598,1928.3120833282783
0.49,-1.4762411453690403,7.784366346538102,39.62578444729581,-11.895192466094855,1974.1405928754803,1928.3120833282783
0.5,-2.339806618773614,6.781403726757464,25.93671690642628,-12.627604502885406,1955.8516716431602,1928.3120833282783
0.51,2.4693170876545287,2.063289768066409,17.831039638711662,-12.803491761595533,1916.8049212045375,1928.3120833282783
0.52,6.58864352711936,-3.9744054167534384,19.40994352785858,-11.749513455558972,1887.0637340514445,1928.3120833282783
0.53,5.959913101013203,-1.8808573887570021,28.535751747605715,-11.300234588649687,1887.5472124515456,1928.3120833282783
0.54,-1.705747442592091,5.654824629532644,38.41604381416518,-12.230286663295724,1891.255671542066,1928.3120833282783
0.55,-5.2600377490548995,7.0380570123534785,46.03060094866078,-13.034408851868534,1893.091184214076,1928.3120833282783
0.56,-5.631829181014582,6.816541884496685,51.415105551215674,-13.31561810315554,1899.8936524368492,1928.3120833282783
0.5700000000000001,-4.065460976904878,7.711871170642754,53.58501342378665,-13.38180818026705,1915.2207605953129,1928.3120833282783
0.58,-3.1636753543643445,7.870215260934144,51.48330290902052,-13.267300516197365,1935.5371342976214,1928.3120833282783
0.59,-2.392121264315665,7.850582316131744,44.83866864869752,-13.390792198894145,1953.130456906841,1928.3120833282783
0.6,-1.8096145322659034,7.83008538566536,35.12715882041689,-14.193898554114435,1955.0742214318586,1928.3120833282783
0.61,-1.352671724517462,7.956587607543511,26.560469768233464,-15.515214648505538,1940.2150464119352,1928.3120833282783
0.62,8.468285442501251,4.194253471541513,20.53384346426555,-16.16108157028171,1920.1902569568842,1928.3120833282783
0.63,11.48096060438315,3.13294391781255,19.66010706864775,-16.84248949094986,1900.0837794220504,1928.3120833282783
0.64,11.81011648215168,2.8286917823953206,23.76707731188511,-17.43948544721339,1890.2751169357366,1928.3120833282783
0.65,12.20896421474336,2.1541919349619185,29.568047961540735,-17.454335717959424,1898.7372113292677,1928.3120833282783
0.66,6.498200566283693,8.134380910986541,34.09230952284099,-18.47670555062501,1905.295280821265,1928.3120833282783
0.67,5.155312740007858,7.765777754774363,36.20472024038045,-19.052320199228404,1909.6057945745933,1928.3120833282783
0.68,5.210881847325342,7.9755971496639155,36.62727156198464,-19.51058903359378,1912.7773391332078,1928.3120833282783
0.6900000000000001,5.1718082872301325,7.365767086415999,36.150030924360784,-19.729265587448708,1915.472857442634,1928.3120833282783
0.7000000000000001,5.148308299178227,6.921685678390489,35.135018043035686,-19.885704600916572,1918.1888275742979,1928.3120833282783
0.71,5.58941895254451,6.489058023564266,33.57500849159038,-20.085679878570836,1920.5922662384833,1928.3120833282783
0.72,6.397436132646627,5.960193450092772,31.534904234184875,-20.398180156367456,1921.7512803646553,1928.3120833282783
0.73,7.9851612599082795,5.0423469735912345,29.155385204071955,-20.788391508381103,1918.2846550807851,1928.3120833282783
0.74,10.149793139505213,3.589219518847873,27.44705053048259,-20.75528580460617,1912.9132699177314,1928.3120833282783
0.75,10.676593527634399,3.110714659847746,27.24334123491726,-20.565124446319896,1909.3057908232852,1928.3120833282783
0.76,10.011626120979502,3.7858284782223945,28.23760752675301,-20.445406952829938,1912.673117920231,1928.3120833282783
0.77,7.962030512375995,6.851178605021995,28.932553574398078,-20.95533318554132,1915.8481063847842,1928.3120833282783
0.78,7.910904330057391,8.025531252947932,28.71079628778799,-21.652478666549044,1915.958337266737,1928.3120833282783
0.79,9.061909989730255,7.621306894633591,28.039263945212827,-22.216500497302054,1912.8789973249498,1928.3120833282783
0.8,9.75272368591558,6.732194399126433,27.983742087319637,-22.57718100363125,1907.8155875693803,1928.3120833282783
0.81,10.357926049129393,5.823721133293478,28.964567720087246,-22.723635094896235,1903.602535119978,1928.3120833282783
0.8200000000000001,10.887428372186655,4.912747659675901,30.635912188231007,-22.627620192301666,1903.0470249061227,1928.3120833282783
0.8300000000000001,11.355413463514209,3.9282263297465265,32.051482027301965,-22.309722020497738,1908.5041513687952,1928.3120833282783
0.84,8.891375063290376,4.8759329710475185,32.569582052638786,-22.428145972992734,1914.0104640505995,1928.3120833282783
0.85,6.230837785702876,6.706631091048164,32.39586908156353,-22.69956771232242,1920.0229642899985,1928.3120833282783
0.86,5.414614800644695,7.887354858840691,31.073756526555446,-23.049752536696438,1925.5776573399799,1928.3120833282783
0.87,5.7685159894916165,8.536969349044465,28.562813139810856,-23.511147625248732,1926.003166783869,1928.3120833282783
0.88,7.405261286656087,7.722988490657787,25.92001510798803,-23.85795741020267,1922.945617504133,1928.3120833282783
0.89,8.85695033125563,7.76964097298721,24.085682974810645,-24.380084646272913,1914.8282372212893,1928.3120833282783
0.9,9.488471823358363,7.085135628000716,24.360892492257612,-24.82788378083782,1903.9880333178987,1928.3120833282783
0.91,10.112197024693742,6.258208757090836,26.964189165732474,-25.02758409221729,1893.6454877478611,1928.3120833282783
0.92,10.71091253356043,5.3355546178578415,31.395212130289842,-24.800938218138057,1890.6239338245573,1928.3120833282783
0.93,11.262252799882166,4.303349494956679,35.65420037139483,-24.077852177959514,1901.4137568903536,1928.3120833282783
0.9400000000000001,6.401673195771941,6.627772145794733,37.89917595900017,-23.974189150754942,1917.530490785089,1928.3120833282783
0.9500000000000001,1.7444341283731672,10.145137967250346,37.12273904577847,-24.665312895501735,1926.1996760393918,1928.3120833282783
0.96,3.147804233869516,9.549320461484662,33.84009486292708,-25.01833241487876,1930.7244875343868,1928.3120833282783
0.97,5.355784236794669,8.539130281585791,29.4211991643159,-25.16428369026411,1931.0245366070708,1928.3120833282783
0.98,7.127659444298127,7.722414469087284,25.34251437332511,-25.2921057681589,1923.6342890634544,1928.3120833282783
0.99,9.554132930352292,6.076549831196424,23.07251754438108,-25.261440651927526,1911.235910115158,1928.3120833282783
1.0,10.132353415653922,5.590625676182407,24.119386432400905,-25.29282514064965,1899.483767227453,1928.3120833282783
1.01,9.990177129232627,6.483344107541107,27.937851109405408,-25.51256905539666,1889.6724066028623,1928.3120833282783
1.02,10.641354967089377,5.4979676372865445,33.1704029292075,-25.162068255203984,1889.2902793064673,1928.3120833282783
1.03,11.22411252874608,4.412236984806437,37.43009681668405,-24.24263235277027,1903.1741551294497,1928.3120833282783
1.04,4.771518202982772,7.612731418031124,39.35993468728079,-24.20343974927792,1920.9817700852036,1928.3120833282783
1.05,1.483028987588523,10.03835874073342,37.547646011811146,-24.76156825615117,1929.8807984415207,1928.3120833282783
1.06,2.7926432884408015,9.616863876783434,33.359114451784045,-25.117734221011613,1934.727449044862,1928.3120833282783
1.07,4.953758136347431,8.646577702668798,28.188005458677683,-25.303316435179855,1931.2200052706241,1928.3120833282783
1.08,8.129858672399282,6.0527715016288255,23.92558520193687,-25.089825768751734,1918.7694543824143,1928.3120833282783
1.09,10.984318022440416,3.6843622732652253,22.61987353553794,-24.596532881032996,1905.8362011920551,1928.3120833282783
1.1,10.626592857424223,4.548370969541923,24.943878503241603,-24.49259364948498,1896.5721606592813,1928.3120833282783
1.11,9.920577683559593,6.615313108143681,29.408094349928966,-24.797964949018517,1889.608831969302,1928.3120833282783
1.12,10.60741809451138,5.55949224386629,34.43601016776905,-24.44841638436194,1892.4559435600966,1928.3120833282783
1.1300000000000001,10.610776000948993,4.714484921325922,37.884400630787475,-23.61995871818826,1907.2180669565507,1928.3120833282783
1.1400000000000001,4.08198548144936,7.8939884384767645,38.94090829145957,-23.7178095315544,1922.8795428384258,1928.3120833282783
1.1500000000000001,1.3052716312791734,9.869484777214545,36.77794832475569,-24.319752851118224,1932.269765739106,1928.3120833282783
1.16,2.3475542826004343,9.739862578122196,32.34974758711375,-24.768735208105024,1936.1687831020158,1928.3120833282783
1.17,5.015124008569347,8.243050632092517,27.035557767085574,-24.942066516012634,1928.6744483290197,1928.3120833282783
1.18,9.364694991355702,4.292226167816601,23.206039349187414,-24.423098533142475,1914.2550451529007,1928.3120833282783
1.19,11.831335096355783,2.381288989316239,22.906558341616385,-23.74639420087614,1901.9414997880451,1928.3120833282783
1.2,10.588048133854718,4.640599259315052,26.239661388587848,-23.757333961235442,1894.2031279952669,1928.3120833282783
1.21,9.852977971400117,6.732456090199774,31.11382189378135,-24.08707376448624,1890.2752020876308,1928.3120833282783
1.22,10.569443488356137,5.619795571687494,35.70731141739104,-23.717114073395823,1896.251946937455,1928.3120833282783
1.23,8.59373506167133,5.638904788550302,38.54945068753612,-23.141027844211543,1910.9789466740817,1928.3120833282783
1.24,2.748929664672715,8.442710509670182,38.92104162657639,-23.38861556282516,1925.5628562075722,1928.3120833282783
1.25,1.1153852973977614,9.71141519193456,36.13518247366794,-24.00240372342873,1934.3733246434458,1928.3120833282783
1.26,2.3067415328855945,9.458109343456607,31.35612591067354,-24.446459301360466,1934.732479313951,1928.3120833282783
1.27,6.144080342165437,6.81888477045325,26.217539613498815,-24.39103259556777,1924.4661728755234,1928.3120833282783
1.28,10.506422140523284,2.8297813803690555,23.256532211434035,-23.64463297694487,1911.048880092732,1928.3120833282783
1.29,11.952699926249323,2.281291935283371,23.761766271306826,-23.04124603943729,1902.7848491396956,1928.3120833282783
1.3,10.129159924229374,5.553277626161126,26.951601295246373,-23.305458690575566,1897.306568370272,1928.3120833282783
1.31,9.773368729406155,6.823236631531664,30.951481717434618,-23.650303990846215,1894.2580249323971,1928.3120833282783
1.32,10.483580658911716,5.735324500276704,34.628175042608945,-23.382075202089133,1898.474088207636,1928.3120833282783
1.33,9.470309480487291,5.313552447238333,36.886670315839915,-22.84574493806304,1909.6448939516033,1928.3120833282783
1.34,4.815013907563842,7.191391572751428,37.324318418965035,-22.909557273606385,1921.6766348274687,1928.3120833282783
1.35,2.4769593982686455,8.715074240599165,35.39943958926522,-23.48179627897467,1929.166520188491,1928.3120833282783
1.36,3.302137511041414,8.576835060748747,31.768632557310674,-23.84375543563788,1931.3050130870993,1928.3120833282783
1.37,5.800762804764265,7.205847816432187,27.54629880924749,-23.93423832795162,1925.4477540083144,1928.3120833282783
1.3800000000000001,9.167058146607449,4.429092937945919,24.551103392158442,-23.54125576898118,1915.776431833062,1928.3120833282783
1.3900000000000001,10.913564132194834,3.5236844484763967,23.999357890817002,-23.155051381372505,1907.7116175600383,1928.3120833282783
1.4000000000000001,10.141598156204303,5.521516422117946,25.896376406583148,-23.36456986671027,1901.1165349778694,1928.3120833282783
1.41,9.64185840131086,6.976182249461592,29.224042394656106,-23.81278404223481,1896.0330850926543,1928.3120833282783
1.42,10.345554500377382,5.953132152660303,32.82436000174798,-23.70546104272885,1896.4848001077082,1928.3120833282783
1.43,10.947578707654456,4.88580159894288,35.48410164454186,-23.124899533990938,1904.8106618236322,1928.3120833282783
1.44,6.876826297447332,6.187043899523003,36.7850230095723,-22.93933687671055,1917.3518236918114,1928.3120833282783
1.45,3.2744278282172226,8.271482010003409,35.78710600423663,-23.49566671638121,1925.8432315127716,1928.3120833282783
1.46,3.262001927902415,8.576633687742515,32.915330451414,-23.87636623952092,1930.5413349798287,1928.3120833282783
1.47,4.853562302563812,8.042865223249981,28.96030568302416,-24.113308949769408,1928.3086517485815,1928.3120833282783
1.48,7.946131863900158,5.726050670836573,25.367006930936515,-23.930077036434497,1919.6486211793629,1928.3120833282783
1.49,10.318194148877247,3.931122678755058,23.86989519854091,-23.53922531236524,1910.3425971973256,1928.3120833282783
1.5,10.491701137195047,4.899086900656343,24.972256530383707,-23.548588943839775,1904.4864304945843,1928.3120833282783
1.51,9.506529956692743,7.138187468404247,27.696557242678665,-24.080175032543238,1897.7816890565819,1928.3120833282783
1.52,10.209758159708015,6.159636298511407,31.190723486591132,-24.099915732247503,1894.903711562716,1928.3120833282783
1.53,10.829336649614472,5.120238013949528,34.54297445384057,-23.629402016473847,1899.9791021928218,1928.3120833282783
1.54,8.899356793585145,5.251772717408527,36.62907286384967,-23.13941061192878,1912.6413205149263,1928.3120833282783
1.55,4.0604943390598045,7.845487346835629,36.59971796906304,-23.503374400130607,1923.4764109973441,1928.3120833282783
1.56,2.730412939834039,8.996882123374622,34.31544744729195,-23.98027023354874,1930.944300188416,1928.3120833282783
1.57,3.6456025749260927,9.021484981492446,30.363029034960984,-24.372155822724086,1931.5623785241103,1928.3120833282783
1.58,6.761397373563158,6.821646508560393,26.057787568173712,-24.341590126128114,1923.6136711084346,1928.3120833282783
1.59,9.885736632043576,4.184309338883626,23.555077074975383,-23.91916470564809,1912.3779672550068,1928.3120833282783
1.6,11.040861685513343,4.005263342286723,23.977818008345107,-23.678752690457777,1906.0203884460227,1928.3120833282783
1.61,9.498671883053111,7.012039914039153,26.53093156736114,-24.231107824733048,1898.3808399438144,1928.3120833282783
1.62,10.073524545242103,6.369098183193317,30.153490005665038,-24.369279495048616,1893.3844693764336,1928.3120833282783
1.6300000000000001,10.717066187402924,5.335244816714843,34.09039108826118,-23.980653226476598,1896.5065656488086,1928.3120833282783
1.6400000000000001,10.253179020106383,4.72620775177937,36.729260013742696,-23.292976553178978,1909.6771024029933,1928.3120833282783
1.6500000000000001,4.562059071519246,7.590304196921906,37.266087990527836,-23.50451311766228,1922.3030590419908,1928.3120833282783
1.6600000000000001,2.246877237282139,9.31076767551992,35.27768181045218,-24.062864286868724,1931.2160094618116,1928.3120833282783
1.67,2.897044109049697,9.491198790490369,31.293638249004374,-24.52140370577032,1933.2696843665437,1928.3120833282783
