t,iq,id,vq,vd,omega,r
0.0,0.0,0.0,0.0,0.0,0.0,1717.9969656607047
0.01,0.0,0.0,446.6792110717833,0.0,47.572650429194795,1717.9969656607047
0.02,11.554102822895683,-0.1903512968705719,756.0638971037457,0.04949133718634869,66.14310299825927,1717.9969656607047
0.03,12.050348765996954,-5.706739208656147,983.7968435537629,-1.1221485451735493,74.13936558366812,1717.9969656607047
0.04,12.433028785292532,-4.816385885896707,1152.8501953218095,-3.070461995827268,88.88713767239814,1717.9969656607047
0.05,12.794465527660623,-3.752256606267976,1276.0252122893828,-4.265255169637769,111.26727448738168,1717.9969656607047
0.06,13.113416309010477,-2.411657207058197,1362.8726663737484,-4.860787033216661,142.52254668736973,1717.9969656607047
0.07,13.316131077505032,-0.6770752576208814,1420.2475416699904,-4.940661604236567,185.02435958857265,1717.9969656607047
0.08,13.240404550676008,1.5714531848629214,1452.684124415616,-4.527089938390522,245.25657495145003,1717.9969656607047
0.09,12.571096535115421,4.4435694753865125,1461.9040305121796,-3.5920590746270027,328.27014540298137,1717.9969656607047
0.1,10.73273117483895,7.911147786915491,1447.9074510250123,-2.0403653505825066,342.2026122796357,1717.9969656607047
0.11,13.308062174365633,-0.8205235773556072,1433.7176554180621,-4.441372778520461,383.0822505511275,1717.9969656607047
0.12,12.6820735653882,4.11616178737663,1413.4287027575879,-4.90175103079519,464.16664155101233,1717.9969656607047
0.13,9.739886149428324,9.105624392316653,1377.9219586616507,-3.5329169247989785,485.78375973543007,1717.9969656607047
0.14,13.067343434633544,2.6499647807314983,1345.63187593367,-5.576928276195136,556.1797224100168,1717.9969656607047
0.15,9.851282785006202,8.984987772257579,1304.3840041072035,-4.902314511687109,576.4955494846931,1717.9969656607047
0.16,12.804322460679627,3.7184814240107436,1267.8537092753145,-6.977071535616088,654.5487836787398,1717.9969656607047
0.17,8.07103211102234,10.613021174040123,1221.6839634621856,-5.723915488315944,693.9397061671622,1717.9969656607047
0.18,11.196578553326777,7.23977944946948,1176.9889753442649,-7.07907401488976,699.3684658086528,1717.9969656607047
0.19,12.905736392326066,3.3495889224751654,1141.2219165169456,-9.753779879264728,774.0037554059099,1717.9969656607047
0.2,6.995497849084368,11.350805593491312,1097.2220568139924,-8.223295121046437,824.6232147040494,1717.9969656607047
0.21,9.274585239889076,9.579135994744487,1051.4090495259509,-8.774264275091966,852.623961208729,1717.9969656607047
0.22,10.802835960261698,7.815146383367011,1009.6638799377605,-10.462319964008485,863.4124428966791,1717.9969656607047
0.23,11.87014278172433,6.072683765787213,975.1096670332541,-12.61626059796888,940.7672763978087,1717.9969656607047
0.24,2.073376358357219,13.171138457034878,931.5678334993323,-9.182354350175528,1012.1149736477545,1717.9969656607047
0.25,2.4433122613523803,13.10755518665868,881.2843059387089,-7.289035148248145,1079.0423284569185,1717.9969656607047
0.26,1.855984425322478,13.203526028706808,827.1183715212139,-6.105933313411186,1142.1277053311176,1717.9969656607047
0.27,0.34127183127672467,13.328965125430958,771.0226178265167,-4.9162856455858455,1188.5773027361718,1717.9969656607047
0.28,-1.9479608712733771,13.190270134525887,717.6564194977303,-4.691542810541985,1203.505269944055,1717.9969656607047
0.29,8.634443891791294,10.159928959263729,671.8897775327521,-8.973226816267077,1237.5908835281396,1717.9969656607047
0.3,6.179576343006783,11.814847184738726,630.0272392517585,-11.138791057566204,1284.8678498802788,1717.9969656607047
0.31,2.8264080488868157,13.030318312265651,587.6499159763143,-11.290375485696245,1334.6968721554979,1717.9969656607047
0.32,-1.4682049466006664,13.252250828163307,544.0928419237482,-9.342612855870367,1346.4775561433255,1717.9969656607047
0.33,7.416346875496785,11.08041410778888,506.21527775387034,-12.968118381064354,1383.9182215656247,1717.9969656607047
0.34,2.825421593022285,13.030532245440364,470.128747663246,-13.532745674672745,1426.8235903756567,1717.9969656607047
0.35000000000000003,-2.80244203047517,13.035493716910148,433.3362296719868,-10.96745475188972,1444.2390678762024,1717.9969656607047
0.36,5.0257703105073155,12.261020651587028,399.54694105904616,-13.737558016619015,1483.5939916563875,1717.9969656607047
0.37,-1.4829693405358384,12.54327500056246,366.2308826278566,-12.36834789720255,1492.5433075212063,1717.9969656607047
0.38,5.690069218003983,11.239803612258031,336.73006021903115,-15.396128010643856,1527.9951990559957,1717.9969656607047
0.39,-1.6188430427102016,11.834587852420372,308.1500426248282,-13.929323206567757,1535.0299936397553,1717.9969656607047
0.4,5.163829948513008,10.955153766599425,282.65556319276413,-16.600584189833715,1568.2590212136233,1717.9969656607047
0.41000000000000003,-2.844295187849505,10.905948936533438,257.8414146102516,-14.342264890251242,1578.247419153509,1717.9969656607047
0.42,3.468493501915612,11.24905205212578,234.75775387187724,-16.437256276233434,1607.7905315882058,1717.9969656607047
0.43,-4.839121883606964,9.426973832118403,212.41657332128744,-12.885424014386304,1623.9435076561294,1717.9969656607047
0.44,-0.14308794302318617,10.69116460604924,190.49372700486052,-13.938273471634519,1630.9146033401182,1717.9969656607047
0.45,-7.09207448577261,7.5849652554652085,173.3528268918452,-12.492217616686126,1653.2653965377117,1717.9969656607047
0.46,-3.727012879227982,9.276290442356183,154.86356265188732,-11.335502616571238,1661.828512262936,1717.9969656607047
0.47000000000000003,0.8848699786518028,10.310368236572863,137.4007846698856,-13.694632939874786,1671.3613827376062,1717.9969656607047
0.48,-6.643157323725535,6.990131506654522,123.47865333278489,-11.467722836220792,1690.3055415656152,1717.9969656607047
0.49,-3.870912447895651,8.66106854462972,108.28241007547561,-10.78337289830145,1697.1079779279376,1717.9969656607047
0.5,0.05992329534683449,9.77060768538019,93.85899299814156,-13.194385812918627,1698.585997766142,1717.9969656607047
0.51,-7.171699672765181,6.270164609831462,83.96389672982986,-12.35394342204755,1716.4613947922142,1717.9969656607047
0.52,-4.825923910419314,7.7124980713829,72.34594070196341,-10.715997633502722,1725.7589101174653,1717.9969656607047
0.53,-1.851638504082409,8.986251367615962,60.416870316221065,-12.25025526425051,1723.2552891667942,1717.9969656607047
0.54,-8.499203384075233,6.585672052024648,53.0991502386211,-12.77857324604186,1721.4170625677693,1717.9969656607047
0.55,-6.063284309932662,6.6591544496766035,47.29020837128474,-12.712161422116875,1725.0452916194265,1717.9969656607047
0.56,-3.6393079742285765,8.282103518949793,41.82649037919805,-13.312776474394452,1727.3463192115655,1717.9969656607047
0.5700000000000001,-4.326180157364513,7.710812339754919,37.403709387638905,-14.077868802780594,1721.8359872444948,1717.9969656607047
0.58,-6.240122711989043,6.005795163552879,35.36623347051509,-14.451480762127675,1714.0675538907217,1717.9969656607047
0.59,-3.4418227074284786,7.286488779616683,34.827137477350725,-15.328321417440673,1705.7313170090506,1717.9969656607047
0.6,0.41433415007652785,7.883835122431543,35.61761994372796,-16.662605059761116,1701.8814481764136,1717.9969656607047
0.61,-2.420224481638662,7.178906894067328,38.14856720241773,-17.16378306507468,1694.7657550777592,1717.9969656607047
0.62,-1.8530690706233435,6.935079809006427,41.29395767809326,-17.460669474953946,1690.7088554807488,1717.9969656607047
0.63,-1.641386676585919,8.675643945726867,44.87475612089751,-18.00288270696824,1692.347039554076,1717.9969656607047
0.64,-0.3840138555550381,9.318921651138925,47.28972756426168,-18.86131097976981,1687.488710810339,1717.9969656607047
0.65,-2.3984128769003203,6.942806182628821,50.19660458099252,-18.61275997979069,1688.6784391313531,1717.9969656607047
0.66,-3.21848268020999,8.985367933408801,52.69553592921597,-18.354602374901763,1692.7125658575487,1717.9969656607047
0.67,1.240779275798312,9.9668699741285,52.8137569639438,-19.388393337812698,1688.861925517139,1717.9969656607047
0.68,-2.779905576580747,6.7689339555072126,54.16707795678249,-18.940955929833745,1690.8490676883634,1717.9969656607047
0.6900000000000001,-3.7981463607726322,8.689562837728815,55.28630568748027,-18.30157069989842,1697.3061507472232,1717.9969656607047
0.7000000000000001,0.16452861043538913,9.782276768353807,54.01947475891958,-18.891673864140103,1693.2814019487062,1717.9969656607047
0.71,-2.924321482240334,6.6566480744884595,54.08032010893998,-18.581819128651667,1693.484633360532,1717.9969656607047
0.72,-4.45079289198871,8.30326634044556,54.60281128864656,-17.979435433831878,1702.681679259056,1717.9969656607047
0.73,-0.9289452452326499,9.523278256297356,52.579287631708205,-18.07144637575473,1699.364954768224,1717.9969656607047
0.74,-2.755426141420733,7.096467846408468,51.55772974489513,-18.154703809305033,1696.6031306361954,1717.9969656607047
0.75,-5.182867585696048,7.790902631607347,51.96080483646027,-17.757023286313306,1703.6507488380716,1717.9969656607047
0.76,-2.040422488825157,9.212460977425577,50.467236769962746,-17.581548849359162,1702.2268237358112,1717.9969656607047
0.77,-2.1721895483991895,8.482809335313949,49.30109912443388,-18.24033763048578,1697.7722930259754,1717.9969656607047
0.78,-4.236988004991487,7.069192241510096,49.63613616687064,-17.91438043827104,1699.3283415749916,1717.9969656607047
0.79,-3.018598625368617,8.912096739270156,49.6693888407689,-17.77518842324737,1701.5896875604637,1717.9969656607047
0.8,0.05626173129200707,9.441194518003538,48.5383991844097,-18.757509697998017,1696.8470282253859,1717.9969656607047
0.81,-3.0054756772987905,6.647856284676324,48.995088715497054,-18.4547008578422,1695.551612433442,1717.9969656607047
0.8200000000000001,-3.8063984719699575,8.616997623506315,50.0908395307836,-18.234502248519526,1701.7616708062112,1717.9969656607047
0.8300000000000001,0.10025835624545643,9.723120766050107,49.02313402336061,-18.8404578404428,1697.2158294209441,1717.9969656607047
0.84,-2.4131158904333345,6.636236412294875,49.2083175634614,-18.659917621657627,1694.4733910140897,1717.9969656607047
0.85,-4.537986476181664,8.239175840666034,50.57140552440315,-18.370632761707245,1702.4550834268084,1717.9969656607047
0.86,-1.0635716754744964,9.494170199151366,49.57103865648861,-18.392026690436463,1699.150859502547,1717.9969656607047
0.87,-2.0989406293366843,7.343046238684073,49.19868494446631,-18.56886920946752,1695.1146699962412,1717.9969656607047
0.88,-4.264634540899694,7.5884429251831955,50.25149867204068,-18.226401866232795,1699.7822869039458,1717.9969656607047
0.89,-2.0766588818935787,9.250583965056444,50.00517550667282,-18.122427455262773,1698.657806094994,1717.9969656607047
0.9,-1.4703017574239574,8.744108506124377,49.678878244474696,-18.810592404062668,1694.1277138433493,1717.9969656607047
0.91,-3.665884875755926,7.089580449219156,50.667890619078165,-18.41513447594275,1696.5005801825575,1717.9969656607047
0.92,-2.9214293885046794,8.99523741123884,51.14987191344564,-18.145059704498646,1698.5911455976325,1717.9969656607047
0.93,0.35043611744822956,9.533055461972943,50.30983238339595,-19.136979219317343,1694.082507217606,1717.9969656607047
0.9400000000000001,-2.9750660982200485,6.73984903071979,51.00235414947175,-18.737863221891807,1694.4087011744289,1717.9969656607047
0.9500000000000001,-3.6577538362375326,8.707257244128513,51.92753318214444,-18.34680235843044,1700.0609924741846,1717.9969656607047
0.96,0.34337303621452886,9.773400879015728,50.730908940228225,-19.041671468279876,1695.6345499146325,1717.9969656607047
0.97,-2.567690832146994,6.595264204887946,50.90382963540225,-18.75702031243167,1694.0309270197995,1717.9969656607047
0.98,-4.3755544328618585,8.33776792343665,51.98257714021404,-18.346319419587008,1702.8193802241656,1717.9969656607047
0.99,-0.8261848281571318,9.540254496697305,50.53838970178771,-18.417662804709472,1699.2224011919127,1717.9969656607047
1.0,-2.365365276920076,7.0936405727689165,49.93980635387028,-18.481316185785897,1695.7821134252924,1717.9969656607047
1.01,-4.72591666285726,7.783501151509897,50.79432631471882,-18.12891810225163,1701.642111397312,1717.9969656607047
1.02,-1.8975060958920682,9.280921773951151,49.99048884968667,-18.02034066158118,1699.8304085604282,1717.9969656607047
1.03,-1.8009198106979638,8.315087584698318,49.419365925687245,-18.58267953407096,1695.4001736745752,1717.9969656607047
1.04,-3.94579617501335,7.16410357895685,50.23389940061137,-18.21874592681077,1697.9468590386275,1717.9969656607047
1.05,-2.7982299066734404,9.024487055143847,50.45608810142212,-18.02095050734991,1699.522003187999,1717.9969656607047
1.06,-0.030737311545598445,9.382576443476218,49.61452489887366,-18.963096690955275,1694.8801093243715,1717.9969656607047
1.07,-3.095155909477948,6.762671184975217,50.304047118634635,-18.592348594116878,1695.0092277901654,1717.9969656607047
1.08,-3.577863542471526,8.7341562147259,51.23594483798961,-18.274238718646615,1700.265403155412,1717.9969656607047
1.09,0.5071602881536699,9.798325270081573,50.09791342060183,-19.059734254646234,1695.7943132411765,1717.9969656607047
1.1,-2.5569934014786155,6.5580065415632465,50.3731826907153,-18.762628228172822,1693.9997521853159,1717.9969656607047
1.11,-4.301211985112761,8.379144270158818,51.57167138710766,-18.38930140957828,1702.4253358471533,1717.9969656607047
1.12,-0.7031893988594238,9.570370941482686,50.282128785496795,-18.520788785599542,1698.6662072648328,1717.9969656607047
1.1300000000000001,-2.3143959490265154,7.046557837482656,49.85600571432203,-18.550516274368878,1695.362232642495,1717.9969656607047
1.1400000000000001,-4.669634566453644,7.849031676680257,50.82554256460738,-18.1989672322509,1701.5439706985505,1717.9969656607047
1.1500000000000001,-1.7771272016113637,9.31709622704116,50.034209518849394,-18.0974388226221,1699.5273519170278,1717.9969656607047
1.16,-1.7971510009334857,8.205742779066599,49.50095874781888,-18.609987120382364,1695.1778935474654,1717.9969656607047
1.17,-4.0013610882517945,7.229464834543275,50.36794616780494,-18.238528328572677,1698.149624060484,1717.9969656607047
1.18,-2.6852229481612153,9.064306184177905,50.510051985486484,-18.040448926160703,1699.281886827805,1717.9969656607047
1.19,-0.25595427924139535,9.296819610321123,49.740971402840934,-18.948644772101943,1694.634524209597,1717.9969656607047
1.2,-3.2019594788920958,6.8113974559109,50.48262493663486,-18.566382315382373,1695.1437479761496,1717.9969656607047
1.21,-3.475175327649143,8.77831303450027,51.34299665539454,-18.244378239984762,1699.9160162760106,1717.9969656607047
1.22,0.7186188991325073,9.833967280567656,50.18520578600663,-19.12539978873964,1695.4713741763576,1717.9969656607047
1.23,-2.597949393784359,6.558577042581264,50.516327592888665,-18.796695383703902,1693.910833263209,1717.9969656607047
1.24,-4.198402660726993,8.435566725199507,51.69765957979791,-18.411674352312463,1701.8455219252735,1717.9969656607047
1.25,-0.512024525388767,9.619282389942185,50.45090853433944,-18.636534068705963,1697.9108628595002,1717.9969656607047
1.26,-2.3314378498813326,6.945714568401019,50.15367338263456,-18.603707027072307,1694.983481822132,1717.9969656607047
1.27,-4.785279069842803,7.97857949640058,51.19114865973496,-18.243368633548982,1702.0112212822035,1717.9969656607047
1.28,-1.6097977876047258,9.360552632010727,50.208784898371434,-18.132230854339607,1699.7253651372005,1717.9969656607047
1.29,-1.9098034084824254,7.989390578376986,49.57878262047293,-18.56429518509263,1695.5494797464514,1717.9969656607047
1.3,-4.162472165339489,7.313395283665151,50.382362886959655,-18.19425610316604,1698.8781822322599,1717.9969656607047
1.31,-2.5650836896893154,9.096235690413431,50.34544455018468,-18.014740564662084,1699.4893780710156,1717.9969656607047
1.32,-0.5942603301876028,9.181318052828994,49.61708914126704,-18.880477975403036,1694.785576676146,1717.9969656607047
1.33,-3.322538131231705,6.858403285888885,50.37775379724571,-18.500224971345773,1695.5896458517318,1717.9969656607047
1.34,-3.3620576144156065,8.824607358634744,51.14869632840571,-18.202859737091515,1699.8185533811995,1717.9969656607047
1.35,0.8830714380495328,9.847798292186358,49.99516416115001,-19.177304114321178,1695.3597586757728,1717.9969656607047
1.36,-2.5912036690373172,6.595212666331173,50.38630518266073,-18.836451717647385,1693.9767763791256,1717.9969656607047
1.37,-4.094391517145303,8.491350768215934,51.56979037100967,-18.45898682952072,1701.501815497275,1717.9969656607047
1.3800000000000001,-0.36327677997260643,9.6470413183495,50.38092750730776,-18.760867756516596,1697.3710315722035,1717.9969656607047
1.3900000000000001,-2.32872909328745,6.839247514892515,50.21510127901976,-18.668692156614444,1694.6585021699311,1717.9969656607047
1.4000000000000001,-4.799279220422245,8.078133391002043,51.334243811671406,-18.307102002055082,1702.2409016506642,1717.9969656607047
1.41,-1.4732675448375183,9.390644617093612,50.26618813407755,-18.19843419339143,1699.6181156659964,1717.9969656607047
1.42,-2.0028602768157393,7.737115552111619,49.64466959705305,-18.53912605657599,1695.4728741078366,1717.9969656607047
1.43,-4.277313466299589,7.400081963613994,50.489523075618486,-18.171940109773825,1699.2850109610686,1717.9969656607047
1.44,-2.4310790403781986,9.138939631487336,50.33026494426031,-18.004440452450098,1699.3976562047058,1717.9969656607047
1.45,-0.910971347119097,9.083100282182732,49.675906665751214,-18.83145034961048,1694.686795844331,1717.9969656607047
1.46,-3.460053069797726,6.9177045005858595,50.47922848715064,-18.446274277518274,1695.8977250585215,1717.9969656607047
1.47,-3.2478192730342963,8.868765886775474,51.154379956917786,-18.15653368634887,1699.5442837405433,1717.9969656607047
1.48,1.0867021174177043,9.869666672648767,49.986072056062426,-19.23345028829237,1695.1083906079411,1717.9969656607047
1.49,-2.626237537816964,6.615480089681739,50.43870111407336,-18.86800520599903,1694.0853461484228,1717.9969656607047
1.5,-3.9756710200697745,8.553356676039556,51.57336322402876,-18.4876524175367,1701.1235829375364,1717.9969656607047
1.51,-0.18543204137738023,9.680168134229069,50.40744300715545,-18.88160627625218,1696.8123513820728,1717.9969656607047
1.52,-2.3396337910237293,6.761119952909134,50.356242282867576,-18.73286841033402,1694.370895717887,1717.9969656607047
1.53,-4.683117508572353,8.154423057475089,51.499062586824074,-18.35724563558838,1702.7068315665822,1717.9969656607047
1.54,-1.310861617920564,9.425902792655858,50.281671230328584,-18.256590792078555,1699.7401036072883,1717.9969656607047
1.55,-2.1077544309884932,7.530755178583782,49.62375444596745,-18.515957967210927,1695.7980111801546,1717.9969656607047
1.56,-4.382244651336229,7.488969135201575,50.42704136455246,-18.155360798636924,1700.0372833927022,1717.9969656607047
1.57,-2.2986565829391763,9.174171204221055,50.09333731494354,-18.012901107097637,1699.6403807536099,1717.9969656607047
1.58,-1.238613609477993,8.988327104354944,49.48880974513435,-18.798347569096077,1694.8396790763777,1717.9969656607047
1.59,-3.5288417138127732,6.9681397888276955,50.31381419235723,-18.41625145251603,1696.2579952752249,1717.9969656607047
1.6,-3.1364657909118203,8.910619603754066,50.933417484571066,-18.15261598983044,1699.3509384514823,1717.9969656607047
1.61,0.9287919733562333,9.775595181427208,49.87457131790566,-19.22132419660662,1694.857491722916,1717.9969656607047
1.62,-2.6865473203036117,6.652356449000124,50.421689326974075,-18.848444606432686,1694.0945876768242,1717.9969656607047
1.6300000000000001,-3.869933014743591,8.606248259784131,51.55351248472435,-18.475942261407937,1700.6752443176317,1717.9969656607047
1.6400000000000001,0.01833757135731906,9.72449334526307,50.42810042172304,-18.967803500770795,1696.2340301168895,1717.9969656607047
1.6500000000000001,-2.3870078501989425,6.667196905171784,50.510450438060374,-18.76246109929185,1694.0572047094656,1717.9969656607047
1.6600000000000001,-4.572726895989058,8.225103612218067,51.684560376526015,-18.37611557306113,1703.1553059304074,1717.9969656607047
1.67,-1.158982331982898,9.455622267605802,50.32223500399688,-18.28610099647175,1699.9339411146482,1717.9969656607047
