t,iq,id,vq,vd,omega,r
0.0,0.0,0.0,0.0,0.0,0.0,1977.2195977167287
0.01,0.0,0.0,514.0770954063494,0.0,14.496805348341955,1977.2195977167287
0.02,11.54731256257251,8.102076560917437e-05,880.0194535573821,-2.1065399058385338e-05,25.60674437792403,1977.2195977167287
0.03,11.681575804643554,-4.616062087860084,1151.8208044042442,0.17992574171349582,26.580177384232393,1977.2195977167287
0.04,11.898635056554328,-6.016665319652914,1355.5769515720717,-2.150270697985,28.266669140080587,1977.2195977167287
0.05,12.066011618484206,-5.673547514596301,1508.0250852693493,-3.8077465146819884,30.763471178478795,1977.2195977167287
0.06,12.235058118329254,-5.299163199872517,1621.7870295427003,-4.9388914379483815,34.13372969887912,1977.2195977167287
0.07,12.407465189103645,-4.881862898418899,1706.3154810792976,-5.667373776794608,38.46432618111271,1977.2195977167287
0.08,12.583434596884906,-4.408508990996585,1768.6789834987183,-6.082254362972372,43.86733798031118,1977.2195977167287
0.09,12.761121095973532,-3.8641384747026115,1814.1512760592975,-6.246205253314517,50.48169006729411,1977.2195977167287
0.1,12.935770774984551,-3.231657815244879,1846.65277390301,-6.201547377590813,58.474704205218835,1977.2195977167287
0.11,13.098452284466543,-2.4916511652578697,1869.0810962425348,-5.974642497525439,68.04304675839906,1977.2195977167287
0.12,13.234252008555478,-1.6224523265177977,1883.558426867252,-5.579051479056753,79.41224229600593,1977.2195977167287
0.13,13.319792870602454,-0.6007459213558715,1891.6167146291057,-5.0177905889158945,92.86769551577243,1977.2195977167287
0.14,13.31996451891245,0.5969279627318143,1894.3278398660211,-4.284999224024274,108.97339977799894,1977.2195977167287
0.15,13.183536830254054,1.9930214306706775,1892.3438311222462,-3.367808932726175,128.23689342526185,1977.2195977167287
0.16,12.836916520301841,3.604351818091488,1886.0152736492555,-2.2472450995393043,151.19745711313843,1977.2195977167287
0.17,12.17755354885442,5.430006200968917,1875.4517399056424,-0.8985808278705882,178.44106643154876,1977.2195977167287
0.18,11.069282711835456,7.432950828791917,1860.5612958170666,0.7058009462022004,181.57072573343729,1977.2195977167287
0.19,12.85880888480439,-3.525452005325475,1848.2523551419124,-2.001585030111076,189.23892300180862,1977.2195977167287
0.2,13.296918337021868,-0.984754038503693,1837.4944277145855,-3.395678445820887,202.03381195507788,1977.2195977167287
0.21,13.22026649809098,1.7327237221296978,1826.4631692328985,-3.5979669656066395,221.0923189903157,1977.2195977167287
0.22,12.519854468166688,4.58595920977328,1813.4978119380369,-2.8338631482469165,246.73711666501669,1977.2195977167287
0.23,11.040369294929523,7.475829292416672,1797.254146448609,-1.2716778592518208,250.20158706834462,1977.2195977167287
0.24,13.087914703847645,-2.5464222907024574,1783.5646793019002,-3.7109256841494527,259.8317140066258,1977.2195977167287
0.25,13.296609409282166,0.9889165762422589,1771.4506886575018,-4.593630170263578,277.42696525924157,1977.2195977167287
0.26,12.503604415126405,4.630081468809074,1758.2202166867014,-4.045804698080264,303.4396593310989,1977.2195977167287
0.27,10.5512473116085,8.15162302532766,1741.733894562924,-2.3294258141718545,308.6294020349558,1977.2195977167287
0.28,13.301226744467808,-0.9247404338689034,1727.4443477018392,-4.4622226380505365,321.910576758765,1977.2195977167287
0.29,12.8860490016934,3.4245465252693306,1714.0410798423175,-4.80114073976796,345.4093888742846,1977.2195977167287
0.3,10.943371900642905,7.6171116062453095,1698.26358716806,-3.492331192035458,349.42173930726716,1977.2195977167287
0.31,13.29497325454204,-1.0106749916712097,1684.5007510097807,-5.681511139666564,362.6615013750004,1977.2195977167287
0.32,12.753999461303314,3.887579647911087,1671.6765835474218,-5.888415808126244,387.3938192547568,1977.2195977167287
0.33,10.305259393724667,8.460461370742571,1656.0671313262887,-4.244608227261988,393.3456164740508,1977.2195977167287
0.34,13.317730633869932,0.6448476885746519,1642.0875309653215,-6.083143401077974,410.7552832315806,1977.2195977167287
0.35000000000000003,11.89885391309901,6.0162324865738075,1628.0377438469577,-5.733220907287133,440.3271045205789,1977.2195977167287
0.36,8.156947331702865,10.547131743066606,1610.0932075521134,-3.372268116852644,452.58834842713566,1977.2195977167287
0.37,12.606439061497188,4.342288793543745,1593.3365354801906,-4.627059497562035,478.6844320315027,1977.2195977167287
0.38,9.116119611458771,9.730063772008615,1574.6949689239395,-3.3513150398320803,488.32460324964944,1977.2195977167287
0.39,12.828633392736108,3.633723029147071,1557.6950154391852,-5.178809198606121,513.0140163992453,1977.2195977167287
0.4,9.300343046135557,9.55412984012546,1539.4831399548375,-4.1516096096074975,522.2431332983643,1977.2195977167287
0.41000000000000003,12.76672918346275,3.84556936407319,1522.792408149892,-5.984374996543765,547.5033165316088,1977.2195977167287
0.42,8.788023625538209,10.027383434114803,1504.7735932356388,-4.749603628193026,558.4027475556056,1977.2195977167287
0.43,12.37393448039531,4.966238340299604,1487.8928587882424,-6.311326850311428,586.0655093264728,1977.2195977167287
0.44,7.433725697738996,11.068762353061548,1469.046869922666,-4.581967961946814,601.1120594303585,1977.2195977167287
0.45,11.351862249421574,6.993783042669762,1450.7660399257252,-5.6862204125094715,604.0018140440154,1977.2195977167287
0.46,13.212065398394488,1.794186636424656,1435.068094880179,-8.461681744581274,625.0871947999559,1977.2195977167287
0.47000000000000003,9.509337031375702,9.3461375445413,1419.7102503466308,-7.681803221797653,634.1602338655094,1977.2195977167287
0.48,12.34520740684696,5.037224618746779,1405.0513344105705,-9.114924643806274,662.0075309407101,1977.2195977167287
0.49,6.466063888674727,11.660522954196967,1388.1624444383017,-6.795222433510381,680.1272503093634,1977.2195977167287
0.5,10.039762749626558,8.77387837327306,1370.6668499373152,-7.1227284404340265,687.7712025257695,1977.2195977167287
0.51,12.353769560740453,5.01618933234187,1354.7451840317356,-9.14316701450694,715.420633059709,1977.2195977167287
0.52,5.8230367978996,11.994582953487164,1337.2539447473148,-6.916091336058328,735.3867986981102,1977.2195977167287
0.53,9.00435712911974,9.833581772123942,1318.8955733398464,-7.0512177237065385,746.5467095283453,1977.2195977167287
0.54,11.32358877731707,7.039468373392742,1301.6851995465133,-8.749065931642718,749.9844321314857,1977.2195977167287
0.55,12.772161178143516,3.8274895972819247,1286.8856795091124,-11.258620874172564,775.4955620750943,1977.2195977167287
0.56,6.188819810585338,11.810007922515723,1271.5220824107223,-9.179799061141537,794.7597254816575,1977.2195977167287
0.5700000000000001,8.68844294346733,10.11378944787217,1254.8600873366004,-9.069137201569824,807.1648000331439,1977.2195977167287
0.58,10.610578284867353,8.074243384892426,1238.7246602904715,-10.280528837433636,813.4825332569854,1977.2195977167287
0.59,12.005803579285542,5.799867084114272,1224.2778542708388,-12.228764826751473,840.9336919293825,1977.2195977167287
0.6,3.370613373490393,12.90026136418272,1208.4525362694983,-8.987722653441406,865.8073563250916,1977.2195977167287
0.61,5.324720435412732,12.223957217794725,1190.3073611727552,-7.671361928477986,887.2297213512435,1977.2195977167287
0.62,6.880107059846734,11.421116610157908,1171.2273563113245,-7.700390926553717,905.0514299688315,1977.2195977167287
0.63,8.103580325560262,10.588189820973668,1152.2448306625874,-8.562684895969852,919.6200723527717,1977.2195977167287
0.64,9.064047080915365,9.778590301916088,1134.0950603930091,-9.892852160099512,931.4742472640456,1977.2195977167287
0.65,9.820297341852832,9.018843489903565,1117.2267730138126,-11.442992453758107,941.052332218093,1977.2195977167287
0.66,10.419892404098055,8.31887132156745,1101.8875639813941,-13.052085584512822,948.691043520103,1977.2195977167287
0.67,10.900282075805904,7.678647566182619,1088.1901300649179,-14.620997361895842,954.6616998354831,1977.2195977167287
0.68,11.290495950534408,7.0924240544925015,1076.1558662676198,-16.093350241711775,959.171524249835,1977.2195977167287
0.6900000000000001,11.612861820133489,6.551276068390313,1065.749861138087,-17.44140679086551,970.4575424124264,1977.2195977167287
0.7000000000000001,11.352720656908195,6.425376303870133,1054.9710022166064,-15.891940129778165,995.8483700802732,1977.2195977167287
0.71,0.8837943847114724,13.304010119634235,1043.3139216096117,-11.65248803360676,1020.8135948781019,1977.2195977167287
0.72,0.7738099508213239,13.310860075058548,1028.3230417824193,-8.53517954096298,1045.3859784362458,1977.2195977167287
0.73,0.31656917073334245,13.329574702064537,1011.0290612044502,-6.142790900058336,1066.8767276446795,1977.2195977167287
0.74,-0.46205599573884104,13.325324837863409,992.7628442382144,-5.1264673141339046,1071.7999469141428,1977.2195977167287
0.75,10.786621590674155,7.83751060205853,975.1313302057634,-9.506856106947586,1078.7751262385377,1977.2195977167287
0.76,10.15851802609869,8.636103825869956,960.6649917072373,-12.550793779418852,1087.9078895607138,1977.2195977167287
0.77,9.393054766994,9.462996350101223,947.929740716636,-14.474803004812939,1099.4077739669433,1977.2195977167287
0.78,8.450331864123038,10.313567237574231,935.9171404650215,-15.484875295260823,1113.5326127570804,1977.2195977167287
0.79,7.2815471457390055,11.169460548395248,923.8038405595897,-15.711431609224165,1130.4985006820737,1977.2195977167287
0.8,5.829697983351453,11.991346846817741,910.9088758875009,-15.222394001326638,1150.0795916835539,1977.2195977167287
0.81,4.037203309878939,12.707429606827663,896.7592676251359,-14.032609606240634,1171.5194120422373,1977.2195977167287
0.8200000000000001,1.8669589046628463,13.201978723891271,881.1491967585272,-12.115460870734298,1193.5674496574984,1977.2195977167287
0.8300000000000001,-0.6714824412550112,13.31641427370236,864.1677462757891,-9.426350263362798,1199.487283370417,1977.2195977167287
0.84,9.508125498201446,9.347370073353748,847.1417190637285,-13.012926544574539,1210.9059750361207,1977.2195977167287
0.85,7.329679234000942,11.137934283538986,832.7193463201527,-14.69844003369919,1227.407695576226,1977.2195977167287
0.86,4.634967908138159,12.501793882011777,818.6820173973994,-14.630149857642019,1247.481435497145,1977.2195977167287
0.87,1.4330022078631988,13.256103592309351,803.8056983380341,-12.952043196312252,1268.1743783103195,1977.2195977167287
0.88,-2.1566634362084365,13.157757430531214,787.8016858345306,-9.770267004969636,1277.19279424676,1977.2195977167287
0.89,7.554612609167874,10.986610309971839,771.2659855171466,-12.879333395272232,1292.9138550789664,1977.2195977167287
0.9,4.02123050657308,12.712493185476395,756.3739343440609,-13.484390939760539,1312.559325513615,1977.2195977167287
0.91,-0.13097697460718027,13.332690006517833,741.1353048013486,-11.72841238291651,1319.2600486840408,1977.2195977167287
0.92,8.683596361544108,10.117950978708866,724.9743032425664,-14.39347598505915,1332.548462365221,1977.2195977167287
0.93,4.831885212206863,12.427013441444181,711.4586933989793,-15.40169470735449,1351.1991005782115,1977.2195977167287
0.9400000000000001,0.18558314079038585,13.332041729443848,697.8195363509892,-13.675948918488476,1361.5422048206103,1977.2195977167287
0.9500000000000001,0.12397302150290335,11.686699168983033,684.0685337070034,-13.918860674898601,1374.8249769693768,1977.2195977167287
0.96,4.0245973414977865,12.711427693873992,670.3624452794913,-14.94710279236762,1393.2788364213193,1977.2195977167287
0.97,-1.2643733453809338,13.273248954994703,656.7538995153731,-12.812071360117637,1400.8214684253153,1977.2195977167287
0.98,6.852495600822255,11.43770439461037,642.0715325247583,-15.775111197454708,1416.698529514083,1977.2195977167287
0.99,1.5119143231235814,13.247335311575362,629.199527285611,-15.290613378551322,1434.0747592420837,1977.2195977167287
1.0,-4.35333621954625,12.602628358297505,615.9961709902046,-11.423583187784825,1446.3512302036252,1977.2195977167287
1.01,3.3826951095212983,12.89709857191913,601.5229399741506,-13.313635389038692,1463.7101931126613,1977.2195977167287
1.02,-2.9095569611919014,13.012004306307213,587.8526157954375,-11.127947042985662,1473.7656983502172,1977.2195977167287
1.03,4.440607097789368,12.572143269182087,573.1028310791995,-13.876348635765657,1490.5612092955596,1977.2195977167287
1.04,-2.189246707923761,13.15237532271729,559.802234920291,-12.23692178023094,1499.455409418382,1977.2195977167287
1.05,4.786198724336929,12.444680773283553,545.4284258302953,-15.08993122128689,1515.749141539938,1977.2195977167287
1.06,-2.1750763052229853,13.154726178991154,532.791683354597,-13.366807992486835,1524.532560541246,1977.2195977167287
1.07,4.470378149643572,12.561588155045008,518.9815576599133,-15.975786705288645,1540.4889713221821,1977.2195977167287
1.08,-2.8506849323478463,13.02502872143715,506.91344871705024,-13.797131793744715,1550.0911812195786,1977.2195977167287
1.09,3.476919345517874,12.872016533649314,493.56187161831934,-15.990572131514876,1565.5319859254028,1977.2195977167287
1.1,-4.202745308518416,12.653644125290711,481.7979533814823,-13.099211733857283,1576.6834219060454,1977.2195977167287
1.11,1.7440123963024947,13.21878203690949,468.71137390317745,-14.747038404636045,1590.6113747458219,1977.2195977167287
1.12,-6.173809282598498,11.817861765982808,457.0608215286732,-10.941315855018383,1603.6437998016147,1977.2195977167287
1.1300000000000001,-0.7693511047210132,13.31111853509848,444.1904184585589,-11.88605221641412,1610.1074468146564,1977.2195977167287
1.1400000000000001,4.663619336173132,12.491134154473315,430.7834459747796,-15.6226918569814,1624.5559191433617,1977.2195977167287
1.1500000000000001,-3.8010731085789224,12.78004776990352,420.0336041034956,-13.590867416247987,1634.7607127647418,1977.2195977167287
1.16,1.3504618766540393,13.264766507461854,407.92977511115157,-15.373108183195352,1646.876391432116,1977.2195977167287
1.17,-7.212148320709303,11.21439674605227,397.5983527254288,-11.035217249271811,1659.922755225242,1977.2195977167287
1.18,-2.747956721940172,13.047088243440431,386.02567477184147,-11.173288739646207,1668.6487801112792,1977.2195977167287
1.19,1.9521071004555806,13.189657146648226,373.64352575316934,-14.16505280564068,1680.486219898482,1977.2195977167287
1.2,-7.096571335425778,11.287889663661268,363.60142301364124,-10.484191805262999,1692.949279930735,1977.2195977167287
1.21,-3.0689169288592626,12.975343026738782,352.3652997174915,-10.82273440961279,1701.7880726769008,1977.2195977167287
1.22,1.1648767849228165,13.282350690059557,340.37277207628705,-13.73865545088158,1710.9293831309953,1977.2195977167287
1.23,-8.106953510815616,10.585607330297686,331.01560324242126,-10.863808865423865,1723.085449271283,1977.2195977167287
1.24,-4.660954716754863,12.492128677937094,320.736986543782,-10.25313961851841,1733.1849721516573,1977.2195977167287
1.25,-0.9358939437611422,13.300446620463875,309.54651083299996,-12.348785037452005,1739.282779258412,1977.2195977167287
1.26,2.7691290614880417,13.042611012316517,298.04566014896585,-16.02349240289873,1750.1176043918438,1977.2195977167287
1.27,-7.221197445723181,11.208571953092807,289.7144760175675,-12.3275202643239,1761.4668595489823,1977.2195977167287
1.28,-4.143905010244368,12.673035510241787,280.1062563963786,-12.038871037058957,1770.69257002796,1977.2195977167287
1.29,-0.9164099201278043,13.3018032851215,269.6442935638494,-14.009566224051184,1776.5556199667897,1977.2195977167287
1.3,2.2750975558688435,13.137796957216889,258.92663735992977,-17.30434426693357,1786.0667561453567,1977.2195977167287
1.31,-8.056917092461985,10.623740619149718,251.5147552861912,-12.849889072124045,1796.7460728949402,1977.2195977167287
1.32,-5.565784236015045,12.11609770577574,242.95152191641273,-11.681990060193863,1806.5635434091655,1977.2195977167287
1.33,-2.9284658151632112,13.007761750093604,233.4506678942066,-12.765112610621502,1814.2531335280041,1977.2195977167287
1.34,-0.2704932578091334,13.330589303375058,223.43133567324938,-15.2903631103434,1819.2130523923524,1977.2195977167287
1.35,-0.4025366105260697,12.142403928448545,214.12128546558787,-17.653586969235768,1827.0309742731827,1977.2195977167287
1.36,-8.48073152120234,10.288584481990842,207.65504935819501,-13.753451829708066,1836.6456948263194,1977.2195977167287
1.37,-6.555929639379754,11.61023532669686,200.29867470133647,-11.910722192977573,1846.2844927272295,1977.2195977167287
1.3800000000000001,-4.538713135473025,12.537059497811372,191.97553454711218,-12.153084391030493,1854.7709953217839,1977.2195977167287
1.3900000000000001,-2.5067505207601615,13.08904683059205,182.9913656361266,-13.795328198106246,1861.6164886235188,1977.2195977167287
1.4000000000000001,-0.5393976746629088,13.255810731893614,173.7472815311942,-16.28946281478788,1866.4190290489428,1977.2195977167287
1.41,0.579710018301256,12.810382767691806,164.87376347957488,-18.95880013265133,1870.8470406067163,1977.2195977167287
1.42,-9.60450566552635,9.174166539896069,159.57474188759616,-17.410582679299615,1878.150039829025,1977.2195977167287
1.43,-8.353269202838202,10.29640815345712,154.05956165777596,-13.785246041865484,1886.700309038601,1977.2195977167287
1.44,-6.998666825430083,11.093116478967923,147.73747959157126,-11.93932102467258,1895.463588100785,1977.2195977167287
1.45,-5.6597983125359415,11.654211722251187,140.5533547316875,-11.666386028643949,1903.756619551494,1977.2195977167287
1.46,-4.409388476600547,12.104862072966897,132.75651521137567,-12.485889834262768,1911.3048792976424,1977.2195977167287
1.47,-3.2199368896804392,12.404830068489689,124.61286377248892,-14.014653724648234,1917.952857192114,1977.2195977167287
1.48,-2.0957244815749245,12.584379588732494,116.3814014689392,-15.970130209372797,1923.595280769882,1977.2195977167287
1.49,-1.036888624721879,12.666141389481105,108.29935908298695,-18.147864294101524,1928.1390051999645,1977.2195977167287
1.5,-0.11859820535908283,12.62488488177776,100.59947900549001,-20.372214565485752,1931.6308657035072,1977.2195977167287
1.51,-3.4511640622292195,10.659965172098566,94.55298466851113,-21.047182707391613,1934.4345872492902,1977.2195977167287
1.52,-7.178137049426909,9.22875799050279,90.11383538459494,-20.64724262464616,1937.0660084108054,1977.2195977167287
1.53,-9.719239434544008,8.766235941315905,86.74047511027291,-19.63909832332456,1940.0198155541439,1977.2195977167287
1.54,-9.134712085870358,9.36145657371973,83.40223123977604,-18.445087682230316,1943.7223541528028,1977.2195977167287
1.55,-8.554167176073666,9.880387894704114,80.01559052819721,-17.180973050270392,1948.3286374055754,1977.2195977167287
1.56,-7.993678324371212,10.322903051970002,76.41816839160553,-15.970170957317613,1953.8358087486836,1977.2195977167287
1.57,-7.2798899347498764,10.390504974969906,72.40124466762737,-14.852039248458992,1960.0607406897789,1977.2195977167287
1.58,-6.679479644177556,10.426250404008453,67.8835665454012,-13.957312818785883,1966.6463002668563,1977.2195977167287
1.59,-6.2719765812322965,10.604216944954931,62.86996520051148,-13.43223100499993,1973.1427066355702,1977.2195977167287
1.6,-5.934085082707619,10.732033011280262,57.41141106098467,-13.329069857715941,1979.0894379687438,1977.2195977167287
1.61,-5.661376489329925,10.819545518244892,51.649224754795334,-13.667684772974994,1984.069751378537,1977.2195977167287
1.62,-5.443595957021946,10.88321671118717,45.79763031103037,-14.435222177071672,1987.7554395185732,1977.2195977167287
1.6300000000000001,-5.2704574022401856,10.932861306462167,40.11891318889763,-15.588680116683337,1989.935908428392,1977.2195977167287
1.6400000000000001,-5.12542780489723,10.980515447475222,34.889929239390355,-17.06233844225933,1990.5265446135522,1977.2195977167287
1.6500000000000001,-4.9883709730075685,11.03845391661043,30.368826741179106,-18.775205488615395,1989.5585126196972,1977.2195977167287
1.6600000000000001,-4.841898106689951,11.113427627688123,26.768889373612097,-20.636641926019394,1987.1469417979642,1977.2195977167287
1.67,-4.668673723412593,11.210728136119966,24.24355842728911,-22.552408481591158,1983.4902287484167,1977.2195977167287
