t,iq,id,vq,vd,omega,r
0.0,0.0,0.0,0.0,0.0,0.0,577.2755333161886
0.01,0.0,0.0,150.09163866220902,0.0,39.68913185985862,577.2755333161886
0.02,11.546794237245917,0.11893158126892198,250.49447477073227,-0.030922211129919715,76.8967911697921,577.2755333161886
0.03,11.711819074576168,-1.6328993692014024,316.60545532061536,-0.25138157678467804,86.79649646031359,577.2755333161886
0.04,12.482893236648334,-4.685632744914719,364.06790488637284,-2.429005384511507,101.98485544889111,577.2755333161886
0.05,12.88126363267894,-3.4425027237753474,395.9871508715772,-3.784939304600019,125.24020550073,577.2755333161886
0.06,13.19659650910482,-1.904630765702425,414.19309733059606,-4.4434271408703445,158.03134820231446,577.2755333161886
0.07,13.333251960583036,0.0465825437942442,419.71123621020206,-4.506506584117742,203.37020231366617,577.2755333161886
0.08,13.091814493090883,2.5262959162127503,412.5357832949207,-4.0083015245891325,265.6771407786562,577.2755333161886
0.09,12.100551994526644,5.5995016926093495,391.5182295431322,-2.9210560746305023,349.40880439052046,577.2755333161886
0.1,9.739319406654278,9.106230574334536,354.6171514235786,-1.1427159728081517,379.602287899164,577.2755333161886
0.11,13.283985122427007,1.146087712575129,319.3763291771408,-3.3927871198719757,436.8628321469361,577.2755333161886
0.12,11.639094149342897,6.504557260914052,279.13988317854233,-3.536661723070807,490.6352948980386,577.2755333161886
0.13,10.826452395546319,4.180652661879243,234.70714139505066,-3.7101680682365976,540.180002406935,577.2755333161886
0.14,11.817264694563228,6.17495205782257,189.83266370073144,-4.782561022667688,598.0166333530484,577.2755333161886
0.15,9.855413735456816,6.017054084584754,141.11118792332758,-4.8468302687464275,657.3807752830633,577.2755333161886
0.16,10.369690625681685,8.381365885428647,90.61296682178732,-5.538468471427293,693.6821124997991,577.2755333161886
0.17,12.580477034229467,4.416941857100082,42.678834483480536,-7.361848253414751,738.9758125514684,577.2755333161886
0.18,10.677583859683711,4.708301026556624,-4.690280574278871,-7.874890779301417,703.0323064558531,577.2755333161886
0.19,-0.025095403531036453,-9.842213349062389,-35.65673815472395,-5.268832298279629,609.259713374343,577.2755333161886
0.2,-7.996974008947119,-8.501227853538026,-38.59673373695365,-2.977044626961212,520.7608414839118,577.2755333161886
0.21,-7.805294458273774,-9.679685385473242,-18.97610007095843,-0.24958461823787959,460.3657577531568,577.2755333161886
0.22,-9.686338189225191,-7.210763888211765,13.295689641722877,1.528417138842447,475.10478763873095,577.2755333161886
0.23,7.11883096704681,3.4420539523726883,36.74322632890712,0.5613754723434307,524.5814747443575,577.2755333161886
0.24,11.94215488113295,5.9298157284025415,44.284344327034205,-0.8210523369574046,578.6961871547943,577.2755333161886
0.25,10.369100786613227,5.118044003751784,36.67541928948528,-1.996033494465232,625.2158993549783,577.2755333161886
0.26,10.888078325071525,7.695942318188552,19.38199642889019,-3.9208072336167437,653.8451370746743,577.2755333161886
0.27,10.701314168307826,3.366267913077173,-2.72015778843753,-4.719077467834924,628.9196839180574,577.2755333161886
0.28,-0.8353832808108739,-6.925105924707715,-15.057728112644677,-2.884887248280146,570.0491903043229,577.2755333161886
0.29,-7.092458183371752,-9.191139191756955,-10.826752128672371,-0.5644421176704152,524.8687525076041,577.2755333161886
0.3,-7.882054848572343,-7.355679907794171,4.705157130236029,1.2561232664384998,518.7954117464005,577.2755333161886
0.31,1.4200664036898103,0.3766078176232478,18.937883116849996,1.0846484347785135,550.9408022121281,577.2755333161886
0.32,10.26564303430564,5.440049805437555,22.545245463325266,-0.32599843645901827,590.6307677957248,577.2755333161886
0.33,10.568912836593276,4.9252174473514305,16.164276280434056,-1.552154474716015,614.8805526827131,577.2755333161886
0.34,9.14964448597519,3.3410632665778013,4.247305151945425,-2.3715787495527287,609.9590242263635,577.2755333161886
0.35000000000000003,2.2082238629671105,-2.2897973434830052,-4.356994050546501,-1.7428208075813698,580.6395305369178,577.2755333161886
0.36,-3.101879453164747,-5.547309637360872,-4.076227522381861,-0.3234182753023731,553.5088844260289,577.2755333161886
0.37,-3.754179107489429,-4.637044919456562,3.0818089346825506,0.8267403073827244,545.0791591497494,577.2755333161886
0.38,0.43702065893625464,-0.5951629766608943,11.064032566656802,0.9351122321199913,557.9840901985657,577.2755333161886
0.39,5.274437960753998,2.4074640716043314,14.390860372367678,0.30321994373625627,578.7801960883316,577.2755333161886
0.4,7.54921920697845,3.7127524964596956,11.89668100622739,-0.6380210646272213,593.3180273129971,577.2755333161886
0.41000000000000003,6.298047181016978,2.0027143301032355,6.178679119783978,-1.1215992654894658,593.9007439864357,577.2755333161886
0.42,2.876218783566344,-0.689846240503269,1.3317128735707222,-0.9222120996575834,580.2420788601047,577.2755333161886
0.43,0.0017949784200574914,-2.5560584853788235,0.7549586323014459,-0.2645353558641219,566.234031130302,577.2755333161886
0.44,-0.8026601655780086,-2.6257533133235174,3.864124248905591,0.3925999207462043,560.2202432233515,577.2755333161886
0.45,1.0454868304184497,-0.5812482116252276,7.908231473619774,0.5174669226355284,564.8633501337138,577.2755333161886
0.46,3.4246905940417265,0.8960156128523842,10.084881513988186,0.27869038117765615,575.3148249125513,577.2755333161886
0.47000000000000003,4.8652495614415185,1.9018467484534678,9.23982588707474,-0.20682961729172178,582.9783776439821,577.2755333161886
0.48,4.541284617764835,1.1462293800810213,6.605397772807611,-0.48583078862825263,584.9828328719373,577.2755333161886
0.49,2.8955892113228288,-0.1356627771019372,3.9510879828245957,-0.43909617278093854,578.6138074471995,577.2755333161886
0.5,1.4084190165703578,-1.1255992214182933,3.3429766521241677,-0.14779700298320148,571.6463532754321,577.2755333161886
0.51,0.7443039834469407,-1.4733399473997346,4.640511358500443,0.2240153911265466,567.9423773555136,577.2755333161886
0.52,1.5649942581641412,-0.3760775925233245,6.6113846405801615,0.30706216570861367,569.1682407250364,577.2755333161886
0.53,2.6937020063985258,0.24998144292568386,7.9412365755909935,0.23830621462270263,574.5256296001277,577.2755333161886
0.54,3.5332341891350127,0.972275449801774,7.683434746744185,-0.011985587896501872,578.1737634388805,577.2755333161886
0.55,3.525848817718112,0.6287166682429692,6.541007526968301,-0.16572916714165625,580.1995271752504,577.2755333161886
0.56,2.7330280561246516,0.012406763269620757,5.11442261842391,-0.16266775890932803,577.1333681978977,577.2755333161886
0.5700000000000001,2.01407305966017,-0.45193137041083054,4.684296772819765,-0.04504153496981612,573.7931827142215,577.2755333161886
0.58,1.5343285875070938,-0.8477769816240012,5.209501575993041,0.17086116654831582,571.788031165071,577.2755333161886
0.59,1.9192986969831636,-0.17658677491961738,6.1177542539233984,0.20829595821117636,571.7067904343183,577.2755333161886
0.6,2.4303426051572825,0.002675673523684474,6.898056291327414,0.2058344153458223,574.6261091661653,577.2755333161886
0.61,2.8839301387549403,0.5023240328095905,6.80570073149005,0.07525692355056564,576.0074446507389,577.2755333161886
0.62,2.9602032295291236,0.3321488426256245,6.368096004716711,-0.006078535204000888,577.6785163654188,577.2755333161886
0.63,2.5611631289646897,0.013842811023464019,5.614339144026829,-0.006356177643845352,576.0948282772493,577.2755333161886
0.64,2.2598244391599147,-0.13615523242679273,5.3634095617513955,0.029182610897355406,574.5536829137734,577.2755333161886
0.65,1.9335054356512753,-0.5138708610053153,5.579170447112212,0.1614274824344696,573.6820373314993,577.2755333161886
0.66,2.1375983292882808,-0.031525254785158996,5.949820387848837,0.1644853400685576,573.1301757281644,577.2755333161886
0.67,2.3515142885007334,-0.07623361798387762,6.4016606691709095,0.18399082819651424,574.917463786978,577.2755333161886
0.68,2.5715985368192738,0.2653276832606982,6.3282046941974,0.1142432943688938,575.0802299904276,577.2755333161886
0.6900000000000001,2.6558499772177755,0.17232175390030857,6.210597854894716,0.0720929151874205,576.3690427024775,577.2755333161886
0.7000000000000001,2.427840752830925,-0.030604341110432864,5.819652285238122,0.08177326141513613,575.464455005359,577.2755333161886
0.71,2.3494643996554445,0.011549696075837161,5.694885403534587,0.07846429702431432,574.7594814905556,577.2755333161886
0.72,2.130886215364406,-0.33975980105941506,5.800412323092676,0.16691734226052052,574.6054360520633,577.2755333161886
0.73,2.260488915864669,0.059994101268531774,5.903058837537748,0.14792127792010804,573.8886891145922,577.2755333161886
0.74,2.338404592446551,-0.08686567517844357,6.171557052434081,0.17110629447918868,575.1715684820837,577.2755333161886
0.75,2.4220604116818936,0.14378405228951907,6.078367806172562,0.13285378413212937,574.7092851441621,577.2755333161886
0.76,2.4975055823506955,0.09404662869492836,6.099421835264032,0.10983950119434319,575.6887122701958,577.2755333161886
0.77,2.337805612707892,-0.08256081531012749,5.903478422021347,0.1322457794619256,575.1379601226633,577.2755333161886
0.78,2.3773528706893634,0.08324803719305462,5.848645551625819,0.10977568163863016,574.7848738232007,577.2755333161886
0.79,2.2304278319750543,-0.24089721500999345,5.918703580260802,0.17324143791315885,575.0649605994279,577.2755333161886
0.8,2.320503339730135,0.10733593684229437,5.887519301678614,0.14292512218406242,574.2841572110967,577.2755333161886
0.81,2.3403098181800583,-0.07675437493480769,6.057895842505369,0.16395461903553535,575.3268591801194,577.2755333161886
0.8200000000000001,2.343312687523864,0.07297971941046111,5.948779156258024,0.14421234823946746,574.5638950948405,577.2755333161886
0.8300000000000001,2.4146201210543117,0.06026121970763776,6.029950247848941,0.12927422830958615,575.3093480887992,577.2755333161886
0.84,2.280553021237984,-0.13021825686591232,5.945244440445361,0.1637335872917995,574.9990349775672,577.2755333161886
0.85,2.3853774767541918,0.1239109777660552,5.920079542469298,0.13021455050396594,574.7630811221537,577.2755333161886
0.86,2.282879770542536,-0.18317357390712108,5.980857163958625,0.17907878949747813,575.3156324744134,577.2755333161886
0.87,2.346228942614332,0.12912914648010798,5.8781161335055145,0.14367347567357872,574.4623380743799,577.2755333161886
0.88,2.34300773933714,-0.06110379101009911,6.004228165156505,0.16085175280100553,575.3929290782784,577.2755333161886
0.89,2.3008650668834703,0.028146469435455457,5.8907784745987355,0.1529226328376859,574.5200060542069,577.2755333161886
0.9,2.375651095396051,0.053434814881604065,5.993728886200733,0.1393110456628234,575.0927929350756,577.2755333161886
0.91,2.253374411523097,-0.16158817809810266,5.9715652766282314,0.18185832011714634,574.9904884770123,577.2755333161886
0.92,2.3880080847263483,0.1481637218229376,5.945501173089318,0.14171987066220174,574.7464168589884,577.2755333161886
0.93,2.310361849297638,-0.14798474407030193,6.003407003599483,0.18167754133870972,575.4533521430817,577.2755333161886
0.9400000000000001,2.3488060937649147,0.13049146461593597,5.864296978149361,0.1462699130978632,574.5425662945127,577.2755333161886
0.9500000000000001,2.3412692561038977,-0.04693100642052861,5.971404646404664,0.15977688941335985,575.3947062484538,577.2755333161886
0.96,2.2710820910716594,-0.00848562557953847,5.86602136268136,0.16151384199983468,574.5068407935777,577.2755333161886
0.97,2.356083930917755,0.05907525245230859,5.977202146754941,0.14606942010643933,574.9308602977833,577.2755333161886
0.98,2.235406948471376,-0.19666254166206576,6.0014852390208215,0.19779243346309952,575.0310362608042,577.2755333161886
0.99,2.3928120769365258,0.17090291235018273,5.961830672717927,0.15139105083543108,574.7456459871225,577.2755333161886
1.0,2.3322421510067506,-0.11597930003464929,6.014701569228856,0.18325469796794155,575.5662649626166,577.2755333161886
1.01,2.3446439379630686,0.12464483566988105,5.847527465506567,0.1496872476934259,574.5900269550662,577.2755333161886
1.02,2.3360319808104997,-0.03431340935415339,5.944744560231575,0.1598551824822046,575.3627183286878,577.2755333161886
1.03,2.245114454637086,-0.043687647823720144,5.854851954973001,0.17087083682283036,574.5173377461892,577.2755333161886
1.04,2.3433982858782287,0.06946941752498192,5.966022243515847,0.15237191178809778,574.8155957587991,577.2755333161886
1.05,2.2394034458699625,-0.19655014647599078,6.01921313966971,0.2041696440471051,575.0948850633388,577.2755333161886
1.06,2.3932296351792868,0.18093133952118334,5.961736639148843,0.15516199430683755,574.7506768108593,577.2755333161886
1.07,2.3459296957016034,-0.09221351215046225,6.010383423475324,0.1809468208611699,575.6264938752723,577.2755333161886
1.08,2.3324603286122745,0.10798144324538039,5.830904724578074,0.1519495104958666,574.5890302260825,577.2755333161886
1.09,2.3301716740028313,-0.023249629684098272,5.930385101641869,0.1590742286461861,575.2919403795192,577.2755333161886
1.1,2.227752280118661,-0.07604489361724016,5.863340358184006,0.17861340468982762,574.545437530315,577.2755333161886
1.11,2.342450049717,0.08564568960437036,5.966569843019208,0.15558507645651895,574.7450693348025,577.2755333161886
1.12,2.2547730032529576,-0.18641550015388997,6.0343730399722615,0.20490956339257413,575.1856219008814,577.2755333161886
1.1300000000000001,2.393676798587815,0.18466272226099462,5.952637130537955,0.15503310060317663,574.7336970624409,577.2755333161886
1.1400000000000001,2.353811137512438,-0.07655533666316039,6.004561314591915,0.1767841153582082,575.640194599981,577.2755333161886
1.1500000000000001,2.3202656866285483,0.08770948185929706,5.824600051120108,0.15321409670815941,574.5802662982624,577.2755333161886
1.16,2.329787421493073,-0.009556765500647102,5.926474015896931,0.15657595055692053,575.2200795924824,577.2755333161886
1.17,2.2181063512031867,-0.10686669681877492,5.880529536783367,0.18426572407479555,574.6032970126666,577.2755333161886
1.18,2.3466935385183785,0.10260194846878563,5.966797181959256,0.15652055050472377,574.6984098249387,577.2755333161886
1.19,2.271602836982252,-0.17438971870311937,6.042977124418792,0.20288789685222264,575.2719863793083,577.2755333161886
1.2,2.3906847024969347,0.18217752251151664,5.939266098815791,0.15377784381219703,574.7184397883115,577.2755333161886
1.21,2.3584231729618,-0.06240525001418862,5.994791768749935,0.1718249840410012,575.6308556396189,577.2755333161886
1.22,2.3060685224924233,0.06342566698533081,5.8208434452608735,0.15471025812467332,574.5644732483698,577.2755333161886
1.23,2.3295698810364485,0.004140331188996982,5.926644802283491,0.15426802868538764,575.134630836301,577.2755333161886
1.24,2.2115369857752603,-0.1376340630193469,5.904464928884874,0.19009428838230782,574.6819960652316,577.2755333161886
1.25,2.3540351636740313,0.12091455554191388,5.9674418166373115,0.15728016331121658,574.6764585871944,577.2755333161886
1.26,2.2892345667257232,-0.15894565863629595,6.045605237954285,0.19981518011207267,575.3593721385266,577.2755333161886
1.27,2.383994888406596,0.17470840208581206,5.920870071537988,0.15280153898339863,574.6996948585944,577.2755333161886
1.28,2.3582859615843037,-0.050815237894624166,5.982112057607997,0.16776058485685902,575.597167619345,577.2755333161886
1.29,2.289882203838891,0.03661032088636085,5.8209422408291145,0.15773374904745904,574.5430284887206,577.2755333161886
1.3,2.3298388080238266,0.019099697011589534,5.931750570954555,0.1531339310333094,575.0410994359212,577.2755333161886
1.31,2.208193758843195,-0.1673582387261425,5.9345463423304,0.1968380700722223,574.7819553651608,577.2755333161886
1.32,2.3638189656369777,0.14078053767047916,5.968021277317761,0.1585615478906363,574.6892740677573,577.2755333161886
1.33,2.3067082662638962,-0.13929540292703602,6.039406942827364,0.19618615802837064,575.4522285937443,577.2755333161886
1.34,2.37170057357166,0.16130382737575483,5.894028511712571,0.15285420888140394,574.6635703681817,577.2755333161886
1.35,2.3509965849615124,-0.04294900257491063,5.967363724615635,0.16563398782463817,575.5275716191773,577.2755333161886
1.36,2.2719603646389426,0.008244448396590165,5.828514407401996,0.1630609412157754,574.5328438543016,577.2755333161886
1.37,2.3325238905315206,0.03725493294014448,5.940397442630678,0.15345710313530372,574.9567558561282,577.2755333161886
1.3800000000000001,2.2121729592344774,-0.18767448228191608,5.96401295713185,0.20262501785800335,574.8994103488433,577.2755333161886
1.3900000000000001,2.3727507652317716,0.15813659086782741,5.963823684673104,0.15963275940954907,574.702931219382,577.2755333161886
1.4000000000000001,2.3199602521938862,-0.12238934515342548,6.029476842251269,0.1930353550581179,575.5245831948139,577.2755333161886
1.41,2.3566301076950826,0.1448188284541384,5.869473627361834,0.15415856620850757,574.6396975132542,577.2755333161886
1.42,2.343165755865589,-0.033913637580242795,5.951624639462921,0.1644243002639121,575.4549770632119,577.2755333161886
1.43,2.253303520109829,-0.02187077158185602,5.836183649537604,0.16977156449939224,574.5301994633452,577.2755333161886
1.44,2.333477942754919,0.05489670512068058,5.947593658831935,0.15527971345219668,574.8559490724383,577.2755333161886
1.45,2.216793954564755,-0.2052420699154941,5.996200574919279,0.20919161868143196,575.0015489370583,577.2755333161886
1.46,2.382373331747497,0.17545890309319556,5.965991544346952,0.1615198831780462,574.728367364314,577.2755333161886
1.47,2.336034282060222,-0.10055438649140386,6.021969668024862,0.18941861269674307,575.6037100483273,577.2755333161886
1.48,2.3430019085812814,0.1272072777619042,5.845351904739501,0.15533917661373398,574.6314333564259,577.2755333161886
1.49,2.3340975186700126,-0.026074215524285682,5.932664325830796,0.16339054542766715,575.374628235,577.2755333161886
1.5,2.232938459642158,-0.05513155362035527,5.843235623021922,0.17746400721371666,574.5298562035293,577.2755333161886
1.51,2.332495732145728,0.0714508595066734,5.953983115739967,0.15833546820577785,574.7713398956987,577.2755333161886
1.52,2.234778923149481,-0.19592357568272917,6.019899071243329,0.20999010647835437,575.1034404946482,577.2755333161886
1.53,2.388450450946299,0.18396479547767064,5.960951942624373,0.16020002389733268,574.7318414142679,577.2755333161886
1.54,2.348051307249632,-0.0827179612823542,6.01398207353289,0.18354634178552148,575.6406434463985,577.2755333161886
1.55,2.3300932227609596,0.10617181231665251,5.83127279581375,0.15511449097036825,574.6057853327495,577.2755333161886
1.56,2.330495400489964,-0.015812965150876046,5.926430500910218,0.16028758003276256,575.2881269700819,577.2755333161886
1.57,2.2218377168868204,-0.08610416689135861,5.862085818677894,0.18251653377300706,574.5721435407854,577.2755333161886
1.58,2.338713345638958,0.08981142416382237,5.959246004124382,0.15830452182149957,574.7217677959077,577.2755333161886
1.59,2.254788976839802,-0.18439959172179565,6.033333141121419,0.2071465299108049,575.2030923956947,577.2755333161886
1.6,2.3890911180322028,0.18416526693712562,5.948014324327027,0.1574195645899344,574.7237364040094,577.2755333161886
1.61,2.3544669401433698,-0.06900091898464233,6.002486619031716,0.1772014561953127,575.6413730919677,577.2755333161886
1.62,2.315328914433955,0.0815238668583666,5.823409459855954,0.15531524162229085,574.5831849324791,577.2755333161886
1.6300000000000001,2.329203984924322,-0.0037853548188996333,5.924638690442228,0.1571146725437884,575.1997129819239,577.2755333161886
1.6400000000000001,2.2140476531522735,-0.11705834120239866,5.8850681435436,0.18751198770822308,574.6336008221738,577.2755333161886
1.6500000000000001,2.3465150147111236,0.10825520687326136,5.9632589613514275,0.15819505050915111,574.686015171116,577.2755333161886
1.6600000000000001,2.27450967482048,-0.17041696441180165,6.0422069888239385,0.20358601332495213,575.2961147608875,577.2755333161886
1.67,2.3867289486176517,0.18022821921767573,5.933156201859113,0.15502250668423845,574.6993041859201,577.2755333161886
