t,iq,id,vq,vd,omega,r
0.0,0.0,0.0,0.0,0.0,0.0,744.8376183537766
0.01,0.0,0.0,193.65778077198192,0.0,37.49059617941769,744.8376183537766
0.02,11.548430892937537,0.02684956276663289,325.63079635889375,-0.0069808863193245516,69.24647035227517,744.8376183537766
0.03,11.715410275093578,-1.8521281675385417,416.817870755521,-0.3864180698997626,76.0107150467,744.8376183537766
0.04,12.413610112941043,-4.866216368151498,483.8463181223252,-2.5215189158955438,87.03030460239651,744.8376183537766
0.05,12.781362943939012,-3.7966483999812795,531.4755189375019,-3.87240258749894,104.11692022461928,744.8376183537766
0.06,13.095226147562226,-2.5085513592470674,563.0078201766302,-4.568034111208548,127.94241400431505,744.8376183537766
0.07,13.302089691162319,-0.9122431836143781,580.7709559123518,-4.719058684807384,159.67798362657908,744.8376183537766
0.08,13.289421702347681,1.0812255060569766,586.2097949888392,-4.376880987185121,203.62192080833861,744.8376183537766
0.09,12.850301033757427,3.556338161591288,579.2873002258265,-3.54776110370782,263.1499747255992,744.8376183537766
0.1,11.61985387609534,6.538866390741582,559.1096271600487,-2.1915598108029903,309.552905971314,744.8376183537766
0.11,11.08856969963296,3.2218709454866605,531.8576340750549,-1.8296019168653257,328.50383917948733,744.8376183537766
0.12,13.269449784562536,1.3036411288199883,507.2267882222589,-3.5471624509032984,373.2661482575929,744.8376183537766
0.13,11.930873534648162,5.952481371496246,477.8576728495337,-3.412795906186305,446.3929223750416,744.8376183537766
0.14,8.39790365081849,10.356302045100232,437.3675387975821,-1.6212218247530792,472.1900285526814,744.8376183537766
0.15,12.647178618023851,4.22216186112968,400.62595657394445,-3.4669035585631898,534.6831017580463,744.8376183537766
0.16,8.836573294092926,9.98462569132671,357.80043574786765,-2.6206616133782323,556.5022423814994,744.8376183537766
0.17,12.314155141446875,4.656182565419393,319.9418004797088,-4.6724878857840055,620.9744427122467,744.8376183537766
0.18,7.351358870859788,10.32731864846637,275.95087391230925,-3.257845534435891,654.3238289003183,744.8376183537766
0.19,10.53226803990195,6.542483779869787,234.57641749858956,-4.559579944756199,658.5851310603977,744.8376183537766
0.2,12.128417826911543,2.3626904205483905,201.59798090157403,-7.168749121814723,712.7031498280359,744.8376183537766
0.21,7.567962809514679,9.256405495219113,164.6166131339547,-5.863598178572647,742.9349328508854,744.8376183537766
0.22,9.780809727562115,6.445607108426173,129.1332353280405,-6.731133951688511,748.9214235972358,744.8376183537766
0.23,11.096297589307207,3.562635380256302,100.40329970967227,-8.89724242346539,778.4423696628395,744.8376183537766
0.24,8.50925352883551,4.299724122316779,71.46008538280623,-7.984821393938708,816.9534059572267,744.8376183537766
0.25,7.8002616020151745,6.662250617145989,40.83770239080496,-7.302564748160492,836.4908021152236,744.8376183537766
0.26,9.42218371438696,4.021446041304792,12.454518990985443,-8.010075139579753,814.8198592474665,744.8376183537766
0.27,5.098532735984479,-4.259375231998771,-6.055728477971553,-6.862423118847023,748.311937935638,744.8376183537766
0.28,-2.4140863886884922,-11.010071080842614,-5.580581371899745,-4.04239839014793,688.7653232672242,744.8376183537766
0.29,-3.9891060945090335,-10.51260825685278,10.04598526710797,-1.4192209541746343,671.5902542773835,744.8376183537766
0.3,2.0960644447653625,-2.4279824515168418,27.944709159520585,-0.8930715993487834,691.391340321423,744.8376183537766
0.31,8.95313499999597,4.060092714228029,38.26861052165672,-1.8371315234575538,720.0923344541034,744.8376183537766
0.32,9.534999901887275,3.866356938091128,39.13171495278988,-2.6830251453306095,748.6245727542396,744.8376183537766
0.33,9.71810783802493,4.13356702623323,32.851728476090635,-3.747775531073863,768.187517770617,744.8376183537766
0.34,9.282310933637353,3.765731220103257,23.00547675848922,-4.4877752810023726,777.6640988563018,744.8376183537766
0.35000000000000003,8.24617692118971,1.4339040113932537,12.652907931828114,-4.822933011763586,762.8347089166605,744.8376183537766
0.36,3.9467893823154463,-3.535329847061794,7.358225720313447,-3.8894082114135875,737.7733007130026,744.8376183537766
0.37,1.3076145501206238,-5.153015982253504,9.074407323335315,-2.5849773544982937,715.7256413420156,744.8376183537766
0.38,1.9335831298633899,-3.359045648607649,16.08322270172217,-1.7631556456828403,711.1946769399008,744.8376183537766
0.39,4.821667315503582,-0.3864399325200738,23.30497002847999,-1.6962717197136978,726.9774981314193,744.8376183537766
0.4,7.459520786365073,1.9286613869221543,25.72091314085424,-2.2015880796386584,745.5267334533697,744.8376183537766
0.41000000000000003,8.214457979021535,2.888541112924642,23.05825985715656,-2.9526196360335564,757.2651300221455,744.8376183537766
0.42,7.838183536155466,2.1672315950364847,17.87821483476638,-3.4872144396137954,756.2070732593413,744.8376183537766
0.43,5.83730901747104,-0.48023010926359166,13.60711316682233,-3.340682295254897,746.4730876108633,744.8376183537766
0.44,3.6559036667017537,-2.6770139205751162,12.403423845867689,-2.6494609769980024,734.6646492856565,744.8376183537766
0.45,3.1004247916537953,-2.2589288440733557,14.29519908698681,-2.088909616744681,725.5505717797264,744.8376183537766
0.46,4.020461349965898,-1.0624734599530594,18.193785802484076,-1.8352558055976191,727.2728480092388,744.8376183537766
0.47000000000000003,5.5414568259860895,0.21762214057730844,21.16718146506668,-1.9024622967472502,738.3586394307855,744.8376183537766
0.48,6.390006458980302,1.1104607388249796,21.070081170523974,-2.189005867435972,747.3474247508747,744.8376183537766
0.49,6.62988142566005,1.5768202081342866,18.692872611966767,-2.587874514162636,748.8978175475504,744.8376183537766
0.5,5.931394003504314,0.46784644954837695,16.186455258902047,-2.693746388963871,745.1600738747403,744.8376183537766
0.51,4.7853561301237795,-1.0476795279929716,14.95834016159209,-2.416671247190215,740.6559953770205,744.8376183537766
0.52,3.8853300450234824,-1.5360584912032516,15.086454440353446,-2.0277728347572994,734.9715018585563,744.8376183537766
0.53,4.120743572321991,-0.7587943178078015,16.577288470989696,-1.8458468970393027,732.024978210033,744.8376183537766
0.54,4.885303350798271,-0.1313608621117326,18.58094230792649,-1.81928101606833,735.7177128367218,744.8376183537766
0.55,5.471681458487037,0.1643931257536292,19.450207195224657,-1.863336837385391,742.8051317015937,744.8376183537766
0.56,5.650349533693145,0.711404384303695,18.473080605446317,-2.046658046046815,745.0122198115878,744.8376183537766
0.5700000000000001,5.553690887367641,0.6477425357007744,17.019903224514934,-2.2079570614859794,743.0787191528398,744.8376183537766
0.58,5.1084579487061665,-0.1721664320161027,16.206300873546702,-2.1567163638047853,740.8237969591762,744.8376183537766
0.59,4.448378410157646,-1.0262962367453616,16.126811636979518,-1.8916010065711522,739.6931684263332,744.8376183537766
0.6,4.286118535671237,-0.5583042185321738,16.35432336899587,-1.7567048721202403,736.7541849448304,744.8376183537766
0.61,4.6337518645757285,-0.08289515871626307,17.242657256614486,-1.740735173039334,736.0948840031356,744.8376183537766
0.62,5.062830853669583,0.033640062280349436,18.16493535038336,-1.7503105408193873,739.721777621926,744.8376183537766
0.63,5.049049790361802,-0.133683007134694,18.145501960200747,-1.7152165583415633,743.3291843242023,744.8376183537766
0.64,5.111530608403095,0.45073797003118177,17.208028940290383,-1.8337452606210176,742.3285620972156,744.8376183537766
0.65,5.0128066668757985,0.2247824059803638,16.593084799396838,-1.8876813064755997,740.2121478780895,744.8376183537766
0.66,4.76530160852883,-0.37762119459769616,16.581766208961152,-1.7872519718203954,740.223573533694,744.8376183537766
0.67,4.3083287927884095,-0.8083255842272202,16.66265068738607,-1.5808635318672957,739.9854651438028,744.8376183537766
0.68,4.494043508416978,-0.023010745470514404,16.75270204951791,-1.5829639938872337,738.056850238475,744.8376183537766
0.6900000000000001,4.778168255731086,0.12336334343597155,17.269796915990682,-1.6152685706352912,738.2646642776684,744.8376183537766
0.7000000000000001,4.9150546345628126,-0.09069625553742977,17.680824772196775,-1.5904539107612,741.5586476263372,744.8376183537766
0.71,4.69896588347768,-0.15425660726898874,17.29504703721137,-1.5512541554266366,742.395517786069,744.8376183537766
0.72,4.783947740430142,0.3101266721212954,16.70036672386389,-1.6334296562508634,740.3433429164636,744.8376183537766
0.73,4.7655874192842145,0.04210566282611944,16.653244080278608,-1.6412758618644416,739.3811324608827,744.8376183537766
0.74,4.585143791715131,-0.45108128477115983,16.882506146404815,-1.5235736711956784,740.9122739881802,744.8376183537766
0.75,4.369803457948875,-0.31022939661881604,16.758233361381382,-1.447424840922498,740.1290052813046,744.8376183537766
0.76,4.577344339348355,0.17752752817791784,16.79680782291707,-1.4966842922149446,738.558993383132,744.8376183537766
0.77,4.7716641135622035,0.08574160597514341,17.187304958427262,-1.5172018344867018,739.4786534263899,744.8376183537766
0.78,4.685708031260207,-0.2887011899716305,17.34728214284934,-1.441282109034326,742.1830202763929,744.8376183537766
0.79,4.571974411001647,0.04727230038858271,16.842031727147422,-1.456459919035074,741.2625270152845,744.8376183537766
0.8,4.648113666692862,0.23266209031465035,16.58221968515142,-1.5164793395129974,739.2981309226979,744.8376183537766
0.81,4.668928189322044,-0.07571324456106532,16.819295311290176,-1.4944672750239738,739.6659071946959,744.8376183537766
0.8200000000000001,4.428902715034212,-0.5226489360008424,17.003719914324698,-1.3593356841093651,741.40639845719,744.8376183537766
0.8300000000000001,4.445126752260547,0.05176941696119575,16.732676047409015,-1.378022221879285,740.0516498251964,744.8376183537766
0.84,4.617409008951233,0.2292970272112469,16.786640591069304,-1.4371217547845974,738.9270912360959,744.8376183537766
0.85,4.705815932576389,-0.03876548824883075,17.09817990400015,-1.424749757567789,740.5166054089185,744.8376183537766
0.86,4.431655409570759,-0.43724933941770106,17.05736575132382,-1.3114525842016749,742.0922183353224,744.8376183537766
0.87,4.4916492417568445,0.1872116997633264,16.60444737791227,-1.3645001195343167,740.3087539027964,744.8376183537766
0.88,4.582423715926656,0.1738818878717614,16.607984461259225,-1.4078372933833416,739.0370442567083,744.8376183537766
0.89,4.578900539418514,-0.18632927110458852,16.926155178897634,-1.3576528640174306,740.6317375863176,744.8376183537766
0.9,4.2727126155533774,-0.4751902837486772,16.8965621628166,-1.2359666829538205,741.4470495263756,744.8376183537766
0.91,4.447096890569781,0.22866999434409307,16.622533184873664,-1.3001727843207713,739.7207742455348,744.8376183537766
0.92,4.590755824710693,0.18432885935252075,16.769881419223445,-1.345811587808986,739.2331650914867,744.8376183537766
0.93,4.570722171133737,-0.19241400804644282,17.033390620088735,-1.2939406571233856,741.4379763645528,744.8376183537766
0.9400000000000001,4.300045994737272,-0.27845540293197435,16.788948267743674,-1.2234663924415363,741.5169248170115,744.8376183537766
0.9500000000000001,4.443509811609638,0.24706296238657144,16.506020076339237,-1.2904873166913646,739.5299449572302,744.8376183537766
0.96,4.549401151948568,0.10178341635700905,16.71439902268312,-1.3144803753203216,739.28214956299,744.8376183537766
0.97,4.469270352135461,-0.30239567438631165,16.98922789428646,-1.23483966581631,741.5321977958846,744.8376183537766
0.98,4.296539634484763,-0.12842884860189696,16.72067494998584,-1.20447212192368,741.0337923491819,744.8376183537766
0.99,4.456671986924771,0.2675393650166842,16.560846185345955,-1.275316645314037,739.2912914458952,744.8376183537766
1.0,4.570228324532565,0.07672021343713364,16.82116027683995,-1.2925885071575252,739.6961535022066,744.8376183537766
1.01,4.425127585727022,-0.35147216501068046,16.997646980125648,-1.2004385421203767,741.9208301948967,744.8376183537766
1.02,4.327329957947827,0.015385388301153657,16.623742739709574,-1.207953464728783,740.8426862372623,744.8376183537766
1.03,4.458710889683408,0.2495733653544394,16.51726567667628,-1.272688685837926,739.1311980717759,744.8376183537766
1.04,4.540828916474044,-0.005977653790856685,16.82495721944492,-1.2686387621987587,739.9091096605773,744.8376183537766
1.05,4.327891018823078,-0.43395829735788505,16.96946190112747,-1.155869381423617,741.8710473537362,744.8376183537766
1.06,4.345566172310703,0.131265560137533,16.60491697959343,-1.1943380100329546,740.5180832018918,744.8376183537766
1.07,4.483895010297789,0.254085279701848,16.57597336812875,-1.2590875271540602,739.1808623746575,744.8376183537766
1.08,4.536589446339049,-0.05494398140882795,16.8688602652357,-1.2422612391907464,740.5130276477331,744.8376183537766
1.09,4.252128405999913,-0.4569719708803861,16.876498797919236,-1.123997966575934,741.9232312536677,744.8376183537766
1.1,4.340607941173331,0.1972157585408476,16.504956756242052,-1.1798437835053583,740.1880538849618,744.8376183537766
1.11,4.466007191319792,0.21000255502676013,16.566943856801394,-1.2324722902269072,739.0858630959951,744.8376183537766
1.12,4.4855775364536665,-0.13566086833652458,16.89431449157168,-1.1951004389091437,740.8807564824693,744.8376183537766
1.1300000000000001,4.188406468764299,-0.4157213138742224,16.82145111901958,-1.088369505985211,741.733601820004,744.8376183537766
1.1400000000000001,4.353486071132015,0.26326327506119596,16.498904485280722,-1.1609751706398639,739.946382678381,744.8376183537766
1.1500000000000001,4.478249550999674,0.1908269005689449,16.618775572997254,-1.2079575320371774,739.3222486792863,744.8376183537766
1.16,4.445044391621538,-0.2002386938983194,16.89293028529918,-1.1539872026179245,741.4107103647511,744.8376183537766
1.17,4.183191942369223,-0.27087424631200685,16.685593204601123,-1.0855622855157856,741.4449675137245,744.8376183537766
1.18,4.344571970638884,0.26484914291953743,16.44565655018201,-1.1571318051379855,739.5336604026845,744.8376183537766
1.19,4.468606370089628,0.13136491114007298,16.672367172548526,-1.1886381906052095,739.3989011995435,744.8376183537766
1.2,4.395322506213996,-0.27071724349021964,16.935296265223478,-1.1169380581863517,741.706606649823,744.8376183537766
1.21,4.224247404445855,-0.09627251606869769,16.640621036615304,-1.0946143764433918,741.184913257625,744.8376183537766
1.22,4.37649669133954,0.28196117551132127,16.46336757887137,-1.1688870072370225,739.3843493105119,744.8376183537766
1.23,4.48303055707086,0.07994740409381196,16.72286750123366,-1.1868537205463003,739.7239528823478,744.8376183537766
1.24,4.336444270535673,-0.34970273255877726,16.915242628603938,-1.0951315360400797,741.9110665687286,744.8376183537766
1.25,4.249495266464974,0.02906184393499478,16.56350511142659,-1.106184642788766,740.8462329486184,744.8376183537766
1.26,4.39146102377655,0.2682296706622008,16.47271488539999,-1.175633738721588,739.1907226038808,744.8376183537766
1.27,4.480561668631606,0.014680715321593318,16.77996250271488,-1.1767684279985804,740.0143621565368,744.8376183537766
1.28,4.267481615001719,-0.41567189568794316,16.912800553284157,-1.0685469279664996,741.9743010012913,744.8376183537766
1.29,4.284848554137611,0.14675620034766146,16.537644695032167,-1.110860259013771,740.5943107051645,744.8376183537766
1.3,4.420119018847671,0.26165433770104385,16.505889050787452,-1.1774228248125649,739.2189172067795,744.8376183537766
1.31,4.471694149908446,-0.050470848558265224,16.805878983732878,-1.1616838608104054,740.5282936677172,744.8376183537766
1.32,4.190230248391455,-0.4495449081292516,16.825373467555664,-1.0453068931823828,741.9347460217816,744.8376183537766
1.33,4.286567148901765,0.21061154288356265,16.464421870783227,-1.1045613434134016,740.2236279171826,744.8376183537766
1.34,4.4174694079484516,0.22481919435973935,16.529354286400142,-1.160908218518098,739.1822912943942,744.8376183537766
1.35,4.438552569852549,-0.12188107020130934,16.843750443391457,-1.12697094832216,740.9660398753372,744.8376183537766
1.36,4.137321217007818,-0.40705322790801207,16.762489586468384,-1.0223559197680891,741.7807792357838,744.8376183537766
1.37,4.30064265265365,0.26742992549618094,16.441758094842253,-1.0959582326761765,739.9624178324907,744.8376183537766
1.3800000000000001,4.42664493992367,0.1946144013209759,16.57082058134305,-1.143883677764668,739.3248002302007,744.8376183537766
1.3900000000000001,4.3974584769389065,-0.19352764848522463,16.856328533655052,-1.0916203451453,741.4231174386935,744.8376183537766
1.4000000000000001,4.141726965283229,-0.25868854088781656,16.65609616413667,-1.0262966009993206,741.4807432197483,744.8376183537766
1.41,4.307269379920878,0.27796079756491476,16.4162659207066,-1.101153293775077,739.5923314654785,744.8376183537766
1.42,4.4322616163386135,0.1426831065334647,16.637156433874996,-1.135471293498128,739.4577308789175,744.8376183537766
1.43,4.357354085863641,-0.2630580099377484,16.894884862294237,-1.0656493798489786,741.7494535244632,744.8376183537766
1.44,4.185159267685868,-0.09107408959037222,16.599440974427445,-1.04460069665486,741.2104029608331,744.8376183537766
1.45,4.337785972171957,0.28617882534825134,16.425662568211777,-1.1199179321413089,739.3981600389427,744.8376183537766
1.46,4.446386062627334,0.08516479380878123,16.690967059577773,-1.1391989902781094,739.7349190151906,744.8376183537766
1.47,4.302942565695181,-0.34259435859944043,16.88897309800733,-1.0492728091041672,741.9316213008376,744.8376183537766
1.48,4.218925701695087,0.03745599686895129,16.539614081601844,-1.0624373118760895,740.8822663222902,744.8376183537766
1.49,4.362705785313617,0.2768019424152408,16.44683139209434,-1.1340312569353626,739.2320376487021,744.8376183537766
1.5,4.451853410791625,0.02182456315828718,16.750874026146167,-1.1369376239323645,740.0458318117079,744.8376183537766
1.51,4.238395356041994,-0.41065951509467724,16.88321846157029,-1.0299479043761655,741.9979540690674,744.8376183537766
1.52,4.255608914579011,0.15041920438888456,16.509538945943877,-1.073163492668222,740.6135816913688,744.8376183537766
1.53,4.392041213110535,0.26603221666328913,16.480017209059863,-1.1408276769567882,739.2328701437087,744.8376183537766
1.54,4.445450890391616,-0.04514173270003119,16.783114557682723,-1.1264305042881473,740.5400248667916,744.8376183537766
1.55,4.166184445975116,-0.4437936814494581,16.805687935148548,-1.0114955644382877,741.9565597220223,744.8376183537766
1.56,4.263512452685451,0.21621901316891123,16.444935851296346,-1.0721504446766996,740.2535389088038,744.8376183537766
1.57,4.395198384042891,0.23060201291211135,16.507869465347454,-1.1299447779021599,739.2105010845439,744.8376183537766
1.58,4.41659001108859,-0.11682873963580964,16.820717741855624,-1.0972632854677276,740.9825225828112,744.8376183537766
1.59,4.115064887441253,-0.4046398251102923,16.741020498990483,-0.9932252183354096,741.797554983634,744.8376183537766
1.6,4.278705127111138,0.27029252684662053,16.421573333343435,-1.0675476735666336,739.9772233555085,744.8376183537766
1.61,4.405892280026601,0.1986340802898483,16.55213045765592,-1.116489609173528,739.3346302810643,744.8376183537766
1.62,4.378554748186799,-0.18866228628275084,16.839938094850144,-1.065451073937114,741.4329005067895,744.8376183537766
1.6300000000000001,4.123324364474376,-0.2559758252788802,16.64185606705822,-1.0007839822274327,741.5027329560745,744.8376183537766
1.6400000000000001,4.289847443419476,0.28233743609359996,16.40075200034658,-1.0767514738645572,739.6166116890256,744.8376183537766
1.6500000000000001,4.415181053222476,0.14711720313285181,16.619816279801178,-1.112178572318163,739.4725125816914,744.8376183537766
1.6600000000000001,4.34093724102618,-0.25913546781004415,16.87804184176125,-1.0433321786562224,741.7592141086827,744.8376183537766
1.67,4.1680045663046945,-0.0902440773026083,16.584504072935854,-1.0224600732356446,741.226002293501,744.8376183537766
1.68,4.321477032467384,0.28898581322736505,16.41083622337811,-1.0984988254477857,739.4116186302984,744.8376183537766
