t,iq,id,vq,vd,omega,r
0.0,0.0,0.0,0.0,0.0,0.0,868.6272976434051
0.01,0.0,0.0,225.84309738728533,0.0,79.9610226266084,868.6272976434051
0.02,11.600149338573058,-1.2271280365830886,369.6614459706436,0.319053289511603,121.98543138837522,868.6272976434051
0.03,12.364099450331762,-4.9906735577558585,467.3929605294168,-0.43729585141210003,141.40184553032526,868.6272976434051
0.04,12.925514769535136,-3.272437275228782,536.3383861085363,-2.5214490672306655,179.22260883325455,868.6272976434051
0.05,13.287173487824532,-1.1085118322465242,578.6566530534926,-3.59906046192846,237.85808986899724,868.6272976434051
0.06,13.220311321517777,1.73238169579529,595.7663318073423,-3.8259068050234997,334.25787759069055,868.6272976434051
0.07,12.16385709286487,5.460618866221916,584.3548930534494,-3.2324381745501958,477.2370741929461,868.6272976434051
0.08,8.935296054649436,9.896376215238783,539.780709539118,-1.6664089384793606,510.2105731064289,868.6272976434051
0.09,12.73491888382843,3.9496352743117726,498.7111490912766,-3.851751272653325,630.8590577312106,868.6272976434051
0.1,8.423532003673873,10.335467399245173,437.8471191484384,-3.1667574609635576,670.7200585419486,868.6272976434051
0.11,11.624454648380297,6.530683877323063,382.4229422377849,-5.2460466329243465,723.9558982316066,868.6272976434051
0.12,13.09348445693748,2.5176263729382784,326.0908813783828,-4.73133417772511,821.253092740448,868.6272976434051
0.13,7.350202500813736,11.124401151289412,261.51471318295825,-4.905092845136729,877.9047193338189,868.6272976434051
0.14,9.130452246045811,9.716615643342838,198.93521678930512,-6.575852597420731,903.0445530404729,868.6272976434051
0.15,10.287588612516945,8.481939537475458,145.55026915423164,-8.869365034242703,905.9734855645397,868.6272976434051
0.16,11.158052155323492,7.299017048675695,104.49226953733597,-11.265954800994225,907.9686449942341,868.6272976434051
0.17,11.857007405645668,6.098291003243576,72.61843079478899,-12.416067851049082,918.9596312550499,868.6272976434051
0.18,12.384771292167292,4.939151528196582,45.51758210824477,-12.349209241791495,928.7111415608662,868.6272976434051
0.19,12.756867095408719,3.8781593169770634,22.54709457135174,-12.15336753144503,906.7427627905264,868.6272976434051
0.2,13.035935445327448,2.667582431962702,9.882637143866438,-12.720690537409473,823.0012502851846,868.6272976434051
0.21,7.411504354967178,-11.08365377364704,20.329932330636787,-9.812264731941617,799.8365159098696,868.6272976434051
0.22,13.20357350791426,-1.8556466255411879,34.40046103926577,-9.440633147037378,806.496334249675,868.6272976434051
0.23,10.993720090808244,4.2544379119721,45.2621361522081,-10.301387894548332,823.3520251673765,868.6272976434051
0.24,11.775205140683072,6.2547839029505035,49.46572837468577,-11.06417137951338,839.0001342836341,868.6272976434051
0.25,12.709921377318329,4.029351853606762,48.03186818740351,-11.078652101661891,862.7926830383184,868.6272976434051
0.26,13.19290715598376,1.9300203499886281,40.69007914766602,-10.340383476657353,886.5245064842869,868.6272976434051
0.27,13.333149786431749,0.0699610631193173,29.243210054481104,-9.47371142478811,890.7971249799409,868.6272976434051
0.28,13.23465119178879,-1.619192888281468,19.484844775984328,-9.05656309656681,860.774156147839,868.6272976434051
0.29,12.887381481535508,-3.419528670321889,18.52998716491553,-8.183677571165934,826.8732311116721,868.6272976434051
0.3,12.125536465491301,-5.545190997776225,26.283747381998054,-6.7761231984473325,829.8546195440892,868.6272976434051
0.31,12.106591200447525,5.586432428932108,32.50823129227759,-8.09544466996534,851.8457694658202,868.6272976434051
0.32,12.881163193024397,3.442878530016885,31.95051550803043,-8.388602776393453,872.4653283351333,868.6272976434051
0.33,13.251808923052751,1.4721881824947598,26.179630716688987,-8.406979928144112,881.3899223883277,868.6272976434051
0.34,13.328757049981826,-0.34930399416202107,19.385996858870016,-8.321521689163815,856.744207431376,868.6272976434051
0.35000000000000003,13.141176472986412,-2.2554952191494824,19.31980824897015,-7.73858597212657,830.0985542283762,868.6272976434051
0.36,12.566022716790618,-4.457897582816347,26.08269649312167,-6.602087552785814,831.2213584391335,868.6272976434051
0.37,11.555302989199634,4.605196482302453,32.10614560769511,-7.688601985787705,853.8476649639872,868.6272976434051
0.38,12.51658948238885,4.5948629475894665,31.335399726190715,-8.199328782546935,874.1389515302357,868.6272976434051
0.39,13.055665775748036,2.7069113265378886,25.400100981348615,-8.438650649314301,882.7675514547075,868.6272976434051
0.4,13.29981853523536,0.9447775968912975,18.451355367874587,-8.657223711240661,855.2684047191287,868.6272976434051
0.41000000000000003,13.299742715294991,-0.9458443237317308,18.741135145675116,-8.401856411101496,826.8632436974548,868.6272976434051
0.42,12.937726518633735,-3.2238192112491557,26.235388774687607,-7.573121859414033,824.1129728560428,868.6272976434051
0.43,11.475641564072367,1.316434280135488,34.00543456343285,-7.815131997573689,844.3200747562887,868.6272976434051
0.44,12.109848249254586,5.5793685267961415,35.31563086193684,-8.540622216282527,864.871407652149,868.6272976434051
0.45,12.832441366715521,3.6202522491652473,30.823345866099025,-8.8002804030246,882.4705106173169,868.6272976434051
0.46,13.208604648948356,1.8194892155650813,22.851219606249618,-8.894560007838658,876.7016279790323,868.6272976434051
0.47000000000000003,13.333178991927937,0.06415408786081134,17.555785357313876,-8.893045178526819,842.7929996917944,868.6272976434051
0.48,13.188533276979744,-1.9596856328951564,21.057759265993468,-8.38288537309547,823.8421848437854,868.6272976434051
0.49,12.614277532854636,-4.319465256475214,29.295718788606074,-7.2794212627408665,828.9090355089342,868.6272976434051
0.5,11.520124782025674,6.713009964564009,35.34777686233736,-8.740039591979302,849.2920042437011,868.6272976434051
0.51,12.505107692668918,4.626019819729522,34.93879499797131,-9.143147898710252,868.8663031931186,868.6272976434051
0.52,13.062675376073097,2.6728804307546787,29.41875042628095,-9.186852819167957,883.2979735685573,868.6272976434051
0.53,13.305090838466697,0.867372790631169,21.527013890986442,-9.18693370775661,869.2817546400001,868.6272976434051
0.54,13.29975621838858,-0.945654434353254,18.178676122726888,-8.932389826918453,835.8717339322702,868.6272976434051
0.55,12.976083270601096,-3.0657855000316165,23.460883169415503,-8.144742141253767,825.6764753139096,868.6272976434051
0.56,11.906019982987118,-2.7509624269177815,31.220380302668058,-7.433131363718593,838.2959055837317,868.6272976434051
0.5700000000000001,12.022462206138503,5.765256306509626,34.51933704557882,-8.449341310852422,859.1959449034586,868.6272976434051
0.58,12.798291165603162,3.7391872135828876,31.665293917060673,-8.7425768126236,877.9391244295558,868.6272976434051
0.59,13.201170302318882,1.8726666619961332,24.620982713646736,-8.808623845461405,881.5074524019611,868.6272976434051
0.6,13.332898270101662,0.10771024509214389,18.030718897080433,-8.817901842565398,849.9827724276513,868.6272976434051
0.61,13.206349818936785,-1.8357838210546635,19.706775030539426,-8.339520946640265,824.5508732093398,868.6272976434051
0.62,12.673834620016988,-4.1414603465730035,27.817066628223817,-7.28109909474183,826.2811695655482,868.6272976434051
0.63,11.455693254731537,5.414865770192424,34.78953090853109,-8.48692582712338,847.091114743441,868.6272976434051
0.64,12.456630545054367,4.755011381878729,35.09710981254597,-8.941997168080288,867.34168183311,868.6272976434051
0.65,13.03963747991949,2.7830975854354447,29.930490798209934,-9.017951938171091,882.9959974809092,868.6272976434051
0.66,13.298115725199834,0.9684502759412477,21.99613962688847,-9.020372483366884,871.92823060742,868.6272976434051
0.67,13.307510401405255,-0.8294243149731617,17.954612507506265,-8.79503765871445,838.058502303974,868.6272976434051
0.68,13.01039895895841,-2.916727053824479,22.68588000008336,-8.044982867869816,826.7575210172797,868.6272976434051
0.6900000000000001,12.082786071207034,-3.7696879266352488,30.2549135805574,-7.094031277482896,837.5258224976648,868.6272976434051
0.7000000000000001,11.944901364559588,5.924281320862493,33.92516649390987,-8.239073099703848,858.9445612203643,868.6272976434051
0.71,12.749779686906288,3.9013966362226595,31.305268482456825,-8.583283349265757,877.7455275775894,868.6272976434051
0.72,13.176321187947025,2.040180808123644,24.414276184562,-8.701599457676028,880.6193891692768,868.6272976434051
0.73,13.330515104094518,0.27412558670373455,18.05334397199209,-8.752470302137763,849.8387926046156,868.6272976434051
0.74,13.227662666743203,-1.6753262824374744,19.752389055023787,-8.31414421283698,825.001291195754,868.6272976434051
0.75,12.723604735453108,-3.985932803464318,27.7314050764748,-7.294554946760631,826.3999178226571,868.6272976434051
0.76,11.40530937019452,4.960149910278769,34.69752553943928,-8.392673429100224,847.4216717899421,868.6272976434051
0.77,12.39660768890105,4.909368145215546,34.97684599762478,-8.884951199327764,867.5573678027467,868.6272976434051
0.78,13.002932305508995,2.949835459161792,29.806305660162586,-9.000371184084818,883.2414347003916,868.6272976434051
0.79,13.284049819272798,1.1453375820499714,21.84939118026608,-9.033419569457335,871.6199207276856,868.6272976434051
0.8,13.317538984292417,-0.6487936340851912,17.88773091119972,-8.853279848774685,837.7733383400052,868.6272976434051
0.81,13.04832571352352,-2.7420747348638503,22.680297265253298,-8.146828354050934,826.3828896828744,868.6272976434051
0.8200000000000001,12.209838576475644,-4.208201095378971,30.31122896920884,-7.0801168166010395,836.4942116503121,868.6272976434051
0.8300000000000001,11.873109388408299,6.066881507716172,34.24285854948616,-8.27253048973505,857.8914364534506,868.6272976434051
0.84,12.706668791404264,4.039597257565492,31.83072768284845,-8.632051292568791,876.941930864482,868.6272976434051
0.85,13.155226935010761,2.172045594858705,25.020431029161934,-8.74497041017489,882.7758867909565,868.6272976434051
0.86,13.326884379272173,0.41464505216999203,18.09150651374867,-8.831057667790501,852.1334286234313,868.6272976434051
0.87,13.24834719971222,-1.5030217076459922,19.210096922284905,-8.436125573280844,824.6504617704787,868.6272976434051
0.88,12.779188125869096,-3.8039622266032076,27.28903011831718,-7.462125611440468,824.4063598986437,868.6272976434051
0.89,11.392070392794464,3.8875208261283407,34.82826605208614,-8.307228122830727,845.4456656065655,868.6272976434051
0.9,12.344017157477683,5.040140691853182,35.60191249274372,-8.83604521279294,865.9253284695961,868.6272976434051
0.91,12.976632638574815,3.063459342190226,30.697162722927086,-8.960970022636577,882.7434187903515,868.6272976434051
0.92,13.274795237764534,1.248034123412408,22.65124884418073,-8.967919038439666,875.4074964398288,868.6272976434051
0.93,13.322929476625129,-0.5266193489143651,17.698344657035125,-8.818517666487805,840.8781090094632,868.6272976434051
0.9400000000000001,13.082784469628546,-2.5726500537430055,21.71264102248709,-8.154894846003769,824.8040865039361,868.6272976434051
0.9500000000000001,12.396678959714297,-4.909188176017957,29.73687534758017,-6.9042324207765295,833.7729206015191,868.6272976434051
0.96,11.801654606275289,6.2047341870509625,34.45713249753292,-8.186709794622276,855.5388495642497,868.6272976434051
0.97,12.66995011669206,4.153329004342489,32.59897208382319,-8.56722910279489,875.4406065385009,868.6272976434051
0.98,13.139695503485783,2.2641068555731345,25.979957169004976,-8.67100847640184,885.9449589674256,868.6272976434051
0.99,13.323407116074328,0.5143934263942658,18.191416721483083,-8.785795883986816,855.9311644582136,868.6272976434051
1.0,13.264385492223402,-1.3541991328719023,18.350081806055723,-8.428560175176177,824.5021542225448,868.6272976434051
1.01,12.82953040534014,-3.630554689882888,26.492623713161265,-7.498157947135345,822.5259186768086,868.6272976434051
1.02,11.422744579324524,2.5754867186417836,34.62948355663383,-8.043742983054385,844.1933518793122,868.6272976434051
1.03,12.290523011797587,5.169218690890499,35.79133200002383,-8.623591945862868,865.2401724302283,868.6272976434051
1.04,12.946883906112216,3.1868440343747872,31.02523560722286,-8.785717470132754,882.9777762434804,868.6272976434051
1.05,13.262459062561861,1.3729375046405135,22.848646030197788,-8.811514105257892,877.1634190746453,868.6272976434051
1.06,13.327738812014065,-0.38620711608106895,17.440171743578055,-8.69737088003041,842.0224816096506,868.6272976434051
1.07,13.113500024198894,-2.411201960249976,21.166552508495037,-8.074320441526227,823.6869310573916,868.6272976434051
1.08,12.457038652194528,-4.753942132116177,29.47730461119242,-6.8624075067785215,831.9433894115809,868.6272976434051
1.09,11.733598992606792,6.3324902256912035,34.707336124219665,-8.200635752040665,853.7793874669653,868.6272976434051
1.1,12.632332062699534,4.266376030716353,33.2479497988925,-8.59495041940151,874.0792256058613,868.6272976434051
1.11,13.122639936733894,2.3609529577300696,26.815457299847047,-8.688445917001614,886.4266380400062,868.6272976434051
1.12,13.319667341209016,0.6035227396774008,18.77030089142368,-8.846933144144364,859.2128768732334,868.6272976434051
1.1300000000000001,13.275378441254773,-1.2418152113924448,18.077641974320176,-8.518025961785552,826.3131391896525,868.6272976434051
1.1400000000000001,12.869585883696061,-3.4859054720328757,25.771840419245706,-7.62410869117093,822.4434249727651,868.6272976434051
1.1500000000000001,11.485272288727316,1.3060435042067828,34.03753746690426,-7.873537201856758,843.9117368591598,868.6272976434051
1.16,12.2294696491865,5.312047616259098,35.43747949155383,-8.505265582587747,864.9348581833913,868.6272976434051
1.17,12.909661855364583,3.33442777068606,30.856373049650443,-8.712450129706149,882.7808268056458,868.6272976434051
1.18,13.246010456972876,1.5234778474080155,22.779999774517382,-8.773069702671444,876.857278881111,868.6272976434051
1.19,13.331258305308882,-0.23522281970652825,17.44807288952566,-8.696676991073668,842.1876065535744,868.6272976434051
1.2,13.140131313123998,-2.261576187448899,21.121570826899553,-8.11101941053402,823.8269967944773,868.6272976434051
1.21,12.51096486805995,-4.6101557292511695,29.383802584158122,-6.934994682803204,831.2237180228193,868.6272976434051
1.22,11.662680293393661,6.462171937658799,34.82001636442228,-8.317266420632004,852.7962314436576,868.6272976434051
1.23,12.588462793451216,4.394130434531066,33.605188143072766,-8.721418885708617,872.9121745800132,868.6272976434051
1.24,13.100587224871841,2.4804016088735374,27.386271734721877,-8.811087476443916,885.8600096095539,868.6272976434051
1.25,13.314169784897201,0.7146052873497011,19.350955897868975,-8.942702533679125,861.4471611774244,868.6272976434051
1.26,13.286058105396409,-1.1218011400458496,18.06888508913135,-8.643888184393708,828.3054508575046,868.6272976434051
1.27,12.907997522783475,-3.3408648176173443,25.25754511393592,-7.786481343213657,822.7997123213793,868.6272976434051
1.28,11.564729669596709,0.2370335364219479,33.50405039079996,-7.781174025726516,842.2069580531642,868.6272976434051
1.29,12.167508699626374,5.452477402272674,35.42271924883029,-8.5092443715902,863.108284606862,868.6272976434051
1.3,12.8766545514821,3.459703071012467,31.320993413190745,-8.738124819521882,881.4060523499764,868.6272976434051
1.31,13.233115584413632,1.6316953475838583,23.479265778120308,-8.78915983441273,879.0505768688281,868.6272976434051
1.32,13.332758215722002,-0.1238391653523161,17.56281474633245,-8.74064469794529,844.9911755390009,868.6272976434051
1.33,13.16426795516334,-2.116560176899633,20.523057199546525,-8.191577443604908,823.6216961982944,868.6272976434051
1.34,12.56793584328052,-4.4525011417137765,28.852131714529946,-7.055092748528323,829.0148064951588,868.6272976434051
1.35,11.589285159417393,6.592893694841855,34.941598821156774,-8.504775381610852,850.1475007601696,868.6272976434051
1.36,12.549992682750752,4.502828160243328,34.38697609467746,-8.907837855862184,870.2176878193939,868.6272976434051
1.37,13.08564291069893,2.558071029399411,28.65417060950757,-8.9680620964948,884.314042752998,868.6272976434051
1.3800000000000001,13.311381519279633,0.7647874384156177,20.69523806723065,-9.019066680004288,866.4650450616052,868.6272976434051
1.3900000000000001,13.29143722680212,-1.056160131682927,18.091631325818792,-8.736817171382569,833.067327445433,868.6272976434051
1.4000000000000001,12.94087558219674,-3.211155079388403,24.083887772370414,-7.912478452058414,824.7633227377812,868.6272976434051
1.41,11.737744160221613,-1.503578981458289,32.00336425093469,-7.502256529734928,840.0637538707964,868.6272976434051
1.42,12.093505256468008,5.614704657375877,34.72012028323106,-8.405824750058827,861.0871053801914,868.6272976434051
1.43,12.837081312464488,3.6037648584435606,31.320727561213886,-8.678540456449127,879.6982171129473,868.6272976434051
1.44,13.217172764659113,1.7561668163734165,23.914265617788157,-8.749970056649666,879.773227903199,868.6272976434051
1.45,13.333331850424338,-0.0062884209143803105,17.792538391473432,-8.730773399048191,847.1405614069085,868.6272976434051
1.46,13.185458666823944,-1.9802670333202625,20.195663180690488,-8.215966854594067,824.272463414601,868.6272976434051
1.47,12.620030390240572,-4.302628351041038,28.36369940302027,-7.1170861536566,828.0184702959139,868.6272976434051
1.48,11.512537843144685,6.573700228893651,34.80008126188817,-8.592670923228951,848.8162874181334,868.6272976434051
1.49,12.502749388849358,4.63238982571682,34.64505752172657,-9.009316414813883,868.6694466177942,868.6272976434051
1.5,13.06227004408563,2.674860570788864,29.247609067977123,-9.072937687649816,883.2903921473002,868.6272976434051
1.51,13.30505874304013,0.8678649791466146,21.401580302892427,-9.092808175288138,868.9256655668454,868.6272976434051
1.52,13.299689997402936,-0.9465853108716775,18.145766775942533,-8.838017344670034,835.6534351714439,868.6272976434051
1.53,12.975050154903602,-3.070154923699082,23.481438557585935,-8.049242917616986,825.8740209712461,868.6272976434051
1.54,11.88988847307234,-2.6119949818429986,31.19176796548086,-7.373812440406766,838.734976536171,868.6272976434051
1.55,12.022340677504591,5.765509726970909,34.38653415276474,-8.391839197243037,859.7492609826473,868.6272976434051
1.56,12.796284017256244,3.7460503370203266,31.427363537533832,-8.693368197504858,878.4176432978898,868.6272976434051
1.57,13.199115755188362,1.8870932830456697,24.324104684501112,-8.776033821865886,880.5762760201192,868.6272976434051
1.58,13.332778548071891,0.12163044788114209,17.980742498153486,-8.788786805484525,848.977756929004,868.6272976434051
1.59,13.206487902336782,-1.8347901959651853,19.90875379853805,-8.310525050054764,824.6689843928721,868.6272976434051
1.6,12.671888858643047,-4.147410099324145,27.978793612308802,-7.250546326190138,826.8566796612164,868.6272976434051
1.61,11.452418978294464,5.646933386219153,34.78103983487779,-8.508986669060416,847.6672535200239,868.6272976434051
1.62,12.454257808016042,4.7612225561560555,34.947151825799466,-8.961642905735932,867.7397821901053,868.6272976434051
1.6300000000000001,13.036796168413488,2.796376841739521,29.720201919724772,-9.042755360882271,883.0915661425231,868.6272976434051
1.6400000000000001,13.296829491934293,0.9859529604419013,21.81378187299566,-9.055685184720582,871.0427528232939,868.6272976434051
1.6500000000000001,13.308343320917253,-0.815950874976482,18.00320524269661,-8.833678427622278,837.3765652061793,868.6272976434051
1.6600000000000001,13.01090021024075,-2.9144902636541614,22.90279960672078,-8.084070467821961,826.6776176977093,868.6272976434051
1.67,12.059049680036432,-3.584544066100568,30.473095466651106,-7.177007032904676,837.6706709751799,868.6272976434051
1.68,11.946503788700578,5.921049316155074,34.068871948200474,-8.303867240919637,858.9192682971841,868.6272976434051
1.69,12.750580059339368,3.898780056396491,31.419999106295215,-8.640777148948034,877.6303948141973,868.6272976434051
