t,iq,id,vq,vd,omega,r
0.0,0.0,0.0,0.0,0.0,0.0,282.84443755382694
0.01,0.0,0.0,73.539553763995,0.0,83.65408385597156,282.84443755382694
0.02,11.54296474642816,0.3287752105972922,108.04274530510457,-0.08548155475529597,170.9206884636351,282.84443755382694
0.03,11.781199146238926,-0.39044046572031976,112.14352284699727,-0.40506242600150744,231.2932659421046,282.84443755382694
0.04,13.190722598990673,-1.944894622917781,100.45085393548656,-1.804338944418244,309.06779229474364,282.84443755382694
0.05,13.21828510561804,1.7477747693492978,72.61414316078297,-2.994061368324347,441.42640383245975,282.84443755382694
0.06,11.593660364743085,6.585196817465895,18.540331905145674,-2.8915545894813213,511.1358148102879,282.84443755382694
0.07,11.0484073364059,3.225401276249499,-41.98625582256595,-3.6643069531315327,372.0382774737679,282.84443755382694
0.08,-12.041507638221645,-5.72537086802484,-56.5652293660066,-2.057658688699014,229.02805320955042,282.84443755382694
0.09,-10.35049462442137,-6.27310393095679,-31.962282077133732,-0.5070216868500953,99.71734785444905,282.84443755382694
0.1,-11.891002361854806,-1.6545900013188977,19.14882004612148,-0.44438329435459734,156.7299949988335,282.84443755382694
0.11,11.313767250204092,0.9719849478179485,47.04681470475438,-0.7136452808004531,253.22371036330344,282.84443755382694
0.12,12.985566702881703,3.0253652974124825,46.31107241567605,-1.4353027820769568,357.6109431648227,282.84443755382694
0.13,11.437389159757842,5.56196676981164,19.36813925048311,-2.5784719599222345,428.94228720979936,282.84443755382694
0.14,11.39350705076609,2.8572543371184977,-20.71757454556137,-3.2657384198749275,320.1052121545465,282.84443755382694
0.15,-9.611166836743259,-6.869023687004201,-26.33155899712783,-1.4512197178826505,200.66541337417817,282.84443755382694
0.16,-11.289829354983901,-4.5004197055893105,-1.511718707038003,-0.27253587403085505,177.75390373406088,282.84443755382694
0.17,-1.3197542683491341,-0.8807009025699397,25.220267660525618,-0.08855783641856373,266.805691706975,282.84443755382694
0.18,11.900249587806423,2.1586668901691652,25.17593782487815,-0.6432342657642606,360.4742032115545,282.84443755382694
0.19,12.315053230046125,3.0931425392071423,1.5522926939248078,-1.417577318650901,359.7817297791111,282.84443755382694
0.2,0.9492429410273081,-1.4742639768456842,-17.798758260438444,-1.0033372592789516,268.2141775392635,282.84443755382694
0.21,-10.37986478932207,-5.06546984287319,-10.517260459765101,0.2989422600996203,207.37340970377923,282.84443755382694
0.22,-7.843008747460165,-2.2703124264280037,10.894287807548091,0.8385687925421685,237.5208265246756,282.84443755382694
0.23,7.326456863349396,1.7959516057539666,19.940407524681515,0.3489182507818573,312.24479869616493,282.84443755382694
0.24,11.231021824910087,2.7486024304787495,8.99627641153899,-0.3477588650850782,347.82608989383476,282.84443755382694
0.25,5.761767434384787,0.9975110030022412,-8.990698900130607,-0.5796257015608735,302.43373492420085,282.84443755382694
0.26,-6.476238047426729,-3.4559105157899337,-11.692660126352948,0.32888614257453214,245.33696840527037,282.84443755382694
0.27,-8.647714566003456,-2.853818915971296,0.43881823266213027,1.0363199555691702,237.19924043448145,282.84443755382694
0.28,-0.2402027575090659,0.1712166479566453,11.907470363498712,0.9632654379407296,282.23435896559,282.84443755382694
0.29,7.820482963150348,2.2067012525335388,9.573911227252683,0.3912352787615757,318.8027595211214,282.84443755382694
0.3,6.167846543773646,1.625087221876306,-1.3067885418758944,-0.009220386400928343,309.91218020084,282.84443755382694
0.31,-1.350745036525884,-1.1339985104543888,-7.57194623549188,0.3018700985359758,267.3345605962729,282.84443755382694
0.32,-5.793110335068243,-2.25678168860379,-1.775999563305222,0.8772933524684173,250.21364140411217,282.84443755382694
0.33,-1.7762223400752997,-0.4071402595969998,6.956795371113974,0.9605820030775994,271.7811214197636,282.84443755382694
0.34,4.358358777380885,1.3544633652899472,8.356014098953505,0.6043501255062431,303.09028422665585,282.84443755382694
0.35000000000000003,5.279225092739562,1.4335824051654205,1.6524458663388752,0.24516333381613323,305.21160643775784,282.84443755382694
0.36,0.6466632703662554,-0.32219888129736884,-4.075899776122701,0.3432708670051033,282.4027553820209,282.84443755382694
0.37,-3.309335228085846,-1.4149035064689364,-2.870496930607847,0.7079237898740531,264.05811542009445,282.84443755382694
0.38,-2.5498393678062903,-0.7872379904691847,2.6393948857933154,0.8984566323313518,268.42845444539387,282.84443755382694
0.39,1.262615546314113,0.4006696369880059,5.845908836928856,0.7864101468097784,287.5834502351443,282.84443755382694
0.4,3.546701892740312,0.9970571974302103,3.5600893720526674,0.5311819718478036,298.289686673372,282.84443755382694
0.41000000000000003,1.9669709395768518,0.3961089912145671,-0.884230697578452,0.43816420610631823,289.7959689035036,282.84443755382694
0.42,-1.1500862743660878,-0.6739711083563047,-2.2184842165679806,0.6173577841911031,272.0055055569646,282.84443755382694
0.43,-2.098206898417855,-0.8288986659402953,1.20318634695798,0.8261317262520167,270.22822861673075,282.84443755382694
0.44,0.31179740196966066,0.11710617522165659,4.272961957138075,0.787395134034983,282.74221703678046,282.84443755382694
0.45,2.442561432640384,0.7207515418363,3.541429203732394,0.6011707949097616,293.28849964326207,282.84443755382694
0.46,1.8980386071067024,0.36838281544489077,0.35588643178745494,0.512598778312453,288.6891470039887,282.84443755382694
0.47000000000000003,-0.26702408770103253,-0.3593286494822563,-0.9708907554869156,0.6097080553322886,279.38948499680447,282.84443755382694
0.48,-1.1948823097444436,-0.5041297103942946,0.29384316349708817,0.7371884935399826,274.9505355019336,282.84443755382694
0.49,-0.3570244523384633,-0.15266159823734132,2.3925857059296907,0.7718392119777484,278.8060943552838,282.84443755382694
0.5,1.09466705337504,0.23259614276726276,3.0754322386310795,0.7098375988758866,286.1844202042084,282.84443755382694
0.51,1.620470413385386,0.39906062315960095,1.7562776806000233,0.608407798282063,289.08080330811254,282.84443755382694
0.52,0.6921512798391147,0.06421132332109186,0.004467782365265682,0.5957034604501751,283.49672046312986,282.84443755382694
0.53,-0.5648196517067248,-0.3793662040693583,0.051012505731500554,0.694980786741419,276.5127052745816,282.84443755382694
0.54,-0.5030097897370832,-0.2705063369536717,1.8289200762428899,0.7615187723086801,278.51149414375004,282.84443755382694
0.55,0.7477081651916639,0.20045653600287616,2.6927338192232253,0.7066950095783956,284.97111521224036,282.84443755382694
0.56,1.3228012670439,0.32068836250311955,1.760016946155468,0.6253206006876133,286.7325496731647,282.84443755382694
0.5700000000000001,0.6557536811099749,-0.019458661545254274,0.6131066272936222,0.6335867363144106,283.4859870403687,282.84443755382694
0.58,-0.09196615667464225,-0.17927167960741094,0.5156536195326521,0.6800027863968848,280.64253661510554,282.84443755382694
0.59,-0.17637993784817152,-0.13574636009525232,1.1395024807394103,0.7135041232255764,279.8909302906622,282.84443755382694
0.6,0.21948721596695706,-0.03237855415454945,1.8265648842451379,0.7205650837048067,281.18381750875284,282.84443755382694
0.61,0.727776933697327,0.10607162095845477,2.04176389273112,0.6926626767140629,284.5141526645452,282.84443755382694
0.62,0.8999436768671975,0.1867094828007389,1.3643241768451377,0.6451789273954555,285.5371951833215,282.84443755382694
0.63,0.40155069853513925,-0.0024350801677518463,0.5855005994332689,0.6476791430670783,281.7266847717538,282.84443755382694
0.64,-0.16976280631729923,-0.24886129077204422,0.9511977356950763,0.7123587278661322,279.44772500859034,282.84443755382694
0.65,0.13521294706943318,-0.047550598370531674,1.7863124753346344,0.7222332705347501,281.8473834320573,282.84443755382694
0.66,0.7101144256658138,0.16289320138277746,1.8283018003399527,0.6794055321915226,284.52195514065744,282.84443755382694
0.67,0.7048708630308672,0.0900030787855721,1.206011406414958,0.6576336637211015,283.2272906321962,282.84443755382694
0.68,0.29498812543954767,-0.08025789237486028,1.0535965779232876,0.6794007465264209,282.25226300626247,282.84443755382694
0.6900000000000001,0.2122873841036396,-0.03196641058502395,1.1591456524611907,0.6869094343547785,282.1818633466304,282.84443755382694
0.7000000000000001,0.25853452631875434,-0.006964644805462314,1.2603970978548071,0.6884005778983484,281.5602042036417,282.84443755382694
0.71,0.29467454735540727,-0.07116171141053844,1.5136419897817799,0.7068329764170338,281.76627696563656,282.84443755382694
0.72,0.5255722667459576,0.057885410015463504,1.6474193653290299,0.6910711526989078,283.72387660988085,282.84443755382694
0.73,0.6170399030845075,0.10891024314911518,1.2528089527385966,0.6633333435802926,283.9578673863347,282.84443755382694
0.74,0.3072463145779163,-0.036685277788563064,0.8983979440876969,0.6739606182368101,281.1321650674426,282.84443755382694
0.75,0.07388086358282978,-0.13687373651746226,1.3385865274869455,0.7091809369534647,281.1436421353111,282.84443755382694
0.76,0.4092117805786434,0.04855955194578446,1.6580143571226011,0.6951867160823862,283.22408817647636,282.84443755382694
0.77,0.6093312844075065,0.10684639566932552,1.387963224908428,0.6678922487278194,283.4552945375847,282.84443755382694
0.78,0.38662874101878775,-0.05199669234984289,1.1385067555370993,0.6824798526954717,281.963302289005,282.84443755382694
0.79,0.2636510595785998,-0.04487907997125651,1.3090275061481282,0.6936284465645001,282.3847134432138,282.84443755382694
0.8,0.3830142916085172,0.04045237942465893,1.3227972170368965,0.6826620371143761,282.8931113090292,282.84443755382694
0.81,0.3580074766244161,0.0007220013362492506,1.2162929985719073,0.6828788405611977,281.58476961886464,282.84443755382694
0.8200000000000001,0.2886444754123486,-0.07077061409335318,1.4728259103731602,0.7012864202388321,282.1377303894994,282.84443755382694
0.8300000000000001,0.503270676209698,0.06621337537229513,1.5160091626883032,0.6833632365011019,283.67017787065043,282.84443755382694
0.84,0.5138839941451773,0.07024522056346302,1.165672476955269,0.6657616129083245,283.00287566633847,282.84443755382694
0.85,0.23393513619444942,-0.09047846292534342,1.0770516754014006,0.6899884654745484,281.07448529671973,282.84443755382694
0.86,0.21744770690113285,-0.05683034679501027,1.4846265909420395,0.7038595710119976,282.1243555571604,282.84443755382694
0.87,0.5069063610582555,0.08453902283165786,1.524527210698128,0.6813111216078165,283.5861986012294,282.84443755382694
0.88,0.5022437335977317,0.04780077654197286,1.1989542112819944,0.66972830993522,282.3289987793266,282.84443755382694
0.89,0.2713608054692611,-0.0917520231414963,1.2748545310400803,0.6940618437174289,281.94005638509947,282.84443755382694
0.9,0.3653087606998769,0.015491925919829785,1.412572577436943,0.6891164227468579,282.9840684410348,282.84443755382694
0.91,0.4442394541959191,0.05551541235812654,1.2553755645916775,0.6748373347929433,282.8136336015429,282.84443755382694
0.92,0.298251691810985,-0.054893169314803744,1.1916778557287078,0.6896647129383736,281.34772836449025,282.84443755382694
0.93,0.29398789217873594,-0.039488151382196565,1.5070598703850437,0.6993827006045965,282.44890874565306,282.84443755382694
0.9400000000000001,0.524469203242547,0.084231555828998,1.4615081546956104,0.6770876145752351,283.6903173362699,282.84443755382694
0.9500000000000001,0.46182976541762844,0.0366088434605461,1.1227930762025395,0.6684116308337831,282.1637541556884,282.84443755382694
0.96,0.2119576781164807,-0.11441662399036868,1.2577388588868739,0.6985260415058845,281.5596348075256,282.84443755382694
0.97,0.35215072818760523,0.011337421746383448,1.495541126396228,0.6944341456119211,282.9198184648013,282.84443755382694
0.98,0.5045308158156946,0.07865483849377192,1.3354375572496688,0.6740972618210042,283.2356030859185,282.84443755382694
0.99,0.3567169577320447,-0.030225605458001903,1.1467872271634276,0.6827424676250223,281.55233720469795,282.84443755382694
1.0,0.2592860415088516,-0.06085264970491394,1.422797772042899,0.69826190049372,282.21952897598845,282.84443755382694
1.01,0.46705925174190144,0.0640330191143928,1.4535104537518087,0.6810047890269287,283.4370551111462,282.84443755382694
1.02,0.4592459044797479,0.042963587465802755,1.1784474604230977,0.6704745864769639,282.28541024410646,282.84443755382694
1.03,0.24439364546007014,-0.1054540508706593,1.2707708477487936,0.6983222755779933,281.62846305919686,282.84443755382694
1.04,0.3598590320145071,0.0090945706247446,1.4902145313862372,0.694903146706853,282.9455947834006,282.84443755382694
1.05,0.5032924561467718,0.0788336472678404,1.324496458472762,0.6744973441234621,283.3128549433058,282.84443755382694
1.06,0.35170333198129516,-0.024168856462181587,1.117309567750323,0.6815695832763076,281.4788422078888,282.84443755382694
1.07,0.2342332866222203,-0.0745177475890071,1.4196649103870582,0.7007025090848277,282.04118052138426,282.84443755382694
1.08,0.4655945353153058,0.06301637495518185,1.4961435390470146,0.6835730741205902,283.4602840414952,282.84443755382694
1.09,0.49198785486089475,0.05812075907576343,1.2047299850181632,0.6690918405104436,282.5844998908161,282.84443755382694
1.1,0.25825482420063456,-0.1018014634054683,1.216245866534102,0.696141428586623,281.576771691068,282.84443755382694
1.11,0.3202293378088682,-0.009035871022032765,1.4625625346330127,0.6974727404182968,282.73157512674976,282.84443755382694
1.12,0.4861672318077891,0.07559164693438092,1.3560289201535527,0.6777285535051374,283.31649745652396,282.84443755382694
1.1300000000000001,0.3763455155396739,-0.007505680101684814,1.1391765594593168,0.6804359468009191,281.6034551414227,282.84443755382694
1.1400000000000001,0.24436967731923376,-0.07778583056102775,1.4067799247637771,0.7005852059457695,282.0291032553055,282.84443755382694
1.1500000000000001,0.45709738825453006,0.05739188815270321,1.4899553940823298,0.6848854567204564,283.43528946188127,282.84443755382694
1.16,0.49065179263418573,0.06143321058933576,1.2051820628006458,0.6694867408487561,282.71230375132643,282.84443755382694
1.17,0.25780813184225543,-0.09518578589402832,1.1833217741786757,0.6948493772870967,281.4350733273514,282.84443755382694
1.18,0.29528434990107827,-0.022101711289092198,1.474239285381451,0.6996439643633204,282.578715017452,282.84443755382694
1.19,0.49648048213765034,0.07980655522824923,1.403101420717401,0.6786732428910848,283.44007404502366,282.84443755382694
1.2,0.41221525778687856,0.010106136647855729,1.1433675454392902,0.6768437129149248,281.79191769449324,282.84443755382694
1.21,0.2419536830216943,-0.08674412640451638,1.3641932687702478,0.6994982471465776,281.9420777725353,282.84443755382694
1.22,0.4276645660119468,0.044466279232334927,1.4795083629798471,0.6870695732821255,283.2981744755081,282.84443755382694
1.23,0.48629056359146283,0.06405832398265582,1.2303542646561618,0.6708590718389582,282.8297249397986,282.84443755382694
1.24,0.277267271002887,-0.07862629156063639,1.1714903286955025,0.6919424908845502,281.3935338882639,282.84443755382694
1.25,0.2848448827792302,-0.03234932429384596,1.4772911587890365,0.6995670522853437,282.4835769143328,282.84443755382694
1.26,0.5008100053668147,0.07998538949071984,1.4292437358343053,0.678447357774818,283.5122786642595,282.84443755382694
1.27,0.4338297060874809,0.021835921101384576,1.1442088171978209,0.6735698721833652,281.929170842034,282.84443755382694
1.28,0.23678422445005232,-0.09596437578783504,1.3316309720721682,0.6987389690992163,281.83298579887287,282.84443755382694
1.29,0.40485689556070387,0.03351514408652402,1.4825608106410135,0.6890653878788416,283.1864666491258,282.84443755382694
1.3,0.4913178552878309,0.06881469820750495,1.2598246548945378,0.6715087177857556,282.98001267103444,282.84443755382694
1.31,0.30007936841986776,-0.06235451757996806,1.1548879581372868,0.6884090393386223,281.39284014538407,282.84443755382694
1.32,0.2705765047246726,-0.044408749674091294,1.4663099379602904,0.6993317690780865,282.3635680062385,282.84443755382694
1.33,0.49507097526022265,0.07659585336965535,1.450807357728445,0.6789727597052351,283.52540589331323,282.84443755382694
1.34,0.4522057096429657,0.03264264003753038,1.156324119231554,0.6712516318291736,282.08580732618526,282.84443755382694
1.35,0.23901520758022793,-0.10172998057981125,1.3027557649388228,0.6980278531802998,281.7551215135742,282.84443755382694
1.36,0.38416486762637075,0.02291445298463525,1.480898919621068,0.6910527955984964,283.0802362606565,282.84443755382694
1.37,0.49287168688879746,0.07197786644210391,1.2843931055280362,0.6725676948533957,283.10063360502085,282.84443755382694
1.3800000000000001,0.3196186304134228,-0.04737529337641187,1.1419679922473132,0.6856050497956839,281.40182279266276,282.84443755382694
1.3900000000000001,0.2582226872269207,-0.05553373615592763,1.4556680782870735,0.699570068262461,282.2502530254436,282.84443755382694
1.4000000000000001,0.4891673429276518,0.07310007070970435,1.4711286257661753,0.6800087125163786,283.531390635227,282.84443755382694
1.41,0.4696231118001233,0.042951697467520755,1.1693686436795665,0.6695722718819203,282.2655357623379,282.84443755382694
1.42,0.24183413970099532,-0.10573945026526821,1.2685719950764613,0.6974940459255652,281.6731830973291,282.84443755382694
1.43,0.3592838270183073,0.010923681205640828,1.4763136822232543,0.6935964943094459,282.94958899060686,282.84443755382694
1.44,0.49214717529791785,0.07438073912190954,1.3128963367882214,0.6743667389498059,283.20182903840924,282.84443755382694
1.45,0.34198179845623455,-0.031569140800498725,1.1370322693189785,0.6833185229491546,281.45762096546906,282.84443755382694
1.46,0.2507376598288974,-0.06489942851066566,1.439406523566898,0.6998766829539227,282.15825464459084,282.84443755382694
1.47,0.47892936062018987,0.06793963654238491,1.4819316569217436,0.681563383167796,283.50946683734895,282.84443755382694
1.48,0.4802708341088675,0.051031305613555955,1.1820810908515547,0.6689746400736952,282.4371700965066,282.84443755382694
1.49,0.24516547670749053,-0.10646983091796637,1.235680606987209,0.697167109168502,281.58415895283656,282.84443755382694
1.5,0.33485176338034495,-0.0010166306303446837,1.474670564959688,0.696366734823212,282.8159996669025,282.84443755382694
1.51,0.49327842838694425,0.07701639478554989,1.3445577558033395,0.6763323058726657,283.3018252506379,282.84443755382694
1.52,0.3666781842980558,-0.015558889362969924,1.1349490321296252,0.6811477810548932,281.55286527498,282.84443755382694
1.53,0.24462308848524544,-0.07385192501557201,1.4153964804347599,0.7001936926653122,282.068731216194,282.84443755382694
1.54,0.4628856729606742,0.06066976320828149,1.486260361345928,0.6836810349810032,283.45286553602523,282.84443755382694
1.55,0.4862740543597698,0.05758185914215813,1.1985096251941092,0.6693164492361249,282.60218340870415,282.84443755382694
1.56,0.25242757536043986,-0.102589358911889,1.2068115536978998,0.6965655011446374,281.50166558552985,282.84443755382694
1.57,0.3128167806169126,-0.012660087821374205,1.4747016367971213,0.6988312303890758,282.6869353911277,282.84443755382694
1.58,0.49541552388529303,0.07924706336522677,1.3765446110119473,0.6781003930359032,283.393907001055,282.84443755382694
1.59,0.39176435862167863,-0.00018634547188511874,1.1352029551028675,0.6789413134922456,281.67876875651734,282.84443755382694
1.6,0.23957964453636504,-0.08251755339800182,1.3853984728824045,0.7003940139210072,281.97834969748243,282.84443755382694
1.61,0.442286202542033,0.05159700731789332,1.4863260113433152,0.686153616484375,283.36744251221717,282.84443755382694
1.62,0.4892042136451645,0.06292332143704663,1.2189136100760878,0.6703095229839218,282.76332212997465,282.84443755382694
1.6300000000000001,0.268045977444292,-0.08767802687030636,1.180433757862519,0.6937350431845719,281.4306227450217,282.84443755382694
1.6400000000000001,0.2924784966822409,-0.025683301299784855,1.4738505045504156,0.6995359212538129,282.5491344950773,282.84443755382694
