t,iq,id,vq,vd,omega,r
0.0,0.0,0.0,0.0,0.0,0.0,2026.1224225640965
0.01,0.0,0.0,526.7918298666651,0.0,35.14271110422189,2026.1224225640965
0.02,11.55113026792138,-0.16990379989387444,896.4122825145412,0.044174987972407355,52.98663447854441,2026.1224225640965
0.03,11.934625410302468,-5.944955348321831,1169.3917276129523,-0.665705441832451,57.19004073191022,2026.1224225640965
0.04,12.25520148551552,-5.252410334998202,1373.3286262192776,-2.7600751567511232,65.42128686856809,2026.1224225640965
0.05,12.564034626618632,-4.463497695631283,1524.2984650302174,-4.113517271048113,78.03450389424327,2026.1224225640965
0.06,12.860467978072265,-3.519394999535514,1634.4400357178083,-4.892828847741932,95.60173124695902,2026.1224225640965
0.07,13.124193647600862,-2.352300762668522,1712.717122462361,-5.204854387229297,118.84202631631574,2026.1224225640965
0.08,13.303853658120815,-0.8861465009145668,1765.6722941319479,-5.108146165411983,148.82155370205956,2026.1224225640965
0.09,13.299011146581789,0.9560754681880717,1797.9372503739548,-4.620238611345772,189.36894438066145,2026.1224225640965
0.1,12.931274156622095,3.2496040472733254,1811.986098938232,-3.726869975205669,243.55757631734824,2026.1224225640965
0.11,11.891327797682383,6.03109450977548,1808.8852314541366,-2.380978585109147,313.8528484613868,2026.1224225640965
0.12,9.693249075574418,9.155255328861855,1788.7618295917764,-0.48713267337289845,330.4217057867559,2026.1224225640965
0.13,13.31850083726833,0.6287393939149443,1769.6301700264087,-2.7274525622948667,367.7722116016015,2026.1224225640965
0.14,12.232947544415799,5.304033573927416,1746.380394351467,-3.0411071206541624,433.03603861771427,2026.1224225640965
0.15,9.059399741813866,9.782895997392622,1712.5109075492567,-1.588922819716979,452.0277287008427,2026.1224225640965
0.16,12.95402425702363,3.1576943053787154,1682.2406467138544,-3.687397066663883,504.78762510098517,2026.1224225640965
0.17,9.887770811035454,8.94481783862662,1646.8177198230828,-3.1650069117598165,516.8751757401814,2026.1224225640965
0.18,13.00464613032544,2.9422706882252117,1616.6360907127203,-5.5036884582771455,568.0333114020842,2026.1224225640965
0.19,9.425896254548704,9.4302840665731,1581.9698655817401,-4.784855081199486,583.1263284354751,2026.1224225640965
0.2,12.571774265911001,4.441651673055381,1551.6289784178332,-6.717922051181813,641.3452722299149,2026.1224225640965
0.21,7.473510325231303,11.041939195469194,1515.0595015766214,-5.199938208644568,671.7226604854885,2026.1224225640965
0.22,10.909572380594083,7.665442469313593,1479.8086521116213,-6.353317426166876,674.0337700727771,2026.1224225640965
0.23,12.85298294400633,3.5466332230525444,1451.8788137290196,-8.979605637743335,726.5683797431881,2026.1224225640965
0.24,7.232120599382281,11.201527101862862,1419.232243145292,-7.4836550087297935,758.5077115271561,2026.1224225640965
0.25,9.991651342314714,8.828628502287224,1386.473079056007,-8.193631362943213,768.2728483937285,2026.1224225640965
0.26,11.867065107405669,6.0786958728309965,1358.8190163922575,-10.180623946355286,824.6621904444008,2026.1224225640965
0.27,3.5072502187336925,12.863785355834034,1325.242451562257,-7.272047669856406,873.9278132933262,2026.1224225640965
0.28,5.534363822012917,12.130482054039415,1287.8203666791696,-6.442608298245145,914.6758587843453,2026.1224225640965
0.29,6.892530964362858,11.413623205760604,1249.5462136048643,-6.9147886186186325,947.4615989973936,2026.1224225640965
0.3,7.750386291995564,10.849391231890614,1212.5492854434744,-8.050174137375201,974.3272798049964,2026.1224225640965
0.31,8.240655273105611,10.481859493792808,1177.989651397264,-9.426821640337941,997.5892346892232,2026.1224225640965
0.32,8.446197264455458,10.316953501285296,1146.1980417740426,-10.785117783715654,1019.195273699277,2026.1224225640965
0.33,8.40820284483144,10.34794195470511,1116.957292862027,-11.969820498447463,1040.8984708973703,2026.1224225640965
0.34,8.1332310129987,10.565430945634631,1089.6757767755357,-12.885545772019988,1064.2301520586207,2026.1224225640965
0.35000000000000003,7.59674493205749,10.957519984697111,1063.5326902886127,-13.463981735152094,1090.570210698722,2026.1224225640965
0.36,6.743067325077424,11.502557142968293,1037.5696579223538,-13.639204421619208,1120.6121541183286,2026.1224225640965
0.37,5.4429436693115125,12.055136190633148,1010.9064806523401,-13.301746573226353,1153.7348195946659,2026.1224225640965
0.38,3.5811110336701617,12.284683744334405,983.0293109971241,-12.255131111990114,1187.7271652007328,2026.1224225640965
0.39,1.157018752116226,12.210110770203038,954.0366614415783,-10.341906831319907,1218.6744619548374,2026.1224225640965
0.4,-2.1758784117845837,11.201649533458404,924.9711190049458,-7.305118685394253,1217.2087575232276,2026.1224225640965
0.41000000000000003,8.340048571488335,7.723721374902653,901.096131267309,-10.614184807351736,1232.87917707,2026.1224225640965
0.42,6.315672096746991,9.163862205776976,880.2663150902778,-11.814099263386373,1258.7682310648663,2026.1224225640965
0.43,2.6563968645551843,11.13018867727975,859.1469175857183,-11.380847031051578,1286.7100222836095,2026.1224225640965
0.44,-2.0255690951603564,10.102849367002907,837.1545971666843,-8.76870364031888,1280.8976947359458,2026.1224225640965
0.45,8.001673883907632,6.459309303668469,819.2527371524986,-11.796399944141612,1295.3375531471065,2026.1224225640965
0.46,5.344931976295417,8.768730190591231,803.5502407557099,-12.506931842261253,1320.1802150088977,2026.1224225640965
0.47000000000000003,-0.4152182948869343,9.972395620167305,787.0087217826289,-10.97040992039124,1340.9425510124518,2026.1224225640965
0.48,-4.623891433540592,8.022146594060986,769.7973311073074,-6.843473809898502,1345.1358950381293,2026.1224225640965
0.49,5.8110070637985185,7.2636579957279634,753.7169656480539,-9.033887688234419,1366.7898387826551,2026.1224225640965
0.5,-1.1984371617213792,9.107539875085294,738.2436075735991,-8.373670940013556,1383.1768243005672,2026.1224225640965
0.51,-5.381992401817941,6.708587319572585,722.8183582786558,-4.396738506416022,1388.968577357448,2026.1224225640965
0.52,4.055809141838266,8.119853216021449,708.0851158262533,-6.887948370939311,1409.3173554678322,2026.1224225640965
0.53,-3.4956540936804945,7.598169652649828,693.8469190245398,-5.44812591817618,1404.0646875493671,2026.1224225640965
0.54,6.729855725495826,4.998701716251934,681.4503337702456,-8.620261928568167,1420.3099947303706,2026.1224225640965
0.55,-1.1505489974935807,8.364761179542246,670.7445919502309,-8.653741186170013,1433.7896299087643,2026.1224225640965
0.56,-5.675252422497367,5.526176338257126,659.7736027499401,-4.5768727936615665,1438.129095285886,2026.1224225640965
0.5700000000000001,1.795099845836273,7.954473446946815,649.13640235166,-6.855678126345239,1454.4992645397333,2026.1224225640965
0.58,-4.853618193389854,5.989391627400455,638.5785274525683,-4.464324292138966,1453.302768475032,2026.1224225640965
0.59,5.102445485788559,5.97256428930557,628.4032593997897,-7.2534439445330365,1469.8055319903915,2026.1224225640965
0.6,-4.128322758434056,6.3294355535538465,619.2365758251141,-5.737475174361462,1464.1667887420283,2026.1224225640965
0.61,6.1883036196869075,4.485332488578233,610.6830994092625,-8.539904050965106,1479.282903910921,2026.1224225640965
0.62,-3.5053818497470894,6.592136527178089,603.5193075066713,-7.4418433947276235,1470.071353165308,2026.1224225640965
0.63,6.650164300647745,3.69971909069237,597.0923773774894,-10.140431315568255,1483.6711006352375,2026.1224225640965
0.64,-2.840976538503313,6.886571814808462,592.1004648954014,-9.245228800404831,1479.2513214107767,2026.1224225640965
0.65,-6.102160633119755,3.570774820090269,589.3192554762649,-8.19165084083644,1486.4496384201507,2026.1224225640965
0.66,-2.296193429918861,7.041433362178571,585.3670547271518,-8.209716047226014,1492.5076289066794,2026.1224225640965
0.67,-6.3804928100931395,3.452905377605597,581.1477440696935,-3.3829216896709693,1498.0155930774067,2026.1224225640965
0.68,-2.1727967997893,6.937402033850577,576.317085157264,-4.819509029627985,1503.9306148581388,2026.1224225640965
0.6900000000000001,-6.3681820869848735,3.2540365453134124,571.5666764697062,-0.9167313957785882,1508.7348310818336,2026.1224225640965
0.7000000000000001,-2.3142932691360603,6.742305646505721,566.4923289379125,-2.9672159296373506,1513.4593215647255,2026.1224225640965
0.71,-6.436823906336993,2.9228494291973166,561.8240642235877,0.5982436175320339,1518.2658095558409,2026.1224225640965
0.72,-2.7577051660589307,6.418546889924036,556.9253804299753,-1.6176775055025583,1519.9668297188734,2026.1224225640965
0.73,-6.552079131953704,2.5169438924290857,552.9639817975286,1.502702947925897,1525.3763961214459,2026.1224225640965
0.74,-3.3101698250719154,6.037321780911496,548.6491940074774,-0.5631938282166988,1518.894536059331,2026.1224225640965
0.75,-6.668536972731092,2.3051163444207887,546.9878268492917,-1.1511692034216934,1525.2385743130387,2026.1224225640965
0.76,-3.7681486671664364,5.759364983650308,544.3093655470934,-2.156243088456184,1514.7050295850886,2026.1224225640965
0.77,6.444224700175202,3.141895489130775,541.5687271166267,-6.081758229268708,1526.7607619965945,2026.1224225640965
0.78,-4.0905905621165,5.575127896027923,540.0120358976213,-5.534847807033862,1517.5564191048545,2026.1224225640965
0.79,6.13766061527731,3.553009118324749,537.8169320456504,-8.483360271908044,1529.8868453820626,2026.1224225640965
0.8,-4.476424395935526,5.2362161601661485,536.490030121342,-6.9569887382604945,1522.237985614879,2026.1224225640965
0.81,5.7792045731283475,3.961302612736979,534.2104806253874,-9.370927898063968,1534.6137857563053,2026.1224225640965
0.8200000000000001,-4.880152821105704,4.811037120292995,532.664770143757,-7.16027422106321,1528.5642763390515,2026.1224225640965
0.8300000000000001,4.767496777786052,4.866216091060144,530.1506511013863,-9.396941292504888,1540.3153053365133,2026.1224225640965
0.84,-5.354298707896512,4.228672838097218,528.2423069923877,-6.5835937369715465,1536.34433866057,2026.1224225640965
0.85,2.3244071385715532,5.758070484496047,525.659027669443,-8.729786946612657,1546.2839824973184,2026.1224225640965
0.86,-5.813901038525166,3.5193215398076862,523.3700813620984,-5.346706502783802,1544.6325961713617,2026.1224225640965
0.87,-0.8044929169742558,6.641343129541278,520.8770103730822,-7.437239852002473,1551.1546074752812,2026.1224225640965
0.88,-6.233303045532711,2.6834401525678957,518.4731108100545,-3.4964187771796023,1552.1649513697787,2026.1224225640965
0.89,-2.5642467886849314,6.082826396765334,515.8761443058403,-5.17366113039568,1553.4480479702513,2026.1224225640965
0.9,-6.552962772285088,1.7835468751234769,513.9544201517915,-0.8238693435274721,1557.1816116965151,2026.1224225640965
0.91,-3.905894260272376,5.255577520938461,511.61250725904256,-2.103788843233581,1546.122244572918,2026.1224225640965
0.92,5.809726942805927,2.7603217204263517,509.320773259858,-5.45502498424777,1556.526042150726,2026.1224225640965
0.93,-4.824324794893404,4.575427252371437,508.56976052897573,-4.580988452733266,1548.7850967862967,2026.1224225640965
0.9400000000000001,4.943942006979001,4.221883546544937,506.91472456356524,-7.504597012537293,1559.211641760039,2026.1224225640965
0.9500000000000001,-5.536984561948726,3.7388937828354556,506.1623978632601,-5.088797195241101,1555.0280969395772,2026.1224225640965
0.96,1.0822099396685017,5.768125192642914,504.785149292276,-7.50281827025786,1562.600440398021,2026.1224225640965
0.97,-6.106236623808943,2.76430267991468,503.6469656778087,-3.9637824133671664,1561.9762789074816,2026.1224225640965
0.98,-2.2066840444127944,6.120422629980436,502.1818183067858,-5.851757703533024,1563.9471653365267,2026.1224225640965
0.99,-6.508825905728023,1.713438988631204,501.14299500163384,-1.5280659812847563,1566.612447873753,2026.1224225640965
1.0,-3.9245162502331663,5.127327121085294,499.658104759087,-2.752304715946485,1555.570908211464,2026.1224225640965
1.01,2.1045875049897003,2.23046156366579,498.9074297152025,-5.162880213433804,1564.1385287162414,2026.1224225640965
1.02,-4.93878641507172,4.345016686110447,498.8662603972191,-4.29039561513261,1556.558693689648,2026.1224225640965
1.03,4.346692532020326,4.477547211535194,497.8779340467158,-7.27636207021122,1566.2772309890868,2026.1224225640965
1.04,-5.709610414695657,3.395824954730423,497.6355049590304,-4.678887495304348,1562.7279184822198,2026.1224225640965
1.05,-0.17803511613199485,6.055309840105406,496.84147495482813,-7.066677501099257,1568.5297829682102,2026.1224225640965
1.06,-6.26994171403441,2.309136819521652,496.16921388276324,-3.2510601647677437,1568.7964363715703,2026.1224225640965
1.07,-2.9770208690291606,5.674893289422294,495.106845487649,-4.870425261592319,1567.246600465982,2026.1224225640965
1.08,-6.623551825500401,1.2185079158740146,494.8904677841736,-0.47014434826702944,1570.9847199277178,2026.1224225640965
1.09,-4.482940715494379,4.637039813622964,494.01276619154027,-1.3933160621926424,1561.023345245158,2026.1224225640965
1.1,5.617992662684177,3.498587439572346,492.63110152666366,-5.284497157326114,1571.0448779845144,2026.1224225640965
1.11,-5.438808665818736,3.701912225184396,492.52336096341446,-3.6981958656779987,1565.6569583251528,2026.1224225640965
1.12,1.4901194738056307,5.3537226094970585,491.7526515419449,-6.527987906665119,1572.7403783332334,2026.1224225640965
1.1300000000000001,-6.134813250697626,2.554134406186148,491.3796297946709,-3.2682835919460906,1571.5148673306571,2026.1224225640965
1.1400000000000001,-2.5065546201611424,5.871177294503045,490.67984717646544,-5.270524738208765,1572.110185016382,2026.1224225640965
1.1500000000000001,-6.5502200763146785,1.3841848828482342,490.4645710125198,-0.936299176802547,1574.8706388024593,2026.1224225640965
1.16,-4.229017611825978,4.796870023220078,489.6666817713609,-2.0700418773406852,1563.617741752058,2026.1224225640965
1.17,5.973668488855353,2.9711051873021654,488.5347334497946,-5.882525070073409,1573.481131853911,2026.1224225640965
1.18,-5.290092989103178,3.8547436246216824,488.83922066323396,-4.417244044932363,1567.1385616979458,2026.1224225640965
1.19,2.375133175395263,5.026960013089108,488.3345070618149,-7.18016086478693,1574.896928726151,2026.1224225640965
1.2,-6.045241960526469,2.6991308788283486,488.3078300934742,-3.985725408248307,1572.8791387234144,2026.1224225640965
1.21,-2.1889322854184767,5.992770482163421,487.9292056087314,-6.017552636802803,1574.4220031066777,2026.1224225640965
1.22,-6.511670747422898,1.4896469772294703,487.87567302703576,-1.6770552810815669,1576.5898023172647,2026.1224225640965
1.23,-4.084453373388041,4.886921917314701,487.2598181422098,-2.8034089230341905,1564.8456601847931,2026.1224225640965
1.24,5.6968974183163485,2.6804701847417016,486.42060774395895,-6.071634459293301,1574.398828566393,2026.1224225640965
1.25,-5.2066329996811795,3.940542507340438,487.01678009686367,-4.706609558787045,1567.4978597562233,2026.1224225640965
1.26,2.857013697898724,4.774172623221694,486.7203925270956,-7.440348547350157,1575.5448803720026,2026.1224225640965
1.27,-5.993932840596299,2.7901401151405962,486.9516505008406,-4.314905556046336,1573.201646781092,2026.1224225640965
1.28,-1.9599073733411247,6.082669399367065,486.7546226515469,-6.393418549172458,1575.3424254165561,2026.1224225640965
1.29,-6.485680178494441,1.5698865544155614,486.79521435006495,-2.0759761131253276,1577.1943847071939,2026.1224225640965
1.3,-3.959455676817792,4.969659939498316,486.26492544080156,-3.2247235140920067,1565.7752191199074,2026.1224225640965
1.31,1.3410162973123105,2.0635261536855376,486.5078685501363,-5.3981004655779,1573.6134227857203,2026.1224225640965
1.32,-5.127069782061314,4.018047926128733,487.23937158166876,-4.305704199889937,1566.360883745091,2026.1224225640965
1.33,3.265316143050677,4.6407093046988,487.0410194663467,-7.182704684008636,1574.8074637537948,2026.1224225640965
1.34,-5.931847480946653,2.9110172177709335,487.3822552754207,-4.243822724126837,1572.1768196201854,2026.1224225640965
1.35,-1.7171834301203468,6.187655492372883,487.25326259535206,-6.4651836675944185,1575.0303818810066,2026.1224225640965
1.36,-6.4525094965288385,1.6918010347114132,487.2751202283824,-2.2617725522788774,1576.541453368024,2026.1224225640965
1.37,-3.806962473472163,5.0846696322626,486.7456334210123,-3.509082630989608,1565.9655097597094,2026.1224225640965
1.3800000000000001,-4.314814189289377,1.4053960586757777,488.23233890428105,-4.357263415611564,1571.6034362603266,2026.1224225640965
1.3900000000000001,-4.998228697042048,4.153813597978912,488.9768808663206,-3.6755729520311204,1563.9207324955457,2026.1224225640965
1.4000000000000001,3.9087546067471832,4.476656086940648,488.74820588744876,-6.782453320883256,1572.9149587047634,2026.1224225640965
1.41,-5.833564969281897,3.1080803203991136,489.14319308171883,-4.13649193291844,1569.7405331462235,2026.1224225640965
1.42,-1.187282238660706,6.202133344556747,489.01521995715814,-6.546018273784927,1573.7722054445765,2026.1224225640965
1.43,-6.387550191912308,1.9175430602663537,488.9536476257101,-2.5517000239906764,1574.682824775954,2026.1224225640965
1.44,-3.499944982631761,5.305674852082386,488.38073166631347,-3.98226539977317,1566.6352313948184,2026.1224225640965
1.45,-6.780244578949857,1.1497255756243452,489.903191732704,-2.706035526823936,1571.0088780366937,2026.1224225640965
1.46,-4.807833128630578,4.3419377038714355,490.33089697707703,-2.684427574396146,1562.3747835505114,2026.1224225640965
1.47,4.8399218099137125,4.132199584274455,489.84392677581764,-6.134731000777615,1571.9241911033353,2026.1224225640965
1.48,-5.691528174592259,3.3466275315250877,490.22205627463177,-3.9232324842542723,1567.7764972717432,2026.1224225640965
1.49,-0.09970013331897021,5.80458637710278,489.9883800261389,-6.498136154895081,1573.2571567424561,2026.1224225640965
1.5,-6.2860437773483,2.190586373450544,489.8622928307245,-2.815604543798306,1573.4095296018625,2026.1224225640965
1.51,-3.083311751836933,5.561317518499673,489.2545012515756,-4.494992199681868,1570.0995285260442,2026.1224225640965
1.52,-6.662136819091936,1.1239597084450486,489.75896195964555,-0.7153624034151687,1573.843327581292,2026.1224225640965
1.53,-4.627197608891998,4.475734592268397,489.4844645296047,-1.4509170388144736,1564.2714837667404,2026.1224225640965
1.54,5.3963370473842245,3.7219317730769763,488.52121353434455,-5.286574177931591,1573.9826497697002,2026.1224225640965
1.55,-5.5785693346399885,3.4784273420433864,488.7222264153543,-3.504621180529675,1569.1773792455974,2026.1224225640965
1.56,0.6231779628056886,5.6054428074522145,488.2876770777243,-6.292790806718126,1575.28079511373,2026.1224225640965
1.57,-6.232997243075312,2.2895125171498645,488.11629540599563,-2.836162831727095,1574.8806829189202,2026.1224225640965
1.58,-2.8703066634169785,5.655304449687525,487.50961345551474,-4.674663974407302,1573.5447117397703,2026.1224225640965
1.59,-6.614242297402647,1.0943301754980428,487.6543319702347,-0.19232261756498245,1576.9244445354195,2026.1224225640965
1.6,-4.556113941492,4.498579783555904,487.1237135108889,-1.1655388196563712,1566.9653720002807,2026.1224225640965
1.61,5.506568108146949,3.541024764212433,486.0221157388743,-5.093465539021963,1576.5582649750843,2026.1224225640965
1.62,-5.566219387510875,3.4596910390203077,486.2113225361553,-3.406718551803159,1571.529678593555,2026.1224225640965
1.6300000000000001,0.6697627470997762,5.557946468326073,485.79842523459234,-6.235252469643898,1577.4981589326246,2026.1224225640965
1.6400000000000001,-6.242134347133142,2.233045266897203,485.701859084978,-2.7871666908918775,1577.0196896140656,2026.1224225640965
1.6500000000000001,-2.9346265589547604,5.596117852966846,485.1828835591151,-4.612716226762584,1575.2900583868477,2026.1224225640965
1.6600000000000001,-6.628076693825197,1.0229795668486523,485.46698452075395,-0.1019864642228461,1578.6727480851857,2026.1224225640965
1.67,-4.631667601626967,4.409182486850363,485.0646850211055,-1.0294480835969453,1568.9290589896848,2026.1224225640965
