,Unnamed: 0,t,iq,id,vq,vd,ia,ib,va,vb,theta_e,omega,omega_obs,r,omega_ekf,omega_meta
0,167,0.0,-0.0240650724221276,-0.0046410513202559,0.147409021894548,-0.0557772798034009,0.024050946176223,-0.0047137093745714,-0.14757680327452,-0.0553318336353303,1.5677762099521,-0.144963141214248,-78.272466616515,-0.144963141214248,40.8424965164235,4.5220647
1,168,0.01,0.0342069908919079,0.014782969785826,-0.202402933652419,-0.0557772798034009,-0.0341621886610696,0.0148862113196473,0.202233556937741,-0.0563883050080581,1.5677762099521,-0.144963141214248,-81.0191366605686,-0.144963141214248,15.3121126140276,1.4780741
2,169,0.02,-0.0146461809094057,-0.024299567652486,0.0905147233335325,0.062355614554249,0.0145727266927966,-0.0243436899435119,-0.0903259895811891,0.0626286948032841,1.5677762099521,-0.144963141214248,-83.1324432778922,-0.144963141214248,43.2108749858992,10.739006
3,170,0.03,0.189775031153724,0.102425559983528,-0.902730691765943,-0.523376867556878,-0.189464828986729,0.102998234763349,0.901145917928075,-0.526100828692976,1.5677762099521,-0.144963141214248,-81.0191366605686,-0.144963141214248,25.2732890412919,44.452835
4,171,0.04,-0.0140599428315529,0.0150174650123282,0.0873474117758567,-0.173205604196326,0.0141052331405617,0.0149749339188337,-0.0878701137909609,-0.172941015295155,1.5677762099521,-0.144963141214248,-78.272466616515,-0.144963141214248,25.4155507239706,58.534645
5,172,0.05,0.0050123354266787,0.0146657221736134,-0.0271450323700368,-0.0550727098618524,-0.0049680204404592,0.0146807931054945,0.0269785828079892,-0.0551544397448709,1.5677762099521,-0.144963141214248,-75.2483515436702,-0.144963141214248,1.36727716393283,55.505997
6,173,0.06,0.0048364639980079,0.0146657221644779,-0.0264411853269515,-0.0550727098344037,-0.0047921498138864,0.0146802619449025,0.026274738974916,-0.0551523140203442,1.5677762099521,-0.144963141214248,-73.1025391494732,-0.144963141214248,22.6052269758392,79.81352
7,174,0.07,0.0060675639330335,0.0154278316499706,-0.0324238847957511,-0.175319314027386,-0.0060209424782257,0.0154460860147541,0.0318942529167742,-0.175416438246711,1.5677762099521,-0.144963141214248,-70.032456484354,-0.144963141214248,5.78251410087773,73.3468
8,175,0.08,-0.0631476098544469,-0.0241823200371289,0.323370770148087,0.061651044589528,0.0630742885456344,-0.0243729226226487,-0.32318310232462,0.0626273794516492,1.5677762099521,-0.144963141214248,-70.032456484354,-0.144963141214248,19.9357916240269,80.56346
9,176,0.09,-0.0340702020077238,-0.0437235887540002,0.148816715896001,0.179079368982457,0.0339379964828014,-0.0438262851849138,-0.148275197413731,0.179527995469078,1.5677762099521,-0.144963141214248,-70.032456484354,-0.144963141214248,12.4970402137814,78.83671
10,177,0.1,-0.0144116856786916,-0.0241823200371289,0.0894589528164431,0.061651044589528,0.0143385866324691,-0.0242257346609491,-0.089272351759376,0.0619209395063157,1.5677762099521,-0.144963141214248,-75.2071491956422,-0.144963141214248,28.7531586887851,82.49105
11,178,0.1100000000000001,-0.0628544908270688,-0.0241823200371289,0.321963076182892,0.061651044589528,0.0627811708550401,-0.0243720373702829,-0.321775414779284,0.0626231280578583,1.5677762099521,-0.144963141214248,-78.272466616515,-0.144963141214248,19.3326079041882,83.81567
12,179,0.1200000000000001,-0.0437822125581517,-0.0728596204168524,0.207118708475691,0.295803123453054,0.0435619686549353,-0.0729915153335059,-0.206224405263365,0.296427296177313,1.5677762099521,-0.144963141214248,-81.0191366605686,-0.144963141214248,40.5276614570273,86.70291
13,180,0.1300000000000001,-0.0051100417717392,-0.0048755465459975,0.032916577718484,-0.0543681399038401,0.0050952937692841,-0.004890957210588,-0.0330806254862292,-0.0542684801956013,1.5677762099521,-0.144963141214248,-83.1554355837206,-0.144963141214248,29.1098364277729,84.44217
14,181,0.1400000000000001,0.0048950878208619,0.0145484745706387,-0.0267931089015065,-0.0543681399544614,-0.0048511274702781,0.0145631919363024,0.0266287888246327,-0.0544488102023268,1.5677762099521,-0.144963141214248,-81.0278332317303,-0.144963141214248,40.28406379314,84.76099
15,182,0.1500000000000001,-0.0046410513202559,-0.0046410513202559,-0.027848879358281,-0.0557772798034009,0.0046270136585591,-0.004655046650465,0.0276802987059917,-0.0558611321701058,1.5677762099521,-0.144963141214248,-81.0191366605686,220.809382624871,26.7361143605127,84.374886
16,183,0.1600000000000001,-0.0046410513202559,-0.0046410513202559,-0.027848879358281,-0.0557772798034009,0.0046270136585591,-0.004655046650465,0.0276802987059917,-0.0558611321701058,1.5677762099521,-0.144963141214248,-81.0191366605686,220.809382624871,39.7869216431209,85.13165
17,184,0.1700000000000001,-0.0046410513202559,-0.0046410513202559,-0.027848879358281,-0.0557772798034009,0.0046270136585591,-0.004655046650465,0.0276802987059917,-0.0558611321701058,1.5677762099521,-0.144963141214248,-81.0191366605686,220.809382624871,26.9230267082137,86.82661
18,185,0.1800000000000001,-0.0046410513202559,-0.0046410513202559,-0.027848879358281,-0.0557772798034009,0.0046270136585591,-0.004655046650465,0.0276802987059917,-0.0558611321701058,1.5677762099521,-0.144963141214248,-81.0191366605686,220.809382624871,41.3708843648219,87.26203
19,186,0.1900000000000001,-0.0046410513202559,-0.0046410513202559,-0.027848879358281,-0.0557772798034009,0.0046270136585591,-0.004655046650465,0.0276802987059917,-0.0558611321701058,1.5677762099521,-0.144963141214248,-81.0191366605686,220.809382624871,29.0343669713237,87.363625
20,187,0.2000000000000001,-0.0046410513202559,-0.0046410513202559,-0.027848879358281,-0.0557772798034009,0.0046270136585591,-0.004655046650465,0.0276802987059917,-0.0558611321701058,1.5677762099521,-0.144963141214248,-81.0191366605686,220.809382624871,44.4915818463122,89.0904
21,188,0.2099999999999999,-0.0046410513202559,-0.0046410513202559,-0.027848879358281,-0.0557772798034009,0.0046270136585591,-0.004655046650465,0.0276802987059917,-0.0558611321701058,1.5677762099521,-0.144963141214248,-81.0191366605686,220.809382624871,32.0485610578769,90.349594
22,189,0.2199999999999999,-0.0046410513202559,-0.0046410513202559,-0.027848879358281,-0.0557772798034009,0.0046270136585591,-0.004655046650465,0.0276802987059917,-0.0558611321701058,1.5677762099521,-0.144963141214248,-81.0191366605686,220.809382624871,47.5951998207781,90.334816
23,190,0.2299999999999999,-0.0046410513202559,-0.0046410513202559,-0.027848879358281,-0.0557772798034009,0.0046270136585591,-0.004655046650465,0.0276802987059917,-0.0558611321701058,1.5677762099521,-0.144963141214248,-81.0191366605686,220.809382624871,34.5118290655009,90.22015
24,191,0.24,-0.0046410513202559,-0.0046410513202559,-0.027848879358281,-0.0557772798034009,0.0046270136585591,-0.004655046650465,0.0276802987059917,-0.0558611321701058,1.5677762099521,-0.144963141214248,-81.0191366605686,220.809382624871,49.0226628391877,90.43971
25,192,0.25,-0.0046410513202559,-0.0046410513202559,-0.027848879358281,-0.0557772798034009,0.0046270136585591,-0.004655046650465,0.0276802987059917,-0.0558611321701058,1.5677762099521,-0.144963141214248,-81.0191366605686,220.809382624871,35.187408237563,90.60306
26,193,0.26,-0.0046410513202559,-0.0046410513202559,-0.027848879358281,-0.0557772798034009,0.0046270136585591,-0.004655046650465,0.0276802987059917,-0.0558611321701058,1.5677762099521,-0.144963141214248,-81.0191366605686,220.809382624871,48.1558401735567,90.78195
27,194,0.27,-0.0046410513202559,-0.0046410513202559,-0.027848879358281,-0.0557772798034009,0.0046270136585591,-0.004655046650465,0.0276802987059917,-0.0558611321701058,1.5677762099521,-0.144963141214248,-81.0191366605686,220.809382624871,33.8197924957432,90.98697
28,195,0.28,-0.0046410513202559,-0.0046410513202559,-0.027848879358281,-0.0557772798034009,0.0046270136585591,-0.004655046650465,0.0276802987059917,-0.0558611321701058,1.5677762099521,-0.144963141214248,-81.0191366605686,220.809382624871,45.5258540454756,91.161934
29,196,0.29,-0.0046410513202559,-0.0046410513202559,-0.027848879358281,-0.0557772798034009,0.0046270136585591,-0.004655046650465,0.0276802987059917,-0.0558611321701058,1.5677762099521,-0.144963141214248,-81.0191366605686,220.809382624871,31.1001047160813,91.313866
30,197,0.3,-0.0046410513202559,-0.0046410513202559,-0.027848879358281,-0.0557772798034009,0.0046270136585591,-0.004655046650465,0.0276802987059917,-0.0558611321701058,1.5677762099521,-0.144963141214248,-81.0191366605686,220.809382624871,42.1803103089624,91.49514
31,198,0.31,-0.0046410513202559,-0.0046410513202559,-0.027848879358281,-0.0557772798034009,0.0046270136585591,-0.004655046650465,0.0276802987059917,-0.0558611321701058,1.5677762099521,-0.144963141214248,-81.0191366605686,220.809382624871,28.0158641014198,91.65482
32,199,0.32,-0.0046410513202559,-0.0046410513202559,-0.027848879358281,-0.0557772798034009,0.0046270136585591,-0.004655046650465,0.0276802987059917,-0.0558611321701058,1.5677762099521,-0.144963141214248,-81.0191366605686,220.809382624871,39.1174720847145,91.749954
33,200,0.33,-0.0046410513202559,-0.0046410513202559,-0.027848879358281,-0.0557772798034009,0.0046270136585591,-0.004655046650465,0.0276802987059917,-0.0558611321701058,1.5677762099521,-0.144963141214248,-81.0191366605686,220.809382624871,25.4385812555532,91.80842
34,201,0.3399999999999998,-0.0046410513202559,-0.0046410513202559,-0.027848879358281,-0.0557772798034009,0.0046270136585591,-0.004655046650465,0.0276802987059917,-0.0558611321701058,1.5677762099521,-0.144963141214248,-81.0191366605686,220.809382624871,37.0828374283383,91.86062
35,202,0.3500000000000001,-0.0046410513202559,-0.0046410513202559,-0.027848879358281,-0.0557772798034009,0.0046270136585591,-0.004655046650465,0.0276802987059917,-0.0558611321701058,1.5677762099521,-0.144963141214248,-81.0191366605686,220.809382624871,24.0310374425404,91.90724
36,203,0.3599999999999999,-0.0046410513202559,-0.0046410513202559,-0.027848879358281,-0.0557772798034009,0.0046270136585591,-0.004655046650465,0.0276802987059917,-0.0558611321701058,1.5677762099521,-0.144963141214248,-81.0191366605686,220.809382624871,36.5827319393441,91.95145
37,204,0.3700000000000001,-0.0046410513202559,-0.0046410513202559,-0.027848879358281,-0.0557772798034009,0.0046270136585591,-0.004655046650465,0.0276802987059917,-0.0558611321701058,1.5677762099521,-0.144963141214248,-81.0191366605686,220.809382624871,24.2147048206803,91.99409
38,205,0.3799999999999999,-0.0046410513202559,-0.0046410513202559,-0.027848879358281,-0.0557772798034009,0.0046270136585591,-0.004655046650465,0.0276802987059917,-0.0558611321701058,1.5677762099521,-0.144963141214248,-81.0191366605686,220.809382624871,37.874274106507,92.03405
39,206,0.3900000000000001,-0.0046410513202559,-0.0046410513202559,-0.027848879358281,-0.0557772798034009,0.0046270136585591,-0.004655046650465,0.0276802987059917,-0.0558611321701058,1.5677762099521,-0.144963141214248,-81.0191366605686,220.809382624871,26.0556065333377,92.07087
40,207,0.3999999999999999,-0.0046410513202559,-0.0046410513202559,-0.027848879358281,-0.0557772798034009,0.0046270136585591,-0.004655046650465,0.0276802987059917,-0.0558611321701058,1.5677762099521,-0.144963141214248,-81.0191366605686,220.809382624871,40.7892877996786,92.10526
41,208,0.4100000000000001,-0.0046410513202559,-0.0046410513202559,-0.027848879358281,-0.0557772798034009,0.0046270136585591,-0.004655046650465,0.0276802987059917,-0.0558611321701058,1.5677762099521,-0.144963141214248,-81.0191366605686,220.809382624871,29.0827133723395,92.13524
42,209,0.4199999999999999,-0.0046410513202559,-0.0046410513202559,-0.027848879358281,-0.0557772798034009,0.0046270136585591,-0.004655046650465,0.0276802987059917,-0.0558611321701058,1.5677762099521,-0.144963141214248,-81.0191366605686,220.809382624871,44.4071621686651,92.159134
43,210,0.4300000000000001,-0.0046410513202559,-0.0046410513202559,-0.027848879358281,-0.0557772798034009,0.0046270136585591,-0.004655046650465,0.0276802987059917,-0.0558611321701058,1.5677762099521,-0.144963141214248,-81.0191366605686,220.809382624871,32.2230565373643,92.17797
44,211,0.4399999999999999,-0.0046410513202559,-0.0046410513202559,-0.027848879358281,-0.0557772798034009,0.0046270136585591,-0.004655046650465,0.0276802987059917,-0.0558611321701058,1.5677762099521,-0.144963141214248,-81.0191366605686,220.809382624871,47.1177292025136,92.19286
45,212,0.4500000000000002,-0.0046410513202559,-0.0046410513202559,-0.027848879358281,-0.0557772798034009,0.0046270136585591,-0.004655046650465,0.0276802987059917,-0.0558611321701058,1.5677762099521,-0.144963141214248,-81.0191366605686,220.809382624871,34.1405665387738,92.20575
46,213,0.4599999999999999,-0.0046410513202559,-0.0046410513202559,-0.027848879358281,-0.0557772798034009,0.0046270136585591,-0.004655046650465,0.0276802987059917,-0.0558611321701058,1.5677762099521,-0.144963141214248,-81.0191366605686,220.809382624871,47.6755213915431,92.217224
47,214,0.4700000000000002,-0.0046410513202559,-0.0046410513202559,-0.027848879358281,-0.0557772798034009,0.0046270136585591,-0.004655046650465,0.0276802987059917,-0.0558611321701058,1.5677762099521,-0.144963141214248,-81.0191366605686,220.809382624871,34.0062775318973,92.227295
48,215,0.48,-0.0046410513202559,-0.0046410513202559,-0.027848879358281,-0.0557772798034009,0.0046270136585591,-0.004655046650465,0.0276802987059917,-0.0558611321701058,1.5677762099521,-0.144963141214248,-81.0191366605686,220.809382624871,46.0218374467809,92.236725
49,216,0.4900000000000002,-0.0046410513202559,-0.0046410513202559,-0.027848879358281,-0.0557772798034009,0.0046270136585591,-0.004655046650465,0.0276802987059917,-0.0558611321701058,1.5677762099521,-0.144963141214248,-81.0191366605686,220.809382624871,32.0136356002706,92.24524
50,217,0.5,-0.0046410513202559,-0.0046410513202559,-0.027848879358281,-0.0557772798034009,0.0046270136585591,-0.004655046650465,0.0276802987059917,-0.0558611321701058,1.5677762099521,-0.144963141214248,-81.0191366605686,220.809382624871,42.9627993478677,92.25284
51,218,0.5100000000000002,-0.0046410513202559,-0.0046410513202559,-0.027848879358281,-0.0557772798034009,0.0046270136585591,-0.004655046650465,0.0276802987059917,-0.0558611321701058,1.5677762099521,-0.144963141214248,-81.0191366605686,220.809382624871,29.0077699331354,92.25943
52,219,0.52,-0.0046410513202559,-0.0046410513202559,-0.027848879358281,-0.0557772798034009,0.0046270136585591,-0.004655046650465,0.0276802987059917,-0.0558611321701058,1.5677762099521,-0.144963141214248,-81.0191366605686,220.809382624871,39.5273907758432,92.26509
53,220,0.5300000000000002,-0.0046410513202559,-0.0046410513202559,-0.027848879358281,-0.0557772798034009,0.0046270136585591,-0.004655046650465,0.0276802987059917,-0.0558611321701058,1.5677762099521,-0.144963141214248,-81.0191366605686,220.809382624871,25.9062171363591,92.26982
54,221,0.54,-0.0046410513202559,-0.0046410513202559,-0.027848879358281,-0.0557772798034009,0.0046270136585591,-0.004655046650465,0.0276802987059917,-0.0558611321701058,1.5677762099521,-0.144963141214248,-81.0191366605686,220.809382624871,36.5722808580456,92.27374
55,222,0.5500000000000003,-0.0046410513202559,-0.0046410513202559,-0.027848879358281,-0.0557772798034009,0.0046270136585591,-0.004655046650465,0.0276802987059917,-0.0558611321701058,1.5677762099521,-0.144963141214248,-81.0191366605686,220.809382624871,23.4612964194803,92.27702
56,223,0.56,-0.0046410513202559,-0.0046410513202559,-0.027848879358281,-0.0557772798034009,0.0046270136585591,-0.004655046650465,0.0276802987059917,-0.0558611321701058,1.5677762099521,-0.144963141214248,-81.0191366605686,220.809382624871,34.7109418183304,92.27999
57,224,0.5700000000000003,-0.0046410513202559,-0.0046410513202559,-0.027848879358281,-0.0557772798034009,0.0046270136585591,-0.004655046650465,0.0276802987059917,-0.0558611321701058,1.5677762099521,-0.144963141214248,-81.0191366605686,220.809382624871,22.236799653753,92.28258
58,225,0.5800000000000001,-0.0046410513202559,-0.0046410513202559,-0.027848879358281,-0.0557772798034009,0.0046270136585591,-0.004655046650465,0.0276802987059917,-0.0558611321701058,1.5677762099521,-0.144963141214248,-81.0191366605686,220.809382624871,34.3607644821535,92.2847
59,226,0.5899999999999999,-0.0046410513202559,-0.0046410513202559,-0.027848879358281,-0.0557772798034009,0.0046270136585591,-0.004655046650465,0.0276802987059917,-0.0558611321701058,1.5677762099521,-0.144963141214248,-81.0191366605686,220.809382624871,22.5853440767341,92.28676
60,227,0.6000000000000001,-0.0046410513202559,-0.0046410513202559,-0.027848879358281,-0.0557772798034009,0.0046270136585591,-0.004655046650465,0.0276802987059917,-0.0558611321701058,1.5677762099521,-0.144963141214248,-81.0191366605686,220.809382624871,35.7341281462613,92.28846
61,228,0.6099999999999999,-0.0046410513202559,-0.0046410513202559,-0.027848879358281,-0.0557772798034009,0.0046270136585591,-0.004655046650465,0.0276802987059917,-0.0558611321701058,1.5677762099521,-0.144963141214248,-81.0191366605686,220.809382624871,24.5411993522203,92.29007
62,229,0.6200000000000001,-0.0046410513202559,-0.0046410513202559,-0.027848879358281,-0.0557772798034009,0.0046270136585591,-0.004655046650465,0.0276802987059917,-0.0558611321701058,1.5677762099521,-0.144963141214248,-81.0191366605686,220.809382624871,38.6708200188634,92.291405
63,230,0.6299999999999999,-0.0046410513202559,-0.0046410513202559,-0.027848879358281,-0.0557772798034009,0.0046270136585591,-0.004655046650465,0.0276802987059917,-0.0558611321701058,1.5677762099521,-0.144963141214248,-81.0191366605686,220.809382624871,27.6474591775908,92.29237
64,231,0.6400000000000001,-0.0046410513202559,-0.0046410513202559,-0.027848879358281,-0.0557772798034009,0.0046270136585591,-0.004655046650465,0.0276802987059917,-0.0558611321701058,1.5677762099521,-0.144963141214248,-81.0191366605686,220.809382624871,42.322226981618,92.29351
65,232,0.6499999999999999,-0.0046410513202559,-0.0046410513202559,-0.027848879358281,-0.0557772798034009,0.0046270136585591,-0.004655046650465,0.0276802987059917,-0.0558611321701058,1.5677762099521,-0.144963141214248,-81.0191366605686,220.809382624871,30.8838548493252,92.29424
66,233,0.6600000000000001,-0.0046410513202559,-0.0046410513202559,-0.027848879358281,-0.0557772798034009,0.0046270136585591,-0.004655046650465,0.0276802987059917,-0.0558611321701058,1.5677762099521,-0.144963141214248,-81.0191366605686,220.809382624871,45.1588544872624,92.29498
67,234,0.6699999999999999,0.884310803877027,-0.0046410513202559,1.38090087723947,-0.0557772798034009,-0.884320787429869,-0.0019703122614394,-1.38106303321889,-0.0516065497706686,1.5677762099521,-0.144963141214248,-39.2599015128767,220.809382624871,57.4966103055502,112.332886
68,235,0.6800000000000002,0.845580009277707,-0.0241823200371289,1.84837258846183,0.061651044589528,-0.845649186289316,-0.0216284632066773,-1.84817796579223,0.0672330561269567,1.5677762099521,-0.144963141214248,-0.144963141214248,220.809382624871,41.2134950971234,125.08332
69,236,0.69,0.884838418139196,-0.004523803706322,1.7886629018428,-0.0564818497595694,-0.884848045184871,-0.0018514717279217,-1.78882532608372,-0.0510796294273411,1.5677762099521,-0.144963141214248,-0.144963141214248,220.809382624871,32.5773153592967,137.53374
70,237,0.7000000000000002,0.962417254945428,-0.0045238037105296,1.4985606328683,-0.0564818497342849,-0.962426528188998,-0.0016171749366206,-1.49872438013488,-0.0519557708188236,1.5677762099521,-0.144963141214248,-0.144963141214248,220.809382624871,20.1579643277446,147.48804
71,238,0.71,0.942817362412283,-0.0241823200371289,1.67452238118517,-0.0557772798034009,-0.942886095968139,-0.0213347954851557,-1.67468319808922,-0.0507197798692486,1.5677762099521,-0.144963141214248,-0.144963141214248,220.809382624871,16.1981385690199,158.90474
72,239,0.7200000000000002,0.942524243397597,-0.0244754390623341,1.73458399118147,-0.171796464330282,-0.942593863542596,-0.0216287984259045,-1.7350949251322,-0.166557042480702,1.5677762099521,-0.144963141214248,-0.144963141214248,220.809382624871,4.98696899434106,171.92747
