,Unnamed: 0,t,iq,id,vq,vd,ia,ib,va,vb,theta_e,omega,omega_obs,r,omega_ekf,omega_meta
0,167,0.0,-0.0918146510486699,0.0146657221666127,0.378857374702336,-0.17179646427116,-0.0584546774013516,0.0723053541846052,0.337693282514816,-0.242920115360559,-2.62011914539939,-0.144963141214248,-0.144963141214248,-0.144963141214248,16.1389241865329,-11.968277
1,168,0.01,-0.169334864084191,0.0630499035240573,0.727613559937695,-0.404539403295823,-0.139025267971895,0.115419068589844,0.713237246491266,-0.429378913829852,-2.62011914539939,-0.144963141214248,-0.144963141214248,-0.144963141214248,38.1926765396172,8.056145
2,169,0.02,0.0446811109333505,-0.0534942231124358,-0.323230000829266,0.179079368982457,0.0686423641693252,-0.0120937761632656,-0.316296947778581,0.191058354062825,-2.62011914539939,-0.144963141214248,-0.144963141214248,-0.144963141214248,28.2127404197259,26.001652
3,170,0.03,-0.023771953398121,0.0147829697854702,-0.0296084968235515,-0.172501034256916,-0.0246603040982287,0.0132480702679086,0.1348235262128,0.111605943763772,-2.62011914539939,-0.144963141214248,-0.144963141214248,-0.144963141214248,40.1715781647079,59.819817
4,171,0.04,0.0149002173966153,-0.0046410513202559,-0.203810627620364,-0.0557772798034009,0.0114468585141469,-0.0106077927006871,-0.0531662602964331,0.204507275272459,-2.62011914539939,-0.144963141214248,-0.144963141214248,-0.144963141214248,24.0266316489413,70.604576
5,172,0.05,-0.0048169227375073,-0.0046410513202559,-0.0857989484573989,-0.0557772798034009,0.0016246007818217,0.0064886650642538,0.0056222414983622,0.102180990889677,-2.62011914539939,-0.144963141214248,-0.144963141214248,-0.144963141214248,37.2056919342767,68.58789
6,173,0.06,0.122377195339407,-0.0534942231124358,-0.673041956319256,0.179079368982457,0.10734731633975,-0.079462969490173,-0.490558689658939,0.49437543159153,-2.62011914539939,-0.144963141214248,-0.144963141214248,-0.144963141214248,22.568726667825,91.970406
7,174,0.07,-0.0625027479938026,-0.0049341703498977,0.202895626544077,-0.0543681399160278,-0.0268579145443705,0.0566532608959616,0.148216005193002,-0.148844031500327,-2.62011914539939,-0.144963141214248,-0.144963141214248,-0.144963141214248,34.1094237375253,83.02337
8,175,0.08,-0.0046410513202559,-0.0046410513202559,-0.027848879358281,-0.0557772798034009,0.0017122125945005,0.0063361694063315,0.0344905515284016,0.0519332925881426,-2.62011914539939,-0.144963141214248,-0.144963141214248,378.895502938174,-12.0788758214671,90.457596
9,176,0.09,-0.0046410513202559,-0.0046410513202559,-0.027848879358281,-0.0557772798034009,0.0017122125945005,0.0063361694063315,0.0344905515284016,0.0519332925881426,-2.62011914539939,-0.144963141214248,-0.144963141214248,378.895502938174,9.1998436566263,88.79513
10,177,0.1,-0.0046410513202559,-0.0046410513202559,-0.027848879358281,-0.0557772798034009,0.0017122125945005,0.0063361694063315,0.0344905515284016,0.0519332925881426,-2.62011914539939,-0.144963141214248,-0.144963141214248,378.895502938174,-23.5053931457397,87.74824
11,178,0.1100000000000001,-0.0046410513202559,-0.0046410513202559,-0.027848879358281,-0.0557772798034009,0.0017122125945005,0.0063361694063315,0.0344905515284016,0.0519332925881426,-2.62011914539939,-0.144963141214248,-0.144963141214248,378.895502938174,5.77433481164477,85.214714
12,179,0.1200000000000001,-0.0046410513202559,-0.0046410513202559,-0.027848879358281,-0.0557772798034009,0.0017122125945005,0.0063361694063315,0.0344905515284016,0.0519332925881426,-2.62011914539939,-0.144963141214248,-0.144963141214248,378.895502938174,-18.4102277248447,83.58382
13,180,0.1300000000000001,-0.0046410513202559,-0.0046410513202559,-0.027848879358281,-0.0557772798034009,0.0017122125945005,0.0063361694063315,0.0344905515284016,0.0519332925881426,-2.62011914539939,-0.144963141214248,-0.144963141214248,378.895502938174,14.1953994198999,83.09793
14,181,0.1400000000000001,-0.0046410513202559,-0.0046410513202559,-0.027848879358281,-0.0557772798034009,0.0017122125945005,0.0063361694063315,0.0344905515284016,0.0519332925881426,-2.62011914539939,-0.144963141214248,-0.144963141214248,378.895502938174,-4.18742325123334,84.34628
15,182,0.1500000000000001,-0.0046410513202559,-0.0046410513202559,-0.027848879358281,-0.0557772798034009,0.0017122125945005,0.0063361694063315,0.0344905515284016,0.0519332925881426,-2.62011914539939,-0.144963141214248,-0.144963141214248,378.895502938174,26.4316314704165,87.71023
16,183,0.1600000000000001,-0.0046410513202559,-0.0046410513202559,-0.027848879358281,-0.0557772798034009,0.0017122125945005,0.0063361694063315,0.0344905515284016,0.0519332925881426,-2.62011914539939,-0.144963141214248,-0.144963141214248,378.895502938174,10.3402433772727,87.8223
17,184,0.1700000000000001,-0.0046410513202559,-0.0046410513202559,-0.027848879358281,-0.0557772798034009,0.0017122125945005,0.0063361694063315,0.0344905515284016,0.0519332925881426,-2.62011914539939,-0.144963141214248,-0.144963141214248,378.895502938174,36.122573702755,87.75012
18,185,0.1800000000000001,-0.0046410513202559,-0.0046410513202559,-0.027848879358281,-0.0557772798034009,0.0017122125945005,0.0063361694063315,0.0344905515284016,0.0519332925881426,-2.62011914539939,-0.144963141214248,-0.144963141214248,378.895502938174,19.6158193401499,87.92484
19,186,0.1900000000000001,-0.0046410513202559,-0.0046410513202559,-0.027848879358281,-0.0557772798034009,0.0017122125945005,0.0063361694063315,0.0344905515284016,0.0519332925881426,-2.62011914539939,-0.144963141214248,-0.144963141214248,378.895502938174,41.4729462288726,87.87177
20,187,0.2000000000000001,-0.0046410513202559,-0.0046410513202559,-0.027848879358281,-0.0557772798034009,0.0017122125945005,0.0063361694063315,0.0344905515284016,0.0519332925881426,-2.62011914539939,-0.144963141214248,-0.144963141214248,378.895502938174,23.5449199513202,87.76795
21,188,0.2099999999999999,-0.0046410513202559,-0.0046410513202559,-0.027848879358281,-0.0557772798034009,0.0017122125945005,0.0063361694063315,0.0344905515284016,0.0519332925881426,-2.62011914539939,-0.144963141214248,-0.144963141214248,378.895502938174,43.4258712070178,87.59949
22,189,0.2199999999999999,-0.0046410513202559,-0.0046410513202559,-0.027848879358281,-0.0557772798034009,0.0017122125945005,0.0063361694063315,0.0344905515284016,0.0519332925881426,-2.62011914539939,-0.144963141214248,-0.144963141214248,378.895502938174,23.9495016783618,87.48822
23,190,0.2299999999999999,-0.0046410513202559,-0.0046410513202559,-0.027848879358281,-0.0557772798034009,0.0017122125945005,0.0063361694063315,0.0344905515284016,0.0519332925881426,-2.62011914539939,-0.144963141214248,-0.144963141214248,378.895502938174,43.1133815089375,87.48379
24,191,0.24,-0.0046410513202559,-0.0046410513202559,-0.027848879358281,-0.0557772798034009,0.0017122125945005,0.0063361694063315,0.0344905515284016,0.0519332925881426,-2.62011914539939,-0.144963141214248,-0.144963141214248,378.895502938174,22.4705724220246,87.586975
25,192,0.25,-0.0046410513202559,-0.0046410513202559,-0.027848879358281,-0.0557772798034009,0.0017122125945005,0.0063361694063315,0.0344905515284016,0.0519332925881426,-2.62011914539939,-0.144963141214248,-0.144963141214248,378.895502938174,41.4816900378738,87.78589
26,193,0.26,-0.0046410513202559,-0.0046410513202559,-0.027848879358281,-0.0557772798034009,0.0017122125945005,0.0063361694063315,0.0344905515284016,0.0519332925881426,-2.62011914539939,-0.144963141214248,-0.144963141214248,378.895502938174,20.3600139465759,87.900246
27,194,0.27,-0.0046410513202559,-0.0046410513202559,-0.027848879358281,-0.0557772798034009,0.0017122125945005,0.0063361694063315,0.0344905515284016,0.0519332925881426,-2.62011914539939,-0.144963141214248,-0.144963141214248,378.895502938174,39.5761341802364,87.96011
28,195,0.28,-0.0046410513202559,-0.0046410513202559,-0.027848879358281,-0.0557772798034009,0.0017122125945005,0.0063361694063315,0.0344905515284016,0.0519332925881426,-2.62011914539939,-0.144963141214248,-0.144963141214248,378.895502938174,18.6453185483937,87.995445
29,196,0.29,-0.0046410513202559,-0.0046410513202559,-0.027848879358281,-0.0557772798034009,0.0017122125945005,0.0063361694063315,0.0344905515284016,0.0519332925881426,-2.62011914539939,-0.144963141214248,-0.144963141214248,378.895502938174,38.3900439480902,88.007385
30,197,0.3,-0.0046410513202559,-0.0046410513202559,-0.027848879358281,-0.0557772798034009,0.0017122125945005,0.0063361694063315,0.0344905515284016,0.0519332925881426,-2.62011914539939,-0.144963141214248,-0.144963141214248,378.895502938174,18.1353676795463,88.00721
31,198,0.31,-0.0046410513202559,-0.0046410513202559,-0.027848879358281,-0.0557772798034009,0.0017122125945005,0.0063361694063315,0.0344905515284016,0.0519332925881426,-2.62011914539939,-0.144963141214248,-0.144963141214248,378.895502938174,38.6339292561571,88.00102
32,199,0.32,-0.0046410513202559,-0.0046410513202559,-0.027848879358281,-0.0557772798034009,0.0017122125945005,0.0063361694063315,0.0344905515284016,0.0519332925881426,-2.62011914539939,-0.144963141214248,-0.144963141214248,378.895502938174,19.3154458333838,87.99769
33,200,0.33,-0.0046410513202559,-0.0046410513202559,-0.027848879358281,-0.0557772798034009,0.0017122125945005,0.0063361694063315,0.0344905515284016,0.0519332925881426,-2.62011914539939,-0.144963141214248,-0.144963141214248,378.895502938174,40.586385233684,88.002525
34,201,0.3399999999999998,-0.0046410513202559,-0.0046410513202559,-0.027848879358281,-0.0557772798034009,0.0017122125945005,0.0063361694063315,0.0344905515284016,0.0519332925881426,-2.62011914539939,-0.144963141214248,-0.144963141214248,378.895502938174,22.1938978067019,88.01548
35,202,0.3500000000000001,-0.0046410513202559,-0.0046410513202559,-0.027848879358281,-0.0557772798034009,0.0017122125945005,0.0063361694063315,0.0344905515284016,0.0519332925881426,-2.62011914539939,-0.144963141214248,-0.144963141214248,378.895502938174,43.9607129546977,88.0346
36,203,0.3599999999999999,-0.0046410513202559,-0.0046410513202559,-0.027848879358281,-0.0557772798034009,0.0017122125945005,0.0063361694063315,0.0344905515284016,0.0519332925881426,-2.62011914539939,-0.144963141214248,-0.144963141214248,378.895502938174,26.1829079580133,88.05154
37,204,0.3700000000000001,-0.0046410513202559,-0.0046410513202559,-0.027848879358281,-0.0557772798034009,0.0017122125945005,0.0063361694063315,0.0344905515284016,0.0519332925881426,-2.62011914539939,-0.144963141214248,-0.144963141214248,378.895502938174,47.8115719094858,88.06422
38,205,0.3799999999999999,-0.0046410513202559,-0.0046410513202559,-0.027848879358281,-0.0557772798034009,0.0017122125945005,0.0063361694063315,0.0344905515284016,0.0519332925881426,-2.62011914539939,-0.144963141214248,-0.144963141214248,378.895502938174,30.119917729272,88.07283
39,206,0.3900000000000001,-0.0046410513202559,-0.0046410513202559,-0.027848879358281,-0.0557772798034009,0.0017122125945005,0.0063361694063315,0.0344905515284016,0.0519332925881426,-2.62011914539939,-0.144963141214248,-0.144963141214248,378.895502938174,50.77824605087,88.07814
40,207,0.3999999999999999,-0.0046410513202559,-0.0046410513202559,-0.027848879358281,-0.0557772798034009,0.0017122125945005,0.0063361694063315,0.0344905515284016,0.0519332925881426,-2.62011914539939,-0.144963141214248,-0.144963141214248,378.895502938174,32.6362265534426,88.0812
41,208,0.4100000000000001,-0.0046410513202559,-0.0046410513202559,-0.027848879358281,-0.0557772798034009,0.0017122125945005,0.0063361694063315,0.0344905515284016,0.0519332925881426,-2.62011914539939,-0.144963141214248,-0.144963141214248,378.895502938174,51.8252352263379,88.08312
42,209,0.4199999999999999,-0.0046410513202559,-0.0046410513202559,-0.027848879358281,-0.0557772798034009,0.0017122125945005,0.0063361694063315,0.0344905515284016,0.0519332925881426,-2.62011914539939,-0.144963141214248,-0.144963141214248,378.895502938174,32.9665972387744,88.08461
43,210,0.4300000000000001,-0.0046410513202559,-0.0046410513202559,-0.027848879358281,-0.0557772798034009,0.0017122125945005,0.0063361694063315,0.0344905515284016,0.0519332925881426,-2.62011914539939,-0.144963141214248,-0.144963141214248,378.895502938174,50.8300905992735,88.086494
44,211,0.4399999999999999,-0.0046410513202559,-0.0046410513202559,-0.027848879358281,-0.0557772798034009,0.0017122125945005,0.0063361694063315,0.0344905515284016,0.0519332925881426,-2.62011914539939,-0.144963141214248,-0.144963141214248,378.895502938174,31.4709802898315,88.08904
45,212,0.4500000000000002,-0.0046410513202559,-0.0046410513202559,-0.027848879358281,-0.0557772798034009,0.0017122125945005,0.0063361694063315,0.0344905515284016,0.0519332925881426,-2.62011914539939,-0.144963141214248,-0.144963141214248,378.895502938174,48.609794187058,88.09187
46,213,0.4599999999999999,-0.0046410513202559,-0.0046410513202559,-0.027848879358281,-0.0557772798034009,0.0017122125945005,0.0063361694063315,0.0344905515284016,0.0519332925881426,-2.62011914539939,-0.144963141214248,-0.144963141214248,378.895502938174,29.2652372626287,88.09461
47,214,0.4700000000000002,-0.0046410513202559,-0.0046410513202559,-0.027848879358281,-0.0557772798034009,0.0017122125945005,0.0063361694063315,0.0344905515284016,0.0519332925881426,-2.62011914539939,-0.144963141214248,-0.144963141214248,378.895502938174,46.4135702564118,88.09705
48,215,0.48,-0.0046410513202559,-0.0046410513202559,-0.027848879358281,-0.0557772798034009,0.0017122125945005,0.0063361694063315,0.0344905515284016,0.0519332925881426,-2.62011914539939,-0.144963141214248,-0.144963141214248,378.895502938174,27.5426293677051,88.098785
49,216,0.4900000000000002,-0.0046410513202559,-0.0046410513202559,-0.027848879358281,-0.0557772798034009,0.0017122125945005,0.0063361694063315,0.0344905515284016,0.0519332925881426,-2.62011914539939,-0.144963141214248,-0.144963141214248,378.895502938174,45.3216888500317,88.10002
50,217,0.5,-0.0046410513202559,-0.0046410513202559,-0.027848879358281,-0.0557772798034009,0.0017122125945005,0.0063361694063315,0.0344905515284016,0.0519332925881426,-2.62011914539939,-0.144963141214248,-0.144963141214248,378.895502938174,27.1704670471844,88.10108
51,218,0.5100000000000002,-0.0046410513202559,-0.0046410513202559,-0.027848879358281,-0.0557772798034009,0.0017122125945005,0.0063361694063315,0.0344905515284016,0.0519332925881426,-2.62011914539939,-0.144963141214248,-0.144963141214248,378.895502938174,45.9570742750692,88.101616
52,219,0.52,-0.0046410513202559,-0.0046410513202559,-0.027848879358281,-0.0557772798034009,0.0017122125945005,0.0063361694063315,0.0344905515284016,0.0519332925881426,-2.62011914539939,-0.144963141214248,-0.144963141214248,378.895502938174,28.5106266173708,88.10222
53,220,0.5300000000000002,-0.0046410513202559,-0.0046410513202559,-0.027848879358281,-0.0557772798034009,0.0017122125945005,0.0063361694063315,0.0344905515284016,0.0519332925881426,-2.62011914539939,-0.144963141214248,-0.144963141214248,378.895502938174,48.3243736885606,88.10276
54,221,0.54,-0.0046410513202559,-0.0046410513202559,-0.027848879358281,-0.0557772798034009,0.0017122125945005,0.0063361694063315,0.0344905515284016,0.0519332925881426,-2.62011914539939,-0.144963141214248,-0.144963141214248,378.895502938174,31.266853396171,88.10333
55,222,0.5500000000000003,-0.0046410513202559,-0.0046410513202559,-0.027848879358281,-0.0557772798034009,0.0017122125945005,0.0063361694063315,0.0344905515284016,0.0519332925881426,-2.62011914539939,-0.144963141214248,-0.144963141214248,378.895502938174,51.5838541662873,88.1037
56,223,0.56,-0.0046410513202559,-0.0046410513202559,-0.027848879358281,-0.0557772798034009,0.0017122125945005,0.0063361694063315,0.0344905515284016,0.0519332925881426,-2.62011914539939,-0.144963141214248,-0.144963141214248,378.895502938174,34.39792962701,88.104195
57,224,0.5700000000000003,-0.0046410513202559,-0.0046410513202559,-0.027848879358281,-0.0557772798034009,0.0017122125945005,0.0063361694063315,0.0344905515284016,0.0519332925881426,-2.62011914539939,-0.144963141214248,-0.144963141214248,378.895502938174,54.1806817933391,88.10478
58,225,0.5800000000000001,-0.0046410513202559,-0.0046410513202559,-0.027848879358281,-0.0557772798034009,0.0017122125945005,0.0063361694063315,0.0344905515284016,0.0519332925881426,-2.62011914539939,-0.144963141214248,-0.144963141214248,378.895502938174,36.4159670564233,88.10519
59,226,0.5899999999999999,-0.0046410513202559,-0.0046410513202559,-0.027848879358281,-0.0557772798034009,0.0017122125945005,0.0063361694063315,0.0344905515284016,0.0519332925881426,-2.62011914539939,-0.144963141214248,-0.144963141214248,378.895502938174,54.8457729374498,88.10527
60,227,0.6000000000000001,-0.0046410513202559,-0.0046410513202559,-0.027848879358281,-0.0557772798034009,0.0017122125945005,0.0063361694063315,0.0344905515284016,0.0519332925881426,-2.62011914539939,-0.144963141214248,-0.144963141214248,378.895502938174,36.3410927770003,88.10557
61,228,0.6099999999999999,1.54865531644598,-0.0240650724246096,1.61657231207092,0.0609464746418596,0.792342045789325,-1.33082925251198,0.752463134183877,-1.43206834495416,-2.62011914539939,-0.144963141214248,-47.0651258839229,378.895502938174,65.0850081217212,101.39276
62,229,0.6200000000000001,1.56872419940865,-0.0046410513202559,2.08228440584864,-0.0557772798034009,0.785497228809851,-1.35790693963162,1.08567103895574,-1.77773390780382,-2.62011914539939,-0.144963141214248,-102.032322194504,378.895502938174,49.8555766968017,120.55896
63,230,0.6299999999999999,1.54959329734827,0.0147829697837401,2.31514045265196,-0.289929358639448,0.759124712127333,-1.35099503878435,1.4047002282721,-1.86299533472279,-2.62011914539939,-0.144963141214248,-107.280205806795,378.895502938174,42.0275072327807,147.73427
64,231,0.6400000000000001,1.64659615525538,-0.0046410513202559,2.02503818369937,-0.173205604196326,0.824289792804621,-1.42542862863676,1.15897382173295,-1.66959860664268,-2.62011914539939,-0.144963141214248,-65.1925060711795,378.895502938174,30.6907775468153,168.91394
65,232,0.6499999999999999,1.66566843351936,-0.0044065560938113,1.90984189252038,-0.29204306849304,0.833587479673479,-1.44208275140197,1.20463014011127,-1.51051363244962,-2.62011914539939,-0.144963141214248,-10.2904161642393,378.895502938174,15.4929950474474,188.04561
66,233,0.6600000000000001,1.74354038938114,-0.0529666088718698,1.55967801335373,-0.17531931397615,0.914485789526111,-1.48541384530155,0.928983541668574,-1.26503831819476,-2.62011914539939,-0.144963141214248,-0.144963141214248,378.895502938174,-6.82908594739384,204.62726
67,234,0.6699999999999999,1.49038325313399,-0.0728596204089399,2.55221958148491,0.061651044589528,1.13334231907008,0.970611123629454,2.05500464018104,1.51478763272229,-0.911437526230748,30.9839640247255,-0.144963141214248,378.895502938174,22.3271890163423,215.33583
68,235,0.6800000000000002,1.56819658516915,0.0146070983731891,2.37801745068672,-0.171796464338834,0.999056409513809,1.20885904375508,1.36432832067118,1.95527216886664,-0.681345360842491,30.9839640247255,-0.144963141214248,378.895502938174,27.9461342861911,214.79343
69,236,0.69,1.40238892010145,0.0337966242368501,2.78753909283507,-0.756119806423955,-0.0478365824404816,1.40198022682688,-0.916988687610062,2.73883608537377,0.0582021529907836,53.8728810585053,1.96655927321005,378.895502938174,17.5055033183277,205.15279
70,237,0.7000000000000002,1.48078849018629,-0.014587557093281,2.6101696506178,-0.0543681399416328,-0.64567758860595,1.33268443416367,-1.16403822816805,2.33686895289624,0.441315132648419,53.8728810585053,40.7276439413921,378.895502938174,0.355333926136387,223.80347
71,238,0.71,1.41122157354575,-0.0145875571001261,2.26387693007873,-0.0543681398867874,-1.3941264867825,0.219477710290962,-2.24158478275264,0.321546747626597,1.40431118888796,90.8003338730032,103.857355726307,378.895502938174,1.95420566953935,252.99088
72,239,0.7200000000000002,1.324165221427,0.0341483670882813,2.61157734457299,-0.40665311311614,-1.08126884495991,-0.765138764885609,-1.84884212555631,-1.88877891132402,2.21240795051118,101.787014049217,153.933244823776,378.895502938174,-41.8048384938668,275.28748
