t,iq,id,vq,vd,ia,ib,va,vb,theta_e,omega,omega_obs,r,omega_ekf
0,0,0,0,0,0,0,0,0,0,-0.144963141214248,0,0,0
0.01,0.024524292236442,-0.082610713496264,-0.144570172359192,0.295333410105557,0.0592218383213128,-0.0625998782738794,-0.183223811293455,0.273041009439322,2.61705109019401,-0.144963141214248,203.718991239648,-0.144963141214248,2.28016215610633e-09
0.02,0.00508072986522116,-0.0240357605182534,-0.0862095258582046,-0.0563644214393831,0.0182597275398694,-0.0164351437421129,0.0919615612608821,0.0463907491139543,2.61705109019401,-0.144963141214248,203.677791189452,-0.144963141214248,-3.60589581389845
0.03,-0.0143628325056442,-0.0238403478257974,0.0305117671411093,-0.056951563077501,0.0278282394824889,0.000492168005298521,0.0340138428963157,-0.0549318392416329,2.61705109019401,-0.144963141214248,200.972321195594,-0.144963141214248,-0.783620332994006
0.04,-0.00468990449339219,0.00498302351877093,-0.0275556097697756,-0.0557772798034009,-0.00196429366182071,0.00655494301698309,0.0620785240430879,-0.00408331050531049,2.61705109019401,-0.144963141214248,203.718991239648,-0.144963141214248,-12.5296678809496
0.05,0.00503187669172942,-0.0239380541710033,-0.0859162562675651,0.0604767613111549,0.018199623920249,-0.0163439257736983,-0.00931762220496907,0.104652872230846,2.61705109019401,-0.144963141214248,203.718991239648,-0.144963141214248,-1.92155608180073
0.06,-0.0143628325053776,-0.0242800263837568,0.030511767139509,-0.0551901381631469,0.0282088048520639,0.000271969835893076,0.0324892351772046,-0.0540496890096803,2.61705109019401,-0.144963141214248,200.972321195594,-0.144963141214248,-17.4938789146236
0.07,-0.00473875766706173,0.00512958303817967,-0.0272623401780688,-0.0557772798034009,-0.0020666823216103,0.00667062744831852,0.0619316498642147,-0.00433715106353588,2.61705109019401,-0.144963141214248,200.972321195594,-0.144963141214248,-2.76572769155451
0.08,-0.00473875766723936,0.00620435285499724,-0.0272623401770025,-0.17848987897784,-0.00299695323258653,0.00720888964403127,0.168145984921212,-0.0657936155286057,2.61705109019401,-0.144963141214248,203.718991239648,-0.144963141214248,-18.9087865481448
0.09,-0.0045433449730949,0.00522728938534072,-0.0281421489494533,-0.0563644214468587,-0.00224911825832616,0.00655042020962826,0.0628804749768894,-0.00386967947162333,2.61705109019401,-0.144963141214248,203.718991239648,-0.144963141214248,-1.86070693695851
0.1,-0.00464105132025594,-0.0437235887540002,-0.027848879358281,0.061651044589528,0.0401694246926314,-0.0178804052177012,-0.0394151136441573,0.054980543803333,2.61705109019401,-0.144963141214248,203.718991239648,-0.144963141214248,-18.9297002757619
0.11,-0.0143628325049333,-0.0242800263846455,0.0305117671368416,-0.0551901381578065,0.0282088048526106,0.000271969835063402,0.0324892351739181,-0.054049689004697,2.61705109019401,-0.144963141214248,200.972321195594,-0.144963141214248,-6.05727659356013
0.12,-0.0142162729833032,0.0245731454073567,0.0299252279507631,-0.172618462549664,-0.0141496344791393,0.0246115772930879,0.134423495396587,-0.112352021638592,2.61705109019401,-0.144963141214248,200.972321195594,-0.144963141214248,-20.1225580499151
0.13,-0.00449449179848111,-0.0437235887540002,-0.0284354185447609,0.179079368982457,0.040096025301677,-0.0180072603430623,-0.14076187714939,0.114298238675627,2.61705109019401,-0.144963141214248,203.718991239648,-0.144963141214248,-7.12256234182951
0.14,-0.00454334497222815,-0.0433816165359029,-0.0281421489520549,0.0604767612921953,0.0398244964721911,-0.0177937100555571,-0.0382518342993802,0.0546462841990705,2.61705109019401,-0.144963141214248,200.972321195594,-0.144963141214248,-21.2242057164303
0.15,-0.0045433449720508,0.00478761081946166,-0.0281421489525872,-0.17144417924713,-0.00186855288228567,0.00633022203558355,0.162488176514974,-0.0615034928945509,2.61705109019401,-0.144963141214248,200.972321195594,-0.144963141214248,-12.2662389432181
0.16,0.0148025110526532,0.0245731454110888,-0.0862095258640724,-0.172618462572092,-0.028682713252573,-0.00050573642256741,0.19258566799559,-0.0118311644884652,2.61705109019401,-0.144963141214248,200.972321195594,-0.144963141214248,-22.7270515962062
0.17,0.0246708517550509,-0.0823664476391127,-0.145156711533001,0.294159126874171,0.058937013733805,-0.0626044010844898,-0.18191365783273,0.27296059041621,2.61705109019401,-0.144963141214248,203.718991239648,-0.144963141214248,-12.8522341170193
0.18,0.0439678546111288,-0.131219619430493,-0.261291465377178,0.529015775655762,0.0915578009546295,-0.103773454442555,-0.327032508963782,0.491101475107207,2.61705109019401,-0.144963141214248,203.718991239648,-0.144963141214248,-25.8507251293282
0.19,-0.00464105132025594,0.00488531717694154,-0.027848879358281,-0.172031320941449,-0.00190419004671417,0.00646372505159093,0.162849504956749,-0.0620513835600288,2.61705109019401,-0.144963141214248,200.972321195594,-0.144963141214248,-25.9351567618177
0.2,-0.0240357605201192,0.0438701482655661,0.0885791440653285,-0.28945964533224,-0.0259344662735486,0.0427751230475079,0.206180970052402,-0.221636095046504,2.61705109019401,-0.144963141214248,200.972321195594,-0.144963141214248,-31.1374092012184
0.21,0.0149490705690405,-0.0627274725741936,-0.0867960650298802,0.17614366083459,0.0468072537274208,-0.0443541601760332,-0.108992903858195,0.163342257439527,2.61705109019401,-0.144963141214248,205.855290162801,-0.144963141214248,-22.9371670955148
0.22,-0.00464105132025594,-0.0430396443388013,-0.027848879358281,0.0587153364363165,0.0395774341247077,-0.0175378747364719,-0.0368741008099895,0.0535102934377737,2.61705109019401,-0.144963141214248,203.718991239648,-0.144963141214248,-31.546939170472
0.23,-0.00464105132025594,0.00512958303817967,-0.027848879358281,-0.173205604196326,-0.00211561524839035,0.00658605736564815,0.16386591008487,-0.0626394837030434,2.61705109019401,-0.144963141214248,200.972321195594,-0.144963141214248,-25.4838582496873
0.24,0.386184323017172,0.0248662644458182,0.85225313153798,-0.17437988746188,-0.214930472054467,-0.321809811277041,-0.275887078640763,-0.825003069816456,2.61705109019401,-0.144963141214248,231.768596100904,99.9559006865147,-43.6115030727398
0.25,0.376755660868202,0.00498302351983732,1.14376309445709,-0.0551901381695547,-0.192998433517669,-0.323606648849125,-0.525045126384325,-1.01762841098964,2.61705109019401,-0.144963141214248,223.952793896586,99.9559006865147,-40.0411217423447
0.26,0.415545079265349,-0.0242800263828684,1.08598898712778,0.0622381862244432,-0.187096065881951,-0.371836381644258,-0.59775142613203,-0.908811809201688,2.61705109019401,-0.144963141214248,172.052937486533,99.9559006865147,-37.9789543957864
0.27,0.415642785611355,-0.0630694447790367,1.14464290321407,0.295333410103417,-0.153570677101065,-0.391347323013999,-0.828882676792883,-0.84284204161534,2.61705109019401,-0.144963141214248,166.791538425151,99.9559006865147,-19.9370217663786
0.28,0.425266860450915,0.0048853171729415,1.14522944238895,-0.0546029965292942,-0.21720906077672,-0.365644626431393,-0.526287699840489,-1.01860356367975,2.61705109019401,-0.144963141214248,216.7501654188,99.9559006865147,-10.9877268059677
0.29,0.415447372919343,0.0243288795430986,1.26283054415218,-0.172031320920094,-0.229120747690611,-0.347407681295479,-0.483543731446695,-1.17920363737558,2.61705109019401,-0.144963141214248,231.842078712518,99.9559006865147,-14.8864312131713
0.3,0.444612716474886,-0.024035760517454,1.20476316724343,-0.0563644214425858,-0.201865036320924,-0.396873648087123,-0.554578549299911,-1.07101534527166,2.61705109019401,-0.144963141214248,174.850912276339,99.9559006865147,-13.453274572548
0.31,0.454383350832966,-0.0429419379809771,1.14610925115767,-0.0593001296449246,-0.190394018397595,-0.414799177084734,-0.522662701778219,-1.02171748596908,2.61705109019401,-0.144963141214248,137.798910182363,99.9559006865147,0.315367166309854
0.32,0.444856982341189,-0.0240357605169203,1.20359008888621,-0.173792745837649,-0.20198736863798,-0.397085073292916,-0.452350540722867,-1.12880999680133,2.61705109019401,-0.144963141214248,150.843083629353,99.9559006865147,5.6362125638072
0.33,0.454578763526222,0.00488531717072045,1.08657552630159,-0.4068879696974,-0.231888938324807,-0.391015650397117,-0.191991329610385,-1.14426549523984,2.61705109019401,-0.144963141214248,200.893322675963,99.9559006865147,11.821513630178
0.34,0.4644959574054,-0.0241823200371289,0.968681154944518,-0.290633928589255,-0.211696031474361,-0.414157058742626,-0.233572018672073,-0.983999681140865,2.61705109019401,-0.144963141214248,213.869306121396,99.9559006865147,23.6786794048303
0.35,0.297320403491525,-0.0146559515470403,1.03261392368155,-0.0546029965143406,0.286380142800908,-0.0812442801521675,0.995802100422619,-0.278659612077633,-1.89648061734851,38.9187885964366,216.87465797308,99.9559006865147,18.2502444794913
0.36,0.308019248149687,0.00517843621193782,1.02821487980646,-0.0563644214489935,0.307612087842519,-0.016657636250873,1.02960138208344,0.0179939176546462,-1.60808445453028,38.9187885964366,166.871115547723,99.9559006865147,28.5885443270883
0.37,0.288331419911273,0.00512958303817967,1.20446989766186,-0.0557772798034009,0.280566412259454,0.0666618979781881,1.15285221711236,0.353257136962514,-1.31973546430476,38.9187885964366,119.872732105615,99.9559006865147,17.9201563599124
0.38,0.210459464087104,-0.160189550272428,1.43791248363928,0.645269816668585,0.0373085842618699,0.261843364591675,1.47676962861244,0.550560542462919,-0.792125682818661,46.8536131681467,80.7621362604667,99.9559006865147,39.7573123707385
0.39,0.25906837000948,0.0242800263629397,1.26283054415745,-0.288872503643256,0.134204984168035,0.222923669097768,0.287225159394864,1.26320624382114,-0.448457467752073,46.8536131681467,38.9942292781782,99.9559006865147,39.5102938687219
0.4,0.259019516835199,-0.0728400791328956,0.969854233315482,0.295333410075915,-0.121803151590028,0.239918276695134,0.101162434947,1.00876420373773,0.195642811751937,59.9765922675133,-0.144963141214248,99.9559006865147,50.4541346414963
0.41,0.200688829722838,0.0147536578806713,1.20329681931317,-0.0551901381791631,-0.107067651262375,0.170382495725179,-0.757658209896168,0.936441788739883,0.634420624122458,59.9765922675133,-0.144963141214248,99.9559006865147,41.9519257411151
0.42,0.239771367156845,-0.00464105132025594,1.02733507105002,-0.0557772798034009,-0.21487498014708,0.10649220991421,-0.937220401717415,0.424436534426836,1.09132053863899,59.9765922675133,-0.144963141214248,99.9559006865147,55.7183413931016
0.43,0.17147463299238,-0.0339041012234059,1.43703267491257,0.0610639029631586,-0.172624816379456,-0.0274537904413505,-1.43373456204007,0.114877824767134,1.53330974888058,59.9765922675133,-0.144963141214248,99.9559006865147,44.1456085441749
0.44,0.22018124526826,-0.00459219814800832,1.20241701056046,-0.173205604196326,-0.200622273104849,-0.0908381670112062,-1.03733355068903,-0.632254658523808,1.97510798765288,67.9063727872883,-4.98498619335111,99.9559006865147,64.6673434947426
0.45,0.190820489020795,-0.0235472287967535,1.20359008889261,0.0587153364469906,-0.0753207359829418,-0.176900304536566,-0.654377435191169,-1.0118630169777,2.61628172973652,67.9114168392234,-47.0957083151548,99.9559006865147,59.8292123060738
0.46,0.190918195365735,0.00498302352090309,1.08598898713311,-0.0551901381738243,0.0250824171007573,-0.18932897347607,0.225171662740571,-1.06382129788075,-2.98378466469892,72.79438580643,-96.2448534723666,99.9559006865147,71.4652355271753
0.47,0.229609907419628,-0.00459219814774146,0.853132940291234,-0.0557772798034009,0.132358262235265,-0.187678150798485,0.523865111445569,-0.675656912761465,-2.54735545691218,72.79438580643,-81.1008353252888,99.9559006865147,71.1385038272631
0.48,0.160824641529314,0.0244265858920365,1.20681605432935,-0.17203132093291,0.140683611325691,-0.0816660573661741,1.18589915992349,-0.282210819887771,-1.94601868962028,74.9306847295829,-28.3135605325038,99.9559006865147,73.7264857337596
0.49,0.180903295144639,0.00493417034741233,1.0285081493859,-0.0546029965378466,0.178861351162025,0.0275493247049761,1.00209344265376,0.237947962324638,-1.39070275040935,74.9306847295829,-0.144963141214248,99.9559006865147,73.0968752119695
0.5,0.132440948734527,-0.0524683064840393,1.14376309445709,0.174382235911687,0.0574677351549054,0.130349482174539,0.936869172763289,0.678880942116843,-0.792434038335187,77.9825403340865,-0.144963141214248,99.9559006865147,76.4838411441352
0.51,0.151689098414716,-0.0343437797785224,1.14493617280204,0.0639996111291889,-0.00108319640031228,0.155524610505551,0.307558152573339,1.10470936123532,-0.215690482036885,77.9825403340865,-0.178921432061323,99.9559006865147,77.6343841597394
0.52,0.190673929502541,-0.0336598353578125,1.08716206547647,0.0604767613175594,-0.0847577485662435,0.174085197435728,-0.240582743074419,1.06193160749895,0.278362005821103,72.79438580643,-18.1022859123946,99.9559006865147,83.9770812962092
0.53,0.142113876748471,0.0149002173966153,1.3786720283865,-0.173205604196326,-0.0932295299551698,0.108289543296128,-1.12231218894449,0.819238728165967,0.81526972785326,72.79438580643,-69.9544744895867,99.9559006865147,87.0591343358222
0.54,0.131366178927657,0.00449449178740407,1.03173411486482,-0.170269896005714,-0.131416644398589,-0.00263419769475005,-1.02098543945141,-0.22595542412145,1.62503839231034,85.9173649057966,-88.0384045509272,99.9559006865147,98.3248420177062
0.55,0.0931629986105513,-0.0921370819871484,1.0859889871235,0.411587451211545,-0.0016614833514107,-0.131018417256083,-1.0623262648661,-0.469296513010696,2.34905033189893,90.8003338730032,-49.3579658767848,99.9559006865147,102.825428725071
0.56,0.132196682871157,0.0147536578766718,0.851666592362567,-0.0546029965228799,-0.0309527946026666,-0.129365984281666,-0.0509022737425204,-0.851895786058122,3.01788636667363,90.8003338730032,-2.35938956738035,99.9559006865147,101.938668179466
0.57,0.307188744201829,-0.12110701284703,0.563089325366976,0.527841492313263,0.186068600212455,-0.272782530855634,-0.390182754277704,-0.665915646019819,-2.91850592244929,69.7425302019255,-0.144963141214248,99.9559006865147,107.794019976096
0.58,0.132489801912282,0.0344414861134865,1.61270115354402,-0.29122107023164,0.0640885540957637,-0.120964543608346,1.30401155730509,-0.992556588212393,-2.40005368162161,69.7425302019255,-0.144963141214248,99.9559006865147,93.0342207419278
0.59,0.122279488992247,0.0244754390607299,0.969854233309208,-0.172031320909417,0.123478127940295,-0.0174491393994231,0.958441151420839,0.227161987367447,-1.51363117167922,90.8003338730032,4.69405910562213,99.9559006865147,114.12030556407
0.6,0.102933632969874,-0.014265126157684,1.20359008888461,0.0610639029450043,0.0737119055586174,0.0732487651744989,0.998811606982695,0.674339140240857,-0.926258138729176,82.8655093012931,35.8327522094414,99.9559006865147,114.020122132374
0.61,0.171132660784071,-0.0435770292327257,0.969854233311344,0.0610639029439353,0.0108563966269682,0.176259705310271,0.354789577028593,0.904693533825987,-0.310855353401086,82.8655093012931,74.847674257867,99.9559006865147,120.884066413746
0.62,0.17118151395774,0.014753657875074,0.969560963719639,-0.172618462549664,-0.0390117980132797,0.167328601133607,-0.464535200395139,0.868362046369953,0.315027908484428,82.8655093012931,108.776984125637,99.9559006865147,113.64638521403
0.63,0.132392095567467,-0.0239869073414292,1.20417662806955,-0.0563644214509981,-0.120386666312277,0.0600840183973091,-0.998069317971352,0.676073913206729,0.928638949562127,69.7556531809294,135.918967129789,99.9559006865147,120.265485392028
0.64,0.229854173282201,0.00517843621219357,1.14522944238895,-0.173792745844992,-0.229899977685121,-0.00239946602992058,-1.13887983005435,-0.211440599030144,1.60375836139773,69.7425302019255,145.733734754073,99.9559006865147,108.604384560016
0.65,0.229609907411686,0.0537873421339464,1.08804187427313,-0.406887969682713,-0.19816722246696,-0.127841854238617,-0.462921670828646,-1.06540906074686,2.37384021795002,72.79438580643,137.798910182363,99.9559006865147,115.885286930553
0.66,0.23938054178073,-0.101907716356782,1.08774860462788,0.41158745127136,0.0444347087534913,-0.256346997435668,-0.649544378996296,-0.964724497785902,2.91074987889299,72.79438580643,107.053296080553,99.9559006865147,109.742988936833
0.67,0.171376926647798,-0.00468990449232621,1.32031138190472,-0.173205604196326,0.0870475385670453,-0.147698247182594,0.790576501109311,-1.071546136387,-2.63639211021066,77.9825403340865,85.9466627196597,99.9559006865147,106.381332133924
0.68,0.132245536042161,-0.0143628325065323,1.43791248366048,-0.0557772798034009,0.132494904034283,-0.0118436972958311,1.42094151858948,-0.227219313346236,-1.76813248708598,80.7292103781401,74.9306847295829,99.9559006865147,104.923868700746
0.69,0.0641442145667787,-0.0726935196235698,1.72942244659717,0.177905085727567,0.0309731204556533,0.0918667179499239,1.66329133968335,0.505978396432348,-1.17297886612395,82.8633730025017,67.9407146530532,99.9559006865147,93.4513970857427
0.7,0.14191846405628,0.00517843621051679,1.26253727456367,-0.17379274582484,0.0588261077662724,0.129256163051326,0.320030366139668,1.23360644166303,-0.390624788750039,82.8655093012931,77.9825403340865,99.9559006865147,86.8020910002717
0.71,0.161655145462851,-0.0144605388511165,1.08569571754888,-0.0557772798034009,-0.0759645340834092,0.143425530502665,-0.472074805854113,0.979281202578732,0.397865399034639,85.9173649057966,93.8521894775067,99.9559006865147,97.5231967609158
0.72,0.0741591147899101,-0.0337086885329949,1.55258088956801,0.0604767613282499,-0.0809434691387015,-0.0091654128564727,-1.45805624684348,0.536876930360457,1.2569208565432,85.9173649057966,106.92633888724,99.9559006865147,90.5723519416108
0.73,0.171034954441175,0.0827572730070329,1.0874553350575,-0.523142010848277,-0.188338836419238,0.0251038756470591,-0.869243279854016,-0.837050052080535,1.88894022885321,85.9173649057966,114.909993148584,99.9559006865147,99.2183356866218
0.74,0.132001270179767,-0.0631182979527959,1.20505643681966,0.17849222734968,-0.0125212166121104,-0.145778853062035,-0.764821702608097,-0.948192097817947,2.60988411323622,87.7484782684987,116.741106511286,99.9559006865147,112.682333105594
0.75,0.12257260803053,0.0147048047054921,1.32001811230555,-0.289459645321563,0.0224916256470759,-0.12138534630088,0.669690068123691,-1.17377592228708,-2.83898193152821,87.7484782684987,116.711808697557,99.9559006865147,96.9826351989516
0.76,0.0248662644465298,0.00498302351957047,1.61358096232713,-0.172031320926496,0.0223348044184364,-0.0120132486243955,1.59367737601686,-0.30566438872767,-1.86650660918662,93.8521894775067,114.909993148584,99.9559006865147,113.212421668578
0.77,0.0736217298931463,-0.0242311732100876,1.32060465147616,0.0622381862255123,0.0586484150224092,0.0506722042441013,1.24304255103917,0.450239329280696,-1.1761941879742,93.8521894775067,106.975168576873,99.9559006865147,105.424747401232
0.78,0.0931141454371478,0.0732309045089432,1.2622440049757,-0.524316294101002,0.109524235307242,0.045138136160591,0.163280772651556,1.35702133131326,-0.513445174727164,93.8521894775067,101.787014049217,99.9559006865147,114.439621445159
0.79,0.219350741326716,-0.121058159678163,0.621156702253294,0.410413167939577,-0.188715986902369,0.164791086023208,0.173494692580242,0.723998762995403,0.348678337986834,93.8521894775067,101.787014049217,99.9559006865147,114.716365319542
0.8,0.112606560980971,-0.00473875766670702,1.14493617279991,-0.172618462557135,-0.106162588896914,0.0378443934934866,-1.12609109537006,0.269434256043199,1.18630649794077,95.9884884006597,98.7351584447133,99.9559006865147,104.409125292238
0.81,0.112606560980971,0.0149490705699298,1.08657552630159,-0.290633928589255,-0.111503914224219,-0.0216930726164826,-0.937431522743879,-0.621559808040133,1.89492907261946,95.9884884006597,106.92633888749,99.9559006865147,120.97845150808
0.82,0.102738220275729,0.00527614255838998,1.20417662806642,-0.173792745837656,-0.0504494787133678,-0.089653944047488,-0.380299531714443,-1.15568920400988,2.68035120519884,95.9884884006597,107.004466390487,99.9559006865147,117.119848564241
