t,iq,id,vq,vd,omega,r
0,0,0,0,0,867.802770779703,0
0.01,-0.00464105132025594,-0.00464105132025594,-0.027848879358281,-0.0557772798034009,870.854626384207,-0.144963141214248
0.02,-0.00464105132025594,-0.00464105132025594,-0.027848879358281,-0.0557772798034009,862.919801812497,-0.144963141214248
0.03,-0.00464105132025594,-0.00464105132025594,-0.027848879358281,-0.0557772798034009,851.933121636283,-0.144963141214248
0.04,-0.00464105132025594,-0.00464105132025594,-0.027848879358281,-0.0557772798034009,846.744967108626,-0.144963141214248
0.05,-0.00464105132025594,-0.00464105132025594,-0.027848879358281,-0.0557772798034009,843.998297064572,-0.144963141214248
0.06,-0.00464105132025594,-0.00464105132025594,-0.027848879358281,-0.0557772798034009,836.979029174214,-0.144963141214248
0.07,-0.00464105132025594,-0.00464105132025594,-0.027848879358281,-0.0557772798034009,838.810142536916,-0.144963141214248
0.08,-0.00464105132025594,-0.00464105132025594,-0.027848879358281,-0.0557772798034009,841.859358706836,-0.144963141214248
0.09,-0.00464105132025594,-0.00464105132025594,-0.027848879358281,-0.0557772798034009,822.939916016938,-0.144963141214248
0.1,-0.00464105132025594,-0.00464105132025594,-0.027848879358281,-0.0557772798034009,815.921225503136,-0.144963141214248
0.11,-0.00464105132025594,-0.00464105132025594,-0.027848879358281,-0.0557772798034009,809.817514294128,-0.144963141214248
0.12,-0.00464105132025594,-0.00464105132025594,-0.027848879358281,-0.0557772798034009,820.803094705933,-0.144963141214248
0.13,-0.00464105132025594,-0.00464105132025594,-0.027848879358281,-0.0557772798034009,812.872467569288,-0.144963141214248
0.14,-0.00464105132025594,-0.00464105132025594,-0.027848879358281,-0.0557772798034009,812.869369898633,-0.144963141214248
0.15,-0.00464105132025594,-0.00464105132025594,-0.027848879358281,-0.0557772798034009,802.800583403729,-0.144963141214248
0.16,-0.00464105132025594,-0.00464105132025594,-0.027848879358281,-0.0557772798034009,791.811566227555,-0.144963141214248
0.17,-4.54757666748513,-0.141429932338356,-0.0896623413126206,0.532770027130336,537.897179932828,9.85474613438381
0.18,-4.55758124765278,0.0536903969994843,-1.43694690380501,1.00178037998385,438.721605701476,-0.144963141214248
0.19,-4.53815693057239,0.188316187242911,-2.78528485253723,-0.278689081841927,289.781319286659,-0.144963141214248
0.2,-3.65920902872261,-0.0532604048808399,-3.48702629857083,0.882946779503004,226.913093833879,-0.144963141214248
0.21,-3.73696493018894,0.0146079871278111,-3.95801211364591,0.41604331865853,226.913093833879,-0.144963141214248
0.22,-1.33327201142531,-0.0629142321864631,-1.2571254796026,0.0602463817966661,59.9765922675133,-0.144963141214248
0.23,-1.06934805117343,-0.014353256635428,-0.96806530835109,-0.0557772798034009,59.9765922675133,-0.144963141214248
0.24,-1.25534066973915,0.00495432142080352,-1.78746636197912,-0.0550751528208573,74.9306847295829,-0.144963141214248
0.25,-1.31373081924568,-0.014236449573729,-1.90582615080465,0.0609490198139265,74.9306847295829,-0.144963141214248
0.26,0.914324210130353,-0.0336609367524242,1.55440445039022,0.0602471995056093,-73.0843120888576,-0.144963141214248
0.27,1.07012872810767,-0.0143532906542013,1.67346523727673,0.061651044589528,-73.0843120888576,-0.144963141214248
0.28,1.0405449778902,0.0143163521930919,1.94710681983471,-0.287125337948879,56.8154200806959,-0.144963141214248
0.29,-0.962279974474968,0.0533405966762959,-1.72846199790556,-0.405255789403839,56.9247366630098,-0.144963141214248
0.3,-1.01101639023914,-0.00423246475127453,-1.78746636197912,-0.0578818208658544,56.9247366630098,-0.144963141214248
0.31,0.903619416974249,-0.00481613433740582,1.14768186357733,-0.0550758683228584,-62.0976319126439,-0.144963141214248
0.32,0.894665777166881,-0.0240072625323927,1.61270929692274,0.0609497353159276,-62.0976319126439,-0.144963141214248
0.33,-0.610770445514667,-0.0624480415376153,-0.968412999368438,0.175573333781868,51.7365821353524,-0.144963141214248
0.34,-0.884114814561635,0.0436287655611076,-1.61115442099943,-0.288530614090206,51.7365821353524,-0.144963141214248
0.35,-0.942505295756198,0.024379216820333,-1.6122048970502,-0.171803598944178,51.7365821353524,-0.144963141214248
0.36,0.845520774829262,-0.033777998947149,1.26218718394813,0.0609501441704024,-60.2665185499418,-0.144963141214248
0.37,0.835808433434593,-0.0337780244661876,1.73106852416006,0.178378570796814,-60.2665185499418,-0.144963141214248
0.38,0.982693719143237,-0.024590430343284,1.13122990238339,-0.0536751918677769,51.624579035457,-0.144963141214248
0.39,-0.913426632591119,0.00518787600634968,-1.43519292800585,-0.173205604196326,51.7365821353524,-0.144963141214248
0.4,-0.913426615582843,-0.0336615320754039,-1.72846255949369,0.0602500614602136,51.7365821353524,-0.144963141214248
0.41,0.718910374823041,-0.0337198505648738,1.14348026572045,0.0602502659274979,-54.1628073409338,-0.144963141214248
0.42,0.776776627540463,-0.0437235887540002,1.38124424386905,0.179079368982457,-54.1628073409338,-0.144963141214248
0.43,0.826037645994969,-0.0142369088305023,1.37914564027514,-0.0571776496376497,-54.1628073409338,-0.144963141214248
0.44,-0.805891319157244,-0.10211439312358,-1.14262296719874,0.412535852347946,46.8536131681467,-0.144963141214248
0.45,-0.825316095489957,-0.0148776211898844,-1.5532003287459,-0.0536773383737803,46.8536131681467,-0.144963141214248
0.46,-0.817803990909894,-0.0143534522439303,-1.71343092302342,-0.0557772798034009,-51.9276283040883,-0.144963141214248
0.47,0.737752485128988,-0.0436653638233768,1.20493194551878,0.061651044589528,-52.0265084177809,-0.144963141214248
0.48,0.708906338977976,0.0146091352641904,1.67171677532273,-0.0543779320919858,-52.0265084177809,-0.144963141214248
0.49,0.747930625959796,-0.0242405279572545,1.67171697958021,-0.172506032574261,-52.0265084177809,-0.144963141214248
0.5,-0.766808730694231,0.00507138362219201,-1.25958111719287,-0.0557772798034009,43.8017575636422,-0.144963141214248
0.51,-0.786233609083264,0.0342087224660873,-1.494546106339,-0.289235194172893,43.8017575636422,-0.144963141214248
0.52,-0.730689468908351,-0.0437817711617121,-1.88940614934548,0.0623503095907671,-47.0525941451041,-0.144963141214248
0.53,0.659645737250668,-0.0340693021982695,1.08727397166414,0.062350207357125,-47.1435394505743,-0.144963141214248
0.54,0.679652346153532,0.0051877484353943,1.26114058804271,-0.0557772798034009,-47.1435394505743,-0.144963141214248
0.55,0.698553838021732,0.014725746717385,1.38124158905522,-0.173205604196326,-47.1435394505743,-0.144963141214248
0.56,-0.688294714466063,-0.121423476509974,-0.909752037837731,0.528568917574156,38.9187885964366,-0.144963141214248
0.57,-0.669218607341623,0.0243220124595742,-1.43519384699115,-0.171808096370069,38.9187885964366,-0.144963141214248
0.58,-0.70818485650607,0.0247871145119319,-1.49384781412956,-0.290633928589255,38.9187885964366,-0.144963141214248
0.59,0.561997618594712,-0.00475729706886123,0.911311610762957,-0.0557772798034009,-44.0916838460707,-0.144963141214248
0.6,0.611257599482182,-0.0336623825447407,1.20248789723354,0.060254150004949,-44.0916838460707,-0.144963141214248
0.61,0.631031240616119,0.0149583232604206,1.37705459276782,-0.0564756248620482,-44.0916838460707,-0.144963141214248
0.62,-0.415646765330899,-0.024066125317794,-1.02496545284342,-0.0557772798034009,40.7499019591387,-0.144963141214248
0.63,-0.708068636272099,-0.014063152545514,-1.31893245756874,-0.0571735610929272,40.7499019591387,-0.144963141214248
0.64,-0.7276679938445,-0.0138889625161659,-1.49454544263554,-0.0578713951168643,40.7499019591387,-0.144963141214248
0.65,0.484471385051853,-0.0822254077374198,0.968919084098018,0.29371594855867,-49.2798383737272,-0.144963141214248
0.66,0.738101349943541,-0.0142955589969027,1.0272244922586,-0.0557772798034009,-49.2798383737272,-0.144963141214248
0.67,0.718095617020204,0.00507152820142312,1.3815876463723,-0.055079548013106,-49.2798383737272,-0.144963141214248
0.68,-0.51294622328939,-0.150445964372749,-0.792440529748456,0.527876194244476,43.8017575636422,-0.144963141214248
0.69,-0.776463127810419,-0.0433173239701854,-1.26027792881562,0.0602559898901067,43.8017575636422,-0.144963141214248
0.7,-0.786233770672993,0.0344414861134865,-1.49454513630266,-0.290633928589255,43.8017575636422,-0.144963141214248
0.71,0.601254320538722,0.0246128309370685,0.794002553283381,-0.289936605653441,-49.2798383737272,-0.144963141214248
0.72,0.786200208596674,0.00489753379163495,0.855094135757225,-0.055080059101071,-49.2798383737272,-0.144963141214248
0.73,0.766891040151254,-0.0143536818712064,1.20562436644579,0.0609539260942987,-49.2798383737272,-0.144963141214248
0.74,-0.552318533122783,-0.0240083341270872,-1.08327121838793,-0.0557772798034009,43.8017575636422,-0.144963141214248
0.75,-0.757037883719017,-0.0437815755532096,-1.37688894936759,0.0623479586708731,43.8017575636422,-0.144963141214248
0.76,-0.766750531278243,-0.00440913814880342,-1.55319874605722,-0.0571709034991237,43.8017575636422,-0.144963141214248
0.77,0.620795487197053,-0.0145276252561157,0.969615691503289,0.061651044589528,-49.2798383737272,-0.144963141214248
0.78,0.7279826417087,-0.0143537243941173,1.20457925112709,-0.0557772798034009,-49.2798383737272,-0.144963141214248
0.79,0.708093681821624,-0.0144696384591279,1.49993610110795,0.061651044589528,-49.2798383737272,-0.144963141214248
0.8,-0.640022005989028,0.0344414861134865,-1.25992896140294,-0.290633928589255,46.8536131681467,-0.144963141214248
0.81,-0.78652354307487,-0.00440930824049976,-1.55215511131178,-0.0571698813759861,46.8536131681467,-0.144963141214248
0.82,-0.776694947434082,-0.169409508300236,-1.84577253595857,0.759955203732942,46.8536131681467,-0.144963141214248
0.83,0.640510410144818,-0.0729775730676437,1.49610986574247,0.295811597002977,-52.0265084177809,-0.144963141214248
0.84,0.738332531707977,-0.0142379549127832,1.49506709895809,-0.0564732739421541,-52.0265084177809,-0.144963141214248
0.85,0.6993657382476,-0.00464105132025594,1.90529722893436,-0.0557772798034009,-52.0265084177809,-0.144963141214248
0.86,-0.698356090769193,-0.0529152906421652,-1.08500952049253,0.17629621008298,43.8017575636422,-0.144963141214248
0.87,-0.74732503204715,0.0245550822692725,-1.49350180786351,-0.172509916678399,43.8017575636422,-0.144963141214248
0.88,-0.767155664933951,-0.00354140282619076,-1.60976743484189,-0.0613419620776805,43.8017575636422,-0.144963141214248
0.89,0.659762085053373,0.0245551162902671,0.911308547487498,-0.289938445511912,-47.1435394505743,-0.144963141214248
0.9,0.709656722954123,0.025075866352829,1.08206018855307,-0.175291746807529,-47.1435394505743,-0.144963141214248
0.91,0.747697794279294,0.00512958303817967,1.20388335847631,-0.0557772798034009,-47.1435394505743,-0.144963141214248
0.92,-0.571627055198312,-0.0725727540872533,-1.02496545284342,0.293726987656119,40.7499019591387,-0.144963141214248
0.93,-0.708126725127629,-0.0536098905396735,-1.31858221378676,0.179079368982457,40.7499019591387,-0.144963141214248
0.94,-0.717723883857622,0.0145532661397294,-1.49523816990879,-0.171815660164461,40.7499019591387,-0.144963141214248
0.95,0.552400740521266,-0.0436657720486571,0.911307934848415,0.061651044589528,-47.1435394505743,-0.144963141214248
0.96,0.630507990177049,-0.0630336246749411,1.49680591157304,0.177689833831786,-47.1435394505743,-0.144963141214248
0.97,0.679534552549623,-0.0142960862890021,1.43780507024767,-0.0557772798034009,-47.1435394505743,-0.144963141214248
0.98,-0.483806673218554,-0.0436080063725865,-0.850044480295372,0.0609564814280768,43.8017575636422,-0.144963141214248
0.99,-0.737496410889505,0.0442121204719221,-1.43519599126798,-0.290633928589255,43.8017575636422,-0.144963141214248
1,-0.756748800198969,-0.00539211566298002,-1.5538911669975,-0.0523054861990662,43.8017575636422,-0.144963141214248
1.01,0.504009592079118,-0.0628604977383696,0.968574149983724,0.176996599440682,-49.2798383737272,-0.144963141214248
1.02,0.650742293930077,-0.0435503172381987,1.49403244972829,0.0609568902825452,-49.2798383737272,-0.144963141214248
1.03,0.699075617158299,-0.0530322337700682,1.61342076117933,0.176997212682335,-49.2798383737272,-0.144963141214248
1.04,-0.454609893261228,-0.11177158829443,-0.966658155661195,0.411854168169115,43.8017575636422,-0.144963141214248
1.05,-0.747036067589476,0.0635801942168974,-1.31927473684253,-0.407368405322727,43.8017575636422,-0.144963141214248
1.06,-0.766750531278243,-0.0340684007018861,-1.49454329834538,0.0623447900420424,43.8017575636422,-0.144963141214248
1.07,0.513548857570974,-0.00469876596927885,0.734998495529448,-0.172511960950754,-47.1435394505743,-0.144963141214248
1.08,0.727983407134432,-0.0338375421102376,0.970306938189844,0.0609575035775977,-47.1435394505743,-0.144963141214248
1.09,0.864483825472318,0.0149579150351409,0.56111482697171,-0.173205604196326,-47.1435394505743,-0.144963141214248
1.1,-0.474208391869048,-0.0729778026949193,-0.849696329752524,0.295814356777339,43.8017575636422,-0.144963141214248
1.11,-0.747266943189413,-0.0144116856786916,-1.31823503328023,-0.0557772798034009,43.8017575636422,-0.144963141214248
1.12,-0.756806880548136,-0.0145270299264724,-1.55354311857005,0.061651044589528,43.8017575636422,-0.144963141214248
1.13,0.601714915100283,0.0249015062340612,0.909229140362897,-0.174591664097366,-49.2798383737272,-0.144963141214248
1.14,0.766777822071247,-0.00481401666710005,1.03069047715917,-0.055084352059823,-49.2798383737272,-0.144963141214248
1.15,0.689535161002827,0.00536016947525311,1.67103834335225,-0.0571629308235872,-49.2798383737272,-0.144963141214248
1.16,-0.72755271763427,-0.0337224019751037,-1.02669548410692,0.0609583212865605,46.8536131681467,-0.144963141214248
1.17,-0.825374337428856,-0.0238365424312648,-1.3185809884819,0.0595731813014516,46.8536131681467,-0.144963141214248
1.18,-0.805948310905664,0.0349024548882024,-1.66946672150314,-0.292711485256505,46.8536131681467,-0.144963141214248
1.19,0.699247910620567,-0.0533213853409564,1.4371156104804,0.178386952326858,-52.0265084177809,4989.72035311747
1.2,0.873909583730168,0.0244980394960244,0.915109204497452,-0.172513289747827,-52.0265084177809,9.85474713508208
1.21,0.817799487638176,0.0144970483211851,1.30632389833076,-0.287865079623026,51.6328190530767,-0.144963141214248
1.22,-0.864514461940667,-0.0146996210690238,-1.49419678154232,-0.0543930597341707,51.7365821353524,-0.144963141214248
1.23,-0.884113300722886,0.0343263289700725,-1.66981288093561,-0.289941920788282,51.7365821353524,-0.144963141214248
1.24,0.738215010258704,0.0050144429030414,1.08622992848383,-0.172513698602295,-54.1628073409338,-0.144963141214248
1.25,0.854599156587774,0.00484177522102329,1.20664773261007,-0.0543936730292233,-54.1628073409338,-0.144963141214248
1.26,0.786780331713036,0.0148426643373219,1.73211409897825,-0.173205604196326,-54.1628073409338,-0.144963141214248
1.27,-0.708241814233497,0.0927775694994304,-1.43554286545496,-0.5241073794821,46.8536131681467,-0.144963141214248
1.28,-0.805717996614393,0.130939572673125,-1.43623365265552,-0.754123755504904,46.8536131681467,-0.144963141214248
1.29,-0.805890596256643,-0.0045835237755977,-1.66981318725515,-0.0564686743360213,46.8536131681467,-0.144963141214248
1.3,0.718328372163466,0.0048419878355778,1.08726610929801,-0.171823019544969,-49.2798383737272,-0.144963141214248
1.31,0.738099691523341,-0.0143541751445306,1.32050070978335,0.0609598544974917,-49.2798383737272,-0.144963141214248
1.32,0.786377817502874,0.0149577194266384,1.32291713756507,-0.17389669208142,-49.2798383737272,-0.144963141214248
1.33,-0.71795485301195,-0.00446857074260035,-1.20092720110551,-0.056468265481553,43.8017575636422,-0.144963141214248
1.34,-0.756749956832818,-0.102117454817625,-1.37826929849055,0.412554250825891,43.8017575636422,-0.144963141214248
1.35,-0.727897899906052,0.0250157108473782,-1.72812237345903,-0.17527794790903,43.8017575636422,-0.144963141214248
1.36,0.650163854728687,-0.0340678904180646,1.20353837331098,0.0623417236201538,-47.1435394505743,-0.144963141214248
1.37,0.815632558731447,0.0536379977876848,0.73706656857752,-0.405990522511132,-47.1435394505743,-0.144963141214248
1.38,0.698844622487115,0.00512958303817967,1.55580685500048,-0.173205604196326,-47.1435394505743,-0.144963141214248
1.39,-0.688872668893832,0.0436376955057737,-1.37585445337091,-0.287872439056857,43.8017575636422,-0.144963141214248
1.4,-0.737496062195413,0.0246134177625739,-1.49385200059446,-0.173205604196326,43.8017575636422,-0.144963141214248
1.41,-0.727897695797848,0.00535928499152747,-1.72777825620132,-0.173895772165516,43.8017575636422,-0.144963141214248
1.42,0.679418187738642,-0.111830944342054,1.32084651180526,0.412555886243816,-49.2798383737272,-0.144963141214248
1.43,0.796321332160115,0.0246708517550509,1.08760940964581,-0.173205604196326,-49.2798383737272,-0.144963141214248
1.44,0.718672891072496,0.005301782959285,1.6717363802537,-0.173895465517989,-49.2798383737272,-0.144963141214248
1.45,-0.757037288389371,-0.0435514143453084,-1.37688894936759,0.0609612854748069,46.8536131681467,-0.144963141214248
1.46,-0.786463948891392,0.0344988690789126,-1.55216174837307,-0.290633928589255,46.8536131681467,-0.144963141214248
1.47,-0.817800908832065,0.092376798755301,-1.5397626022001,-0.639471128397354,-49.1837049307293,-0.144963141214248
1.48,0.72827125747228,0.0146133876219716,1.14522944238895,-0.171826699261937,-49.2798383737272,-0.144963141214248
1.49,0.747583079377712,-0.0142969707771098,1.38018942820027,0.0609616943292752,-49.2798383737272,-0.144963141214248
1.5,0.825518775480113,0.024556153866162,1.14695079437683,-0.290633928589255,-49.2798383737272,-0.144963141214248
1.51,-0.70829874644851,0.0245561708744638,-1.31789081393377,-0.173205604196326,43.8017575636422,-0.144963141214248
1.52,-0.75680790111134,0.053180107724178,-1.43623120204581,-0.287188710525623,43.8017575636422,-0.144963141214248
1.53,-0.756922573487789,-0.00452640445622028,-1.61184873096144,-0.173894545602111,43.8017575636422,-0.144963141214248
1.54,0.689131303054351,-0.00504225579995586,1.08657552630159,-0.0543996014588031,-47.1435394505743,-0.144963141214248
1.55,0.650564514910142,-0.01423976641413,1.61170865005592,0.0602735706591276,-47.1435394505743,-0.144963141214248
1.56,0.699360303743559,0.00518688095556233,1.55339910645479,-0.173205604196326,-47.1435394505743,-0.144963141214248
1.57,-0.610821407435985,0.130944752019702,-1.43382330032035,-0.754150433199122,40.7499019591387,-0.144963141214248
1.58,-0.669273311321478,0.0244417281274574,-1.49316519565443,-0.289257067953594,40.7499019591387,-0.144963141214248
1.59,-0.698527907977436,-0.00441196170926602,-1.55181926489513,-0.0571539360248645,40.7499019591387,-0.144963141214248
1.6,0.64964786730328,0.0143848423091287,0.79571226488816,-0.170452700581167,-44.0916838460707,-0.144963141214248
1.61,0.610966168655665,-0.0437235887540002,1.43849902282576,0.179079368982457,-44.0916838460707,-0.144963141214248
1.62,0.718099656763425,-0.0144689325668039,1.20525798945662,0.061651044589528,-44.0916838460707,-0.144963141214248
1.63,-0.591165304746272,-0.0145261624466404,-1.02496545284342,-0.0550893605471373,40.7499019591387,-0.144963141214248
1.64,-0.669101417573721,0.0442121204719221,-1.43519930981195,-0.290633928589255,40.7499019591387,-0.144963141214248
1.65,-0.727381886966007,0.0246136303793522,-1.31995255624011,-0.173205604196326,40.7499019591387,-0.144963141214248
1.66,0.591825347499036,-0.0435519501459824,1.08554516571877,0.0609634319807907,-47.1435394505743,-0.144963141214248
1.67,0.650334676886133,-0.043437566928004,1.49577932900689,0.0602760237859898,-47.1435394505743,-0.144963141214248
1.68,0.718614674648232,0.00518677889924104,1.43781231997471,-0.0557772798034009,-47.1435394505743,-0.144963141214248
1.69,-0.717611422701447,-0.101489584550761,-1.02736855546485,0.409812181841001,46.8536131681467,-0.144963141214248
1.7,-0.786177442293986,-0.00441233591799971,-1.43622936407519,-0.0571516873118865,46.8536131681467,-0.144963141214248
1.71,-0.786291799995114,-0.00464105132025594,-1.61184781197613,-0.0557772798034009,46.8536131681467,9.85474708956425
