,Unnamed: 0.1,Unnamed: 0,t,iq,id,vq,vd,ia,ib,va,vb,theta_e,omega,omega_obs,r,omega_ekf,omega_meta
0,0,0,0.0,0.0,0.0,0.0,0.0,0.0,0.0,0.0,0.0,0.0,-0.144963141214248,0.0,0.0,0.0,112.20813
1,1,1,0.01,0.0051295830381796,0.0149002173966153,-0.086502795445643,-0.173205604196326,-0.0050845593153507,0.0149156413600173,0.0859793005780795,-0.17346606243594,1.5677762099521,-0.144963141214248,543.695705581385,-0.144963141214248,-5.43293084602641e-10,81.9768
2,2,2,0.02,0.0049830235193041,-0.0241823200371289,-0.0859162562707661,0.061651044589528,-0.0050560341149971,-0.0241671604620827,0.0861020575205277,0.0613912866887123,1.5677762099521,-0.144963141214248,540.949035537333,-0.144963141214248,-1.75664363172878,55.842773
3,3,3,0.03,-0.111531791186481,-0.0531522509011042,0.438743023048866,0.177317944071307,0.111370756776087,-0.0534888470266509,-0.438205502044302,0.178642188583306,1.5677762099521,-0.144963141214248,537.942957766351,-0.144963141214248,-5.04358159235253,58.137848
4,4,4,0.04,-0.0138254476010566,-0.0042990791083022,-0.0891422217421911,-0.0575387047177558,0.0138124008479339,-0.0043408139058243,0.0889680418576215,-0.0578076618256748,1.5677762099521,-0.144963141214248,543.695705581385,-0.144963141214248,-18.4331803729323,54.972916
5,5,5,0.05,-0.0143139793322413,-0.0045433449738056,-0.0281421489473199,-0.0563644214425874,0.0143001926408124,-0.0045865540780079,0.0279717937239022,-0.0564491568386828,1.5677762099521,-0.144963141214248,537.897179932828,-0.144963141214248,-16.5125271913267,31.876192
6,6,6,0.06,-0.024133466863815,-0.0240846136905011,0.0302184975499369,0.061063902949274,0.0240606185650636,-0.0241573896303811,-0.030033939895554,0.0611548877190053,1.5677762099521,-0.144963141214248,540.949035537333,-0.144963141214248,-34.951516164589,38.33346
7,7,7,0.07,-0.0144605388520945,-0.0047387576670617,-0.0859162562654309,-0.0551901381620779,0.0144461613240046,-0.0047824085062762,0.0857491840276648,-0.0554493632028909,1.5677762099521,-0.144963141214248,543.654505531315,-0.144963141214248,-30.1589187612414,38.53891
8,8,8,0.08,-0.0631182979503963,-0.0921370819847529,0.206180245809889,0.294746268448214,0.0628397457661449,-0.0923272861339829,-0.205289138698217,0.295367611729718,1.5677762099521,-0.144963141214248,537.897179932828,-0.144963141214248,-44.8820744896433,47.40596
9,9,9,0.09,0.0050318766910186,0.0148025110494542,-0.086502795445643,-0.172618462552868,-0.0049871484979204,0.0148176403743147,0.0859810738117504,-0.172878923470171,1.5677762099521,-0.144963141214248,540.990235587353,-0.144963141214248,-34.8568031939415,59.28114
10,10,10,0.1,0.024573145407712,0.0149002173966153,-0.203224088436951,-0.173205604196326,-0.0245280330115562,0.0149743631009456,0.202700061256164,-0.173818573842934,1.5677762099521,-0.144963141214248,540.949035537333,-0.144963141214248,-46.4399382774995,59.781
11,11,11,0.11,-0.014655951547483,-0.0046410513202559,-0.0266758009893229,-0.0557772798034009,0.0146418682123389,-0.0046852927733405,0.0265072256869155,-0.0558575893417515,1.5677762099521,-0.144963141214248,537.897179932828,-0.144963141214248,-37.2048021760804,57.924538
12,12,12,0.12,0.0053738489074151,0.0149002173966153,-0.0879691434095064,-0.173205604196326,-0.0053288240705996,0.0149163790703616,0.0874456418545905,-0.173470490971391,1.5677762099521,-0.144963141214248,543.695705581385,-0.144963141214248,-45.9271279483326,57.568027
13,13,13,0.13,-0.0338552480477147,-0.0532499572428111,0.0888724136299632,0.177905085687262,0.0336942728009134,-0.0533519610431624,-0.0883347149940116,0.178172679007569,1.5677762099521,-0.144963141214248,540.949035537333,-0.144963141214248,-37.8325233990656,62.3776
14,14,14,0.14,-0.0625809130346769,-0.0920393756320254,0.20324754986588,0.29415912678072,0.0623026583853489,-0.0922279572640823,-0.202358229362656,0.294771615668961,1.5677762099521,-0.144963141214248,540.949035537333,-0.144963141214248,-43.9489611338022,61.743782
15,15,15,0.15,0.1021519821851,0.0631671510995625,-0.610868805100219,-0.405126544733523,-0.101960744428999,0.0634753734755786,0.609642491561626,-0.406969589496346,1.5677762099521,-0.144963141214248,543.695705581385,-0.144963141214248,-30.638024884208,63.286797
16,16,16,0.16,-0.0136788880989759,-0.0042990791163886,-0.0313681143371281,-0.0575387046761045,0.0136658420142206,-0.0043403712877628,0.0311941979343554,-0.0576331774944204,1.5677762099521,-0.144963141214248,537.897179932828,-0.144963141214248,-45.6511526476937,58.55318
17,17,17,0.17,-0.0339041012234946,-0.0533476635962258,0.088872413652234,0.178492227357153,0.033742830669741,-0.0534498144930572,-0.0883329417825316,0.178759817999838,1.5677762099521,-0.144963141214248,543.695705581385,-0.144963141214248,-44.8832038162228,61.25171
18,18,18,0.18,-0.0144116856786916,-0.0046410513202559,-0.086502795445643,-0.0557772798034009,0.0143976034575341,-0.0046845550629975,0.0863339472992716,-0.0560382735806896,1.5677762099521,-0.144963141214248,543.654505530965,-0.144963141214248,-53.9213464916382,60.61483
19,19,19,0.19,-0.0144116856786916,-0.0046410513202559,-0.0862095258624721,-0.0557772798034009,0.0143976034575341,-0.0046845550629975,0.0860406790535711,-0.0560373878736285,1.5677762099521,-0.144963141214248,537.897179932828,-0.144963141214248,-42.4832030238237,59.661976
20,20,20,0.2,-0.0144116856786916,-0.0046410513202559,-0.0281421489419858,-0.0557772798034009,0.0143976034575341,-0.0046845550629975,0.0279735669522261,-0.0558620178771686,1.5677762099521,-0.144963141214248,540.990235587703,-0.144963141214248,-52.5192853865152,59.73719
21,21,21,0.21,0.0152421896035921,-0.0042990791132791,-0.146916329038425,-0.0575387046921206,-0.0152551037923342,-0.0042530263835523,0.146741885672262,-0.0579821460893144,1.5677762099521,-0.144963141214248,540.903257703616,-0.144963141214248,-41.1456785836202,61.51147
22,22,22,0.22,-0.0531522509048364,-0.0726935196217076,0.146646520979949,0.177905085721172,0.0529324659121436,-0.0728537138634814,-0.146108558862224,0.178347163330915,1.5677762099521,-0.144963141214248,537.942957766518,-0.144963141214248,-50.7734660412851,61.317272
23,23,23,0.23,-0.0528102786959916,-0.0723515474128628,0.144886903465448,0.1761436608239,0.0525915280573377,-0.0725107104197601,-0.144354269073459,0.176580432224295,1.5677762099521,-0.144963141214248,543.695705581385,-0.144963141214248,-46.7509499052826,61.070473
24,24,24,0.24,0.0145093920150806,-0.0050807298744824,-0.143397094017976,-0.0540158549050694,-0.0145246702188228,-0.0050368867109738,0.143233306103261,-0.0544486838835919,1.5677762099521,-0.144963141214248,540.949035537333,-0.144963141214248,-55.4051286834055,61.33616
25,25,25,0.25,0.0049341703470565,-0.0243288795554713,-0.0856229866865285,0.061651044589528,-0.0050076237917437,-0.0243138668540971,0.0858087892737605,0.0613921723957767,1.5677762099521,-0.144963141214248,540.949035537333,-0.144963141214248,-52.6762049442876,59.73041
26,26,26,0.26,0.0536407826202696,0.0148025110508758,-0.31965211186056,-0.172618462561411,-0.0535958327438501,0.0149644447280735,0.319129326937665,-0.173583060585686,1.5677762099521,-0.144963141214248,543.654505531165,-0.144963141214248,-60.3090429863495,60.60809
27,27,27,0.27,-0.0239380541723355,-0.0239869073452942,0.0296319583793233,0.0604767613175594,0.0238655018489036,-0.0240590935625052,-0.0294491766335167,0.0605659773508439,1.5677762099521,-0.144963141214248,540.903257703782,-0.144963141214248,-61.7239937149184,59.524178
28,28,28,0.28,-0.0144605388517392,-0.0047387576663512,-0.0275556097703075,-0.0551901381663475,0.0144461613236515,-0.0047824085055646,0.0273888036891403,-0.0552731075036652,1.5677762099521,-0.144963141214248,540.949035537333,-0.144963141214248,-56.5182191733347,59.249252
29,29,29,0.29,0.0049830235187715,0.0147048047040711,-0.144570172355993,-0.172031320920094,-0.0049385906326014,0.0147197869324622,0.144049959136598,-0.172467154511514,1.5677762099521,-0.144963141214248,540.903257703838,-0.144963141214248,-61.0681302777376,60.474575
30,30,30,0.3,0.0147536578769403,-0.0046410513202559,-0.203224088442287,-0.0557772798034009,-0.0147676070881076,-0.004596472451601,0.203054707982692,-0.0563907849876995,1.5677762099521,-0.144963141214248,537.897179932828,-0.144963141214248,-59.7093712720446,61.61101
31,31,31,0.31,-0.0626786193911041,-0.0920393756397249,0.203834089095446,0.29415912681437,0.0624003642961581,-0.0922282523559458,-0.20294476591718,0.294773387116924,1.5677762099521,-0.144963141214248,543.695705581385,-0.144963141214248,-58.2814763407494,61.923935
32,32,32,0.32,-0.0243777327307405,-0.0245242922509492,0.0316848454993993,0.063412469513497,0.0243035554393954,-0.0245978038959908,-0.0314931882230096,0.0635078721078818,1.5677762099521,-0.144963141214248,537.897179932828,-0.144963141214248,-56.306688374496,59.599354
33,33,33,0.33,-0.0630205916034122,-0.0921370819847517,0.205593706628607,0.294746268448209,0.0627420398647554,-0.0923269910498461,-0.204702602191876,0.295365840315545,1.5677762099521,-0.144963141214248,540.949035537333,-0.144963141214248,-59.9696149372448,64.24069
34,34,34,0.34,-0.0238403478220634,-0.0238892009956442,0.029045419182037,0.0598896196591447,0.0237680910283698,-0.0239610925743042,-0.0288644133448875,0.0599770669559019,1.5677762099521,-0.144963141214248,543.695705581385,-0.144963141214248,-63.2619348362985,61.55852
35,35,35,0.35,-0.0143139793313521,-0.0045433449729164,-0.086502795445643,-0.056364421447931,0.0143001926399259,-0.004586554077116,0.0863321740655975,-0.0566254125475313,1.5677762099521,-0.144963141214248,535.760881009675,-0.144963141214248,-60.317727044527,64.29486
36,36,36,0.36,-0.0242311732108871,-0.0243288795584034,0.0310983063213198,0.061651044589528,0.0241575867562008,-0.0244019494684327,-0.0309119714208643,0.0617446838028204,1.5677762099521,-0.144963141214248,540.949035537333,-0.144963141214248,-60.728740478359,62.052757
37,37,37,0.37,-0.062580913037012,-0.0920393756338601,0.203247549877895,0.294159126788739,0.0623026583876784,-0.092227957265924,-0.202358229374647,0.294771615677016,1.5677762099521,-0.144963141214248,540.903257703376,-0.144963141214248,-62.4791301213933,65.56317
38,38,38,0.38,0.0149979237444652,-0.0046410513202559,-0.145743250719481,-0.0557772798034009,-0.0150118718416459,-0.0045957347412618,0.145574132404087,-0.0562171864054566,1.5677762099521,-0.144963141214248,535.792925493426,-0.144963141214248,-65.3045723007243,62.92142
39,39,39,0.39,0.0729866386330761,0.014558245178518,-0.494147512119434,-0.171444179250327,-0.0729423382392783,0.0147786066264656,0.49362747786906,-0.172935778326161,1.5677762099521,-0.144963141214248,540.949035537333,-0.144963141214248,-70.6928873977417,63.612087
40,40,40,0.4,0.0244754390586395,-0.0240846136889232,-0.20293081883744,0.0610639029397926,-0.0245480656740691,-0.0240105852764866,0.203114313202818,0.0604507506026341,1.5677762099521,-0.144963141214248,537.897179932828,-0.144963141214248,-76.2110514239331,58.948917
41,41,41,0.41,-0.160287256647489,-0.092234788342309,0.672772148292762,0.29533341012691,0.160007966235233,-0.0927184532085874,-0.671877140031889,0.297363910651943,1.5677762099521,-0.144963141214248,535.792925493374,-0.144963141214248,-67.1854107071052,60.739777
42,42,42,0.42,0.0244265858947023,0.0147048047083364,-0.202637549291952,-0.172031320945725,-0.0243820643351924,0.0147785086776751,0.202117071253338,-0.172642524533652,1.5677762099521,-0.144963141214248,540.949035537333,-0.144963141214248,-63.0890169844407,64.48571
43,43,43,0.43,-0.0144116856786916,-0.0046410513202559,-0.086502795445643,-0.0557772798034009,0.0143976034575341,-0.0046845550629975,0.0863339472992716,-0.0560382735806896,1.5677762099521,-0.144963141214248,537.865135449168,-0.144963141214248,-73.3394659026945,63.13138
44,44,44,0.44,0.0731820513414956,0.0149002173966153,-0.436666674470786,-0.173205604196326,-0.0731367172620228,0.0151211674532965,0.436141582663552,-0.174523596657076,1.5677762099521,-0.144963141214248,537.897179932828,-0.144963141214248,-65.4997519555537,65.40671
45,45,45,0.45,-0.0536896358017821,-0.0243288795541387,0.14899267765492,-0.0546029965463859,0.0536159150003346,-0.0244909173279541,-0.1491569053453,-0.0541527729155278,1.5677762099521,-0.144963141214248,540.949035537333,-0.144963141214248,-69.0436834393564,60.784966
46,46,46,0.46,0.0536407826233791,0.0634114169818147,-0.378012758377017,-0.406300828093454,-0.0534490283946173,0.0635731289757046,0.376783960322367,-0.407440616101316,1.5677762099521,-0.144963141214248,535.792925493277,-0.144963141214248,-68.7031526432576,60.585365
47,47,47,0.47,-0.0144116856786916,-0.0046410513202559,-0.027848879358281,-0.0557772798034009,0.0143976034575341,-0.0046845550629975,0.0276802987059917,-0.0558611321701058,1.5677762099521,-0.144963141214248,540.990235587653,-0.144963141214248,-51.669764917794,62.133297
48,48,48,0.48,-0.0339041012229617,-0.0533476635946271,0.0891656832311396,0.178492227350749,0.0337428306692129,-0.0534498144914569,-0.0886262100239862,0.178760703700482,1.5677762099521,-0.144963141214248,540.903257703671,-0.144963141214248,-63.4252207063373,63.281433
49,49,49,0.49,-0.0338552480501809,-0.0046410513202559,0.0888724136447681,-0.0557772798034009,0.0338410771556966,-0.0047432768039317,-0.0890404619838339,-0.0555086207630766,1.5677762099521,-0.144963141214248,535.792925493219,-0.144963141214248,-53.3280776942766,59.399605
50,50,50,0.5,0.034099513904021,-0.0048853171841598,-0.319065572690487,-0.0546029965357085,-0.0341141125977843,-0.0047823105447119,0.318899210397364,-0.0555663613612135,1.5677762099521,-0.144963141214248,540.949035537333,-0.144963141214248,-61.9020950743007,58.923626
51,51,51,0.51,-0.0241823200371289,-0.0241823200371289,0.0308050367290811,0.061651044589528,0.0241091764314458,-0.0242552430734816,-0.0306187031660961,0.0617437980957318,1.5677762099521,-0.144963141214248,537.897179932828,-0.144963141214248,-56.700702367756,59.838146
52,52,52,0.52,0.0147536578777392,-0.0046410513202559,-0.144863441945562,-0.0557772798034009,-0.0147676070889065,-0.0045964724515986,0.144694327642579,-0.0562145292841994,1.5677762099521,-0.144963141214248,537.897179932828,-0.144963141214248,-62.5738829872485,61.48547
53,53,53,0.53,-0.0630205916056332,-0.0921370819887495,0.205593706639274,0.294746268464226,0.0627420398669643,-0.0923269910538507,-0.204702602202494,0.295365840331594,1.5677762099521,-0.144963141214248,540.949035537333,-0.144963141214248,-58.1118517094112,63.590595
54,54,54,0.54,-0.0337575417030182,-0.0531522509004797,0.0885791440509209,0.17731794406809,0.0335968619859331,-0.053253960062297,-0.0880432199860373,0.177584654359036,1.5677762099521,-0.144963141214248,537.897179932828,-0.144963141214248,-51.312776525331,58.63905
55,55,55,0.55,0.0146559515304876,0.0342460734205844,-0.143983633176836,-0.289459645310872,-0.0145524577053875,0.0342901798584517,0.143108775911196,-0.289893171950456,1.5677762099521,-0.144963141214248,540.949035537333,-0.144963141214248,-47.6979561627319,61.055386
56,56,56,0.56,0.0545689929101316,0.0638510955354223,-0.324051155690841,-0.408649394622444,-0.0543759065696343,0.0640156088233957,0.322815510796199,-0.40962620182216,1.5677762099521,-0.144963141214248,537.897179932828,-0.144963141214248,-62.4635678944656,61.319805
57,57,57,0.57,0.0050318766913728,0.0148025110498084,-0.0862095258555337,-0.172618462554997,-0.0049871484982735,0.01481764037467,0.0856878055591051,-0.172878037765217,1.5677762099521,-0.144963141214248,535.760881009675,-0.144963141214248,-59.8396939711397,62.389
58,58,58,0.58,-0.014313979331709,-0.0042990791058168,-0.0281421489489177,-0.0575387047305574,0.0143009303506206,-0.004342289324004,0.0279682472581551,-0.0576234347712807,1.5677762099521,-0.144963141214248,537.897179932828,-0.144963141214248,-65.5476122000656,61.96305
59,59,59,0.59,-0.0145093920258521,-0.0048853171881572,-0.0272623401759394,-0.0546029965164917,0.0144945716487596,-0.0049291149010483,0.0270973086659328,-0.0546850828244029,1.5677762099521,-0.144963141214248,537.897179932828,-0.144963141214248,-60.7756400332363,61.96089
60,60,60,0.6,-0.0242311732107981,-0.0243288795581365,0.0310983063207858,0.0622381862340516,0.0241575867561126,-0.0244019494681656,-0.0309101981866563,0.0623318227696539,1.5677762099521,-0.144963141214248,537.897179932828,-0.144963141214248,-65.6287956856993,60.11844
61,61,61,0.61,-0.092821026414969,-0.0534942231124358,0.325540965127081,0.179079368982457,0.0926590445414767,-0.0537743090684767,-0.324998640685141,0.180061722539348,1.5677762099521,-0.144963141214248,540.903257704032,-0.144963141214248,-64.6525829402546,61.48625
62,62,62,0.62,-0.0144116856786916,-0.0046410513202559,-0.027848879358281,-0.0557772798034009,0.0143976034575341,-0.0046845550629975,0.0276802987059917,-0.0558611321701058,1.5677762099521,-0.144963141214248,537.897179932828,-0.144963141214248,-74.0631477338012,61.812252
63,63,63,0.63,0.102249688535437,0.0634114169713188,-0.611455344299495,-0.406300828039392,-0.102057712623389,0.063719933317494,0.610225481618562,-0.40814563886106,1.5677762099521,-0.144963141214248,537.942957766757,-0.144963141214248,-68.8412806490636,64.723526
64,64,64,0.64,-0.024133466863115,-0.0240846136891012,0.0305117671353071,0.0610639029408616,0.0240606185643679,-0.0241573896289791,-0.0303272081434792,0.0611557734176608,1.5677762099521,-0.144963141214248,540.949035537333,-0.144963141214248,-75.632498469376,59.62275
65,65,65,0.65,-0.0241334668630261,-0.0240846136889232,0.0302184975404652,0.0610639029397926,0.0240606185642795,-0.0241573896288009,-0.030033939886111,0.0611548877094953,1.5677762099521,-0.144963141214248,535.792925493394,-0.144963141214248,-57.1811588772482,60.68282
66,66,66,0.66,-0.0338552480516019,-0.0532499572525292,0.0888724136532987,0.177905085733981,0.0336942728047713,-0.0533519610528922,-0.0883347150172059,0.178172679054358,1.5677762099521,-0.144963141214248,540.949035537333,-0.144963141214248,-67.5476072978184,60.261116
67,67,67,0.67,-0.0144116856786916,-0.0046410513202559,-0.027848879358281,-0.0557772798034009,0.0143976034575341,-0.0046845550629975,0.0276802987059917,-0.0558611321701058,1.5677762099521,-0.144963141214248,537.897179932828,-0.144963141214248,-49.4719349615633,57.785587
68,68,68,0.68,-0.0240357605206513,-0.0241823200371289,-0.0281421489409211,0.061651044589528,0.02396261758336,-0.0242548004472903,0.0283282136723536,0.0615657709780884,1.5677762099521,-0.144963141214248,535.792925493336,-0.144963141214248,-60.6396409410308,61.17057
69,69,69,0.69,-0.0236449351423991,-0.0237426414868954,0.0281656104805138,0.0593024780797482,0.0235731218660626,-0.0238139435657194,-0.0279863818892526,0.059387270933155,1.5677762099521,-0.144963141214248,540.949035537333,-0.144963141214248,-43.2120919709334,59.49959
70,70,70,0.7,-0.0144605388510287,-0.0047387576649301,-0.0275556097745728,-0.0551901381748869,0.0144461613229453,-0.0047824085041414,0.0273888036933797,-0.0552731075122174,1.5677762099521,-0.144963141214248,537.865135449207,-0.144963141214248,-54.4279480159765,59.31534
71,71,71,0.71,-0.0142651261614166,-0.0046410513202559,-0.0284354185267521,-0.0557772798034009,0.014251044608651,-0.0046841124368038,0.028266835199522,-0.0558629035842346,1.5677762099521,-0.144963141214248,540.949035537333,-0.144963141214248,-40.6449879025445,61.7069
72,72,72,0.72,-0.0240357605195871,-0.0239869073470732,0.030218497559542,0.0604767613282499,0.0239632077505552,-0.0240593886484206,-0.0300357131387621,0.0605677487756986,1.5677762099521,-0.144963141214248,540.949035537333,-0.144963141214248,-51.2783339625981,62.56096
73,73,73,0.73,-0.101761156833379,0.0145582451883951,0.380089106985518,-0.171444179301202,0.101804660281252,0.0142508486783021,-0.380605154236752,-0.170295485652819,1.5677762099521,-0.144963141214248,537.897179932828,-0.144963141214248,-40.127373974863,59.690586
74,74,74,0.74,-0.0143139793333079,-0.0047387576656396,-0.0281421489441185,-0.0551901381706237,0.0142996024736143,-0.0047819658786558,0.0279753401879974,-0.0552748789220863,1.5677762099521,-0.144963141214248,540.949035537333,-0.144963141214248,-54.311318270585,66.84683
