t,iq,id,vq,vd,omega,r
0,0,0,0,0,-0.144963141214248,0
0.01,-0.00464105132025594,-0.00464105132025594,-0.027848879358281,-0.0557772798034009,-0.144963141214248,-0.144963141214248
0.02,-0.00464105132025594,-0.00464105132025594,-0.027848879358281,-0.0557772798034009,-0.144963141214248,-0.144963141214248
0.03,-0.00464105132025594,-0.00464105132025594,-0.027848879358281,-0.0557772798034009,-0.144963141214248,-0.144963141214248
0.04,-0.00464105132025594,-0.00464105132025594,-0.027848879358281,-0.0557772798034009,-0.144963141214248,-0.144963141214248
0.05,-0.00464105132025594,-0.00464105132025594,-0.027848879358281,-0.0557772798034009,-0.144963141214248,-0.144963141214248
0.06,-0.00464105132025594,-0.00464105132025594,-0.027848879358281,-0.0557772798034009,-0.144963141214248,-0.144963141214248
0.07,-0.00464105132025594,-0.00464105132025594,-0.027848879358281,-0.0557772798034009,-0.144963141214248,-0.144963141214248
0.08,-0.00464105132025594,-0.00464105132025594,-0.027848879358281,-0.0557772798034009,-0.144963141214248,-0.144963141214248
0.09,-0.00464105132025594,-0.00464105132025594,-0.027848879358281,-0.0557772798034009,-0.144963141214248,-0.144963141214248
0.1,-0.00464105132025594,-0.00464105132025594,-0.027848879358281,-0.0557772798034009,-0.144963141214248,-0.144963141214248
0.11,-0.00464105132025594,-0.00464105132025594,-0.027848879358281,-0.0557772798034009,-0.144963141214248,-0.144963141214248
0.12,-0.00464105132025594,-0.00464105132025594,-0.027848879358281,-0.0557772798034009,-0.144963141214248,-0.144963141214248
0.13,-0.00464105132025594,-0.00464105132025594,-0.027848879358281,-0.0557772798034009,-0.144963141214248,-0.144963141214248
0.14,-0.00464105132025594,-0.00464105132025594,-0.027848879358281,-0.0557772798034009,-0.144963141214248,-0.144963080063638
0.15,-0.00464105132025594,-0.00464105132025594,-0.027848879358281,-0.0557772798034009,-0.144963141214248,499.748984876529
0.16,4.49004562533738,0.0247682876436508,5.13340327853077,-0.409233285764118,-0.144963141214248,499.748984876529
0.17,4.33434866427019,0.440472989191083,6.30472721093606,-4.8457511853058,163.739682820647,499.748984876529
0.18,4.47457691343103,0.034100579561319,6.89038966198352,-1.34690353614852,294.892600501302,499.748984876529
0.19,1.37331054779717,-0.0921385286791979,5.60146554186685,-0.174961233426638,414.90739907132,499.748984876529
0.2,0.797329908844354,-0.00464105132025594,5.13340348276158,-0.173205604196326,443.909558578477,499.748984876529
0.21,0.366643054300301,-0.00488442842719839,4.84042615589272,-0.406892242323084,480.827480128605,499.748984876529
0.22,0.1906743020184,0.0441634535568931,4.54744872692179,-0.290633928589255,490.898603623468,499.748984876529
0.23,0.708128672714423,-0.101958127599712,5.37064820410439,-0.526660179206441,461.905975380681,499.748984876529
0.24,0.190577036221446,0.0147542676763562,5.13165139078289,-0.642334203086017,496.68877108898,499.748984876529
0.25,-0.0151899480849891,0.0238439479483598,3.72483375703512,-0.520813805788082,519.876110153318,499.748984876529
0.26,-0.33684261950707,0.0438230572841036,3.31542433762132,-0.405724275909638,524.774200833462,499.748984876529
0.27,-0.502797530424124,0.0538368816540041,3.07993298467978,-0.0551928877689066,532.709025405172,499.748984876529
0.28,-0.356626967652735,0.00498373538090441,2.67110679605934,0.297091983176238,527.826056437965,499.748984876529
0.29,-0.278559065043348,-0.0638481460769706,2.96525160566892,0.651713604657187,519.891231866255,499.748984876529
0.3,-0.0144602845561737,0.00512958303817967,3.66763957717642,0.296507693375386,501.885283799682,499.748984876529
0.31,0.161556913515441,-0.0332240988283926,4.31254091110647,0.293003794453876,490.898603623468,499.748984876529
0.32,0.337816969917058,-0.0728897462216878,4.72282668278914,0.413352136795234,475.953895788711,499.748984876529
0.33,0.522973204035273,0.0149973641223092,4.95773398806745,-0.291801486068125,469.840799952391,499.748984876529
0.34,0.552139412527787,-0.0241823200371289,4.95598475510672,-0.173205604196326,475.932303739514,499.748984876529
0.35,0.327560516866559,-0.0339529543955646,4.95773398806745,-0.290050354263704,482.963779051758,499.748984876529
0.36,0.122668482428675,-0.00444685992741092,4.83926040910055,-0.291217400681157,493.950459227972,499.748984876529
0.37,0.0443091991645121,-0.023988162651949,4.3703206702128,-0.173788974107987,501.885283799682,499.748984876529
0.38,-0.121791601941614,-0.0435779962341936,3.84272691321563,0.0610677769115097,509.820108371392,499.748984876529
0.39,-0.170693313080087,-0.0341470437298689,3.31513305408972,0.180245699871209,514.703077338599,499.748984876529
0.4,-0.150812456043514,0.00498404154320026,3.54829260700734,0.0622341078536621,509.820108371392,499.748984876529
0.41,0.0629287986586874,0.0145121747942125,3.19957241259428,-0.0534454356814328,509.807900948508,499.748984876529
0.42,-0.0236488549799101,-0.0141692015617739,4.42722856975468,0.17791365128197,498.833428195178,499.748984876529
0.43,-0.00420465646703919,-0.0632648574708714,4.66242685233839,0.296507693375386,496.697129272025,499.748984876529
0.44,0.191062514712446,-0.0331287976142658,4.5477386319821,0.291846458311712,485.720825403946,499.748984876529
0.45,0.279240529470611,-0.00551353487772635,4.89675225417693,-0.169127738777305,482.963779051758,499.748984876529
0.46,0.27865888227199,0.0830523438937201,4.95686120958437,-0.524325677436959,485.70495575626,499.748984876529
0.47,0.170455098395116,-0.0339045000995351,4.84420753214923,-0.173205604196326,490.898603623468,499.748984876529
0.48,-0.0136365529728893,-0.0629257369120829,5.13107831979895,0.177332632316903,493.955952567473,499.748984876529
0.49,0.0540796294058641,-0.00493167504677508,4.54657502946675,-0.171459174231699,498.833428195178,499.748984876529
0.5,0.0346836300426711,-0.0827092686160688,4.48617688371348,0.295925652234085,501.879180089181,499.748984876529
0.51,-0.014556946517124,0.0148033768376604,3.66763850503801,-0.0551953408957427,506.768252766889,499.748984876529
0.52,-0.0628775632859273,-0.00464105132025594,3.78436504649208,0.061651044589528,503.72250087283,499.748984876529
0.53,0.0346835024694952,-0.00454424477785247,3.9010917921236,-0.0563590142971749,501.885283799682,499.748984876529
0.54,0.258198181060662,0.0438733571180261,3.4367994179611,-0.17146070741593,498.829155597905,499.748984876529
0.55,0.073524023547229,-0.0240371612616804,4.2535965283574,0.0610695145630382,498.833428195178,499.748984876529
0.56,0.142111975082546,0.0632212338665612,4.13832165658843,-0.287726789358016,490.910200673104,499.748984876529
0.57,0.219938431173144,-0.0239888430363005,4.66533550130955,-0.0569399310286121,488.762304700315,499.748984876529
0.58,0.268549824729625,0.00517794378646942,4.42955842975926,-0.0563585032357515,493.940082920497,499.748984876529
0.59,0.112558208739041,-0.0144600379206219,4.48850265936856,-0.0557772798034009,496.697129272025,499.748984876529
0.6,0.0541761297726411,0.0245741642839092,4.66359377345107,-0.17262458523126,496.697129272025,499.748984876529
0.61,0.0930652922641002,-0.0241339848034744,4.54715657545592,-0.0557772798034009,496.697129272025,499.748984876529
0.62,0.122087234975636,0.11221994716261,4.31312112968871,-0.641176458114491,498.829155597091,499.748984876529
0.63,0.0543209823769075,0.0144653534081942,4.07618489739651,-0.0534544305332407,501.885283799682,499.748984876529
0.64,0.063705079469774,-0.0337114058004676,4.02072136661493,0.177918148707861,498.839531906676,499.748984876529
0.65,0.0736689271852088,0.0150451210345951,4.19465316668238,-0.173786112099982,498.833428195178,499.748984876529
0.66,0.0638499746014383,-0.0142668075597242,4.48705313406633,0.0610706389192503,498.829155597169,499.748984876529
0.67,-0.00425477768518217,-0.11178003983236,4.66243542947233,0.412775410788767,498.833428195178,499.748984876529
0.68,0.0737654020373529,-0.034290884281738,4.3134103199812,0.180819972750846,493.96022516619,499.748984876529
0.69,0.171326901523804,0.073234420370578,4.66417465571009,-0.524330379223334,490.898603623468,499.748984876529
0.7,0.200300976758149,-0.0238927678986347,4.54686687459974,0.0599110540627913,493.944355516641,499.748984876529
0.71,0.0155757199640545,-0.0145081860454686,4.7199321760082,-0.172045814979145,498.833428195178,499.748984876529
0.72,0.170747950316865,-0.00473753468320042,3.8464951687027,-0.0551974873750525,496.701401869918,499.748984876529
0.73,0.0930170590889874,-0.0245199522629184,4.48879220705829,-0.0540382092192821,496.697129272025,499.748984876529
0.74,0.10269125261621,-0.0531566504310089,4.37090533056834,0.177340605098474,498.829155597324,499.748984876529
0.75,0.0537416739961725,0.00522601537185379,4.07879358352001,-0.056356765584223,501.885283799682,499.748984876529
0.76,0.0543684161141786,-0.0143152703577363,4.37061603814725,0.061071661042348,496.701401869841,499.748984876529
0.77,0.0441639213133608,0.0537417590375511,4.66475375111623,-0.290054647222317,496.697129272025,499.748984876529
0.78,0.151448145153706,0.0149484080488172,4.42898086601752,-0.0563564589366967,498.823662257404,499.748984876529
0.79,0.238805711161315,0.102305923018269,3.49543546487935,-0.640023517269769,498.833428195178,499.748984876529
0.8,0.0739575863425644,-0.0147489011861746,4.37119482719383,0.0639669434671749,493.960225165657,499.748984876529
0.81,0.14191846405628,-0.179693662433465,4.48879179862334,0.644740559153782,493.950459227972,499.748984876529
0.82,0.150533339265741,0.0446936867839947,4.43447415432782,-0.176099455456963,496.691635932125,499.748984876529
0.83,0.0540309029596487,-0.024086023778547,4.48850265936856,0.0610723765176425,498.833428195178,499.748984876529
0.84,0.055089966157758,0.0248634102467727,4.4255139519561,-0.174362735872787,496.701401869687,499.748984876529
0.85,0.0734758924262148,-0.00478544468329845,4.60609942659392,-0.0551988161454125,496.697129272025,499.748984876529
0.86,0.122232827495443,0.00488896996490607,4.60523272357074,-0.0546205569547086,496.691635932225,499.748984876529
0.87,0.0929209499392144,0.0925360370728522,4.25446466086291,-0.522599281421589,498.833428195178,499.748984876529
0.88,0.073572129153608,-0.024086108824371,4.31340725675908,0.0610728875790659,496.701401869609,499.748984876529
0.89,0.0432501784715313,0.0441640233719026,4.66937283156779,-0.290633928589255,496.697129272025,499.748984876529
0.9,0.170749481194986,-0.00473722850757614,4.37148350694929,0.061651044589528,498.823662257932,499.748984876529
0.91,0.0829100171717141,-0.0146520861374106,4.02100310297624,-0.0546215790775293,501.885283799682,499.748984876529
0.92,0.0251034960235102,-0.0725547759754633,4.2541755726725,0.294196700858211,496.707505580255,499.748984876529
0.93,0.14191846405628,-0.0920961297114973,4.48850265936856,0.294197109579179,493.950459227972,499.748984876529
0.94,0.112990997597841,0.112029906055668,4.66244507877136,-0.523180402513471,493.950459227972,499.748984876529
0.95,0.0246228056843017,0.0146599870428693,4.60638734051719,-0.172050721232792,498.833428195178,499.748984876529
0.96,0.0350179369394685,0.00541780845117065,4.48677241867306,-0.0575092977079378,496.701401869454,499.748984876529
0.97,0.0740523432344252,-0.013835336929023,4.60350391246425,-0.0586634651427517,496.697129272025,499.748984876529
0.98,0.122185113114955,-0.00473709243248181,4.60667530550481,-0.0557772798034009,493.950459227972,499.748984876529
0.99,0.102691890459946,-0.0918565797332284,4.19609773978018,0.410473821844395,498.833428195178,499.748984876529
1,0.0735720270950662,-0.0338089437520529,4.31254091110647,0.177925508141769,498.833428195178,499.748984876529
1.01,0.112702551072813,0.0149482124425362,4.37061859083235,-0.173782432436428,496.697129272025,499.748984876529
1.02,0.122521154958092,0.0148522308570538,4.60523435731054,-0.0557772798034009,493.950459227972,499.748984876529
1.03,0.044020208339114,-0.0437235887540002,4.19609712708776,0.061651044589528,501.885283799682,499.748984876529
1.04,0.0929693532015287,0.0436844556277789,4.31311684113507,-0.170899517826023,498.833428195178,499.748984876529
1.05,0.151257449190379,-0.188604468258116,4.49080597096802,0.757574700563095,493.950459227972,499.748984876529
1.06,0.112558608462405,0.0637054366702265,4.60638621731441,-0.290633928589255,493.950459227972,499.748984876529
1.07,0.0636095571388416,-0.0145555177286433,4.43071217882479,-0.0552010648583515,498.833428195178,499.748984876529
1.08,0.0637054536785022,0.0146605398451596,4.43013650406469,-0.172053378773512,498.833428195178,499.748984876529
1.09,0.0932090732759606,0.00527336405004009,4.54629344629815,-0.173781614674353,496.697129272025,499.748984876529
1.1,0.00556084955631827,0.0149481358986307,4.83841254512274,-0.173205604196326,496.697129272025,499.748984876529
1.11,0.102883836618192,-0.0435319487713764,4.25359938740205,0.177927756854695,498.833428195178,499.748984876529
1.12,0.0549407847051512,0.0529768234618246,4.48390175409883,-0.286028297520143,498.833428195178,499.748984876529
1.13,0.09301739927672,0.0148523244092351,4.48850265936856,-0.173205604196326,496.697129272025,499.748984876529
1.14,0.0155227156498854,-0.0047368202822975,5.18947510791073,-0.0552017803870462,493.950459227972,499.748984876529
1.15,0.0148044654384063,0.00479445118444819,4.42984874328119,-0.171479412487988,501.885283799682,499.748984876529
1.16,0.0248623216460224,0.00522531798366543,4.31139150171233,-0.0563525748058453,501.885283799682,499.748984876529
1.17,0.151497662549182,0.00536887787009683,4.43099794841785,-0.174931182502733,493.950459227972,499.748984876529
1.18,-3.31741245393911,-0.101677488402074,-0.378623374896582,1.35048715996893,490.898603623468,272.996113461887
1.19,-3.21932328111993,0.0148045334803999,-1.02496545284342,1.11965594083572,475.944511161399,272.996113461887
1.2,-2.60386895794512,0.31602004462904,-1.55112780876329,-0.282010635969111,433.828903819244,272.996113461887
1.21,-2.04675145718315,-0.0632648574708714,-2.0223691234086,1.4713657212457,404.836275576457,272.996113461887
1.22,-1.51904156043432,-0.0631692245839263,-1.61207870574836,1.23593428851881,367.90882276196,272.996113461887
1.23,-0.854590624621053,-0.0534942231124358,-0.90794461564666,0.883649315340023,323.962102057103,272.996113461887
1.24,-0.346135259513538,0.121612404376258,0.0885981210756762,-0.0523304160423539,281.846494714949,272.996113461887
1.25,-0.111687910903513,-0.0338573725378899,-0.558316159787498,0.883074940280157,281.846494714949,272.996113461887
1.26,0.619915028788891,0.00503401818433753,0.738667815138707,0.297081966255009,242.782742977299,272.996113461887
1.27,0.77729634087797,-0.00464105132025594,2.4344684333223,0.530790171515258,218.978269262167,272.996113461887
1.28,1.08981329308048,0.0441165896346314,2.55263668877617,0.296507693375386,203.718991239648,272.996113461887
1.29,1.3043851681487,0.00594145054703994,3.25849055340446,0.52677261230446,187.849342096228,272.996113461887
1.3,1.48030437753827,-0.00445005769655014,3.7271483005557,-0.0569250078003114,179.914517524518,272.996113461887
1.31,1.5785358940744,0.101976608350353,4.1368657493874,-1.2266179528234,171.985186292106,272.996113461887
1.32,1.62748446911737,-0.267589013840308,5.01495522676159,0.293065735867959,166.791538425151,272.996113461887
1.33,1.79310794774063,-0.033857508612982,4.66475089204491,-1.11263219933975,166.791538425151,272.996113461887
1.34,1.46147896072823,-0.0536373662805608,5.42467384975374,-1.69748000062164,179.914517524518,272.996113461887
1.35,0.513965863805086,-0.12098225184419,5.01237855178395,-0.88178902111321,239.730887372794,272.996113461887
1.36,-0.864456874862601,-0.102061210618018,2.31773510158717,-0.643492152524841,331.896926628813,272.996113461887
1.37,-1.90986706234048,-0.141048421340438,1.02734904979395,0.647646369507847,393.849595400243,272.996113461887
1.38,-2.1054227991207,0.0830085756953824,-0.673041956319256,0.180798507851013,414.90739907132,272.996113461887
1.39,-2.04675130409979,-0.0534942231124358,-0.673041956319256,1.00165058384223,401.784419971953,272.996113461887
1.4,-1.75372759156056,-0.0625499070693017,-1.08333324188709,1.23364292101627,383.77847190538,272.996113461887
1.41,-1.31300061312952,-0.0330951670281901,-1.66500916217677,1.23077963174111,336.826283792456,272.996113461887
1.42,-0.971790913749912,0.102311816752442,-1.73024257059984,0.534227529469861,336.77989559602,272.996113461887
1.43,-0.385648153453783,-0.03385767870463,-0.614959987986384,0.883649315340023,297.716143858369,272.996113461887
1.44,0.122186677982889,-0.0339053250564351,0.61820196604171,0.648792666554169,265.976845571528,272.996113461887
1.45,0.532981942579666,0.0246232309178593,1.61417489931267,0.296507693375386,237.899774010092,272.996113461887
1.46,0.592700789807621,0.0147573804041189,1.49972532531037,0.532508799322352,216.884085942222,272.996113461887
1.47,0.92352160890222,0.0340606554821598,2.31859353380929,0.180795748183399,216.841970339015,272.996113461887
1.48,1.22674444977798,0.0439265485365838,3.49052893005719,0.0622230687561997,192.732311063434,272.996113461887
1.49,1.45108829445427,0.0344414861134865,3.55061133705951,-0.290633928589255,184.797486491724,272.996113461887
1.5,1.59755267020608,-0.0632172791565907,4.02012818018967,-0.407490433229396,176.862661920014,272.996113461887
1.51,1.61718911256423,0.0536497661749092,4.43041987416579,-1.46205858492281,174.726362996861,272.996113461887
1.52,1.65631922831225,-0.00445080611400885,4.60609600592121,-1.11434704519626,174.726362996861,272.996113461887
1.53,1.38326455557407,-0.0528760367170444,4.95545028134561,-1.23291808925899,189.985641019381,272.996113461887
1.54,0.455339472218798,-0.0524482486601428,4.19123730706972,-1.23520322157725,250.717567549009,272.996113461887
1.55,-0.845058213519839,-0.033667739647346,1.96638426761201,-0.761489843543721,331.896926628813,272.996113461887
1.56,-1.75306180134514,-0.0524961501272191,0.790167533953077,0.409937572564165,386.830327509884,272.996113461887
1.57,-2.07630064798053,0.0239580700752879,-0.261323507270043,0.417933747336961,407.888131180961,272.996113461887
1.58,-1.91921028280631,-0.111215334005092,-0.847577664222728,1.58308024330293,386.850469753796,272.996113461887
1.59,-1.54863878880498,0.0830571490537889,-1.08304905491608,0.532506141781657,373.707348410517,272.996113461887
1.6,-1.13822460995486,-0.0728930120372599,-1.14170307313219,1.23536349094224,346.851019090883,272.996113461887
1.61,-0.756884927395608,-0.0145541399649898,-0.849858869297194,0.884220010736347,320.910246452599,272.996113461887
1.62,-0.326929556381415,0.160510207658352,-0.204665639143104,-0.285498590125112,291.917618209812,272.996113461887
1.63,0.17113543162394,0.0735714913010527,1.32290090747033,0.0610805536070874,252.853866472162,272.996113461887
1.64,0.387370804203778,0.0144256249219729,0.856518289773662,0.534216285905232,230.010727264224,272.996113461887
1.65,0.776677542166867,0.0340618801846482,1.61588502446021,0.41564687731378,229.964949438382,272.996113461887
1.66,1.05039769043405,0.190486982413327,2.43618519558446,-0.641208348763295,210.738259130007,272.996113461887
1.67,1.25629255197905,-0.0437710224868271,3.0230090029017,0.297077775476632,190.001510667254,272.996113461887
1.68,1.44103343191649,0.00489245690584244,3.84530246496374,-0.172635624328722,182.966373129021,272.996113461887
1.69,1.55908719655042,-0.0735570757993699,4.25217911619716,-0.521501433563575,176.862661920014,272.996113461887
1.7,1.58806716554115,0.024149361354942,4.60581049154328,-1.34407019540329,174.726362996861,272.996113461887
1.71,1.55918184290849,0.0347258844111392,4.95488854438488,-1.46719586561244,176.862661920014,272.996113461887
1.72,1.15915443516166,-0.0917711099776064,5.59723719895071,-1.1166191966186,195.784166667938,272.996113461887
1.73,0.288857041061267,0.00546126196307548,4.31054981542986,-1.46719504774331,257.736835439367,272.996113461887
1.74,-0.925354642691947,-0.00544641274814044,1.49715293891312,-0.755222926527403,365.720642305208,272.996113461887
1.75,-1.82178957920818,-0.0626491034322208,0.967845993439632,0.528518020199693,386.830327509884,272.996113461887
1.76,-2.16324088670073,-0.0243717487928144,0.554994523565344,0.532502666478574,401.784419971953,272.996113461887
