t,iq,id,vq,vd,omega,r
0,0,0,0,0,-0.144963141214248,0
0.01,-0.00464105132025594,-0.00464105132025594,-0.027848879358281,-0.0557772798034009,-0.144963141214248,-0.144963141214248
0.02,-0.00464105132025594,-0.00464105132025594,-0.027848879358281,-0.0557772798034009,-0.144963141214248,-0.144963141214248
0.03,-0.00464105132025594,-0.00464105132025594,-0.027848879358281,-0.0557772798034009,-0.144963141214248,-0.144963141214248
0.04,-0.00464105132025594,-0.00464105132025594,-0.027848879358281,-0.0557772798034009,-0.144963141214248,-0.144963141214248
0.05,-0.00464105132025594,-0.00464105132025594,-0.027848879358281,-0.0557772798034009,-0.144963141214248,-0.144963141214248
0.06,-0.00464105132025594,-0.00464105132025594,-0.027848879358281,-0.0557772798034009,-0.144963141214248,-0.144963141214248
0.07,-0.00464105132025594,-0.00464105132025594,-0.027848879358281,-0.0557772798034009,-0.144963141214248,-0.144963141214248
0.08,-0.00464105132025594,-0.00464105132025594,-0.027848879358281,-0.0557772798034009,-0.144963141214248,-0.144963141214248
0.09,-0.00464105132025594,-0.00464105132025594,-0.027848879358281,-0.0557772798034009,-0.144963141214248,-0.144963141214248
0.1,-0.00464105132025594,-0.00464105132025594,-0.027848879358281,-0.0557772798034009,-0.144963141214248,-0.144963141214248
0.11,-0.00464105132025594,-0.00464105132025594,-0.027848879358281,-0.0557772798034009,-0.144963141214248,-0.144963141214248
0.12,-0.00464105132025594,-0.00464105132025594,-0.027848879358281,-0.0557772798034009,-0.144963141214248,-0.144963141214248
0.13,-0.00464105132025594,-0.00464105132025594,-0.027848879358281,-0.0557772798034009,-0.144963141214248,-0.144963141214248
0.14,-0.00464105132025594,-0.00464105132025594,-0.027848879358281,-0.0557772798034009,-0.144963141214248,-0.144963141214248
0.15,-0.00464105132025594,-0.00464105132025594,-0.027848879358281,-0.0557772798034009,-0.144963141214248,-0.144963141214248
0.16,-0.00464105132025594,-0.00464105132025594,-0.027848879358281,-0.0557772798034009,-0.144963141214248,-0.144963141214248
0.17,-0.00464105132025594,-0.00464105132025594,-0.027848879358281,-0.0557772798034009,-0.144963141214248,-0.144963141214248
0.18,-0.00464105132025594,-0.00464105132025594,-0.027848879358281,-0.0557772798034009,-0.144963141214248,-0.144963141214248
0.19,-0.00464105132025594,-0.00464105132025594,-0.027848879358281,-0.0557772798034009,-0.144963141214248,-0.144963141214248
0.2,-0.00464105132025594,-0.00464105132025594,-0.027848879358281,-0.0557772798034009,-0.144963141214248,-0.144963141214248
0.21,-0.00464105132025594,-0.00464105132025594,-0.027848879358281,-0.0557772798034009,-0.144963141214248,-0.144963141214248
0.22,-0.00464105132025594,-0.00464105132025594,-0.027848879358281,-0.0557772798034009,-0.144963141214248,0.335242202329503
0.23,-0.00464105132025594,-0.00464105132025594,-0.027848879358281,-0.0557772798034009,-0.144963141214248,499.748984876529
0.24,4.54859140659198,-0.00464105132025594,4.89908007198009,-0.291336090443097,-0.144963141214248,499.748984876529
0.25,4.36318299725238,0.479100631792706,6.18911555553384,-4.7262319331351,90.8003338730032,499.748984876529
0.26,4.49991342130208,0.0729983634569876,6.95126589493642,-1.34608492737167,192.732311063434,499.748984876529
0.27,1.20633362617861,-0.151959744528103,4.54890942412074,-0.402447375876474,438.711872786451,499.748984876529
0.28,1.20697599903412,0.0153673366634065,5.42696531676633,-0.528297612761895,425.894079247534,499.748984876529
0.29,0.36640952819471,-0.00429076216187005,4.66586628391615,-0.057180596019908,477.775624524101,499.748984876529
0.3,0.473594673943311,0.0247292248994713,4.95843482557481,-0.173907161565824,472.887981556977,499.748984876529
0.31,1.19703024525123,-0.0336611306052992,5.60327743343806,-1.34889176128157,433.828903819244,499.748984876529
0.32,0.162218365662482,-0.0819307805462073,5.48176573384058,-0.412270388019451,490.898603623468,499.748984876529
0.33,-0.122122055598092,0.0728238476174092,3.78535620186935,-0.874269275048354,514.703077338599,499.748984876529
0.34,-0.4348406611523,0.00477954536513321,3.19706585307598,-0.0543749710786947,535.755998040566,499.748984876529
0.35,-0.766283881471786,-0.121363682589222,2.90239575522002,0.882247208198352,548.883860109043,499.748984876529
0.36,-0.560983981312535,0.015308477303606,2.84339207456014,0.176976510485279,535.760881009675,499.748984876529
0.37,-0.2589108024871,0.0342082282659722,2.73028544265808,0.297208545469023,519.891231866255,499.748984876529
0.38,-0.0629150210178041,-0.0637313060749612,3.49278615041758,0.650894920460528,498.83831116411,499.748984876529
0.39,0.180942703796462,-0.091527402062089,4.4301987090972,0.643888112608384,488.762304700315,499.748984876529
0.4,0.454578763526222,0.0633453640075247,4.8407760713912,-0.406661153331689,472.892655556895,499.748984876529
0.41,0.552285107110579,-0.0434321841058372,4.84042615589272,0.0602501464165431,469.840799952391,499.748984876529
0.42,0.581305647469563,-0.0530280427663183,4.84217523007637,-0.0578783246883047,469.840799952391,499.748984876529
0.43,0.376064103690853,0.0241464743032252,5.42346767157438,-0.640117911541911,485.700683156171,499.748984876529
0.44,0.132206085477206,-0.0928097836636313,5.25065385430259,0.0630513382257187,490.898603623468,499.748984876529
0.45,-0.053377728326497,-0.0140039539279059,4.25458632273401,-0.175305742275103,503.719449018466,499.748984876529
0.46,-0.131892254023995,0.00512958303817967,3.60694585035854,-0.0557772798034009,516.834493293173,499.748984876529
0.47,-0.423671946780701,-0.072977261200239,3.77941221798446,0.297207537924772,522.94308747076,499.748984876529
0.48,-0.316544461578026,0.00518780528526992,3.89811885654338,0.0609513007789027,514.703077338599,499.748984876529
0.49,0.0341504168098723,0.102428429597476,2.84794032172562,-0.289234642551041,506.768252766889,499.748984876529
0.5,-0.0143534801999194,0.024729057233823,3.78465566632022,0.0609515023088573,501.885283799682,499.748984876529
0.51,0.122435392436228,-0.0634976458581571,4.19453435508061,0.41533490085278,496.697129272025,499.748984876529
0.52,0.258991510226225,-0.0334874447121442,4.66551234237472,0.176282005980865,485.710449095811,499.748984876529
0.53,0.289001602389106,-0.0628575951715335,4.60615975280711,0.176981648946572,480.832363097981,499.748984876529
0.54,0.278881860913957,0.0149002173966153,5.01603869320851,-0.290633928589255,482.963779051758,499.748984876529
0.55,0.29766697814576,0.0240892161095612,4.7217216812036,-0.521995384701253,493.9422192173,499.748984876529
0.56,0.181001001490023,0.00495511750363503,4.60581049154328,-0.289934990846002,493.950459227972,499.748984876529
0.57,0.00542031701933385,-0.0725121706632295,4.43019780324821,0.176284020963192,498.836480050927,499.748984876529
0.58,-0.00464105132025594,-0.0238916279657337,4.01892232102019,0.0602535720567941,503.716397162384,499.748984876529
0.59,-0.102405524932499,-0.073035491829307,3.60834495875286,0.296507693375386,511.956407294545,499.748984876529
0.6,-0.00464105132025594,0.00512958303817967,3.49138608588341,-0.0557772798034009,506.768252766889,499.748984876529
0.61,-0.0823412200758726,-0.0921118544343082,3.84365844107777,0.529269040168266,501.890166768705,499.748984876529
0.62,0.00507147815617306,-0.0147603149707313,4.31323852781147,0.180476035500265,498.833428195178,499.748984876529
0.63,0.151456712432159,0.0340929071396515,4.36979979516001,-0.287840998719715,498.828545226245,499.748984876529
0.64,0.15192145086947,0.102371221713028,4.72242090833616,-0.640824506581191,490.898603623468,499.748984876529
0.65,0.200948828329058,-0.00440873239330495,4.25458430976588,-0.0571733417844259,488.767492854713,499.748984876529
0.66,0.200774555588269,0.0245547090643632,4.78107502574701,-0.289935998390579,488.762304700315,499.748984876529
0.67,0.209558086041218,0.0339189194429481,4.54680801874427,-0.405270935141225,498.82549337095,499.748984876529
0.68,0.0934716743341974,-0.0233115013154922,4.66202486287188,-0.0599636521342214,496.697129272025,499.748984876529
0.69,0.0152484945934074,-0.0142375470802955,4.37189173934666,-0.0564749077864507,496.702317426234,499.748984876529
0.7,0.122319157526309,-0.00481516475954955,4.07792524675703,0.0623485717810586,498.833428195178,499.748984876529
0.71,-0.0145857739721298,0.0145520408097388,4.71928641415492,-0.288541649230011,506.760317942948,499.748984876529
0.72,0.0731758972520568,0.0149002173966153,3.96201063497146,-0.173205604196326,501.885283799682,499.748984876529
0.73,-0.101883293602202,-0.0826320881993382,4.48919916887472,0.413238792845502,498.838311163668,499.748984876529
0.74,0.0639274020313457,0.0151902388008692,4.25319058614801,-0.0578686523565176,498.833428195178,499.748984876529
0.75,0.0927753127695999,-0.0432016256638995,4.42845612680914,0.176291275198713,501.880095645756,499.748984876529
0.76,0.0938191299840991,0.0718423855564621,4.48467351756503,-0.400396103203174,496.697129272025,499.748984876529
0.77,0.0641012639721263,0.0442700996024776,4.60581049154328,-0.173902426111989,493.953205897647,499.748984876529
0.78,0.0256563544813321,0.014726305150801,5.12882369238721,-0.172508883019099,493.950459227972,499.748984876529
0.79,0.122029421139483,0.0631737655222527,4.66168078506102,-0.405275771227021,501.877348972715,499.748984876529
0.8,0.102604110683828,-0.00475695928960996,4.54820028296644,-0.0550807601033633,496.697129272025,499.748984876529
0.81,0.0156535101746386,-0.0338950087972551,4.66342085115226,0.0609546256810102,493.955342198324,499.748984876529
0.82,0.102893863838895,0.00501370860546213,4.37119482719383,-0.0550809616333193,496.697129272025,499.748984876529
0.83,0.102256638278719,-0.0339529543955646,4.42880548870849,-0.0550810623720722,503.70937789263,499.748984876529
0.84,-0.0732671736213594,0.0636375482927672,5.01777870887551,-0.290633928589255,498.833428195178,499.748984876529
0.85,0.0249604120853629,-0.0241244079710665,4.25388699501911,0.061651044589528,498.836480051538,499.748984876529
0.86,0.0927178701594301,0.0143790842396101,4.13831716556992,-0.170421943544634,498.833428195178,499.748984876529
0.87,0.0734082329429597,-0.0635543339815447,4.54507127409143,0.297899322223726,501.880095643965,499.748984876529
0.88,0.0736976842945303,-0.0919400044727401,4.60476799189319,0.293724838844784,496.697129272025,499.748984876529
0.89,0.123187494812837,-0.0437814672878166,4.0765354484937,0.296507693375386,493.955342197969,499.748984876529
0.9,0.171346107435266,0.00501384273450094,4.37084742794569,-0.0550817676479394,493.950459227972,499.748984876529
0.91,0.190250879959212,0.0244394046931637,4.31080416658603,-0.289243105861373,501.877348973581,499.748984876529
0.92,0.122608608873491,-0.00440963778617154,4.37015293143417,-0.0571679010544108,496.697129272025,499.748984876529
0.93,0.0836417279150869,-0.0429716037335851,4.31358265591352,0.0581749951541846,493.955342197791,499.748984876529
0.94,0.122435031959,-0.0144116856786916,4.37084762924251,0.061651044589528,496.697129272025,499.748984876529
0.95,0.121914569473601,-0.0534942231124358,4.36980623676473,0.061651044589528,503.709377893396,499.748984876529
0.96,0.0932387518179222,0.0536358357227137,4.2528457031499,-0.289244113352562,498.833428195178,499.748984876529
0.97,0.0828899776205855,-0.00481448572814699,4.02274180039009,-0.0543876660442122,498.836480051205,499.748984876529
0.98,0.0148424143136859,0.00501397687232082,4.54750357208391,-0.0550825737153271,498.833428195178,499.748984876529
0.99,0.0929497028621428,-0.0538409913183081,4.4864209815058,0.181163185031369,501.880095644531,499.748984876529
1,0.0835835895008046,0.0822545041631604,4.48711507539686,-0.520629045096701,496.697129272025,499.748984876529
1.01,0.112606560980971,0.0245552958809489,4.13761969987008,-0.172511200323877,496.699265571167,499.748984876529
1.02,0.0834679665577149,0.0149002173966153,4.54646298479355,-0.0557772798034009,496.697129272025,499.748984876529
1.03,0.151227009064854,-0.00510314067011767,4.54507610537403,-0.170428794826358,501.877348974443,499.748984876529
1.04,0.0741015514147864,-0.00412127623945424,4.6033836286716,-0.0585536862183616,496.697129272025,499.748984876529
1.05,0.0738127455491696,0.00507183863779155,4.37258140460145,-0.172511603384107,493.955342197261,499.748984876529
1.06,0.141860728037843,0.0244399076813012,4.25423358905348,-0.17181780404876,496.697129272025,499.748984876529
1.07,0.0928343817181533,0.00466776194628596,4.48711648450121,-0.170430406854939,501.880095644907,499.748984876529
1.08,0.122954387884505,0.00512958303817967,4.1924611317386,-0.173205604196326,498.833428195178,499.748984876529
1.09,-0.0435504561495738,-0.0242400309052711,4.66515729374083,0.061651044589528,498.836480050873,499.748984876529
1.1,0.0152464323137638,0.00518728552437109,4.54542461176812,-0.0564707768700385,498.833428195178,499.748984876529
1.11,0.0929499040556713,-0.0244130964539868,4.48642460484936,0.0630378372453001,501.880095645096,499.748984876529
1.12,0.0834677150592051,-0.111598857802428,4.48781007521692,0.411162835622851,496.697129272025,499.748984876529
1.13,0.112721915652764,-0.0238939333576483,4.13727164636095,0.0602646549936708,496.699265570934,499.748984876529
1.14,0.0934113059877727,-0.00469872027420136,4.48677170216482,-0.0550841857439085,496.697129272025,499.748984876529
1.15,0.102547623762693,0.0435778541802688,4.72034919473356,-0.404597286378479,501.87734897531,499.748984876529
1.16,0.112606560980971,0.0147272608398193,4.48850265936856,-0.172512711667133,496.697129272025,499.748984876529
1.17,0.132263117305139,0.102547707604296,4.13865540561313,-0.641533318186524,493.955342196728,499.748984876529
1.18,0.112606560980971,0.0244979454900378,4.3715408173376,-0.0557772798034009,496.697129272025,499.748984876529
1.19,0.093814443723044,0.0334041994780259,4.48227574297368,-0.402521530898309,501.880095643116,499.748984876529
1.2,0.0639262451488513,0.0247860890617562,4.4878108804042,-0.173898093718374,498.833428195178,499.748984876529
1.21,0.0250741236548646,-0.024067099494325,4.31219507194182,0.0609586558059162,498.836480051927,499.748984876529
1.22,0.0928348847064,0.0148426155071902,4.19661623431957,-0.0557772798034009,498.833428195178,499.748984876529
1.23,0.112260999962627,-0.0143540921756342,4.36912039617641,-0.0557772798034009,503.709377891991,499.748984876529
1.24,0.0734088533050157,-0.0242399051582356,4.37188620356457,0.061651044589528,498.833428195178,499.748984876529
1.25,0.116729332057195,-0.0135480345913523,4.28050111084234,0.0561151583777965,496.699265571671,846.05166836582
1.26,4.51945049839929,0.063465547424983,9.70766442857284,-2.2862235582844,514.695142513215,846.744967108626
1.27,4.59744285144459,-0.0140663258538234,10.2959314264295,-3.11237263525049,566.879737048897,846.744967108626
1.28,3.01172248917107,0.0530043778197266,10.1182421430896,-4.5125201386726,697.785420978153,846.744967108626
1.29,-0.025218097761037,-0.277700924494503,7.59301497314833,-1.11263219933975,877.860771291504,846.744967108626
1.3,-1.46029296626563,-0.140336770748551,5.5428916040338,0.643952292711777,945.930274255003,846.744967108626
1.31,-1.48983500024105,-0.00567652721443244,5.01327988097128,0.889871746491457,951.723001376267,846.744967108626
1.32,-0.961185411484508,-0.0339529543955646,5.13231459396254,1.00107763973295,904.737242862426,846.744967108626
1.33,-0.248446832919384,-0.179707334389008,5.83547131789264,1.58407218344494,864.750915175199,846.744967108626
1.34,0.308019248149687,-0.00446854745544574,7.36288973257927,0.177697211041778,830.875317965206,846.744967108626
1.35,0.503431935318401,-0.0921743102019427,8.0060119515479,0.177006434286748,820.801142613984,846.744967108626
1.36,0.396414833570348,-0.0823462499930026,7.71515821276299,0.0595784121100706,822.94629191921,846.744967108626
1.37,0.405668115596069,-0.0137219720229943,6.95403733874209,-0.411516136490334,833.930225426013,846.744967108626
1.38,0.171057963863515,0.024728319511075,7.36185458038288,-0.408752928945378,846.742220437353,846.744967108626
1.39,-0.00475597006840266,0.0146703799003219,7.29940649845836,-0.407371677757426,859.860011381748,846.744967108626
1.4,-0.0241823200371289,-0.00475595329561491,6.65559360785788,-0.0550868053704798,859.86306323693,846.744967108626
1.41,0.0149002173966153,0.00530191085535948,6.8322454742857,0.0602702972006106,854.979789085256,846.744967108626
1.42,0.07294968130947,-0.0338380859480128,6.77600538677565,0.179079368982457,854.979789084126,846.744967108626
1.43,0.122721750390201,-0.110969512427068,6.65938701863828,0.409104812247405,846.750155264062,846.744967108626
1.44,0.17094327985443,-0.0341252067618585,6.95334586173623,-0.0543971369519016,846.744967108626,846.744967108626
1.45,0.15209096192908,0.0247856699020121,7.47812922303854,-0.291323899276568,841.861998141419,846.744967108626
1.46,0.181001001490023,-0.00452624993719616,7.42085388269707,-0.291323798538132,841.861998141419,846.744967108626
1.47,0.123123295306175,-0.0141821164581475,7.35944377139113,-0.173895373353367,843.998297064572,846.744967108626
1.48,0.161115429234039,0.0340971825743747,7.24764807811924,-0.171826267359118,841.861998141419,846.744967108626
1.49,-0.0235511890835484,0.00478532979077209,7.53506199530856,-0.171136901155822,849.79682271313,846.744967108626
1.5,0.0442121204719221,-0.0924046590684049,6.77566100703306,0.296507693375386,854.984977240787,846.744967108626
1.51,0.0539827548303577,-0.024354396355799,7.0106210511251,-0.0543985475036105,851.933121636283,846.744967108626
1.52,0.161230331209394,-0.0238955680824324,6.95437708860475,0.0602725137666102,844.001043735496,846.744967108626
1.53,0.132090487688854,0.00518692504716827,7.12965002711716,-0.173894768869349,844.001043734847,846.744967108626
1.54,0.0939252966030209,-0.0141823511883127,6.95127877819921,-0.0571554075657731,844.004095591972,846.744967108626
1.55,0.0639826901513694,0.112090633815175,7.24695735598317,-0.52342368794686,841.866881110708,846.744967108626
1.56,0.131975879121763,0.0437535856023757,7.30354655377772,-0.405995665769243,846.742220437803,846.744967108626
1.57,0.180141374339275,-0.0440101311375828,7.35979232791727,-0.0543997564722728,854.9718542551,846.744967108626
1.58,0.111747059625741,-0.0533223228413897,6.89640901305241,-0.0557772798034009,851.930985336792,846.744967108626
1.59,0.074039648922811,0.0343841944050885,7.36151276723452,-0.173205604196326,844.001043735945,846.744967108626
1.6,0.0739250068323601,0.0246135684286036,7.42085458724925,-0.290633928589255,844.001043735297,846.744967108626
1.61,0.0350715105026625,-0.0531505734456125,7.24523671547455,0.1770142930072,844.004095592921,846.744967108626
1.62,0.0544408872951794,0.0538109551560496,7.30457818321318,-0.173205604196326,841.866881111507,846.744967108626
1.63,0.0934088413210122,0.160543601954719,7.47847747779158,-0.991074932176066,843.998297064572,846.744967108626
1.64,0.131518081961915,0.0433533735592932,7.53472586881683,-0.52067418264714,854.971854258914,846.744967108626
1.65,0.0734095407316141,-0.0531507746655913,7.12827250814618,-0.0571531909997735,849.79682271313,846.744967108626
1.66,0.112778260058542,-0.0824627280326024,7.18555207580071,0.295131983655886,846.744967108626,846.744967108626
1.67,0.10260702804692,-0.00441215274464062,7.18795689623229,-0.174581112438901,846.744967108626,846.744967108626
1.68,0.0635817404030121,0.00512958303817967,7.128615831087,-0.290633928589255,849.79682271313,846.744967108626
1.69,0.112434937354294,-0.0436091730028817,7.12895915394843,0.0602759394074983,846.744967108626,846.744967108626
1.7,0.015300613851875,-0.00406905638417057,7.12998912269183,-0.17595541160664,844.006231890389,846.744967108626
1.71,0.0936372033804184,0.0823224090079236,7.24489339256024,-0.63810744397123,841.866881112217,846.744967108626
1.72,0.122091281713087,0.00490085213712386,7.36082818479797,-0.289946678266949,849.791024186677,846.744967108626
1.73,0.0834090065922911,-0.0145832087086313,7.24523671547455,-0.0544029806356618,846.744967108626,846.744967108626
1.74,0.161116737004976,0.209055253415354,7.30354745962672,-1.10644875973085,846.74008413907,846.744967108626
