t,iq,id,vq,vd,ia,ib,va,vb,theta_e,omega,r
0,0,0,0,0,0,0,0,0,0,0,0
0.01,0.000463769134644501,0.000256703022213451,-0.0226280780282591,-0.0128438414542992,0.000298509465010562,0.000438030080201733,-0.0148822806353098,-0.0213427247943659,-0.092651515394844,-0.00241995581437989,0
0.02,0.000551590157971592,0.000302909048294452,-0.0269959667881746,-0.0151557049008267,0.000352652105259087,0.000521192945621975,-0.0175888143167762,-0.0254776612898267,-0.0926700901769392,-0.00260832696861746,0
0.03,0.000582960268423029,0.000320618269755917,-0.0285728206350827,-0.0160417620099659,0.000373198394383892,0.000550782813720992,-0.0186174842197642,-0.0269654128237604,-0.09268850479522,-0.00248008069192488,0
0.04,0.000568936304860905,0.000314331648527359,-0.0279440289871977,-0.0157272242515285,0.000365649465309723,0.000537394987670541,-0.0182465254770452,-0.0263681369594204,-0.0927047061910256,-0.00213183340605341,0
0.05,0.00058051150811054,0.000322241503750408,-0.0285502297933606,-0.0161229892307893,0.000374604907455242,0.000548182780738822,-0.0186971019354368,-0.0269348247108781,-0.0927193224698522,-0.001954681287044,0
0.06,0.000580151629229451,0.000323366717193548,-0.0285735603778958,-0.0161792786983663,0.000375699135818329,0.000547715351283383,-0.0187556624510916,-0.0269525979803317,-0.0927324095944438,-0.00173540842694499,0
0.07,0.000588637663308983,0.000329584470885689,-0.0290197995451747,-0.0164903801571156,0.000382682264777795,0.000555584832711799,-0.0191070584992267,-0.0273678957699609,-0.0927437259998175,-0.00159556026899262,0
0.08,0.000577775053916237,0.00032440993157767,-0.0285258343515295,-0.0162314723602487,0.000376529604787777,0.000545244232754918,-0.0188037949363778,-0.0268998367359929,-0.0927540633240594,-0.00136253073023849,0
0.09,0.000574500513440159,0.000323671336479908,-0.0283950014375588,-0.0161945272979093,0.000375495728766317,0.000542048827763652,-0.0187551296423689,-0.0267728207916094,-0.0927629845999203,-0.00119592441726738,0
0.1,0.00057264166319024,0.000323564976542995,-0.0283292658605687,-0.0161892055337522,0.000375221857841073,0.000540204892485108,-0.0187439501619019,-0.0267077144724327,-0.0927707909408318,-0.00105583158846044,0
0.11,0.000571174728426012,0.000323548839382353,-0.0282795280782081,-0.016188389649996,0.000375073586044069,0.000538743191985049,-0.0187387127554791,-0.0266581378204461,-0.0927776393601594,-0.00093385576591649,0
0.12,0.000569913811297541,0.00032354567695505,-0.0282371589070104,-0.0161882303722893,0.000374956850850286,0.00053748573691255,-0.0187347888741543,-0.026615853012198,-0.0927836502813638,-0.00082694675687195,0
0.13,0.000593034042176658,0.000337043959634359,-0.0293747202123941,-0.0168636097186663,0.000390542357418915,0.000559253674970554,-0.0195128164137365,-0.0276858360159802,-0.0927893389770192,-0.000863283252452193,0
0.14,0.000607158551275217,0.000345815298759783,-0.0301333509428089,-0.0173024637012029,0.000400587645272026,0.000572502633791629,-0.0200202211131835,-0.0284004372458096,-0.0927945051700849,-0.000857413500143679,0
0.15,0.000573085227585414,0.000326716207285509,-0.0284389926513216,-0.0163468762920062,0.000378415951966323,0.000540343895567513,-0.0189118678172494,-0.0268018268629391,-0.0927991489833914,-0.000587617173854898,0
0.16,0.000566986444305291,0.000323994262627512,-0.0281544479547942,-0.0162106761162912,0.000375142437366871,0.000534522274491855,-0.0187499787796992,-0.0265310620885659,-0.0928026439504311,-0.000495108900105936,0
0.17,0.000565494696825533,0.000323605982058895,-0.0280914307172735,-0.0161912485123725,0.000374619173259292,0.000533071813913124,-0.0187248737101897,-0.02647006068505,-0.0928056175497855,-0.00043731253823862,0
0.18,0.000564811606889149,0.0003235502810852,-0.0280664025129022,-0.0161884693733353,0.000374501789904339,0.000532395853689208,-0.0187198557299065,-0.0264453491585788,-0.0928082124939389,-0.000390375231092317,0
0.19,0.00056431371590973,0.000323542015527218,-0.0280493490085894,-0.0161880495071803,0.000374448628124401,0.000531900019431299,-0.0187179173709606,-0.0264283653665236,-0.0928104878669395,-0.000349789236276471,0
0.2,0.000563893028857545,0.000323540549156294,-0.0280351669881577,-0.0161879790414668,0.000374409241252985,0.00053148053116446,-0.0187165856044788,-0.0264142135376216,-0.0928124847970085,-0.000314262544127064,0
0.21,0.000563526416773728,0.000323540086779329,-0.0280228434632203,-0.0161879579234749,0.000374375734482611,0.000531114883603932,-0.0187154687204124,-0.026401912204831,-0.0928142376462122,-0.000283093253633195,0
0.22,0.000563205090257576,0.000323539798353859,-0.0280120458810604,-0.0161879439765585,0.000374346483129921,0.000530794390870099,-0.0187144947090982,-0.0263911335947126,-0.0928157762942079,-0.000255735338009902,0
0.23,0.000562923112120004,0.000323539561848791,-0.0280025682298361,-0.0161879299383218,0.000374320829712216,0.000530513142800192,-0.0187136379501326,-0.0263816727639852,-0.092817126924848,-0.000231720863087092,0
0.24,0.000562675592917501,0.000323539356573506,-0.0279942452413006,-0.0161879158192508,0.000374298312950218,0.000530266264285859,-0.01871288375267,-0.0263733647239083,-0.0928183125140103,-0.000210640918384027,0
0.25,0.000562458187304314,0.000323539176678484,-0.0279869291011756,-0.0161879164937572,0.000374278535200526,0.000530049421657636,-0.0187122337667084,-0.0263660605397004,-0.092819353229392,-0.000192136859567312,0
0.26,0.000567067665382862,0.000326258185337387,-0.0282127314470143,-0.0163239528991664,0.000377413513183685,0.000534386733264181,-0.0188686351637318,-0.0265782667044624,-0.0928201746321147,-0.000204571868276129,0
0.27,0.000555169270342605,0.000319413492555963,-0.0276396769203327,-0.0159814818233252,0.0003694960130542,0.000523173579509314,-0.0184745512329379,-0.0260394020336719,-0.0928212339940827,-0.000119691935031513,0
0.28,0.000554746384042016,0.000319276051190703,-0.0275651852424882,-0.0159746109153518,0.00036932033160814,0.000522764995129239,-0.018460823535094,-0.0259658549975865,-0.0928219317236856,-0.00010571863535443,0
0.29,0.000560657750087685,0.000322931252110257,-0.0279091134936816,-0.016157499171167,0.000373507963825895,0.000528311941263415,-0.0186748151658961,-0.0262913421869078,-0.0928224042003185,-0.000131309602703604,0
0.3,0.000553778340022917,0.000319412399770198,-0.0275752056971534,-0.0159814350043064,0.000369366498868103,0.000521788386723405,-0.0184685536203177,-0.0259751951140052,-0.0928221854326663,-9.60326135138369e-05,0
0.31,0.000560466131549487,0.000322950650941732,-0.0279004416443168,-0.0161584718321473,0.000373509627313198,0.000528119272382756,-0.0186749852841143,-0.0262826136549686,-0.0928226108373385,-0.000126796197685084,0
0.32,0.000561462538085138,0.000323454748405055,-0.027950210832857,-0.0161836847308597,0.000374104171504278,0.00052906448076003,-0.0187047156839257,-0.0263298224120961,-0.0928231032757553,-0.000124257024158499,0
0.33,0.000561546535771955,0.000323526512266437,-0.0279556577696453,-0.016187278529256,0.000374183651101838,0.000529141296087223,-0.0187088107789591,-0.0263349043429883,-0.0928235548438347,-0.000117236347231011,0
0.34,0.000561491937560741,0.000323536680064722,-0.0279542291000169,-0.0161877909372997,0.000374188925782458,0.000529085840969863,-0.0187091990779645,-0.0263334268538496,-0.0928239543634604,-0.000110296369891675,0
0.35,0.000561423406997861,0.000323538077986307,-0.0279519753114791,-0.0161878505766567,0.000374184151334285,0.000529017344443828,-0.0187090588030202,-0.0263311706692056,-0.0928243055712643,-0.000104078370537312,0
0.36,0.00056135984424377,0.000323538232486016,-0.0279498285894288,-0.0161878610219331,0.000374178576585406,0.000528953925624987,-0.0187088783405736,-0.0263290264514564,-0.0928246139453791,-9.85997373241198e-05,0
0.37,0.000561303382814421,0.000323538215266526,-0.0279479081881695,-0.016187862716873,0.000374173469128443,0.000528897607573665,-0.0187087091504923,-0.0263271090960813,-0.0928248846510043,-9.37872523878394e-05,0
0.38,0.000561253731679741,0.000323538178370789,-0.0279462145870543,-0.0161878629374787,0.00037416895581603,0.000528848084700573,-0.0187085586431621,-0.0263254183200125,-0.0928251222797279,-8.95622936693998e-05,0
0.39,0.000561210192349447,0.000323538142878578,-0.0279447266380047,-0.0161878631408114,0.000374164995038813,0.000528804658056099,-0.0187084264157907,-0.0263239328555479,-0.0928253308715912,-8.58535187185551e-05,0
0.4,0.000561171949916289,0.000323538111279731,-0.027943415753005,-0.0161878633291549,0.000374161515623897,0.000528766514682364,-0.0187083099144107,-0.0263226241711393,-0.0928255139744563,-8.25979252824181e-05,0
0.41,0.000561138364095995,0.000323538083478103,-0.0279422606947776,-0.0161878635043301,0.000374158459778709,0.000528733015894636,-0.0187082072544809,-0.0263214710624828,-0.0928256747030242,-7.97401484664896e-05,0
0.42,0.00056110891101962,0.00032353805906406,-0.0279412446217386,-0.0161878636678194,0.000374155779986494,0.000528703639094022,-0.0187081169484957,-0.0263204567092053,-0.0928258157911234,-7.723157878551e-05,0
0.43,0.000561083163005813,0.000323538037631246,-0.0279403544521618,-0.0161878504439389,0.000374153437472063,0.000528677957579777,-0.0187080245290642,-0.0263195692808166,-0.0928259396388535,-7.50295450076335e-05,0
0.44,0.000561060462018094,0.00032353801881684,-0.0279395645146935,-0.0161878505888749,0.000374151371995463,0.000528655315393495,-0.0187079543131763,-0.0263187806969579,-0.0928260483531597,-7.30965898702148e-05,0
0.45,0.000561040554998094,0.000323538002301062,-0.0279388685313611,-0.0161878507258318,0.00037414956076096,0.000528635459903999,-0.0187078924484294,-0.0263180859120204,-0.0928261437828808,-7.13998331779831e-05,0
0.46,0.000561023034492188,0.000323537987803232,-0.0279382517518497,-0.0161878508559763,0.000374147966580789,0.0005286179848303,-0.0187078376115155,-0.026317470208708,-0.0928262275515129,-6.99104125421776e-05,0
0.47,0.000561007667669732,0.000323537975076895,-0.027937707404549,-0.016187850979976,0.000374146568382148,0.000528602657833795,-0.0187077892129562,-0.026316926817843,-0.0928263010838774,-6.86029924265795e-05,0
0.48,0.000560994221700082,0.000323537963905295,-0.0279372281472298,-0.016187851098499,0.000374145345029663,0.000528589246638162,-0.018707746605799,-0.0263164484053369,-0.0928263656310423,-6.7455333184982e-05,0
0.49,0.000560982347337275,0.00032353795409866,-0.0279368003153982,-0.0161878512125428,0.000374144264542695,0.000528577403107805,-0.0187077085533486,-0.0263160213448923,-0.0928264222908627,-6.64479127541851e-05,0
0.5,0.00056097198637365,0.000323537945490343,-0.0279364243058351,-0.0161878513222737,0.000374143321869649,0.000528567068940598,-0.0187076751179216,-0.0263156460135409,-0.0928264720267757,-6.55635945813623e-05,0
0.51,3.29427309278855,-0.00767510164864045,2.89225405844035,0.388976462186301,-0.356303544714314,3.27495677850563,0.080670411900678,2.9171781761393,0.106040344966453,32.5586588245781,753.631893869733
0.52,3.20941065629177,0.0173442568111092,2.33076825065179,-0.857272434097016,-1.45791927916657,2.8592112477741,-1.83157717500892,1.67711708490951,0.476942412530684,68.502213085465,753.631893869733
0.53,3.09970577601356,0.00884791224475145,2.86470109574917,-0.426083035617679,-2.77305590187633,1.3850686439566,-2.75574997767545,0.891011325275627,1.11042423086329,104.479010566728,753.631893869733
0.54,2.94245517306068,0.0329277123320442,5.20765178205638,-1.63239534424724,-2.67236482198613,-1.23190622123683,-4.00471806475218,-3.70763871823059,2.01393354546062,142.149764508264,753.631893869733
0.55,2.87633382445541,0.0107245185789171,3.54498529055848,-0.515419762446056,0.109385272303639,-2.87427315111283,0.662990036138925,-3.52037248793028,-3.09982581741459,176.059978928501,753.631893869733
0.56,2.78010108212177,-0.0101196119192499,3.87228248728004,0.536457036985329,2.76033360583625,-0.331093367271373,3.77719288436978,-1.00755730759747,-1.69381287325875,207.780403394149,753.631893869733
0.57,2.6253665467088,0.00872342346115862,6.58128916793243,-0.412477945106148,0.132201538824204,2.62205041061897,-0.102461306049742,6.59340631600285,-0.0470537535860236,240.829926497139,753.631893869733
0.58,2.56105435601763,-0.00779032633263355,5.48482847220521,0.426318562642335,-2.47610713530852,-0.654181594158295,-5.41475727923726,-0.972365411413567,1.82605033746741,270.382368904243,753.631893869733
0.59,2.44677522822109,0.0337296362238309,6.52977486918322,-1.65655650664335,1.69768493450588,-1.76230320006176,5.77169360731384,-3.47414625558737,-2.3610837126294,300.48818964533,753.631893869733
0.6,2.37386224713061,-0.0145361261625276,5.81551916073247,0.753789561226669,0.117297619212027,2.37100707207781,1.07553975745895,5.76469218966511,-0.0555546751583247,329.164508777753,753.631893869733
0.61,2.30843111493678,0.0347118217590883,4.96319873248355,-1.69321337907066,-1.48896538062618,-1.76438125649612,-1.8332847510844,-4.91318432654746,2.4556851363518,355.842918136199,753.631893869733
0.62,2.17860546215354,0.0320413599680687,7.24196600982862,-1.56221535313529,1.97394570054067,0.922435244226309,5.83302261283746,4.56754153732744,-1.11893866880691,382.216310428266,753.631893869733
0.63,2.11925999293799,0.0189707445874408,6.09063086187612,-0.912122254745775,-2.07772070350455,-0.417970674864012,-5.77213590258159,-2.14713726281507,1.77826594818083,407.844883409072,753.631893869733
0.64,2.03970484093363,0.038884488943996,6.08045758539401,-1.91197291630882,2.02380171283322,0.257166227840785,5.73912205692718,2.77309987129312,-1.42534137888623,432.407209096055,753.631893869733
0.65,1.97275709315369,-0.00866782823714907,5.57133565755666,0.465951041028452,-1.90479275117977,-0.51342989286516,-5.50495143535148,-0.975910383293215,1.82969153179903,455.874572748092,753.631893869733
0.66,1.88868043194124,0.016237510908874,6.02817775724801,-0.780747887008938,1.62766852120231,0.958161059449484,4.76657903833043,3.77203109841336,-1.03015164535381,478.356049834345,753.631893869733
0.67,1.84005521374527,0.0439963901537984,4.81670332561527,-2.16785379316114,-1.05546048376566,-1.50789324528856,-0.861751162223268,-5.21129599331329,2.55480133504892,499.89923368846,753.631893869733
0.68,1.76728838423035,0.0429279621563727,4.91379481629181,-2.11087233098673,0.0223745980597641,1.76766807413951,-2.16786842257888,4.88891685312064,0.0116285067339653,520.531814843394,753.631893869733
0.69,1.64066504356138,0.0470582355800626,7.80758320668863,-2.31297677975974,1.09479668243186,-1.22287222833638,7.05073488727178,-4.07373964097887,-2.38272429092169,540.300241694271,753.631893869733
0.7,1.55317294813014,0.0327099792764545,8.85535622127245,-1.58933217238811,-1.55101820449533,-0.0880833631943699,-8.7050745426669,-2.2726609440102,1.64858304972583,559.247335492124,753.631893869733
0.71,1.52102252856443,0.0373582831196279,7.20186422689931,-1.82775497663746,0.717888149202519,1.34147000672872,1.60895839078688,7.25388099530393,-0.466814536486512,577.620467763989,753.631893869733
0.72,1.44157335329349,0.0296549440375166,7.95222490420689,-1.46070038345459,0.895136718800016,-1.13037312569242,6.1902543221492,-5.20118043951811,-2.45124508527518,595.189612033295,753.631893869733
0.73,1.38292342448179,0.0255472830298394,7.80980656896351,-1.24278449786753,-1.28279236919378,-0.517275167767458,-6.70192979746016,-4.19782431060199,1.97256529429506,611.746294897435,753.631893869733
0.74,1.354093475581,0.0159892766244644,6.29302971377823,-0.751369453576737,-0.296616681112884,1.3213036524825,-2.1819362204301,5.95028851100845,0.232634519251349,627.632621348653,753.631893869733
0.75,1.24482491619246,0.0285388384191657,8.81257883590348,-1.40984085322486,1.23017928994442,0.19251610806299,8.42324600197276,2.94925817125014,-1.39263909692548,643.098556805958,753.631893869733
0.76,1.23703647133895,0.044856783086352,6.38966731676496,-2.2071359444234,0.242047932614164,-1.2139539368233,3.62315385354449,-5.70719314984571,-2.90853994997657,657.498830574198,753.631893869733
0.77,1.12616290501147,0.0181405558591844,9.2175682437546,-0.877083303663272,-1.04771484838825,-0.413358881430575,-8.18377504739835,-4.3311275002496,1.96268846100205,671.455391001154,753.631893869733
0.78,1.0660972332762,-0.00798567559852627,9.52499293020308,0.424781443167157,-0.652119262829818,0.843426077887226,-5.43157147790653,7.83606794733622,0.650680903735666,684.724195844256,753.631893869733
0.79,1.03333244843122,0.0347828541604897,8.6253326380213,-1.69662936281975,0.584217999724916,0.853038759214274,3.20032953075429,8.18735642352766,-0.566848994255857,697.269675536621,753.631893869733
0.8,0.968711356552662,0.0252443569084083,9.3276976839358,-1.24204534183188,0.958273553486657,-0.144051263645528,9.40962724911193,0.0868086795072729,-1.693949040829,709.352604398537,753.631893869733
0.81,0.927115115555392,0.0449779583708064,9.02798561966502,-2.20931977915837,0.324895136542208,-0.86948755280436,5.59575793635182,-7.42112601652973,-2.7355189748955,720.701685482353,753.631893869733
0.82,0.905523924017618,0.013810543695685,7.74749622108886,-0.666763656624555,-0.48802385432121,-0.762887295541684,-3.50786169974248,-6.93996957954869,2.58773806276303,731.554527872565,753.631893869733
0.83,0.826835362476052,0.0113947271033544,9.43253297120983,-0.563934436045492,-0.82090765972985,-0.0994845246434057,-9.27194006214497,-1.82258821051535,1.70517692362657,741.900673406086,753.631893869733
0.84,0.824663114288999,0.000797516376122298,7.33569844450946,-0.00728773545390069,-0.643668350718096,0.515520069817895,-5.73465947885957,4.57451696263033,0.896468164178408,751.627381114379,753.631893869733
0.85,0.736709962203748,-0.00110791848119643,9.61366782947921,0.0613710934186517,-0.116494662698228,0.727441949200371,-1.44529979534983,9.50460330830449,0.157290719091022,760.904802114427,753.631893869733
0.86,0.689325513327735,-0.00296447499185315,9.95048265882916,0.184614442433442,0.337551186422424,0.601030488395836,5.0703811520755,8.56372714468953,-0.516021801212347,769.60430258895,753.631893869733
0.87,0.656069219113785,-0.00759585605154511,9.61279495726914,0.400886341296799,0.589197498385824,0.288670790336699,8.85298865624329,3.76711144002469,-1.12680723288756,777.927853913855,753.631893869733
0.88,0.619994704178908,0.00696941044342708,9.51095089951344,-0.348853972530144,0.615639475879322,-0.0736888161857301,9.49321628327688,-0.677296615990639,-1.67868372285226,785.744300126276,753.631893869733
0.89,0.580504989179069,0.0215177081797773,9.64628067273854,-1.04334942799395,0.465478673909132,-0.347532240753138,8.5308366855401,-4.62213525232522,-2.17507570828297,793.059105898612,753.631893869733
0.9,0.562233561017548,0.0169970993780487,8.76987698820861,-0.829264286946962,0.310591447041723,-0.468965277548636,5.73844161844111,-6.68346537640913,-2.52640335091903,799.983481975524,753.631893869733
0.91,0.550202060178344,0.00545626023021431,7.65138276916395,-0.271705100481817,0.114938668280412,-0.538090308716036,1.93757183867289,-7.40697625970737,-2.92123393477098,806.52906062666,753.631893869733
0.92,0.44056120637026,0.0283879451003935,11.484839232336,-1.42309405218954,-0.0845524640713529,-0.433302357257498,-0.0588370640837415,-11.5725220705718,3.01322621941053,812.600518831496,753.631893869733
0.93,0.43864707723091,-0.0123591817633163,9.98251904416854,0.645392683863959,-0.173138748094778,-0.403220760434345,-4.78105287187061,-8.78685106394495,2.70784173681567,818.27752937285,753.631893869733
0.94,0.418255875289092,0.0386020854507166,9.4558800940449,-1.92050657792144,-0.29856630726628,-0.295442478970724,-4.61110861603232,-8.47582982367784,2.44296791733691,823.663238456291,753.631893869733
0.95,0.370777595104823,-0.0262143030839913,10.3374537615984,1.30501499341392,-0.280458616300046,-0.243938884274235,-9.0437519881884,-5.17460765492017,2.21608200039811,828.686345800036,753.631893869733
0.96,0.375108950606041,0.0117547678243585,8.70103227460466,-0.598365050100562,-0.342295502659383,-0.153878810271363,-7.55804122353529,-4.35224266789375,2.0246023378619,833.339883104141,753.631893869733
