t,iq,id,vq,vd,ia,ib,va,vb,theta_e,omega,r
0,0,0,0,0,0,0,0,0,0,0,0
0.01,0.000720095289545628,0.00040768066924344,-0.0355824880933864,-0.020412180856667,-3.68806473692621e-05,0.000826668356688585,0.00159596592147858,-0.0409905291380673,0.559740522073236,-0.0016309687268962,0
0.02,0.000795810113103393,0.000450978277368128,-0.0393971165866979,-0.0225800478125201,-4.03816674407347e-05,0.000913818616416992,0.00178382812075658,-0.0453741039778987,0.559728576507925,-0.00169195313099927,0
0.03,0.000823649774247523,0.000467049163784723,-0.0407893139538213,-0.0233846986025571,-4.15336424923106e-05,0.000945943353775122,0.00184060678643132,-0.0469811071412071,0.559716727152431,-0.00163902065367374,0
0.04,0.00080611106324532,0.000457817462600351,-0.039948873808161,-0.0229224708310058,-4.00346572331806e-05,0.000926179842994084,0.00178558229856397,-0.0460235144615634,0.559706072000951,-0.00148925889348234,0
0.05,0.000822156973368972,0.00046723100479058,-0.0407582343240369,-0.0233938045592367,-4.05671863317285e-05,0.000944775742750612,0.00181540626929012,-0.0469596428547565,0.559695805595044,-0.00142402071028374,0
0.06,0.000821809102416784,0.000467487834567307,-0.0407605235242536,-0.0234066592267932,-4.0155785062135e-05,0.000944617694736634,0.00180527768724194,-0.0469684249959736,0.559686209270541,-0.00132621246244896,0
0.07,0.000843950353373449,0.000480497954152362,-0.0418664481652291,-0.0240580643583475,-4.08774312482862e-05,0.000970288368743188,0.00183999621054232,-0.0482514699940571,0.559677412561583,-0.00129045310175444,0
0.08,0.000820981607678552,0.000467848553647771,-0.0407544814232254,-0.0234247333480583,-3.93945686090082e-05,0.000944108646958008,0.00178594732470209,-0.0469729313611259,0.559669048639097,-0.00115081407492448,0
0.09,0.000819640074508888,0.00046749642816051,-0.0407040035880042,-0.0234071027476713,-3.89735280779848e-05,0.000942785143175753,0.00177372999551178,-0.0469208082734656,0.559661395953157,-0.00107026240649688,0
0.1,0.000818990409470622,0.000467484275891943,-0.0406863961264611,-0.0234064843000647,-3.86322371794566e-05,0.00094222841671305,0.00176457363821272,-0.0469055712780882,0.559654303773739,-0.000997034584999173,0
0.11,0.000818405539506232,0.000467481693078347,-0.0406709280046692,-0.023406353980706,-3.83177301190844e-05,0.000941731656055166,0.00175616381553494,-0.0468924053561353,0.55964772832575,-0.000929184491866921,0
0.12,0.000817863752815307,0.000467479537697883,-0.040656608553621,-0.0234062577765544,-3.80261903773835e-05,0.000941271610737701,0.00174835751976577,-0.0468802300353567,0.559641631879316,-0.000866278333262545,0
0.13,0.000856974483950717,0.000489883659891737,-0.0425909262204226,-0.0245280003325695,-3.97971951494095e-05,0.000986310016997577,0.0018243421711782,-0.0491149831748976,0.559635620956811,-0.000899392659788813,0
0.14,0.000902518726407683,0.000516601487319355,-0.0449148989304684,-0.0258657357418035,-4.13278714904201e-05,0.00103909054237597,0.00192413828650102,-0.0517946148093933,0.559630088356451,-0.000952780032022857,0
0.15,0.000818926079746103,0.000468831029457597,-0.0407426267596434,-0.0234739113394208,-3.74290541843022e-05,0.000942889985190987,0.00173590340885929,-0.0469890709442282,0.559624883886918,-0.000699584040596939,0
0.16,0.000816056855341414,0.000467509571688547,-0.0406105773710095,-0.0234077488705421,-3.70215725788871e-05,0.000939757093047939,0.00172166407198062,-0.0468420492123943,0.559620439883506,-0.00064779079528602,0
0.17,0.000815617996912015,0.000467471652250928,-0.0405972970967206,-0.0234058642380861,-3.68168734869069e-05,0.000939365200745498,0.00171601876914315,-0.0468298013221823,0.559616330961098,-0.000605216178323622,0
0.18,0.000815277443623815,0.000467469300351146,-0.0405882424595304,-0.0234057366291876,-3.66345029485872e-05,0.000939075486873277,0.00171114180025832,-0.0468220666657072,0.559612521697602,-0.000565905063933835,0
0.19,0.000814963559103017,0.000467468025994232,-0.040579937234763,-0.0234056779060986,-3.64656392004341e-05,0.000938808934315447,0.00170661733246639,-0.0468150031667398,0.559608989935934,-0.000529462453975884,0
0.2,0.000814672608398878,0.000467466869316973,-0.0405722388495894,-0.0234056191559403,-3.63090935364117e-05,0.000938561869303781,0.00170242712221477,-0.04680845345912,0.559605715451444,-0.000495674706946241,0
0.21,0.000814402903491099,0.000467465797420699,-0.0405651022993114,-0.0234055618344178,-3.61639797836906e-05,0.000938332844751321,0.00169854515783841,-0.0468023802138859,0.559602679502048,-0.000464348285913093,0
0.22,0.000814152649544342,0.00046746480348042,-0.0405584742740329,-0.0234055224427392,-3.6029334313524e-05,0.000938120336802259,0.0016949283338416,-0.0467967470471837,0.559599864711308,-0.000435303887607218,0
0.23,0.000813920954236326,0.000467463881819485,-0.0405523439664639,-0.0234054650641341,-3.59046728608133e-05,0.000937923586982154,0.00169160059027763,-0.0467915257657386,0.559597254968554,-0.000408375274396435,0
0.24,0.000813705915922464,0.000467463027189681,-0.0405466476407433,-0.023405425606305,-3.57889761471769e-05,0.000937740981605738,0.00168849695741224,-0.046786681446109,0.559594835336704,-0.000383408318601632,0
0.25,0.000813506593678236,0.000467462234723444,-0.0405413673045444,-0.0234053875703521,-3.56817356251591e-05,0.000937571721306364,0.0016856212131405,-0.0467821901086961,0.559592591966782,-0.000360260120212069,0
0.26,0.000821620348125641,0.000472123407979613,-0.040944255863941,-0.0236387655026674,-3.60367004541974e-05,0.000946922312038722,0.0017016131741132,-0.0472475167109093,0.559590546142994,-0.00035905766676727,0
0.27,0.000792701961464128,0.000455737402825959,-0.0395271422219337,-0.0228183321934336,-3.45704873753718e-05,0.000913716510437595,0.001644554095975,-0.045611037021189,0.559588479874814,-0.00026877959199197,0
0.28,0.000788094947709416,0.000452990735884837,-0.0392351044253384,-0.0226808015256145,-3.44509986884461e-05,0.000908354216202007,0.00160600128544059,-0.0452905391553544,0.559586673444569,-0.000239469179777245,0
0.29,0.000812103693033232,0.000467059797070262,-0.0404874069999732,-0.0233852333925646,-3.52710954733751e-05,0.000936169435573303,0.00167370870773395,-0.046725774103463,0.559585138799216,-0.000281577036613425,0
0.3,0.000808452876637873,0.000465146533814887,-0.0403100372633566,-0.0232894373934695,-3.49536092232723e-05,0.000932059867640659,0.00166069204079823,-0.0465246074698451,0.559584119627161,-0.000262516823382172,0
0.31,0.00081249753095146,0.000467394828635408,-0.0405117198300044,-0.0234020130182165,-3.51939209742917e-05,0.000936681136547436,0.00167227935923035,-0.0467552899534827,0.559582676590687,-0.000257641099262096,0
0.32,0.000812501134745514,0.000467456485707588,-0.0405146203695111,-0.0234051047405604,-3.51423098728039e-05,0.000936716967952241,0.00167113544214997,-0.0467593915479682,0.559581319532018,-0.000243936362362237,0
0.33,0.00081239319865005,0.000467457757656789,-0.0405118404163905,-0.0234051523314775,-3.50827570553661e-05,0.000936626213899529,0.00166956056700733,-0.0467570629648169,0.559580060760759,-0.000230956605840328,0
0.34,0.000812289579408876,0.000467457392526967,-0.0405090870094681,-0.023405136340867,-3.50269692309884e-05,0.000936538245919968,0.00166805795971153,-0.0467547229712494,0.559578893669812,-0.00021891424377276,0
0.35,0.000812193468949255,0.000467457011300805,-0.0405065307593255,-0.0234051159615627,-3.49752607434248e-05,0.000936456629830786,0.0016666677084349,-0.046752547589196,0.559577811596993,-0.000207748884507769,0
0.36,0.000812104343410919,0.000467456656647648,-0.0405041583695567,-0.0234050970154818,-3.49273115116005e-05,0.000936380944563509,0.00166537753051895,-0.046750528651675,0.559576808349601,-0.000197396876357525,0
0.37,0.000812021513909676,0.000467456327781384,-0.0405019474598491,-0.0234050974089647,-3.48827511112818e-05,0.000936310606107785,0.00166416010123335,-0.0467486567071287,0.559575878185427,-0.000187798976464506,0
0.38,0.000811944903018225,0.000467456022857084,-0.0404999052993927,-0.0234050784215339,-3.48415349907637e-05,0.000936245548070657,0.00166305184441782,-0.0467469173715306,0.559575015780584,-0.00017890025082506,0
0.39,0.000811873938267458,0.000467455740133692,-0.0404980136413146,-0.0234050579608899,-3.48033560964196e-05,0.00093618528455978,0.0016620276662929,-0.0467453046955648,0.559574216198977,-0.000170649766988129,0
0.4,0.000811808154000533,0.000467455477995717,-0.0404962587922854,-0.0234050389388623,-3.47679643083286e-05,0.000936129420255454,0.00166107761585849,-0.0467438086280473,0.559573474864351,-0.000163000302751131,0
0.41,0.000811746977749095,0.000467455234944312,-0.0404946210459169,-0.0234050392547812,-3.47350530250863e-05,0.000936077469365103,0.00166017586426503,-0.0467424219769363,0.559572787533419,-0.000155908075886559,0
0.42,0.000811690390292389,0.000467455009591261,-0.0404931076967333,-0.0234050202016461,-3.47046095216637e-05,0.000936029415009446,0.00165935890279342,-0.0467411303843887,0.559572150272335,-0.000149332493553625,0
0.43,0.000811637828774742,0.000467454800647962,-0.0404916982360168,-0.0234050204856043,-3.46763326846439e-05,0.000935984779629748,0.00165858287129541,-0.0467399370220719,0.559571559433613,-0.000143235919962023,0
0.44,0.000811589215767378,0.000467454606920012,-0.0404903959019637,-0.0234050014053143,-3.4650179248e-05,0.000935943497097304,0.0016578821290096,-0.0467388240965349,0.559571011635605,-0.000137583460959933,0
0.45,0.000811543988412715,0.000467454427299545,-0.040489179119687,-0.023405000206713,-3.46258484278386e-05,0.00093590508992708,0.00165721351137434,-0.0467377930998036,0.559570503742719,-0.000132342764313866,0
0.46,0.000811502302116786,0.000467454260759725,-0.0404880617599805,-0.023404981102612,-3.46034208580535e-05,0.000935869689384256,0.0016566145742619,-0.0467368367954653,0.559570032848279,-0.000127483834541596,0
0.47,0.000811463419399416,0.000467454106348226,-0.0404870126158826,-0.0234049813353578,-3.45825033449336e-05,0.000935836670059262,0.00165603706389091,-0.0467359485097939,0.559569596257061,-0.000122978861228577,0
0.48,0.000811427330649761,0.000467453963182179,-0.0404860364293804,-0.0234049815571336,-3.45630891898616e-05,0.000935806023428882,0.00165549977739458,-0.0467351219955392,0.559569191469962,-0.000118802059853528,0
0.49,0.00081139414267212,0.000467453830442635,-0.0404851434209789,-0.0234049624232574,-3.4545233607107e-05,0.000935777839657013,0.00165502442591623,-0.0467343556497888,0.559568816170282,-0.000114929524211804,0
0.5,0.00081136317619661,0.000467453707370495,-0.0404843041256915,-0.0234049626256629,-3.45285746542927e-05,0.000935751542747654,0.00165456247751,-0.0467336450435676,0.559568468209978,-0.000111339089581859,0
0.51,2.71418402288012,-0.00104495811068811,6.26343237208597,0.0561057227045627,-0.190667724116187,2.70747886805706,-0.381623427368126,6.25204738397739,0.0699215379886233,21.3800957891484,585.729270858996
0.52,2.70438252576362,0.0551914558759194,2.89006727441353,-2.75506146631203,-0.779443442914213,2.59021212678718,-3.51053587232529,1.90236442957462,0.312704809638762,44.7961929715746,585.729270858996
0.53,2.54392259672065,-0.00101244107429477,6.97945705605502,0.063844972268227,-1.69122666859078,1.90034090588773,-4.59023135469197,5.25801037353511,0.726842170558598,68.2559452259847,585.729270858996
0.54,2.45581475219338,0.0221356910901853,7.11963035955438,-1.09678405540355,-2.37118475510669,0.63953025187266,-7.16648316497591,0.73047297485445,1.31636892854215,92.7995126021571,585.729270858996
0.55,2.38737002381904,0.0245838251126731,6.53799087802445,-1.21543014151167,-2.09429387455733,-1.14633030234682,-5.10792568631416,-4.25813225876299,2.08190661466567,115.455567620407,585.729270858996
0.56,2.2927126615189,0.0355774548522867,7.75928937597497,-1.7580743372573,-0.349290605007243,-2.26622884476315,0.678660372817225,-7.92696771116221,3.00418383269946,136.144964763745,585.729270858996
0.57,2.27456140725204,0.0282093615630498,4.78952503784934,-1.39481036850689,1.82130935486614,-1.36281238522303,4.6918387725497,-1.69460761968053,-2.20078123613099,158.06787276227,585.729270858996
0.58,2.15680244105195,-0.00546656007594892,7.27639110226432,0.301908378221182,1.77561819868583,1.2243392771215,6.17157424641761,3.86635325117952,-0.969667432229451,177.582835487074,585.729270858996
0.59,2.09980161657788,-0.0242919340897862,6.49464639937293,1.23723666950549,-0.853200898960729,1.91880305218058,-1.43367897486354,6.45412666642754,0.406830030125058,197.89614761782,585.729270858996
0.6,2.03196323622304,0.0103197113360384,6.65728102548863,-0.482482833211209,-1.90965106638335,-0.694416225663695,-6.07765110025831,-2.75940889326019,1.92464489263284,216.376476667551,585.729270858996
0.61,1.97061444663751,0.0174644521854601,6.38491075766681,-0.842982248778338,0.821459800160353,-1.79132077002058,3.47591462818726,-5.42178217495673,-2.70276622179166,234.762979478442,585.729270858996
0.62,1.90523501385387,0.00801304784723589,6.38055971799183,-0.376481914022147,1.51559482852644,1.15453756227092,4.82992160130057,4.18630365259568,-0.915597889108965,252.840905481548,585.729270858996
0.63,1.8017906014818,0.0120050258977071,8.47708019341709,-0.580075541917362,-1.50887837872533,0.984824619132854,-7.44334707955078,4.09804349577917,0.999197546625901,269.960757664285,585.729270858996
0.64,1.76350796974091,0.0884459051425005,7.43049563221141,-4.39422141733659,-0.271032349138676,-1.74479927303875,3.59914487679401,-7.84650261968604,3.03759842007157,286.292271180616,585.729270858996
0.65,1.67525192212906,-0.0307459359300986,8.89811392717442,1.58009278720693,1.46920970023106,0.805504296649187,8.61365655913383,2.73460149902129,-1.08764336638868,302.177698489985,585.729270858996
0.66,1.65592874474351,0.0541403728914962,7.0012448396628,-2.66897680765766,-1.51408384584517,0.672741626031372,-7.49103220960474,0.159068976811082,1.18535699940842,317.594407308209,585.729270858996
0.67,1.568440900665,0.0107969980577504,8.597628782763,-0.498813157041296,0.640932946661273,-1.43154755140372,4.02106647549729,-7.61571136870772,-2.7137523204726,332.483664367517,585.729270858996
0.68,1.50937766660738,0.0303217035394487,8.83450128046529,-1.47561131817589,0.362405468295692,1.46553833887348,0.508790513900753,8.94242550149769,-0.222335449414342,346.903467742199,585.729270858996
0.69,1.44592381013826,0.0359174650820043,9.37500017731159,-1.75583240502471,-1.03124001232965,-1.01416456553806,-5.25707180126119,-7.95844028912146,2.37268187290635,360.850875759146,585.729270858996
0.7,1.40326975787884,0.0482314296240898,8.94465033595309,-2.39541950325176,1.33244774570273,0.44280389469,7.55323057911107,5.35663252872606,-1.21559754307806,374.306822911406,585.729270858996
0.71,1.33631681681043,0.0121672477523516,9.78933392382584,-0.590430772735673,-1.33635869505733,0.00600957177242131,-9.78650938219232,-0.635532282281854,1.57540419262626,387.237597757082,585.729270858996
0.72,1.35547111403653,0.0108581547978081,6.41691343726567,-0.516512683853573,1.30950920711667,-0.350150648992298,6.34162803354123,-1.1078435350474,-1.82406416612652,399.616011945091,585.729270858996
0.73,1.28143058940613,0.0236061101421051,7.79764558144142,-1.14403162472754,-1.15950903621413,0.546040656764275,-7.58279900010137,2.14784643217602,1.14909847467176,411.522403737017,585.729270858996
0.74,1.21076565098018,0.0571620581380119,9.07986725763258,-2.81886387493816,1.03266853523687,-0.634678390065205,9.31235016381033,-1.91575504390338,-2.07470576175664,423.046248179545,585.729270858996
0.75,1.15056998422,0.0170575007330133,9.85299406557178,-0.838267204158159,-0.99982343853913,0.569609812649904,-9.0365940203659,4.01548907019395,1.0677705823022,434.29266891434,585.729270858996
0.76,1.15430166496727,0.0229834798260665,7.52372808687887,-1.11818109020277,1.04356465997121,-0.493875869576851,7.3214312881646,-2.06239112887481,-1.99291429082123,444.919600205943,585.729270858996
0.77,1.06619101780586,0.0144148987242186,9.87945855961009,-0.679728238254168,-1.02538808334115,0.292489921701723,-9.71387316605241,1.9252012940937,1.30644696834959,455.170049719809,585.729270858996
0.78,1.04449586698506,-0.0276584439786602,8.91109557610473,1.40280102183028,1.04484345741522,-0.00622536495358048,8.86092163805027,-1.6910182724187,-1.6032284343527,465.195813497969,585.729270858996
0.79,1.05056025975604,0.00790496586403272,6.66528511653515,-0.354291710097599,-1.01436258122996,-0.273510331915437,-6.32740044561019,-2.1249828002694,1.84169477305954,474.651238371196,585.729270858996
0.8,1.0095595354071,0.0462692483754944,6.78727973206132,-2.30377981492541,0.83568003370135,0.568322250267877,4.05037366306318,5.9134626731275,-0.927771640523911,483.998010088985,585.729270858996
0.81,0.916477886654339,0.000702179317490947,9.59559978167231,0.00148907306445835,-0.431315089934527,-0.808640527661685,-4.51072983687488,-8.46928885598401,2.65236285161383,492.743338703101,585.729270858996
0.82,0.919004355465065,0.0268983266488753,7.67052977526197,-1.33633820704299,0.0152417800151171,0.919271566775694,-1.43350481983976,7.6529661418485,0.012681872471432,501.304658900631,585.729270858996
0.83,0.866115160549913,0.0796660245728991,8.58668916563277,-3.95068935113774,0.404500283253633,-0.7699880957868,7.98730697424751,-5.0539197139968,-2.56616173361854,509.356326283682,585.729270858996
0.84,0.827380923715792,-0.0319122901957414,8.81998647583355,1.60994047114042,-0.781863475768079,0.272519893685202,-7.62241838810134,4.72046689123408,1.19686113565091,517.260976139077,585.729270858996
0.85,0.761894533741457,0.0225082939016417,10.4647596872532,-1.08900616983521,0.733735021380462,0.206452954058032,9.6597058723994,4.16979762202333,-1.26698129443525,524.789409781598,585.729270858996
0.86,0.710125820897964,0.0144063950268795,11.4527832854168,-0.700501555895049,-0.374395827096696,-0.603584286058094,-5.23565343763885,-10.2100382219399,2.60667355444163,531.99708372956,585.729270858996
0.87,0.685730529517742,0.0353771504608345,11.1521148309572,-1.76986792285696,-0.134349425211916,0.673370725405136,-4.45812518118268,10.3743538370406,0.24847659171755,538.932909450831,585.729270858996
0.88,0.666609981960199,0.0647741151657615,10.6138116348301,-3.20821250747086,0.557997097618816,-0.370410303708551,10.8765866757258,-2.15533923041612,-2.05996107052119,545.505512352486,585.729270858996
0.89,0.650389179796901,0.0288301883724038,9.95409410400655,-1.427460432361,-0.612132083966301,-0.221656438520398,-8.65515075675476,-5.11957010843897,1.96251324918017,551.936371319427,585.729270858996
0.9,0.609806118271049,-0.020378254780861,10.5964537748621,1.01927560642393,0.132628050136036,0.595557365386267,3.63447180747998,10.0057168681346,-0.252525239549602,558.025260279603,585.729270858996
0.91,0.573639187600515,0.0265419830393263,11.0441970719356,-1.29502801810774,0.0640749763969839,-0.570666971021072,3.01715394500716,-10.7027178138809,-2.98354360415813,563.82145298308,585.729270858996
0.92,0.570451230491585,-0.015895845985357,9.88123173008864,0.81846160896578,-0.531517347883918,0.207741650102718,-8.78042737706817,4.60572632546628,1.17034761076424,569.413504872533,585.729270858996
0.93,0.516464243203543,0.0412997112650483,11.2949400024439,-2.0655116905231,0.435626396999198,0.280482838861635,7.72604991348878,8.49412508365488,-0.91895241997463,574.784465266168,585.729270858996
0.94,0.474913505788393,-0.0168614676866433,12.1502079566636,0.8375902438075,0.0976419392828854,-0.465073326224851,1.24770703700698,-12.1149633906379,-2.97013815601531,579.885422333526,585.729270858996
0.95,0.483848345573321,-0.00903003223203866,10.5043000806048,0.483695427920981,-0.46844944989619,0.121432598127968,-9.98717796390008,3.29098127733574,1.29849598105403,584.748490075445,585.729270858996
0.96,0.51900747224889,0.0725983520877313,7.59287817246391,-3.60993522448513,0.383206738778679,0.357479890805967,1.97668293013977,8.17166787507614,-0.681140521938507,589.351375338961,585.729270858996
0.97,0.431484864641239,-0.0582339879439102,10.8374363112913,2.92349444063228,0.262860581533098,-0.347094656314962,2.78282152046976,-10.8744080266888,-2.62757651866654,593.841690818093,585.729270858996
