t,iq,id,vq,vd,ia,ib,va,vb,theta_e,omega,r
0,0,0,0,0,0,0,0,0,0,0,0
0.01,0.00082381048202263,0.000465178252770145,-0.0407011792818724,-0.0232903615490733,-0.000861378546582842,0.000391256331102098,0.0425842158390553,-0.0196369930843401,1.65847143227301,-0.00114792691762533,0
0.02,0.000910484568889446,0.000514699816536439,-0.0450722524235532,-0.0257697902384039,-0.0009520523374526,0.000433006233303269,0.047155423404474,-0.0217245499610147,1.65846305192058,-0.00118160701271822,0
0.03,0.000942578424181628,0.000533313547193965,-0.04668172057763,-0.0267017333047849,-0.000985648959201023,0.000448746648543775,0.0488401209387532,-0.02251240067731,1.65845480667553,-0.00113569281660092,0
0.04,0.000921887290281842,0.000522619354418057,-0.0456940094079569,-0.0261663027322964,-0.000964097803209503,0.000439912026935108,0.0478091651681476,-0.0220658473750141,1.65844746416307,-0.0010215684339111,0
0.05,0.000940342686610356,0.000533541963640746,-0.0466284761230592,-0.0267131664403584,-0.000983435354991151,0.000449184035536254,0.0487877584498004,-0.0225291516101455,1.65844045184444,-0.00096938064005846,0
0.06,0.000939758594537105,0.000533862434293146,-0.0466253837205031,-0.0267292163191188,-0.000982878635910854,0.000449560787687025,0.0487859363371503,-0.0225457274849565,1.65843395580071,-0.000894754664448936,0
0.07,0.000964755593961141,0.000548654839379027,-0.0478768283405996,-0.0274698285018819,-0.00100907169292601,0.000462114495973419,0.0500972641321005,-0.0231742593486093,1.65842806232432,-0.000864994228472743,0
0.08,0.000938467395635545,0.000534304835134026,-0.046607050470001,-0.0267513657976226,-0.000981625958052073,0.000450125746871817,0.0487693535808696,-0.0225699551806279,1.6584225020415,-0.000762786139217716,0
0.09,0.000936708925422561,0.000533878245303652,-0.0465404827252049,-0.0267300060554058,-0.000979834637808467,0.000449859616242162,0.0487010584402589,-0.0225547481213073,1.65841746896176,-0.000703025198825667,0
0.1,0.000935814594530604,0.000533863729976492,-0.0465147427664509,-0.0267292866241388,-0.000978940389244647,0.000449927940704321,0.048675250075173,-0.0225565087764892,1.65841284964309,-0.000649247034626057,0
0.11,0.000935016714071479,0.000533861559546441,-0.0464922521351369,-0.0267291812663176,-0.000978143470700762,0.000449999745644207,0.048652740810738,-0.022558578221332,1.65840860799822,-0.000599900220058629,0
0.12,0.000934284899314579,0.000533859896023128,-0.0464716400254553,-0.0267290934111039,-0.000977412564300054,0.000450065929411981,0.0486321122006538,-0.0225604836858175,1.65840471308182,-0.000554588315244655,0
0.13,0.000978946367348118,0.000559435353610625,-0.0486811827773585,-0.0280095865506591,-0.00102413870257503,0.000471639505238327,0.0509451289916227,-0.0236429339839279,1.65840088535694,-0.000577512310072584,0
0.14,0.00102950942553874,0.000589199137344064,-0.051264361788764,-0.0294997978437982,-0.0010771102357167,0.000496869017784771,0.0536486974513694,-0.0249016088678157,1.65839739593622,-0.000613050087407315,0
0.15,0.000935408300084513,0.000535492643970154,-0.0465684943831136,-0.0268108437563283,-0.000978669741072949,0.00045160447021852,0.0487355086418641,-0.022633961417638,1.65839413937845,-0.000436201287163451,0
0.16,0.000931886858177643,0.00053390268607944,-0.0464061809615357,-0.0267312302458242,-0.00097502147700392,0.000450331338048036,0.0485667911007823,-0.0225689854460284,1.65839141822024,-0.000400070041761332,0
0.17,0.000931321936923463,0.00053385462510986,-0.0463882269243003,-0.0267288326788368,-0.000974453395776776,0.000450335308859043,0.0485486399565397,-0.0225682886352489,1.65838892816606,-0.000370957699714635,0
0.18,0.000930889265293509,0.000533852262842032,-0.0463759671250178,-0.0267287194103517,-0.000974021146608227,0.000450373032874131,0.0485363656512168,-0.0225693592613842,1.6583866419364,-0.000344355996820001,0
0.19,0.000930494661527501,0.000533851329212008,-0.046364840464444,-0.0267286730367495,-0.000973627028357473,0.000450408666084926,0.0485252302061578,-0.0225703882784101,1.65838454259962,-0.000319933019969251,0
0.2,0.000930132479430209,0.000533850508300923,-0.0463546299632316,-0.0267286295401769,-0.000973265294509964,0.000450441406851741,0.0485150115295893,-0.0225713316489738,1.65838261487002,-0.000297506593832341,0
0.21,0.000929799866821217,0.00053384975544302,-0.0463452506795653,-0.0267285831016862,-0.000972933093624234,0.000450471474189102,0.0485056241805739,-0.0225721916974939,1.65838084471953,-0.000276913382409716,0
0.22,0.000929494553606891,0.000533849064046816,-0.0463366420543905,-0.0267285395431548,-0.000972628157955822,0.000450499072940221,0.0484970080514624,-0.0225729801542262,1.65837921926693,-0.000258003528437441,0
0.23,0.00092921401476853,0.000533848429074475,-0.0463287264039323,-0.0267285181096953,-0.000972347966417813,0.00045052443071456,0.0484890871732425,-0.0225737235664923,1.65837772668429,-0.000240639428569508,0
0.24,0.000928956409748345,0.000533847845927552,-0.0463214562990498,-0.026728496636073,-0.000972090680230493,0.000450547714701827,0.0484818121150842,-0.0225744045353808,1.65837635611027,-0.000224694727745193,0
0.25,0.000928720130818158,0.000533847310382308,-0.0463147923256353,-0.026728452982805,-0.000971854692980842,0.000450569071198229,0.0484751414527983,-0.0225750049424566,1.65837509757152,-0.000210053399587301,0
0.26,0.000938054939718208,0.000539196206628825,-0.046777909810979,-0.0269962591323373,-0.00098162106191366,0.000455082091473773,0.0489598823766303,-0.0228013326604152,1.65837396632594,-0.000211084377136359,0
0.27,0.000905270461623827,0.000520643914085807,-0.0451715713425187,-0.0260673951998755,-0.000947339029881402,0.000439469517061844,0.0472784308574002,-0.022016582971042,1.65837280659872,-0.00014918520476875,0
0.28,0.000900470182802834,0.000517753570813355,-0.0448603900428063,-0.0259226806931921,-0.000942303913940956,0.000437011034161044,0.0469557631323575,-0.0218996867048787,1.65837182055181,-0.000130854135030769,0
0.29,0.000927062419558927,0.000533369497508948,-0.0462493779677041,-0.0267045504313741,-0.000970159702888493,0.000450242047706243,0.0484077949681801,-0.022557113345018,1.65837101233624,-0.000161204827088647,0
0.3,0.000922677777952764,0.000531081917780227,-0.0460357383394709,-0.0265900047186006,-0.000965591581088144,0.000448347168891107,0.0481849452961437,-0.0224617141421369,1.65837055516629,-0.000149496200955062,0
0.31,0.000927554919787536,0.000533763295481039,-0.0462783970252866,-0.02672424807479,-0.00097068420573378,0.000450592451738621,0.0484383979403127,-0.0225742568287171,1.65836978575718,-0.000148009538896365,0
0.32,0.000927580884368447,0.000533842323766618,-0.0462824975323042,-0.0267282205372382,-0.000970716657832199,0.000450669606138885,0.0484428138934686,-0.0225778903575544,1.65836906478242,-0.000139862348502106,0
0.33,0.000927461697280218,0.000533844388709757,-0.0462792355187213,-0.0267283152117064,-0.000970597809496008,0.000450682730399499,0.0484395577021289,-0.0225783020591836,1.65836840227685,-0.000132162765220532,0
0.34,0.000927347690560392,0.000533844199079801,-0.0462760145025031,-0.0267282963801983,-0.000970483948877315,0.00045069310295404,0.0484363336457679,-0.0225785944775012,1.65836779391178,-0.000125085540186475,0
0.35,0.000927242567524918,0.000533843963232443,-0.0462730335491782,-0.0267282967276877,-0.000970378956260535,0.000450702604115661,0.0484333515322792,-0.0225788825931967,1.65836723527605,-0.000118586604583846,0
0.36,0.000927146372346174,0.000533843744827888,-0.0462703114308138,-0.0267282749482469,-0.000970282879387252,0.000450711297411677,0.0484306263575142,-0.0225791238145423,1.65836672230507,-0.000112618906223448,0
0.37,0.000927057722078719,0.000533843544212732,-0.0462677943320508,-0.0267282752559665,-0.000970194338961469,0.00045071930778536,0.0484281082950214,-0.0225793670743301,1.65836625126613,-0.000107139027067102,0
0.38,0.000926976289561208,0.000533843359986958,-0.0462654799664339,-0.0267282755451637,-0.000970113007409912,0.000450726665801931,0.0484257930564226,-0.0225795907181513,1.65836581873143,-0.000102107091384147,0
0.39,0.000926901805839753,0.000533843190814064,-0.0462633678235201,-0.0267282537180688,-0.000970038615275439,0.000450733396723657,0.0484236781296056,-0.022579772930482,1.65836542155371,-9.74864827971236e-05,0
0.4,0.000926833179007629,0.000533843035464162,-0.0462614151617688,-0.0267282539759983,-0.000969970073426139,0.00045073959764,0.0484217247373083,-0.022579961621742,1.65836505684241,-9.32435780676514e-05,0
0.41,0.000926770198318605,0.000533842892808265,-0.0462596223625478,-0.0267282542192906,-0.000969907170629661,0.000450745288444115,0.0484199312667714,-0.0225801348724424,1.65836472194405,-8.9347502430632e-05,0
0.42,0.000926712594818588,0.00053384276180967,-0.0462579859734201,-0.026728232354687,-0.000969849637774148,0.000450750494000096,0.0484182922915877,-0.0225802710942462,1.6583644144213,-8.57699049268803e-05,0
0.43,0.000926659509431907,0.000533842641515828,-0.0462564722429398,-0.026728232573615,-0.000969796617984528,0.00045075529066995,0.0484167780039555,-0.0225804173696327,1.65836413203662,-8.24847520985427e-05,0
0.44,0.000926610731412128,0.000533842531052817,-0.0462550790666276,-0.0267282327812667,-0.000969747900319804,0.000450759698014727,0.0484153843287409,-0.022580551972214,1.65836387273499,-7.94681385488522e-05,0
0.45,0.000926566108220272,0.000533842429616553,-0.0462538065776061,-0.0267282108876486,-0.000969703331905182,0.000450763730410237,0.0484141094240765,-0.0225806529765364,1.65836363462952,-7.66981129870477e-05,0
0.46,0.000926525013611724,0.000533842336470241,-0.0462526305565429,-0.0267282110761974,-0.000969662288050645,0.000450767443576617,0.0484129329884077,-0.0225807665988946,1.65836341598768,-7.41545184932633e-05,0
0.47,0.000926487178629112,0.000533842250936254,-0.046251544118163,-0.0267282083457452,-0.000969624500053242,0.000450770861908042,0.048411845940431,-0.0225808686132292,1.65836321521832,-7.18188458426187e-05,0
0.48,0.000926452486863256,0.000533842172392763,-0.0462505474289025,-0.0267282085173866,-0.000969589851237277,0.000450773996386007,0.0484108489220523,-0.0225809648746081,1.65836303086059,-6.96740988143852e-05,0
0.49,0.000926420705480442,0.000533842100268502,-0.0462496343603806,-0.0267282086813554,-0.000969558109006655,0.000450776868108163,0.0484099355436089,-0.0225810530854213,1.65836286157276,-6.77046705154844e-05,0
0.5,0.000926391368819382,0.000533842034038859,-0.0462487866985232,-0.0267282088388784,-0.000969528808883486,0.000450779518473016,0.0484090876331188,-0.0225811348994956,1.65836270612329,-6.58962298118499e-05,0
0.51,3.51384300119396,0.0509880854049203,5.94494605759829,-2.54891763093427,-0.140289464650847,3.5114115805472,-2.8686292017674,5.79744178235611,0.0544408186454907,16.6565723717041,455.438059523963
0.52,3.40175863533829,0.00118816076305672,6.30346176867786,-0.0505908862708316,-0.818439539177972,3.30183584472862,-1.56780657757763,6.10558533166652,0.243326081731896,34.787778545169,455.438059523963
0.53,3.26777996343816,-0.0717158163095726,7.75682415808805,3.60523172991025,-1.80777392564235,2.723138351521,-1.10065635729848,8.48260410658121,0.564111971645287,52.7425971335104,455.438059523963
0.54,3.16702863616034,-0.021566216163869,7.29928529592585,1.09914863439415,-2.70617601135882,1.64534096146826,-5.63361245377319,4.76970693780042,1.01770952004594,71.1916983807375,455.438059523963
0.55,3.08665957771534,0.0246427988713129,5.62956942666216,-1.22030334653716,-3.08540153698367,-0.0914984798609414,-5.579674822803,-1.4312306099848,1.60842640574544,89.5868384877534,455.438059523963
0.56,2.90941777564108,0.0418510476029605,9.66094612191987,-2.07456641148849,-2.14886149030088,-1.96185055468138,-5.61964628256365,-8.12756306805326,2.32511596348696,105.691589843469,455.438059523963
0.57,2.86113146097362,0.0206120795316972,7.40280877190234,-1.00174711191131,0.0237133341289793,-2.86110743814002,1.11630679660751,-7.38640197426492,-3.12610063100209,121.473597501704,455.438059523963
0.58,2.750221768363,0.042853194989359,7.88316420059909,-2.12652683817536,2.23981412365022,-1.59649267552204,7.69703522387169,-2.72434266742743,-2.17446701031021,137.778873072731,455.438059523963
0.59,2.67973927626642,0.0869772261577741,7.08396099361199,-4.32016943301676,2.4405901572743,1.1099942841523,4.43465645799524,7.01285885987659,-1.11150722641287,152.197385998272,455.438059523963
0.6,2.47919098427757,0.0311928176707411,12.4187150843279,-1.54239623812434,-0.117866766676649,2.47658400901537,-2.28599190124112,12.3035649926578,0.0601377820230344,167.298127956617,455.438059523963
0.61,2.45621336309568,-0.028860627546165,9.46181331322153,1.48476996156762,-2.39555926832289,0.543242867255943,-8.85694683474751,3.64485195577072,1.33604755340067,180.83882110353,455.438059523963
0.62,2.40610252574495,-0.00703391331808434,7.61300687253165,0.380009333852712,-0.991524579314415,-2.19231791694274,-3.50325990638604,-6.76974525099264,2.71392736607773,194.69057043638,455.438059523963
0.63,2.2577625238757,-0.0340914365120416,11.0212381518075,1.72517107689324,1.97148258379655,-1.10086795849817,8.67671761197175,-7.01131065675352,-2.09516123834912,207.794071608445,455.438059523963
0.64,2.20429661353798,0.0898328602313792,9.83920886040988,-4.45478165623103,1.18469241262296,1.8610473907738,1.08903826576362,10.745655227075,-0.526147192692529,220.066580396757,455.438059523963
0.65,2.10940193165787,-0.0131010477064424,10.6802009206859,0.687570721762696,-1.91639523463363,0.881576684926775,-9.38366233846269,5.14648679405301,1.133431857415,232.397173192293,455.438059523963
0.66,2.04330692073286,0.0159444729639548,10.2599185795809,-0.778040239834218,-0.544132083508535,-1.96958819914965,-1.90333844353631,-10.1118039262926,2.87985208099406,244.243908556204,455.438059523963
0.67,1.94991704321156,-0.0156019132485981,11.4109941472282,0.798231955013273,1.94994071356368,0.0122926274940838,11.4096230103185,-0.817596749315704,-1.57249345790408,255.473208199396,455.438059523963
0.68,1.82389191278761,-0.00617001668469019,14.2761248247798,0.35567497018826,-0.61394904533882,1.71746509378371,-4.42470227685862,13.5777853296579,0.339934683760473,266.209281095041,455.438059523963
0.69,1.78853823577785,0.0373560279296684,12.6633372851417,-1.82420782174757,-1.32199497728007,-1.20523598258112,-7.92096230415879,-10.0471986916892,2.33091026292575,276.685247092336,455.438059523963
0.7,1.76441265124964,-0.000508194045455435,10.5789209959485,0.0687680023556856,1.67777894785855,-0.546086132650899,10.0372433026355,-3.34246097364915,-1.88575175582627,286.846930492673,455.438059523963
0.71,1.70274831800332,0.0405487895577408,10.48705040196,-1.99051399121002,-0.387887510240739,1.65847499776059,-4.55757711787472,9.65240192372225,0.253561472520495,296.627445348287,455.438059523963
0.72,1.62992790229021,0.0165302763409,11.0560314108189,-0.79035598408367,-1.03592152979629,-1.25849306744399,-6.32423581028799,-9.10299591093295,2.46303909862298,306.030612278336,455.438059523963
0.73,1.52448113750486,0.0227207352272735,13.3643739146269,-1.10172138167754,1.52452841656298,0.0192893107533367,13.3289468357351,1.4695088917566,-1.54324155063791,315.059176790915,455.438059523963
0.74,1.51631441817194,0.0320712374028786,10.9164145443793,-1.56737489408065,-1.06380674267994,1.08099638910283,-8.91342925224392,6.49427051550616,0.798531408232133,323.732283334877,455.438059523963
0.75,1.45426822532294,-0.00221443785164696,11.2486000577084,0.152484261421167,0.0911405728712348,-1.45141116534759,0.53566675192504,-11.2368730454313,-3.08040325494982,332.073596432826,455.438059523963
0.76,1.35777748260247,0.0529996034324309,13.4027915024182,-2.60891522306434,0.827945920485108,1.07743872353761,5.61669814159812,12.4456402279914,-0.616183716500961,340.079686611458,455.438059523963
0.77,1.34322385669916,-0.00335703385510766,11.5442458037355,0.216910871579157,-1.26749791399326,-0.444646642745463,-10.9741989382438,-3.58937587431624,1.90569031521395,347.816463405386,455.438059523963
0.78,1.29372267739307,-0.000602740442418592,11.4789361421422,0.0708101043157224,1.26007848069876,-0.293122758886177,11.1631281495,-2.67498765307288,-1.7998200344113,355.349527934971,455.438059523963
0.79,1.20295004204084,0.0417864692019122,13.5406472046677,-2.0880164870923,-0.860867070463803,0.841274509090517,-11.413595506485,7.57883745610035,0.831630891523045,362.593772389956,455.438059523963
0.8,1.12583156328074,-0.0436767866785222,15.0146836104545,2.19562144714651,0.451003760755707,-1.03247274945052,3.42779789559952,-14.7821405435121,-2.76852959907989,369.464480115922,455.438059523963
0.81,1.10325095029037,0.000118007009756838,13.8702352552197,0.0181512339887311,0.0399863764101116,1.1025260826592,0.519371425034566,13.8605197891454,-0.0361451118080137,376.023708021149,455.438059523963
0.82,1.04816125221575,0.0311658362342064,14.4256046104503,-1.51998135218015,-0.434853444538699,-0.954209516703483,-4.18811659434971,-13.8876956720744,2.74371628672725,382.347085101062,455.438059523963
0.83,1.0582826090811,0.0283820454511402,11.7833702672908,-1.37528094725405,0.714362534030672,0.781315423603533,6.67565615403413,9.80687653909537,-0.713851246908527,388.483292607343,455.438059523963
0.84,0.991482562029017,0.0518540728300747,13.009202413907,-2.59581073858315,-0.85527028482819,-0.504221435052693,-9.41299696383748,-9.34735625700303,2.15574575013427,394.428622603534,455.438059523963
0.85,0.983681879806396,0.0342544503513103,11.3863812537529,-1.69431468561334,0.934180366157867,0.310016856821476,10.0861838727785,5.54880844814477,-1.21556396302174,400.026468790939,455.438059523963
0.86,0.890007253466354,0.0615922179652388,14.1402641166422,-3.04216056493814,-0.887950822840475,-0.0863125063563998,-13.4432373807994,-5.33677607875217,1.73679006679539,405.400169331199,455.438059523963
0.87,0.87241186732301,-0.00307711781555409,13.137656957486,0.149496272809513,0.872257874448309,0.0166773907728347,13.1383909821966,0.055334140455667,-1.55520598650472,410.648789743928,455.438059523963
0.88,0.880158653030005,0.0218067824621384,10.9085259279033,-1.08015923828666,-0.873860648073028,0.107342247108638,-10.9618655269532,-0.0136407034475241,1.4733427147272,415.635360046124,455.438059523963
0.89,0.781473477438001,-0.0569725464552349,14.0870033997858,2.89164175915083,0.779479393470116,-0.0797404674183448,13.3698698600145,-5.2963984720863,-1.74551659014203,420.380199303129,455.438059523963
0.9,0.747260373388492,0.00370613719741519,14.0717095259531,-0.194266340418083,-0.728857582408897,0.164858805208254,-13.7821421721089,2.84663055938023,1.35331105327137,425.048313688039,455.438059523963
0.91,0.736876737108453,-0.0166114520549921,12.9238049464565,0.846575632353474,0.721696776007381,-0.14972317633395,12.4013666477966,-3.73463918769498,-1.7978937527233,429.430365339261,455.438059523963
0.92,0.705428660812824,-0.00391521009095752,12.9207657120325,0.23759934126483,-0.691410683066315,0.139986398296414,-12.6009489186368,2.86683211613617,1.36548173544215,433.595365471031,455.438059523963
0.93,0.652049364976813,0.0405303819174767,14.0167808473694,-2.03615465946597,0.638213364921678,-0.139623733872114,14.1633209661872,-0.128102807188103,-1.72409721072376,437.694620191274,455.438059523963
0.94,0.632790197550234,0.0209485924570604,13.5092394817068,-1.01793617400067,-0.629610164555394,0.0667331876214988,-13.5474869444648,-0.0366458456051706,1.49829232891534,441.470568006003,455.438059523963
0.95,0.547572867897903,0.0137503906972931,16.3267566725608,-0.703829698993543,0.547714295408498,0.00584546896620864,16.2911314665048,1.28739862950435,-1.53501800325405,445.179994002025,455.438059523963
0.96,0.556135198914464,0.0685683202679872,14.486740561041,-3.41790987752418,0.0222765558294781,0.559903321187131,-4.60588582250025,14.1539243958656,0.0829097616089719,448.709034904815,455.438059523963
0.97,0.556214448036107,0.0234429433967783,13.1522975390304,-1.15139611318192,0.110964562554543,-0.545537303634036,4.27958129962268,-12.4897488951762,-2.89880362532882,452.069667005588,455.438059523963
