t,iq,id,vq,vd,ia,ib,va,vb,theta_e,omega,r
0,0,0,0,0,0,0,0,0,0,0,0
0.01,0.000480340301149079,0.000247122815223461,-0.0230327839195624,-0.0123605321662002,0.0004732862676937,0.00026037780152026,-0.0231181789711405,-0.0122000693266571,-0.592678987788402,-0.0023867575342066,0
0.02,0.000646641715167528,0.000321452086672494,-0.0312835818148278,-0.016078307746731,0.000627838637849612,0.000356785084671496,-0.0308109675700211,-0.0169664005776924,-0.592697683302764,-0.00258541182788366,0
0.03,0.000705489944104248,0.000353066016035184,-0.0343624308605187,-0.0176595681865414,0.000686939819161404,0.000387924422744521,-0.0338426952788886,-0.0186362276075209,-0.592715132808448,-0.00219625052943311,0
0.04,0.000687295588138324,0.000352500297023011,-0.0337310546258943,-0.0176312713945459,0.000676311850849315,0.000373140677595581,-0.0334667667244812,-0.018127914997935,-0.592728253724145,-0.00153131856821281,0
0.05,0.00068433917351113,0.000361707719910931,-0.0337533906100021,-0.0180918082139188,0.000682300556291132,0.000365538684587381,-0.0338613897420496,-0.0178888564994417,-0.592737602972912,-0.00111719409410661,0
0.06,0.000672378042977966,0.000364270482540408,-0.0333017975056899,-0.0182199823534199,0.000677746565906682,0.000354181887637978,-0.0337155377575784,-0.0174424765382159,-0.592744119525956,-0.000769514335847889,0
0.07,0.000667189011696693,0.00036913975194399,-0.0331276235405789,-0.0184635327564293,0.000678887812569713,0.000347155111928933,-0.0338203107968964,-0.0171618198596592,-0.592748203499975,-0.000565376666866023,0
0.08,0.000653891249208742,0.000366338768457485,-0.0325518450073541,-0.0183234332153962,0.000669136965825817,0.000337688584397127,-0.0333825067267825,-0.0167624300988314,-0.592751189564848,-0.000359454184695934,0
0.09,0.00064566158631099,0.00036555849151494,-0.0321946065100221,-0.018284417803997,0.000663892933831964,0.0003312975507973,-0.0331506071919455,-0.0164878702557852,-0.592752985582866,-0.000234219727172216,0
0.1,0.000640629292201637,0.000365341025936717,-0.0319757552849415,-0.0182735426092741,0.00066090164497198,0.000327244512456045,-0.0330193443093681,-0.0163123936598777,-0.592754060486037,-0.000158629753362233,0
0.11,0.000637579266177641,0.0003652803568303,-0.0318429246611795,-0.0182705014975142,0.000659147644790214,0.000324748274996502,-0.0329426269007478,-0.0162039010372919,-0.592754701335667,-0.000113266806884125,0
0.12,0.000635743104824007,0.000365263395124548,-0.0317628714515629,-0.0182696585369448,0.000658107932105957,0.000323234578670664,-0.0328972123347505,-0.0161379628983157,-0.59275508225628,-8.61645776062068e-05,0
0.13,0.000657940056133745,0.000377551827250423,-0.0328203903505275,-0.0188842921895053,0.000680700499289477,0.000334779524452236,-0.0339977832102932,-0.01667169010765,-0.592755669008435,-0.000193623324092705,0
0.14,0.000670077816971789,0.000384580707763097,-0.0334875675174031,-0.0192358563296529,0.000693311269520336,0.000340919470164645,-0.0346621017746425,-0.01702862435818,-0.592756377614491,-0.000235939060441298,0
0.15,0.000645386883030769,0.00037063738626259,-0.0322513288326244,-0.0185384536229243,0.000667953259040241,0.000328229713190711,-0.0333930597477736,-0.0163928653651827,-0.592757013445087,-6.17618084773334e-05,0
0.16,0.000635832631647344,0.000366754763901414,-0.0317983795764911,-0.0183442505412715,0.000659395477674677,0.000322474489431573,-0.0329789450127647,-0.0161256831624768,-0.592756891031353,-9.98894670384685e-06,0
0.17,0.00063256550685147,0.000365673674962661,-0.0316388995434531,-0.0182901735313026,0.000656673541851458,0.000320368875596891,-0.0328449949479641,-0.0160236300192588,-0.592756584156317,-3.5233407778364e-06,0
0.18,0.000631757339099616,0.000365372694254164,-0.0315957110439305,-0.0182751149689677,0.000655972331534626,0.000319866912127217,-0.0328083734215852,-0.0159962313352352,-0.592756292561409,-1.10713694650612e-05,0
0.19,0.000631808966140403,0.000365288927215574,-0.0315942617386438,-0.0182709367983609,0.000655931624538345,0.00031995667514868,-0.0328040947927246,-0.0159973707567702,-0.592756068521648,-2.08810975432437e-05,0
0.2,0.000632088769401948,0.000365265631502776,-0.0316047467299445,-0.0182697694194918,0.000656068564656023,0.000320201862004856,-0.0328089814874655,-0.0160067243451145,-0.592755911921157,-2.91907076901751e-05,0
0.21,0.000632371309119673,0.000365259164159657,-0.0316162742546236,-0.0182694444590241,0.000656221007845866,0.000320439882758211,-0.0328151501398708,-0.0160164702691536,-0.59275580808672,-3.52788642009691e-05,0
0.22,0.000632593254856005,0.000365257375661028,-0.0316255870007233,-0.0182693538729484,0.000656343492825429,0.000320625008366178,-0.0328202764946908,-0.0160242470926836,-0.592755741479994,-3.9427059890612e-05,0
0.23,0.000632750240896916,0.000365256885338334,-0.0316322644901753,-0.018269328894437,0.000656430772804533,0.000320755514617302,-0.0328239854788236,-0.0160298007571988,-0.592755699694174,-4.21347875463044e-05,0
0.24,0.000632854956472799,0.000365256753525772,-0.0316367519064937,-0.0182693214831262,0.000656489154422376,0.000320842456751236,-0.0328264858075127,-0.0160335276273194,-0.592755673887813,-4.38537790313503e-05,0
0.25,0.000632922477358198,0.000365256719688887,-0.0316396584245315,-0.0182693199686297,0.000656526841757151,0.000320898488116578,-0.0328281080212626,-0.0160359396694274,-0.592755658131331,-4.4924406577899e-05,0
0.26,0.000636433589830553,0.000367302937954239,-0.0318033037427228,-0.0183716651372087,0.000660185424876535,0.000322667580142489,-0.0330044119143467,-0.016114496673919,-0.592755541331228,-7.08118200770511e-05,0
0.27,0.000629979345443182,0.000362973419706349,-0.0315033975378082,-0.0181551173666001,0.000652988934439995,0.000319732905089954,-0.0326572683410442,-0.0159867184725708,-0.59275580984546,-2.09427331543974e-05,0
0.28,0.000628997485167433,0.000362647996853787,-0.0313768380947397,-0.0181388398840158,0.000652170510312789,0.000319100346987239,-0.0325730653472314,-0.0158908431194341,-0.592755803805082,-1.53448539490766e-05,0
0.29,0.000631394088779983,0.000364530284929226,-0.031567554825028,-0.018232985723389,0.000655070502067878,0.000320036656177736,-0.0327576916956823,-0.0159964346274751,-0.592755660544559,-3.57097134666474e-05,0
0.3,0.000620092281988848,0.000359437973523119,-0.0310210527506432,-0.017978283041265,0.000644532937571441,0.000313508193478373,-0.0322411255223842,-0.0156854773570934,-0.592754896793174,-7.16005938465695e-07,0
0.31,0.000629273722505754,0.000363636592647337,-0.0314528800927932,-0.0181882884064542,0.00065314446070787,0.000318777826699161,-0.0326565432055684,-0.0159263205779246,-0.592754816052874,-5.88821777667809e-05,0
0.32,0.000632644866954905,0.000364805704785351,-0.0316146289955612,-0.018246766785523,0.00065599746088933,0.000320920646320984,-0.0327954086449975,-0.0160278019846725,-0.592754971234656,-7.24007838359656e-05,0
0.33,0.000633667064989127,0.000365131216537184,-0.0316660950093156,-0.0182630501888876,0.000656838551091978,0.000321586492784212,-0.0328376685755375,-0.016061385303391,-0.592755158390277,-7.05582217822091e-05,0
0.34,0.000633813751616206,0.000365221827506783,-0.0316757006811919,-0.0182675699808311,0.000656995700478589,0.000321657433580902,-0.0328467860013317,-0.0160668222132362,-0.592755313815307,-6.48403088313727e-05,0
0.35,0.00063368476448331,0.000365247037194239,-0.0316715611453802,-0.018268833235973,0.000656944587338134,0.000321536293572851,-0.0328455230185392,-0.0160626794411131,-0.592755426667658,-5.92851044805188e-05,0
0.36,0.000633506998576781,0.000365254042583344,-0.031664490461692,-0.0182691843293438,0.000656851113569049,0.000321384889925362,-0.0328418654185009,-0.0160566163338109,-0.59275550317194,-5.49811677118148e-05,0
0.37,0.000633354378170549,0.000365255984006769,-0.0316581439891798,-0.0182692822071392,0.000656767478615052,0.000321257188610905,-0.0328384019500311,-0.0160512962271564,-0.592755552951522,-5.19598302953564e-05,0
0.38,0.000633241804577281,0.000365256518787349,-0.0316533711521042,-0.0182693101639619,0.000656705043210982,0.000321163500108911,-0.0328357593047999,-0.0160473209613677,-0.592755584486264,-4.99513724029853e-05,0
0.39,0.000633164854055631,0.000365256664106317,-0.0316500728763304,-0.0182693176775635,0.000656662181732369,0.000321099582945617,-0.0328339232740052,-0.0160445805154732,-0.592755604097223,-4.86608384890425e-05,0
0.4,0.000633114504430186,0.000365256702377798,-0.031647898589719,-0.0182693193162985,0.000656634089588482,0.000321057793461065,-0.0328327101639708,-0.016042775841939,-0.592755616132201,-4.78502814031922e-05,0
0.41,0.000633082490216711,0.000365256711707521,-0.0316465077352611,-0.0182693194622094,0.00065661621497705,0.000321031230716881,-0.032831933403334,-0.0160416219394812,-0.592755623445982,-4.73492767613648e-05,0
0.42,0.000633062524990237,0.000365256713507347,-0.0316456351840057,-0.0182693210384872,0.000656605064338961,0.000321014667567747,-0.0328314473318809,-0.0160408972161916,-0.592755627857896,-4.70431907804288e-05,0
0.43,0.000633050243173794,0.000365256713531207,-0.031645094609255,-0.0182693211437179,0.00065659820398791,0.000321004479223996,-0.0328311454702474,-0.0160404487154336,-0.592755630504561,-4.68578033465763e-05,0
0.44,0.000633042792593204,0.000365256713253255,-0.0316447636279908,-0.0182693212389737,0.000656594042007827,0.000320998298797045,-0.0328309606723641,-0.016040174093005,-0.592755632085294,-4.67462548478435e-05,0
0.45,0.000633038310603317,0.000365256713006813,-0.0316445616793584,-0.0182693213281003,0.00065659153824773,0.000320994580934823,-0.0328308479430418,-0.0160400065152409,-0.592755633026159,-4.6679473481055e-05,0
0.46,0.000633035574843257,0.000365256712837912,-0.0316444353449004,-0.0182693214136215,0.000656590009958235,0.00032099231161094,-0.0328307774463566,-0.0160399016667681,-0.592755633584817,-4.66396494011963e-05,0
0.47,0.000633033945028752,0.000365256712731566,-0.0316443573041502,-0.0182693214968568,0.000656589099482528,0.000320990959677774,-0.032830733923338,-0.0160398368820641,-0.592755633915704,-4.6615973561936e-05,0
0.48,0.000633033013706179,0.000365256712667016,-0.0316443100072305,-0.0182693215786495,0.000656588579209743,0.000320990187142182,-0.0328307075719575,-0.0160397976016665,-0.592755634111585,-4.66019319363229e-05,0
0.49,0.000633032373421909,0.000365256712628041,-0.0316442747755464,-0.0182693216598413,0.000656588221520587,0.000320989656033417,-0.03283068795902,-0.0160397683311975,-0.592755634227256,-4.65936200292334e-05,0
0.5,0.000633032082383605,0.000365256712605143,-0.0316442555282791,-0.0182693217403119,0.000656588058935341,0.000320989414612943,-0.0328306772743971,-0.0160397523202336,-0.592755634295513,-4.65887072661497e-05,0
0.51,4.74302469723201,0.00754476433381801,2.84935258499462,-0.366734528564241,-0.480414049694108,4.71863778466605,-0.657904106281503,2.79650970944045,0.103053115075943,31.8905850553253,613.619493284297
0.52,4.50150030216632,0.0143932118427307,4.00356506496576,-0.696417375243214,-2.01969443482002,4.02300217808885,-2.42909156777949,3.25776680339424,0.468472995729366,67.6387361013492,613.619493284297
0.53,4.22060426844866,0.0267192708088382,4.2699343188971,-1.3057031488617,-3.74007702522656,1.95602611323368,-4.3939415586827,0.794026057206947,1.09525623826475,103.708659839796,613.619493284297
0.54,3.92206787425753,-0.0119041625286611,6.06006461801448,0.628866038681185,-3.58896836160616,-1.58179145868174,-5.80462914922645,-1.85098247130224,1.98288539995815,137.234086109295,613.619493284297
0.55,3.6968305774029,-0.0202405287831614,5.92447560351942,1.06376214021132,-0.141434508828843,-3.6941795133343,-1.3218111570406,-5.87229225539455,3.09785052468642,167.119064681395,613.619493284297
0.56,3.4912449194923,0.0606804614106107,4.76417577410577,-2.98964673145727,3.34079217188163,-1.01566769692269,5.40134524431188,1.56870262868363,-1.84855811668437,196.460907577352,613.619493284297
0.57,3.23323828821652,0.0146864657701959,7.21105302359397,-0.698042012522409,0.99938039915908,3.07494460737795,1.53287604578917,7.08073720657502,-0.309696474283016,223.786739821844,613.619493284297
0.58,3.01804044386735,-0.0141602898457587,8.43808227397198,0.771852946679778,-2.98665938291905,0.434320578661799,-8.22980628847154,2.01674933689158,1.42169654337395,248.602807736995,613.619493284297
0.59,2.82007717669261,0.074714134421898,9.17946123183357,-3.67170427331141,0.463143915740419,-2.78278910406405,5.35095719920243,-8.31331328831607,-2.95018529021956,272.162894969048,613.619493284297
0.6,2.65038996826886,0.0713126388476037,9.03140607609391,-3.5017437273419,2.07282060467612,1.65319908576969,4.6504284635542,8.49717717531236,-0.870644897454294,294.471058049234,613.619493284297
0.61,2.5084641563731,0.0109407006472334,8.06863966614945,-0.480018062649743,-2.45418349409367,0.519129559991982,-7.99846510829115,1.16529795077457,1.36670220465729,315.341930423393,613.619493284297
0.62,2.36598910217184,0.0155542323017361,7.66872603237347,-0.707787048891816,1.34299806001341,-1.94794829924683,4.97435288481688,-5.87929713856134,-2.53141355922376,334.883454434472,613.619493284297
0.63,2.14755353336613,0.0681865746611177,11.5042660579697,-3.34255525756112,0.0843583748485137,2.14697909916009,-3.255819111484,11.5291133698866,-0.00753130788916386,353.306619476343,613.619493284297
0.64,2.01091392485588,0.0133004829736895,11.6474039937237,-0.637458831451892,-0.967471043149191,-1.76293831335485,-4.97504939107442,-10.5506993659746,2.64629812821676,370.644581681707,613.619493284297
0.65,1.90203759527709,0.054951168095541,10.8351680872385,-2.71083308535483,1.47876946795727,1.1975005241585,6.45390584121478,9.11573271262929,-0.861228480098788,386.667343293326,613.619493284297
0.66,1.81263485723723,0.0160902458459465,9.54818939741057,-0.743158477950795,-1.6333440422569,-0.786187802822387,-8.2380795035243,-4.88408142702255,2.02827830099999,401.557522872709,613.619493284297
0.67,1.6448338156703,0.0145243388199601,12.492044657244,-0.69558238196112,1.5697302424024,0.491565055387364,11.6740388186101,4.50020357653494,-1.25848701133212,415.806154864161,613.619493284297
0.68,1.54628880530149,-0.00972696495931638,12.2303586742897,0.52065100383187,-1.48863011956675,-0.418430460610481,-11.9323912440398,-2.73327458714413,1.83851971896978,429.069955262547,613.619493284297
0.69,1.46221882129217,0.016213967120406,11.7155414297386,-0.746060905294209,1.39456271596298,0.439933637400927,10.9006885082645,4.35723626994457,-1.25412574546069,441.312586715721,613.619493284297
0.7,1.33001322491322,-0.00598345707838327,13.7659289561786,0.319825277283606,-1.19286821732411,-0.588248583764271,-12.5137500115025,-5.74535889950891,2.02444047463391,453.074120314679,613.619493284297
0.71,1.27781251461313,0.0178853373362668,12.2195600554462,-0.832908424275437,1.01030308770108,0.782567810975652,9.03557054570268,8.26860624927293,-0.897748301061423,463.834139132536,613.619493284297
0.72,1.19512830098927,-0.0219273198143115,12.3665756577025,1.11803426989122,-0.657835620296746,-0.998030440341643,-7.91611511942579,-9.56646828993488,2.54047804832319,474.101051741006,613.619493284297
0.73,1.06638210614519,0.0448065009190328,15.1525806849043,-2.18423262422262,0.289229441939065,1.02738734114592,1.36470664680551,15.2482506976183,-0.232424458926628,483.585994874973,613.619493284297
0.74,1.03599113747179,0.0444567766816123,13.1759236457836,-2.18885621388586,0.166401216597044,-1.02350607083106,4.81344327623756,-12.4590055490408,-2.93753718708727,492.53986409666,613.619493284297
0.75,0.950619903235581,-0.00647645876850753,14.2003233916333,0.324793921572918,-0.620229078215915,0.720441555909459,-8.94362950137564,11.0347708114207,0.70397611520113,500.980595001828,613.619493284297
0.76,0.870789335405897,-0.00686058320702837,15.147857393076,0.396639947028931,0.832091890273325,-0.256796067726803,14.3186555438584,-4.95893237147664,-1.87801638008024,508.787040355617,613.619493284297
0.77,0.886142996570048,-0.0211471430794762,11.5178384875837,1.08663933990731,-0.83801049795873,-0.288851202769747,-11.3050662147453,-2.45700353303044,1.87887028590721,516.142082839625,613.619493284297
0.78,0.801148591417466,-0.00409781469467535,13.08912227541,0.202656754327916,0.445906986417158,0.665599592157199,7.50842178721766,10.7233294254137,-0.595375233065396,523.067561491407,613.619493284297
0.79,0.73441373290796,0.0335642513619242,13.9382695560189,-1.62985159911335,0.0552464219313232,-0.733101577489148,3.2988252920889,-13.6399972926555,-3.02070465957447,529.494850496663,613.619493284297
0.8,0.68036612167249,0.0397628457167556,14.2778520807469,-1.94725918831763,-0.500454205008642,0.462628071033663,-12.2681623485837,7.55917131536055,0.88303100739821,535.528129450313,613.619493284297
0.81,0.623027320320862,-0.00463459889853341,14.9298154784306,0.247014939121337,0.618207690092912,0.0774840195339026,14.8562084170861,1.50115890838906,-1.45354867306164,541.212337723789,613.619493284297
0.82,0.599078876060483,-0.0400123349806568,14.0584567704975,1.99400128106789,-0.309510049491877,-0.51449005428291,-9.67009701961446,-10.3973781073928,2.53331702935243,546.560140938284,613.619493284297
0.83,0.541716804596465,-0.00203664969174266,15.0016567988891,0.0865798235466074,-0.14891530817919,0.520850722677879,-3.98626349788081,14.462603711053,0.274718998815663,551.527654916773,613.619493284297
0.84,0.502891813961451,0.0248860843818923,15.1200372634063,-1.20037103478153,0.458278205289609,-0.208567927308673,14.497200063921,-4.45955241863857,-1.94844765931426,556.174674810298,613.619493284297
0.85,0.467218613969483,0.0362954388491321,15.1945011312169,-1.77867934956056,-0.217135688500307,-0.415286268615173,-4.34095140810723,-14.6694480375901,2.73735477496107,560.528982960276,613.619493284297
0.86,0.412192161723221,0.0406329227708404,16.3573863609127,-2.01310337378064,-0.191202361058001,0.367416752101492,-10.6240976924157,12.5994135568171,0.578091441046662,564.60341014629,613.619493284297
0.87,0.431212655967771,0.0133476419657905,13.9035522758167,-0.66445120980102,0.431386439596108,-0.00531544404728965,13.8887682668338,0.923242831959004,-1.55217361822862,568.46177176699,613.619493284297
0.88,0.40276632365768,-0.0361563546566252,13.9198529061448,1.79679784899734,-0.166406726546728,-0.368560435769741,-8.4044112777179,-11.2408477666872,2.62795814699754,572.058141342085,613.619493284297
0.89,0.375545233738413,0.0126520868183955,13.9536927881223,-0.65451892058781,-0.185683175549926,0.326674235595944,-7.85765755876385,11.5495088697271,0.55054079903942,575.456317339407,613.619493284297
0.9,0.260972582858427,-0.0313197828421884,18.44129323366,1.53853590589174,0.258240818898218,0.0489826219781886,18.5032162354608,-0.281740673904711,-1.5027856385848,578.624194727758,613.619493284297
0.91,0.270117183544399,-0.00601443724100341,16.8199961968731,0.302336850107207,-0.0976519936580658,-0.251919738083163,-6.70621137182401,-15.428234139725,2.74953179784155,581.569990664764,613.619493284297
0.92,0.231148993910246,0.00926065026788528,17.6911877393772,-0.428336132783367,-0.148938524655876,0.177011109545232,-12.2392197676069,12.7813573204397,0.739526779158536,584.315303046749,613.619493284297
0.93,0.220974770531225,0.0558593117867318,17.1871607179478,-2.75959522483783,0.227331298537363,0.0164496999951685,15.4479244613069,8.02343375290605,-1.25096320485158,586.875673154917,613.619493284297
0.94,0.232909002881429,0.0192416093745606,15.6329330689253,-0.929983969121664,-0.0381722237728118,-0.2305639271152,-0.348045417086074,-15.6567024276495,3.0599477667955,589.305410906901,613.619493284297
0.95,0.19958622713978,-0.00206977973805937,16.3984943084064,0.130492089182676,-0.179249034127377,0.0877993725288416,-14.5925417515939,7.48233713462339,1.10495760357597,591.583612097083,613.619493284297
0.96,0.21062832777,0.00511510714151457,15.0175329999614,-0.2334177975087,0.159441297830757,0.13772773622731,10.9661006257965,10.2628172710046,-0.834056373229118,593.689117187047,613.619493284297
0.97,0.164653168540762,-0.00870669074631819,16.5284114897527,0.451154156133445,0.0696999312444249,-0.149426878301017,5.76785955680965,-15.4959259994395,-2.75797449698165,595.664206330705,613.619493284297
