t,iq,id,vq,vd,ia,ib,va,vb,theta_e,omega,r
0,0,0,0,0,0,0,0,0,0,0,0
0.01,0.0010717503807654,0.000613828771286485,-0.0534165834336275,-0.0307437966420203,-0.000688741675790708,0.00102521682738768,0.0342606467416752,-0.0512320261411719,1.11167899199343,-0.000815750781068778,0
0.02,0.00118923104996712,0.000681400867203293,-0.0592968133967999,-0.03412817822432,-0.000764104569805418,0.00113785844393482,0.0380317863636568,-0.0568720305063484,1.11167292878286,-0.000883145626106685,0
0.03,0.00122492981843813,0.000701831603056672,-0.0610747492105552,-0.0351514511953541,-0.000787044951060037,0.00117199867924792,0.0391717587289923,-0.0585774942307128,1.11166667041815,-0.000885995245654417,0
0.04,0.00120478582799885,0.000690501708836645,-0.0600739097063219,-0.0345839997758954,-0.000774001366681405,0.00115291950526848,0.038525704978213,-0.0576254954324398,1.11166078778366,-0.000846804163108328,0
0.05,0.00122473781342571,0.000701939943659291,-0.0610682121661084,-0.0351568692421102,-0.000786810977162566,0.00117202000083432,0.0391628058086279,-0.0585799166375932,1.11165486160687,-0.000838702112341346,0
0.06,0.00122480352051087,0.00070208081088878,-0.0610729513180839,-0.0351639319632082,-0.000786800675007589,0.00117217994637414,0.0391635854718447,-0.0585885745414897,1.11164908191463,-0.000815679535196167,0
0.07,0.00125907064605153,0.0007217916502749,-0.0627794481626674,-0.0361511544290649,-0.000808776543453453,0.00120504048932584,0.0402554852413418,-0.060230067127202,1.11164351255595,-0.000820163823981032,0
0.08,0.00122487940585742,0.000702324757707778,-0.0610795151322747,-0.0351761511998535,-0.000786747616296944,0.00117244096330433,0.0391634057516315,-0.0586028705095732,1.11163801830354,-0.000771570256768618,0
0.09,0.00122426035131138,0.000702077163647861,-0.06105005477015,-0.0351637450705499,-0.00078629621037285,0.00117194881332854,0.0391421850602298,-0.0585788998149988,1.1116327266228,-0.000749962053266177,0
0.1,0.00122408135146723,0.000702071383120531,-0.0610424513348291,-0.035163445186834,-0.000786132292138798,0.00117186833785337,0.0391352011379685,-0.0585754622197999,1.11162758910175,-0.000729312196124739,0
0.11,0.00122391261011865,0.00070206872128283,-0.0610353196579679,-0.0351633258448393,-0.000785976363190216,0.00117179508580529,0.039128568862977,-0.0585723896469653,1.11162260071538,-0.00070926603059554,0
0.12,0.0012237488746259,0.000702066173676497,-0.0610283995841267,-0.0351632094384916,-0.000785825041359944,0.0011717240394993,0.0391221334837389,-0.0585694077611818,1.11161775712705,-0.000689801801665517,0
0.13,0.00128161662702404,0.000735262315644434,-0.0639090801336938,-0.0368258330636088,-0.000822979739078034,0.00122713332630906,0.0409672293166652,-0.0613367640691898,1.1116128627435,-0.000715382103473114,0
0.14,0.00137065322681428,0.000786750169442407,-0.0683766000290597,-0.0394046257939845,-0.000879967016512154,0.00131275441235014,0.0438287077233464,-0.065628715855176,1.11160815259687,-0.000766000673613758,0
0.15,0.00122517516795509,0.000703123889118126,-0.0611029701522139,-0.0352161844452114,-0.000786618123735411,0.00117331552577871,0.0391646669148967,-0.0586505027578339,1.11160354183861,-0.000634163040397499,0
0.16,0.00122314851799511,0.000702069837020823,-0.0610032103812482,-0.0351633871347882,-0.000785263566292937,0.0011714757720845,0.0390983908906827,-0.0585591265420617,1.11159924905907,-0.000615445225948943,0
0.17,0.0012229836178435,0.00070205441659703,-0.0609960569852501,-0.0351626102596666,-0.000785117703374707,0.00117139213127996,0.0390920789285682,-0.0585554224053049,1.11159508327069,-0.000598685778061244,0
0.18,0.0012228468906711,0.000702052122431535,-0.0609902741715036,-0.0351624852552541,-0.000784991419209962,0.00117133264805576,0.0390867137442414,-0.058552905320888,1.11159103843362,-0.000582431128521199,0
0.19,0.00122271413551794,0.000702050054228738,-0.0609846585292951,-0.035162398150574,-0.000784868733434286,0.00117127503478697,0.039081488509795,-0.0585504916759285,1.11158711100682,-0.000566648540808232,0
0.2,0.00122258532458639,0.000702048047971984,-0.0609792096465842,-0.0351622819082919,-0.000784749689793289,0.00117121913488664,0.0390764323679951,-0.0585481213320271,1.1115832975816,-0.000551324078229895,0
0.21,0.00122246025283866,0.000702046099887437,-0.0609739181793365,-0.0351621948272462,-0.000784634102248883,0.0011711648567668,0.039071510907039,-0.0585458425394218,1.11157959484909,-0.000536444439736116,0
0.22,0.00122233878996342,0.000702044208267351,-0.0609687784734818,-0.0351621077557368,-0.000784521850946974,0.00117111214373249,0.0390667317901568,-0.0585436267890066,1.11157599959597,-0.000521996713359673,0
0.23,0.0012222211548917,0.000702042371476723,-0.0609638022907234,-0.0351619915529717,-0.000784413129173335,0.00117106109387767,0.0390621182931647,-0.0585414532973386,1.11157250870264,-0.000507968361967676,0
0.24,0.00122210656051464,0.000702040587928521,-0.0609589510898806,-0.0351619045016129,-0.00078430722848896,0.00117101135933513,0.0390576098553103,-0.0585393573465695,1.11156911913966,-0.000494347212342941,0
0.25,0.00122199557501006,0.000702038856081595,-0.0609542540701718,-0.0351618174575804,-0.000784204655414626,0.00117096319293928,0.0390532453953119,-0.0585373258721716,1.11156582796573,-0.000481121444620343,0
0.26,0.00123302716272237,0.000708385136643161,-0.0615039743176229,-0.0354796985214042,-0.000791276500014698,0.00118154432263568,0.0394049197973887,-0.0590660660599122,1.11156264549383,-0.000477017999846827,0
0.27,0.00118743504261067,0.000682312119471976,-0.0592361387698982,-0.0341738193051845,-0.000761961630507923,0.00113796585292875,0.0379507150413106,-0.0568903620143454,1.11155948407411,-0.00042884820672268,0
0.28,0.00117251482218852,0.000673634931473104,-0.0584615624968537,-0.0337392141609907,-0.000752430158724397,0.00112357638164681,0.0374488664424238,-0.0561575574963177,1.11155645245482,-0.000405111793539035,0
0.29,0.00122094568487866,0.000701675222414005,-0.0609050740612368,-0.0351436080608589,-0.000783410404943825,0.0011701814477248,0.039016516366151,-0.0584996810640013,1.11155359125494,-0.000431451199160814,0
0.3,0.00121789967062004,0.000700014431597399,-0.0607541615551003,-0.0350604361262401,-0.000781413157983004,0.00116734454582701,0.0389179570996907,-0.0583583322483776,1.11155101032475,-0.000418772685625948,0
0.31,0.00122135529961392,0.000702004240358644,-0.0609267991801079,-0.035160081908851,-0.000783625481703054,0.00117066213136079,0.0390283755275754,-0.058524286598376,1.11154824935247,-0.000410444506329711,0
0.32,0.00122131045338149,0.000702027872460509,-0.0609252362998025,-0.0351612782045527,-0.000783571663047982,0.0011706655398185,0.0390262871384544,-0.0585247709551403,1.11154556402627,-0.000399689195245849,0
0.33,0.00122122299768253,0.000702026815032399,-0.0609215330636757,-0.0351612377781522,-0.000783490685479939,0.00117062786779549,0.0390228329382809,-0.0585231949092948,1.11154295658906,-0.000389211524652578,0
0.34,0.00122113762352968,0.000702025486347919,-0.060917913846901,-0.0351611507790188,-0.000783411782815194,0.00117059081562605,0.0390194791341456,-0.0585216113898389,1.11154042483757,-0.000379037542649018,0
0.35,0.00122105447517394,0.000702024192394914,-0.0609143863143272,-0.0351610928961481,-0.000783334946133373,0.00117055472328989,0.0390161989161213,-0.058520091727887,1.11153796657508,-0.000369158875643989,0
0.36,0.00122097388795417,0.000702022935917223,-0.0609109677652981,-0.0351610350129268,-0.000783260472297769,0.00117051974359924,0.0390130205723578,-0.0585186175768553,1.11153557966908,-0.000359566957230279,0
0.37,0.00122089562903973,0.000702021715875952,-0.0609076471469446,-0.0351609771300254,-0.000783188150623356,0.00117048577406686,0.0390099340730916,-0.0585171841199483,1.1115332620477,-0.000350253464015044,0
0.38,0.0012208195820153,0.00070202053121637,-0.0609044191586924,-0.0351609192473357,-0.000783117874857775,0.00117045276374554,0.0390069345488009,-0.0585157890870568,1.11153101170038,-0.000341210314134716,0
0.39,0.00122074574688089,0.00070201938091324,-0.0609012843425876,-0.0351608613644024,-0.000783049643155908,0.00117042071327322,0.0390040223707142,-0.0585144327954075,1.11152882667387,-0.000332429660318645,0
0.4,0.00122067412363648,0.000702018263970937,-0.0608982431720348,-0.0351608034810159,-0.000782983453727385,0.00117038962326808,0.0390011978518086,-0.0585131155297253,1.1115267050724,-0.000323903883079351,0
0.41,0.00122060459586675,0.000702017179422943,-0.0608952903217602,-0.0351607455971628,-0.000782919200481551,0.00117035944272403,0.0389984561103959,-0.0585118350022061,1.11152464505474,-0.000315625584099194,0
0.42,0.00122053704715233,0.000702016126330265,-0.0608924204774419,-0.0351606848027221,-0.00078285677737595,0.00117033012061368,0.0389957935678407,-0.0585105863191637,1.11152264483348,-0.000307587579812514,0
0.43,0.0012204715939166,0.000702015103781235,-0.0608896398977995,-0.0351606269177362,-0.00078279628713132,0.00117030170911083,0.0389932131522791,-0.0585093775406375,1.11152070267269,-0.000299782895171337,0
0.44,0.00122040766799215,0.000702014110891372,-0.0608869206343258,-0.0351605981289324,-0.000782737218867178,0.00117027395689416,0.0389906781037783,-0.0585082198167276,1.11151881688719,-0.00029220475759275,0
0.45,0.00122034605646039,0.000702013146800273,-0.0608843024779513,-0.0351605402406882,-0.000782680276559113,0.00117024721340587,0.038988249791831,-0.0585070786863736,1.11151698584052,-0.000284846591082396,0
0.46,0.00122028607474202,0.000702012210673558,-0.0608817516131858,-0.0351604823524299,-0.000782624845070395,0.00117022117568544,0.0389858849120727,-0.058505965305837,1.11151520794399,-0.000277702010526917,0
0.47,0.00122022762033632,0.000702011301700627,-0.0608792633280537,-0.035160453555659,-0.00078257083106783,0.00117019579879132,0.0389835662537903,-0.0585049037238974,1.11151348165447,-0.000270764816154251,0
0.48,0.00122017113107595,0.000702010419094622,-0.0608768599492998,-0.0351603956643643,-0.000782518625599948,0.00117017127729993,0.0389813395361919,-0.0585038517409361,1.11151180547409,-0.000264028988153864,0
0.49,0.00122011605271374,0.000702009562090657,-0.0608745141088655,-0.0351603668617403,-0.000782467730485465,0.00117014736597806,0.0389791543489829,-0.0585028494355685,1.11151017794827,-0.000257488681451808,0
0.5,0.00122006282308072,0.000702008729947064,-0.0608722480874777,-0.0351603089674528,-0.00078241853685211,0.0011701242593741,0.038977056372806,-0.0585018545895878,1.11150859766489,-0.000251138220639389,0
0.51,1.33883670915493,-0.0227924548332891,5.31858420716119,1.14204393116079,-0.041366129022112,1.33839159932654,1.06814059650793,5.33391769485219,0.0138750783030259,4.27739507471354,363.390547195183
0.52,1.47048648766916,-1.93539962710168e-05,-0.805007963608197,0.00197071822351708,-0.0923949607104271,1.46758089454295,0.0525372529960351,-0.803294181636194,0.0628611763913538,9.08664690754918,363.390547195183
0.53,1.38763050457977,-0.0787551638628027,3.76915815808509,3.94608497811929,-0.281459542891726,1.36106624335135,3.35048527586259,4.30724834336564,0.14722476014465,13.9392952645084,363.390547195183
0.54,1.49017679774157,0.0369277097985607,-0.948709384817948,-1.84739897124607,-0.35790293562734,1.44703007326994,-1.5312885341062,-1.4028855552459,0.267245687382889,18.8101092670122,363.390547195183
0.55,1.45485998679905,-0.0671195828732111,1.19206245423049,3.36483285913058,-0.658695091762411,1.29893933487369,2.57840118710259,2.46879735560027,0.42321122507112,23.7578188572149,363.390547195183
0.56,1.41198495412726,-0.0467063959914455,3.66703145744285,2.34318413553695,-0.853753820876125,1.12560535333113,-0.205536398123449,4.3468823761351,0.61584241015866,28.8190215516928,363.390547195183
0.57,1.408235959546,-0.0121791870712386,4.13050194492064,0.614621659348113,-1.06253508906976,0.924281361302759,-2.68546694235011,3.1979795813416,0.846223404388024,34.0848160837916,363.390547195183
0.58,1.39401862815697,0.00868125655987473,5.05456814112599,-0.42979206995894,-1.24845072988595,0.620269356740547,-4.72941554127152,1.83466862257598,1.11591434013514,39.5680031772477,363.390547195183
0.59,1.48825919713449,0.0194813921289719,0.496187559219246,-0.973149631773841,-1.47002286932864,0.233083088501641,-0.630843611416157,-0.891772750021515,1.42663722122993,45.1927381359826,363.390547195183
0.6,1.43551847840912,0.00732642672773198,3.31610924249005,-0.363950097884636,-1.4064019703195,-0.28775071896358,-3.17059990333348,-1.03746635360377,1.77771525879957,50.5361637464263,363.390547195183
0.61,1.42047592585086,0.0252495594134091,4.28987538089602,-1.26045929550625,-1.18966855650309,-0.776581046536853,-2.84238037436445,-3.45147247224626,2.16689055980792,55.602811499928,363.390547195183
0.62,1.36599233188155,-0.0590386005427569,7.24055481036057,2.963023115473,-0.662434031203883,-1.19607765693379,-6.30587094368422,-4.63045695220914,2.59261366277136,60.5495367465247,363.390547195183
0.63,1.48968370444223,0.033316312560156,1.25042295806669,-1.6603479476463,-0.162308927138219,-1.48118983527925,1.54571937023074,-1.38962747159338,3.05480898896862,65.5978539832514,363.390547195183
0.64,1.39956935659903,0.0208273647538616,5.85982046646954,-1.03501923211481,0.543400728639746,-1.28993946027223,3.30275469287492,-4.94980526372458,-2.72801336401529,71.025566899109,363.390547195183
0.65,1.44185658215874,-0.034320475914983,3.78143920315586,1.72302987336213,1.19672436319625,-0.804971488385791,2.09112723980796,-3.59100282074457,-2.18672532234652,76.5895884709636,363.390547195183
0.66,1.48322060650766,-0.0607888239742469,1.82424093860099,3.05147343885707,1.48444463076103,0.00792381813760774,1.71440215754091,-3.11450965520049,-1.60641989673773,81.6841976697028,363.390547195183
0.67,1.44673791628813,0.0221837351733134,3.77084457826495,-1.10092603907799,1.22129643957809,0.775872233815496,2.54696879355466,2.99069505994991,-0.989502257575032,86.6533721629745,363.390547195183
0.68,1.43845267981238,-0.00179423140907464,4.22391639041146,0.101483163727145,0.471358577363161,1.35903289984899,1.48492576018603,3.95559906871798,-0.335098726279582,91.9831589854974,363.390547195183
0.69,1.45448838210554,-0.0423557867656317,3.39057436263303,2.12697724058234,-0.551594518345837,1.34650434595784,0.797457099789994,3.9222555837801,0.359684416138644,97.4886309902597,363.390547195183
0.7,1.40319533350497,-0.0298212855074228,6.00206098168856,1.50331677499465,-1.25963622871719,0.619001635169553,-4.63778308077819,4.0958107194469,1.09279266137656,102.484708873756,363.390547195183
0.71,1.48654326103312,0.0532077346962531,1.85281189981579,-2.65103978141336,-1.4390337228206,-0.376595106898092,-1.01203931533845,-3.07192126900161,1.86253372351249,107.60855279621,363.390547195183
0.72,1.3817191411113,0.0636210239832298,7.00137299359212,-3.18128575833033,-0.682411155762684,-1.20312527780637,-0.334026256741967,-7.68298310107236,2.67165331410059,113.119022170761,363.390547195183
0.73,1.46081566046979,-0.0486068092152943,3.03102093313422,2.44611952546371,0.583993912837772,-1.33988660921151,-1.15566959686798,-3.71954518897508,-2.76382672495338,118.117590797772,363.390547195183
0.74,1.32168444819263,-0.0046148865137508,9.93961233629158,0.245906702640999,1.26064570804971,-0.39704341897031,9.39534430124044,-3.25328587174756,-1.87940552379873,123.269641413919,363.390547195183
0.75,1.38203401952427,0.0221121483369605,6.78131408965813,-1.10032640344067,1.14136106343386,0.779616508998883,4.90268646964367,4.81254655635428,-0.955532788899971,128.698902745517,363.390547195183
0.76,1.38904717550373,0.00701654371176053,6.37067080781145,-0.336460952389704,-0.00134349221695998,1.38906424714237,-0.374796412730341,6.36853045552806,0.0060184848063891,133.646449844062,363.390547195183
0.77,1.4067528237179,-0.0329046660352437,5.33258855836919,1.65443191845089,-1.20512409003904,0.726437988883263,-3.614395414615,4.25556006801092,1.00494088127212,139.005034784712,363.390547195183
0.78,1.45191790311081,0.0579725347147652,2.94691483411472,-2.89010904674734,-1.31963238868987,-0.608273598700132,-1.31135347757164,-3.91374365518195,2.04261907478783,144.03504543403,363.390547195183
0.79,1.41716975342762,-0.0375648800391846,4.53949101099155,1.89705828395856,0.00238435162976876,-1.41766552652936,-2.0091275718391,-4.49101493781582,3.11677377062091,149.163898990853,363.390547195183
0.8,1.44847447429187,-0.0241006184583513,2.77469623946732,1.21938264025307,1.29419646951199,-0.650933668500772,1.89178119326806,-2.36790987190432,-2.053449061504,154.35724977153,363.390547195183
0.81,1.35899674252504,-0.0277344944615668,7.09014565097571,1.40850154819843,1.05083517475255,0.862198807630512,6.44290498211496,3.27765424576258,-0.904091525627687,159.338621060716,363.390547195183
0.82,1.36040430393706,-0.0347936636439885,6.77166631129675,1.75393644540823,-0.41407974304751,1.2963211159269,-0.211017986578363,6.99194029547042,0.283612529214089,164.567360849705,363.390547195183
0.83,1.40310154043756,-0.0382064204750994,4.44827817939991,1.93468347628918,-1.40271833718591,0.0503480870160639,-4.31742555875057,2.21133793423779,1.5076952540649,169.499231531081,363.390547195183
0.84,1.42058333338275,-0.0180301045010473,3.30195288170261,0.916275310586937,-0.499497514516506,-1.32999410703394,-2.0536755760402,-2.74314963247565,2.76963650639882,174.660778809138,363.390547195183
0.85,1.39900156988644,0.0671702786605471,4.14828763966549,-3.34439349073381,1.07783694123103,-0.894418675452273,5.32548412876502,0.180213641370523,-2.21548581508698,179.633310576524,363.390547195183
0.86,1.3121858122358,-0.00927027051724161,8.20367011835631,0.4795737566138,1.00535431109056,0.843315037764662,6.62791995539207,4.85807281375655,-0.879891199351777,184.629888762416,363.390547195183
0.87,1.32437906852606,-0.021770200895818,7.31352473814813,1.0980206722637,-0.644091099909559,1.15741112566551,-2.48271590352784,6.96630570924023,0.491377945926515,189.641352203028,363.390547195183
0.88,1.37435294436927,0.0231182556879789,4.53076392484755,-1.1370580792104,-1.30827652565281,-0.421655074519871,-3.92138158679804,-2.53840289727989,1.89940214351784,194.458097561708,363.390547195183
0.89,1.39849877064755,-0.0288433387612891,2.98583146883431,1.45509165949092,0.308424868196316,-1.36436976306707,-0.827431403417053,-3.21680564697971,-2.93989427434316,199.515074973068,363.390547195183
0.9,1.29107725354758,-0.0277068826043838,8.06047764087594,1.41153592431564,1.28013052437722,0.170041131874957,8.16702686598777,-0.513230586509199,-1.46019528719066,204.262649318324,363.390547195183
0.91,1.34824474887037,0.0226021581309714,4.84686349932205,-1.11521148384186,-0.0522896996791201,1.34741995966965,-1.38259789252972,4.77746852447251,0.0555503789938742,209.16057391913,363.390547195183
0.92,1.35042765019508,0.0183345332429259,4.3843433061423,-0.909693699081055,-1.35023078602222,-0.0294587507958883,-4.34941054852257,-1.06425407335991,1.60618643391128,214.039812028337,363.390547195183
0.93,1.27926975162382,0.0925522297004524,7.60151193792558,-4.61118941756192,-0.0276780844960297,-1.28231467911774,4.99005978436269,-7.35835273247664,-3.09095190190102,218.686428457458,363.390547195183
0.94,1.22346399389071,-0.0416992918849162,9.99086430149911,2.10355585951418,1.21301796947896,0.16489506060475,10.1520906097427,-1.08506819907305,-1.46975643131322,223.530181198718,363.390547195183
0.95,1.25605083366693,0.0150310033036333,7.97366058674339,-0.745145225870632,-0.217275953449913,1.23720684926496,-2.20540704279073,7.69874563392192,0.185811669634466,228.293991730839,363.390547195183
0.96,1.2865552899385,0.0752773640011672,6.06876559986389,-3.74388923330494,-1.2497134977535,-0.314813228966672,-4.66323288211633,-5.39452329538922,1.8760144028863,232.864753097285,363.390547195183
0.97,1.27311785215125,-0.015607758631907,6.31403042465086,0.801599744972124,0.57815251867869,-1.13437750891897,2.07935812859236,-6.01546441495692,-2.68250183233928,237.557475892016,363.390547195183
0.98,1.26922375673332,-0.0168937569240016,6.06802153100894,0.856720337322171,1.00272937668483,0.778298233849012,5.35885732777074,2.97279383371389,-0.924059145758047,242.282469134337,363.390547195183
