t,iq,id,vq,vd,ia,ib,va,vb,theta_e,omega,r
0,0,0,0,0,0,0,0,0,0,0,0
0.01,0.00118924718115228,0.000679542455458519,-0.059119742149953,-0.0340429852167338,0.00119073197445077,-0.00067693734693088,-0.0591941268208455,0.033913479683768,-1.56860714166604,-0.00157035046562733,0
0.02,0.00132748792851783,0.000759167208877108,-0.0660528422977261,-0.0380319558646721,0.00132913794895949,-0.000756274661766851,-0.0661355043441213,0.0378880285532165,-1.56861871797783,-0.00169100559667646,0
0.03,0.00136226487486082,0.000779084908684058,-0.0677850660780617,-0.0390297602537116,0.00136394902847516,-0.000776132676763764,-0.0678694380791041,0.0388828592505239,-1.56863051672206,-0.00166858993674134,0
0.04,0.00134311841265478,0.000768527862309293,-0.0668456366368559,-0.0385008847438458,0.00134477141309639,-0.0007656317601019,-0.0669284479031505,0.0383567480988775,-1.56864140135195,-0.00157772548974514,0
0.05,0.00136155797469153,0.000779142717723943,-0.0677678667290866,-0.0390326560300256,0.00136322537946483,-0.000776221655077546,-0.067851399600627,0.0388872674535712,-1.56865225796614,-0.00153852150630119,0
0.06,0.00136130039379918,0.000779214127792587,-0.0677636409103035,-0.0390362241263459,0.00136295985763244,-0.000776307829145069,-0.0678467759156333,0.0388915520558991,-1.56866268516251,-0.00147625170501516,0
0.07,0.00139813157260747,0.000800397797540698,-0.0695960255278552,-0.040097473979677,0.00139982824823477,-0.000797426739001033,-0.0696810247772167,0.0399495804085807,-1.5686725954955,-0.00146786418455787,0
0.08,0.00136083280113004,0.000779357669839851,-0.067756425368367,-0.0390434370429204,0.0013624774024123,-0.000776478987536336,-0.0678388157978407,0.0389001057321214,-1.5686822222558,-0.00135959946083484,0
0.09,0.0013602088329355,0.000779203851234112,-0.0677329956095591,-0.0390357261449634,0.00136184601417904,-0.00077633893670129,-0.0678150142817419,0.0388930642644196,-1.56869136298197,-0.00130446673250755,0
0.1,0.00135987299653482,0.000779199151171697,-0.0677235147374416,-0.0390354797986017,0.0013615033775924,-0.000776346853343121,-0.06780519269466,0.0388934310024141,-1.56870011047491,-0.00125206367030071,0
0.11,0.00135955331884434,0.000779195669020824,-0.0677145256118492,-0.0390353183190237,0.00136117719394614,-0.000776355436692736,-0.0677958776454201,0.0388938559337142,-1.5687084821642,-0.00120191457726929,0
0.12,0.00135924749456946,0.000779192343378386,-0.0677059274449407,-0.0390351568906101,0.00136086514318594,-0.000776363652893653,-0.067786967540284,0.0388942555700273,-1.56871649419841,-0.00115391995125617,0
0.13,0.00142193905057255,0.000815097367971007,-0.0708177197984103,-0.0408338631013951,0.00142362469587255,-0.000812149683320883,-0.0709021663217943,0.0406870572062695,-1.56872455201954,-0.00119196215646663,0
0.14,0.00153593850217815,0.000881050606395939,-0.0765547394427215,-0.0441379498090904,0.00153775386781591,-0.000877878291975092,-0.0766456845608678,0.0439798338183391,-1.56873215581576,-0.00130299527402603,0
0.15,0.00135969013371193,0.000779909274407173,-0.0677466548847638,-0.0390710687582407,0.00136129139581179,-0.000777110977730129,-0.0678268739993375,0.0389316429843958,-1.56873949865391,-0.0010179249231096,0
0.16,0.00135812417536217,0.00077918519951399,-0.0676745481614094,-0.03903480597981,0.00135971876350905,-0.000776399211106147,-0.0677544329358301,0.0388959813383907,-1.56874618078228,-0.000976101093838677,0
0.17,0.00135787073770917,0.000779177400762728,-0.0676672153983744,-0.0390343857583042,0.0013594603472973,-0.000776400622303008,-0.0677468506858572,0.0388960092226216,-1.56875257326887,-0.000937794692061041,0
0.18,0.00135763718427613,0.000779174823364754,-0.0676606419292386,-0.039034256928985,0.00135922203917648,-0.000776406837754315,-0.0677400390070007,0.0388963082516152,-1.56875869110967,-0.000901146782027941,0
0.19,0.00135741350311283,0.000779172391364149,-0.0676543415589471,-0.0390341604810239,0.00135899380763833,-0.000776412818478575,-0.0677335107142099,0.038896621222942,-1.56876454612244,-0.000866073392541487,0
0.2,0.00135719974027282,0.00077917006392841,-0.0676483261051305,-0.0390340287710305,0.00135877568988903,-0.000776418539246323,-0.067727277048509,0.0388968812441078,-1.5687701495989,-0.000832506786138751,0
0.21,0.00135699480196982,0.000779167836332126,-0.0676425499587089,-0.0390339323403868,0.00135856658374782,-0.0007764240125546,-0.0677212921239369,0.0388971596898118,-1.5687755123451,-0.000800382229459429,0
0.22,0.00135679919991441,0.000779165704297399,-0.0676370473738053,-0.0390338035657307,0.00135836699288826,-0.000776429247435569,-0.0677155896555961,0.0388973895762859,-1.56878064470327,-0.000769637770841847,0
0.23,0.00135661160748792,0.000779163663730284,-0.0676317602999255,-0.039033707147703,0.00135817558300395,-0.00077643425618685,-0.0677101113388915,0.0388976363990686,-1.56878555657072,-0.000740214120122145,0
0.24,0.00135643228054652,0.000779161710711991,-0.0676267095117254,-0.0390336107321717,0.00135799260258989,-0.000776439047484994,-0.0677048775147546,0.0388978684105708,-1.56879025742025,-0.000712054534289201,0
0.25,0.00135626052059828,0.000779159841491068,-0.0676218676557969,-0.0390335143193508,0.00135781734611152,-0.000776443631517807,-0.0676998604773711,0.0388980862861088,-1.56879475631694,-0.000685104708058846,0
0.26,0.00136725769167995,0.000785475266432038,-0.0681700693003562,-0.0393498890361712,0.00136882378026857,-0.000782742900450545,-0.0682485261588968,0.0392136556917706,-1.56879904337977,-0.00067471451102426,0
0.27,0.00131612070156198,0.000756361603329358,-0.0656405994661404,-0.0378914072784178,0.0013176255622677,-0.0007537369924116,-0.0657159889754036,0.0377605063101363,-1.56880326460436,-0.000579588969723449,0
0.28,0.00129195200472483,0.000742280962989694,-0.0643704620495237,-0.0371859983930514,0.00129342589772562,-0.000739709711726219,-0.0644443002629542,0.0370578874812825,-1.56880725555444,-0.000522778147618313,0
0.29,0.00135516875778605,0.000778890156423436,-0.0675809324223257,-0.0390200171971876,0.00135671251598437,-0.000776198033251869,-0.0676582706004168,0.0388857633138472,-1.56881089895684,-0.000587753683983384,0
0.3,0.00135284623654553,0.000777669472318418,-0.0674684407300226,-0.0389588651954539,0.00135438516547936,-0.000774986174999826,-0.0675455369683034,0.0388250448489333,-1.56881400903817,-0.000566103965118141,0
0.31,0.00135537294249485,0.000779139825603212,-0.0675964167426631,-0.0390325325370705,0.00135691208435152,-0.000776456229564141,-0.0676735236570123,0.0388986934041369,-1.56881748228792,-0.000548941520400411,0
0.32,0.00135526602657654,0.000779148938515041,-0.0675938266989312,-0.039032962804496,0.00135680260161741,-0.00077647007117204,-0.0676708049643487,0.0388993540894883,-1.56882081154139,-0.000529025365868429,0
0.33,0.00135514453501716,0.000779147689044034,-0.0675903971318892,-0.039032901598698,0.00135667863378401,-0.000776473384452738,-0.0676672513392826,0.0388995152649297,-1.56882399780595,-0.000509938822741857,0
0.34,0.00135502816572671,0.000779146422092237,-0.0675871089147686,-0.0390328374759236,0.0013565598944553,-0.000776476483692352,-0.0676638443825339,0.0388996639606938,-1.56882704718621,-0.000491672059988914,0
0.35,0.00135491680229386,0.000779145209017811,-0.067583961098702,-0.0390327733463623,0.00135644626279615,-0.000776479448549666,-0.0676605829223096,0.0388998034893832,-1.56882996556241,-0.000474190051400126,0
0.36,0.00135480995604316,0.000779144048013622,-0.067580933984745,-0.039032741510795,0.00135633724575918,-0.000776482285899113,-0.0676574471042549,0.0388999665736868,-1.56883275856259,-0.000457459084705797,0
0.37,0.00135470790583421,0.000779142936850068,-0.067578046021455,-0.0390326773655928,0.0013562331180174,-0.000776485000348281,-0.0676544550404738,0.0389000889405264,-1.5688354315731,-0.000441446894523176,0
0.38,0.00135461051223691,0.000779141873388495,-0.0675752945717733,-0.03903261321291,0.00135613373613481,-0.000776487597098053,-0.0676516039569556,0.0389002032480782,-1.56883798974871,-0.000426122601606914,0
0.39,0.00135451682091169,0.000779140855582545,-0.0675726360244912,-0.0390325784378961,0.00135603814193969,-0.000776490082728271,-0.0676488501081869,0.0389003393024911,-1.56884043802263,-0.000411456653307528,0
0.4,0.001354427576385,0.000779139881474014,-0.0675701115972498,-0.0390325142704991,0.0013559470762873,-0.000776492460287552,-0.0676462344130684,0.0389004385743105,-1.5688427811167,-0.000397420766585044,0
0.41,0.00135434180130506,0.000779138949187825,-0.0675676761962308,-0.0390324823869518,0.00135585955831608,-0.000776494735994174,-0.0676437117226906,0.038900563135049,-1.56884502354928,-0.00038398787346082,0
0.42,0.00135426012377245,0.000779138056929183,-0.0675653648747163,-0.0390324182050486,0.00135577621276423,-0.000776496912742239,-0.0676413167959737,0.0389006486281923,-1.56884716964512,-0.000371132068819771,0
0.43,0.00135418156644153,0.000779137202980661,-0.0675631322191052,-0.0390323863034857,0.00135569605907161,-0.000776498996378152,-0.0676390041843933,0.0389007600021447,-1.56884922354258,-0.000358828560452833,0
0.44,0.00135410650156995,0.000779136385698102,-0.0675610001591051,-0.0390323543920932,0.00135561946641647,-0.000776500989944917,-0.0676367956005459,0.0389008651931873,-1.56885118920284,-0.000347053621242754,0
0.45,0.00135403457991174,0.000779135603508244,-0.0675589544344226,-0.0390323224719296,0.00135554608260734,-0.000776502897727241,-0.0676346766367357,0.0389009644876484,-1.56885307041656,-0.00033578454341196,0
0.46,0.00135396617372274,0.000779134854905014,-0.0675570166994293,-0.0390322582617085,0.00135547627707966,-0.000776504722450238,-0.0676326687435168,0.0389010258086519,-1.56885487081168,-0.00032499959472711,0
0.47,0.00135390042207566,0.000779134138446903,-0.0675551468243283,-0.0390322263255252,0.00135540918620923,-0.000776506469084247,-0.0676307317815313,0.0389011140338956,-1.56885659386019,-0.000314677976589935,0
0.48,0.00135383734798068,0.000779133452754494,-0.0675533487048331,-0.0390321943815229,0.00135534483042357,-0.000776508140738136,-0.0676288694545124,0.0389011970995532,-1.56885824288491,-0.000304799783927694,0
0.49,0.00135377718426843,0.000779132796506687,-0.0675516366809029,-0.0390321624287975,0.00135528344008095,-0.000776509739977836,-0.0676270959786874,0.0389012751928023,-1.56885982106626,-0.000295345966806153,0
0.5,0.00135371946527289,0.000779132168439754,-0.0675499900421559,-0.0390321275586722,0.00135522454715109,-0.000776511270591394,-0.0676253905197277,0.0389013456516114,-1.56886133144721,-0.000286298293692144,0
0.51,1.80916400855813,0.00674933979861561,6.58078272192217,-0.337280047757459,-0.0607538913131762,1.80815622337788,-0.582569216585206,6.56361730843991,0.0373178998308301,11.4457591605575,471.846505507708
0.52,1.75805348002892,0.0486680997799165,7.89991202810033,-2.43614242684439,-0.245028066906917,1.7415745373098,-3.71874858774266,7.38338058864349,0.167451838518262,24.0263173069236,471.846505507708
0.53,1.81447198125679,0.0155704378819325,3.81739661076965,-0.776457459625551,-0.674719331932281,1.68443012096633,-2.16809791435974,3.23647254032422,0.389572129696187,36.5615651388186,471.846505507708
0.54,1.75532916851534,-0.0285809120644357,5.49233237774188,1.43701976641891,-1.1569555753576,1.32039810474878,-2.45575150485375,5.11859602851006,0.70323806348086,49.0446976189376,471.846505507708
0.55,1.81331817748299,-0.0275133686214279,1.23077354397228,1.38548588439294,-1.6355817861121,0.783423269491974,-0.484412316093606,1.78877593913016,1.10892778429611,61.744582716739,471.846505507708
0.56,1.74283663611554,-0.0275298603018829,3.26550484775046,1.38669008240478,-1.74049367240037,-0.0944415678028511,-3.31635039772544,1.26025843969713,1.60920984114701,74.882552600354,471.846505507708
0.57,1.68587649579488,0.00815251965390962,4.55853332287426,-0.404601967999317,-1.36103633996541,-0.994900047212736,-3.42674053425298,-3.03337734533169,2.20685348084934,88.0176670406026,471.846505507708
0.58,1.59085222517055,0.016223541725323,7.95026287648456,-0.807414359194507,-0.401544521638414,-1.53942716709118,-1.14474563717696,-7.90873916492423,2.89663540398424,99.9854080023493,471.846505507708
0.59,1.57349846824564,-0.00836427333318035,7.58554947227388,0.428149031143976,0.801792720823246,-1.35391869160398,3.46094210735648,-6.76356060952447,-2.61224272280259,111.250897249631,471.846505507708
0.6,1.65512648609671,-0.0422670954765105,2.23820633480582,2.13070483616812,1.63474292123595,-0.262384781966886,1.80888180343012,-2.50547746293087,-1.75547569482413,122.621871272358,471.846505507708
0.61,1.57757555972814,0.0346637818202656,4.63072129558196,-1.73165677984373,1.16865062357825,1.06028389803477,2.16892636478744,4.44274389816304,-0.812008800984571,134.835674458087,471.846505507708
0.62,1.53946403054833,-0.0893355770888364,5.20095832375767,4.48411044738781,-0.4201078331948,1.48372495940935,3.25339397930287,6.04753186062484,0.217956452071331,145.95216512103,471.846505507708
0.63,1.52895528886551,-0.00251331765492979,4.51779555984754,0.141044770445546,-1.48415316894502,0.367423411374256,-4.34949719167424,1.2297335188837,1.32646754042386,156.481661988708,471.846505507708
0.64,1.48544952917732,0.0888191963997378,5.3010653701095,-4.44408408915784,-0.943679763719623,-1.15061620748549,0.487262380020315,-6.90027193831497,2.51440604390849,167.821316262601,471.846505507708
0.65,1.44106626588123,-0.020923757401689,6.21125421342931,1.05880841715432,0.880342720711256,-1.14109880394968,2.87461448773997,-5.60690161452434,-2.4989997991795,178.349998031021,471.846505507708
0.66,1.37532636533799,-0.0711388405062529,8.29337095794237,3.58186423043592,1.22939106169626,0.620629489505389,9.03351337706005,0.0734117006711519,-1.15497378608038,188.463594775808,471.846505507708
0.67,1.35236247054235,-0.00190467213486489,8.07390844841443,0.102106959978623,-0.357442714971034,1.30427090170006,-2.02452860191628,7.81663018216142,0.266079574204909,199.042645154053,471.846505507708
0.68,1.38504676792455,-0.0660399270578182,5.26317848524552,3.32671845786816,-1.34781057254694,-0.325764457598961,-5.79562102208453,2.27571536749302,1.76030258361759,208.635841385738,471.846505507708
0.69,1.28570721034501,0.00286673794276035,8.89395137418019,-0.13829759886701,0.234041788641909,-1.26422928699223,1.7744190400762,-8.7162454269226,-2.95630930671171,218.86894889814,471.846505507708
0.7,1.3057245505205,-0.0126384246483718,6.70215968668798,0.6508443564047,1.26084522659387,0.339625744290704,6.65125360116831,1.05041343054767,-1.31735673436613,228.175318063226,471.846505507708
0.71,1.25978316186611,-0.0899799322209658,7.70828363229988,4.51322159571765,-0.562816195197653,1.1306581859904,1.23872890334561,8.84603619888878,0.390564173544464,237.968267728436,471.846505507708
0.72,1.23704354181776,-0.0812678098610231,7.65530491371364,4.09032280152832,-0.976908985894064,-0.763236539057236,-8.62999536059129,-0.926074521193347,2.1684151737085,246.957275758162,471.846505507708
0.73,1.26811104039675,-0.025692876660637,4.82821363637334,1.29365713722416,0.986853748439992,-0.79679697155371,2.86146704299437,-4.09843897953959,-2.27029808377712,256.35998306701,471.846505507708
0.74,1.20170499517062,0.0330815014241349,7.01034243184812,-1.63526386504668,0.453866963292511,1.11319093635644,0.93640854226878,7.13737542532713,-0.35961942962933,264.92090575338,471.846505507708
0.75,1.13932319219504,0.00530480051272886,8.87142031064352,-0.256968487928795,-1.13841011512375,-0.0459117301558167,-8.85090349306215,-0.655468144448656,1.61576024006771,273.905640695506,471.846505507708
0.76,1.16566464658027,0.11050015633269,6.40996533339037,-5.51257982432889,0.475148287260367,-1.07014880177954,7.9471261600694,-2.88433314490626,-2.62922438132929,282.325697762836,471.846505507708
0.77,1.2120104359683,0.0410329838193808,2.89082189173219,-2.03735768781669,0.645990264706196,1.0263282031407,-0.303740545680973,3.52355207691518,-0.527928189963841,290.740164922096,471.846505507708
0.78,1.06292807665323,-0.0551374055150731,9.14963069780321,2.76682526850245,-1.05737725575893,-0.121694571071955,-9.30514951269659,2.18752291850141,1.63355645538397,299.10237170512,471.846505507708
0.79,1.09703710790248,0.0694885684288398,6.34648080004364,-3.45641609991468,0.664969286942636,-0.875291337030323,6.76557528543605,-2.54000430278551,-2.42864728863558,306.865099062538,471.846505507708
0.8,1.0463406385277,-0.0328784496278399,7.71062173456979,1.66277530018652,0.123125240071245,1.03959121751864,2.7911943149913,7.37751608120854,-0.149299031101045,314.805696762148,471.846505507708
0.81,0.991955881029355,-0.0508034623974455,9.2917583583054,2.54907951462203,-0.780493028416918,-0.614319212049307,-9.05784376920876,-3.28482054511505,2.18644561408908,322.587976441681,471.846505507708
0.82,1.03543301651005,0.0674789285783515,6.0328846960654,-3.35499050924173,1.01705323614513,-0.205615301784445,6.42803721632303,2.51634588613893,-1.7051975902084,329.944614577045,471.846505507708
0.83,0.965937125268992,-0.0123974292321645,8.38606244909772,0.641049895734102,-0.661301634627877,0.704179220272076,-5.18899619670759,6.61901101672612,0.741173480855319,337.320760673834,471.846505507708
0.84,1.01035965526782,0.037686047827385,5.05511533789133,-1.87872434129051,0.0623173099313454,-1.0091399427615,2.36895581926503,-4.84477497478593,-3.04263572599425,344.571187111829,471.846505507708
0.85,0.933968085074913,0.0928934966682547,7.8135386313248,-4.65181564924267,0.522854800454395,0.779453939180212,-0.411562578041778,9.08412852298445,-0.491721054536326,351.55365050604,471.846505507708
0.86,0.959859247288318,0.0751888380539794,5.4768903361093,-3.74024878282523,-0.862278698412168,-0.428320653526562,-2.77938223453922,-6.02169603230857,2.10999896334425,358.264062997243,471.846505507708
0.87,0.907254011926561,-0.0362391829633093,7.04248527283483,1.83712743535149,0.904385207078383,0.0806877794742084,7.12410535349919,-1.48954991324923,-1.52173613820767,364.965158500123,471.846505507708
0.88,0.90955411015281,0.0187986437715911,5.87420285000942,-0.929515340630257,-0.833088228576849,0.365521643285604,-5.78262801993867,1.38977374940885,1.17799801134325,371.53434754485,471.846505507708
0.89,0.82750449574822,-0.0232776721776379,8.95127020908459,1.1690109872723,0.600196080958952,-0.570149283001426,5.48530528452804,-7.16960605472416,-2.35864923153412,377.911080512527,471.846505507708
0.9,0.813163960421444,0.0713020924508904,8.66138844976508,-3.57204835108512,-0.277204196131341,0.767774347424645,-6.88268051538096,6.3567199264565,0.433945031673606,384.144251412015,471.846505507708
0.91,0.812701968320373,-0.0480305924479865,7.69089527295497,2.43241820985449,0.153133022991426,-0.799588459391593,-1.41336313904718,-7.94159512216378,-3.01140031453647,390.122031470609,471.846505507708
0.92,0.823698202586528,0.00721789417658764,6.14744807031575,-0.336233724385283,0.113415571324997,0.815884633463363,0.459603349858055,6.13945727694575,-0.129361612061658,396.044610720508,471.846505507708
0.93,0.8200891244143,-0.0392737095179188,5.35236952664002,1.98791055923013,-0.241333897349222,-0.78475890962266,-3.68616304903226,-4.36025801038798,2.79539250052979,401.812816152766,471.846505507708
0.94,0.746113437926897,0.0462740794048568,8.06354416458995,-2.30567698267539,0.411569824001621,0.624048742207799,2.01461688909891,8.14114301759214,-0.521094619712075,407.540263312627,471.846505507708
0.95,0.800939815034224,-0.0208298810349665,4.36704589604397,1.051059221927,-0.471520575152413,-0.647770652668771,-3.49437573936174,-2.82226035976704,2.48637688818594,413.035600574344,471.846505507708
0.96,0.771496719412083,0.0580454393368378,4.90820478509428,-2.90562832044946,0.568281008684333,0.525007767809325,1.21883976218816,5.57203551524301,-0.749862353020991,418.365508989585,471.846505507708
0.97,0.721321258261659,-0.0343279662169809,6.48568435125587,1.7186286400932,-0.496566493029602,-0.524313346087108,-5.86881915851054,-3.25188369893105,2.33581263402745,423.627334439932,471.846505507708
0.98,0.593746935878723,-0.00387433560148169,11.9485963657776,0.189806031525673,0.432938899746117,0.406342642886944,8.89446078675476,7.9808238142913,-0.823602014667819,428.698250655642,471.846505507708
