t,iq,id,vq,vd,ia,ib,va,vb,theta_e,omega,r
0,0,0,0,0,0,0,0,0,0,0,0
0.01,0.000740071745386231,0.000411550693120794,-0.0364710156364936,-0.0206061912459863,-0.000341084636086776,-0.000775075114006881,0.0171321951851429,0.0382261427214634,-3.04864414881724,-0.00185465111471285,0
0.02,0.000815147234535661,0.000455232603185991,-0.0403016564403528,-0.0227933163472161,-0.00037762105447637,-0.000853875913813468,0.0189548923955142,0.0422429974814167,-3.04865723818023,-0.00179595776351039,0
0.03,0.000841293083756645,0.000471359569931236,-0.0416433030098447,-0.0236007999642085,-0.000391262695004886,-0.000881400817131479,0.0196349116520893,0.0436535529932556,-3.04866931775412,-0.00162017746227504,0
0.04,0.00082065924686546,0.000462099961510976,-0.0406864163730042,-0.0231371567132547,-0.000383966174932704,-0.000859992994391104,0.0192624811338935,0.0426575821937621,-3.04867924002401,-0.00135707067850818,0
0.05,0.000835411327523432,0.000471539053914909,-0.0414544469824776,-0.0236097764702849,-0.000392003672342854,-0.000875553702745381,0.0196621925191205,0.0434659741055105,-3.04868816460973,-0.00121433200072556,0
0.06,0.000833397775234221,0.000471790641138237,-0.041396370284753,-0.0236223836801188,-0.00039244770819283,-0.000873569148473762,0.019680467838787,0.0434091657271779,-3.04869587382434,-0.00104942915101897,0
0.07,0.000854808631445093,0.00048494311477382,-0.0424770906417079,-0.0242809150687512,-0.000403563130125856,-0.000896105139457747,0.0202361969498033,0.0445461827654015,-3.04870234540784,-0.000976126876477148,0
0.08,0.000830078191923213,0.000472147558230055,-0.0412980665166072,-0.0236402497270665,-0.000393121664257777,-0.000870292179983429,0.0197079054902115,0.0433127021364065,-3.04870810264915,-0.000787495782051172,0
0.09,0.000827760556762614,0.000471802390609804,-0.041209866202554,-0.0236229555026585,-0.0003929971112285,-0.00086795063551053,0.0196990738305759,0.0432231834705694,-3.04871289968887,-0.000681883501911789,0
0.1,0.000826373503545649,0.000471792005922788,-0.0411634674860442,-0.023622434202722,-0.000393118960493842,-0.000866566989398512,0.019703034724642,0.0431768557884441,-3.04871699074563,-0.000593476137276524,0
0.11,0.000825207938261649,0.000471790779798983,-0.0411247598146231,-0.0236223835237025,-0.000393228858742243,-0.000865404960654633,0.0197067247376753,0.0431382414252694,-3.04872048275146,-0.000518066544710152,0
0.12,0.000824213678128731,0.000471789937900807,-0.041091749867068,-0.0236223428774403,-0.000393322803504599,-0.000864413734829694,0.0197098740539533,0.043105311214911,-3.04872346352039,-0.00045369871692807,0
0.13,0.000864132847270457,0.00049440397901537,-0.0430590807886075,-0.0247546236226855,-0.000412140150901196,-0.000906256789333529,0.0206549676797809,0.0451691060262194,-3.04872643169467,-0.000504935247773784,0
0.14,0.000909867098179339,0.000521639172917383,-0.0454063343451597,-0.0261182726103208,-0.00043501928993612,-0.000954318490051773,0.0217951914393772,0.0476326462936121,-3.04872891072609,-0.000582668533680201,0
0.15,0.000824416298952898,0.000473127495240118,-0.0411416669884441,-0.0236893040362131,-0.000394642416892111,-0.000864736505255176,0.0197722474850448,0.0431610717857922,-3.04873110757527,-0.000296389017454618,0
0.16,0.000821270705460684,0.000471823392732773,-0.0409953951668096,-0.0236240091887358,-0.000393636858249925,-0.000861482971047532,0.0197208593863659,0.0430093471247301,-3.04873254701473,-0.0002577905169256,0
0.17,0.000820781635956175,0.000471788015541456,-0.0409778359039144,-0.0236222356718035,-0.000393648029382961,-0.00086099224996184,0.0197207739577054,0.0429916751012501,-3.04873376200758,-0.00023131709537512,0
0.18,0.00082043303024191,0.000471786782734208,-0.0409662101374738,-0.0236221883368442,-0.000393680018743369,-0.000860644623707624,0.0197218493884817,0.0429800745874998,-3.04873479869259,-0.000208923110467594,0
0.19,0.000820137909860699,0.000471786508779985,-0.0409564046787416,-0.0236221679195729,-0.000393707872173344,-0.000860350400968246,0.0197227762895111,0.0429702920267392,-3.04873568359232,-0.000189814036363244,0
0.2,0.000819885812480417,0.000471786295815826,-0.0409480238183245,-0.0236221669869412,-0.000393731685174972,-0.000860099072500121,0.0197235849155942,0.0429619322873442,-3.04873643894156,-0.000173502751359916,0
0.21,0.000819670902256716,0.000471786114565182,-0.0409408822203876,-0.0236221479021388,-0.000393751986213783,-0.00085988481743519,0.0197242557979672,0.0429548069686098,-3.04873708370658,-0.000159579461041758,0
0.22,0.00081948719887899,0.000471785959845295,-0.0409347716459231,-0.0236221483090075,-0.000393769338695022,-0.00085970167438325,0.0197248464266621,0.0429487119001398,-3.04873763407746,-0.00014769455446745,0
0.23,0.000819330670937922,0.000471785827762909,-0.0409295680173478,-0.0236221276783334,-0.000393784124520741,-0.000859545623508696,0.0197253285485538,0.0429435195086499,-3.04873810387347,-0.00013754961003941,0
0.24,0.000819196851525569,0.000471785715007042,-0.0409251141391976,-0.0236221279995709,-0.00039379676478304,-0.000859412212201178,0.0197257590565393,0.042939076936723,-3.04873850489074,-0.000128889895562995,0
0.25,0.000819082648094931,0.000471785618751461,-0.0409213118489698,-0.0236221282854365,-0.000393807552117441,-0.000859298357013542,0.0197261265895602,0.042935284300292,-3.04873884719856,-0.000121497971895701,0
0.26,0.000827589750896853,0.000476480536771621,-0.0413386034078728,-0.0238572051231579,-0.000397693687739765,-0.000868204024664499,0.0199215105307945,0.0433725695131527,-3.04873910604704,-0.000140135161084547,0
0.27,0.000798008179762537,0.000459888766590263,-0.0398943722231509,-0.0230264482612305,-0.000383916542765186,-0.000837211335801814,0.019228258906454,0.0418575239835422,-3.04873951542635,-4.82821323009252e-05,0
0.28,0.000793648030173068,0.000457026371540052,-0.0395910796656165,-0.0228831322396398,-0.00038147094110054,-0.00083260448063683,0.0191136909923032,0.0415422453273386,-3.04873974460721,-3.12564086214904e-05,0
0.29,0.000817982035587272,0.000471388719975292,-0.0408723183408178,-0.0236022502779098,-0.000393515209550813,-0.000858165319571713,0.0197109167488787,0.0428846404398243,-3.04873977612263,-9.92087915332155e-05,0
0.3,0.000814312904551438,0.000469494169479534,-0.0406906361025268,-0.0235073838238985,-0.000391968646771248,-0.00085433650375165,0.0196332857752301,0.0426949534528437,-3.04873933890126,-9.78947401752052e-05,0
0.31,0.00081870824662651,0.000471723847830678,-0.0409065601495347,-0.0236190265402461,-0.000393781353084963,-0.000858919569965087,0.019724435528604,0.0429202949786496,-3.04873953541557,-0.000106227687292716,0
0.32,0.000818784966516482,0.000471783716724096,-0.0409112986159582,-0.0236220269190037,-0.000393834014433367,-0.000859001435292571,0.0197269918185429,0.0429252874655183,-3.04873972610736,-0.000102505519876329,0
0.33,0.000818734907986622,0.000471785281115019,-0.0409096959955543,-0.0236221071214918,-0.000393840353925485,-0.000858951673059951,0.0197272272876583,0.0429236959597956,-3.0487398896035,-9.8987369754192e-05,0
0.34,0.000818688400066647,0.000471785285131892,-0.0409081415456951,-0.023622108741439,-0.000393844789999862,-0.000858905310881608,0.0197273790194787,0.0429221456026703,-3.04874002918638,-9.59735540468427e-05,0
0.35,0.00081864864423427,0.000471785252780877,-0.0409068102623424,-0.0236221088939567,-0.000393848546251858,-0.000858865676379853,0.0197275077208854,0.042920817717742,-3.04874014833463,-9.34006264697207e-05,0
0.36,0.00081861470916798,0.000471785224203947,-0.0409056722051356,-0.0236221090358425,-0.000393851751575673,-0.000858831844789257,0.0197276177469913,0.0429196825697002,-3.04874025003961,-9.12043674302278e-05,0
0.37,0.000818585779960525,0.000471785199784232,-0.0409047009466205,-0.0236221091685829,-0.000393854484106551,-0.000858803003743112,0.0197277116593094,0.0429187137947079,-3.04874033685474,-8.93296425638608e-05,0
0.38,0.000818561041704653,0.000471785178938607,-0.0409038679650259,-0.0236221092936701,-0.000393856820696007,-0.000858778340932032,0.0197277921974857,0.0429178829509937,-3.04874041096014,-8.77293792705272e-05,0
0.39,0.000818539912323756,0.000471785161144569,-0.0409031545936025,-0.0236221094121646,-0.000393858816392783,-0.000858757276005779,0.0197278611732422,0.0429171714156199,-3.04874047421627,-8.63633961148316e-05,0
0.4,0.000818521926156546,0.000471785145955457,-0.0409025464476114,-0.0236221095249196,-0.000393860515293176,-0.000858739344642033,0.0197279199893836,0.0429165648345576,-3.04874052821164,-8.51973942512025e-05,0
0.41,0.000818506501126414,0.000471785132989866,-0.0409020220322345,-0.0236221096329967,-0.000393861972152032,-0.000858723966702328,0.0197279706981556,0.0429160417789365,-3.04874057430201,-8.42020962206175e-05,0
0.42,0.000818493404402717,0.000471785121922473,-0.0409015761942178,-0.0236221097368179,-0.000393863209227522,-0.000858710909873136,0.0197280138274634,0.0429155970949151,-3.04874061364447,-8.33525108105582e-05,0
0.43,0.000818482170324168,0.000471785112475114,-0.040901191191965,-0.0236221098372351,-0.000393864270267212,-0.000858699710084144,0.0197280510655562,0.0429152130979083,-3.04874064722717,-8.26273055491875e-05,0
0.44,0.000818472624267785,0.000471785104411028,-0.0409008630188419,-0.0236221099345615,-0.000393865171950613,-0.00085869019311055,0.0197280828204352,0.0429148857819362,-3.04874067589333,-8.20082710607026e-05,0
0.45,0.000818464475195262,0.000471785097527354,-0.0409005811575464,-0.023622110029334,-0.000393865941678757,-0.000858682068865454,0.0197281100986836,0.042914604660852,-3.04874070036275,-8.14798638362134e-05,0
0.46,0.000818457715566295,0.000471785091651475,-0.0409003486775022,-0.0236220906078718,-0.000393866580506553,-0.000858675329583111,0.0197281132124539,0.0429143709694592,-3.04874072124968,-8.1028815953957e-05,0
0.47,0.000818451778384886,0.000471785086635953,-0.0409001401748891,-0.0236220906978264,-0.000393867141308832,-0.000858669410489674,0.0197281333992022,0.0429141630216086,-3.0487407390787,-8.0643801930937e-05,0
0.48,0.00081844671431839,0.000471785082354588,-0.0408999606927427,-0.0236220907870854,-0.000393867619646752,-0.000858664361846173,0.0197281507825052,0.0429139840206423,-3.0487407542976,-8.03151543445256e-05,0
0.49,0.000818442348743824,0.000471785078700027,-0.0408998036405424,-0.0236220908750519,-0.000393868031932119,-0.000858660009621513,0.0197281659892189,0.0429138273968422,-3.04874076728819,-8.00346210907509e-05,0
0.5,0.000818438681661189,0.000471785075580547,-0.0408996708456736,-0.0236220909617243,-0.00039386837835407,-0.000858656353678573,0.0197281788639253,0.0429136949632794,-3.04874077837703,-7.97951581841984e-05,0
0.51,3.1803058909946,0.0138975178072782,5.39491240815598,-0.690973790343147,-0.292142067252204,3.16688991185955,-1.20680938481899,5.30340794012014,0.0963583797867285,29.4020186687089,622.802656523697
0.52,3.04246803787263,0.0613533315075618,5.24214187472573,-3.06097835506262,-1.20997443483147,2.7921923035167,-4.96440188608692,3.49347303386351,0.429078109683982,61.1854827103609,622.802656523697
0.53,2.84256961497208,-0.0217939219360598,8.26735468564071,1.10945697265882,-2.39189877973389,1.53606549941836,-6.31531106391997,5.44948570401801,0.9922606605042,92.5264605097905,622.802656523697
0.54,2.73589356537557,0.0200722110864122,6.29422576005177,-0.995259156687386,-2.67575505923507,-0.570833914286152,-5.93111787076016,-2.33016297941128,1.78831760660767,124.719983795733,622.802656523697
0.55,2.53375659967277,0.0202759654062925,9.87885499697675,-0.998957305436457,-0.844115884378866,-2.38910066654751,-2.27184595368119,-9.66583714492023,2.80996581319683,153.203897785301,622.802656523697
0.56,2.46618616760192,0.0147298184221993,7.44210647766523,-0.705914364663942,1.90243379197519,-1.56940652731301,6.21492944271084,-4.15426478901762,-2.25459203107081,179.355207111823,622.802656523697
0.57,2.32925259657845,0.0277832958379288,8.11764435960711,-1.37689228367029,1.7521295722195,1.53500212779949,5.12204156876567,6.4464465000284,-0.839428696796996,206.317421295243,622.802656523697
0.58,2.14264320036334,0.00642469529895529,12.1344940286353,-0.285329728984469,-1.47146657003304,1.55748107341571,-8.56658878490398,8.59889033396666,0.760006786958403,229.960272149525,622.802656523697
0.59,2.0610974706449,-0.00219421895756744,10.7086538834105,0.128351232714244,-1.17208501436174,-1.69538913444798,-6.2045640761666,-8.72898199438886,2.53563997812082,253.922433465387,622.802656523697
0.6,1.96722551468566,-0.0157450277799878,10.5175814686076,0.812722648230726,1.91608076320088,-0.445935690903516,10.0338505678119,-3.25605295328028,-1.80746258048275,275.765621912479,622.802656523697
0.61,1.85926854170343,0.0157344688760189,11.1303591115292,-0.749463755796531,-0.520950377909419,1.78486352067458,-3.9264635664763,10.4417179493601,0.292445176745247,296.473610776878,622.802656523697
0.62,1.74472750375836,0.0107989920628158,12.2059790649714,-0.519603081071797,-0.994545512286354,-1.433551500502,-6.46667738270951,-10.3652301433366,2.54125404740506,316.724681829335,622.802656523697
0.63,1.65544088479564,-0.0389409689978727,12.3536306749341,1.95854662031236,1.60732934794727,0.398112156743394,12.4838508868251,0.77560476540904,-1.35151589249262,335.729305939181,622.802656523697
0.64,1.53322693425393,-0.0117045417106361,14.433883142932,0.600752504555295,-1.41863087108686,0.58172869949633,-13.0803229483624,6.13213158062438,1.17401098152998,353.440885449618,622.802656523697
0.65,1.51177367472618,-0.00890842831084626,11.624589023581,0.493976700521169,0.964419588700023,-1.16423101686124,6.98051219320107,-9.30846563448503,-2.45568052570405,370.231743401908,622.802656523697
0.66,1.41434979167416,0.00643984951670606,12.7644941858475,-0.276006245987376,-0.437644011294481,1.34495149512858,-4.26698713147229,12.0333416841794,0.31914467907498,386.331356293223,622.802656523697
0.67,1.3177426114218,-0.0200280837550756,14.0386286717569,1.04642060630032,0.108909126548369,-1.31338703977545,-0.0966506371312954,-14.0772422627128,-3.07405720720004,401.689405727937,622.802656523697
0.68,1.29671946995661,0.0227993967290583,11.7012546334283,-1.09834286625954,0.119194973618734,1.2914308942099,-0.224881602340664,11.7505380861099,-0.0744555203348826,416.275563032,622.802656523697
0.69,1.18145002469468,0.0698372023951149,14.2730863717345,-3.45401969901627,-0.202525059833934,-1.16605531422343,1.82364535075014,-14.5713954133046,3.02866697033026,430.024351414338,622.802656523697
0.7,1.14970329006094,-0.00126778866586913,12.8314626141883,0.109434766660529,0.0601275061424785,1.14813063083873,0.794471257853068,12.8073113574986,-0.0534248281581541,443.04012145684,622.802656523697
0.71,1.04158818824029,0.0223312087829513,15.3493532514014,-1.07074154224903,0.0808332416451739,-1.03868697104206,2.58415496783343,-15.1681005992453,-3.04249037628618,455.407714708127,622.802656523697
0.72,0.979019177692483,-0.0117393322985498,15.7227554887768,0.634340744366015,-0.337400427503964,0.919117682199958,-4.64273775924899,15.035039555607,0.33982902467792,467.187392478996,622.802656523697
0.73,0.930986345483995,0.00935464475659081,15.4897649542224,-0.475266808597685,0.566699593929756,-0.73869794577758,9.92544722229478,-11.9014366491551,-2.47715146727632,478.403453239291,622.802656523697
0.74,0.923542534376541,0.0222801528164348,13.3610242387835,-1.12045129374058,-0.798735126492948,0.464165289221913,-12.2500409347871,5.45058500594609,1.06849079820229,488.942536779684,622.802656523697
0.75,0.826624655026384,0.0230414450753329,15.8406507907641,-1.14597092045212,0.825860310124171,-0.0423553615290421,15.8631076697001,0.775423680938692,-1.59417086571753,498.874050518905,622.802656523697
0.76,0.79749276674612,0.0492586398421603,15.0783518781671,-2.43655779015576,-0.714252076227479,-0.358141170791933,-11.8121788616018,-9.68328145662004,2.09726880060451,508.206483339497,622.802656523697
0.77,0.786181527842026,-0.0195870352049272,13.5114994509894,1.02745444580867,0.307823430916994,0.723677954650155,6.53188181411805,11.8722702133456,-0.427084254429108,517.184408913376,622.802656523697
0.78,0.664907106907964,-0.024452410670727,17.5227142332248,1.20930210703285,0.19106283855732,-0.637333800238735,3.24119642343138,-17.2627509809436,-2.88709262788788,525.776337715226,622.802656523697
0.79,0.671793179321736,-0.0365945483963533,15.2183377925394,1.82972930684396,-0.583994698798673,0.334059019531857,-11.785709536367,9.80014108207349,0.996782264958389,533.850895151517,622.802656523697
0.8,0.608483660866301,0.00338478470599152,16.5304850849435,-0.140615245724663,0.593768352973682,0.133052490828553,16.078604110273,3.84124975183616,-1.34479371989547,541.480010171221,622.802656523697
0.81,0.563600690818083,0.0650303775494636,17.0402833561588,-3.2130305535522,-0.32279722528704,-0.466558292222777,-5.19079586816233,-16.5454060225584,2.6512203778935,548.681271300327,622.802656523697
0.82,0.521918840564443,0.0163275703719021,17.44560772313,-0.833070407081096,-0.19579110921889,0.484078203641951,-7.80594287598206,15.6240356806234,0.415620306171378,555.537517970109,622.802656523697
0.83,0.484916923889091,-0.0128292464742221,17.7170578193448,0.663586334645328,0.477739216160307,-0.0841085844708524,17.2290550947153,-4.18260028460758,-1.77151629622145,561.945244570622,622.802656523697
0.84,0.482028950570507,0.0135544083887225,16.3698833147497,-0.636569335251049,-0.345699146412424,-0.336195971636475,-10.9535422151156,-12.181880528013,2.37037105763628,568.037553467998,622.802656523697
0.85,0.483981044536027,0.0171049063587235,14.8243223092279,-0.869641295541873,-0.113866936219433,0.470706437312816,-4.82981780060813,14.0424238621298,0.272674240357504,573.854076613288,622.802656523697
0.86,0.457120202231328,-0.0137995145476084,14.8192374938936,0.72231515633496,0.44970005645353,-0.0831815190739613,14.331330008388,-3.83985927817297,-1.78387892884776,579.240327377579,622.802656523697
0.87,0.351023803968313,-0.0356123379512333,18.8270909074115,1.75736882431586,-0.187118299266164,-0.299119861671664,-12.9330436734175,-13.7943495157289,2.4814817990766,584.450593835153,622.802656523697
0.88,0.331950338455332,0.0136459344256027,18.5362429872329,-0.68133201353615,-0.147344101542676,0.297769969049162,-9.49398862142184,15.9348893140405,0.50058448027622,589.321855603514,622.802656523697
0.89,0.306929935850886,0.0685699866937665,18.6352129528091,-3.3938201280292,0.313086386077709,-0.0297446373219072,18.0662560909655,5.69206181568776,-1.44571987605973,593.870914283383,622.802656523697
0.9,0.326132101446181,-0.02016943719852,16.5503756987875,0.991802783883113,-0.0507496643847829,-0.32279006390445,-4.54319350236684,-15.9454696178314,2.92388161024179,598.259815414411,622.802656523697
0.91,0.298674792472171,-0.0134889775844373,16.8807212566773,0.70896724880728,-0.264563746778182,0.139264525509039,-14.2094113486835,9.14078846869476,1.04112578459064,602.283769092073,622.802656523697
0.92,0.255722410434889,-0.00761167203866858,18.032600032323,0.351564899287172,0.180461611869305,0.18134358381643,13.336225719465,12.1426251430086,-0.812717053525132,606.129443864266,622.802656523697
0.93,0.251753425162598,0.0258710724484916,17.28600552296,-1.27386438243667,-0.0764655603466425,0.241251150363286,-8.04854653755794,15.3508832331371,0.409341679387337,609.748812517223,622.802656523697
0.94,0.172075716890327,-0.0277507838969824,20.3720258141893,1.355849378311,0.164361831650224,0.0580116078625696,20.2869945971299,2.30122000831797,-1.3913893978459,613.154758814588,622.802656523697
0.95,0.263653440411876,0.0267504947131814,14.9309306723767,-1.32657789540225,-0.0336746881280568,-0.262858785259113,0.933471914568915,-14.9606527210747,3.11529205148356,616.37526879591,622.802656523697
0.96,0.157999498963972,0.0319818356873368,19.4007315473253,-1.63120453324994,-0.147920445668501,0.0640798036828299,-19.3167994655405,2.43114606899177,1.36171578836198,619.41588763138,622.802656523697
0.97,0.157692000960254,-0.0033972273136758,18.6325336929987,0.174106167903963,0.0538756323174331,0.148242114672809,6.90236556273714,17.307772081258,-0.370128834842387,622.288219980603,622.802656523697
