t,iq,id,vq,vd,ia,ib,va,vb,theta_e,omega,r
0,0,0,0,0,0,0,0,0,0,0,0
0.01,0.000653962585018021,0.000348404456430006,-0.0316320140470321,-0.0174351391138602,-0.000250005906885812,0.000697531199578874,0.0117009196175907,-0.0341709945523097,0.833662132226096,-0.00292289891370954,0
0.02,0.000746462046289042,0.000398052710341643,-0.0364156337667411,-0.019919675656026,-0.00028510397082149,0.00079647176508786,0.0135718691328655,-0.0392262186441041,0.833641624297557,-0.00267223687175843,0
0.03,0.000772434529878422,0.000417473458609073,-0.0378634312960934,-0.0208915397540326,-0.000291264919394927,0.000828313912910671,0.013989815057052,-0.0409192001079908,0.833624301030576,-0.00218081473307229,0
0.04,0.000742720228043992,0.000408231004349736,-0.0366017319791995,-0.0204290255830008,-0.000275467941788736,0.000801500656958428,0.0133660887785398,-0.0397288250633246,0.833611730680908,-0.00156385090837969,0
0.05,0.000753209556426402,0.000418435230157596,-0.0372204995000546,-0.0209396828850086,-0.000276366528551979,0.000816109195895516,0.0134805382140277,-0.040522968694537,0.833601938841943,-0.00126360547054046,0
0.06,0.000748262667669598,0.000419403758279334,-0.0370761423915142,-0.0209881380112392,-0.000272046915737075,0.00081350292434926,0.0133407872988851,-0.0404619038857611,0.833594453509133,-0.000964565371432308,0
0.07,0.00075960570415289,0.000428816573949874,-0.0376808759660769,-0.0214591836809302,-0.000274112890607063,0.000828098184443581,0.01347163860607,-0.041217228571196,0.833589144376605,-0.00083209719894296,0
0.08,0.000740956074487225,0.000420388473653676,-0.0368460965733793,-0.0210374220564479,-0.000265967682863785,0.000809322905132713,0.0131369521039459,-0.0403438774647969,0.833584772953819,-0.000572953729920674,0
0.09,0.000736058407720278,0.000419585802185306,-0.0366496954731033,-0.0209972536705776,-0.000262878857934205,0.000805437105565919,0.0130184281566209,-0.040182152360329,0.833581750821824,-0.000436668049863518,0
0.1,0.000733593943151852,0.000419508786203409,-0.0365591223032928,-0.0209934018098641,-0.000261104311774297,0.000803723978430289,0.0129538739819839,-0.0401184432897939,0.833579551991536,-0.000343402417958973,0
0.11,0.000731927625100695,0.000419500975809438,-0.0364994383183566,-0.0209930041122567,-0.000259874620174053,0.000802598466781495,0.012909890021349,-0.0400780483413229,0.833577937122937,-0.000275675706529943,0
0.12,0.00073072030736262,0.000419499876338069,-0.0364564078815477,-0.0209929517495974,-0.000258980579591999,0.000801786363836383,0.0128780204346482,-0.0400490984726433,0.833576749162295,-0.000225952861891893,0
0.13,0.000764726779611543,0.000438232411451487,-0.0380931771319625,-0.0219303872537274,-0.000271563130329723,0.000838515450154109,0.0134595525548774,-0.04184342808767,0.833575308967495,-0.000355855777399691,0
0.14,0.000787316774420659,0.000452243576230743,-0.0393186698994206,-0.0226315484329083,-0.000278867602377367,0.000864074543005649,0.0138954382948335,-0.0431863587458488,0.833574122398467,-0.000433779624764143,0
0.15,0.000734705722767838,0.000422613624579342,-0.0366902224178611,-0.0211487816638502,-0.000259835063099725,0.000806771662077854,0.0129462230259027,-0.0403216901468789,0.833573130316952,-0.000115572538476065,0
0.16,0.000728018457112367,0.000419794889817828,-0.0363720629851007,-0.0210077247629051,-0.000256779058548709,0.000800189439135679,0.0128054999032633,-0.0400033828286263,0.833573107095398,-7.8871256564877e-05,0
0.17,0.000727233106342294,0.000419526763258183,-0.0363337449255252,-0.0209943052007686,-0.000256377936783272,0.000799462975741155,0.0127861556464312,-0.0399676881363106,0.833573181280662,-7.73612996714755e-05,0
0.18,0.000727189216529056,0.000419501276188221,-0.0363308277720675,-0.0209930292927406,-0.000256362629838919,0.000799414585419707,0.0127848563290203,-0.0399647816725652,0.83357324765957,-7.95426857243408e-05,0
0.19,0.000727225887236911,0.000419498866772642,-0.0363319417311718,-0.0209929070581318,-0.000256391438523382,0.000799437440043281,0.0127857652188465,-0.0399654393755049,0.833573298029621,-8.15731264387271e-05,0
0.2,0.000727261801352369,0.000419498648794929,-0.0363331794385816,-0.0209928954104516,-0.00025641820343775,0.000799461411822247,0.0127866908601803,-0.0399662623055561,0.833573335293554,-8.3122225580674e-05,0
0.21,0.00072728939178361,0.00041949863632999,-0.036334140426896,-0.0209928954235983,-0.000256438660011624,0.000799479942797277,0.0127874034047173,-0.0399669079738796,0.833573362741364,-8.42692950129144e-05,0
0.22,0.000727309822672566,0.00041949864123204,-0.0363348487253306,-0.0209928954540123,-0.000256453798635834,0.000799493675595235,0.0127879285721022,-0.0399673838807416,0.833573382943348,-8.5114337511145e-05,0
0.23,0.000727324840249064,0.000419498646178329,-0.0363353641850533,-0.0209928954975382,-0.00025646492528341,0.000799503770777945,0.012788310751599,-0.0399677302326708,0.833573397810602,-8.57363215326013e-05,0
0.24,0.000727336016119947,0.000419498649945755,-0.0363357448728394,-0.0209928955503733,-0.000256473205422839,0.000799511283567456,0.0127885929910937,-0.0399679860433461,0.833573408751391,-8.61940541325587e-05,0
0.25,0.000727344165192465,0.000419498652730242,-0.0363360164029882,-0.0209928956105458,-0.000256479243058369,0.000799516761651823,0.0127887942965991,-0.0399681685168682,0.833573416802727,-8.65309010049592e-05,0
0.26,0.00073469191021081,0.000423456223234863,-0.0366847274691317,-0.0211909417096948,-0.000259258720192985,0.000807386086039039,0.0129138288082014,-0.0403492040261096,0.833573510726004,-0.000129347071246196,0
0.27,0.000715707827090539,0.000412579483686584,-0.0357845915543664,-0.0206466440306305,-0.000252515547086641,0.000786571943688105,0.0126133069482392,-0.0393411411917588,0.833573195752186,-1.60920285298048e-05,0
0.28,0.00071538284004859,0.000412297662495624,-0.0356395292595106,-0.0206325409263322,-0.000252464422376801,0.000786144824933225,0.0125153936755757,-0.039233183812452,0.833573228323781,-1.55354540110227e-05,0
0.29,0.000725853084517925,0.000418813622925033,-0.0362645962776708,-0.020958613781597,-0.000255835862355848,0.000798007244694193,0.0127589658083485,-0.0398947769304454,0.833573445245197,-7.95715065420737e-05,0
0.3,0.000718152473342357,0.000415107606552008,-0.0358865984164219,-0.0207731561487439,-0.00025262685202487,0.000790086687409101,0.0126038272820456,-0.0395033606181296,0.83357437537956,-7.21458092937357e-05,0
0.31,0.000726893301193959,0.000419081184823979,-0.036304103992444,-0.0209720066437454,-0.000256426767024551,0.000798904389741012,0.0127792445655574,-0.0399312401221545,0.833574267342028,-0.000115079237706221,0
0.32,0.000727832790999593,0.000419459134723475,-0.0363512668401993,-0.020990924715987,-0.00025686807653951,0.000799815809178661,0.0128014356597001,-0.0399769529400399,0.833574066614254,-0.000112808793169697,0
0.33,0.000727815064986754,0.000419495040172736,-0.0363523956346639,-0.0209927074053395,-0.000256830685753812,0.000799830517301275,0.0128010664341504,-0.0399790336393189,0.833573903245719,-0.000106765049279812,0
0.34,0.000727710291362255,0.000419498419054224,-0.0363488779407181,-0.0209928779820014,-0.000256750748630182,0.000799762617794413,0.0127983425951757,-0.0399767967742906,0.833573781001659,-0.000101752798685678,0
0.35,0.000727621350071999,0.000419498713310852,-0.036345723859382,-0.0209928942831938,-0.000256684632009003,0.000799703069420433,0.0127959929425509,-0.0399746897156437,0.833573690781504,-9.79913750427987e-05,0
0.36,0.000727554353055777,0.000419498721292311,-0.0363433247134542,-0.0209928959805318,-0.000256634973057815,0.000799658054683318,0.0127942129662865,-0.0399730790338986,0.833573624354912,-9.52139324113332e-05,0
0.37,0.000727504818336397,0.00041949870732345,-0.0363415432732072,-0.0209928961804792,-0.000256598270901174,0.000799624757945405,0.0127928920091097,-0.0399718822619854,0.833573575467256,-9.31687997596301e-05,0
0.38,0.000727468380340708,0.000419498695155322,-0.0363402282560347,-0.0209928963486977,-0.000256571273867396,0.000799600263293236,0.0127919169003197,-0.0399709988469538,0.833573539490345,-9.1663631970183e-05,0
0.39,0.00072744160481672,0.000419498686020985,-0.0363392576401353,-0.0209928964934963,-0.000256551435891352,0.000799582263893931,0.012791197160579,-0.0399703468113798,0.833573513014988,-9.05559604302505e-05,0
0.4,0.000727421872419693,0.000419498679281703,-0.0363385370879985,-0.0209928966212315,-0.000256536816193667,0.000799568999105695,0.012790662843603,-0.0399698627751814,0.83357349353178,-8.97408235817428e-05,0
0.41,0.000727407320504482,0.000419498674320487,-0.0363380004432744,-0.020992896736417,-0.000256526034724558,0.00079955921681177,0.0127902648944514,-0.0399695022927612,0.833573479194167,-8.91409649614472e-05,0
0.42,0.000727396668502547,0.000419498670669511,-0.0363376035053777,-0.0209928968421559,-0.000256518142657613,0.000799552056172442,0.0127899705333193,-0.0399692356706538,0.833573468643061,-8.86995296389078e-05,0
0.43,0.000727388752260672,0.000419498667982599,-0.0363373026623335,-0.0209928969412688,-0.000256512277558753,0.000799546734604134,0.0127897474307268,-0.039969033606268,0.833573460878626,-8.83746778803612e-05,0
0.44,0.000727382989702249,0.000419498666005487,-0.0363370795683794,-0.0209928970351579,-0.000256508008076613,0.000799542860815562,0.0127895819742337,-0.0399688837774066,0.83357345516469,-8.8135619839211e-05,0
0.45,0.000727378740543007,0.000419498664550455,-0.0363369101061619,-0.0209928971253773,-0.000256504859877548,0.000799540004385488,0.0127894562861565,-0.0399687699796286,0.833573450959911,-8.79596972975336e-05,0
0.46,0.000727375597329321,0.000419498663479502,-0.0363367797448321,-0.0209928972129163,-0.000256502531082149,0.000799537891409611,0.0127893595921569,-0.0399686824506264,0.833573447865767,-8.78302360983557e-05,0
0.47,0.000727373269022887,0.000419498662691642,-0.0363366781793406,-0.0209928972984814,-0.000256500806056667,0.000799536326242527,0.0127892842507982,-0.0399686142672702,0.833573445588561,-8.77349657498511e-05,0
0.48,0.000727371581000723,0.00041949866211168,-0.0363365998531596,-0.020992897382496,-0.00025649955539938,0.000799535191496222,0.0127892261394778,-0.0399685616973384,0.833573443912935,-8.76648564083696e-05,0
0.49,0.000727370358639845,0.000419498661685071,-0.0363365383403812,-0.0209928974653807,-0.000256498649739764,0.000799534369783501,0.012789180494213,-0.0399685204234585,0.833573442679916,-8.76132630223307e-05,0
0.5,0.000727369427317272,0.000419498661370924,-0.0363364866270911,-0.02099289754756,-0.000256497959731613,0.000799533743716532,0.0127891421173694,-0.0399684857324474,0.833573441772418,-8.75752955083007e-05,0
0.51,1.94315095243514,0.00017531106089165,4.46353504464347,-0.0056012373409918,-0.147548941092147,1.9375409581906,-0.344915387654348,4.45019211315415,0.0760962034291333,23.0487399275064,306.34107918738
0.52,1.85523189822018,0.0557314077195276,1.46771811102662,-2.78195124123364,-0.556784489321747,1.77058815607435,-3.10970388156443,0.472430874329867,0.334703335715793,47.2344224008319,306.34107918738
0.53,1.66258755973515,-0.039041540331247,4.03811695020258,1.96532250703175,-1.18048916018666,1.17139531258209,-1.38215833712738,4.27299887564556,0.765786684150157,70.2815820184074,306.34107918738
0.54,1.52990258731546,0.0203431961740338,3.59335188575791,-1.01363817467165,-1.49351250076305,0.332319398124156,-3.72462175006459,-0.258520681914153,1.36515075159181,93.0477731462707,306.34107918738
0.55,1.36218126434787,0.00846457929772193,5.91366669813079,-0.415051285225481,-1.16605310971384,-0.704222685923803,-4.82624555145005,-3.4425390721177,2.12031960488764,112.404267972994,306.34107918738
0.56,1.33181686751571,0.0211630792030695,2.11793321300043,-1.04109250130284,-0.198425828216725,-1.31712233115122,0.749616214746754,-2.237764559016,3.00795511341839,129.749338501092,306.34107918738
0.57,1.14632384881433,-0.0275757044624333,6.01553728313772,1.38499783308417,0.902486448806079,-0.707345032893064,3.76363611940106,-4.89284691802303,-2.25961563222591,146.899693200257,306.34107918738
0.58,1.06594179509289,-0.0175866832751697,5.56217717895724,0.899086757016296,0.956182331252662,0.471440930928465,5.4128950159786,1.56420571305337,-1.12922540161896,161.335852050739,306.34107918738
0.59,0.954651066742043,-0.0246564533961421,6.62211217726664,1.23884977607069,-0.12682525199054,0.946510409548322,0.522017106414569,6.71674151628482,0.107377111453745,175.696554916008,306.34107918738
0.6,0.895772298557846,0.0366045478498278,5.76458116638129,-1.81115371981985,-0.883413499363057,0.15273667840442,-5.95110382686423,-1.04644018581909,1.4404359974525,188.012775394195,306.34107918738
0.61,0.849550814266243,0.0291057574560996,4.38059343099731,-1.44403240313805,-0.261388338112233,-0.808863318389736,0.184956681744378,-4.60875464902261,2.86327704953057,199.693590948336,306.34107918738
0.62,0.774862353854328,-0.00190635271793399,4.74448000603175,0.0954145914243927,0.729617647433134,-0.26090877745966,4.43114093951136,-1.69828868160807,-1.91668285053553,210.504596546853,306.34107918738
0.63,0.677136200516593,-0.0292299550743272,6.65685773623452,1.48397902262045,0.197335807049264,0.6484029638889,3.61076349441081,5.78604663371055,-0.338575115146023,220.02736894121,306.34107918738
0.64,0.639160493304581,-0.000884055130597819,5.73615509823842,0.059481079590266,-0.6174505806506,0.165171723394369,-5.52380774632124,1.54743700729861,1.30802735696439,228.887760590625,306.34107918738
0.65,0.55501975849023,0.0226847204460419,7.32550208661587,-1.13267859363008,-0.0916588876105849,-0.54786875908219,0.211155179949127,-7.40954486506843,3.01667621343933,237.175547329965,306.34107918738
0.66,0.521082666942262,0.0352006990232267,6.6454470254606,-1.76657078402608,0.522268466627747,0.00137250343762303,6.50543852575083,2.22755652921638,-1.50071784124175,244.718033767575,306.34107918738
0.67,0.497795254731755,-0.00660846059748052,5.6773556409363,0.348436120493139,-0.1618515981519,0.470794910295977,-1.44334091731443,5.50186711945513,0.317851501383331,251.472985184672,306.34107918738
0.68,0.479100318478191,-0.0220419423575005,4.6014383964236,1.12334509780724,-0.378917014942791,-0.294015064538605,-4.4083307032176,-1.73255878281748,2.18471589983745,257.713934629719,306.34107918738
0.69,0.404213852060518,-0.00945377205202974,6.5073549514742,0.486727896708803,0.33512977285682,-0.226199574156429,5.02545447599173,-4.16261694365996,-2.18790308055335,263.415803147988,306.34107918738
0.7,0.367978962540324,0.0223018259468853,6.63503789145082,-1.11045931499926,0.108178469141635,0.352424895725303,0.480370317149893,6.71014843872012,-0.237292742979561,268.670719687153,306.34107918738
0.71,0.351426623827537,-0.0259959104871322,5.9080073151014,1.29966979433651,-0.341160520338425,-0.0882380794175114,-6.04506912953471,0.225457820331838,1.75005293446871,273.486707810373,306.34107918738
0.72,0.311091925560408,-0.00482676070632784,6.53904102028755,0.23463511194579,0.186911300228854,-0.248728063584626,3.65702468145704,-5.42588993437714,-2.51266667889843,277.777739207164,306.34107918738
0.73,0.273261184492862,-0.019961691812239,7.12659597229705,0.98876403020832,0.103896913069241,0.253526281764103,4.0608332147516,5.93933144905759,-0.461852562537614,281.792876896493,306.34107918738
0.74,0.238107579329935,-0.0267851182051,7.69154672236511,1.32915675632179,-0.236615745970313,-0.0377577892696934,-7.74474369114687,0.972365067061785,1.61701574370781,285.423802456074,306.34107918738
0.75,0.178815534055465,-0.041231778884834,9.56941263904801,2.05879220950982,0.132467541206812,-0.126993721640759,3.52097807370903,-9.1331811009511,-2.56172254875241,288.754811194521,306.34107918738
0.76,0.222381437844554,-0.00570539590416016,6.39316154643518,0.302691822445132,0.0883537978904235,0.20415597429067,2.96347870800898,5.67291202517455,-0.4340887497999,291.740799661656,306.34107918738
0.77,0.20168397202505,-0.0147329573269394,6.49786998695769,0.756034624570636,-0.19747902600859,-0.0435375572362214,-6.53909564500067,-0.184745409925378,1.71487158634779,294.532323883763,306.34107918738
0.78,0.166792092469045,0.0258933312352824,7.38884028765962,-1.27763160512969,0.0935920494572778,-0.140465636335187,5.93378102349858,-4.58448972952675,-2.39983120012813,297.073677046908,306.34107918738
0.79,0.163048279722608,0.00433924302059085,6.80201846909068,-0.199204687447793,0.0388355298069091,0.158415189218428,1.24856244937527,6.68941175077166,-0.213802089173116,299.338212488673,306.34107918738
0.8,0.146639112874589,0.0325675381320799,6.91111399066428,-1.61273103565638,-0.147252953651895,-0.0296688659274985,-5.66413416404895,-4.27574346248442,1.98816269790549,301.425293750307,306.34107918738
0.81,0.103391700489253,0.054756129718249,8.41832174873374,-2.72452489665895,0.0637294749454625,-0.0981153988676435,8.68105186186394,-1.71187486381059,-2.07849837153652,303.31212787625,306.34107918738
0.82,0.0741101108201693,-0.0233788762989142,9.28930453714429,1.18490682578648,-0.0342718451414929,0.0697446844811505,-0.227392311279811,9.36180942480543,0.151155485950658,305.011290216899,306.34107918738
0.83,0.0731249813556584,0.0375635161815781,8.7935811502905,-1.86532038695667,-0.0773002663699541,-0.0279812341636894,-4.62111141726381,-7.71050055845758,2.39264352223302,306.58290653175,306.34107918738
0.84,0.0999540830622142,-0.00762195294472038,6.93593784023136,0.396547478109508,0.100240154603232,0.000907905622635426,6.89378396191983,-0.860364058015691,-1.63784652597779,308.006227430812,306.34107918738
0.85,0.0372855064499349,0.0315780243372536,9.60022339243297,-1.56657642995202,0.00380075862508654,0.0487127790846113,-6.88640119779867,6.86992936196985,0.624840009206369,309.311644035178,306.34107918738
0.86,0.0944840117605992,-0.019459389518022,6.33986533123509,0.989091940049306,-0.00408765385048096,-0.0963804306111453,-2.50028742393833,-5.90937882368045,2.89609214960901,310.412168277399,306.34107918738
0.87,0.110987456210327,-0.0209126211937228,5.11688772959153,1.06250363148572,0.0899557535872527,0.068289937456267,5.05259235548657,1.33520204218066,-1.1077044295387,311.490241360478,306.34107918738
0.88,0.0613267277556321,0.0199646666727288,7.23796094508276,-0.983958592778809,-0.0490579299993058,0.0418673495309866,-7.06530312293628,1.85411567489016,1.17904181692892,312.425909478203,306.34107918738
0.89,0.0750578948533476,0.0234571816850726,6.21450490325167,-1.15809453572682,0.00219725682202602,-0.0786072453078007,3.11404642222788,-5.50126976492056,-2.81074342374893,313.302248483935,306.34107918738
0.9,0.0215172172238607,0.0191952959760451,8.59835840300918,-0.945515263366345,0.0272708712237298,0.00936747604029627,3.38426125021306,7.96068729006257,-0.511498334942788,314.051285716568,306.34107918738
0.91,0.0566362423740158,0.0256936979807113,6.56311863821417,-1.26957651175352,-0.0609061284585757,0.0125806829051427,-6.1219772114841,-2.68472452973108,1.79299735610795,314.743229818936,306.34107918738
0.92,0.0108233834599184,0.0265144011470161,8.59332470607637,-1.31128056112874,-0.00631902880797401,-0.0279325790543823,7.79453227245504,-3.8483701573151,-2.18083771075333,315.366200090002,306.34107918738
0.93,0.0046538806360002,-0.0273174787001715,8.66993081007147,1.38292766736702,-0.0276932312292909,0.000994078261249203,0.222221094211458,8.77671960187194,0.132862023732759,315.919331321935,306.34107918738
0.94,-0.0267898057133826,-0.00722665601770435,10.0299107667231,0.376859669339299,0.0226485926660578,0.0160299562571457,-6.68549941277823,-7.48633627354158,2.45019941242184,316.385537750333,306.34107918738
0.95,0.0392399880431606,0.00997218762551468,6.55645170011464,-0.482687342609957,0.0397541763469691,-0.00766985336495658,6.51720960243764,0.863727367024212,-1.5125215747022,316.761608683627,306.34107918738
0.96,0.025794568158865,0.0221105870299479,7.04833630782795,-1.0909087648943,-0.00346650655691902,0.0337967622354874,-5.86069486475181,4.06465033475706,0.810859416740166,317.14738155489,306.34107918738
0.97,-0.0084198838384751,0.00124834223010728,8.58802646556134,-0.0511239060594724,-0.00120789558139846,0.00842578129560229,0.00988364049562777,-8.58817294542927,3.13679063827439,317.482633981488,306.34107918738
