t,iq,id,vq,vd,ia,ib,va,vb,theta_e,omega,r
0,0,0,0,0,0,0,0,0,0,0,0
0.01,0.000651400803443136,0.00036206139640474,-0.0314925547770461,-0.0181113141254334,0.000610283002606677,0.000427745389481047,-0.0300507941420549,-0.0204144673495835,-0.45216842753019,-0.0024457173904973,0
0.02,0.000828399493549558,0.000454425614289957,-0.0401807110388671,-0.0227316118774508,0.000770709370098368,0.00054658524191433,-0.0380032837779357,-0.0262100389207968,-0.45218825886334,-0.0028830095389376,0
0.03,0.000898069925850904,0.000491488002765859,-0.0436388336505146,-0.0245855781867578,0.000834500623509492,0.000593041952936628,-0.0411824865294392,-0.0285096695948414,-0.452209245349829,-0.00287565855249446,0
0.04,0.000887528982402301,0.000486580193030688,-0.0432428516212835,-0.0243400736591001,0.000825491601028441,0.000585688992115566,-0.0407891823337992,-0.0282599718083873,-0.452228673031864,-0.00256898628261199,0
0.05,0.000905938413755494,0.000498825274153853,-0.0442261859505768,-0.0249526168023331,0.000844560832554645,0.000596881951282741,-0.0417703558206791,-0.028876045152218,-0.452246581044804,-0.00239870164796929,0
0.06,0.000907475348954105,0.000501618869450724,-0.0443923169659413,-0.02509236598864,0.000847755010220707,0.000597029682506729,-0.0419691286537406,-0.0289637165529258,-0.452263008551743,-0.00218114964000927,0
0.07,0.000916787230312671,0.000509135824988714,-0.044920922748142,-0.0254683784054362,0.000858594323339207,0.000602107882261149,-0.0425387665075906,-0.0292742368501678,-0.452277618270042,-0.00201942098489565,0
0.08,0.000904870209580715,0.000503967303660256,-0.0444258546952749,-0.0252098296452267,0.000848745597659769,0.000593636294205802,-0.0420902535390393,-0.0289413654336906,-0.452291165267678,-0.00178732655544309,0
0.09,0.000899566216021119,0.000502783091938037,-0.0442393379502924,-0.025150600890096,0.000845369566427469,0.000589372980975172,-0.0419558141745343,-0.0287989826967034,-0.452303206227613,-0.00160216797361546,0
0.1,0.000896175323509483,0.000502509616424122,-0.0441374453387531,-0.0251369068454133,0.000843647963534405,0.000586433490423506,-0.0418992757561243,-0.0287128692035236,-0.452313987578763,-0.00144180607510645,0
0.11,0.000893478788355549,0.000502444533675964,-0.0440626052098207,-0.0251336607129279,0.000842416560165499,0.000584028418675912,-0.0418639244556702,-0.0286465688674758,-0.452323661376509,-0.00129930143187093,0
0.12,0.000891146054055967,0.000502427329438386,-0.0439996411101571,-0.025132788835856,0.000841386603164244,0.000581930489871293,-0.041835869689576,-0.0285899545261473,-0.452332346570299,-0.0011717118476435,0
0.13,0.000921829805861105,0.000520775578302033,-0.0455165895229273,-0.0260506219377246,0.000871305266012423,0.000601501893055009,-0.0433246422845538,-0.0295528373605033,-0.452340518747591,-0.00118305232354315,0
0.14,0.000938692803698229,0.000531440810806572,-0.0464617176151394,-0.0265841387699744,0.000888272856078062,0.000612000693022901,-0.0442178198536403,-0.0301693892096149,-0.452348124270011,-0.0011468775630442,0
0.15,0.000898266455896438,0.000509046820412558,-0.0444689311286154,-0.0254639291181671,0.000850465760774327,0.000585422309885289,-0.0423394736956975,-0.0288663556589313,-0.452355086806663,-0.000890511995564949,0
0.16,0.000886957490529456,0.000503928285719112,-0.0439587064648731,-0.025207883862155,0.000840922346363568,0.000577483259099781,-0.0418863317662883,-0.0285191250573575,-0.452360762884936,-0.000768026188887909,0
0.17,0.000883154713683639,0.00050275736813869,-0.0438042457415791,-0.0251493191452107,0.000838209890890124,0.000574570620840762,-0.0417662850019228,-0.0284055916254964,-0.452365713594677,-0.000685415407516223,0
0.18,0.000881354704613182,0.000502488622294365,-0.0437427465721925,-0.0251358715318766,0.000837183929014673,0.00057306544118332,-0.0417274340694674,-0.0283559722338049,-0.452370122178915,-0.000618189736361164,0
0.19,0.000880148722252108,0.000502426144988717,-0.0437071409538629,-0.0251327345905365,0.000836602862166643,0.000572004768743078,-0.0417091613710273,-0.0283251544759212,-0.452374071698667,-0.000559589043286834,0
0.2,0.000879169979813988,0.000502410908815832,-0.043680148218418,-0.0251319748862502,0.000836163372534933,0.000571128172247076,-0.0416967798130096,-0.0283010611689998,-0.452377616029953,-0.00050741427512168,0
0.21,0.000878317607159486,0.000502406564742973,-0.043657175504969,-0.025131750173019,0.000835788703934008,0.000570360778559949,-0.0416866262062903,-0.0282803648379532,-0.452380798289126,-0.000460674725791005,0
0.22,0.00087755870936224,0.00050240479709676,-0.0436368558836032,-0.0251316741028649,0.000835457021629542,0.000569676604340789,-0.0416777566781574,-0.0282620033418594,-0.452383655857425,-0.000418730853476895,0
0.23,0.000876879032238654,0.00050240369687541,-0.0436186936287461,-0.0251316239194446,0.000835160398251526,0.000569063635287153,-0.0416698451090351,-0.0282455830758694,-0.452386221963647,-0.000381071915274692,0
0.24,0.000876269146110203,0.00050240281990452,-0.0436024040835939,-0.0251315792868139,0.000834894330450513,0.00056851355907692,-0.0416627496500741,-0.0282308556532329,-0.452388526361254,-0.0003472554148444,0
0.25,0.000875721600391016,0.000502402057526647,-0.0435877802612964,-0.025131537321319,0.000834655479752468,0.00056801969940979,-0.0416563780067839,-0.0282176350461168,-0.452390595747563,-0.000316888090183694,0
0.26,0.000880937749896194,0.000505698015422141,-0.0438476717116331,-0.0252963996273697,0.000839900946665625,0.000571268939978578,-0.0419183085518964,-0.0283792451764798,-0.452392345898035,-0.000313901054564982,0
0.27,0.000868083094443964,0.000498315017960463,-0.0432422508736936,-0.024927097231937,0.000827642728039316,0.000562933060592451,-0.0413215698867105,-0.0279960764953162,-0.452394274491353,-0.000236268454063061,0
0.28,0.000866921360020169,0.00049795342671528,-0.0431038159406579,-0.0249089935520609,0.000826810539598122,0.000562045008203232,-0.0412448166113471,-0.0278794191316654,-0.452395778694898,-0.00021114258231928,0
0.29,0.000872139557435373,0.00050138363029709,-0.0434519995673815,-0.0250805839620003,0.00083217734854315,0.000565237837503073,-0.0415513782824414,-0.0281175198249797,-0.452396997487634,-0.000215399781638014,0
0.3,0.000859253351715001,0.00049475976217453,-0.0428367099028563,-0.0247492469858345,0.000820587222365291,0.000556543039837241,-0.0409844283651928,-0.0277089439215154,-0.452397439231225,-0.000157887509305958,0
0.31,0.000869936272663073,0.000500653502455461,-0.0433541266483873,-0.0250440656236335,0.000830558344027873,0.000563574205567925,-0.0414757899419963,-0.0280453983586018,-0.452398380692123,-0.000187759492775626,0
0.32,0.000872447958219678,0.000501999948361035,-0.0434801920715802,-0.0251114160496143,0.000832867827197263,0.000565243814982417,-0.041591499587336,-0.0281292993278354,-0.452399389450269,-0.000184060761706457,0
0.33,0.000872903645549171,0.000502307353350951,-0.0435073475428072,-0.0251267897813893,0.00083334403551157,0.000565518496709666,-0.041617223731144,-0.028146963314728,-0.45240033684189,-0.000172980718779337,0
0.34,0.000872855049248353,0.000502377360918288,-0.0435098424439621,-0.0251303053729615,0.000833386244689666,0.000565443469255437,-0.0416215004853386,-0.0281476346250563,-0.452401198166498,-0.000161058625494142,0
0.35,0.000872695335919502,0.000502393146375686,-0.0435065314997556,-0.0251310886105117,0.000833331065974902,0.000565292276032538,-0.0416207794726783,-0.028144282083139,-0.452401974332733,-0.000149851140283991,0
0.36,0.000872522466411505,0.000502396563438203,-0.0435021483564635,-0.0251312520950908,0.000833258967618661,0.000565134722194996,-0.0416190301530575,-0.0281402393844412,-0.452402672024811,-0.000139659222300612,0
0.37,0.000872359426837145,0.000502397173631073,-0.0434978362904856,-0.0251312937456566,0.000833188601387624,0.000564987295593323,-0.0416172003232339,-0.0281363168261268,-0.452403298737836,-0.000130474321293467,0
0.38,0.000872211411646503,0.000502397159826813,-0.0434938856111656,-0.0251312825158527,0.000833124205264661,0.000564853707972746,-0.0416154791036719,-0.0281327450743899,-0.452403861580837,-0.000122217890672557,0
0.39,0.000872077708650085,0.000502397019051495,-0.0434902973452455,-0.0251312832800795,0.000833065918664374,0.000564733096104783,-0.0416139254747192,-0.0281294964239672,-0.452404367034764,-0.000114801381271514,0
0.4,0.00087195762624625,0.000502396863287255,-0.0434870721504835,-0.0251312839748055,0.000833013543323965,0.000564624784125458,-0.0416125290394072,-0.0281265764960502,-0.452404820943988,-0.000108140695959083,0
0.41,0.000871849890738787,0.00050239671669413,-0.0434841785842125,-0.0251312638211049,0.000832966547201885,0.000564527611520329,-0.0416112575133487,-0.0281239658751649,-0.452405228563174,-0.000102159150331907,0
0.42,0.000871752974983879,0.000502396583509908,-0.0434815693190097,-0.0251312643996275,0.000832924269239775,0.000564440198982194,-0.041610127739317,-0.0281216036222253,-0.452405594612167,-9.6787584678906e-05,0
0.43,0.000871665954531273,0.000502396463550482,-0.0434792243703688,-0.0251312649272864,0.000832886307580855,0.000564361711601058,-0.0416091124089911,-0.0281194806714184,-0.45240592333078,-9.19638172004538e-05,0
0.44,0.000871588021345861,0.000502396355738908,-0.0434771268063269,-0.025131244629197,0.000832852310204961,0.000564291419923773,-0.0416081855435034,-0.0281175907169048,-0.4524062185256,-8.76319884591248e-05,0
0.45,0.000871517822901161,0.000502396258898822,-0.0434752300893236,-0.0251312421616432,0.000832821686766064,0.00056422810515078,-0.041607361663738,-0.0281158748626054,-0.452406483615785,-8.37419308572944e-05,0
0.46,0.000871454725797067,0.000502396171926839,-0.0434735215299929,-0.0251312425677373,0.000832794161135891,0.000564171195523798,-0.0416066218571849,-0.0281143281059753,-0.452406721671209,-8.02485917913809e-05,0
0.47,0.000871398147950961,0.000502396093820351,-0.0434719890342518,-0.0251312429401547,0.000832769479530616,0.000564120165656767,-0.0416059583000585,-0.0281129407256689,-0.452406935449161,-7.71115129298739e-05,0
0.48,0.000871347274455594,0.000502396023676171,-0.0434706071519033,-0.025131243283097,0.000832747286320068,0.000564074280953655,-0.0416053599408492,-0.0281116897269035,-0.452407127425412,-7.42943619121808e-05,0
0.49,0.000871301879352251,0.000502395960683432,-0.0434693783023379,-0.0251312228253897,0.000832727483261246,0.000564033336687809,-0.0416048092182718,-0.0281105862728325,-0.452407299823418,-7.17645116336138e-05,0
0.5,0.000871260901159188,0.00050239590411322,-0.0434682617613537,-0.0251312231181971,0.000832709606821921,0.000563996376818984,-0.0416043257577441,-0.0281095754897452,-0.452407454639819,-6.94926623819422e-05,0
0.51,4.62838557688736,-0.014570110988778,4.4402884185975,0.735985918970007,-0.385854157387531,4.6122968145708,0.377373278100647,4.48502239930068,0.0803153764465372,24.6948674029849,552.419107077886
0.52,4.4401990079243,-0.031092384502214,3.42920109284361,1.57021953904624,-1.59613216393498,4.14351252943661,0.258942826624057,3.76270622670736,0.360691398334263,51.6382106493281,552.419107077886
0.53,4.18949843464635,0.0392466927818631,5.6495228109009,-1.94164188669089,-3.08395331251708,2.8359600496152,-5.49499174822267,2.34353299400859,0.836632651060347,78.2870955187603,552.419107077886
0.54,3.98389346575814,0.0436399466536652,5.14576291062866,-2.16074545888368,-3.97420617105606,0.281063874224848,-5.26542453254425,-1.85013549843495,1.51114552227855,105.741287135088,552.419107077886
0.55,3.81780194175797,-0.0243294025587752,3.86472389187647,1.24609549670395,-2.62404946479466,-2.77318733457202,-3.57372932363693,-1.92803098230401,2.37744719003925,129.955829862674,552.419107077886
0.56,3.66609953290273,-0.0208477019501689,2.74342783982189,1.08039204254847,0.999644993223232,-3.5272411739701,-0.308088286407991,-2.93235824647843,-2.87111395796925,152.45476499995,552.419107077886
0.57,3.4366588178912,0.00815104012855583,5.07894462852948,-0.374918788816628,3.4199825538543,-0.338244883740678,5.09147177427365,-0.114707496053863,-1.6670064574834,175.508653426053,552.419107077886
0.58,3.27741261565098,0.068654948240533,5.12548587233155,-3.39148494882162,1.05293740682295,3.10442744680224,-1.68959364177102,5.90914959289751,-0.306052004225904,195.886648557272,552.419107077886
0.59,3.09341463763669,0.0158645470291613,6.18713830793489,-0.755073252209132,-2.88590058326183,1.11402137669186,-6.05166683153985,1.49269709511259,1.20752608672138,216.365581938003,552.419107077886
0.6,2.97647236258108,0.004571588389082,4.55789249317607,-0.193644322247946,-0.824219481339275,-2.86008231895696,-1.06924910779729,-4.43492823486067,2.86255045721773,235.604863858978,552.419107077886
0.61,2.86984751470127,0.0199831160363687,2.89206787186573,-0.950566646217776,2.86405284253623,-0.183372292682784,2.94150446956724,0.784337287074667,-1.6277714972689,253.286060636568,552.419107077886
0.62,2.748585321828,0.023280346507669,2.02403833949506,-1.11893633071678,-0.776865453546049,2.63661588271567,-1.65907958183596,1.61127423273597,0.295006392445135,270.725202024541,552.419107077886
0.63,2.54859543386706,0.0674151097639339,5.46769684413484,-3.33346103600085,-1.87667678940952,-1.72567891296269,-1.60507601681185,-6.19930659333392,2.3407482881789,287.34250812771,552.419107077886
0.64,2.4087964945971,0.0108441134786155,6.29123718517169,-0.507202431793103,2.35426837521734,-0.509743626376927,6.2597898572003,-0.807434561185088,-1.77952198500654,303.003550956497,552.419107077886
0.65,2.28756820641528,-0.0527719514631709,6.53066847783461,2.67364638301369,-1.13310889574937,1.98791785751748,-0.749562934788073,7.0168490902667,0.495001975541486,317.817327141681,552.419107077886
0.66,2.15261258009925,-0.0187910186638433,7.71565911109869,0.972354417404255,-0.54735815395489,-2.08194454145231,-2.96509922360153,-7.18923189401506,2.87577425687393,331.86389164267,552.419107077886
0.67,2.06254459196809,-0.00335342585282705,6.89825893512525,0.199494077231678,1.6459878120985,1.242910118128,5.63177099708663,3.98859996230003,-0.925655501979338,345.276590695261,552.419107077886
0.68,1.98409036222045,-0.00778106156094807,5.74193484061621,0.420216043635694,-1.97692032476999,-0.168704297178238,-5.75709932587773,-0.0469530530354234,1.65200529050332,358.033109088029,552.419107077886
0.69,1.85404512924156,-0.0195887403647799,7.38147788534582,1.0087873500935,1.72127892896785,-0.689250251145917,6.43827027663473,-3.74867223621375,-1.96223761574004,370.190593482943,552.419107077886
0.7,1.78886824078857,-0.0415550622129514,6.01366896855883,2.10792637980474,-1.30425361035795,1.22503017349197,-2.80812634383433,5.72031419793946,0.793484775513048,381.750415481123,552.419107077886
0.71,1.74424663164385,0.00532060111504618,3.85021116169855,-0.234301448976963,0.816388073810079,-1.54140686833094,2.01915669213296,-3.28664409562026,-2.65146615339897,392.699005525697,552.419107077886
0.72,1.5924631983492,0.0366539902721342,7.28821997317516,-1.79887675438648,-0.381841154087966,1.54644103868987,-3.64550674984653,6.56234626423238,0.265087150391777,403.032577985953,552.419107077886
0.73,1.58468894387149,0.0224232099211713,3.73599588474102,-1.0789884070504,0.158616034796121,-1.57689023165129,1.49840054307806,-3.58840870663507,-3.02719301402515,412.87207642304,552.419107077886
0.74,1.44494993589876,0.00827375313584278,6.96814042482299,-0.369731748442906,-0.0415002862565647,1.44437754707189,-0.609519497221115,6.95127100092971,0.0344503119403044,422.275893774658,552.419107077886
0.75,1.38169623074827,0.0352441361016363,6.4891267575533,-1.74270667907376,-0.00496523614859647,-1.3821367405664,1.88445332271783,-6.44938976333267,-3.1196827270578,431.368864311551,552.419107077886
0.76,1.3425126169584,-0.0263942118217048,4.97982145128956,1.34657766936355,-0.124990389074425,1.33694210186874,0.976945528368787,5.06532037890521,0.0735610212415081,439.859494031094,552.419107077886
0.77,1.27991045459644,0.045414164012453,4.84982757062703,-2.23454313733114,0.192175428464892,-1.26621555146529,3.09326617835369,-4.35266755533442,-2.95550322498136,447.915496343246,552.419107077886
0.78,1.142720865287,-0.000453569207625321,8.61376758673283,0.0576552488807753,-0.399145703515468,1.07074454892492,-2.95150273574252,8.09252419007056,0.356420741004391,455.615215376586,552.419107077886
0.79,1.14234892954583,0.0519680668688559,5.62892891073616,-2.58141940790357,0.584178849587236,-0.983054845114719,5.24944547887444,-3.28510106479958,-2.55995199899924,462.96103958779,552.419107077886
0.8,1.05154218567975,-0.027090979144916,7.35708369706847,1.38743448694261,-0.813930253892679,0.666327570503708,-4.66459777894004,5.85603812674884,0.859026414605426,469.814160244943,552.419107077886
0.81,0.964169551795585,-0.0065058524290415,9.05528395325601,0.342787613852394,0.896081712139819,-0.355953390058442,8.26418253582043,-3.71738588754881,-1.95566276326894,476.446377412682,552.419107077886
0.82,0.991843509013891,-0.00946733658463061,5.06088132154679,0.493071376310096,-0.991887917496872,0.00123933801395668,-5.05526418710183,0.547670641465446,1.56000195161407,482.732706608183,552.419107077886
0.83,0.912907959563839,-0.0199049607001448,6.6012453456665,1.03007979045154,0.830109464114009,0.38041481002169,6.46824982042573,1.6730955588199,-1.16288629727027,488.599244463326,552.419107077886
0.84,0.80851417289695,0.0228643605220161,9.49331660562722,-1.13640167522438,-0.539556595256809,-0.60257499721794,-5.26261770149808,-7.98243846640921,2.43958667520679,494.250246134033,552.419107077886
0.85,0.79945673666404,0.054166086615881,7.76476625523203,-2.68259831087069,0.212820321823527,0.77251054967277,-1.07695040998956,8.14420692948673,-0.201173148463266,499.506625447435,552.419107077886
0.86,0.780382968091241,0.0212534974284245,6.62952962528899,-1.05834970006851,0.23833658858996,-0.743400940663337,3.19374305480634,-5.90514796089783,-2.80411482472438,504.599300982407,552.419107077886
0.87,0.704350686989929,0.041828811819357,8.43000682598164,-2.07152978673931,-0.531448513013104,0.464135775153742,-7.93476215640083,3.52076699950373,0.912223388825041,509.33676181816,552.419107077886
0.88,0.691497987078001,-0.0378217391717949,7.20133046460607,1.89459210317723,0.692523767252095,0.0032835769936489,7.09786684628222,-2.25142753166355,-1.62069582471748,513.861145836358,552.419107077886
0.89,0.653645397753628,0.0552529918468218,7.27409128140945,-2.74571777760916,-0.573522545568891,-0.318397689747747,-4.50958993958016,-6.33363786945491,2.16192378721038,518.153907542362,552.419107077886
0.9,0.658152387821372,0.00113805070937067,5.3340757519525,-0.0555736534446899,0.200518552561098,0.626863757792068,1.56337628546328,5.10012815021112,-0.307861128509728,522.283690279524,552.419107077886
0.91,0.580401385590871,-0.0372765128266744,7.56397696169162,1.88256380172889,0.256866440534046,-0.521799711126491,1.16003516024725,-7.7079252961852,-2.7482853089938,526.144827303932,552.419107077886
0.92,0.546446317456455,-0.0133054396147531,7.71433701946326,0.663111678740593,-0.54639822868871,-0.0151521705013854,-7.71653405917859,0.637035997319034,1.57417600075738,529.825768315327,552.419107077886
0.93,0.526550099176425,0.0475493453874681,7.21881182943019,-2.35953347339827,0.41497190193641,0.327588564807685,3.61815955412418,6.67739199700812,-0.812478552653371,533.279658591919,552.419107077886
0.94,0.47375719826175,-0.0375694641440656,8.44495816492605,1.87557549304052,0.0220464415028956,-0.47473287431771,-2.15091798642107,-8.37906042782457,3.10886350358557,536.601382158752,552.419107077886
0.95,0.48541689362769,0.0688528501487276,6.51844284976218,-3.4225012114747,-0.28870692382308,0.396255710027469,-6.99604953710974,2.29322973172513,0.770558400784022,539.688958616252,552.419107077886
0.96,0.457433307976742,0.0550854922577532,6.60944082072297,-2.75612734187001,0.458684171064137,-0.0434565750954823,6.53735159146352,2.92300873362224,-1.54541029738313,542.714100219377,552.419107077886
0.97,0.419174686892701,0.00891790318100857,7.30421441908066,-0.424385826241703,-0.276361494569369,-0.315295530333248,-4.3716289976478,-5.86689965112286,2.44317652698056,545.509921429814,552.419107077886
