t,iq,id,vq,vd,ia,ib,va,vb,theta_e,omega,r
0,0,0,0,0,0,0,0,0,0,0,0
0.01,0.000541416708010572,0.000307794916221717,-0.0261936331021339,-0.0154030112323931,-0.000203604868933946,0.000588570148335209,0.0095124746511227,-0.0288595217584454,0.849980566882257,-0.00167230929129816,0
0.02,0.00061940333576574,0.000351376624200557,-0.0300637975073586,-0.0175839779078369,-0.000233421209524958,0.000672785674146092,0.0109801453836659,-0.0330524523595499,0.84996770174123,-0.00184159400484306,0
0.03,0.000649529996955881,0.000368441227714605,-0.0315420884602933,-0.0184379350819704,-0.000244781961986926,0.000705492697560494,0.0115266443625945,-0.0346698321925877,0.849954362403624,-0.00185535766511773,0
0.04,0.000634710857207662,0.00036027267871603,-0.0308650218128876,-0.0180291559407719,-0.000239031781546467,0.000689578191866036,0.011287372186344,-0.0339160030748561,0.849941771747205,-0.00173043669621407,0
0.05,0.000650184924789733,0.000369272068911078,-0.0316386032086205,-0.0184795253996633,-0.00024470801040728,0.00070655522568601,0.0115708349422933,-0.0347650665284498,0.849929457479663,-0.00170380682297749,0
0.06,0.000651299632910964,0.000370114879119975,-0.0317231231407983,-0.0185216961856211,-0.000244980707600951,0.000707927036126808,0.0116060801988897,-0.034852670971041,0.849917557814153,-0.00163395115271274,0
0.07,0.000665400604349149,0.000378455740312163,-0.0324280722256262,-0.018939100310784,-0.000250060248100316,0.000723502995130945,0.0118597502751369,-0.0356316672675271,0.84990631891769,-0.0016095772228627,0
0.08,0.000652036594838173,0.000370973186135926,-0.0318165383839373,-0.0185646497881246,-0.000244952043462287,0.000709063694066795,0.0116471277144194,-0.0349468561174861,0.849895320276727,-0.00149911640636752,0
0.09,0.000650369696782961,0.000370268890546561,-0.0317638332399202,-0.0185293994302984,-0.000244157379784505,0.000707436900152167,0.0116304399983622,-0.0348857078297904,0.849884931198965,-0.00142971087839923,0
0.1,0.000649868189900543,0.000370201039015236,-0.0317657084458049,-0.0185260072498536,-0.000243818425579704,0.000707057316545415,0.0116337420411531,-0.0348845126640092,0.849875021473169,-0.00136697842276127,0
0.11,0.000649496487962576,0.00037019301627083,-0.0317726310455798,-0.018525606590417,-0.000243537811628789,0.000706808242367388,0.0116388766291033,-0.034888891268052,0.849865559401639,-0.00130742125945648,0
0.12,0.000649152027394861,0.00037019068450731,-0.0317797422876125,-0.0185254853556897,-0.000243274210516428,0.00070658131596049,0.0116439832765004,-0.0348935994272233,0.849856523819715,-0.00125058211258125,0
0.13,0.000677900869606582,0.000386748230216374,-0.0331804607439412,-0.0193540866727585,-0.000253933853369828,0.00073799822540546,0.01214890530894,-0.0364407429385198,0.849847593266166,-0.00128715162275167,0
0.14,0.000699069935823201,0.000399193473760885,-0.0343220730410772,-0.0199768766896381,-0.000261614007433763,0.000761322740879047,0.0125950354102381,-0.0376622540898031,0.849838996094313,-0.00130160998602554,0
0.15,0.000653142442786443,0.000372908817577493,-0.0320383796057867,-0.0186615159293247,-0.000244459179846962,0.000711263485766447,0.0117475676813076,-0.0351668110313976,0.849830712335452,-0.00110407265503601,0
0.16,0.000648374662092576,0.000370439827001171,-0.0318295673299596,-0.0185379555894447,-0.000242502275184223,0.000706263417148867,0.0116720155605773,-0.034936244884107,0.849823203301147,-0.00104254745886967,0
0.17,0.000647663186464696,0.000370206783916974,-0.031814108754586,-0.0185263017123908,-0.00024211664404996,0.00070562043382667,0.0116678475472015,-0.0349173696690118,0.849816072091945,-0.000996286427087604,0
0.18,0.00064736144712183,0.000370183714572194,-0.0318174301857063,-0.01852513702151,-0.000241900417418428,0.000705405566895334,0.0116708736510511,-0.0349187667810479,0.8498092661074,-0.000953337630407883,0
0.19,0.000647110347402321,0.000370180411668988,-0.0318223738539387,-0.0185249742224457,-0.000241709399785591,0.000705238899206406,0.0116744676230906,-0.0349219838119132,0.849802767196472,-0.000912444842322149,0
0.2,0.000646874148941127,0.000370179015554891,-0.0318272644894569,-0.0185249030969186,-0.000241528525121912,0.000705083427459424,0.0116779714308163,-0.0349252313219699,0.849796561177935,-0.000873406628041894,0
0.21,0.000646648833261302,0.000370177847224579,-0.031831944202062,-0.0185248561309573,-0.000241355873684924,0.000704935241261078,0.0116813105849885,-0.0349283545185411,0.849790634819872,-0.000836128725554463,0
0.22,0.000646433938811412,0.000370176746865883,-0.0318364245695593,-0.0185247952088025,-0.000241191195145526,0.000704793919207393,0.0116845185085107,-0.0349313325558242,0.849784975516997,-0.000800530760772085,0
0.23,0.000646228588357939,0.000370175697388657,-0.0318406943402403,-0.0185247497039708,-0.000241033833153718,0.000704658872521661,0.0116875669433137,-0.0349341802051936,0.84977957123449,-0.000766536928823938,0
0.24,0.000646032669599551,0.000370174695196022,-0.0318447787824987,-0.0185246873408094,-0.000240883697428789,0.000704530027370322,0.0116904957789099,-0.0349368900336638,0.84977441048092,-0.000734074933871111,0
0.25,0.000645845421725537,0.000370173738045965,-0.0318486695585841,-0.018524641838666,-0.000240740210062933,0.000704406882676209,0.0116932761131718,-0.034939481988774,0.849769482281959,-0.000703075747030702,0
0.26,0.000651798505562261,0.000373674417121005,-0.0321460200215548,-0.0186998268376355,-0.000242897439098535,0.000710967436626526,0.0118008110181942,-0.0352674210326843,0.849764833674103,-0.00069337900559818,0
0.27,0.000634889451762994,0.000364023430354893,-0.0313480450971778,-0.0182168610473848,-0.000236564589131837,0.000692556762277392,0.0115201063545268,-0.0343779159841723,0.849760173489956,-0.000610717320017618,0
0.28,0.000634315329821424,0.000363766858679328,-0.0312316874533308,-0.0182040311835388,-0.000236299761974937,0.000691986045820634,0.0114410301490058,-0.034291513259746,0.849755880506723,-0.000582403534631751,0
0.29,0.000644094572877365,0.000369569067787945,-0.0318106963480535,-0.0184943853497144,-0.000239811907036546,0.000702801084176185,0.0116841133470083,-0.034891892853585,0.849751884238295,-0.000588930236873836,0
0.3,0.000638081779537404,0.00036632166244801,-0.0315314662658545,-0.0183318774639205,-0.000237437075615012,0.000696393245860186,0.0115815445164311,-0.0345855305415551,0.849748494758315,-0.000548849381274232,0
0.31,0.000644223063850786,0.000369807678448317,-0.0318353480419343,-0.0185063183899752,-0.000239745911538311,0.000703066833905065,0.0116945043025738,-0.0349172131536769,0.849744795689377,-0.000545610210847324,0
0.32,0.00064470412035518,0.000370134327578548,-0.0318677489308445,-0.0185226700159417,-0.000239889068895125,0.000703630626024479,0.011707920672949,-0.0349509273118002,0.849741208023079,-0.000525011484667099,0
0.33,0.000644634393994715,0.000370164392938319,-0.0318733519376693,-0.0185241776285967,-0.000239814433900803,0.000703607999537502,0.0117110139046675,-0.0349557988591738,0.849737776591416,-0.000503620641705437,0
0.34,0.000644515829316086,0.000370166641060733,-0.031876211673476,-0.0185242914805523,-0.000239721589226298,0.000703532199726498,0.011712972141874,-0.0349578107025082,0.849734499253886,-0.000483024651680621,0
0.35,0.00064439755547631,0.000370166303447391,-0.0318786989657301,-0.0185242743865657,-0.00023963077441715,0.000703454613791101,0.0117147422322199,-0.0349594765940375,0.849731369547648,-0.000463340147047624,0
0.36,0.000644284112851617,0.00037016574775766,-0.0318810485892752,-0.0185242441890294,-0.00023954383199304,0.000703380019221525,0.0117164224903747,-0.0349610401154422,0.849728380867888,-0.000444541036213167,0
0.37,0.000644175734292839,0.000370165195166883,-0.0318832882382537,-0.0185242139823088,-0.000239460786305255,0.000703308737459392,0.0117180248521549,-0.0349625294581243,0.849725526863896,-0.00042658889374551,0
0.38,0.00064407206850162,0.000370164665381201,-0.0318854166521666,-0.018524199121857,-0.000239381356160017,0.000703240552900445,0.0117195380223298,-0.0349639553931136,0.849722801467737,-0.000409445698103373,0
0.39,0.000643973235995983,0.000370164159239255,-0.0318874554574635,-0.0185241674389257,-0.000239305627396906,0.000703175547186203,0.0117209992804314,-0.034965308102821,0.849720198883647,-0.000393075010604583,0
0.4,0.000643878943689651,0.000370163675853851,-0.0318894049877251,-0.0185241372017895,-0.000239233376526374,0.000703113527536148,0.0117223966239434,-0.0349666015925601,0.849717713577807,-0.000377442021750473,0
0.41,0.000643788665659682,0.000370163214218656,-0.0318912531167355,-0.018524122305375,-0.00023916420543625,0.000703054147296357,0.0117237115876571,-0.0349678383539735,0.849715340265456,-0.000362513489374712,0
0.42,0.000643702697047979,0.000370162773357933,-0.0318930282722727,-0.0185240920490189,-0.000239098332862245,0.000702997601837569,0.0117249856162831,-0.0349690141541689,0.849713073899688,-0.000348257669151156,0
0.43,0.000643620393464654,0.000370162352337857,-0.0318947112240481,-0.0185240756745209,-0.000239035272001111,0.000702943466227012,0.0117261847929613,-0.0349701383163138,0.849710909661285,-0.000334644247208165,0
0.44,0.000643541815173912,0.000370161950266771,-0.0318963174296154,-0.0185240607433091,-0.000238975065438222,0.000702891780718362,0.0117273287793843,-0.0349712117561405,0.849708842948341,-0.000321644275682063,0
0.45,0.000643467022431898,0.000370161566293065,-0.031897861664614,-0.0185240304590902,-0.000238917755874071,0.000702842585538189,0.011728439609234,-0.0349722316639459,0.849706869366006,-0.000309230111164017,0
0.46,0.000643395370852356,0.000370161199602965,-0.0318993231096968,-0.0185240155073164,-0.000238862856878532,0.000702795455683638,0.0117294812405366,-0.0349732073908018,0.849704984717503,-0.000297375355916986,0
0.47,0.000643326978901673,0.00037016084941907,-0.0319007184518057,-0.0185240005449164,-0.000238810455102493,0.000702750469767998,0.0117304761965309,-0.034974138475909,0.849703184995363,-0.000286054801741822,0
0.48,0.000643261671954331,0.000370160514999409,-0.0319020493149198,-0.0185239841170877,-0.000238760417165226,0.000702707512885124,0.0117314265240627,-0.0349750249431249,0.849701466372791,-0.000275244376376528,0
0.49,0.000643199333600064,0.000370160195634974,-0.0319033197111488,-0.0185239691346144,-0.000238712653512297,0.000702666508543852,0.0117323331874563,-0.034975871669916,0.849699825195382,-0.000264921092307735,0
0.5,0.000643139789213369,0.000370159890648167,-0.0319045303333913,-0.0185239541427487,-0.000238667030961354,0.000702627341800881,0.0117331975458745,-0.0349766780616231,0.849698257972609,-0.000255062997888223,0
0.51,4.67204915541404,0.0258762300024393,6.39848401586619,-1.28851103633962,-0.445118823763707,4.65086896424909,-1.92680914075058,6.23604561618853,0.100954434201369,31.3032892041342,552.801035743419
0.52,4.66860506268149,-0.0140870954097289,6.57170898939992,0.719361477948217,-2.08914747986306,4.17510891893064,-2.27871806174002,6.20582661475612,0.46093540306532,66.9659899774178,552.801035743419
0.53,4.56954700709727,-0.0174392002892987,5.97759225605415,0.895119859457918,-4.04952471374249,2.11717112406322,-4.86893539550154,3.58138476805646,1.08524371603391,103.573483342577,552.801035743419
0.54,4.21479735524086,0.00650280892643451,6.150497892746,-0.301443909210072,-3.86636307758035,-1.67803324895328,-5.517809323403,-2.73372877762953,1.98181503584032,141.015020849388,552.801035743419
0.55,3.89018652132979,0.0431489401258112,6.87452127409528,-2.13086725555633,-0.0548486449186454,-3.89003915506265,2.11018220585241,-6.88089885602852,3.13858510690401,173.547752343591,552.801035743419
0.56,3.65319165395727,0.0151984360540532,5.19419768596871,-0.725461808028305,3.58107409077089,-0.722460109217807,5.23635179157967,-0.29428617135497,-1.76570792532369,202.608206569085,552.801035743419
0.57,3.40342506955724,0.000596807958158307,3.76754310400943,0.00170830658350722,0.578459496417936,3.3539062555883,0.641378865011785,3.7125486004087,-0.170617707550248,232.006536042106,552.801035743419
0.58,3.17169408865732,0.00418604793932453,3.62101727669255,-0.170634432512398,-3.16764659440696,-0.160237224024565,-3.607303116268,-0.358115142137139,1.62265863375686,257.020158232323,552.801035743419
0.59,2.90251115936534,0.000603231916732949,5.22303501969595,0.00285834087941897,1.28558268204766,-2.60227757200269,2.31180177210673,-4.68355373125654,-2.68253094373372,282.002098974945,552.801035743419
0.6,2.68685666680828,-0.00798881387135708,5.75306277301953,0.437402346219303,1.36410412289403,2.3148396296553,3.31169016988159,4.72459101949481,-0.535478088064415,304.034572982632,552.801035743419
0.61,2.53164669497819,0.0307917391901481,3.59586084090447,-1.5032468550073,-2.48666817067693,-0.476092982870548,-3.22261915595809,-2.19196078201493,1.77212740983749,324.729116750524,552.801035743419
0.62,2.30859077823413,0.0432614170121079,5.41236020632865,-2.13417093647617,2.02024593392814,-1.1180649793265,5.78203647812509,-0.645277269691288,-2.05753209839864,344.464029288224,552.801035743419
0.63,2.1175138271417,-0.0210996570907618,6.59459274919988,1.08297352876764,-1.09225924929719,1.81418845106852,-2.41168730935621,6.23259572840252,0.531972426575199,362.316781583757,552.801035743419
0.64,2.01516066686708,0.0172785693069806,3.95721835902801,-0.826946809107185,0.197917205197023,-2.00549241886687,1.24461364350131,-3.84634307421105,-3.03464951064616,378.605152425866,552.801035743419
0.65,1.84133085653466,0.00624573894229641,5.27900686586319,-0.278005097739999,0.373200515013955,1.80312498404157,0.779976350539996,5.22846413555629,-0.20070056957459,393.991216918534,552.801035743419
0.66,1.71846780191658,0.0222141358770933,4.53587510710001,-1.08138539611836,-0.689264496630477,-1.5743377997563,-0.769165532169193,-4.59912401944875,2.74184608224612,408.427716349442,552.801035743419
0.67,1.5572181947936,0.0381704862092063,6.23444807020958,-1.8850453101231,0.777319977565144,1.34987375139004,1.32168275299463,6.37768714047605,-0.497963097132638,421.759561992798,552.801035743419
0.68,1.48698989630123,0.0121104566025824,3.87319772984538,-0.583695127954827,-0.72712176627105,-1.29714284173947,-1.35484621442967,-3.67515338348255,2.63882493341253,434.089718247436,552.801035743419
0.69,1.405437300534,0.0231818676308719,2.51752960892891,-1.14017225728515,0.59551972601285,1.27324296999777,-0.0117718086066414,2.76365872217222,-0.420997902505271,445.458516637932,552.801035743419
0.7,1.23682252720924,-0.0137531912250698,5.8747179856072,0.704653598524282,-0.303166992974887,-1.19917008320408,-2.1843449196784,-5.49886218923561,2.88284795342067,456.041096920079,552.801035743419
0.71,1.18989510761191,-0.00920049936507228,3.54638552989168,0.475863024034573,0.0169539223685793,1.18980989272389,0.553692577066306,3.5350700805458,-0.0219803452196927,465.782139135915,552.801035743419
0.72,1.13210673610053,0.0336976777576604,2.04875826968597,-1.67209135585211,0.284803545242638,-1.09621536936301,2.17908341140649,-1.49829751253049,-2.85764946179966,474.861776929859,552.801035743419
0.73,1.0190631544521,0.0368713898391486,3.65419686609698,-1.83296799712745,-0.590477613898559,0.831375606831954,-3.67735829744923,1.78604657466363,0.653732436346375,483.236801322491,552.801035743419
0.74,0.943395136333361,0.00132173733532009,3.69772269266488,-0.0548420736445014,0.832548912430628,-0.443687320821322,3.29140585078523,-1.68606295561796,-2.05903576504276,490.945197101064,552.801035743419
0.75,0.860558366607005,-0.0184991111777547,4.31952536422598,0.93635924224471,-0.860635891441527,-0.014449284215184,-4.31507121035246,0.956675729971258,1.56609050178986,498.147042621056,552.801035743419
0.76,0.791214245107262,0.0405599594478162,4.55317024506087,-2.01934482455215,0.703341184220063,0.364659115546262,2.90956240715148,4.04271683399222,-1.04126649109734,504.77767715285,552.801035743419
0.77,0.723183112234786,0.0192286544147754,4.94654537492363,-0.951116020534646,-0.338335025781004,-0.63944739056623,-1.34413435635262,-4.85450673732858,2.68151545053133,510.904016693799,552.801035743419
0.78,0.700600607628405,0.0167611466696171,3.27336549243871,-0.825331929180486,-0.098246157948001,0.693880277782434,-1.35046241879758,3.09392076431002,0.164573945027522,516.602389346438,552.801035743419
0.79,0.597902651785307,0.0299195925574952,5.82996316982826,-1.48316926583683,0.420759219572423,-0.425845561413424,5.3013329051851,-2.84326063896341,-2.31220314417476,521.831831600446,552.801035743419
0.8,0.579461362062996,0.0409368923974555,4.33142303704253,-2.03215297665767,-0.577401119107705,0.0637122196774962,-4.40805036572457,-1.86009763711394,1.53142710895897,526.720998374867,552.801035743419
0.81,0.496276222386394,0.0604671799615976,6.24735780651618,-3.00980510945928,0.419304592181677,0.272268301008353,2.85729047858004,6.31856767634736,-0.873645988242381,531.253666189666,552.801035743419
0.82,0.486891592538452,0.0419856791822651,4.62538042616422,-2.08886457236254,-0.0929261401116395,-0.479782192901089,1.59116135741146,-4.81930542952975,3.03629676720889,535.449909926137,552.801035743419
0.83,0.463153869140266,0.00508568438861007,3.85145978434935,-0.254826874255104,-0.291792918204306,0.359714141466685,-2.6551467576437,2.801584355624,0.6925010458127,539.341473318329,552.801035743419
0.84,0.415564182435319,0.0135864733624668,4.42577909017056,-0.679938298159311,0.41424840042998,-0.0357273665803572,4.45574012796565,0.44296338035029,-1.62414726831612,542.883322206363,552.801035743419
0.85,0.418035527174695,-0.017565376392523,2.63883881091414,0.883142573156927,-0.279722482121567,-0.311155230429742,-2.47641695449138,-1.26916119623027,2.36734694442805,546.135514695154,552.801035743419
0.86,0.367074268774138,-0.00717905516826106,3.6376568407317,0.367247699771256,-0.0433263674269311,0.364579049747464,0.00689779212178226,3.65614148856048,0.0987296695552825,549.150168635566,552.801035743419
0.87,0.326473391720972,-0.0144498132361107,4.24900957943481,0.734639672880761,0.28135472143561,-0.166232347424452,3.15777049735385,-2.93636907440819,-2.14867611722831,551.903490486643,552.801035743419
0.88,0.285162716186518,0.0512075685103414,4.99572425555278,-2.55095228713457,-0.286110982879756,-0.0456124462311947,-3.87621286313166,-4.05457670397886,1.90656763181762,554.44972875222,552.801035743419
0.89,0.247039525432325,0.025224006691508,5.65870866347778,-1.26812219662878,0.0978844345884634,0.228217911445834,0.480566239212625,5.77911530715819,-0.303423381303554,556.832559768388,552.801035743419
0.9,0.269827428175233,-0.00705639089227983,3.3590105013468,0.349673374945998,0.16780968213009,-0.211415572348593,1.73933828580815,-2.89481007059637,-2.49682400440916,559.012256702525,552.801035743419
0.91,0.261312859766707,0.0137595424468259,2.7316252841172,-0.687012743846052,-0.261644670114523,0.00397520923514409,-2.70401505452293,-0.788711473194481,1.60821118832757,560.98045493793,552.801035743419
0.92,0.191692692960756,0.0296498067586727,5.22800444188244,-1.47788942418725,0.126364223697082,0.147164134709539,1.50425231994504,5.22048010746205,-0.556043670270599,562.79725852682,552.801035743419
0.93,0.224759448088598,0.0364797016654057,2.6459713829663,-1.81522566364605,0.0614707006172556,-0.219246279567777,2.75999809271473,-1.63664880094872,-2.70733582246265,564.505416231582,552.801035743419
0.94,0.200337332189067,0.00140613010553232,3.0182719724215,-0.0763630029497944,-0.198344402420248,0.0282227195546629,-3.00131022003321,0.328533058989292,1.43647235768956,566.049586816526,552.801035743419
0.95,0.207582690263411,0.025449455176321,1.85151710158724,-1.27949776949943,0.152052978539308,0.143590179967474,0.196292514914285,2.24203018896104,-0.692025036419379,567.485743427978,552.801035743419
0.96,0.158296598149161,0.00633792749116633,3.56723398313382,-0.31875515935506,0.0454637827273347,-0.151759766639917,1.4610447767261,-3.26987940181922,-2.81050676180958,568.793044494059,552.801035743419
0.97,0.133475760186632,-0.00610434803776288,4.13148328454378,0.310049811706286,-0.0708589749206221,0.113278626825911,-1.75860496484606,3.75134557110146,0.513277138325464,569.976234990694,552.801035743419
