t,iq,id,vq,vd,ia,ib,va,vb,theta_e,omega,r
0,0,0,0,0,0,0,0,0,0,0,0
0.01,0.00145711937288413,0.000833032672449236,-0.0724420355575617,-0.0417462203326057,0.00153451034041336,0.000680013467047997,-0.0765564003116845,-0.0336112034759039,-0.634306626895946,-0.00195560066641439,0
0.02,0.00164384934695149,0.000940594689155322,-0.0818005603553072,-0.0471365530175878,0.00173182048975931,0.000766653008857241,-0.0864448079538583,-0.0379536754826548,-0.634321021163144,-0.00212654003770444,0
0.03,0.00167888893691272,0.000960680368577848,-0.0835424470463024,-0.0481431023828253,0.00176877599567247,0.000782947195021266,-0.0882884209680345,-0.0387589149551244,-0.634335670072155,-0.00208399011880421,0
0.04,0.00166093038741708,0.000950839520120189,-0.0826602941362241,-0.0476499399867106,0.00175021693654678,0.000774290785101206,-0.0873689095493209,-0.038339465979416,-0.634349109522121,-0.00197496113369847,0
0.05,0.00167800279621044,0.00096070021185238,-0.0835121535306837,-0.0481440927219184,0.00176828781817315,0.000782174196227215,-0.0882723055037147,-0.0387315573196847,-0.634362522753122,-0.00191503063768389,0
0.06,0.00167760833624848,0.000960725368002846,-0.0834990872414454,-0.0481453760286354,0.00176808433539455,0.000781818870012105,-0.0882660923225873,-0.0387191393136999,-0.634375361215419,-0.00183429088023203,0
0.07,0.00171934230094279,0.00098468348438069,-0.0855710093518167,-0.0493459664159638,0.00181212563725259,0.00080121169926258,-0.0904615575493057,-0.0396752901535424,-0.634387554759012,-0.00181642834268393,0
0.08,0.00167690369551826,0.000960789928506908,-0.0834761646703685,-0.0481485752098089,0.00176773744211175,0.000781170676945376,-0.088256011256677,-0.0386966644540639,-0.634399336859339,-0.00168355413567644,0
0.09,0.00167637093773799,0.000960709272137745,-0.0834554095220496,-0.0481445587381673,0.00176736544497546,0.00078076962695194,-0.088240907237842,-0.0386813418126675,-0.634410515430559,-0.00161298876178738,0
0.1,0.00167599441155409,0.000960704043042027,-0.0834421319338251,-0.0481443080459701,0.00176714639600498,0.000780450601232687,-0.0882332484358412,-0.0386698545296755,-0.634421189635658,-0.00154579180807026,0
0.11,0.00167563534766242,0.00096069927599595,-0.0834294743629447,-0.0481440690694373,0.00176693768726575,0.000780146221265514,-0.0882259477215458,-0.0386589023082015,-0.634431382458262,-0.00148162589254199,0
0.12,0.00167529258190217,0.000960694724229625,-0.0834173901342167,-0.0481438301623098,0.00176673844777063,0.000779855656713542,-0.0882189689192971,-0.038648452521641,-0.634441115608576,-0.00142035370986222,0
0.13,0.00174862604240297,0.00100266763880587,-0.0870523627025167,-0.0502472306396823,0.00184401830474123,0.000814022064724098,-0.0920679978696093,-0.0403284243100269,-0.634450924471884,-0.00146152843882461,0
0.14,0.00191467771614806,0.00109854676320766,-0.0953977272050689,-0.055052093134563,0.0020196719868256,0.000890910103938611,-0.100884820390169,-0.0442008181964166,-0.634460122521465,-0.00163603836940578,0
0.15,0.00167510483124321,0.000961117012550011,-0.083422065321816,-0.0481649702538529,0.00176698898713093,0.000779404918399561,-0.0882398426507235,-0.0386372295990206,-0.63446897190214,-0.00124610027274171,0
0.16,0.00167403073592389,0.000960679308487062,-0.0833729189727905,-0.0481430648089066,0.00176600605719946,0.000778785108041937,-0.0881933792053231,-0.0386099232268618,-0.634477011215708,-0.00119438672365925,0
0.17,0.0016737578257437,0.000960674347317493,-0.0833632477092477,-0.0481427962219309,0.00176584626808211,0.000778554698356288,-0.0881877264724797,-0.0386016164987277,-0.634484686616721,-0.00114606483643065,0
0.18,0.00167349959047785,0.000960670913772749,-0.0833541270616287,-0.0481426374039419,0.00176569613525132,0.000778335815607283,-0.0881824750510818,-0.0385937187671635,-0.634492015870681,-0.00109992565339564,0
0.19,0.00167325299673813,0.000960667638974032,-0.0833454147953942,-0.0481424786014654,0.00176555277075836,0.000778126800291929,-0.08817745285519,-0.0385861791484933,-0.634499014592269,-0.00105586725040877,0
0.2,0.00167301757886325,0.00096066451167688,-0.0833370955295438,-0.0481423198135341,0.00176541590151098,0.00077792725744313,-0.0881726513559327,-0.0385789839315922,-0.634505697687694,-0.00101379577771408,0
0.21,0.00167279287119192,0.000960661525233257,-0.0833291534258983,-0.0481421610379995,0.00176528525755624,0.000777736790584455,-0.088168061725145,-0.0385721190980817,-0.634512079390947,-0.000973621629444207,0
0.22,0.00167257840806287,0.000960658673307023,-0.0833215723010499,-0.048142002272728,0.0017651605686568,0.000777555004213425,-0.0881636749039781,-0.0385655704090072,-0.634518173294496,-0.000935259240771618,0
0.23,0.00167237326468225,0.000960655949846443,-0.0833143127847803,-0.0481418833892449,0.00176504129212196,0.000777381134003,-0.0881595001760932,-0.0385592813699281,-0.634523992376758,-0.000898626905637416,0
0.24,0.00167217743452398,0.000960653349071317,-0.0833073810754206,-0.0481417645044546,0.00176492742933407,0.000777215156052288,-0.0881555095831099,-0.0385532795153659,-0.634529549032024,-0.000863646602725879,0
0.25,0.00167199045192283,0.00096065086546047,-0.0833007600705348,-0.0481416427075108,0.00176481870924973,0.000777056677542371,-0.0881516911077387,-0.0385475517478381,-0.634534855095075,-0.000830243829292863,0
0.26,0.00168313985357062,0.000967046409672935,-0.0838551764965788,-0.0484621454315193,0.00177658269544963,0.000782235547241338,-0.0887386629346284,-0.0388036063487985,-0.634539907307043,-0.000814262521947387,0
0.27,0.00162165320561031,0.000932077219271483,-0.0808139549531299,-0.0467097134728174,0.00171197445535443,0.000753439132355737,-0.0855246787162126,-0.0373928065056345,-0.634544850029023,-0.000697497912499435,0
0.28,0.00157671402055728,0.0009059778458384,-0.0784839571125454,-0.045401770614672,0.00166431854214095,0.000732711914778057,-0.0830902600117431,-0.0362913349185736,-0.634549547925757,-0.000605378134618357,0
0.29,0.00167101084233256,0.000960469384442717,-0.0832616450630806,-0.0481325160089369,0.00176410653822765,0.000776341932029445,-0.0881218828089012,-0.0385197923952774,-0.634553789315729,-0.000710611439702937,0
0.3,0.00166940505178407,0.000959650653223492,-0.0831839718807042,-0.0480914917952495,0.00176249802311062,0.000775527769770766,-0.0880429364218759,-0.0384812435760053,-0.634557374927878,-0.000685972623355064,0
0.31,0.00167104901285459,0.000960635302919818,-0.0832673462107286,-0.048140851786079,0.00176426871238405,0.000776260844742854,-0.0881322697007915,-0.0385187693605795,-0.634561423027736,-0.000662984784961088,0
0.32,0.00167091838202114,0.000960636606798993,-0.0832627846035486,-0.0481409269303697,0.00176419532392381,0.000776148045635498,-0.0881297749839638,-0.0385147102667025,-0.634565291636276,-0.000638639326418871,0
0.33,0.00167078867573825,0.00096063488695411,-0.0832581804939213,-0.0481408080058906,0.00176411991224812,0.000776038091989181,-0.088127092033046,-0.0385107473884556,-0.634568985789707,-0.000615383879319105,0
0.34,0.00167066433109652,0.000960633235253213,-0.0832537569742965,-0.0481407289086384,0.00176404760395362,0.000775932710263413,-0.0881245417725387,-0.0385069210346702,-0.634572513345247,-0.000593177172211473,0
0.35,0.00167054569080404,0.000960631657960873,-0.0832495350860731,-0.0481406498007635,0.00176397861318192,0.000775832159411683,-0.0881221048866793,-0.0385032711029616,-0.634575881816066,-0.000571971935446426,0
0.36,0.00167043252203016,0.000960630151754784,-0.0832455069558101,-0.0481405706822272,0.00176391280488612,0.000775736241176888,-0.0881197769873637,-0.0384997906181011,-0.634579098376842,-0.00055172300515271,0
0.37,0.00167032389999398,0.000960628713433412,-0.0832416299287776,-0.0481405313776777,0.00176384963363912,0.000775644200568132,-0.0881175651254868,-0.0384964210139115,-0.634582169877925,-0.000532387254155135,0
0.38,0.0016702207429355,0.000960627339938982,-0.0832379534085835,-0.0481404522368902,0.00176378964649823,0.000775556767281359,-0.0881154347001129,-0.0384932487175603,-0.634585102861461,-0.000513923500211843,0
0.39,0.00167012224248355,0.000960626028351257,-0.0832344402395413,-0.0481403701763486,0.00176373236679107,0.000775473280982503,-0.0881133936564669,-0.0384902213691496,-0.634587903573931,-0.000496292418303925,0
0.4,0.00167002770669937,0.000960624775881447,-0.0832310589039105,-0.0481403308335595,0.00176367738674726,0.000775393175529157,-0.0881114602937838,-0.0384872860036628,-0.63459057798076,-0.000479456456877697,0
0.41,0.00166993805381436,0.000960623579866499,-0.0832278583682668,-0.0481402516625286,0.00176362525306747,0.000775317181878181,-0.0881095973874996,-0.0384845304884,-0.634593131777897,-0.000463379757865564,0
0.42,0.0016698518999322,0.000960622437762815,-0.083224772241318,-0.0481402122956225,0.00176357514753197,0.000775244177435814,-0.0881078299178853,-0.0384818536669929,-0.634595570404683,-0.000448028080314319,0
0.43,0.0016697701632868,0.000960621347141209,-0.0832218492144788,-0.0481401331055593,0.00176352761663464,0.000775174893913079,-0.0881061228284502,-0.038479341499517,-0.634597899054918,-0.000433368727457636,0
0.44,0.00166969169281472,0.000960620305682552,-0.0832190343080562,-0.048140093715611,0.00176348197998541,0.000775108396942556,-0.0881045078382524,-0.0384769020672476,-0.634600122688398,-0.000419370477075164,0
0.45,0.00166961671480191,0.000960619311171301,-0.0832163413404224,-0.0481400543141621,0.00176343837366412,0.000775044861688656,-0.0881029612624188,-0.0384745696824395,-0.63460224604094,-0.000406003514996227,0
0.46,0.00166954522924838,0.000960618361492013,-0.083213772701004,-0.0481400149011572,0.00176339679950885,0.000774984281404195,-0.0881014846928127,-0.0384723458699892,-0.634604273634953,-0.000393239371599277,0
0.47,0.00166947746243779,0.000960617454624664,-0.0832113419556722,-0.0481399356739481,0.00176335739342858,0.000774926831873862,-0.0881000542862145,-0.0384702647706216,-0.634606209789221,-0.000381050861174361,0
0.48,0.00166941226330533,0.000960616588639583,-0.0832089936881472,-0.0481398933311561,0.00176331947467506,0.000774871579989516,-0.0880986991141164,-0.0384682359217262,-0.63460805862728,-0.000369412024024395,0
0.49,0.00166935009097597,0.000960615761694994,-0.0832067529909315,-0.0481398538883558,0.00176328331704032,0.000774818889615902,-0.0880974068374303,-0.0384662993307963,-0.634609824086882,-0.000358298071172637,0
0.5,0.00166929071261395,0.000960614972031092,-0.0832046101525291,-0.0481398144360002,0.0017632487840064,0.000774768567644194,-0.08809616950106,-0.0384644485701717,-0.63461150992831,-0.000347685331566696,0
0.51,2.6251626782752,-0.103489391238624,8.3940517905947,5.1884432696182,-0.269119336786363,2.6133817027131,4.64781153950621,8.70505008133011,0.0632140437681519,19.341477897269,698.781007426469
0.52,2.67110287643628,-0.105425704221193,5.42995549939609,5.28825296299075,-0.850345582720913,2.53432782914203,3.55309158595172,6.69519053558906,0.284278656422671,40.9503165143616,698.781007426469
0.53,2.58924890314971,-0.0251614764310215,8.72367587210163,1.26884541045281,-1.61516895702768,2.02387554523797,-4.37565822986452,7.65284943354658,0.663837969687962,62.606959082064,698.781007426469
0.54,2.56645387342624,-0.0817878953123139,8.84955711825281,4.11034353642224,-2.42490561449367,0.844516136637557,-6.78547144262303,7.01191574949203,1.20380837806582,84.8157569898142,698.781007426469
0.55,2.5937830880315,0.099519933205471,6.10773919747989,-4.97743900198759,-2.47850274170691,-0.771128448583475,-4.09830159068007,-6.72928682660865,1.91077944165902,108.290757487942,698.781007426469
0.56,2.47304019165462,0.018183210701423,10.6829253366913,-0.902229068747889,-0.86801435199607,-2.31577406139273,-2.8287208712446,-10.3410468171457,2.7903262151634,131.16715263489,698.781007426469
0.57,2.58741728790368,-0.0378857709486664,3.82384468172673,1.91489023746132,1.67052261815887,-1.97623827905515,0.945161450289928,-4.17076283243009,-2.45447230409334,151.950654385912,698.781007426469
0.58,2.43110199016393,0.0781004380587985,10.4185439797747,-3.89136784159446,2.34176405522634,0.657645553968011,8.76301388778315,6.84823991545381,-1.26490049815092,172.829238992445,698.781007426469
0.59,2.46128762927798,0.0284840453382179,7.23295393069904,-1.41462871447571,-0.1797108691623,2.45488332479989,-2.02108368338655,7.08745495281505,0.0846474171337856,195.233707343025,698.781007426469
0.6,2.43581719305367,0.0509251897638534,7.14667994562478,-2.52815806460338,-2.43634667962543,0.0036918296958947,-7.09632270086848,-2.66623734313979,1.59018478812708,215.338217780679,698.781007426469
0.61,2.30331414888887,-0.0259271831589939,12.1893042202333,1.31289852346746,0.261487324946019,-2.28857000465155,-0.058685098198876,-12.2596654100171,-3.03908404260653,236.433124424264,698.781007426469
0.62,2.30551896807124,-0.0138662476072889,10.4719129842799,0.719642105968946,2.16865665798176,0.782648250972528,10.1115080250262,2.81713538383294,-1.2304666654387,256.49746532347,698.781007426469
0.63,2.20649571737973,-0.00618717674324709,13.7660694338737,0.32461465712221,-1.46364062962792,1.6511867669266,-8.85900453103735,10.5417304581795,0.72245593653553,276.840440009802,698.781007426469
0.64,2.25573046660517,-0.0407107733363503,9.65198177246334,2.07156461385952,-0.666318524582794,-2.15545747553373,-4.98435539385554,-8.5210523641803,2.82373432129684,296.092239398039,698.781007426469
0.65,2.23725164523614,-0.00305324636955639,8.75351766650524,0.171013211930761,2.09741011906496,0.778572436494592,8.26980717834619,2.87464889846534,-1.2167202654717,315.997426703422,698.781007426469
0.66,2.18802497574483,0.0730410583024557,9.5511852045786,-3.62023374489855,-1.9836913519731,0.926151667270676,-10.2056270614353,0.420008884146672,1.16736137299921,334.540930600484,698.781007426469
0.67,2.10215804620023,-0.0241792649883746,11.9724623374518,1.24332456437537,1.11813831209911,-1.78028643849126,5.19028544298543,-10.8603244617467,-2.59229284561543,353.380197435269,698.781007426469
0.68,2.04537712287573,-0.0310640423224169,12.9195801119924,1.57609230968021,-0.165716561383609,2.03888954354864,0.721714042965784,12.9953355508432,0.0659133087923493,372.106466348111,698.781007426469
0.69,1.98487012126468,-0.0794467345408475,14.159901597803,4.00726410124201,-0.480218464987884,-1.92754024803716,-7.81642763688797,-12.4685379188524,2.85742311130435,389.854410593686,698.781007426469
0.7,1.97755959087437,-0.0137061834162852,12.6527926847309,0.731477851513874,0.941502321887391,1.73910987945089,6.74156734068511,10.7321709062539,-0.50312428289005,407.208825401732,698.781007426469
0.71,1.99796401674173,0.0727702201293563,9.68529854143264,-3.60724398439043,-1.17894077787993,-1.61469946410602,-2.4338941513604,-10.0445694910022,2.54733608552241,424.594892528946,698.781007426469
0.72,1.98847107977745,0.0897020305040027,8.19104906789577,-4.46315896136308,1.13268368072445,1.6367930134285,0.572010935046702,9.31052502479096,-0.560265607451086,441.684156164957,698.781007426469
0.73,1.94068900140848,-0.039763177511734,8.58508011816159,2.01859048078635,-0.724517114997885,-1.8008136662489,-5.22375670276036,-7.10567900166768,2.73859496104034,458.47577153097,698.781007426469
0.74,1.78893943958824,-0.109244793836936,14.1747427192456,5.49449078695021,0.114356808093024,1.78861993277989,7.21671146938958,13.3802778645388,-0.12483992605746,474.782787234523,698.781007426469
0.75,1.84790517882055,0.0604572795616006,9.22403684211708,-3.01031751734099,0.437191800194528,-1.79646095487947,5.37313323240432,-8.07925160437373,-2.87016544800539,490.749853202609,698.781007426469
0.76,1.71461495856094,-0.0948284531863758,13.8739748605001,4.76905751239593,-1.27707270705933,1.14803405547867,-6.41057849258095,13.1960437774656,0.783307814755791,506.281001232584,698.781007426469
0.77,1.65007224422427,-0.00210093022052243,15.0764603932062,0.121306935619426,1.62851825316822,-0.2658404110835,14.8567121427092,-2.56758206669681,-1.73388299626029,521.434489847319,698.781007426469
0.78,1.63137171192674,-0.0502818016465508,13.976795564249,2.53745197923043,-1.34531912689471,-0.92413114267558,-13.1305023015054,-5.42027546365233,2.14187996810002,536.221130881343,698.781007426469
0.79,1.64346451533873,0.100356623442785,11.3244594950107,-5.00755808472542,0.358293135629415,1.60706972282078,-3.15889813530545,11.9724844287558,-0.158372219875959,550.66114826143,698.781007426469
0.8,1.60094073427094,0.0704419226455739,11.4020849869706,-3.50233923416097,1.08501476965348,-1.17928633026411,10.5521849327463,-5.56105343494968,-2.35383233538196,564.703786892262,698.781007426469
0.81,1.58280506109019,0.00845973884001938,10.2548259696591,-0.386135573540136,-1.5296012710709,-0.407017665626747,-9.79446112374096,-3.06252961531391,1.83620868679497,578.433449779211,698.781007426469
0.82,1.41693055350999,-0.0199579100306378,16.5014962199135,1.04559254179667,0.202404773864441,1.40254155701705,3.61941604554084,16.1335820185277,-0.15740774051907,591.748699382799,698.781007426469
0.83,1.40366904631573,0.142810887695248,15.1218653021913,-7.10496259618441,1.17643181657569,-0.778903024886696,16.691504323391,-0.73823243833847,-2.05423109532863,604.752909429956,698.781007426469
0.84,1.36307252479469,0.0881579741716011,15.0881245875569,-4.40855147304238,-0.960703292722654,-0.970972563779257,-6.57025345080342,-14.2800069766198,2.42609665951501,617.556375675964,698.781007426469
0.85,1.35633744760455,0.0503434906051095,13.3471871929123,-2.50715633853904,-0.851094989157322,1.05727151586148,-10.6427524649389,8.43593852742872,0.714877570432228,629.872516365271,698.781007426469
0.86,1.37690881896751,-0.0286631659890018,10.2963973937245,1.47364296212131,1.06765638567867,0.869947880596633,9.02262799956538,5.17490162715825,-0.907897873937142,641.640494321586,698.781007426469
0.87,1.2993112897434,-0.0511796746012289,12.1761593590489,2.61744633255378,0.872817830555607,-0.963855913200282,5.80365768641939,-11.0194119398278,-2.44509027533966,653.082584362574,698.781007426469
0.88,1.28113077735826,0.04320166568765,11.0357583045367,-2.15765074191698,-0.911505362790672,-0.90128820374873,-6.01343694701915,-9.50168375418118,2.3842671472306,664.509794080685,698.781007426469
0.89,1.21723199391695,0.0190155695829708,12.1939648366749,-0.928751462738232,-1.0219082937782,0.661603172610987,-10.8307749931217,5.6788793582865,1.01185813822552,675.360589771642,698.781007426469
0.9,1.14658105251275,0.0921559104947195,13.7348492905959,-4.56930562633656,0.407516799547729,1.07567229206052,-0.567619073369455,14.4638323942792,-0.281938272480342,685.819898035971,698.781007426469
0.91,1.06680968380011,-0.0273668016851902,15.7202322959113,1.37290507103599,1.06217173133944,0.103068212498062,15.7780420805307,-0.252902899334881,-1.499711130537,696.104237080945,698.781007426469
0.92,1.06688963733269,-0.0266129961377092,13.7330025707925,1.36208820456612,0.532388409034169,-0.924945583122256,5.35476080090762,-12.7191658787624,-2.64425521165493,705.856295395367,698.781007426469
0.93,0.956868365810741,0.00505419460918773,17.2930721335311,-0.206088463388753,-0.526084552004649,-0.799285717697078,-9.25839585120013,-14.6073585063396,2.56476111605027,715.312637325142,698.781007426469
0.94,0.987009528505566,-0.045042663592594,13.8304075995801,2.26645621458199,-0.987476105698356,-0.033280498480417,-13.802424086059,2.43106715080413,1.55888231154191,724.454346179903,698.781007426469
0.95,0.936534659967022,-0.0633569537803089,14.4507009449983,3.22064344235646,-0.59452207627865,0.726398495131418,-5.75256513312648,13.6419682001427,0.618343655621055,733.150708935786,698.781007426469
0.96,0.896370224059896,0.00869233679214737,14.5489520475009,-0.436794633220274,0.238048803901855,0.864226765531473,3.30516856089557,14.1752832781627,-0.259084921954783,741.675862379989,698.781007426469
0.97,0.898449290649348,0.0332453001533923,12.5685011704994,-1.62580359750289,0.806423889587893,0.39748822391681,10.2880274714291,7.40046956331943,-1.07585684465406,749.720651336946,698.781007426469
