t,iq,id,vq,vd,ia,ib,va,vb,theta_e,omega,r
0,0,0,0,0,0,0,0,0,0,0,0
0.01,0.00102059421215629,0.000492594629052964,-0.0466733321857985,-0.0246615541854883,-0.00066129920950476,0.000920296348991522,0.0292225885917115,-0.043961716392439,1.07275732678851,-0.0180483975119231,0
0.02,0.00100924941978248,0.000545500403928247,-0.0493599315022454,-0.0273102770309341,-0.000625984091227851,0.000961404701229817,0.0303137968953654,-0.047574444686189,1.07267910970801,-0.00668250263161063,0
0.03,0.00100361472552892,0.000565846338813367,-0.0498298059562351,-0.0283288795691736,-0.000611288366464915,0.000976601827497592,0.0302386666282191,-0.0486945378849436,1.07265349830116,-0.00288826063973873,0
0.04,0.000957322139985083,0.000554176211961905,-0.0479639819574664,-0.0277446272956679,-0.000576199034594396,0.00094423070599433,0.0288788191689636,-0.0472897632939517,1.07265503887006,-0.00135377195455339,0
0.05,0.000987402314426934,0.000566141992791953,-0.0492840149443623,-0.0283436921407215,-0.000596901631146767,0.000969117397053854,0.0297519608060579,-0.0484468764875396,1.07265005856973,-0.00179443660630819,0
0.06,0.00098489901532861,0.000566550111997179,-0.049255305006604,-0.0283641045228131,-0.000594505048604227,0.0009682813883285,0.0297168613320657,-0.0484511676768005,1.07264746486912,-0.00133712395753593,0
0.07,0.00101843964923974,0.000582069241080693,-0.0505771408570169,-0.0291410622186721,-0.000616554360276071,0.000997940199300731,0.0305068201513758,-0.0497652751299001,1.07264742758985,-0.00259978196512563,0
0.08,0.000983891817915837,0.000567093614769339,-0.0492702152370921,-0.0283913351965075,-0.000593358568815556,0.000968278826623324,0.029716848397099,-0.0484822745453806,1.07264539643607,-0.00100982810982699,0
0.09,0.000981895268859796,0.000566582422157459,-0.0491616520355751,-0.0283657305466818,-0.000591849978077146,0.000966875154069617,0.0296337663692248,-0.0484078773660664,1.0726464968541,-0.00108821956792337,0
0.1,0.000982545331122781,0.000566565035297267,-0.0491774429169466,-0.0283648588058962,-0.000592429691449648,0.000967170268164527,0.0296480720415159,-0.0484146458331469,1.07264685559726,-0.0011629552761975,0
0.11,0.000982784448163625,0.000566564452527171,-0.0491851922249441,-0.0283648291704149,-0.000592640081738506,0.000967283972748784,0.0296548964811147,-0.0484183207346753,1.07264691257389,-0.00117995777893393,0
0.12,0.000982825193523223,0.000566564433128954,-0.0491865857703347,-0.0283648262357386,-0.000592675887212691,0.000967303422214221,0.0296561222038667,-0.0484189839108119,1.07264691536502,-0.00118188961328791,0
0.13,0.00104131956567629,0.000593655690795006,-0.0516572982165943,-0.029721154287325,-0.000631110861339254,0.00101905475700434,0.0311781984924469,-0.0507911745284032,1.07264077723849,-0.00253474788806256,0
0.14,0.00108223564646625,0.00062358298349784,-0.0543587571778807,-0.0312194537317066,-0.000652754800841653,0.00106489478436532,0.0328354411344585,-0.0533981514542917,1.07264079833984,-0.00408437624629429,0
0.15,0.000981054693793279,0.000568510398807814,-0.0492803560991906,-0.0284622646531191,-0.000590184902206771,0.000968170525771998,0.0296916457938919,-0.0485495641226292,1.07264084881588,-0.000266671328725489,0
0.16,0.000978977437716931,0.00056663061511955,-0.0490719642529785,-0.0283681540684958,-0.000589262792128825,0.000965523919621937,0.029553773576373,-0.0483671821413651,1.07264552558377,-0.000842106474715087,0
0.17,0.00098187396404335,0.000566566661853581,-0.049152777586095,-0.0283649396639205,-0.000591839042130559,0.000966850977038392,0.0296263608170753,-0.0484029347385305,1.07264675476865,-0.00112346803726799,0
0.18,0.00098270691555939,0.000566564509463172,-0.0491810289195818,-0.0283648299288707,-0.000592571950955245,0.000967246973741758,0.0296512391050931,-0.0484163319760502,1.07264691914308,-0.0011779397722991,0
0.19,0.000982827638244978,0.000566564436100863,-0.0491856120974057,-0.0283648267891262,-0.000592678038448892,0.000967304589823115,0.0296552668512379,-0.048418519020675,1.07264692058124,-0.00118270217023011,0
0.2,0.000982831130704628,0.000566564432560849,-0.0491857547917291,-0.0283648268603676,-0.000592681103113434,0.000967306258502124,0.0296553919172628,-0.0484185874172747,1.07264691536893,-0.00118210202463425,0
0.21,0.000982827871075621,0.000566564432163549,-0.0491855274832346,-0.0283648269489174,-0.000592678238450551,0.00096730470154083,0.0296551921229747,-0.0484184789289741,1.07264691395052,-0.00118178201304162,0
0.22,0.000982826939753048,0.00056656443211253,-0.0491853596690956,-0.0283648270314927,-0.000592677420150448,0.000967304256624121,0.0296550446547552,-0.0484183988255423,1.07264691375705,-0.00118171820968137,0
0.23,0.000982826706922405,0.000566564432111237,-0.049185212864333,-0.0283648271122758,-0.000592677215616732,0.000967304145376347,0.02965491565283,-0.0484183287530929,1.07264691375705,-0.0011817123064427,0
0.24,0.000982826706922405,0.00056656443211294,-0.0491850759532233,-0.0283648271924614,-0.000592677215624763,0.000967304145372424,0.0296547953428933,-0.0484182634070415,1.07264691376619,-0.00118171292388137,0
0.25,0.000982826706922405,0.000566564432114137,-0.0491849390454735,-0.028364827272647,-0.00059267721562892,0.000967304145370578,0.0296546750357022,-0.0484181980627217,1.07264691377108,-0.00118171328724991,0
0.26,0.000997722690637695,0.000572285377567172,-0.0497823051689466,-0.0286512498856766,-0.000603029016642222,0.000979447357379679,0.0300425704868119,-0.0489552447291457,1.07264652933297,-0.00169103658213578,0
0.27,0.000955695100697223,0.00055299397996747,-0.0481680171623549,-0.0276854244960114,-0.000575325092887918,0.000942420556264795,0.0290858681799062,-0.0473355350566399,1.07264496287341,0.00011669718038928,0
0.28,0.000958000078089982,0.000550441517607317,-0.0472235627357158,-0.0275576540995308,-0.000578570071735212,0.000941279281626112,0.0283172725775754,-0.0467720135411206,1.07264555659877,-5.34583726057271e-05,0
0.29,0.000981456083609806,0.000566014001920111,-0.0491083292259729,-0.0283372860824009,-0.000591736950515509,0.000966165242501987,0.0296005743823206,-0.0483573756330829,1.07264772943696,-0.00124394943357287,0
0.3,0.000978410683302672,0.000563343931647121,-0.048833696304719,-0.0282036018293388,-0.000590342941028789,0.00096236119129042,0.0294234682318824,-0.0481085498444592,1.07265346510521,-0.0019308407795437,0
0.31,0.000986852538295209,0.000566454800978002,-0.0492949160357193,-0.0283593464700111,-0.000596267898705029,0.000969130314696952,0.0297539918855573,-0.0484658771307086,1.07264870516418,-0.00158437021742467,0
0.32,0.000984036611172351,0.000566560735799643,-0.0492254823339625,-0.0283646413823204,-0.000593742084881413,0.000967878843718608,0.0296903918902643,-0.0484373989925287,1.07264716240626,-0.00126219891133584,0
0.33,0.000983008198402919,0.000566564306565964,-0.0491914070346495,-0.0283648216243001,-0.000592836714540159,0.000967390749126305,0.0296603598788316,-0.0484212833750317,1.07264691833594,-0.00118919498185775,0
0.34,0.00098283334259574,0.000566564426399481,-0.0491846955649963,-0.0283648279736379,-0.000592683040649356,0.000967307315130989,0.029654460463587,-0.0484180825560966,1.07264690659802,-0.00118094369851296,0
0.35,0.000982822283140181,0.000566564431536761,-0.0491839814760937,-0.0283648280821906,-0.000592673327861947,0.000967302032335555,0.0296538333599506,-0.0484177413045387,1.07264691181668,-0.00118125620821346,0
0.36,0.000982825426353866,0.000566564432059584,-0.049183921590301,-0.0283648281543116,-0.000592676090543039,0.000967303533572207,0.0296537808036848,-0.0484177127017739,1.07264691359212,-0.00118161923659802,0
0.37,0.000982826590507083,0.000566564432133671,-0.0491838226124712,-0.0283648282315101,-0.00059267711346199,0.000967304089697283,0.029653693832065,-0.0484176654692506,1.07264691388436,-0.00118170414951804,0
0.38,0.000982826706922405,0.000566564432139559,-0.0491836888312321,-0.028364828311397,-0.000592677215744739,0.000967304145314504,0.029653576272241,-0.0484176016180983,1.07264691390337,-0.00118171414488395,0
0.39,0.000982826706922405,0.00056656443213933,-0.0491835518480202,-0.0283648283915826,-0.000592677215742453,0.000967304145315771,0.0296534558984022,-0.0484175362379411,1.0726469139009,-0.00118171388615209,0
0.4,0.000982826706922405,0.0005665644321395,-0.0491834149591542,-0.0283648284717682,-0.000592677215743723,0.000967304145315092,0.0296533356076308,-0.0484174709027475,1.07264691390229,-0.00118171347794969,0
0.41,0.000982826706922405,0.00056656443214031,-0.0491832779372232,-0.0283648285519538,-0.000592677215746039,0.000967304145314148,0.0296532152000337,-0.0484174055039339,1.07264691390509,-0.00118171337931152,0
0.42,0.000982826706922405,0.000566564432141132,-0.0491831408959185,-0.0283648286321394,-0.000592677215749116,0.000967304145312744,0.0296530947754557,-0.0484173400958401,1.07264691390867,-0.00118171336721756,0
0.43,0.000982826706922405,0.000566564432141608,-0.0491830038352416,-0.028364828712325,-0.000592677215751898,0.000967304145311318,0.0296529743338369,-0.0484172746785043,1.07264691391179,-0.00118171336740062,0
0.44,0.000982826706922405,0.000566564432142048,-0.0491828667551925,-0.0283648287925106,-0.000592677215755128,0.000967304145309597,0.0296528538752217,-0.0484172092518993,1.07264691391534,-0.0011817133678605,0
0.45,0.000982826706922405,0.000566564432142632,-0.0491827296557711,-0.0283648288726962,-0.000592677215757889,0.000967304145308247,0.0296527333995686,-0.0484171438160505,1.07264691391848,-0.00118171336796008,0
0.46,0.000982826706922405,0.000566564432143369,-0.0491825925369775,-0.0283648289528818,-0.000592677215760577,0.000967304145307032,0.0296526129068977,-0.0484170783709455,1.07264691392163,-0.0011817133679714,0
0.47,0.000982826706922405,0.000566564432143984,-0.0491824553988117,-0.0283648290330674,-0.000592677215763753,0.000967304145305446,0.0296524923972303,-0.0484170129165714,1.07264691392521,-0.00118171336797688,0
0.48,0.000982826706922405,0.000566564432144669,-0.0491823182412736,-0.028364829113253,-0.000592677215766435,0.000967304145304204,0.029652371870522,-0.0484169474529553,1.07264691392833,-0.00118171336797497,0
0.49,0.000982826706922405,0.000566564432145299,-0.0491821810643633,-0.0283648291934386,-0.000592677215769543,0.000967304145302669,0.0296522513268158,-0.0484168819800709,1.07264691393185,-0.00118171336796564,0
0.5,0.000982826706922405,0.000566564432145919,-0.0491820438680807,-0.0283648292736242,-0.000592677215772287,0.000967304145301351,0.0296521307660732,-0.0484168164979417,1.07264691393499,-0.00118171336796734,0
0.51,1.2021127413803,-0.0217232444048183,4.51909207263539,1.0959866736781,-0.713484023752492,0.96772283748307,-1.72184660281099,4.3195629670401,0.617242451538171,175.115396007824,468.326626794721
0.52,0.659340637039515,-0.00445857066619709,6.50863898671529,0.237050081969881,-0.445992264915037,-0.485634486151894,-4.60830457176323,-4.60240189190583,2.39195838678871,299.612720926649,468.326626794721
0.53,0.405954138240447,0.0772689388451918,4.35352015809355,-3.8674869600036,0.413180050607252,-0.00717614415924317,3.63316389703386,4.55090246544732,-1.40007346493043,371.706091059003,468.326626794721
0.54,0.156386016362457,-0.00229633634892384,8.93589200756368,0.12327576255981,-0.155917926814113,0.0123068831283538,-8.88539774264797,0.956592828439314,1.47734511940564,410.459107143866,468.326626794721
0.55,0.118054732827394,-0.0122732461347956,6.06897283443786,0.618958691258435,0.118642598435421,-0.00338915182961572,5.93450138398507,-1.41323545458934,-1.70294482416452,433.651918222116,468.326626794721
0.56,0.0163992241632011,-0.00977815274919141,8.62730624679182,0.477093762565926,-0.0168120353377291,-0.00904998851625718,-8.5981049539643,0.854764724837742,1.52695290756852,446.319326657866,468.326626794721
0.57,0.0899587338046875,-0.0360721814742579,3.27180045518645,1.81959716128877,0.0850432415430072,0.0464911080951202,3.46458631387873,-1.41853929152935,-1.45186461064024,454.828259097608,468.326626794721
0.58,0.0440414215425755,0.0606027315470895,4.64181623199558,-3.03676964203019,-0.0612033347926166,0.043202889865405,-3.41740976725971,-4.36918050359696,1.89848697187322,459.625016342811,468.326626794721
0.59,-0.0137520291331681,0.0198488728063831,7.04113943751023,-1.00741540750492,-0.00098659870382669,-0.024127218653651,5.40732522936289,4.62097005461362,-1.00576284159422,461.649817536592,468.326626794721
0.6,-0.0150140422999607,-0.0371096723623439,6.82550367963086,1.86828804530205,0.0372764643189178,-0.0145950147963599,-6.0477847966314,-3.67454755779635,2.3839522255596,463.447385633676,468.326626794721
0.61,0.0225180372001758,-0.0105571228209235,4.84642936526236,0.522173459849254,0.00154074668838404,0.0248221864719206,2.78332783263602,4.00170324870822,-0.500393653783943,463.858412985768,468.326626794721
0.62,0.0198230408060126,0.00331069708442578,4.98441008763837,-0.17261407729722,-0.00793869671967745,-0.0184632271386843,-1.02002325256333,-4.88197625001007,2.90100225452614,463.821135037668,468.326626794721
0.63,-0.00311905721963469,-0.00740009728868428,5.99878068369787,0.378508752788809,-0.00733620482134053,-0.0032665052641451,0.258400152892982,6.00515344750068,0.0200108715330576,464.7505213745,468.326626794721
0.64,0.0124070393569486,-0.0239402609270966,5.16519465609068,1.18933629030375,0.0264750724785547,-0.00511285205317114,0.323410584080324,-5.29047845103314,-2.85422289576883,465.347951067294,468.326626794721
0.65,-0.0299291044041698,-0.00946290457723098,7.15874491828377,0.483443640120822,0.00782705556995352,-0.0303979449071534,-3.38191738261055,6.32803139810665,0.558243649775989,465.63157333294,468.326626794721
0.66,-0.0611420091283134,0.01939890858051,8.75988908061096,-0.966624320468383,-0.0581285322792385,0.0271244662513988,7.10076265582441,-5.22007557293738,-2.31462292637213,465.820259333267,468.326626794721
0.67,0.0151751163674428,-0.0613159570814778,5.05351932650803,3.05875614091541,-0.0414399779103312,-0.0476724132006585,-3.10544143373644,5.024965692879,1.09783888621037,465.336684808606,468.326626794721
0.68,-0.00570974115142193,-0.0135641492275354,6.03678832081672,0.692080032355875,-0.00285293221753649,0.0144377306404169,5.77265493331731,-1.89690353533916,-1.77413686641107,465.45035312981,468.326626794721
0.69,-0.00484063543395401,0.0312085246892094,6.06736411165302,-1.55987123377852,0.00276996169969425,0.0314599916856898,-5.95116128095231,-1.95698363238909,1.63685567500518,465.371342935756,468.326626794721
0.7,0.0415695858711344,0.0508184250243732,3.82174206732387,-2.55672871823785,0.0559727784407422,-0.0343160438436462,2.76802356200924,3.67159634600221,-1.23560689461237,465.279060763251,468.326626794721
0.71,-0.0495493560540508,-0.0248530488886019,8.1333310875456,1.25666958910258,0.0548507849635274,0.00801274692694194,-7.38648726388798,-3.62906309344872,2.18076506798405,466.435115021406,468.326626794721
0.72,0.0266382568256863,-0.0206250468151239,4.34600157502308,1.0329315892828,0.000846855217575798,0.0336789566209783,3.54677822458162,2.71570277900123,-0.683989805790088,466.35388799744,468.326626794721
0.73,0.0560739890455726,-0.0224805390415815,2.98432614672156,1.11258365414033,-0.00161634802775664,-0.0603908461783426,-2.20547211381479,-2.29781150067875,2.73354493216428,465.730924438576,468.326626794721
0.74,-0.00736624041279596,-0.0101335503892364,6.08514465374544,0.51962848016144,-0.0110220114166196,-0.00595530063407459,1.32311186135004,5.96224573602568,-0.133189880654696,466.395984678586,468.326626794721
0.75,-0.00629762694664853,0.0255872074355104,5.95715723265065,-1.28402515687627,-0.0262258486508614,0.00256323078342646,2.125033393659,-5.71145130188879,-2.99769263529484,466.859020847656,468.326626794721
0.76,-0.0660130277399452,-0.00350988502088745,8.84971971905435,0.16078730189022,0.024207232930596,-0.0615146242620281,-3.52703153440138,8.11809338561751,0.428027252396473,466.827088626492,468.326626794721
0.77,-0.0371489568856001,0.0114713294274621,7.45837849618057,-0.563741269876368,-0.0328466857646543,0.020802202546836,5.27186412490907,-5.30590827852756,-2.4348544548331,466.869577488937,468.326626794721
0.78,0.0379310946236288,-0.0682900974429424,3.74303298894484,3.41418389423627,-0.0692897844628631,-0.0360725812384313,-1.24124313033764,4.91184925576725,0.98700577367673,466.886575381063,468.326626794721
0.79,-0.0072590784968041,-0.0325651640409171,5.99818073138945,1.61682630305143,0.00276295500377033,0.0332498151766554,5.24506570864698,-3.32890148436781,-1.87302631673731,466.544314141604,468.326626794721
0.8,0.0327155008354197,-0.0642545301243537,3.96091015180675,3.22707632152379,-0.0341568634790012,-0.0635000575880896,-3.88709364341206,3.31561967405353,1.54823273018124,467.040809253389,468.326626794721
0.81,-0.00804051505778135,-0.0645493033223506,6.02068768207326,3.22398410997229,-0.0243153591939053,0.0603326259089276,6.64587269846641,-1.57325451920573,-1.3116133411297,467.12961429174,468.326626794721
0.82,0.00678866209945669,-0.00016196715829237,5.21804228777416,0.00509043006584381,-0.00572899001026074,-0.00364566042347579,-4.47047791522005,-2.69124849075805,2.11366407430343,467.079160840139,468.326626794721
0.83,0.0185261343956713,0.0835047224095354,4.76713958360251,-4.17308886241002,0.0737734316667553,-0.0432866850249661,0.189366501341768,6.33280591770268,-0.748942324920064,466.932281053057,468.326626794721
0.84,-0.0384476834824693,-0.00664844419701931,7.63050314817702,0.322579516504261,0.0233046934218097,0.0312940479951776,-3.7358420342909,-6.66124013481219,2.67272040705776,466.821572120775,468.326626794721
0.85,0.0381028899015155,0.0268668404299631,3.69457397081343,-1.3329246514402,0.0334156105547591,0.0325123715651256,-0.630775655700122,3.87668505612787,-0.18494846875755,467.446085162019,468.326626794721
0.86,0.0206662952594799,0.0678553414374393,4.56231460062315,-3.39177628918068,-0.0654975865886877,-0.0272306678654937,3.82345763869236,-4.20714066748813,-3.04322093828163,467.549714799837,468.326626794721
0.87,0.0191641759007043,-0.036991508732461,4.72602659270159,1.84072973784281,-0.0414683072051944,0.00400210616956865,-0.052620050551841,5.07157218749584,0.381786542718436,467.043490571145,468.326626794721
0.88,-0.0761223875029374,-0.00823071864200368,9.38695406614918,0.423916001988325,-0.040658191459244,0.0648789185774134,5.47791022774424,-7.63459959352888,-2.47408121149225,467.255168674923,468.326626794721
0.89,-0.0242869957650127,0.0080645398351076,6.87891727357972,-0.401227905100493,0.0244292946674172,-0.00762263262228227,-5.82050170379262,3.68812236845959,0.947744499340126,467.116810457251,468.326626794721
0.9,-0.0281627418257126,0.0730938683042672,7.20687260942235,-3.67295372847396,-0.0510059135895817,-0.0594495617285394,8.02060394785166,1.04857723209082,-1.91213275749471,466.733089832183,468.326626794721
0.91,0.0195632082406701,0.0359227971983207,4.57496660740095,-1.78531260828248,-0.0174711197237295,0.0369854897333888,-4.6698129024355,-1.52003553391791,1.5134224757305,467.58868364515,468.326626794721
0.92,-0.0029574198197363,-0.0419196069779795,5.73338530688436,2.09912042961496,-0.0123058857379687,0.040181649510473,6.05853308817563,-0.756432729795161,-1.34404277939638,467.658884596042,468.326626794721
0.93,0.00841166827118689,-0.0242947214452765,5.29672625836367,1.20276641123739,0.00461348429265485,-0.0252923983815196,-5.2040728634597,-1.55550047503766,2.08453497284951,466.857664303424,468.326626794721
0.94,-0.003869581450748,0.0440548879651974,5.86444534431259,-2.1931768640776,0.0287894401443396,-0.0335704475752939,2.5326208721172,5.72604361419569,-0.774305849563831,467.318813161911,468.326626794721
0.95,-0.00797780960402455,-0.0326690346482946,6.01529992001199,1.63346970754643,0.0325668621085665,-0.00838515136006246,-4.27909019053888,-4.53226693326883,2.65007786641493,467.547816360925,468.326626794721
0.96,0.00257560463786927,-0.0459594663771138,5.62058808942529,2.28702493906505,-0.0444635934960232,0.0119119747456107,3.38720694238117,5.03471177649523,-0.205774996248777,466.862096809374,468.326626794721
