t,iq,id,vq,vd,ia,ib,va,vb,theta_e,omega,r
0,0,0,0,0,0,0,0,0,0,0,0
0.01,0.000944284805807879,0.000533768574354702,-0.0460853736209683,-0.0267339003445835,0.00107251945846866,0.000162125558300843,-0.0527653507432507,-0.00737433728277316,-0.906283566207222,-0.00252336778315537,0
0.02,0.00104572757119545,0.000592494585824559,-0.051279329936804,-0.0296752041401192,0.00118859511122578,0.000178431076216924,-0.058668104001527,-0.00826081063766495,-0.90630176389726,-0.00258656163067056,0
0.03,0.0010762043749752,0.000610280754039747,-0.0528295024296526,-0.0305660214731132,0.00122355861288995,0.000183201463667501,-0.0604379276698968,-0.00851439337990701,-0.906319498053292,-0.00245102901183896,0
0.04,0.00105676408813084,0.000600411630791871,-0.0519684461881183,-0.0300717403171731,0.00120217146037704,0.000178964365749416,-0.0594554029643629,-0.00837162010939735,-0.906335020096038,-0.00219947143385287,0
0.05,0.00107349918298395,0.000610373495780616,-0.0528437658337194,-0.0305706624691663,0.00122149167024895,0.000181423261273426,-0.0604522765791169,-0.00851770201959506,-0.906349824110526,-0.00206123598666328,0
0.06,0.00107245401214677,0.00061049618804867,-0.0528579952350148,-0.0305768253904834,0.00122074695456378,0.000180665648962192,-0.0604673944832426,-0.00852080487001585,-0.906363377248815,-0.00188750437403818,0
0.07,0.00110173837163747,0.000627638346798574,-0.0543244201051512,-0.0314353947142489,0.00125437388738977,0.000185211998923123,-0.0621513733956321,-0.00874833959321982,-0.906375584867502,-0.00181814864413339,0
0.08,0.00107062362708443,0.000610708799026963,-0.0528820842559958,-0.0305874638225802,0.00121944128147515,0.000179340874076782,-0.0604931198148366,-0.00852585675599292,-0.906386957343528,-0.00158520654941736,0
0.09,0.0010692289102097,0.000610492173421008,-0.0528635971740032,-0.0305766141230476,0.00121821150157429,0.000178639003771993,-0.0604719624614154,-0.00852238191295116,-0.906397169984958,-0.00145254493899587,0
0.1,0.00106833385379755,0.000610487161584772,-0.0528647537863702,-0.0305763514267031,0.00121750539933488,0.00017807975803044,-0.0604727902617644,-0.00852274001829498,-0.906406461168258,-0.00133293033715935,0
0.11,0.00106752453677418,0.000610485030103,-0.0528660504662844,-0.030576251026739,0.00121686841671477,0.000177572140261029,-0.0604738212857017,-0.00852310728894677,-0.906414915724456,-0.00122410143318257,0
0.12,0.0010667879205413,0.000610483120634643,-0.0528672184463526,-0.0305761731715436,0.0012162886652467,0.000177110109211865,-0.0604747584060491,-0.00852342347889497,-0.906422609011135,-0.0011250719610961,0
0.13,0.00111737636795743,0.000639354949587444,-0.0553364090128756,-0.0320222182619642,0.0012739199116362,0.000185560658461082,-0.0633104100483839,-0.00890688522226593,-0.906430220593172,-0.00117501978995312,0
0.14,0.00119386272856449,0.000684057377363878,-0.0592965444810741,-0.0342611316211693,0.00136170129580756,0.000197515293527861,-0.0678087453893362,-0.00958537302786195,-0.906437006742445,-0.00131001776828375,0
0.15,0.00106659314429322,0.000611408621804575,-0.052956227072807,-0.0306225075153803,0.00121670959537389,0.00017623620171622,-0.060573580018808,-0.00854057117652447,-0.906443291975235,-0.000863980943335229,0
0.16,0.00106434047093951,0.00061048847779135,-0.0528723538646897,-0.0305764358984197,0.00121436961880042,0.000175565510651338,-0.0604791837351909,-0.0085248208290943,-0.906448438265662,-0.000792663940314645,0
0.17,0.00106386852387097,0.000610475694065842,-0.052871879951079,-0.0305758041982543,0.00121399098358175,0.000175278923179012,-0.0604784609952482,-0.00852474325581376,-0.906453113210265,-0.000732416664278058,0
0.18,0.00106346124656498,0.000610474489882653,-0.0528725120025447,-0.0305757203651192,0.00121367032735536,0.000175023604808521,-0.0604789432012556,-0.0085249416751376,-0.906457367100631,-0.000677658779018346,0
0.19,0.00106309040612276,0.000610473525869247,-0.0528730716808349,-0.0305756930174891,0.00121337843783306,0.000174791029458877,-0.060479399988624,-0.00852507416287164,-0.906461237958789,-0.000627832324397364,0
0.2,0.00106275338490109,0.000610472650191098,-0.0528735991476027,-0.0305756431836517,0.00121311316700462,0.000174579660298944,-0.0604798145819756,-0.00852522557151512,-0.906464760275444,-0.000582492377632302,0
0.21,0.00106244663166212,0.000610471853270795,-0.0528740720835979,-0.0305755933107454,0.001212871718879,0.000174387276799581,-0.0604801835153909,-0.00852536257001705,-0.906467965433968,-0.000541234950341355,0
0.22,0.00106216741007953,0.000610471128014552,-0.052874494864022,-0.0305755687242792,0.00121265194002009,0.000174212162434012,-0.0604805260905126,-0.00852546618980086,-0.906470881991835,-0.000503692442360626,0
0.23,0.00106191350939238,0.000610470467985607,-0.0528748853641188,-0.0305755158627755,0.00121245209067392,0.000174052927390022,-0.0604808235801067,-0.0085255880510116,-0.906473535936001,-0.00046953035330228,0
0.24,0.00106168225092161,0.000610469867323885,-0.052875226559306,-0.0305754911916637,0.00121227006256882,0.000173907895829429,-0.0604810975939301,-0.00852567177077225,-0.906475950912246,-0.000438444302012085,0
0.25,0.00106147194720851,0.000610469320694503,-0.0528755404815661,-0.0305754664797481,0.00121210452776045,0.000173776005255156,-0.060481348256429,-0.00852575185872091,-0.90647814843794,-0.000410157314555278,0
0.26,0.00107122392799129,0.000615993984139051,-0.0533538807842277,-0.0308521700358601,0.00122318905009617,0.000175436142574485,-0.0610285742942164,-0.00860268041220405,-0.906480113827838,-0.000413511431394561,0
0.27,0.00103101276064879,0.000593326866392668,-0.0514294490909158,-0.0297168817529458,0.00117755483407235,0.000168489452954233,-0.058813482750743,-0.0083099664043676,-0.906482117717118,-0.000272357572247933,0
0.28,0.00101848229825963,0.000585814563754872,-0.0506064980381871,-0.029340622918425,0.00116305790790218,0.000166676926542716,-0.0579335836605894,-0.00809874565421919,-0.906483827715521,-0.000214697614045141,0
0.29,0.00106021435650372,0.000610155760844053,-0.052848130350993,-0.0305597718562227,0.00121092227143548,0.000173239102887686,-0.0604501505883159,-0.00852078818829899,-0.906485123981071,-0.000318666690994909,0
0.3,0.00105741571629952,0.000608706824045126,-0.0527162247323697,-0.0304871838534384,0.00120782558869296,0.000172653821315469,-0.0603015488574132,-0.00849658371017818,-0.906485687536958,-0.000303499886544534,0
0.31,0.00106057892638847,0.0006104448510876,-0.0528745397362232,-0.030574250488914,0.00121138786534585,0.000173233989192356,-0.0604798860560767,-0.00852555733780965,-0.906486993266839,-0.000296171229262805,0
0.32,0.00106050960275783,0.000610466539008349,-0.0528768990824973,-0.0305753255375377,0.00121134686315844,0.000173172716981107,-0.0604824167116812,-0.00852609271715671,-0.906488196300918,-0.000280817224358709,0
0.33,0.00106040529464469,0.000610466544621274,-0.0528770605219441,-0.0305753404390907,0.00121126492984032,0.000173107078859425,-0.0604825623424273,-0.00852611429093185,-0.906489291217415,-0.000266725063365392,0
0.34,0.00106031000926798,0.000610466300172247,-0.0528771869090468,-0.0305753154870041,0.00121118992915873,0.000173047319841483,-0.0604826549641706,-0.00852615159548523,-0.906490287547837,-0.000253900118407205,0
0.35,0.0010602230470227,0.000610466074568861,-0.0528772859604546,-0.0305753157944174,0.00121112147763774,0.000172992786098732,-0.0604827408713021,-0.00852615758515867,-0.906491194166141,-0.000242229939469139,0
0.36,0.00106014440903675,0.000610465869231984,-0.0528773976345673,-0.0305752908049703,0.00121105957846696,0.000172943467388848,-0.060482820425095,-0.00852619621157972,-0.906492019150124,-0.000231610571570967,0
0.37,0.00106007234795264,0.00061046568237776,-0.0528774709186121,-0.0305752910751006,0.00121100285606675,0.000172898278918402,-0.0604828846921579,-0.00852619577484178,-0.906492769850314,-0.000221947397445292,0
0.38,0.00106000692254187,0.000610465512343216,-0.0528775418206282,-0.0305752913277169,0.0012109513568608,0.00017285725010581,-0.0604829464966459,-0.00852619797159965,-0.90649345295553,-0.000213154319077748,0
0.39,0.00105994760949909,0.000610465357614728,-0.0528776142668359,-0.0305752662937595,0.00121090466896156,0.000172820052128223,-0.0604829934031253,-0.00852622474979982,-0.906494074552533,-0.000205152990924464,0
0.4,0.00105989347637451,0.000610465216814934,-0.0528776690088911,-0.0305752665178818,0.00121086205832856,0.000172786104483142,-0.0604830414649665,-0.0085262241115566,-0.906494640178887,-0.000197872121867385,0
0.41,0.00105984399985971,0.000610465088690089,-0.0528777047660707,-0.030575263819225,0.00121082311304497,0.00017275507941623,-0.0604830723429633,-0.00852621715057828,-0.906495154874961,-0.000191246840011417,0
0.42,0.00105979917996087,0.000610464972099598,-0.0528777442406455,-0.0305752640185487,0.00121078783321369,0.00017272697226543,-0.0604831075393393,-0.0085262130027225,-0.906495623226438,-0.000185218114687823,0
0.43,0.00105975860978461,0.000610464866005398,-0.0528777877324055,-0.0305752389405765,0.0012107558985565,0.000172701527932567,-0.0604831299554192,-0.00852623378418369,-0.906496049406127,-0.000179732230490549,0
0.44,0.00105972135688168,0.000610464769462615,-0.0528778073422573,-0.0305752391206759,0.00121072657499057,0.000172678167692986,-0.0604831488127567,-0.00852622227632583,-0.906496437211582,-0.000174740308681169,0
0.45,0.0010596875964384,0.000610464681611287,-0.0528778289495698,-0.0305752392914083,0.00121070000052004,0.000172656996038192,-0.0604831689392886,-0.00852621411930941,-0.906496790097742,-0.000170197871684421,0
0.46,0.00105965686279348,0.000610464601669275,-0.052877844822767,-0.0305752394540065,0.00121067580857217,0.000172637722687357,-0.060483184275141,-0.0085262043553859,-0.906497111209339,-0.000166064446788724,0
0.47,0.00105962880670096,0.000610464528924655,-0.0528778516415411,-0.0305752396094087,0.00121065372422695,0.000172620129420382,-0.0604831922310391,-0.00852619076380282,-0.906497403407098,-0.000162303205549627,0
0.48,0.00105960331174552,0.000610464462729262,-0.0528778564311364,-0.0305752397579399,0.00121063365587761,0.000172604141821109,-0.0604831983606989,-0.00852617751795771,-0.906497669294491,-0.000158880635642041,0
0.49,0.00105958043669792,0.000610464402493633,-0.0528778738617837,-0.0305752146377366,0.00121061564984525,0.000172589793715139,-0.0604831986608047,-0.00852619340878456,-0.906497911240473,-0.000155766242273185,0
0.5,0.0010595593655247,0.000610464347681339,-0.0528778737951507,-0.0305752147748756,0.00121059906366981,0.000172576579821496,-0.0604832005700212,-0.00852617994369378,-0.906498131401358,-0.000152932276477992,0
0.51,4.6469794658558,-0.00131075954178844,7.65266919592254,0.0742576784263531,-0.782471153392628,4.58062864335065,-1.21324866193206,7.55624825620142,0.168906682380759,51.8862411364752,677.790822051585
0.52,4.59221379283608,-0.0222152749591967,10.3928104413735,1.13263826847705,-3.19352828792789,3.30004516813934,-6.37337048225166,8.28694919819737,0.764158645762709,110.647961961043,677.790822051585
0.53,4.15980689291691,-0.0171033510201399,13.2753033645072,0.886731974510365,-4.05322341061556,-0.935770214643043,-13.1431395684531,-2.0682976813019,1.79357988837828,170.072195906329,677.790822051585
0.54,3.77940886253456,-0.0649829524736858,9.96515419060195,3.27717773589808,0.487215635421145,-3.74843634852163,-2.14224808366141,-10.2691267936075,-3.0295311751638,226.503176578682,677.790822051585
0.55,3.40728473652393,0.0403237239330885,10.5149223563652,-1.98324173144188,3.18578967129327,1.20911515115057,9.06023635042591,5.69288654376163,-1.19622266507111,272.544100074474,677.790822051585
0.56,2.96630284651257,0.0164376129279397,15.1986121923245,-0.802369972017761,-2.42852524633487,1.70337544313094,-12.9482516042359,7.99902434913614,0.964670611706666,317.187856303083,677.790822051585
0.57,2.70576289612545,-0.044328788635392,13.2559847853986,2.26050563932576,0.818506764606505,-2.57937290205283,1.63641538345678,-13.3474028585687,-2.85069719338626,355.017933590208,677.790822051585
0.58,2.47372031987212,0.0437036744158631,10.6422542476194,-2.1666840062524,0.324500467856896,2.45273351150636,-0.943410969264895,10.819522669554,-0.113872296566282,391.213902813954,677.790822051585
0.59,2.19531749007839,0.057069912812997,12.4903502151221,-2.81410413137768,-0.649281781761103,-2.09788203316242,-0.672529588560025,-12.7857629616362,2.86743908499308,422.196286357596,677.790822051585
0.6,1.97900148473514,0.0719582751534229,12.0542596032834,-3.56491614418491,0.488327363427902,1.91915639177074,-0.938464916941597,12.5352736427287,-0.212816635772447,450.472489201668,677.790822051585
0.61,1.83888506301297,-0.0491776307586891,8.78933948560697,2.4877254345117,0.132831429681689,-1.8347404518427,-2.08506216391363,-8.89346851365551,-3.09605761262033,476.488462086381,677.790822051585
0.62,1.59727111282684,0.0537777886714556,11.7763942674436,-2.68276011235577,-0.691608731138116,1.44077910223567,-7.8286885206682,9.19740723296971,0.481195412468121,499.620074691166,677.790822051585
0.63,1.44642122253345,0.0102204757747111,11.2423652436182,-0.505174534343232,1.26885547330181,-0.694438333469756,10.1392685581395,-4.88274622389768,-2.06449451100338,520.233802577386,677.790822051585
0.64,1.24724338101442,0.0160691480681122,13.8457155752139,-0.765818027173493,-1.21321924281533,-0.289781534723145,-13.2368434226333,-4.13234718352097,1.81813988610572,538.731829468488,677.790822051585
0.65,1.16295519616313,0.00194944537563135,11.4227382252911,-0.0586461033760087,0.51058227136298,1.0448800566524,4.94507098949754,10.2970219402407,-0.452851427029623,555.398852423981,677.790822051585
0.66,1.01623495504382,0.00166198722411798,12.7165368041004,-0.0481859438169064,0.516291357976765,-0.875316788216104,6.51991118306008,-10.9180304240385,-2.60704646130519,570.545474491914,677.790822051585
0.67,0.87714889343358,0.000345557429344251,14.2380117975033,0.0132885706209134,-0.87578675514689,-0.0488657361652517,-14.216332205142,-0.785528589546804,1.62692887387703,584.170952388669,677.790822051585
0.68,0.824022741055043,0.0303695772071941,11.9827801798165,-1.4928327988392,0.293817945040803,0.770458827042438,2.44099498318797,11.8261199932668,-0.327491479311792,596.442831082991,677.790822051585
0.69,0.733158104161574,0.0511064408448281,12.1066325158976,-2.53361265772643,0.564218240988846,-0.470946335084022,11.2956966499009,-5.03954176168802,-2.19673901137417,607.476220545313,677.790822051585
0.7,0.728015973652739,-0.0424799530978972,8.37624674255798,2.15456157036949,-0.517776679351682,-0.513535894196589,-7.70624274708834,-3.92650834402202,2.29379827067909,617.407067357822,677.790822051585
0.71,0.557625512392219,0.0397893024491493,13.2934427323445,-1.96813118503721,-0.267531820278625,0.490872820390863,-8.83297136845025,10.127575072236,0.570240118044402,626.321957479173,677.790822051585
0.72,0.546713386851305,-0.00577098631267711,10.5956466339116,0.315908224649131,0.482472386217748,0.257194922544746,9.54784091764486,4.60502545144648,-1.0915939929959,634.343159510427,677.790822051585
0.73,0.498754345502759,0.0293282909176984,10.0896737391348,-1.44068205689592,0.187755805365933,-0.462994388040966,5.63502806557159,-8.49255789803454,-2.69759698451235,641.491716091018,677.790822051585
0.74,0.420136708489291,0.0829928967158673,11.4216917222737,-4.12840899554121,-0.413521127436829,-0.111368540840222,-8.41825985107058,-8.75395360468482,2.02889904986224,647.876215607807,677.790822051585
0.75,0.383035907045143,-0.0216001489247554,10.9090182950157,1.11012898191193,-0.208020615539191,0.322351510047903,-4.42447421482377,10.0330999416844,0.516747512017988,653.656864319171,677.790822051585
0.76,0.312097379210727,-0.0130731320722006,12.3215211404894,0.668833934194352,0.247277435392901,0.190865268809941,10.4465889642125,6.56780032125296,-0.955310166802703,658.840971543711,677.790822051585
0.77,0.26384366930236,-0.0554987440454176,12.8213070323432,2.7609460197651,0.220430486591582,-0.155254607025203,6.71764863877656,-11.2641881068994,-2.39174337858665,663.435697496862,677.790822051585
0.78,0.18671191668684,-0.00616472259026492,14.9443494482254,0.287689651382967,-0.108797163345622,-0.151863494248731,-9.32770219410225,-11.6794827601366,2.4869298791612,667.560318207222,677.790822051585
0.79,0.228256456361102,-0.0556706209382104,11.3306861110896,2.77182751104541,-0.229251472656991,0.0514197451449779,-8.92334088207421,7.51275335688122,1.11092927286875,671.221709573007,677.790822051585
0.8,0.184048227684675,-0.0276954848372442,12.1435476781925,1.37653453688101,0.0167755999944106,0.185362804356935,4.21921119092039,11.46991083096,-0.239614419892966,674.523697605066,677.790822051585
0.81,0.22423962378478,0.0175727797944386,8.85920454081582,-0.880417694857064,0.224302671415131,-0.016748822671435,8.8559101666881,0.912959765257733,-1.56712239813745,677.517911396738,677.790822051585
0.82,0.168598406902802,0.0287521635197766,10.5207029000634,-1.43132190818102,0.0168149053875674,-0.170203903227975,4.16013394472812,-9.76868248425356,-2.87420804318634,680.092742112646,677.790822051585
0.83,0.140152541677337,0.0128639807464985,10.9000821954999,-0.626888739094182,-0.12624706373394,-0.062208486863308,-8.96889786731039,-6.22604629003127,2.12015781354806,682.47599550564,677.790822051585
0.84,0.0722479991237054,0.0433608164721692,13.3777401949807,-2.15017168121786,-0.0254530311053236,0.0803248217555664,-11.4507791736528,7.24339887755411,0.847408614498784,684.53546630132,677.790822051585
0.85,0.122935566720255,0.0160607866276507,10.0266993984024,-0.781967562398651,0.0638357877876589,0.106283087222089,3.28877257300601,9.50421743530787,-0.410967345381186,686.358527531689,677.790822051585
0.86,0.00311063442531414,0.0285428842365979,15.2794974998906,-1.45556555967196,0.000647775979340536,-0.0287045758260311,15.3480516810112,0.137929491676387,-1.65678584264591,687.995944071737,677.790822051585
0.87,0.0908296726934924,0.0463247390953761,10.2133793403483,-2.34285224480336,-0.0223869252661467,-0.0994727926168236,4.7992905798278,-9.31498170267713,-2.89133057184702,689.46524307657,677.790822051585
0.88,0.0832811893541209,-0.0127294685624774,9.98938520639757,0.622738086440879,-0.0617312547644783,-0.0573327834255683,-8.61259290240182,-5.0989080226649,2.16759387425281,690.728090693396,677.790822051585
0.89,0.127902262022426,0.0189025295897555,7.20742089085699,-0.948925752793877,-0.0932344518798601,0.0895747243255984,-6.4219128729013,3.40681831554631,0.952141642029229,691.929029737513,677.790822051585
0.9,0.0670550644238659,0.000962474618962261,9.75520687665279,-0.0392941860111093,0.0178737474084267,0.06463619091392,2.42678501149101,9.44861469990976,-0.255434156715884,692.875098180251,677.790822051585
0.91,0.0529784795271474,0.0880260210264183,10.0250119225925,-4.39067657140314,0.0626746633555465,-0.0814075318629715,9.45867308770483,5.50567055159665,-1.45646690834273,693.756271652715,677.790822051585
0.92,-0.0174709111963661,-0.00966967583378084,13.120690737166,0.504657263164353,0.000302327880501057,0.0199660703848901,5.73396942781528,-11.8122309059084,-2.65122794681824,694.568406760905,677.790822051585
0.93,0.0313314410820439,-0.00508510334485435,10.3338996428337,0.236651672178535,-0.016276253832293,-0.0272507071007746,-6.8329565401059,-7.75604220998876,2.44227949650909,695.162097284398,677.790822051585
0.94,-0.0323730215163942,-0.0168273861913052,13.1927202581759,0.815815839337958,0.0256063886572122,-0.0259901194315848,-12.2982343535096,4.84426001370238,1.25732031802106,695.761646643084,677.790822051585
0.95,0.0351684865475308,-0.00110178420187079,9.54433477925926,0.0367492474697699,-0.00377552472778982,0.0349825926354979,-0.689848184851829,9.51944254500358,0.0761911858900181,696.264562572964,677.790822051585
0.96,-0.0117151280274047,0.0231954165469455,11.6143694923012,-1.1693541621512,4.12263037398979e-05,-0.0259859553196852,9.82998177958742,6.29542898246152,-1.10152068365899,696.7099230232,677.790822051585
