t,iq,id,vq,vd,ia,ib,va,vb,theta_e,omega,r
0,0,0,0,0,0,0,0,0,0,0,0
0.01,0.000747733003871067,0.000419977537171032,-0.036620796781327,-0.0210280649248574,0.000193758412125298,0.000835430101526739,-0.00993042778052187,-0.0410444743598832,0.283859683684894,-0.00139931121505864,0
0.02,0.000825323900063614,0.000464557525762319,-0.0405849819520647,-0.0232601687216651,0.000214833348497176,0.00092239897394355,-0.0109634436022342,-0.0454750383550182,0.283849599889768,-0.00140899607714796,0
0.03,0.000853252238390446,0.000481031651024888,-0.0420101269953189,-0.0240850184484935,0.000222836077534094,0.000953821217081721,-0.011356626373653,-0.0470740472153855,0.283839904933331,-0.00132330962799139,0
0.04,0.000834048562715796,0.000471570717349028,-0.0411414557392449,-0.0236113231331335,0.000219139398036995,0.000932734619630549,-0.0111455377506814,-0.0461073849691091,0.283831518788999,-0.0011609284819406,0
0.05,0.000849957574786701,0.000481214053215029,-0.0419704100210473,-0.0240941567560448,0.000223949259874772,0.000950705828819025,-0.011377284861589,-0.0470382939348138,0.28382367710244,-0.00107802343135434,0
0.06,0.000848883975550026,0.000481471442853267,-0.0419707376652576,-0.0241070441774974,0.000224503718097495,0.000949745668476158,-0.0113898981784015,-0.0470421366290619,0.283816593063838,-0.000971689008797772,0
0.07,0.00087128139670947,0.000494889004693102,-0.0431023842968089,-0.0247788557417329,0.000231118829778295,0.000975002813195965,-0.0117182497633175,-0.0483165587187655,0.283810338575726,-0.000925325995600659,0
0.08,0.000846889752896469,0.000481835576199129,-0.0419629648959545,-0.0241252661388473,0.000225423110899092,0.000947930481166612,-0.0114101334819186,-0.0470396401246239,0.283804565094682,-0.000790795249760366,0
0.09,0.000845041400223228,0.000481480810256142,-0.0419109190238478,-0.0241075181466596,0.00022560489835445,0.000946055584294402,-0.0114079074334236,-0.0469846486908808,0.283799486727671,-0.000712371679230004,0
0.1,0.000843990384854797,0.000481469255788353,-0.0418935466077041,-0.0241069221403467,0.000225892387724212,0.000945042349931998,-0.0114124129386471,-0.0469677524837033,0.283794945227309,-0.000643463064667974,0
0.11,0.00084306766533569,0.00048146717769813,-0.0418788588724175,-0.0241068290884709,0.00022615259170619,0.000944155038539618,-0.0114166269907742,-0.046953579813579,0.283790881551136,-0.000581841457517947,0
0.12,0.000842242734694114,0.000481465540533007,-0.0418657505875862,-0.0241067490971169,0.00022638542829835,0.000943361822801799,-0.0114203911645741,-0.0469409319245096,0.283787245356594,-0.0005267032986039,0
0.13,0.00088265734494378,0.0005045422877852,-0.0438507052116071,-0.0252621918166437,0.000237226851781699,0.000988620417319241,-0.0119740195663353,-0.0491699658161482,0.283783678431177,-0.000556526344383858,0
0.14,0.000929587213806603,0.000532285517169681,-0.0462874014629123,-0.0266512732132047,0.000250723823908355,0.00104144026424279,-0.0126254548770099,-0.0518980904005367,0.283780524878374,-0.000605688440196593,0
0.15,0.000842743704337179,0.000482833924218463,-0.0419610046805753,-0.0241752608613428,0.000227567880469249,0.000944223707261624,-0.0114599440073374,-0.0470514488072995,0.283777640226502,-0.000386508765107397,0
0.16,0.000839633537274143,0.000481497293863042,-0.0418269260417085,-0.0241083271627447,0.000227157626967041,0.000940863185284463,-0.0114333329433065,-0.0469039665539279,0.283775386767335,-0.000347047629926033,0
0.17,0.000839099881793785,0.000481460318378985,-0.0418158868842706,-0.0241064798614037,0.000227273431065579,0.000940340064727446,-0.0114347443815593,-0.0468928287497649,0.283773380244501,-0.000316461805357172,0
0.18,0.000838690268591633,0.000481458537456679,-0.0418092967434937,-0.0241063915186775,0.000227388092257718,0.000939945926859426,-0.0114365888484576,-0.0468864569118697,0.283771585096377,-0.000289235922691685,0
0.19,0.000838325882790004,0.000481457789248293,-0.0418035026051655,-0.0241063511143918,0.000227490903388944,0.000939595539292719,-0.0114382475981869,-0.0468808648170337,0.283769978798373,-0.000264878368710493,0
0.2,0.000837999684135226,0.000481457142455569,-0.0417983097087063,-0.0241063306210535,0.00022758296058202,0.000939281878184043,-0.0114397491909133,-0.0468758574211232,0.283768541475455,-0.00024308324259851,0
0.21,0.000837708057908453,0.00048145656421566,-0.0417936750078882,-0.0241062900785422,0.000227665261324883,0.000939001460220895,-0.0114410681546666,-0.0468713820096663,0.283767255352185,-0.000223580863558321,0
0.22,0.00083744693541947,0.000481456046737247,-0.0417895181936812,-0.0241062709005661,0.000227738952448503,0.000938750373699515,-0.0114422674808336,-0.0468673728993695,0.283766104522915,-0.000206130041770718,0
0.23,0.000837213228736954,0.000481455583629338,-0.0417857950521041,-0.0241062502042737,0.000227804905912496,0.000938525649208492,-0.0114433382505764,-0.0468637810759054,0.283765074755529,-0.000190514963102248,0
0.24,0.00083700420210404,0.000481455169184706,-0.0417824673719344,-0.0241062309057084,0.000227863894284029,0.000938324655946017,-0.0114442945607405,-0.0468605705276099,0.283764153314671,-0.000176542516144471,0
0.25,0.000836817177966737,0.000481454798295302,-0.0417794894748404,-0.0241062115553733,0.000227916673116487,0.000938144819448093,-0.0114451483444231,-0.0468576968672689,0.283763328805215,-0.000164039903889632,0
0.26,0.000845289979088031,0.000486247576222643,-0.0421953479437557,-0.0243461795306326,0.00023014632047348,0.000947620454243975,-0.0115591252048688,-0.0473241003118978,0.283762618404021,-0.000170842093835959,0
0.27,0.000815282264006732,0.000469325516869723,-0.0407468401388736,-0.0234988975993526,0.000222302959713573,0.0009140749448987,-0.0111513010881518,-0.0456962980309036,0.283761839070146,-9.83033121235735e-05,0
0.28,0.000810594508640176,0.00046642111340188,-0.0403947674374574,-0.0233534693974858,0.000220827682464437,0.000908761380738664,-0.0111102855790004,-0.0453175829406052,0.283761233803204,-7.98626739105239e-05,0
0.29,0.000835470336946173,0.000481047641803242,-0.0417327687851165,-0.0240858221777015,0.000227905230475171,0.000936737275613323,-0.0114387724744995,-0.046807107416764,0.283760814320334,-0.000124330543717318,0
0.3,0.000831729044189606,0.000479107550829743,-0.0415516605443373,-0.0239886825393466,0.000227090193061102,0.000932602429991528,-0.0113962233149946,-0.0466060455104288,0.283760786850841,-0.000116311304616013,0
0.31,0.000836001789674915,0.000481390083799984,-0.041762071404464,-0.0241029580905173,0.000228085638775979,0.000937343238362965,-0.0114470418291306,-0.0468400302099275,0.283760333633296,-0.000118345027405095,0
0.32,0.000836037823798899,0.000481451549137523,-0.0417669292301459,-0.0241060458114618,0.000228134953443608,0.000937394943450519,-0.0114486658139781,-0.0468455533968824,0.283759911454107,-0.000112211795475661,0
0.33,0.000835955925716348,0.00048145304416409,-0.0417657472373354,-0.0241061290704145,0.000228159672016251,0.000937316652759665,-0.0114490943823801,-0.0468444376513992,0.283759533184494,-0.000106483924762808,0
0.34,0.000835879379720019,0.000481452936790312,-0.0417645308805856,-0.0241061108992906,0.00022818131652434,0.000937243060563458,-0.011449433333535,-0.0468432609742877,0.283759194691965,-0.000101351366697033,0
0.35,0.000835810578264937,0.000481452801673939,-0.0417634262887452,-0.024106111180543,0.000228200732769494,0.000937176903547414,-0.0114497570400323,-0.0468421971661064,0.283758891806936,-9.67585111534892e-05,0
0.36,0.000835749052767457,0.000481452679712327,-0.0417624388566867,-0.0241061114405313,0.000228218094724789,0.000937117742465732,-0.011450046432271,-0.0468412461911577,0.283758620783949,-9.26487955107621e-05,0
0.37,0.000835694160019081,0.00048145257054832,-0.0417615623696166,-0.0241060917571611,0.000228233585275853,0.000937064958970141,-0.0114502842819516,-0.0468403964673501,0.283758378271212,-8.89714021356076e-05,0
0.38,0.000835644858130373,0.000481452472864184,-0.0417607679505351,-0.024106091982575,0.000228247497669881,0.000937017551785561,-0.0114505170727078,-0.0468396313954159,0.283758161269856,-8.56808529822774e-05,0
0.39,0.000835600794931138,0.000481452385453692,-0.0417600587579765,-0.0241060921925426,0.000228259931866167,0.000936975181876795,-0.01145072491862,-0.046838948398775,0.283757967096006,-8.27364538899115e-05,0
0.4,0.000835561330137107,0.000481452307236519,-0.0417594213657286,-0.024106092388938,0.000228271068340614,0.000936937233715521,-0.0114509116929285,-0.0468383345611822,0.283757793348308,-8.0101791525885e-05,0
0.41,0.000835526227993223,0.000481452237245879,-0.0417588606253469,-0.0241060726525819,0.000228280974185871,0.000936903480214688,-0.0114510570154592,-0.0468377889389263,0.283757637878213,-7.77442830651429e-05,0
0.42,0.000835494679441064,0.000481452174616579,-0.0417583509612562,-0.0241060728263802,0.000228289876884547,0.000936873143989835,-0.0114512063861953,-0.0468372981118142,0.283757498762863,-7.56347732394797e-05,0
0.43,0.00083546639051618,0.000481452118574722,-0.0417578909993249,-0.0241060715352961,0.000228297859608159,0.000936845942223456,-0.0114513397502212,-0.0468368547567118,0.283757374281725,-7.37471737767415e-05,0
0.44,0.000835441070183728,0.000481452068427548,-0.041757478099542,-0.0241060716905681,0.000228305004615438,0.000936821594974434,-0.0114514607135938,-0.0468364571366105,0.283757262895594,-7.20581407666773e-05,0
0.45,0.000835418485611333,0.000481452023554982,-0.0417571112888545,-0.0241060718377055,0.00022831137778843,0.000936799878233697,-0.0114515682169631,-0.0468361038943958,0.283757163226791,-7.05467859652709e-05,0
0.46,0.000835398229345371,0.000481451983402334,-0.0417567797270835,-0.0241060719779231,0.000228317093823459,0.000936780400405256,-0.0114516653541195,-0.0468357846096149,0.283757074042632,-6.91944184739132e-05,0
0.47,0.000835380068555198,0.000481451947473108,-0.0417564803216823,-0.0241060721119177,0.00022832221846245,0.000936762937578831,-0.0114517530432045,-0.0468354963009625,0.283756994240308,-6.79843135866806e-05,0
0.48,0.000835363886825493,0.000481451915323159,-0.041756214878487,-0.0241060722400317,0.000228326784796572,0.000936747377645112,-0.0114518308252127,-0.0468352406908592,0.283756922832952,-6.69015059567782e-05,0
0.49,0.00083534933491029,0.000481451886555108,-0.0417559727791094,-0.0241060723632995,0.000228330891048924,0.000936733385011627,-0.0114519017152887,-0.0468350075757197,0.283756858937275,-6.59326045197359e-05,0
0.5,0.00083533658450796,0.000481451860813128,-0.0417557687249866,-0.0241060525656214,0.000228334489549261,0.000936721124230753,-0.0114519425149077,-0.046834805484237,0.283756801763147,-6.50656268889156e-05,0
0.51,4.63547809362751,0.0365485375787313,8.22743162296692,-1.81861621765333,-0.419903887324314,4.61656513844542,-2.61961945870417,8.00846988814257,0.0985906836819761,30.3776261360153,678.99962598542
0.52,4.61849704588338,-0.0257295287426631,9.07810883549518,1.31481529180461,-2.022155142576,4.15235662616258,-2.74387019084118,8.75282672377742,0.447614430636236,65.0465185560869,678.99962598542
0.53,4.59144289198199,0.0396406117942938,10.4326097035268,-1.95354531665271,-3.98447149608839,2.28186461151719,-10.0537127747148,3.4027259622064,1.05933362436932,102.590289651022,678.99962598542
0.54,4.54760113008814,0.0611260603814221,12.6265924535392,-3.01174692733043,-4.25339147727327,-1.61030226190482,-10.6433671122977,-7.43102907105855,1.94615346700626,138.47141936836,678.99962598542
0.55,4.52520473557058,0.0120844160452303,13.7483956891751,-0.553414201955034,-0.244842172483403,-4.51859228549281,-0.154527490659884,-13.7586617285143,3.09013055531205,174.706407014224,678.99962598542
0.56,4.49763621659875,0.0517216117261188,15.1289550384227,-2.505454111758,4.38624878919102,-0.996106531100267,15.3175736479185,-0.731107653723443,-1.78260716155639,209.715638778579,678.99962598542
0.57,4.33360104210765,0.0855999921202246,13.6751233271843,-4.19559364424903,0.565039072562727,4.29745927232416,-2.65520039951805,14.0556719825045,-0.110982163501979,245.148423956279,678.99962598542
0.58,3.96928843631062,0.0333245577234678,15.4959895752592,-1.57482526315933,-3.86437023504258,-0.907195625702412,-14.6828182547954,-5.19813578340111,1.8097752740523,277.967050094523,678.99962598542
0.59,3.70068015969318,0.0563328990048475,13.843812784459,-2.71840749565253,2.66665903372628,-2.56654176621053,11.9745227043078,-7.46000655010352,-2.32184451717246,308.266333180844,678.99962598542
0.6,3.35781754645762,0.0405245977325166,17.008391545428,-1.92629126829209,-0.105571776599493,3.35640216873748,-2.66429741743841,16.9085037860928,0.043511630511993,336.454403977101,678.99962598542
0.61,3.16981195696154,0.00558896942742038,13.3119815957507,-0.208332207250526,-1.62121563589462,-2.72385736429175,-6.60907716151922,-11.557350707981,2.60647980349091,362.551397520791,678.99962598542
0.62,2.9173210507441,0.0658693845489494,14.1184133041731,-3.19844742990308,2.38100472909081,1.68698469731729,9.42527075546326,10.9874442604054,-0.931801546965996,386.10456047996,678.99962598542
0.63,2.61638612345844,-0.00254380877593752,18.1046560834073,0.185490556022502,-2.3979987273607,-1.04646305312965,-16.6745257768224,-7.05501018871795,1.98130259255875,408.450130593471,678.99962598542
0.64,2.48093094304767,0.0680575023204021,14.7369614539646,-3.3078829129897,2.36334623796415,0.757789368686447,12.8085566319765,8.00381154620338,-1.23308525899655,428.587113380581,678.99962598542
0.65,2.23976905081864,0.0969630574530554,17.3089600739227,-4.79096029335844,-2.09397733189437,-0.800765988930734,-13.9813948725593,-11.272710268199,1.97931546674609,447.603099116809,678.99962598542
0.66,2.08965031288235,-0.0161791466756463,16.1628959218547,0.855793093052507,1.7007012964077,1.21429621399131,13.7182837184627,8.5895447038004,-0.958480171871003,465.114552585403,678.99962598542
0.67,1.91095207763918,0.0327024317547749,17.0632925571838,-1.54290293649816,-1.15427052764218,-1.52330786156076,-8.82549956559663,-14.6849262776887,2.51026813336827,481.091291494757,678.99962598542
0.68,1.79822855459714,0.0597369242913822,15.2180257142081,-2.90455900892507,0.399095917229833,1.7543992942152,0.0290336142799528,15.492705597276,-0.190468823157635,496.020343265436,678.99962598542
0.69,1.66254481692267,0.0451868512815482,15.0778081498925,-2.18918711399196,0.536537867631768,-1.57423766833421,7.30227125442146,-13.3719734277287,-2.78594314121911,509.871621650596,678.99962598542
0.7,1.52102800304125,0.057924372136825,15.7756596000016,-2.83785464809655,-1.24781592260017,0.871686206285601,-14.8025005961695,6.14905122106217,0.999095031824436,522.64793318248,678.99962598542
0.71,1.38789728892079,0.0322165487890442,16.5637620037459,-1.55667244818501,1.37500536813541,0.191460252293686,16.0976493877404,4.20084813068214,-1.40923431943607,534.405161013679,678.99962598542
0.72,1.30304112527253,0.0284259857227301,15.3792412705864,-1.36616933994621,-0.751905545976232,-1.06459488104443,-7.46339543789016,-13.5161092501503,2.54847382101782,545.279189394203,678.99962598542
0.73,1.23092432800443,-0.0150904458495035,13.9655974789274,0.818388153119203,-0.377898355447398,1.17157810485654,-3.34202067705975,13.584497410898,0.299760049469459,555.354877077005,678.99962598542
0.74,1.05711622944618,-0.0131413554780863,18.0202750640416,0.723946682170531,1.01164307097484,-0.306994649352245,16.958581882782,-6.13684876034311,-1.87785639346533,564.644588023887,678.99962598542
0.75,0.942875719713627,0.0652192167969931,19.4493852951077,-3.19775039065292,-0.750411073747238,-0.574588017158921,-12.4750019684913,-15.260357853098,2.29332901865887,573.26591043631,678.99962598542
0.76,0.890085637836634,0.0396440738638886,18.1306788612927,-1.98049143674417,-0.174726906969451,0.873667329855284,-6.26596674476788,17.1283835505808,0.241898541440511,581.240750829764,678.99962598542
0.77,0.83942075337761,0.0216021107617343,16.9616075130601,-1.07898216485727,0.821542294324106,-0.17367242448668,16.875544124453,-2.01899540435789,-1.75339826123125,588.638966369857,678.99962598542
0.78,0.765187269419645,0.0229595911259445,17.2699160101608,-1.12641184472394,-0.422772915279909,-0.638201976032893,-8.14410688998256,-15.2706360576919,2.58651549558112,595.418402865978,678.99962598542
0.79,0.677198425416876,0.0134219540227773,18.5325337029756,-0.622371291339867,-0.255958541156709,0.627106913887748,-7.91338934664212,16.7696279184919,0.407336300107008,601.696967450913,678.99962598542
0.8,0.577573839625938,-0.00634480272098759,20.6284175759853,0.353099158302232,0.572108807724841,0.0795192358205072,20.5067266621483,2.2650501779763,-1.44367278927839,607.507498589113,678.99962598542
0.81,0.579173056226077,0.00548030810953903,17.8852718030354,-0.281658034737841,-0.0703602084504471,-0.574909474527981,-1.72472003373237,-17.804146132916,3.02927541734316,612.848940370361,678.99962598542
0.82,0.581891837034416,0.0470268121361146,15.2684904102336,-2.32317592190317,-0.538882461113885,0.224533570253572,-15.2391263153116,2.50858025932654,1.25664829285531,617.802871468303,678.99962598542
0.83,0.44969670618081,0.0319067069654688,19.589306434033,-1.54904468731783,0.236259809142686,0.38396154505772,7.68598102415762,18.0849706028526,-0.480776319082183,622.400915800211,678.99962598542
0.84,0.434529812881663,-0.0480228508268894,18.2363628104636,2.38864777558039,0.382593913131479,-0.211528367173901,13.5153109884266,-12.4742509048343,-2.18591780359426,626.644190897188,678.99962598542
0.85,0.405785125312048,0.0213123903233736,17.6969743443789,-1.03913659045518,-0.283437559623723,-0.291168225773965,-10.8804960330487,-13.9956247403979,2.42212069468933,630.592491991511,678.99962598542
0.86,0.345731428047337,0.0187533135834147,18.8867159050414,-0.926206612351113,-0.228458581467496,0.260170297428181,-13.8742009984652,12.8480521099774,0.774778989422819,634.259082427074,678.99962598542
0.87,0.347250858907209,0.0176787399400079,17.1451874312676,-0.892305317619396,0.271876445393449,0.216746154055576,12.2545330381005,12.0241457430976,-0.846884319898412,637.583399666519,678.99962598542
0.88,0.307496505592207,0.0272888139235955,17.5855138776114,-1.32656871877522,0.176381072083502,-0.253354490245287,12.3015388484364,-12.6365432324551,-2.44491983871306,640.692902044963,678.99962598542
0.89,0.275845994509654,-0.0365051441241869,17.7252352787241,1.79892921449972,-0.189230441251329,-0.203998721413579,-14.8021048439175,-9.9155334800797,2.26215896747406,643.591318727497,678.99962598542
0.9,0.276588456994409,-0.0161247748003751,16.3610752905904,0.829275451860801,-0.191804479396237,0.199930549412663,-9.98944978610651,12.9839660893844,0.706424460396027,646.249408086822,678.99962598542
0.91,0.223764850331102,0.0103189227015311,17.7926341012911,-0.548989482802703,0.172186252943549,0.143279735855007,12.7678271564888,12.4041044584719,-0.830691780576988,648.66870565442,678.99962598542
0.92,0.19465150450961,0.0334289629137166,18.1401238662011,-1.67402352279916,0.114874942226724,-0.160656314590334,14.0736866215905,-11.5670996154294,-2.35076860267662,650.906129485669,678.99962598542
0.93,0.136267131231856,0.0187850088743702,20.0259793753769,-0.90713052719641,-0.103383342781075,-0.0907385918337994,-12.4200942232121,-15.7354375605804,2.42813905939184,652.976061766845,678.99962598542
0.94,0.168916919538243,-0.0255344198403831,17.4295223279137,1.26351184817913,-0.151359665321798,0.0792160590824074,-13.3143572636046,11.318683732079,0.938603768390293,654.922967277082,678.99962598542
0.95,0.153660863789038,0.020382314788036,17.2962127033246,-0.984944204241311,0.0961571009251291,0.121576773103198,8.00640177617978,15.3631578642706,-0.537302789380384,656.718781079826,678.99962598542
0.96,0.166898354004491,0.051532875811364,15.8179434845163,-2.60419791486495,0.130240970334369,-0.116395822541704,15.464259372543,-4.22443663911011,-2.00063624811605,658.357536551167,678.99962598542
0.97,0.0680747798097194,0.0477169262806277,19.9932862319216,-2.35978911994788,-0.0776571121727132,-0.0296724388752808,-9.24244706736136,-17.8851131181548,2.54713558794048,659.911035554917,678.99962598542
