t,iq,id,vq,vd,ia,ib,va,vb,theta_e,omega,r
0,0,0,0,0,0,0,0,0,0,0,0
0.01,0.000619614273982583,0.000352353294972084,-0.0303787478481165,-0.0176391675831306,0.000206776594916768,0.000682142311248375,-0.0104927752430716,-0.0335247702683194,0.222736487607768,-0.00153554854426102,0
0.02,0.00068751130819968,0.000390933783455399,-0.0337927240645641,-0.0195705343503193,0.000229414261612354,0.000756881839204804,-0.0116227120254005,-0.037280914415226,0.222725050484398,-0.00162878420784355,0
0.03,0.000713965528498081,0.000406076096144131,-0.0351023478220259,-0.0203285814892541,0.000238348237381739,0.000786024611243325,-0.0120732034528822,-0.0387254929777407,0.222713453176117,-0.00161399657190396,0
0.04,0.000698151759997596,0.000397443223083036,-0.0343537223198543,-0.0198964074952138,0.000233429721121804,0.000768692110574429,-0.0118174639349355,-0.0378997732788965,0.222702728665176,-0.00149645057104502,0
0.05,0.000713499035796006,0.00040633468082188,-0.0351208035734568,-0.0203415312545425,0.000238720149300957,0.00078562168837054,-0.0120825793960954,-0.0387460967396965,0.222692226239168,-0.00146085615723117,0
0.06,0.000713719069452634,0.000406692836197501,-0.0351509684120068,-0.0203594474058673,0.000239028758734428,0.000785912988576076,-0.0120937805563582,-0.0387793521197664,0.222682181889637,-0.00138952795195642,0
0.07,0.000732436244067742,0.000417627201108507,-0.0360798643417101,-0.0209068434868379,0.000245567116391671,0.00080658051183801,-0.0124228923215142,-0.0398060857390852,0.222672762515346,-0.00137037649430128,0
0.08,0.000713722695137037,0.000407146190894852,-0.0351870512150059,-0.0203821450771554,0.000239484709015616,0.00078601220121673,-0.0121086696139652,-0.0388193319279646,0.222663619556537,-0.00125667224219346,0
0.09,0.000712551447596723,0.000406718675483106,-0.0351466541153782,-0.0203607428886563,0.000239333115664697,0.000784773410740416,-0.0120970488025327,-0.0387751022790803,0.222655052381315,-0.00119232974467062,0
0.1,0.000712149000140653,0.000406699206501184,-0.0351427911975229,-0.0203597774743321,0.000239409363220097,0.000784374655233436,-0.0120972749708783,-0.0387710233323287,0.22264693442536,-0.00113318575482381,0
0.11,0.000711798086592104,0.000406696404159626,-0.0351406174415362,-0.0203596259628054,0.00023949015002511,0.000784029941566966,-0.0120979055630428,-0.0387687766702205,0.222639238229671,-0.00107719254722166,0
0.12,0.000711466478450643,0.000406694382172494,-0.0351386066696919,-0.0203595234996226,0.000239567116826351,0.000783704323699401,-0.0120985324784514,-0.0387667046276422,0.222631941714742,-0.00102411052609285,0
0.13,0.000745200157201905,0.000426056963366408,-0.0367939232118912,-0.0213288487025229,0.000251009455654897,0.000820878836064484,-0.0126787386327287,-0.0405951001843894,0.222624706264928,-0.00105931774295605,0
0.14,0.000779503504881389,0.000446120342782472,-0.0385702737973976,-0.0223332341825076,0.000263009732738853,0.000858763619892783,-0.0132664276520339,-0.0425492804546715,0.222617856133021,-0.00109875121343332,0
0.15,0.000713462814952722,0.00040828864430914,-0.0352757045796662,-0.0204393475559701,0.000240697477710547,0.000785998428507232,-0.0121469192772483,-0.038917793028095,0.222611291026304,-0.000881446144509836,0
0.16,0.000710387082226673,0.0004067520517077,-0.0351373902323884,-0.0203624197795256,0.000239882440868382,0.000782657941073862,-0.0121026536300383,-0.0387658368506612,0.222605429651345,-0.000831559425978367,0
0.17,0.000710015346060678,0.000406688252264564,-0.0351300199119352,-0.0203592179488203,0.000239906619390607,0.000782279962765403,-0.0121013727357753,-0.0387578744568167,0.222599888169044,-0.000790935715127539,0
0.18,0.000709771417596249,0.00040668428816118,-0.0351283078518846,-0.0203590244388264,0.000239960712324761,0.000782039917148957,-0.0121017655527595,-0.0387560983477898,0.222594635125709,-0.000752706784387482,0
0.19,0.000709544893356078,0.000406682823174947,-0.0351269131105437,-0.0203589516961242,0.000240013184821176,0.000781817463008616,-0.0121021955160536,-0.0387546616877508,0.222589654907708,-0.000716475314923202,0
0.2,0.000709330418105972,0.000406681527144103,-0.0351256025848294,-0.0203588847795564,0.000240062957917849,0.00078160685949292,-0.0121026025342469,-0.0387533115786595,0.222584933320241,-0.000682125911528412,0
0.21,0.0007091269245552,0.000406680302029718,-0.035124350141503,-0.020358834775103,0.000240110182422508,0.000781407040846913,-0.012103003711449,-0.0387520248170789,0.222580456930686,-0.000649560337776323,0
0.22,0.000708934160756237,0.000406679140542891,-0.0351231686400135,-0.0203587664079674,0.000240154917080157,0.000781217756737568,-0.0121033622995679,-0.0387508060047066,0.22257621300583,-0.000618685935947271,0
0.23,0.000708751272714036,0.000406678039246861,-0.0351220396087623,-0.0203587163967619,0.000240197356743181,0.000781038170637662,-0.0121037186583507,-0.0387496450853778,0.222572189473472,-0.000589414880527011,0
0.24,0.000708577872519126,0.00040667699502368,-0.035120966561028,-0.0203586663793069,0.000240237593168342,0.000780867900821838,-0.0121040545479636,-0.0387485412941531,0.222568374888278,-0.000561663907747632,0
0.25,0.000708413610925541,0.000406676004921208,-0.0351199537374597,-0.0203586163547566,0.000240275709250104,0.000780706603448183,-0.0121043694532941,-0.0387474986359072,0.22256475839943,-0.000535354077858765,0
0.26,0.000715532586632565,0.000410800817566111,-0.0354728722461314,-0.0205651035497393,0.000242730069938974,0.000788559640986967,-0.0122279958619071,-0.0391372490934537,0.222561368545166,-0.000529449514752259,0
0.27,0.000691907917131446,0.000397349722250508,-0.034329931607772,-0.0198917251148857,0.000234827964218499,0.000762547831144203,-0.0118236340414956,-0.0378738248701298,0.222557980724208,-0.000444273743325486,0
0.28,0.000689430872560401,0.000395913921539946,-0.0341271910228683,-0.0198198557409133,0.000233976672586406,0.000759814239136072,-0.0117984037067038,-0.037660184793434,0.222554887480045,-0.000415745199963504,0
0.29,0.000707045272723817,0.000406235956321624,-0.0350778355406077,-0.0203365760604812,0.00024015843532417,0.00077927183693002,-0.0120926605373722,-0.0387014009204517,0.222552073690553,-0.00044103057643756,0
0.3,0.000703029965022346,0.000404088835106678,-0.0348868882867672,-0.0202291036458867,0.000238952295126666,0.000774881099931397,-0.0120300724131935,-0.0384914141904753,0.222549788581782,-0.000414319480744692,0
0.31,0.000707413248078796,0.000406566375077048,-0.0351052155526608,-0.0203531173510123,0.000240403314424356,0.000779702486410341,-0.0121029407632529,-0.0387316972231278,0.222547163259427,-0.000406831679424114,0
0.32,0.000707491409597258,0.000406666244848845,-0.0351138571565668,-0.0203581165890582,0.00024048543014257,0.000779800158529427,-0.0121060067722382,-0.0387411986842946,0.222544649426906,-0.00038903984013588,0
0.33,0.000707391273613124,0.000406669671917373,-0.0351135721521443,-0.0203582870447004,0.000240512733015402,0.000779702674933749,-0.0121063283001083,-0.0387409294644341,0.222542265079287,-0.000371714995717565,0
0.34,0.000707288789477248,0.000406669218134665,-0.0351129324812078,-0.0203582793980306,0.000240536672033413,0.000779602074205515,-0.0121065495988897,-0.0387402765127943,0.22254000450849,-0.000355270324437995,0
0.35,0.000707191447142135,0.000406668637632613,-0.0351123152623104,-0.0203582461451249,0.000240559260671384,0.000779506488651756,-0.0121067364169487,-0.0387396412285387,0.222537861330234,-0.000339678811254012,0
0.36,0.000707099227080537,0.00040666808114637,-0.0351117312797754,-0.0203582128807856,0.000240580655073219,0.000779415931044333,-0.0121069115742338,-0.0387390397053957,0.222535829449852,-0.000324896949454864,0
0.37,0.000707011527673537,0.000406667553281613,-0.0351111620321372,-0.0203581950070083,0.000240600997074244,0.000779329814239262,-0.0121070944005417,-0.0387384572274987,0.222533903087833,-0.00031088272696316,0
0.38,0.000706928679044346,0.0004066670527921,-0.035110635013523,-0.0203581617189819,0.000240620216923876,0.000779248458637875,-0.0121072489952745,-0.0387379137460379,0.222532076764109,-0.0002975962807624,0
0.39,0.000706849943618999,0.00040666657826891,-0.035110123718988,-0.0203581452734508,0.000240638480127294,0.000779171143303672,-0.0121074128709949,-0.038737390465916,0.222530345283827,-0.000284999816574958,0
0.4,0.000706775476892008,0.000406666128366279,-0.0351096457964589,-0.0203581119638218,0.000240655754935052,0.000779098018424501,-0.0121075494484352,-0.0387368971013168,0.222528703721561,-0.000273057502765361,0
0.41,0.00070670465770805,0.00040666570180735,-0.0351091795383078,-0.0203580954939636,0.000240672180865604,0.00077902847676456,-0.0121076965723415,-0.0387364198617603,0.222527147407908,-0.000261735368478974,0
0.42,0.000706637622019403,0.000406665297382695,-0.0351087405916437,-0.0203580775562142,0.000240687730218782,0.000778962649599275,-0.0121078331049371,-0.0387359699145271,0.222525671915401,-0.000251001207007972,0
0.43,0.000706574020585048,0.00040666491394428,-0.0351083199116861,-0.0203580610622041,0.00024070248225076,0.000778900195042568,-0.0121079640449603,-0.0387355390296776,0.222524273047402,-0.000240824484181395,0
0.44,0.000706513736987197,0.000406664550403941,-0.0351079196854441,-0.0203580445568329,0.000240716464720424,0.000778840998355476,-0.0121080876448573,-0.0387351289710263,0.222522946824382,-0.000231176251505178,0
0.45,0.000706456596602868,0.000406664205729715,-0.035107538666253,-0.0203580280407858,0.00024072971812249,0.000778784888090514,-0.0121082043267159,-0.038734738477165,0.222521689473897,-0.000222029063815169,0
0.46,0.000706402424809078,0.000406663878943099,-0.0351071753345056,-0.0203580115144925,0.000240742282848434,0.000778731692858405,-0.0121083145650119,-0.0387343660227794,0.222520497419148,-0.000213356901210783,0
0.47,0.000706351046980297,0.000406663569116736,-0.0351068277156506,-0.0203579935233582,0.000240754199192362,0.000778681241322898,-0.0121084175082356,-0.0387340093199726,0.222519367269628,-0.000205135095037481,0
0.48,0.000706302463121607,0.0004066632753705,-0.0351065022706448,-0.0203579769775264,0.00024076546881677,0.000778633532524867,-0.0121085146935858,-0.0387336752737395,0.222518295810188,-0.000197340257713651,0
0.49,0.000706256323984509,0.000406662996870341,-0.0351061876339629,-0.0203579604232285,0.000240776170372451,0.000778588224912537,-0.0121086073295262,-0.0387333524410694,0.222517279992986,-0.000189950216205149,0
0.5,0.000706212571361343,0.000406662732825907,-0.0351058866963765,-0.0203579438605459,0.000240786318198481,0.000778545260846571,-0.0121086948901906,-0.0387330436065156,0.222516316928569,-0.000182943948952067,0
0.51,3.4941288099572,0.000916132517371146,4.2612583381563,-0.0406001474803841,-0.295907584816843,3.48157660853809,-0.40244017033206,4.24240649935684,0.0850508304302329,26.0420880180467,490.991324192385
0.52,3.29857493938477,-0.0229665143430337,5.84163160597045,1.16061115970203,-1.24556467214589,3.05445457308181,-1.09035675548189,5.8551515974971,0.380238170915448,54.3166456927472,490.991324192385
0.53,3.1794279415712,0.011126832541092,3.66423435604405,-0.540568288781681,-2.44373267618999,2.03397552821252,-3.16888707554265,1.91754587775851,0.880154079553746,82.1352276802606,490.991324192385
0.54,2.97297646165179,-0.0219174284863712,5.37806420933906,1.11351956180311,-2.97222193453758,-0.0704711789368653,-5.39553360381297,1.02553282951692,1.58712973327813,110.752503497208,490.991324192385
0.55,2.84175449914488,0.0396225553551126,4.28332943715501,-1.96275129832319,-1.74540099254213,-2.2429253120726,-1.01752001759119,-4.60043006033884,2.49424062372688,136.020881677429,490.991324192385
0.56,2.70702900676378,-0.00734063535934709,4.15826580484924,0.394974740402391,1.14673955745542,-2.45215177257749,1.39304144616686,-3.93784396321081,-2.70687308900317,159.295322496496,490.991324192385
0.57,2.53765341035226,0.0428250518458619,5.32097897826922,-2.12092598879462,2.52427043136107,0.263775672673258,5.02608945916201,2.74764791878943,-1.44980414567375,183.176508726303,490.991324192385
0.58,2.41226327169085,-0.00277526776812498,5.33254385781003,0.170426769292997,0.0702202520090487,2.41124260709444,0.331709651404687,5.32494488105972,-0.0302642724955663,204.079767371818,490.991324192385
0.59,2.32719941220085,-0.0218528528031998,3.04817855344163,1.12118990620795,-2.32701357817128,0.0366395732798503,-3.0190388653909,1.19744044891732,1.5456623903116,225.275488215748,490.991324192385
0.6,2.17146993105331,0.0166617918244319,4.98881615168432,-0.809538815528207,0.254759003220651,-2.15653822758918,1.42646849003884,-4.84859024213013,-3.01633142436634,244.695997008006,490.991324192385
0.61,2.03496337426305,-0.0256192672304055,6.17311464146303,1.31638317118125,1.85065208562839,0.846651722613707,6.17796952200714,1.29340697971109,-1.15432146718541,262.81836948518,490.991324192385
0.62,1.95738673594568,0.00391694027667544,4.51400777475183,-0.166825136388774,-1.45355737591255,1.31093444969893,-3.46962367371429,2.89237071957459,0.838944578859912,280.602334093056,490.991324192385
0.63,1.84843386373375,0.0088558458829604,4.76818264804327,-0.418752897044466,-0.348574487161049,-1.81529116163342,-0.465107342395186,-4.76388443540921,2.95667156520763,297.346168145002,490.991324192385
0.64,1.73417869689108,-0.0257649874450834,5.63593273062247,1.3127044757462,1.52605102991825,0.82414066846282,5.60477103665838,1.43995569771474,-1.09048204777056,312.964473952462,490.991324192385
0.65,1.66282475894064,0.0232802842837375,4.57489447674664,-1.12964274042572,-1.57488108328784,0.534113961701471,-4.70046131345423,0.333789806740126,1.25782343028681,327.624908003773,490.991324192385
0.66,1.52251024559133,-0.00723919481197388,7.1364116981548,0.39739897950456,0.828188849974649,-1.27757312223206,3.51889498106578,-6.22122785201619,-2.57120224254909,341.594400118587,490.991324192385
0.67,1.45511726457281,-0.00479862766259093,6.24017343664044,0.274768304830137,0.0196089504453379,1.45499304793794,0.379397028134035,6.23468684343771,-0.0167739385780454,354.899787974834,490.991324192385
0.68,1.36203791904875,0.0205363378347028,6.84499328746051,-0.994536935376357,-0.682019179748414,-1.17916024040569,-2.46910141441276,-6.46115895382184,2.63228796426661,367.464624679515,490.991324192385
0.69,1.30150586156456,-0.0054745028563713,6.01971911300657,0.307631542706167,1.02606088016168,0.800716271890532,4.9494643368833,3.44012472789647,-0.912340752783713,379.353576118333,490.991324192385
0.7,1.25249343628145,0.0363173996316393,4.80392443800285,-1.78437893452438,-1.19289733195984,-0.383477139927823,-3.93378560799136,-3.28436127403418,1.91081740471468,390.594544748764,490.991324192385
0.71,1.14694206183737,-0.0301041702448276,6.59410826596164,1.53934262721356,1.13798653162543,0.146181421928401,6.71615864497558,-0.863164296469787,-1.4692810757703,401.21111284165,490.991324192385
0.72,1.09256972304701,-0.0307467103339754,5.9832080456773,1.55616489193995,-1.09238625346184,0.0366910501754379,-5.87585006980398,1.92218980487064,1.50908674617179,411.260826622072,490.991324192385
0.73,1.03591845279767,-0.0247086513318421,5.62641859188874,1.25049787080719,1.02747809224104,-0.134262162436278,5.36847171798297,-2.09758015562256,-1.72457907600892,420.732890715225,490.991324192385
0.74,0.987092117345091,-0.00476335702982145,5.04921044839663,0.253886524670359,-0.972191329340794,0.170931439032108,-4.92348405008077,1.14816781360875,1.39192877130846,429.59336377111,490.991324192385
0.75,0.930947378113726,0.0228022558781117,5.01528787288374,-1.12127794717,0.918536038610777,-0.153213933645645,5.12300834874015,0.406401453544667,-1.71158827225247,437.904144713263,490.991324192385
0.76,0.870484150047138,0.027081961072164,5.35460447968215,-1.32992292091337,-0.868493645427092,0.0647678620271078,-5.40719255930438,-1.0967008416183,1.52746051992085,445.71858402802,490.991324192385
0.77,0.837288402911549,-0.00285871373631741,4.44163022600679,0.171261569205739,0.831900250068739,0.0948789535669981,4.43353988398671,0.318015230394777,-1.46065037369052,453.161125041191,490.991324192385
0.78,0.720893743197645,-0.00658175567352048,7.77476244524918,0.335759224009448,-0.683031916655862,-0.23064802040919,-7.49303384932878,-2.10097812206067,1.88732639544396,460.2216030079,490.991324192385
0.79,0.706879923414233,-0.0215654272695953,6.12884316066464,1.09217558819916,0.58247854593416,0.401077345789885,5.74322791456446,2.40226957788909,-0.998281104320382,466.754563007404,490.991324192385
0.8,0.677562316429292,0.0182923344241336,5.39820106618972,-0.893667056712842,-0.448324724397374,-0.508360348215447,-2.77401625436344,-4.71635975936877,2.44585682500686,472.854901278195,490.991324192385
0.81,0.598671945780159,0.00968306386633449,7.2401206590206,-0.468648884569064,0.214078427990359,0.559171071371917,2.03863884049524,6.96296852012193,-0.34946187025354,478.670808863767,490.991324192385
0.82,0.63151485626629,0.00632491095217053,3.56401668217745,-0.310085549376026,0.0176784622580868,-0.631299049702893,0.44530119536112,-3.54965840668943,-3.1035815374132,484.138622614699,490.991324192385
0.83,0.540822799938891,-0.00626791186672446,6.21270212326411,0.330117028245514,-0.247601678709055,0.48085548385494,-2.48470705776832,5.703759791736,0.46392247258995,489.15265529632,490.991324192385
0.84,0.507737895538051,-0.0111801263615262,6.05926652595054,0.580430868919751,0.412489156357818,-0.296269238494455,4.49348175586432,-4.10612134937756,-2.21568006407806,493.94392459912,490.991324192385
0.85,0.462139772680102,0.037743476636711,6.59271110030816,-1.88758040610977,-0.451418708328343,0.105919258365101,-6.7998536256075,-0.888138565747799,1.42181923473144,498.444313271969,490.991324192385
0.86,0.457136810126994,0.0406308293018998,5.22918058523661,-2.01829169920378,0.439800051154075,0.13115198232477,4.11339680203027,3.80759736909478,-1.19233602491787,502.554784180928,490.991324192385
0.87,0.439848174094808,0.00484300077782335,4.55913740347789,-0.241040769817637,-0.265013095488101,-0.351081087686143,-2.51256025178656,-3.81193854851408,2.50600577946481,506.417854390529,490.991324192385
0.88,0.417909241436465,-0.0274228834462752,4.17859358432556,1.37761810271395,-0.00587300179183189,0.418766828276145,1.59090102442785,4.10213479914621,-0.0515016956677285,510.045421963367,490.991324192385
0.89,0.377545094954263,0.000625524041259054,4.81559553787229,-0.0138314418191706,0.199422395630386,-0.320579784336735,2.5621369094751,-4.07745093781196,-2.583447770422,513.388000814719,490.991324192385
0.9,0.35910199677288,-0.0381468856895639,4.38708273734787,1.90622665195909,-0.347742107906309,0.0973902221116644,-3.37080471912466,3.39379883589199,1.19189614867899,516.604716375708,490.991324192385
0.91,0.314769185446828,-0.00634654490452056,5.33754284763442,0.327775780145965,0.30101063274368,0.0922633064350848,5.22341580750447,1.14574338937479,-1.29353597996346,519.522333669706,490.991324192385
0.92,0.276450965763525,-0.00740703370866407,6.06914984657092,0.368962031109762,-0.153852545934895,-0.229802947607941,-3.81128795640459,-4.73759400475577,2.52484576932666,522.233384945319,490.991324192385
0.93,0.226193284683485,0.0047762012668976,7.44980831356661,-0.23870287699401,-0.0130967683597808,0.225864315005661,-0.826123471666497,7.407708348871,0.0790326964561642,524.70352040371,490.991324192385
0.94,0.221148124959898,0.0164374222400453,6.64661314436749,-0.809190149985179,0.105391623494405,-0.195113525211324,4.26511844971819,-5.16149393098406,-2.57214785183659,526.995675568817,490.991324192385
0.95,0.259942802739509,0.025786313747067,3.67436303593835,-1.29499000153851,-0.243481046511907,0.0946159323909041,-3.8871246311721,-0.261160727694615,1.29903532746675,529.165575899247,490.991324192385
0.96,0.201236199399861,-0.0261547178709057,5.66257287298009,1.32086201180441,0.167259019625548,0.114910824423584,5.64298069265797,1.40220429978209,-1.09807857358858,531.080243868849,490.991324192385
0.97,0.225650849736741,0.0260382741232023,3.5350106314133,-1.3115916348975,-0.0997909673943997,-0.204054062769449,0.0577835955269683,-3.77004427520767,2.80163373495549,532.876810381412,490.991324192385
