t,iq,id,vq,vd,ia,ib,va,vb,theta_e,omega,r
0,0,0,0,0,0,0,0,0,0,0,0
0.01,0.00070230768680493,0.000399701930867752,-0.0348436049193807,-0.0200032930416639,0.000117627435865529,-0.000799475769999568,-0.00569965455360306,0.0397708746981778,-2.47810103211774,-0.00122280963222537,0
0.02,0.000798103705572034,0.000453450932695174,-0.0396252755791157,-0.0226931838977045,0.000134270993240132,-0.000908052076471522,-0.00652490421414369,0.0451947860392341,-2.47811039931403,-0.00134047357857711,0
0.03,0.000835450978803289,0.000474653668433388,-0.0414822586819644,-0.0237542836673154,0.000140557988513979,-0.000950535583134872,-0.00683210436621275,0.0473113741909266,-2.47812010153411,-0.00135131639596254,0
0.04,0.000816260798240889,0.000464032567620097,-0.0405401720255915,-0.0232227562969174,0.000137099002973993,-0.000928876621484517,-0.00667025874893837,0.0462418598902853,-2.47812926603991,-0.00126382077539466,0
0.05,0.000836106684011528,0.000475537604748172,-0.0415302280081378,-0.0237985404892419,0.000140248109941304,-0.000951599111094727,-0.00682591805999051,0.0473765470508805,-2.47813826278091,-0.00124734343083743,0
0.06,0.000837397240660821,0.000476501491486368,-0.0416015483589414,-0.0238467621665712,0.000140275165931942,-0.000953210725851244,-0.00683143416349992,0.0474624946558872,-2.47814697662972,-0.00119920745681692,0
0.07,0.000856273951207792,0.000487604809588831,-0.0425429786883161,-0.0244024319813187,0.000143144035992523,-0.000974922209620304,-0.00697300109092779,0.0485464826538785,-2.47815523150757,-0.00118528626118672,0
0.08,0.000838322182812383,0.000477510635163612,-0.0416612714101157,-0.0238972786164174,0.000140034089363763,-0.000954563220905633,-0.0068276356664977,0.04754077041849,-2.47816332920222,-0.00110618941859525,0
0.09,0.000836354130234999,0.000476661039577457,-0.041570397697545,-0.0238547502980549,0.000139484194918428,-0.000952490491910634,-0.00680481705492423,0.0474430346980842,-2.47817100093786,-0.00105823983957306,0
0.1,0.000835803631780274,0.000476587821935307,-0.0415494093501632,-0.023851090895794,0.000139195888511862,-0.000952012692948749,-0.00679442719288369,0.0474242945481265,-2.47817834106848,-0.0010147541685057,0
0.11,0.000835393357247359,0.000476579877971705,-0.0415350960178816,-0.0238506936846428,0.000138942806510882,-0.000951685524708356,-0.00678559257653948,0.0474128202476769,-2.47818537030281,-0.000973320184464817,0
0.12,0.00083501078970956,0.000476577490771678,-0.0415218998689852,-0.0238505700795541,0.000138702695600462,-0.000951383564013368,-0.00677724459427438,0.0474023925299044,-2.47819210236856,-0.000933656261224522,0
0.13,0.000872550759040007,0.000498180017467242,-0.0433858190007726,-0.0249316736685409,0.000144792473706823,-0.000994265204290491,-0.00707291044542914,0.0495367699806251,-2.47819877497666,-0.000962385629430859,0
0.14,0.000901434463431361,0.000515116823148014,-0.0448544011140417,-0.0257792974159655,0.000149227664535222,-0.00102745342351332,-0.00730907717103125,0.0512158848939278,-2.47820520744811,-0.000976972855112512,0
0.15,0.000839803197057103,0.000479808614293429,-0.0417755969857489,-0.0240122681681473,0.000139089555470025,-0.000957151927175965,-0.0068051472390604,0.0477019863019292,-2.478211422356,-0.000830396620310698,0
0.16,0.00083411087241765,0.000476842231826883,-0.041498647916254,-0.0238638145186206,0.000137916185537467,-0.00095084098949602,-0.00675130690420788,0.0473923968305206,-2.47821708141056,-0.000787417533724028,0
0.17,0.000833334122932237,0.00047659175622666,-0.0414647943291988,-0.0238512968203825,0.000137630108121729,-0.000950075479046193,-0.00674006800574889,0.047358051185143,-2.47822247557067,-0.000754792872507735,0
0.18,0.000833000163241783,0.000476569402115859,-0.0414526619237029,-0.0238501719854173,0.000137437172443029,-0.000949799289652698,-0.00673323894617182,0.0473478339271032,-2.47822763947737,-0.000724295575768439,0
0.19,0.000832716379372862,0.000476566259733159,-0.0414428262994836,-0.0238500045351043,0.000137260206263027,-0.000949574433190223,-0.00672708026809873,0.0473400143544573,-2.47823258491793,-0.000695152941008416,0
0.2,0.000832447502096769,0.000476564783918349,-0.0414335494804796,-0.0238499384332384,0.00013709130657787,-0.000949362317916118,-0.00672119579903163,0.0473326960234856,-2.47823732130716,-0.000667247859674763,0
0.21,0.000832190324565683,0.000476563499110094,-0.0414246804710811,-0.0238498796161359,0.000136929652665223,-0.000949159509885338,-0.00671556624711012,0.0473257021058961,-2.47824185749665,-0.00064052277662706,0
0.22,0.000831943973656353,0.000476562279256362,-0.0414161832194451,-0.0238498193529652,0.000136774797933675,-0.000948965244865872,-0.00671017588336966,0.0473189988825838,-2.47824620195001,-0.000614927355756936,0
0.23,0.000831708100125759,0.00047656111171761,-0.0414080474656914,-0.0238497605524572,0.000136626529381945,-0.0009487792411754,-0.00670501570724607,0.0473125801208947,-2.47825036277166,-0.000590413808108707,0
0.24,0.000831482296518821,0.000476559993463026,-0.0414002596722617,-0.0238497017583433,0.000136484590938708,-0.000948601177118174,-0.00670007815615069,0.0473064343149438,-2.47825434772332,-0.000566936401448409,0
0.25,0.000831266038966593,0.000476558922351176,-0.0413928002274891,-0.0238496429701494,0.000136348654480816,-0.000948430639758646,-0.00669535079648658,0.0473005460664928,-2.47825816423856,-0.000544451339779565,0
0.26,0.000839116173901932,0.000481158370085218,-0.0417844563408735,-0.0240798364844856,0.000137554791358524,-0.0009574486982503,-0.00675496006804244,0.0477509144551293,-2.47826177883872,-0.00053761026313651,0
0.27,0.000816393119335988,0.000468182815678894,-0.0406627369925171,-0.0234304589265421,0.000133783847096897,-0.000931555020625253,-0.00657577317334936,0.0464672335350799,-2.47826539946132,-0.000475872521453851,0
0.28,0.000815528459197085,0.000467761345976792,-0.040591056849264,-0.0234093735279652,0.000133580413920175,-0.000930614645042354,-0.00654809525224609,0.046397792120741,-2.47826875402171,-0.000454898971123143,0
0.29,0.000829161268069248,0.000475816556871659,-0.0413002756872368,-0.0238124867642846,0.000135624600571197,-0.000946316951121191,-0.00666700813113068,0.0472048546266211,-2.47827188919391,-0.000461209591523568,0
0.3,0.000821913055826409,0.000471889578758797,-0.0409437791554923,-0.0236159574295203,0.000134253353449321,-0.000938188085069658,-0.00660222974823881,0.0468029599405648,-2.47827458109101,-0.000432617749842696,0
0.31,0.000829431641401454,0.000476161779661725,-0.0413184298264032,-0.0238297631337394,0.000135513746485889,-0.000946743319322555,-0.00666430826008121,0.0472298343184067,-2.47827750208736,-0.000429197332513322,0
0.32,0.000829944578919299,0.000476519803678521,-0.0413462249371971,-0.0238476820216211,0.000135544786699149,-0.000947368322340383,-0.00666716937140565,0.0472627877609292,-2.47828033638009,-0.000413707701502869,0
0.33,0.000829849575186032,0.000476549171674938,-0.0413438270080161,-0.0238491502902321,0.0001354605747891,-0.000947311914386341,-0.00666440751726549,0.047261820465135,-2.47828305409499,-0.000397802183681801,0
0.34,0.000829707188674184,0.000476550970695179,-0.0413389855105661,-0.0238492378570505,0.000135369020183952,-0.00094720117978314,-0.0066612344538003,0.0472580768224488,-2.47828565721991,-0.000382475117476195,0
0.35,0.000829566146157132,0.000476550482801918,-0.0413341163005003,-0.0238492288046815,0.000135280199871174,-0.000947090080737599,-0.00665812567698161,0.0472542511039044,-2.47828815034014,-0.000367787671049869,0
0.36,0.000829430919024103,0.000476549829830276,-0.0413294448821418,-0.0238491897801076,0.000135195190639694,-0.000946983447676003,-0.00665516730013334,0.0472505620669302,-2.47829053808314,-0.000353720313794696,0
0.37,0.000829301396241093,0.000476549188822211,-0.0413249694262209,-0.0238491507492647,0.000135113780339222,-0.000946881302770827,-0.00665233437232907,0.0472470267523574,-2.47829282490117,-0.000340247493575058,0
0.38,0.000829177117514185,0.00047654857355632,-0.0413206707311511,-0.0238491300259806,0.000135035670600992,-0.00094678329243446,-0.00664960043647919,0.0472436413362001,-2.47829501505958,-0.000327344138114281,0
0.39,0.000829058304939628,0.000476547984147472,-0.0413165634631385,-0.0238490909796391,0.000134960994159003,-0.000946689592337426,-0.00664700319154816,0.0472403948494316,-2.47829711264442,-0.000314986182282846,0
0.4,0.000828944328970097,0.000476547419606611,-0.0413126196025075,-0.0238490716903213,0.000134889360413843,-0.000946599706376749,-0.00664449519288647,0.0472372886874689,-2.4782991215682,-0.000303150573527563,0
0.41,0.00082883524244389,0.000476546878893954,-0.0413088451334434,-0.023849052389122,0.000134820799124026,-0.000946513676089337,-0.006642095523652,0.0472343154197515,-2.47830104557845,-0.000291815233278004,0
0.42,0.000828730923573332,0.000476546361005785,-0.0413052371373071,-0.0238490118636157,0.000134755232652844,-0.000946431405410472,-0.00663981893051388,0.0472314597107695,-2.47830288826465,-0.000280959016146263,0
0.43,0.000828630801026322,0.000476545864979849,-0.0413017700802044,-0.023848992543291,0.000134692306689401,-0.000946352444049047,-0.00663761609504059,0.0472287275888614,-2.47830465306393,-0.000270561670516536,0
0.44,0.000828534985846027,0.000476545389894741,-0.0412984524205769,-0.0238489732123234,0.000134632087178719,-0.000946276879408299,-0.0066355087859011,0.0472261126789936,-2.47830634326849,-0.000260603800770754,0
0.45,0.000828443128786482,0.000476544934867131,-0.041295269498896,-0.0238489538716285,0.000134574356765554,-0.000946204436198748,-0.00663348782629897,0.0472236034522553,-2.47830796203138,-0.000251066831105614,0
0.46,0.000828355229847687,0.000476544499051167,-0.0412922239800539,-0.0238489345208782,0.000134519113228823,-0.000946135114329911,-0.00663155471364788,0.047221202029173,-2.4783095123721,-0.00024193297088062,0
0.47,0.000828271283656076,0.000476544081636772,-0.0412893181344489,-0.0238488939579914,0.000134466351133224,-0.000946068909480295,-0.00662972741500894,0.047218897164482,-2.47831099718293,-0.000233185181432136,0
0.48,0.000828190718881971,0.000476543681847611,-0.0412865258648793,-0.0238488745903684,0.000134415716672865,-0.000946005371370815,-0.00662795631449499,0.0472166944238117,-2.47831241923362,-0.000224807144288579,0
0.49,0.000828113530152008,0.000476543298939868,-0.0412838492463116,-0.0238488552139517,0.000134367204592656,-0.000945944495684217,-0.00662625927189016,0.0472145824049086,-2.47831378117701,-0.000216783230728436,0
0.5,0.000828039373592211,0.000476542932202251,-0.0412812733136282,-0.0238488555709705,0.000134320601303945,-0.000945886011375708,-0.00662461139597915,0.0472125614883555,-2.47831508555362,-0.00020909847262691,0
0.51,2.32716297695966,-0.039564299450666,2.4739653969141,1.98130469252103,-0.109627822960456,2.32491604053904,1.9059037231534,2.53250944081245,0.0301191044239435,9.26118064776882,552.571714139884
0.52,2.2942860192018,-0.0298669895258543,3.47223873410042,1.49719664335163,-0.340329278661466,2.26910034089591,1.01312175141839,3.64302400928866,0.135857276014857,19.5859460416574,552.571714139884
0.53,2.30843317338583,0.0286318297313113,2.09003196813788,-1.42925882589685,-0.692910642359426,2.20217127839026,-2.00992075007626,1.53988083878436,0.317243841067697,29.8922661938129,552.571714139884
0.54,2.29686160944506,-0.0587451169455632,1.96358918918698,2.945397620051,-1.29684558231637,1.89663274708996,1.40657052122054,3.24847795327711,0.574174029456545,40.2248497321739,552.571714139884
0.55,2.27151943053286,0.021299991066644,2.45169155095343,-1.05923952266779,-1.77681172462047,1.41534247027319,-2.58406537009943,0.674822932665159,0.907531340012879,50.7669451095216,552.571714139884
0.56,2.24411846167024,-0.00162682672800019,2.91953233970401,0.0896245037371457,-2.17411218935704,0.556153310395216,-2.80565591937019,0.812401684113671,1.31963475107232,61.7637819704624,552.571714139884
0.57,2.21957373361972,0.00665486347200317,3.11575946333114,-0.327056166695848,-2.15574746276743,-0.528492878811256,-2.94508526842033,-1.06836114270639,1.81420833700618,73.1459369945236,552.571714139884
0.58,2.17441085363924,0.0172545038461005,4.45798717430927,-0.856452031863301,-1.49750303156924,-1.57665625574125,-2.41869459609372,-3.84149400364178,2.38987181610426,83.7462582792369,552.571714139884
0.59,2.14616086364203,0.0177923040091076,5.09075428124345,-0.880863143087521,-0.234754210300772,-2.13335732577942,0.361490482337055,-5.15373880401678,3.04028390810735,93.631919669852,552.571714139884
0.6,2.18645723419168,0.0436121853721548,2.30260929028568,-2.16984618336853,1.23633439313393,-1.80387763665284,3.10437000385754,-0.610842764005971,-2.52080518443583,103.426292079604,552.571714139884
0.61,2.11632599006034,0.00226323639187503,4.87625994673377,-0.100394699601744,2.09089321078001,-0.327118326539375,4.83387222377887,-0.649360830361128,-1.72491798446696,113.899746623514,552.571714139884
0.62,2.1188349424738,0.0121743614815113,3.7320381023408,-0.599243706139716,1.60076495898275,1.38822234336521,2.4101848050131,2.91173670209989,-0.850641527092725,124.41764032439,552.571714139884
0.63,2.07228022874191,-0.0271445900352186,5.24595422527462,1.3727539889605,-0.226472317864998,2.06004671414113,0.861465820637741,5.35372448747193,0.096397672341004,133.895703923935,552.571714139884
0.64,2.10509961684562,0.0447383404693618,2.73966714832382,-2.22100881170264,-1.86866407807278,0.97033008779071,-3.43910193851537,-0.781814608309011,1.11310567447645,143.643186490381,552.571714139884
0.65,2.05714981476661,0.0507258144888798,4.09107036489257,-2.52686403027104,-1.68783296504291,-1.17713990280014,-1.80074598447677,-4.45861104575972,2.20444650926394,153.935533327676,552.571714139884
0.66,2.09179797182929,-0.0363208326944421,1.50882082447138,1.83621132597861,0.503035768780928,-2.03073705170407,-1.45243268930879,-1.88113040404908,-2.91613127145855,163.193772588872,552.571714139884
0.67,2.03571301022582,-0.0322626124816444,3.35347127976468,1.62854142981242,2.02618916854214,-0.199313294712892,3.1466519184757,-1.99912443754141,-1.68469640887345,172.995405486503,552.571714139884
0.68,1.98611983127154,0.0352888600374281,4.85432262772607,-1.74980564155662,0.770855812574888,1.83076448622764,0.179504878711822,5.15694153115928,-0.380760105170462,182.498977382025,552.571714139884
0.69,1.98225953683819,-0.0263882814653191,4.15852435617373,1.34357224678013,-1.67184333375311,1.06535866269061,-2.73988971484159,3.40463148574309,0.990135040818781,191.672691635326,552.571714139884
0.7,1.91996138775226,-0.00484860474271931,6.23310660811289,0.258408605364546,-1.24829078983669,-1.45878214392569,-4.26039149387118,-4.55713257590529,2.43126906182803,201.267724095412,552.571714139884
0.71,1.96808045635072,-0.00307156611895609,2.9419346921565,0.178461525892407,1.41017294618206,-1.37286648259919,1.9800649631946,-2.18315619932861,-2.34435104776002,210.141828909789,552.571714139884
0.72,1.93342697898109,0.0217606966187475,3.63065101038358,-1.07199771532702,1.35982599885431,1.37458599724032,1.75361923861861,3.35494045056129,-0.768745834222034,219.520024038903,552.571714139884
0.73,1.90709315441847,0.0773284014479142,4.03857950868706,-3.84413890247212,-1.41043355264644,1.28594757858531,-5.56490656327852,-0.345460984000015,0.872058783748784,228.272846545849,552.571714139884
0.74,1.85827422213701,0.0183635142615818,5.43928435649455,-0.89958455122664,-1.00551341408022,-1.56283814818416,-2.13641103789252,-5.08240243908164,2.57976039234431,237.362239936287,552.571714139884
0.75,1.85475302810483,0.0359481332499224,4.65887129053095,-1.78159302976178,1.72232138195283,-0.689209779977235,4.98786135515868,0.0198627073669102,-1.93206425621095,246.141203731312,552.571714139884
0.76,1.79868785923712,0.0249586664354616,6.47299377909173,-1.22484907561062,0.196272025332476,1.78812142822269,-0.602353951089893,6.56026473854454,-0.0954515591728152,254.7236260551,552.571714139884
0.77,1.84646204054249,0.00916627283609045,3.04800270332778,-0.441898771896004,-1.79865541440647,-0.417546150680782,-2.86353005540955,-1.13392708136937,1.80386375341009,263.56703395268,552.571714139884
0.78,1.78847355827706,0.042313076200849,5.00991665732228,-2.08841361608031,1.0111584664802,-1.47580033227371,4.62306908057661,-2.84393541089833,-2.51724206678632,271.799022399274,552.571714139884
0.79,1.79057080577978,-0.017622725423565,3.86786313554456,0.906112712925432,0.831417338113664,1.58593807598096,2.62784877121159,2.97923082681947,-0.492695223381261,280.308167561323,552.571714139884
0.8,1.75757435926702,0.00115962065166847,4.4993307770269,-0.0414016289951886,-1.75718895738296,-0.0368231058482814,-4.49738528868938,-0.138625759024948,1.59240873400484,288.736022065943,552.571714139884
0.81,1.71813707877003,-0.0299439789332353,5.51446377090831,1.5295205938777,0.989888211466473,-1.4046398086764,1.83218099807594,-5.42142570898521,-2.54512735678114,296.713452146538,552.571714139884
0.82,1.72277858976039,0.0313380833768802,4.25835669709381,-1.54090504149949,0.603189839213195,1.6140353659931,-0.0350540376090427,4.52843917051444,-0.339455528131321,304.820523760116,552.571714139884
0.83,1.71115762695526,0.00746014431540876,3.80616622186476,-0.35324763939388,-1.60764082585355,-0.586180051766762,-3.44770491692418,-1.65076225090667,1.92479662101572,312.945245206639,552.571714139884
0.84,1.62048620529762,-0.000898602456043174,7.34353423678059,0.0604057482118344,1.44855864029847,-0.726398110310671,6.53547775225302,-3.34942897983992,-2.03616792827883,320.837183208676,552.571714139884
0.85,1.63988566687235,0.0870504206030486,5.38443537498432,-4.32420940471132,-0.470937915269385,1.57321971005396,-5.88640296366512,3.61125898164765,0.343890654311875,328.493649496713,552.571714139884
0.86,1.61311035754347,0.0840879175409683,5.69678541410343,-4.17888240612262,-0.647944264985525,-1.47964996974378,1.89962268084261,-6.80498757449057,2.78092405565894,336.186977835943,552.571714139884
0.87,1.57241140233234,-0.0144767714856409,6.70101933478565,0.748090183370791,1.32331159691791,0.849431346584273,6.07059303688985,2.93448449102927,-1.00934413775879,343.847130087223,552.571714139884
0.88,1.56944729513177,0.0353248553605129,5.82804256683832,-1.749596356024,-1.56749565012462,0.0858489629701994,-5.88136360893615,-1.56100277686281,1.53858679007188,351.409306457199,552.571714139884
0.89,1.55367866352816,-0.0160216500086378,5.612197289726,0.817632171749089,1.31554821940709,-0.826744800519769,4.27855368068629,-3.72280259865773,-2.14217814941181,358.801227459771,552.571714139884
0.9,1.55234489745356,0.0321936050763855,4.68936724865242,-1.58847995092347,-0.735274626804021,1.36754609868776,-3.68900165293315,3.30222660516753,0.514055387642091,365.989786829726,552.571714139884
0.91,1.55543609910877,-0.0113233005214173,3.52546363869284,0.601757730121763,0.13841446780398,-1.54930665481303,-0.311600921140097,-3.56285154047307,-3.0597692868986,373.124215083748,552.571714139884
0.92,1.45476929493708,0.0123117024383812,7.54016652807667,-0.583235326970039,0.438867722245212,1.38704736828991,1.65614653010492,7.3791228061725,-0.297975036189071,380.194733600391,552.571714139884
0.93,1.49869839945577,0.00941719123788048,4.32752847918701,-0.438914558414079,-0.886063468049608,-1.20875022507133,-2.18088260028127,-3.76349569038585,2.5153174465759,387.188866082418,552.571714139884
0.94,1.43484661282976,0.00590892736555104,6.50124875184653,-0.266338513306775,1.13085444412593,0.883169261224751,4.94250613479246,4.23187956404662,-0.903645874414438,394.114827050408,552.571714139884
0.95,1.43083579647146,0.0533096176527668,5.68935359822544,-2.64031967801298,-1.3173197843128,-0.561071811496956,-4.02336785069396,-4.81170900052628,2.01068575345924,400.910820783857,552.571714139884
0.96,1.41522928602274,-0.0171854169934624,5.46160742243791,0.8864612362035,1.36251971282821,0.383026503950068,5.5048840865162,0.557871270223745,-1.30889538343309,407.608166967864,552.571714139884
0.97,1.35637667431001,0.0837206928997399,7.39537183441292,-4.16564120959569,-1.35553779032608,-0.0963542216500642,-6.77966322966236,-5.10688336940192,1.70340445732257,414.215303899685,552.571714139884
