t,iq,id,vq,vd,ia,ib,va,vb,theta_e,omega,r
0,0,0,0,0,0,0,0,0,0,0,0
0.01,0.000759745276483893,0.000433180631114582,-0.0374803432895503,-0.0216856703687648,-0.000801722231060725,0.000349427830224538,0.0395849488910253,-0.0175521011203836,1.67796810106212,-0.00119975695801396,0
0.02,0.000842790459744056,0.00048046672953902,-0.041648316538078,-0.0240528729174734,-0.000889345511749544,0.000387567539869455,0.0439820460675683,-0.0194602823656381,1.67795912543635,-0.00128401030018145,0
0.03,0.000875189153774473,0.000498984767127368,-0.0432564340036574,-0.0249799264440711,-0.000923535302826329,0.000402522542403667,0.0456799085772901,-0.0202104369134957,1.67794993697161,-0.00128449074150202,0
0.04,0.000856116861622142,0.000488416526714159,-0.0423374017151624,-0.0244508477952243,-0.000903438752698612,0.000394062437240146,0.0447093930624649,-0.019783066341755,1.67794134181162,-0.00120444487434238,0
0.05,0.000874993709187174,0.000499295206895598,-0.0432805647621333,-0.0249954549798519,-0.000923367292875752,0.000402867890496812,0.0457052159392553,-0.0202240770302396,1.67793284058884,-0.00118679694787571,0
0.06,0.000875415522800313,0.00049972436004293,-0.0433174667722423,-0.0250169377781589,-0.000923829264789754,0.000403257068255579,0.0457440372472673,-0.0202418665068518,1.67792462430994,-0.0011406874015404,0
0.07,0.000898608196316168,0.00051319737754591,-0.0444710217505017,-0.0256914303597031,-0.000948326334162202,0.000414180398789073,0.046962936236708,-0.020789516336076,1.67791682907514,-0.00113409609180063,0
0.08,0.000875717929332455,0.000500271374888865,-0.0433627191723146,-0.0250443258338167,-0.000924182194880031,0.000403782876004228,0.0457916459050422,-0.0202649657239935,1.67790919107519,-0.00105327812840725,0
0.09,0.000874455073164579,0.000499756590964186,-0.0433150231652622,-0.0250185609405499,-0.00092286861972377,0.000403412736443158,0.0457413221371514,-0.0202447788945336,1.67790194795961,-0.00100996517047201,0
0.1,0.000874099685523499,0.000499734185477923,-0.0433112634233974,-0.0250174386969579,-0.000922510073629781,0.000403434852757094,0.0457373234781979,-0.0202443824143304,1.67789500806801,-0.000969858745712052,0
0.11,0.000873794531577546,0.000499731392231249,-0.0433094014621384,-0.0250172972015497,-0.000922203685502572,0.000403470829480495,0.0457353223862576,-0.0202447450096175,1.67788835572746,-0.000931471763269735,0
0.12,0.000873503463899523,0.000499729455505912,-0.0433076868108618,-0.0250171906785715,-0.000921911505234171,0.000403505894209199,0.0457334770733731,-0.0202451140064697,1.67788197890054,-0.000894677000738985,0
0.13,0.000914981625338133,0.000523538514989056,-0.0453557958600314,-0.02620912252891,-0.000965694121419274,0.000422751481652772,0.047897114234541,-0.021211618746234,1.67787561816585,-0.000926064097936558,0
0.14,0.000957675321422769,0.000548419933822828,-0.0475427518909836,-0.027454708861505,-0.00101079978805884,0.000442933667197064,0.0502045309402482,-0.0222166462164586,1.67786952920796,-0.000960980194199438,0
0.15,0.000876171037481519,0.000501655439451658,-0.0434747528116279,-0.0251136152708238,-0.000924762218531017,0.000405152694709624,0.0459095192779844,-0.0203239721429519,1.67786363677689,-0.000794554928350482,0
0.16,0.000872566305247275,0.000499798982374451,-0.0433084199326202,-0.0250206774145643,-0.000920977575557441,0.00040369702148487,0.0457340986092067,-0.0202495866562066,1.67785827147782,-0.000758119924944776,0
0.17,0.000872193214224788,0.000499723875419821,-0.0433002213574259,-0.0250169107545319,-0.000920596523623904,0.000403666936094541,0.0457254405859272,-0.0202469522774451,1.67785314009201,-0.000728285017381934,0
0.18,0.000871962845467032,0.000499719486834346,-0.0432986063658113,-0.0250167034457995,-0.000920365019321624,0.00040369171480977,0.0457237131061944,-0.0202471436083951,1.67784822170773,-0.000699896289224175,0
0.19,0.000871747616578363,0.00049971796152971,-0.0432973325098151,-0.0250166150419819,-0.000920148956169694,0.000403717533116024,0.0457223416374606,-0.0202474073849355,1.67784350703938,-0.000672691993738252,0
0.2,0.000871541171285216,0.000499716605619391,-0.0432961038991121,-0.0250165503469179,-0.000919941723049065,0.000403742399768081,0.0457210216401375,-0.0202476809606598,1.67783898763055,-0.000646614729123401,0
0.21,0.000871343398934432,0.000499715309949525,-0.0432949315879938,-0.0250164885708349,-0.000919743195038202,0.000403766225736476,0.0457197617203532,-0.0202479428549644,1.67783465539408,-0.000621617473936763,0
0.22,0.000871153950277394,0.000499714067984279,-0.0432938136995822,-0.0250164268022148,-0.00091955302108341,0.000403789049184941,0.0457185595441579,-0.0202481907293464,1.67783050257802,-0.000597655485128683,0
0.23,0.000870972243237491,0.000499712877348777,-0.0432927361008882,-0.0250163650409419,-0.000919370619207202,0.000403810936970392,0.0457174009091645,-0.0202484264345044,1.67782652175146,-0.000574685886376998,0
0.24,0.000870798103191741,0.000499711735919765,-0.043291704440391,-0.0250163032855776,-0.000919195812703191,0.000403831912368499,0.0457162912873286,-0.0202486496923201,1.67782270579179,-0.00055266757765587,0
0.25,0.000870631058721153,0.000499710641667592,-0.0432907088894485,-0.0250162622928336,-0.000919028129894242,0.00040385203016556,0.0457152229853452,-0.0202488825038565,1.67781904787073,-0.000531561161126525,0
0.26,0.000879379268750955,0.000504777583200245,-0.0437268791351113,-0.0252699107280164,-0.000928266112543238,0.000407958737024113,0.0461759209515971,-0.0204546491382865,1.67781557189032,-0.000526023895849368,0
0.27,0.000850292625104443,0.000488180960959747,-0.0423062504049565,-0.0244390701532892,-0.000897571738701134,0.000394567070135876,0.0446746048844552,-0.0197804613622151,1.67781210434404,-0.000458858630452465,0
0.28,0.000847135977564269,0.000486356140078255,-0.0420829633738011,-0.024347703615204,-0.000894236967024803,0.000393092745140216,0.0444427724997968,-0.0197136107850848,1.67780887263437,-0.000435305882761232,0
0.29,0.000869077057149228,0.000499177108696575,-0.0432403887891049,-0.0249895447343518,-0.000917420710238078,0.000403499637591032,0.0456620702545215,-0.0202282947559665,1.67780586787602,-0.000453959062718411,0
0.3,0.000864268553243894,0.000496577362370646,-0.0430094952211105,-0.0248593937751009,-0.000912361007731187,0.000401430692046604,0.0454185446224122,-0.0201236662271616,1.67780328583702,-0.000431414081136339,0
0.31,0.000869549051392525,0.000499580981920461,-0.0432742167188393,-0.0250097621645316,-0.000917930953224756,0.000403855760620228,0.0456977543711176,-0.0202450310346147,1.67780045186286,-0.000423880658862047,0
0.32,0.000869647906710882,0.000499699336303814,-0.0432844495094647,-0.0250156863952654,-0.000918040778368894,0.000403965391588099,0.0457085059508919,-0.0202499535530565,1.67779771640589,-0.000408461642471192,0
0.33,0.000869537440368587,0.000499703278247381,-0.0432841875578832,-0.0250158810795606,-0.000917930305169213,0.000403983516180907,0.045708213173925,-0.0202502949899441,1.67779509345866,-0.000393342167799577,0
0.34,0.000869422893457158,0.000499702713113922,-0.0432835108107895,-0.0250158695192227,-0.00091781533719978,0.000403997494994319,0.0457074881458834,-0.0202504706934046,1.67779257910899,-0.000378834846758216,0
0.35,0.000869312892485959,0.000499701999046891,-0.0432828517442651,-0.0250158284940944,-0.000917704915276243,0.000404010744128899,0.0457067796588952,-0.0202506104494452,1.67779016889047,-0.000364927769111056,0
0.36,0.000869207548126847,0.000499701307680765,-0.0432822242751602,-0.0250157874643445,-0.000917599166032685,0.000404023426442914,0.0457061046091624,-0.0202507422610339,1.67778785849126,-0.000351596631620209,0
0.37,0.000869106272550239,0.000499700644641448,-0.0432816073052978,-0.0250157671517192,-0.00091749750393845,0.000404035614157914,0.0457054441482796,-0.0202508891737507,1.67778564377789,-0.000338817604614655,0
0.38,0.00086900954292376,0.00049970000901929,-0.0432810327018054,-0.025015726110934,-0.000917400401740704,0.000404047259107689,0.0457048254551661,-0.0202510067578088,1.67778352078734,-0.000326567823291551,0
0.39,0.000868916532834408,0.000499699399691565,-0.0432804668114886,-0.0250157057828219,-0.000917307036102709,0.000404058451961524,0.045704219417401,-0.0202511399846808,1.6777814857208,-0.000314825368885799,0
0.4,0.000868827603033309,0.000499698815571779,-0.0432799349754983,-0.0250156647318647,-0.000917217764130897,0.000404069156505618,0.0457036467329717,-0.0202512451164896,1.67777953493681,-0.000303569230363294,0
0.41,0.000868742276354601,0.000499698255618527,-0.0432794204114725,-0.0250156443886094,-0.000917132109870999,0.000404079425902313,0.0457030950687953,-0.0202513652987399,1.67777766494522,-0.000292779266864904,0
0.42,0.000868660564302273,0.000499697718832973,-0.0432789304066861,-0.0250156033274012,-0.000917050083306817,0.000404089261039909,0.0457025671793896,-0.0202514587176838,1.67777587239954,-0.000282436171667814,0
0.43,0.000868582106126958,0.000499697204257386,-0.0432784534078695,-0.0250155829703789,-0.000916971324357186,0.000404098702464162,0.0457020559355284,-0.0202515679390727,1.67777415409247,-0.000272521437641846,0
0.44,0.000868506849368722,0.000499696710973633,-0.0432779930262886,-0.0250155596954547,-0.000916895779525393,0.000404107757716642,0.0457015623433125,-0.0202516692309711,1.67777250694956,-0.000263017324131577,0
0.45,0.000868434735828018,0.000499696238101514,-0.0432775522447265,-0.0250155393234932,-0.000916823389663004,0.000404116434870353,0.0457010899303258,-0.0202517681973832,1.67777092802334,-0.00025390682521362,0
0.46,0.000868365649085482,0.000499695784797192,-0.0432771309417185,-0.0250155189441271,-0.000916754037787536,0.000404124748135995,0.0457006382078596,-0.020251862086854,1.67776941448855,-0.000245173639268789,0
0.47,0.000868299414518129,0.000499695350251504,-0.0432767258808694,-0.0250154985579101,-0.000916687549096455,0.000404132717862627,0.0457002039032666,-0.0202519513694006,1.67776796363737,-0.000236802139812298,0
0.48,0.00086823591571064,0.000499694933688932,-0.0432763364516314,-0.0250154781650406,-0.000916623806710472,0.000404140358113221,0.0456997863569512,-0.0202520362292152,1.67776657287336,-0.000228777347532821,0
0.49,0.000868175152663014,0.00049969453436562,-0.0432759676821365,-0.0250154577653197,-0.00091656280954699,0.000404147670451842,0.0456993905179105,-0.020252116243132,1.67776523970807,-0.000221084903490228,0
0.5,0.000868116776129286,0.000499694151568461,-0.0432756068996349,-0.0250154373598211,-0.000916504209318396,0.000404154693663814,0.0456990037376572,-0.0202521928743644,1.67776396175622,-0.000213711043421624,0
0.51,2.11555126850567,0.00458789947430588,3.93936769265157,-0.228574760845006,-0.0659720353003461,2.11452734885503,-0.359832489940583,3.92955275042663,0.0333579576418109,10.1993213049286,275.826491374186
0.52,2.01499004980668,0.0164679096606517,5.11015899682717,-0.822132070529194,-0.282497456354398,1.99515695623723,-1.57077959315746,4.93176211753632,0.148829117163524,21.2356070306848,275.826491374186
0.53,1.97773036480786,0.0346472790239434,3.23032119530946,-1.73095605966861,-0.634414542564203,1.87353569968919,-2.71902971376068,2.45724669519679,0.344016886415052,31.9465469738613,275.826491374186
0.54,1.87706342705714,-0.0156784857344055,4.62766449935116,0.789833835132012,-1.09795119322464,1.52253607556833,-2.03085240046072,4.23258251345645,0.616416439730829,42.3373055327604,275.826491374186
0.55,1.8624302811903,-0.00399766807319824,1.71077657040456,0.206430155185648,-1.53306295297583,1.05753511329773,-1.28855683323848,1.14411152005806,0.964789874515303,52.7186704933489,275.826491374186
0.56,1.71404015457308,-0.0246046631426049,5.40374530915347,1.23886627012311,-1.69044021607128,0.284518746001273,-5.09223599617179,2.19189086424008,1.38969493395766,63.2456274558432,275.826491374186
0.57,1.66364449742949,0.00616402006960359,4.19458227786458,-0.304514051866079,-1.58060642920312,-0.519070635783428,-3.88423142596586,-1.61245016143097,1.8918051487339,73.6072359827324,275.826491374186
0.58,1.57653163853401,0.0133420268934279,5.2602944978022,-0.663032622109269,-0.996674154303251,-1.22158530079739,-2.77353219673193,-4.51860925676037,2.46570269857882,82.8060239346375,275.826491374186
0.59,1.55431115946892,0.00197591609162107,3.39408439495631,-0.091734882307589,-0.0605653364065556,-1.55313197273122,-0.036272654857641,-3.39513010991148,3.10388803498341,91.2313633226831,275.826491374186
0.6,1.45817252233294,0.0316191318638559,5.32846488832813,-1.5736784728187,0.870190458118524,-1.17048513061299,4.51331992973444,-3.24020758807528,-2.48061975060667,99.4005858232122,275.826491374186
0.61,1.44414607278009,-0.033847171476749,3.00862545051191,1.70174593150093,1.4329424214047,-0.182700649922128,2.7200044083458,-2.13291873624557,-1.72104564339903,107.943184714745,275.826491374186
0.62,1.39127238713505,-0.0357294198213249,2.69076087067265,1.79407086250835,1.06675007810798,0.893845466231072,3.2226985671211,0.270366914248199,-0.89903590300095,116.107696788263,275.826491374186
0.63,1.305605863752,-0.0652896427905466,4.4088659096494,3.27725364287216,-0.037646698516416,1.30669511937947,3.3698171396926,4.33852768736371,-0.0211628849404687,123.314241019354,275.826491374186
0.64,1.303321301128,0.0271846595949529,2.00284582470212,-1.34930984505795,-1.01127426018153,0.822623723451721,-2.40918249274363,0.166937629534554,0.908761173514463,130.47366586043,275.826491374186
0.65,1.25118590048964,0.00698719527059449,1.93384810094214,-0.345100025042126,-1.18912345065103,-0.389230519863999,-1.72532169281484,-0.939216461261255,1.89271459099559,137.859843064936,275.826491374186
0.66,1.18217700237903,-0.0100011594543419,3.06887140273684,0.509467738660556,-0.241433285873998,-1.15730396033902,-1.14995076879743,-2.89052630028064,2.9274656591649,144.326539757049,275.826491374186
0.67,1.15158301672196,0.000604976340924823,2.35085580802897,-0.0179092059279078,0.877464533983829,-0.745788040933458,1.8036574536902,-1.50786722212147,-2.27472745784655,150.661816180803,275.826491374186
0.68,1.12499910861125,0.0484885218643768,1.3282257425985,-2.42262358814291,1.0449983753897,0.419466955267744,0.21174341765159,2.75471475804828,-1.14600555613113,157.144892747769,275.826491374186
0.69,1.01292132536028,0.0174335600791841,4.89330677317428,-0.862520936113031,-0.00993192539972653,1.01302265386541,-0.994375049910239,4.86822470740029,0.0270134037614162,162.826097730884,275.826491374186
0.7,0.972236051794111,-0.0283394803638582,4.82255673344297,1.4220866496216,-0.929272441126728,0.287226037673932,-4.10468419270972,2.90361009166642,1.24188330439391,168.710677952404,275.826491374186
0.71,0.980656341054687,0.0601286867561047,2.4150268975463,-3.00297414424419,-0.635721939370486,-0.74910608996644,0.957226309408351,-3.7328174907766,2.49912631833196,174.152137852484,275.826491374186
0.72,0.930857169981714,-0.0270412421298419,3.06558655819995,1.36639343795305,0.586904959170725,-0.72302757110853,0.776673775134024,-3.26521512616189,-2.48878025591508,179.306726338627,275.826491374186
0.73,0.941509914667018,0.0422461770977495,0.61901121193308,-2.11002260726897,0.878283792116986,0.341823403821735,-0.286447495344444,2.18021056691685,-1.15479883246869,184.528520563694,275.826491374186
0.74,0.837549495748392,0.014552518615417,4.14411639207826,-0.71657936301253,-0.164449880189424,0.821375170389343,-1.58411484965681,3.8958653464518,0.214973600739732,189.172922423606,275.826491374186
0.75,0.780118676330249,0.0107086943165713,5.24792687052172,-0.533724129143915,-0.779710345682732,-0.0274153630021731,-5.21558657771407,-0.789464714058275,1.61966895077712,194.016390829888,275.826491374186
0.76,0.816330656656562,-0.0021025973098823,1.89370039268791,0.116867027646646,-0.0663777594624438,-0.813630232330097,-0.275296757238811,-1.87722422072354,3.05761504710823,198.278915067862,275.826491374186
0.77,0.719694113409973,-0.0101084235818161,5.09109357625672,0.507580833692879,0.709290129441609,-0.1223491290569,4.91105537141573,-1.43471503924073,-1.75565509608199,202.742150403092,275.826491374186
0.78,0.732327457336668,-0.0380968566424907,3.01287924394253,1.91823213537138,0.147717182003802,0.718285813166377,2.61569981575461,2.43211232010622,-0.254799341927189,206.704854156904,275.826491374186
0.79,0.707113290983757,0.0225710991313495,2.76002307634075,-1.12860875993312,-0.669965283218125,0.227299758214419,-2.96897620932892,-0.276885144726346,1.275620696105,210.832331756959,275.826491374186
0.8,0.674408020110134,-0.0248376335122174,3.04631143292684,1.25448038322923,-0.180010960651884,-0.650414590605518,-2.1159606742179,-2.52516233209888,2.83477559807124,214.504667163945,275.826491374186
0.81,0.625904073642172,0.0262031715444038,4.07762905872581,-1.31095756518107,0.592025269761429,-0.204813562941419,4.28234166897325,0.0849606287995908,-1.8620221495224,218.295954231703,275.826491374186
0.82,0.604445328343206,-0.0215588463363993,3.906313790736,1.09052822772066,0.128293748381269,0.591066538502702,2.02092368506508,3.51630583230367,-0.24939125502736,221.67589374568,275.826491374186
0.83,0.609171169933025,0.00212534878614318,2.38798652500831,-0.104523711528211,-0.598683566700875,0.112570059728829,-2.367342052773,0.330297525067014,1.38842599427534,225.1230019834,275.826491374186
0.84,0.562054385142318,-0.0379098932594197,3.60057470052114,1.90960388947348,-0.0136379178751693,-0.563166315630365,-2.23080845182215,-3.41089707261946,3.05003408956524,228.232512066073,275.826491374186
0.85,0.541179955285883,-0.021380292953172,3.46719939517869,1.07384501159607,0.540560807754197,0.0335689447275932,3.49051541848323,-0.995448074079244,-1.54826202577059,231.37011913934,275.826491374186
0.86,0.531704847920859,-0.0397258017319943,2.85515446125717,1.99609179829462,-0.123131699122978,0.518774295138919,1.52053599193194,3.13436752186072,0.158463484620755,234.341085682772,275.826491374186
0.87,0.500690139538052,0.0270251796975738,3.33280281959382,-1.34659238941752,-0.484264613183273,-0.130033690199023,-2.74871920197587,-2.31633944969618,1.88704973037728,237.157265173491,275.826491374186
0.88,0.46243211461091,0.00127980672693151,4.22262168302759,-0.066071093247958,0.218078621945228,-0.407782801475548,2.05981474801593,-3.68674144349639,-2.64773350897707,239.919463292948,275.826491374186
0.89,0.488358456915198,0.0183556244552186,1.97007361770735,-0.909053915180656,0.387959964095233,0.297183407425381,0.938337233316934,1.9562955595878,-0.87955505247795,242.452344271765,275.826491374186
0.9,0.392939502610742,0.0188823910931423,5.75790274857865,-0.946246955726157,-0.297960832758258,0.25686054494098,-5.11926229659596,2.80035371015192,0.907358773655285,245.04561958788,275.826491374186
0.91,0.448113084323473,0.0277544060276,2.12568474357521,-1.37831491873934,-0.211822155641723,-0.395862372264824,0.368040850062673,-2.50655811362374,2.71212551545854,247.388455860859,275.826491374186
0.92,0.408669806300725,0.0397170995554262,3.2122290109854,-1.98440666395245,0.395166856234256,-0.111497149348773,3.51300490182727,1.38386472846616,-1.74891750812893,249.687702431264,275.826491374186
0.93,0.377237242487938,-0.0581341598021842,3.93612745615045,2.90721381301184,-0.0916309452640202,0.370528389635439,2.5436315548915,4.18030262284783,0.0895318140675631,251.951371411902,275.826491374186
0.94,0.324676868422885,0.0359785648277496,5.7642257735356,-1.79298342290582,-0.315430097721551,-0.0849316164177326,-4.71304498902248,-3.77204125833179,1.94417826965943,254.006033528001,275.826491374186
0.95,0.304641224030311,0.00178326928734038,5.98592508300823,-0.0908242286308755,0.188307072808777,-0.239478395180499,3.79854677665747,-4.62715793175883,-2.46939432530723,256.054482065254,275.826491374186
0.96,0.367500607848756,0.00559433346455548,2.10316506658224,-0.26995930993781,0.207719703151556,0.303216949161401,0.93706360216235,1.90212857920186,-0.585402399192129,257.993159993622,275.826491374186
0.97,0.293448117465594,0.0665430713877252,5.08637388318508,-3.32656473407477,-0.266749784496002,0.139227621056849,-5.76689425790027,-1.91837504876761,1.31274198569732,259.826597194619,275.826491374186
