t,iq,id,vq,vd,ia,ib,va,vb,theta_e,omega,r
0,0,0,0,0,0,0,0,0,0,0,0
0.01,0.000486240730443954,0.000258348373082039,-0.0217660232694252,-0.0129267468071517,-0.000505384702902539,-0.000218541144613363,0.0236869838099012,0.00893237650185245,2.46732629821721,-0.00457037432601223,0
0.02,0.000571650476895424,0.000301959144727358,-0.0262848177583062,-0.0151088580848388,-0.000592783820317362,-0.000258013439939079,0.0282131329926878,0.0110990253604576,2.46729330532632,-0.0043620540182232,0
0.03,0.000595894688248974,0.000318713386654703,-0.027843775222471,-0.0159471737212103,-0.000621015828169979,-0.000266473344780687,0.0298416523905201,0.0117925379345294,2.46726461636292,-0.00362386137322341,0
0.04,0.000573520324512208,0.000312161764459938,-0.0272830952482954,-0.0156193603204803,-0.000601933640451512,-0.000253073946332134,0.0292357619508749,0.0115586299491043,2.46724328648518,-0.00262515234902939,0
0.05,0.000580336518429597,0.000320024427076594,-0.0278777264021043,-0.016012776896911,-0.000612335431864637,-0.000253478652812887,0.0299145414387053,0.0117769632678723,2.46722670757374,-0.00211845139854203,0
0.06,0.000576151811837894,0.000321036485374231,-0.0279339634364801,-0.016063419166934,-0.000610516198961021,-0.000249570242680721,0.0299893632554303,0.0117888862975719,2.46721394490197,-0.00162335563416209,0
0.07,0.000582531016108589,0.000327483874719235,-0.0283731196160976,-0.016386013037303,-0.000619537763332681,-0.000250521521499388,0.0305156631340103,0.0119301988038611,2.46720481262656,-0.00137347186689938,0
0.08,0.000569557328402448,0.000321996150217671,-0.0279586572293226,-0.0161114380434757,-0.000607152169395791,-0.000243809996287927,0.0300424856258816,0.011777691085871,2.46719730704421,-0.000965247183131363,0
0.09,0.000565143643774384,0.000321288270507911,-0.0278674478501617,-0.0160760113733803,-0.000603844507716742,-0.000240801373262027,0.0299579227248654,0.0117284123976577,2.46719204147313,-0.000731058408514582,0
0.1,0.000562782578620096,0.000321196615903184,-0.0278375000387875,-0.0160714244424446,-0.000602299518529966,-0.00023901210606267,0.0299356846695693,0.0117077698723034,2.46718819783687,-0.000569695950260159,0
0.11,0.00056119401155953,0.000321184494935868,-0.0278218763818639,-0.0160708233710569,-0.00060129877223682,-0.000237777174901166,0.0299254924061355,0.0116958571076151,2.46718536469066,-0.000452447065657147,0
0.12,0.000560046949989221,0.000321182704919156,-0.0278114564748847,-0.0160707337040321,-0.000600581605139234,-0.000236881091900126,0.029918940284448,0.0116877117219733,2.46718327153141,-0.000366117908787416,0
0.13,0.000584645494908898,0.000334853972104797,-0.0289021188687395,-0.0167547931427724,-0.000626620709716715,-0.000247556101734033,0.0311343203565915,0.0121123764923723,2.46718089741706,-0.000556608567905768,0
0.14,0.000599410913682105,0.000344030868664341,-0.0298569940517604,-0.0172139681567042,-0.0006430091591847,-0.00025335726403587,0.0320892564439533,0.0125714125849519,2.46717883549359,-0.000648572368363376,0
0.15,0.000563972993800701,0.000324126705689484,-0.0280916179871823,-0.0162180389139572,-0.000605334123380447,-0.000238105560936464,0.03020901257188,0.0118143703507386,2.46717711170889,-0.000193371958489399,0
0.16,0.000557867489850911,0.000321561235085885,-0.0278348681296321,-0.01608967506761,-0.000599517820353359,-0.000234938603088707,0.0299484280757786,0.0116939806466916,2.4671769378688,-0.000119274686990612,0
0.17,0.00055685460514414,0.00032123057828935,-0.0277905535937345,-0.0160731288900187,-0.000598627051995301,-0.000234353980802037,0.0299078317673556,0.0116697018101122,2.4671770011014,-0.000110217891274994,0
0.18,0.000556715778172626,0.000321187968773536,-0.0277831365743082,-0.0160709975995388,-0.000598507062863528,-0.000234272202050723,0.0299015346499289,0.0116652418461918,2.46717708126185,-0.000111488644723353,0
0.19,0.000556719386828237,0.000321182483981957,-0.0277820595714148,-0.0160707226680039,-0.000598505016990124,-0.000234278484553915,0.0299006466246849,0.0116645742540074,2.46717714634872,-0.00011381620581282,0
0.2,0.000556740574387777,0.000321181782430431,-0.027782023881257,-0.016070686329424,-0.000598517687894178,-0.000234295501050763,0.0299005953820964,0.0116645705378993,2.46717719548426,-0.000115778901469069,0
0.21,0.000556759491874077,0.000321181696003394,-0.0277821237657284,-0.0160706820065198,-0.000598529424686387,-0.000234310352788944,0.0299006539517307,0.0116646523457745,2.4671772319886,-0.000117272136108539,0
0.22,0.000556774043789294,0.000321181687820823,-0.0277822120010473,-0.016070682057515,-0.000598538498773717,-0.000234321740166422,0.0299007087741127,0.0116647220400047,2.4671772590089,-0.000118383485712497,0
0.23,0.000556784870414215,0.000321181688952833,-0.0277822706477627,-0.0160706821158814,-0.000598545255561827,-0.00023433020779489,0.0299007452080148,0.0116647684083581,2.46717727899116,-0.000119206430296112,0
0.24,0.000556792903071415,0.000321181690715448,-0.0277823061064596,-0.0160706821798149,-0.000598550269395079,-0.000234336489622523,0.029900767227463,0.011664796506014,2.46717729376597,-0.000119815089245429,0
0.25,0.000556798840252823,0.000321181692137973,-0.0277823230450985,-0.0160706822479239,-0.000598553975364461,-0.000234341132639791,0.0299007777304143,0.011664810020412,2.46717730468973,-0.000120265134169557,0
0.26,0.000561903414487669,0.000323978227508492,-0.0279965360034116,-0.0162106086174463,-0.000603925736266965,-0.000236582003091634,0.0301438316765104,0.0117447550760564,2.46717747077242,-0.000182944141646826,0
0.27,0.000549589703900893,0.000316778239574781,-0.0274816030971962,-0.0158503528285141,-0.000590612961115249,-0.000231459771590325,0.0295409066876439,0.0115674986774205,2.46717696501193,-2.80503702140119e-05,0
0.28,0.000549290045352004,0.000316640177214709,-0.0271910233901717,-0.0158434449313447,-0.000590317994282657,-0.000231311956836369,0.0293540606857037,0.0113448500015399,2.46717701300472,-2.63998243339982e-05,0
0.29,0.000555532916679329,0.000320596337670365,-0.0277277991233751,-0.0160413934919106,-0.000597306270705737,-0.000233717890238418,0.0298438538255696,0.0116405127991247,2.46717733159488,-0.000107113300123668,0
0.3,0.000548575361784904,0.000317269007501466,-0.0274049629774361,-0.015874910487624,-0.000590362470335674,-0.000230362115586665,0.0295122098474705,0.0114923560988853,2.46717878390229,-8.06730800051971e-05,0
0.31,0.000555981955396658,0.000320677538038766,-0.0277218653025809,-0.0160454612343573,-0.000597649773199032,-0.000234018731567456,0.0298433098522119,0.0116333786641101,2.46717869442834,-0.000160005920971875,0
0.32,0.000557115450503259,0.000321116830772578,-0.0277756655443695,-0.0160674434230369,-0.000598700763557218,-0.000234629580212892,0.0298940780979583,0.0116616649436665,2.46717839043822,-0.000161945839136315,0
0.33,0.00055719703852655,0.000321173422029884,-0.0277839934938868,-0.0160702630390731,-0.000598795974733771,-0.000234657809168536,0.0299014838330856,0.0116664010385835,2.46717812424837,-0.000153498916970054,0
0.34,0.000557125501602666,0.000321180693732921,-0.0277846607118866,-0.0160706284791678,-0.000598757031800063,-0.000234597270727433,0.0299021882863473,0.0116666878880825,2.46717792022349,-0.000145532187179581,0
0.35,0.000557049598851196,0.000321181614338903,-0.0277841879851323,-0.0160706767272565,-0.000598710389797609,-0.000234537319243692,0.0299019325564333,0.0116662839780141,2.46717776812205,-0.000139342115077715,0
0.36,0.000556989470342163,0.000321181720669092,-0.0277836625447487,-0.0160706827473012,-0.000598672952599488,-0.000234490220669888,0.0299016104667567,0.0116658664427132,2.46717765544811,-0.000134713285910949,0
0.37,0.00055694430119733,0.000321181725256459,-0.0277832351186853,-0.0160706829172552,-0.000598644770279542,-0.000234454887540977,0.029901344669599,0.01166552999383,2.46717757210528,-0.00013128190084915,0
0.38,0.000556910831792332,0.000321181719105798,-0.0277829072525921,-0.016070683063951,-0.000598623880268137,-0.000234428712465222,0.0299011407701663,0.0116652719724314,2.46717751048014,-0.000128743353178785,0
0.39,0.000556885977121141,0.000321181713328255,-0.0277826504125287,-0.016070683193476,-0.000598608366169838,-0.000234409275503592,0.029900981021464,0.0116650699185177,2.46717746491723,-0.000126866226154634,0
0.4,0.000556867699915629,0.000321181708898027,-0.0277824563362958,-0.0160706833098819,-0.000598596957575575,-0.000234394982286834,0.0299008603162525,0.0116649172509992,2.46717743123033,-0.000125478342312052,0
0.41,0.000556854195738308,0.000321181705602023,-0.0277823041387402,-0.0160706834167636,-0.000598588528281186,-0.000234384421698513,0.0299007656519138,0.0116647975622654,2.4671774063244,-0.000124452215443044,0
0.42,0.000556844184020639,0.000321181703162411,-0.0277821810775607,-0.0160706835166818,-0.000598582278967601,-0.000234376592324982,0.0299006891003432,0.0116647008296113,2.4671773879104,-0.000123693557017764,0
0.43,0.000556836733440048,0.000321181701358452,-0.0277820785128032,-0.0160706836114902,-0.000598577628303618,-0.000234370765860652,0.0299006252875934,0.0116646202528464,2.46717737429596,-0.000123132650002706,0
0.44,0.000556831261919926,0.000321181700024542,-0.0277819953628134,-0.0160706837023512,-0.000598574212980805,-0.000234366487016386,0.0299005735537321,0.0116645549490007,2.46717736423052,-0.000122717948788139,0
0.45,0.000556827187383665,0.000321181699038348,-0.0277819232806509,-0.0160706837904276,-0.000598571669648273,-0.000234363300670651,0.0299005286982953,0.0116644983701102,2.46717735678856,-0.000122411343454997,0
0.46,0.000556824218792961,0.000321181698309282,-0.0277818630132939,-0.0160706838763002,-0.000598569816659335,-0.00023436097914891,0.0299004911961536,0.0116644510788182,2.46717735128656,-0.000122184657768026,0
0.47,0.000556822006901848,0.000321181697770185,-0.027781808440225,-0.0160706839606623,-0.000598568435996664,-0.000234359249404089,0.029900457231847,0.0116644082790056,2.46717734721883,-0.00012201705990142,0
0.48,0.000556820318879683,0.000321181697371712,-0.0277817562884332,-0.0160706840439789,-0.000598567382320499,-0.000234357929385441,0.0299004247663027,0.0116643674027341,2.46717734421115,-0.000121893148041437,0
0.49,0.000556819154726466,0.000321181697077003,-0.0277817127494447,-0.01607068412625,-0.000598566655666707,-0.000234357018950861,0.0299003976689798,0.0116643332777844,2.46717734198766,-0.000121801535007655,0
0.5,0.000556818223403892,0.000321181696859145,-0.0277816678820082,-0.0160706842080573,-0.000598566074326062,-0.000234356290672713,0.0299003697349978,0.0116642981328384,2.46717734034369,-0.000121733801798773,0
0.51,4.65799757763036,-0.00261024624077849,7.10103236165651,0.146082204568041,-1.39948736663639,4.44279004199173,-1.99033937072364,6.81795789083006,0.304602186405884,94.5117164230111,738.962551708235
0.52,4.67530363792106,-0.00204689585327933,6.23686591838757,0.139325728029455,-4.60470210808813,0.809436095259715,-6.1180278343218,1.2196899445757,1.39635158661531,204.349105622729,738.962551708235
0.53,4.47408415652711,-0.00359452326615362,9.43041555200106,0.221262375931477,0.842072589829413,-4.39412741209701,1.55012577082682,-9.30477321685192,-2.95305568366953,322.628894403536,738.962551708235
0.54,3.50543092416286,0.0300054600548972,8.12838622578084,-1.44287194934536,0.848933298491287,3.40121427528803,0.497993959227596,8.24042135538251,-0.236039951520538,415.083365278825,738.962551708235
0.55,2.69285045059228,0.0225147448548719,8.06308490028305,-1.07979550500668,-0.131954439287341,-2.68970974064922,0.751156866374574,-8.10031232755278,3.10093370563831,490.191310184203,738.962551708235
0.56,2.10609336804363,0.0391170873975441,6.34550891321123,-1.9245550353264,-1.21101913264319,1.72354056575874,-5.29775915034268,3.98787455126209,0.631063081342792,547.954008118149,738.962551708235
0.57,1.60486414006384,0.00426777255363986,7.69289057981894,-0.192157991295642,1.59702902418244,0.158446892883068,7.63377923785671,0.971032808072685,-1.46924714715374,592.071813502998,738.962551708235
0.58,1.21627708426165,-0.0169402123637958,8.84341395864493,0.861272547671628,-0.156564049296772,-1.20627717169925,-2.11275471183729,-8.63041298970901,2.99859605504345,626.043096208493,738.962551708235
0.59,0.913839633532179,-0.00253352799878279,9.86212764978789,0.135720946450219,-0.901440401376583,0.150048316699563,-9.7010956529031,1.78009131486022,1.40308223098682,652.181925081744,738.962551708235
0.6,0.716986324864249,0.0279575104557204,8.83949820385681,-1.39032555055279,0.044483316111849,0.716150994568127,-1.18612276458595,8.86920776731714,-0.0230613954691439,672.350845744107,738.962551708235
0.61,0.545050216187435,0.0349027904463204,9.01016596074331,-1.73525349983428,0.53647260130209,0.102445551387447,8.29040739104415,3.93234543743871,-1.31815805183213,688.000400581082,738.962551708235
0.62,0.445623753271627,-0.000169152805316548,7.51531750367936,0.0254987883202126,0.262581750570529,-0.360043583972663,4.40545327972605,-6.08872965153374,-2.51184772367236,700.014241715199,738.962551708235
0.63,0.35368652913348,-0.00732893080540487,7.07083117998025,0.388777129825353,-0.158698851943724,-0.316168544464787,-3.64600893862475,-6.07078413814266,2.65567260697991,709.370244803291,738.962551708235
0.64,0.261723100258287,-0.00158108002281428,7.75206132657885,0.10144625341903,-0.261559554491085,-0.00938511999247509,-7.75163891573321,-0.129770079227411,1.60062136072088,716.666097067039,738.962551708235
0.65,0.198377162941655,-0.012006719707903,7.93098632074143,0.586551433916287,-0.120660743077545,0.157919742828117,-3.93886052213488,6.90868760269158,0.591990322192994,722.191740434389,738.962551708235
0.66,0.105814262286612,-0.030427901047549,10.232718124752,1.50775410990999,0.0110807561014574,0.109543288747597,5.20301910168614,8.93926366677187,-0.380816044712957,726.44774606478,738.962551708235
0.67,0.119241504483551,0.0143260420304212,7.76213029371575,-0.722038507684477,0.119159104567094,0.0149959884811412,7.35581635582001,2.58146703303564,-1.32603604785582,729.826086568747,738.962551708235
0.68,0.0761411114749584,-0.0192611194406316,8.54426852953428,0.970201249328103,0.0713509332140449,-0.0328253546551019,6.04014920221467,-6.12065460420478,-2.24974879886639,732.366930482897,738.962551708235
0.69,0.0221648308278527,0.0350520440480525,10.1248221856846,-1.73909573020894,-0.0353859980064348,-0.0216276827853225,1.58448224941249,-10.1501672031479,3.12634130318486,734.406033955938,738.962551708235
0.7,0.0250534680168032,0.0361520153519023,9.17106044637957,-1.79308309111062,-0.0419740206129807,0.0131463328443423,-6.13683956159519,-7.04717651815356,2.23205390001984,735.872916381041,738.962551708235
0.71,0.027159937537035,-0.0262205779263758,8.42418971720141,1.2928011057278,-0.0322902473154529,-0.0195581400474502,-7.92904497905932,3.12546841456239,1.34759248963852,737.070260938173,738.962551708235
0.72,0.0342748796252846,-0.00741157896438156,7.56533862732725,0.358636504167262,-0.0221527894876417,0.0271836861736822,-3.1121369304214,6.90489481560424,0.4708177844974,737.973112432143,738.962551708235
0.73,0.0104422037391461,0.013907478712374,8.34886977766331,-0.695797308024878,0.0168753888386999,0.00420462062588951,2.6091323961224,7.96116753986117,-0.39984940622387,738.716901878709,738.962551708235
0.74,-0.0229438554059093,0.0327087617825639,9.71504199946652,-1.625307380222,-0.0120696746661384,-0.0380868291104597,8.77941145018818,4.46604967727714,-1.26597922041567,739.259005774826,738.962551708235
0.75,0.00965421378614649,0.0216536955297044,7.86211998381803,-1.06691690657299,-0.00327298435073466,-0.02348135318421,7.23484681690784,-3.25702837896151,-2.12868464228415,739.651438446301,738.962551708235
0.76,-0.0308747407934037,-0.0250153852257415,9.71068867029849,1.23089830583314,0.020025692189418,0.0343218701324213,0.261158268418351,-9.78490579666473,-2.98882443407806,739.923569346827,738.962551708235
0.77,-0.00863027477792482,0.0148396374836241,8.49341776536114,-0.75818549186476,-0.00570128235529945,0.016192339636168,-4.9300377617927,-6.95756554006676,2.43609564904531,740.147652736097,738.962551708235
0.78,0.00269828307630692,-0.02894179902108,7.85706781251529,1.44545996482334,-0.00245563292835668,-0.0289633963660625,-7.86890598484912,1.37956069890981,1.57917722339755,740.254078562352,738.962551708235
0.79,0.00347785362994146,-0.0149899174012124,7.74088480849658,0.760392224196183,-0.013541721283766,-0.00730854802537871,-4.55077006633474,6.30793038613957,0.722884875686855,740.431765129588,738.962551708235
0.8,-0.0147122307952601,0.0278726147585439,8.55132770624818,-1.37864822567218,0.0256836836131502,-0.0182669314475859,-0.236376154100958,8.65852197453868,-0.132551896219846,740.542319627245,738.962551708235
0.81,-0.0293847153490433,-0.0394981088315913,9.26499657054547,1.95605308309975,-0.046286552352844,0.0167665490994409,8.80918445368195,3.47340961839108,-0.987151033363252,740.549415971913,738.962551708235
0.82,-0.00920532146445413,-0.0403909156705014,8.25889157136395,2.00413052169776,0.0019347016366266,0.0413814081628783,7.42181582145123,-4.14034769651091,-1.84159366501413,740.532481469877,738.962551708235
0.83,-0.00561014149205652,-0.000205334660186535,8.06181460770545,0.00507626327292588,-0.00223169813925447,0.00515124968321438,3.46866471129577,-7.27744774341068,-2.69618389990709,740.59930165435,738.962551708235
0.84,0.0372897859742197,-0.00959281255698329,5.83629775587936,0.489428387406459,-0.00601053153794037,-0.0380318774370653,-2.76770265177605,-5.16156310365703,2.73305887953111,740.739712246279,738.962551708235
0.85,-0.0103769990149741,0.0118581777967458,8.21431388523391,-0.57734150719467,0.00628232080128511,0.0144509838615144,-7.65031571351363,-3.04646439412032,1.879592859339,740.706162673606,738.962551708235
0.86,-0.0256150517072811,-0.0338441487882183,8.96530471738599,1.67572137027633,0.00436863067941081,-0.042219336176125,-6.79918099095688,6.07913387240278,1.02603128498475,740.675504479179,738.962551708235
0.87,0.0148309543344239,-0.0518461907483731,6.93946013874104,2.57681865814824,-0.0536228887286581,0.00570705755888353,1.34682102440116,7.27888552886963,0.172585910793833,740.705970687482,738.962551708235
0.88,-0.0407561664803702,-0.0222155281660026,9.7152721236851,1.10359726116831,-0.0429164997528695,-0.0176852720316104,6.97287834167731,6.85444432352313,-0.680853948054582,740.689980185691,738.962551708235
0.89,-0.000102908453385182,0.0340622091438985,7.61697405711909,-1.69782493576883,0.00114987064925947,-0.0340429505096493,7.54938003584367,1.97680661010344,-1.53401092499335,740.839315989346,738.962551708235
0.9,-0.0306686929576532,0.00934954860992037,9.1346266186783,-0.45281909207755,0.0316823830222962,0.00492030415407334,-9.10690869347901,0.843008090976881,1.42896023303059,740.820350132744,738.962551708235
0.91,-0.0499463803785743,-0.0309791714079169,10.0676415596426,1.54359367758821,0.00123884028521681,-0.0587606607245873,-4.19141475295766,9.2828945046048,0.576254958511912,740.814579629655,738.962551708235
0.92,-0.00139378445190769,-0.00688826692143657,7.70899588091898,0.32577733928875,-0.00700680045100935,0.000543694508958819,2.42218024558137,7.32583041195572,-0.277086377291684,740.689266826727,738.962551708235
0.93,0.0283404818383238,0.0215541062254182,6.21804833359086,-1.08690896494929,0.0348235490771649,-0.00742178116595081,5.16199736524818,3.63308125124254,-1.1305665164208,740.711983647858,738.962551708235
0.94,-0.0319554452601346,0.0303566641225049,9.1752236643551,-1.51508861016891,-0.0414517243694984,-0.014981057546621,9.01200362258504,-2.29434380469003,-1.98373945477577,740.791139737659,738.962551708235
0.95,0.00188069052322348,0.00424702090578582,7.45634161089862,-0.197453506312514,-0.00348638698602147,-0.00306908605321267,2.42711279423773,-7.05302357784382,-2.83663747567902,740.829057723361,738.962551708235
0.96,-0.0243118446991718,0.0249980844786548,8.78541847403692,-1.24509701825253,-0.00867117962875286,0.0337754446917359,-3.51435318502299,-8.14758651624696,2.59358147233361,740.732288267839,738.962551708235
