t,iq,id,vq,vd,ia,ib,va,vb,theta_e,omega,r
0,0,0,0,0,0,0,0,0,0,0,0
0.01,0.000749957458416447,0.000423305032295976,-0.0367813381751861,-0.0211882846509108,0.000756896986722523,0.000410767928752866,-0.0374839279187292,-0.0199189706608784,-0.559714078732797,-0.00142820381688506,0
0.02,0.00083777859792353,0.0004725838542022,-0.0412007268694547,-0.0236549120491772,0.000845289176558528,0.000459014908673267,-0.0419208500207006,-0.0223539055238148,-0.559724694209228,-0.00149586950623038,0
0.03,0.000871982971304619,0.000492260738599595,-0.042912280495424,-0.0246398318540125,0.00088012935897044,0.000477542928426475,-0.043664473083882,-0.0232808702891214,-0.559735274523274,-0.00145596055899598,0
0.04,0.000851152755340893,0.000481370020456437,-0.0419398226525485,-0.0240947128447963,0.000859845020167086,0.000465665814519907,-0.0426864213659692,-0.0227458423050751,-0.559744851568386,-0.00131557493777012,0
0.05,0.000870348366834699,0.000492741954478813,-0.0429143737831969,-0.0246639089621633,0.000879678140687884,0.000475885786876783,-0.0436864232456021,-0.0232690418045939,-0.559754005853826,-0.00126011107736327,0
0.06,0.000870382329419352,0.00049336943415068,-0.0429533789421306,-0.0246953308747258,0.000880231966069169,0.000475573846873043,-0.0437339601025496,-0.0232850351794249,-0.559762573685933,-0.00117210205039586,0
0.07,0.000891498929723927,0.000506024850256596,-0.0440156490672185,-0.0253287920497717,0.000902172337171557,0.000486740757301594,-0.0448349794407653,-0.0238484734952839,-0.559770402998008,-0.00113412652570167,0
0.08,0.00086966037351837,0.000494100789093585,-0.0429848222595278,-0.0247319375207062,0.00088047560849276,0.00047456027846873,-0.043782031833935,-0.0232915728688213,-0.559777858695345,-0.00101351817106052,0
0.09,0.00086747059743269,0.000493438158935716,-0.0429078557432207,-0.0246987745220302,0.000878754565230179,0.000473050597918675,-0.0437132194737375,-0.0232436656018792,-0.559784662082813,-0.000939171059676257,0
0.1,0.000866522290730808,0.000493399578964187,-0.0428891011440148,-0.0246968421735593,0.000878221290274341,0.000472261993139693,-0.043701769425978,-0.0232285246911182,-0.559790952916994,-0.000872591755164283,0
0.11,0.000865709026787321,0.000493395710773546,-0.0428748761419072,-0.0246966384718794,0.000877788907423373,0.000471569804456631,-0.0436941783750902,-0.0232163246901915,-0.559796774829818,-0.000811105033888979,0
0.12,0.000864960196068983,0.000493393893898145,-0.04286189663567,-0.0246965515059146,0.000877392265779945,0.000470931510168095,-0.0436873374193825,-0.0232051371186679,-0.559802163075149,-0.000754206147694141,0
0.13,0.000905260219182981,0.00051655589420925,-0.0448470731789775,-0.0258559147227227,0.000918421481003851,0.000492775851182087,-0.0457240292072882,-0.0242714122358039,-0.559807434811611,-0.00078114083141184,0
0.14,0.000941243636064569,0.000537873316126087,-0.0467232538342606,-0.0269229416011045,0.000955595483875963,0.000511941947713203,-0.0476246012143514,-0.0252943589065079,-0.559812327398692,-0.000803283204716452,0
0.15,0.000867557959904548,0.000495853628707066,-0.043052681577552,-0.0248196822081695,0.000880862970270316,0.000471813588721503,-0.0438933276584817,-0.0233007682920066,-0.559816919374205,-0.000607740366146154,0
0.16,0.000862644913641733,0.000493524509614328,-0.0428304938439998,-0.0247030982116744,0.000876282238591236,0.000468883916285842,-0.0436766419434436,-0.0231742359684361,-0.559820828810906,-0.000557660760008299,0
0.17,0.000861883676529267,0.000493394400865197,-0.042809100101672,-0.0246965834728216,0.000875769432731163,0.000468304823129625,-0.0436598441897571,-0.0231594104430824,-0.559824426682105,-0.000519141990520497,0
0.18,0.000861405683023583,0.000493386200602944,-0.0428003233150909,-0.0246961621240507,0.00087551020929853,0.000467901236485626,-0.0436549034239916,-0.0231520518869425,-0.559827755346487,-0.000483960749745345,0
0.19,0.000860976639749461,0.000493384827945025,-0.0427928477611093,-0.0246961017476863,0.000875282647252213,0.000467535720624396,-0.0436509537480516,-0.0231456150906173,-0.559830836001332,-0.000451428016782977,0
0.2,0.00086058048382136,0.000493383901758352,-0.0427859726413486,-0.0246960617061877,0.000875072818746059,0.000467198036747082,-0.0436473348115469,-0.0231396863096886,-0.559833687188493,-0.000421320169610998,0
0.21,0.000860213839173767,0.000493383063464029,-0.0427796079569358,-0.0246960187214392,0.000874878635540571,0.000466885499339925,-0.0436439795001158,-0.0231342008946121,-0.559836326003886,-0.000393455013821941,0
0.22,0.000859874610336421,0.000493382288515806,-0.0427737208615713,-0.0246959786147704,0.000874698971815856,0.000466596331775756,-0.0436408756762022,-0.023129127227353,-0.559838768266362,-0.000367665407668586,0
0.23,0.00085956064362313,0.000493381571218324,-0.0427682702241608,-0.0246959384776267,0.000874532686195397,0.000466328699159225,-0.0436379993770371,-0.0231244313579226,-0.559841028616181,-0.000343796747646188,0
0.24,0.000859270076388744,0.00049338090724082,-0.0427632244796644,-0.0246958983107948,0.000874378792452158,0.000466081013469546,-0.043635334158916,-0.0231200859452345,-0.559843120603273,-0.000321705951235133,0
0.25,0.000859000926869008,0.000493380292624601,-0.0427585415305678,-0.0246958785957622,0.000874236240897444,0.000465851586466826,-0.0436328753147082,-0.0231160438918308,-0.559845056767938,-0.000301260593769328,0
0.26,0.000867574017002805,0.000498355457067062,-0.0431835877578173,-0.0249448919443833,0.000883005489796414,0.000470472253758177,-0.044069637428446,-0.0233438844813663,-0.559846808876762,-0.000300507190399912,0
0.27,0.000840699728730052,0.000483097863945462,-0.0418828690320086,-0.0241811912158943,0.000855806229337066,0.00045580179668725,-0.0427318115598431,-0.0226472295830215,-0.559848602360801,-0.000227969267777498,0
0.28,0.000838893720490853,0.000482062635128549,-0.0417045991015315,-0.0241293777346248,0.000853970648450068,0.000454819953445137,-0.0425932711756526,-0.0225236255215937,-0.559850141958011,-0.000208506423547004,0
0.29,0.000856950134363534,0.000492751328456575,-0.0426865455349947,-0.0246643957159024,0.0008726171887244,0.000464442296118822,-0.0435681127070442,-0.0230714789488687,-0.559851464699854,-0.000231258180075677,0
0.3,0.000850908533305316,0.000489578250474266,-0.0423961426152884,-0.0245055598330964,0.000866720475521785,0.000461007388986921,-0.0432793239867853,-0.0229097247176001,-0.559852328898661,-0.000210211686892548,0
0.31,0.000857398011700207,0.000493167084513598,-0.042717403871729,-0.0246851965125628,0.000873208289910961,0.000464599188705583,-0.0436021736221432,-0.0230864890320883,-0.559853546167905,-0.000210761988424428,0
0.32,0.000857635512537868,0.000493365566141902,-0.042733993939512,-0.0246951312287319,0.000873503135567753,0.000464694013705701,-0.0436194287262872,-0.0230952198954435,-0.559854703806332,-0.000199339526393427,0
0.33,0.000857510252960263,0.000493376241772284,-0.0427325530402366,-0.0246956612345954,0.000873446159256572,0.00046458127034703,-0.0436191373946725,-0.0230936706934002,-0.559855777074577,-0.000188054082653346,0
0.34,0.0008573734649897,0.000493376536460767,-0.0427302022838305,-0.0246956907968034,0.000873374227205233,0.000464464341421524,-0.0436179369816579,-0.023091619791875,-0.559856770511371,-0.000177566537841647,0
0.35,0.00085724587650243,0.000493376278109876,-0.0427279770508948,-0.0246956737042918,0.000873306677487443,0.000464355565959767,-0.0436167619854387,-0.0230897032565651,-0.559857689958209,-0.000167857606216362,0
0.36,0.000857127775860448,0.000493376009561918,-0.0427259150840531,-0.0246956536808306,0.000873244125811442,0.000464254895179933,-0.043615669626211,-0.0230879296072744,-0.5598585409201,-0.00015887169419002,0
0.37,0.000857018170835124,0.000493375759371023,-0.04272398988241,-0.0246956540709229,0.000873186071841026,0.000464161468693119,-0.0436146657292024,-0.0230862637685897,-0.559859328498064,-0.000150555091122639,0
0.38,0.000856917008618934,0.000493375527711873,-0.0427222202309022,-0.0246956310968648,0.000873132489905409,0.000464075237517552,-0.0436137232858912,-0.0230847447001663,-0.559860057412918,-0.000142857951949752,0
0.39,0.000856823177869695,0.000493375313291213,-0.042720570439671,-0.0246956314445272,0.000873082790768553,0.000463995256833214,-0.0436128630022717,-0.0230833171766947,-0.559860732034241,-0.000135734136248242,0
0.4,0.000856736567571815,0.00049337511483154,-0.042719053309756,-0.0246956113460562,0.000873036916292873,0.000463921429705076,-0.0436120546845768,-0.023082015111916,-0.559861356406265,-0.000129140939895289,0
0.41,0.000856656124584566,0.000493374931145719,-0.0427176332038142,-0.0246956116574383,0.000872994307940519,0.000463852861125965,-0.0436113141121631,-0.0230807864484911,-0.559861934271748,-0.000123038839566756,0
0.42,0.000856581970725914,0.000493374761134455,-0.0427163319575167,-0.0246955915288851,0.000872955031099133,0.000463789651863734,-0.0436106183483652,-0.0230796712311838,-0.559862469094898,-0.000117391255840452,0
0.43,0.000856513052855508,0.000493374603780481,-0.0427151114971619,-0.0246955918087539,0.000872918527118614,0.000463730907294822,-0.0436099818596337,-0.023078615365788,-0.559862964081231,-0.000112164333925189,0
0.44,0.000856449373674576,0.000493374458141836,-0.0427139854030205,-0.0246955920734173,0.000872884798025093,0.000463676627609173,-0.0436093946212485,-0.0230776410760352,-0.559863422198631,-0.000107326740710644,0
0.45,0.000856390703053513,0.000493374323346135,-0.0427129547027327,-0.0246955719063175,0.000872853722149338,0.000463626615870781,-0.0436088399430299,-0.0230767599554399,-0.559863846192816,-0.000102849476943526,0
0.46,0.00085633610426767,0.000493374198586938,-0.0427119840356574,-0.0246955721459423,0.000872824802529492,0.000463580076570366,-0.0436083337083883,-0.0230759202428752,-0.559864238605748,-9.87057033853295e-05,0
0.47,0.000856285580018083,0.000493374083117316,-0.0427110843065188,-0.024695572373656,0.000872798041065979,0.000463537010334824,-0.0436078644616577,-0.023075141919276,-0.559864601789797,-9.48705799293094e-05,0
0.48,0.000856239016590281,0.000493373976245511,-0.0427102596771558,-0.024695552176162,0.000872773377798563,0.000463497319273676,-0.0436074171667001,-0.0230744392570005,-0.559864937921719,-9.13211166873863e-05,0
0.49,0.000856195710090636,0.000493373877331517,-0.0427094841173762,-0.0246955523838042,0.000872750439307339,0.000463460405535996,-0.0436070126428807,-0.0230737684281799,-0.559865249016788,-8.80360361810637e-05,0
0.5,0.000856155779635319,0.000493373785783066,-0.0427087720872208,-0.024695552581497,0.000872729289219332,0.000463426368735742,-0.04360664131439,-0.0230731524456844,-0.559865536939877,-8.49956457909583e-05,0
0.51,2.79857862446332,0.0125379581498737,5.47767170392183,-0.625274448084033,-0.124823992230866,2.79582161245333,-0.893350629231228,5.44038418538846,0.0490970794396921,14.974954257278,309.958646061429
0.52,2.7046055905957,-0.0231513734758697,3.64134093884359,1.16389677775687,-0.608627107197431,2.63533687242444,0.34725179230176,3.80702452512646,0.218409277542346,31.0946958862916,309.958646061429
0.53,2.57406399770929,0.00428125912677702,3.870434829546,-0.206561856986757,-1.2380364939691,2.25678741424254,-2.04812069089473,3.29061319605533,0.503418317400106,46.5979461204311,309.958646061429
0.54,2.4788605652605,-0.0065138952083218,2.40710762061894,0.336723168522271,-1.94711857833601,1.53411908753302,-1.67774467049806,1.75861377512995,0.900854288182553,61.8347623590268,309.958646061429
0.55,2.27977757344527,0.0126591084366506,5.96960364574648,-0.624147440984163,-2.24860721675718,0.375914381419442,-5.99276280320696,0.335442543360012,1.41070431956726,77.3171161232265,309.958646061429
0.56,2.20281986725809,-0.0583329246027411,3.67810020168065,2.92746711359782,-1.94632349878476,-1.03326808513468,-4.59696545311172,0.983053110313651,2.032368386511,91.9189305636701,309.958646061429
0.57,2.0467806443008,0.0252124344597352,6.20124658217587,-1.25120256551166,-0.797456904517891,-1.88520798804072,-1.18712477566502,-6.21383149110862,2.75372844748011,104.656066535244,309.958646061429
0.58,2.01576502035936,-0.0115796039935585,2.84040453066203,0.596094191529748,0.838481223965038,-1.83313718569863,0.623128152719692,-2.8345965300672,-2.71834448158517,116.65809902469,309.958646061429
0.59,1.83308650522592,-0.0132990913052872,6.78369047187747,0.673042065316846,1.78074696073161,-0.435112931681041,6.41347711234976,-2.31057425098024,-1.81769854295649,129.169933032088,309.958646061429
0.6,1.81725285529135,0.0512412350821404,2.8376354992326,-2.55327430506474,1.37382601554281,1.19064507022668,0.36520549716876,3.79973812890396,-0.828517733786002,140.39747057373,309.958646061429
0.61,1.68361273934201,-0.0283506696337661,5.26802334821682,1.43806185712788,-0.425042215736573,1.62932339680775,0.153652268889516,5.45861547304339,0.238345559106781,150.709954178688,309.958646061429
0.62,1.59505941179619,-0.0398104394968384,5.17151491451579,2.00026714480183,-1.57439808541046,0.258978892785523,-4.70659100914896,2.93149044587069,1.38280901448761,161.448731864411,309.958646061429
0.63,1.47426435379978,0.0109447231122676,7.3303512718505,-0.531300423244879,-0.768381935128243,-1.25823859963731,-3.31842370500398,-6.55777355682003,2.60078046083206,170.705566704091,309.958646061429
0.64,1.40953285350481,0.0322359934266542,6.62808973165549,-1.6078392295198,0.931579441988532,-1.05829191041317,5.67431766107771,-3.78402425468461,-2.39692135320293,180.143853401663,309.958646061429
0.65,1.36412918544699,0.0471887913639326,5.29462764725671,-2.34689336628535,1.20325329576846,0.644404161098455,3.39936212352027,4.68885141041866,-1.04453478704274,188.608301667472,309.958646061429
0.66,1.31902382545377,0.00269251181981191,4.0551940833213,-0.12925327669159,-0.472245076765641,1.23159071497199,-1.58017933714962,3.73688890996039,0.36819358579787,196.989020407324,309.958646061429
0.67,1.22760947762527,0.0311242088209888,5.3395052598999,-1.54244053004163,-1.19134867016251,-0.297795386183423,-4.73378719287944,-2.91216380407153,1.84109006138712,204.663395632682,309.958646061429
0.68,1.13484452299983,0.0213016968176101,6.75723210059459,-1.06274444384317,0.234957405240037,-1.11045975676424,2.55800190970838,-6.34399224811583,-2.91431383820278,212.296860153967,309.958646061429
0.69,1.11858797574012,0.0454499171465116,4.64927904141607,-2.25683558306654,1.09775504155283,0.219632928278871,3.98590057625408,3.28963509377004,-1.33271984205947,219.103556314356,309.958646061429
0.7,1.07368763586635,0.0317081125834308,3.94987001542077,-1.58241812552406,-0.285704124912736,1.03546303498663,-2.67485384999176,3.3091807360571,0.298743966863021,225.985621730941,309.958646061429
0.71,1.00333132749183,-0.0228048053415287,4.8610503267356,1.16219349727589,-0.912372182787226,-0.418055991404567,-4.92408200608861,-0.85669154395326,1.97772963219753,232.106176957332,309.958646061429
0.72,0.96044763258798,-0.00226959700941987,4.36970527267013,0.123703591788834,0.512532153942082,-0.812265718339714,2.21832520082631,-3.76678378089339,-2.58106003559051,238.185851431163,309.958646061429
0.73,0.869697998106855,-0.0357516926729369,6.47344668638501,1.79012051847304,0.608138022804261,0.622752709074618,5.93745754578642,3.13952884428717,-0.814610497737778,243.873146188752,309.958646061429
0.74,0.836192330101735,0.0781765841632961,5.85903629779235,-3.89541884104179,-0.657575976324565,0.522420354305999,-7.03554706708005,-0.0605949906584575,0.992660384311484,249.109070195611,309.958646061429
0.75,0.819136403198673,0.0513143930196022,4.44864913650824,-2.56322278020665,-0.293771925623313,-0.766365232569824,1.1165808844814,-5.01137079940574,2.83810049550912,254.299384951693,309.958646061429
0.76,0.742933950352009,-0.0682211866291888,6.18079129535147,3.41411859325033,0.742425150581135,0.0735518910383305,6.20513716485792,-3.36966757570671,-1.56361869342666,259.117393098614,309.958646061429
0.77,0.735523088596669,0.000616946487521253,4.56973430731705,-0.0135539158949082,-0.253436233230614,0.690481477063382,-1.59089215130655,4.28389046440473,0.352615069424906,263.591655382278,309.958646061429
0.78,0.673711491138565,-0.00637330087796598,5.7099198066023,0.323867728742578,-0.497539908551173,-0.454292671804334,-4.46895877921024,-3.56882080430915,2.30133025420812,267.987266335458,309.958646061429
0.79,0.664437050293072,0.000465789100684788,4.37765878180187,-0.0259711829829451,0.603255125629102,-0.278496075670486,3.98671379156098,-1.80850326414137,-2.00259959501762,272.099792877555,309.958646061429
0.8,0.600012560765912,-0.00974398486671994,5.91324040265363,0.505798740674685,-0.0133674378150521,0.599942772207659,0.47007793240751,5.91618721501499,0.00603929468964276,275.864741998668,309.958646061429
0.81,0.532504418512396,-0.015039668914791,7.64594742231713,0.761344282501552,-0.467640428339509,-0.255146187819322,-7.15826914929614,-2.79272982717105,2.04202196164777,279.517299810674,309.958646061429
0.82,0.559459043440526,-0.0192164724883917,4.7190110964162,0.959943577324745,0.470023571029819,-0.304041998379602,3.32322766099913,-3.48521381165009,-2.17929963572003,283.048844126388,309.958646061429
0.83,0.533750832641476,0.0169666422325479,4.54875563363472,-0.846319237572716,0.0663134069985554,0.529887110945681,-0.421517406370104,4.60757605933275,-0.0927221626663086,286.293352873652,309.958646061429
0.84,0.436266894545694,-0.0100012502760963,8.01181139901752,0.51571128080496,-0.389139321547824,-0.197482699771216,-7.44846286013517,-2.99591071959155,2.01749406744838,289.365689509861,309.958646061429
0.85,0.415079713515652,0.0144957376176508,7.7248095641059,-0.720191226826251,0.343331877916126,-0.233718883678452,6.91772977700728,-3.51231731727165,-2.13356852548542,292.296042040093,309.958646061429
0.86,0.427701492261078,-0.0282790593230888,5.83278470500554,1.41138123914783,-0.0364192221406938,0.427085368441976,1.30004375166925,5.85860569256122,0.0190454887250284,295.041183406868,309.958646061429
0.87,0.35265213163925,0.0156849496424476,8.40172960454618,-0.792477376787528,-0.296067113090706,-0.192233733098871,-6.37573568781433,-5.5287498749499,2.19112083992503,297.617381534581,309.958646061429
0.88,0.322189182750911,-0.00107375898947608,8.78119385368839,0.0685288899097206,0.305092000908799,-0.103565889276019,8.28347041860731,-2.91516372248021,-1.90138150939329,300.047250048798,309.958646061429
0.89,0.364779673303575,0.00390024797393798,5.55736002980674,-0.186696933069586,-0.106417540912197,0.348933702837548,-1.85588504093421,5.24164067449761,0.306710292967721,302.357788956264,309.958646061429
0.9,0.353237750678969,-0.0123536225242287,5.09563486789989,0.616809591913484,-0.192337055667741,-0.296540009967075,-3.42603408072619,-3.82207263894033,2.53124108903759,304.558395519402,309.958646061429
0.91,0.296266084201147,-0.0150132571658479,6.95506788762527,0.742571274552975,0.294867461648283,0.0324371792809969,6.98673046236698,-0.331630616048623,-1.5118625075629,306.624492981966,309.958646061429
0.92,0.30862941015881,0.00254383675904835,5.4150605049028,-0.116455827047372,-0.20688271983849,0.229037385927844,-3.74851059131704,3.9096177023074,0.742861266052586,308.550565995679,309.958646061429
0.93,0.257834171387681,0.0544791001342988,7.06900968926185,-2.71376540979303,-0.0874961788317416,-0.248577655827025,1.77292173178096,-7.36153307533464,3.01138078649632,310.34484431605,309.958646061429
0.94,0.276687445782566,0.000270752493481446,5.29118134359135,-0.00703194191766884,0.231531332284258,0.151490125523975,4.4209518068587,2.90720391104737,-0.99042814203745,312.055150999695,309.958646061429
0.95,0.252669417888582,-0.0460434832800345,5.68363927710432,2.30184850773394,-0.255848374448304,0.022437610854864,-4.87223261307121,3.72338708018991,1.30307093721907,313.689756240033,309.958646061429
0.96,0.230629933574774,0.0205237384232742,6.01864030982965,-1.03719082018469,0.0854112269291436,-0.215212249683957,3.63362652990364,-4.90882411762351,-2.67503158030772,315.214333785243,309.958646061429
