t,iq,id,vq,vd,ia,ib,va,vb,theta_e,omega,r
0,0,0,0,0,0,0,0,0,0,0,0
0.01,0.00104340942979646,0.00059535350858981,-0.0514583405880845,-0.0298033952001308,0.000662589301523803,0.00100206010592408,-0.0331183419432464,-0.0493900658884425,-0.0657175204992746,-0.00141538641167583,0
0.02,0.00115874948071001,0.000661004666131687,-0.0572433040995684,-0.033089903514118,0.000735684968466628,0.00111283204252297,-0.0367782393169312,-0.0549463255509942,-0.0657281401120686,-0.00152050702644629,0
0.03,0.00120404783231375,0.000686883916744427,-0.0594896336233552,-0.0343854087351375,0.000764496184462125,0.00115632447069344,-0.0382191108092055,-0.0571022977775603,-0.0657390486196898,-0.00152627262009323,0
0.04,0.00117761702016943,0.000672173315486534,-0.0582153375128114,-0.033649000347402,0.000748092661358911,0.00113090944918938,-0.0374011549664868,-0.0558787468836126,-0.0657492951937547,-0.00143533952511082,0
0.05,0.00120397955540185,0.000687351593857932,-0.0595309882975989,-0.034408827037459,0.000764981957662843,0.00115621001027279,-0.038246361106529,-0.057141244367721,-0.0657594526577745,-0.00141861575688878,0
0.06,0.00120470992684782,0.000687993947620381,-0.0595883953405215,-0.0344409810470035,0.000765682312219611,0.00115688905110299,-0.03828278131527,-0.057196037358418,-0.0657693022669074,-0.00136771269735193,0
0.07,0.00123638670113114,0.00070638077335755,-0.0611630369355792,-0.0353614137538902,0.000786122373957198,0.00118728155248326,-0.0393052628446745,-0.058706413470488,-0.0657786774368653,-0.00136253535674738,0
0.08,0.00120532097480462,0.000688796906784793,-0.0596590646983837,-0.034481178102631,0.000766545209989365,0.00115743175701318,-0.0383286004485376,-0.0572631996284494,-0.0657878910574591,-0.00127057359619111,0
0.09,0.00120355900133387,0.000688045094797113,-0.0595918174027785,-0.0344435453252157,0.00076568932334487,0.00115571630700697,-0.0382871296572405,-0.0571982361489053,-0.0657966578138202,-0.00122189774840104,0
0.1,0.00120310823213133,0.00068800989589262,-0.0595881540021453,-0.0344417820760998,0.000765634297519911,0.00115526237605556,-0.0382856112967709,-0.0571943740029865,-0.0658050841246352,-0.00117684808153498,0
0.11,0.00120272987412335,0.000688005323084361,-0.0595873341536462,-0.0344415437754295,0.00076561421255898,0.00115487893401381,-0.038285783031729,-0.0571932613759741,-0.0658131870000414,-0.00113360443408982,0
0.12,0.0012023683007188,0.000688002171470523,-0.0595866559239653,-0.0344413982421036,0.000765596284654115,0.00115451238514162,-0.0382860388540298,-0.0571922958617673,-0.0658209790222453,-0.00109202315468219,0
0.13,0.00125933103343011,0.000720705410461716,-0.0623983976320084,-0.0360785068558793,0.000801984754106689,0.00120919452306458,-0.0401050065209549,-0.059889958556891,-0.0658287614729871,-0.00113056042669747,0
0.14,0.00131647964999435,0.000753987511141385,-0.0653281656670884,-0.0377446157405,0.000838963527968973,0.0012640237476188,-0.0419606994323132,-0.0627034684046713,-0.0658362405385837,-0.00117095728343823,0
0.15,0.00120640363113552,0.000690802269270223,-0.0598339422803561,-0.0345815632536693,0.000768681821755489,0.00115833749544272,-0.0384434584937235,-0.0574289619000542,-0.0658434982262447,-0.000978946965162875,0
0.16,0.00120124073705117,0.000688110157511543,-0.0595951853158942,-0.0344467855086286,0.000765663509833454,0.0011533578312611,-0.0382936436345686,-0.0571993356771029,-0.0658501429235309,-0.000936707392011116,0
0.17,0.0012007301673944,0.000687993142373676,-0.0595840896885023,-0.0344409421019739,0.000765520500945396,0.00115285118791477,-0.0382874473481195,-0.0571884045278759,-0.0658565179136463,-0.000902388095007248,0
0.18,0.00120043625178876,0.000687985833551537,-0.0595830858904038,-0.0344405839662909,0.000765500930607536,0.00115255369810489,-0.0382873744753059,-0.0571871917823394,-0.0658626476895792,-0.000869664066305546,0
0.19,0.00120016280473005,0.000687983283650911,-0.0595825709979763,-0.0344404329462339,0.000765487181522209,0.00115227649952855,-0.0382875269866871,-0.0571864622572216,-0.0658685422840334,-0.000838207736375302,0
0.2,0.00119989997224133,0.000687981021993062,-0.0595820807665042,-0.034440316388685,0.000765474155030704,0.00115201004682572,-0.0382877025704141,-0.0571857637292575,-0.0658742107470683,-0.000807958689348923,0
0.21,0.00119964682300075,0.000687978855004791,-0.0595815884167988,-0.0344402313650801,0.000765461607022055,0.00115175341677145,-0.0382878970383365,-0.0571850693374661,-0.0658796617546325,-0.000778870089775074,0
0.22,0.00119940389752759,0.000687976771301048,-0.0595811396235781,-0.0344401177531686,0.000765449571653275,0.00115150714305644,-0.0382880538831543,-0.0571844282959714,-0.0658849036486134,-0.000750897397168353,0
0.23,0.00119917028527586,0.000687974767369631,-0.0595807067579578,-0.034440004159669,0.000765437995018267,0.00115127031118165,-0.0382882002902342,-0.0571838108456466,-0.0658899444515037,-0.000723997801758812,0
0.24,0.00119894530853425,0.000687972840149798,-0.0595802732416319,-0.0344399191678074,0.000765426838600239,0.00115104223918608,-0.0382883641308676,-0.0571831982667524,-0.0658947918774502,-0.000698130137029685,0
0.25,0.00119872906293934,0.000687970986710825,-0.0595798603675569,-0.0344398341807462,0.000765416114567612,0.00115082301699762,-0.0382885186969961,-0.0571826134048161,-0.0658994533449682,-0.000673254815748037,0
0.26,0.00121077774006503,0.000694951155797416,-0.0601807175180289,-0.0347892651525809,0.000773179726808392,0.00116238244774844,-0.0386770154795277,-0.0577589837552371,-0.0659038989677336,-0.000666648545984166,0
0.27,0.00117129161044298,0.000672400541547595,-0.0582531489772537,-0.033660384921468,0.000748082650230302,0.00112446381595497,-0.0374238916541752,-0.0559097774301067,-0.0659083362983757,-0.000588103665497928,0
0.28,0.00116737038873699,0.000670142350365594,-0.0579670014944514,-0.0335473347403897,0.000745575765246112,0.00112069673530851,-0.0372924722653851,-0.0556315417975897,-0.0659124921151965,-0.00056071882609298,0
0.29,0.00119658357601414,0.000687205565524844,-0.0595116167882232,-0.0344015121337485,0.000764530515696652,0.00114871964997719,-0.0382467527115522,-0.0571163941163844,-0.0659163807987472,-0.000581023261532907,0
0.3,0.00118968752632839,0.000683458915997681,-0.0591806963199874,-0.0342139664439245,0.000760341637598241,0.00114208278784531,-0.0380380094104388,-0.0567984168514927,-0.0659197679126118,-0.000553535741408794,0
0.31,0.00119725825399025,0.000687769723372805,-0.0595601740586764,-0.0344297533272594,0.000765146009536565,0.00114935029613532,-0.0382785348742876,-0.0571627152605062,-0.0659234465481433,-0.000544717711241926,0
0.32,0.00119743529322982,0.000687951866858461,-0.059576643531549,-0.0344388860876579,0.000765343513512586,0.00114951222651638,-0.0382889363541818,-0.0571784109809756,-0.0659270076636368,-0.000526192612919578,0
0.33,0.00119729180775656,0.000687958317679215,-0.0595770905522024,-0.0344391910201123,0.000765344434813984,0.0011493660060591,-0.038289465942138,-0.0571787057797827,-0.0659304332102452,-0.00050793378282539,0
0.34,0.00119713972779733,0.000687957339695435,-0.0595768276579222,-0.0344391520409272,0.000765337225235632,0.00114921179979154,-0.0382895980834002,-0.0571783198921719,-0.0659337273911913,-0.000490355743998384,0
0.35,0.0011969926536701,0.00068795609347534,-0.0595765330498897,-0.0344390955964515,0.000765329931619196,0.00114906270292695,-0.0382897034800065,-0.0571779083489358,-0.0659368952017147,-0.000473451169737718,0
0.36,0.00119685140030788,0.000687954881985852,-0.0595762577520954,-0.0344390391439281,0.000765322915642746,0.00114891950495202,-0.0382898031902927,-0.0571775207275531,-0.0659399414878587,-0.000457195055641669,0
0.37,0.00119671583050124,0.00068795371635818,-0.0595760052749656,-0.0344389512417752,0.000765316184832198,0.00114878206464812,-0.0382898663391829,-0.0571771624242023,-0.0659428709111349,-0.000441562562053578,0
0.38,0.00119658517093055,0.000687952595367634,-0.0595757469818175,-0.0344388947773107,0.000765309692253416,0.00114864960701989,-0.0382899540469031,-0.0571768005489137,-0.0659456879550952,-0.000426529767075795,0
0.39,0.00119645918876232,0.000687951517328731,-0.0595754808965306,-0.0344388668311721,0.000765303425917744,0.00114852189654671,-0.0382900635167384,-0.0571764331569592,-0.0659483969304904,-0.000412073664954368,0
0.4,0.00119633854090767,0.000687950480598051,-0.0595752491210092,-0.0344388103481323,0.000765297432318619,0.001148399585642,-0.0382901408292495,-0.0571761058598885,-0.0659510019834617,-0.000398172132421326,0
0.41,0.00119622243324949,0.000687949483594896,-0.0595750208866147,-0.0344387538573521,0.00076529166219916,0.00114828187896364,-0.0382902126520521,-0.0571757859233128,-0.065953507100413,-0.000384803894904451,0
0.42,0.00119611086578777,0.000687948524798873,-0.0595748046993167,-0.0344386973591986,0.000765286118513605,0.00114816877367349,-0.0382902797654546,-0.0571754816879003,-0.065955916115282,-0.000371948493972238,0
0.43,0.00119600316082316,0.000687947602746679,-0.0595745749982115,-0.0344386693691571,0.000765280759432134,0.00114805959081699,-0.0382903691491624,-0.0571751656277139,-0.0659582327146506,-0.000359586256026929,0
0.44,0.00119589997525811,0.000687946716031931,-0.0595743724970991,-0.0344386099438933,0.00076527563097656,0.00114795498324407,-0.0382904238764349,-0.0571748821831203,-0.0659604604438889,-0.000347698262194878,0
0.45,0.00119580053578049,0.000687945863301508,-0.0595741662175458,-0.0344385819315694,0.000765270684795166,0.00114785417680109,-0.0382905048120038,-0.0571745961701096,-0.0659626027120913,-0.00033626631937326,0
0.46,0.00119570515004519,0.000687945043254114,-0.0595739788197343,-0.0344385254005549,0.0007652659436823,0.00114775747604733,-0.0382905538357719,-0.0571743340243564,-0.0659646627981085,-0.000325272932389505,0
0.47,0.00119561316114735,0.000687944254638309,-0.0595737845085886,-0.034438497368327,0.000765261366753492,0.00114766422317383,-0.0382906263212458,-0.057174066127841,-0.0659666438542623,-0.000314701277225788,0
0.48,0.0011955251095757,0.000687943496249966,-0.0595736171313542,-0.0344384408211926,0.000765256991958286,0.00114757495525023,-0.03829066778334,-0.0571738298963245,-0.0659685489125204,-0.000304535175273149,0
0.49,0.00119543998918102,0.000687942766932023,-0.0595734328849471,-0.0344384127697839,0.000765252755202493,0.00114748866615849,-0.0382907323879696,-0.0571735777522468,-0.0659703808883534,-0.000294759068570242,0
0.5,0.00119535812841507,0.000687942065570537,-0.0595732544347188,-0.0344383847081706,0.000765248680279074,0.00114740568156192,-0.0382907933456404,-0.0571733340834096,-0.0659721425850843,-0.000285357995996601,0
0.51,4.46942865591089,-0.039139834102107,6.44579573784559,1.96337140586654,-0.299757085406171,4.45953698567909,1.58407147832743,6.54933794539206,0.0583591180285829,17.8739165556435,484.806525803797
0.52,4.2173120226015,0.0207976736341532,10.8021073721601,-1.03323579902191,-1.06836195253313,4.07979852169042,-3.78616890195345,10.1694653223233,0.261046897029005,37.304214783869,484.806525803797
0.53,4.13493662189656,0.0213077750372225,6.88242921872279,-1.05433036998003,-2.33135401412066,3.41510517396198,-4.77733002719655,5.06523072436366,0.604146062943423,56.2394170975133,484.806525803797
0.54,3.98523893095761,0.0350539595933685,6.27589330141454,-1.73829487682766,-3.50948824151362,1.88861070620204,-6.36267252353741,1.3874091565819,1.08589673096379,75.2577540127127,484.806525803797
0.55,3.85643086414994,0.0016819283860503,4.31093005151912,-0.0691992534374154,-3.81995592636491,-0.52914890104862,-4.2603727061272,-0.66191453425144,1.70887877114031,94.7758067524417,484.806525803797
0.56,3.64853648206366,-0.00209721799203288,6.86657850925507,0.122286646289623,-2.2653333879539,-2.86008522612423,-4.36228720255593,-5.30427231673121,2.47114267573942,112.745177928883,484.806525803797
0.57,3.5504341634794,-0.00432700483954473,4.89786910029231,0.239651333482301,0.763588923321841,-3.46735250996387,0.813443742653075,-4.83578987992413,-2.9260488868963,128.797902250733,484.806525803797
0.58,3.39222145973313,-0.0134914845003961,6.03299518936185,0.703235595313135,3.18744346398304,-1.16084133969281,5.41722500182336,-2.74686085140812,-1.92403512955053,144.752768237603,484.806525803797
0.59,3.27444888210904,0.0365986203488403,4.80275365785375,-1.8109796204733,2.37852036581714,2.25077671259272,2.19196353831056,4.64126984030386,-0.801809207028303,161.097288139188,484.806525803797
0.6,3.07751822380329,0.00888696618827889,8.51441085429273,-0.416367953339342,-1.28050389224146,2.79848301369936,-3.94314503089825,7.55778815087909,0.43201957314475,175.355246513245,484.806525803797
0.61,2.9836135213564,0.0638054642162167,6.9132974637464,-3.17261438534234,-2.9369167793999,-0.529660847112474,-6.14604230915777,-4.48166573880361,1.77060631081154,190.102115910632,484.806525803797
0.62,2.88593702248058,0.0333866338661206,5.85329878696093,-1.64285302718962,0.179304867511378,-2.88055496901755,2.0695890743797,-5.71636893679831,-3.06785800536425,203.680655381219,484.806525803797
0.63,2.73786440804844,-0.0643038365566366,7.60382548001991,3.24520413340094,2.73244209729526,0.183838747773758,7.73832548360175,-2.90995369514401,-1.52710009482323,216.958707945251,484.806525803797
0.64,2.6120429617895,-0.00971100414577108,8.36718078344665,0.515557903375799,-0.29887082633763,2.59490635033325,-0.414071788246353,8.37281665682407,0.110952921159755,229.540275346746,484.806525803797
0.65,2.59178600422538,0.0671886805685413,4.09274298138141,-3.34108591654439,-2.51758961890345,-0.619363803660397,-3.06560390385888,-4.30296094776878,1.83793841657323,241.910206609518,484.806525803797
0.66,2.44064957102182,0.107183235675584,6.63780728390972,-5.33230656442696,1.10348640559554,-2.17958168628861,7.90227495251465,-3.16986268002501,-2.62904316556522,253.350034963309,484.806525803797
0.67,2.31533195955551,-0.00645164860733916,7.88943818456801,0.345442801531918,1.5384271244431,1.73033109244637,5.51606233952318,5.65116110757286,-0.729543433439559,264.890606586368,484.806525803797
0.68,2.14906696574891,0.0515474291500927,11.690893810348,-2.54516308488113,-2.02345187104312,0.725801960797364,-11.8975047522746,1.26658354761059,1.25037790919367,275.375224497755,484.806525803797
0.69,2.09403171799951,0.0392044948499515,9.8386216716727,-1.93318635594395,0.309754181342785,-2.07136625818446,3.54322368127083,-9.37983218557758,-2.97443180727383,285.822823125192,484.806525803797
0.7,2.03501566221148,0.0186988232454484,8.4201888989448,-0.915993067804132,1.5313929127264,1.34032613131586,5.67529973888164,6.28725673629035,-0.842645904594621,295.91016509716,484.806525803797
0.71,2.00112398618273,0.0433222766991381,6.06846366576857,-2.13221942675652,-1.94802204066824,0.459982778813528,-6.37982006992823,-0.818844809431041,1.36056114750008,305.256340532878,484.806525803797
0.72,1.87981966842773,0.0681926728000091,8.08942423909392,-3.38158179004732,0.826965355761837,-1.68952671680594,6.79878009948633,-5.53628657871398,-2.65014767605589,314.42524737818,484.806525803797
0.73,1.843239874641,0.0430558711799323,5.99663460208883,-2.13204539983731,0.607038870316223,1.74094539071013,-0.18743576710634,6.3616123719656,-0.312146925399189,323.373090195893,484.806525803797
0.74,1.7386333375412,0.0295465260002563,7.53801282422151,-1.46279532167774,-1.52523760265084,-0.835086303964008,-5.82519805136716,-5.00284670498692,2.08872004125156,331.864234280641,484.806525803797
0.75,1.72952347020765,-0.00844930980956904,4.53386435362694,0.45863796399023,1.70824098231605,-0.270620714601203,4.40052584274487,-1.18391176463311,-1.73279662248673,339.791615447029,484.806525803797
0.76,1.57443873237582,-0.0110840658164061,8.86190518806411,0.587720016592128,-1.12305286383695,1.10350914973453,-5.86233279449473,6.67171886298668,0.787135573055931,347.522795826424,484.806525803797
0.77,1.58140620377609,0.0797816563266341,5.18352857114213,-3.96631492621232,0.269453504571669,-1.56032224328879,5.00782924651685,-4.18596091470905,-2.92018123229743,355.057469371465,484.806525803797
0.78,1.51139287652842,0.0129129831358544,5.50033035124828,-0.626057917494084,0.445794644737715,1.44420992486463,0.977573675322907,5.44884686867191,-0.290854819605256,362.281996263725,484.806525803797
0.79,1.41206514483512,-0.0628781237889008,7.4158735955307,3.16169769454669,-0.918341945587835,-1.07449043861888,-7.37388460675165,-3.25842589341883,2.38988998216263,369.217529642271,484.806525803797
0.8,1.3710003754739,-0.0137848958107409,6.57275804909148,0.701082368429858,1.25317106437391,0.556232268317873,6.31203746414527,1.96235774272854,-1.16311459154148,375.804738773579,484.806525803797
0.81,1.28413538629289,-0.0326780837472943,8.15160204444184,1.65094629232645,-1.28149088214293,-0.0886152722250326,-8.21581144661192,1.29409498291874,1.61439451443842,382.053498901298,484.806525803797
0.82,1.27274579476413,0.00649447980716933,6.03877480933184,-0.293290789515964,1.22313150603079,-0.35195646792266,5.89140491633599,-1.35800176612837,-1.84587464522508,388.067915178781,484.806525803797
0.83,1.1583160349995,0.0583174469584493,9.16594386969687,-2.88954747988912,-0.956946941699703,0.655247672508877,-9.32429373896612,2.32842391553693,1.02069849773709,393.875661373326,484.806525803797
0.84,1.1094804621634,-0.0213242747466434,9.10558542954371,1.09569468124972,0.80122689994218,-0.767748054653886,5.67910691689183,-7.20138719107291,-2.35407737915959,399.468356817119,484.806525803797
0.85,1.04899273215992,-0.0547226767760637,9.73881764073154,2.76505333787801,-0.632734110799934,0.838467571530401,-3.1624625531542,9.61711597105034,0.594339104040646,404.816466805547,484.806525803797
0.86,1.05712788332684,-0.0254286997574077,7.01394847970043,1.29717638091171,0.472955467732088,-0.945769055330507,1.81153378921154,-6.89902059495636,-2.70193491844216,409.984455610639,484.806525803797
0.87,1.02489543616994,-0.0579070322029555,6.42527902399429,2.92116281382273,-0.378969333230736,0.954015788093246,0.739895993794104,7.01925613148638,0.321680853074918,414.891898490053,484.806525803797
0.88,0.930373777226922,0.00619282370999841,9.02448917682502,-0.290750477431525,0.214233574649005,-0.905393666815768,2.41888204657103,-8.6991350367456,-2.90259055954759,419.610226707218,484.806525803797
0.89,0.942973987894681,0.0941041783661104,6.36179570373477,-4.69216250516834,-0.0857815253338991,0.943767486271565,-5.80979136716181,5.36051842838152,0.190109350210851,424.120960763163,484.806525803797
0.9,0.840938743030959,-0.0463919666797277,9.51059986959718,2.33924763077101,0.190904058174677,-0.820296181068364,-0.661868353060521,-9.77166923513412,-2.96804801033611,428.444974697367,484.806525803797
0.91,0.870168193873039,0.0915284249243339,6.15586435652057,-4.56448391724165,-0.0728161244400882,0.871933455155221,-5.6351634575368,5.19366077189106,0.188117163392829,432.61926484164,484.806525803797
0.92,0.880837401701728,-0.000905038170708458,3.82125205307814,0.0640214868595091,0.203858196887519,-0.856923090418569,0.818259312326156,-3.73316456933325,-2.90906592308962,436.590717313861,484.806525803797
0.93,0.7702695130741,0.0336989374135085,7.62509390159587,-1.66950852348543,-0.19950165151398,0.744748166964784,-3.88529752475978,6.77006490827382,0.305454625915743,440.379462209995,484.806525803797
0.94,0.762076485947968,-0.0279720956185292,6.36527830934761,1.41934303349707,0.326398353440822,-0.689207605471106,1.20739200471622,-6.40886161101449,-2.73598813125933,444.034505122675,484.806525803797
0.95,0.770371136975883,-0.0101997780331801,4.34074268185614,0.531600840993083,-0.399591221162381,0.65871282067939,-1.7438931740832,4.01042180844088,0.532036787121555,447.544527096912,484.806525803797
0.96,0.698899324163087,0.0578202808810701,6.36582966788558,-2.87333229147448,0.39668619725968,-0.578310912140208,6.24881734021398,-3.11963261721685,-2.4578233353105,450.912021857324,484.806525803797
0.97,0.692171119369147,0.0452282054122211,5.22290972046007,-2.24134832717126,-0.494863347423189,0.486062461449827,-5.41983258590087,1.71109409811289,0.859619704015851,454.119021177092,484.806525803797
