t,iq,id,vq,vd,ia,ib,va,vb,theta_e,omega,r
0,0,0,0,0,0,0,0,0,0,0,0
0.01,0.000674106499004999,0.000384917671008095,-0.033187604691529,-0.0192649563758956,0.000123668830442544,0.00076634666165649,-0.00638311251794993,-0.0378392854571747,0.358830985247865,-0.00149050676129061,0
0.02,0.000759061787202193,0.000432992985755597,-0.0374253629199563,-0.0216710953861241,0.000138857354802683,0.000862772483057576,-0.00714826928561614,-0.0426520387689176,0.358819610761247,-0.00163160605107358,0
0.03,0.000792670410972415,0.000452137704817352,-0.0390834526428019,-0.0226292754829042,0.000144991123060281,0.00090096196300532,-0.00746368135028923,-0.0445409232062454,0.358807785703448,-0.00165438942079638,0
0.04,0.000774586037155086,0.000441996062518089,-0.0382082146587067,-0.0221217009492339,0.000141855717555239,0.000880466355764945,-0.007296267802251,-0.0435431027425812,0.358796539545635,-0.0015627160524846,0
0.05,0.000793272797596843,0.00045276148102277,-0.0391345380550744,-0.0226604942416338,0.000145383844282558,0.000901741774526765,-0.00747597211881791,-0.0445995505463659,0.35878538189189,-0.00155471577990683,0
0.06,0.000794367727910204,0.000453510052612904,-0.0391986697836942,-0.0226979662436122,0.000145710120996586,0.000903028247401674,-0.00748902589681279,-0.0446726748194478,0.358774483081784,-0.00150804384086748,0
0.07,0.000813422932830114,0.00046459998276061,-0.0401423142680022,-0.0232530139516292,0.000149412780294467,0.0009247625818121,-0.0076778706756676,-0.0457510475783171,0.358764052164786,-0.00150415586808011,0
0.08,0.00079534151139289,0.00045433175617646,-0.0392663046905081,-0.0227390945617793,0.000146156342196558,0.000904225518358576,-0.00750471542795707,-0.0447502888469197,0.35875373722735,-0.00141668836971386,0
0.09,0.000793811660137262,0.000453614321487609,-0.0392008404265376,-0.0227031846839631,0.000146030636475268,0.000902539726349576,-0.00749451785780948,-0.0446763101321044,0.358743863770589,-0.00136869573205663,0
0.1,0.000793481556292977,0.000453562694230296,-0.0391938385326102,-0.0227006125390646,0.000146106802883918,0.000902211117159177,-0.00749499400208769,-0.0446687794043863,0.358734322674497,-0.0013249195558704,0
0.11,0.00079324544251156,0.000453557531141141,-0.0391911381529991,-0.0227003451890413,0.000146193187694467,0.000901986872405546,-0.00749610385729126,-0.0446660879011112,0.358725096183796,-0.00128277437756654,0
0.12,0.000793022791100159,0.00045355565821132,-0.0391888036664632,-0.022700258296878,0.000146277648929879,0.000901776431119896,-0.00749724061303168,-0.044663804615638,0.358716173451493,-0.00124203023098195,0
0.13,0.000829449942574388,0.000474494620043123,-0.0409821598224848,-0.0237482310653084,0.000153103647820245,0.000943234660469312,-0.00784932651943534,-0.0467108550086407,0.358707262265005,-0.00128433768280451,0
0.14,0.000859709514753098,0.000492129360995748,-0.0425408757495415,-0.0246308456078831,0.000159001374272912,0.00097775780267427,-0.00812897422870439,-0.0484801448315324,0.35869860988136,-0.00131384517226187,0
0.15,0.000797211993830647,0.000456239954587724,-0.0394190384881666,-0.0228346005990848,0.000147343942844399,0.000906637536051045,-0.00754337071586212,-0.0449263523791367,0.358690175188117,-0.00113426871125905,0
0.16,0.000792530199962383,0.000453736907460244,-0.0391971370739229,-0.0227093204734644,0.000146650762234778,0.000901373869701113,-0.00750431030105053,-0.0446745354543722,0.358682374343148,-0.00108848523968847,0
0.17,0.000792019879928214,0.00045356115322081,-0.039179351187821,-0.0227005183719629,0.000146672108921569,0.000900833226727896,-0.00750264766684431,-0.0446547351558783,0.358674855950898,-0.00105342245695487,0
0.18,0.000791815521576482,0.000453547668544722,-0.0391763152707516,-0.0226998539871319,0.000146737765819221,0.000900636072969639,-0.00750341584585474,-0.0446516046730082,0.358667586900113,-0.00102017769649191,0
0.19,0.000791639087000507,0.000453545535614982,-0.039174416517711,-0.0226997367272872,0.00014680403187425,0.000900469085071076,-0.00750428643264929,-0.0446497328337809,0.35866055726711,-0.000988075121800342,0
0.2,0.000791469770120907,0.000453544233135459,-0.0391726427244727,-0.0226996776424962,0.00014686836644519,0.000900309086571603,-0.00750515727215487,-0.0446480001502043,0.358653759047079,-0.000957032753460558,0
0.21,0.000791306041177582,0.00045354302642041,-0.0391709264243342,-0.0226996214796994,0.000146930625668547,0.000900154386124609,-0.00750600065278169,-0.0446463239971968,0.358647184613164,-0.000927012493822797,0
0.22,0.000791147783752779,0.00045354186301769,-0.0391692692205485,-0.022699565327937,0.000146990808130505,0.000900004855304477,-0.00750681361714778,-0.0446447047998583,0.358640826598201,-0.000897980466493343,0
0.23,0.000790994881431176,0.000453540738070607,-0.0391676723068532,-0.0226995091859289,0.000147048956750428,0.000899860382425275,-0.00750759606520367,-0.0446431436229668,0.358634677878145,-0.000869904124005882,0
0.24,0.000790846868551486,0.000453539650080836,-0.0391661192775518,-0.0226994530538884,0.000147105239950324,0.00089972052998267,-0.00750835406498449,-0.0446416250537985,0.358628731563251,-0.0008427520057003,0
0.25,0.000790703861529031,0.000453538597820458,-0.0391646225120601,-0.0226993969305727,0.000147159621881105,0.000899585405638441,-0.0075090835694282,-0.0446401606344691,0.35862298099051,-0.000816493687655058,0
0.26,0.000798419412638038,0.000458028175975699,-0.0395479407439644,-0.0229240913872466,0.00014866054310465,0.00090838505678414,-0.00758519277025386,-0.0450779151431945,0.358617466470935,-0.000809097361938031,0
0.27,0.000775433706677882,0.0004448742697578,-0.0384270055090637,-0.0222657577173822,0.000144415842814988,0.000882244078296234,-0.00736240796340877,-0.0437971879017719,0.358611945844661,-0.000732144891335961,0
0.28,0.000774319576183154,0.00044427131695825,-0.0383131434249445,-0.0222355720570955,0.00014424686485052,0.000880988451180305,-0.00737433267702184,-0.0436799363710075,0.358606740123187,-0.000706144504373853,0
0.29,0.000789025419231577,0.000452888937659516,-0.0391026600622572,-0.0226668872604818,0.000147159412359676,0.000897782606983386,-0.00750133386531692,-0.0445705709214599,0.358601804853137,-0.000717191593237627,0
0.3,0.000782914324585415,0.000449535237581805,-0.0388074555275368,-0.0224990391311303,0.000146167745579655,0.000890882573418589,-0.00744796385881882,-0.0442352031837043,0.358597408142568,-0.00068352349910846,0
0.31,0.000789435721146555,0.000453254326045545,-0.0391314567437892,-0.0226851655086456,0.000147365708343589,0.000898293710267179,-0.00750874756171564,-0.0446038826908613,0.358592729586418,-0.000677192356215629,0
0.32,0.000789800316168969,0.000453512795940896,-0.0391536827508654,-0.0226981047591771,0.000147483880719777,0.000898725152886335,-0.00751326701984679,-0.0446292017775635,0.358588167083165,-0.000657442039066794,0
0.33,0.00078972484741922,0.000453530062922023,-0.0391542047155498,-0.0226989724656099,0.00014753050298272,0.000898659893004595,-0.00751409339295195,-0.0446299618909057,0.358583752035038,-0.000637360032463952,0
0.34,0.000789621088762607,0.000453530541085003,-0.0391532003450577,-0.0226989977722923,0.000147571201449761,0.000898562271641857,-0.00751466013410264,-0.0446289981984324,0.358579482125147,-0.000617868351512618,0
0.35,0.000789518494189485,0.000453529872794094,-0.0391521172472511,-0.0226989648820009,0.000147610290751028,0.000898465358401901,-0.00751519372804857,-0.0446279414143954,0.358575352759302,-0.000599013206080057,0
0.36,0.00078941915923939,0.000453529147645188,-0.0391510625401996,-0.022698927626135,0.000147648059975156,0.000898371497279143,-0.00751570719595365,-0.0446269107013675,0.35857135932407,-0.000580778371908532,0
0.37,0.000789323083917593,0.000453528440834157,-0.039150040573579,-0.0226988903694802,0.000147684583627081,0.000898280714036284,-0.00751620329892774,-0.0446259116308872,0.358567497345648,-0.000563143770177385,0
0.38,0.000789230210016434,0.000453527756870604,-0.039149052650098,-0.02269885311157,0.000147719890314326,0.000898192955138365,-0.0075166817732263,-0.044624945390452,0.358563762496806,-0.000546089666834937,0
0.39,0.00078914036291293,0.000453527095361382,-0.0391480942288217,-0.0226988158526606,0.000147754044773821,0.000898108056337465,-0.00751714440007728,-0.0446240076968675,0.358560150593054,-0.00052959695465925,0
0.4,0.000789053267910671,0.000453526455594183,-0.0391471555830853,-0.0226987974049668,0.000147787146433187,0.000898025759582356,-0.00751761238991032,-0.0446230960135341,0.358556657586382,-0.000513647153762056,0
0.41,0.000788969299779849,0.000453525836856857,-0.0391462593226796,-0.0226987601415487,0.000147819066681542,0.000897946415003265,-0.0075180427496318,-0.0446222182789779,0.358553279563579,-0.000498222392463561,0
0.42,0.00078888800919875,0.000453525238459512,-0.0391453866938291,-0.022698721421746,0.000147849966002811,0.000897869601072612,-0.00751845848518004,-0.0446213629957453,0.35855001273982,-0.000483305387378281,0
0.43,0.000788809296098756,0.000453524659734457,-0.0391445363594928,-0.0226987029620033,0.000147879882224476,0.000897795223328987,-0.00751888056504857,-0.0446205365051278,0.358546853453937,-0.00046887942405976,0
0.44,0.000788733360623328,0.000453524100035534,-0.0391437218337423,-0.0226986656924754,0.000147908747733649,0.000897723468456224,-0.00751926782013169,-0.0446197377251961,0.358543798166101,-0.000454928338271798,0
0.45,0.000788659769796956,0.000453523558737924,-0.0391429248839959,-0.0226986472243303,0.000147936716999017,0.000897653930303907,-0.00751966202109459,-0.0446189627555062,0.358540843453152,-0.000441436497875824,0
0.46,0.000788588623692162,0.000453523035238077,-0.03914215372499,-0.0226986287510826,0.000147963757351467,0.000897586701894972,-0.0075200428228954,-0.0446182126642478,0.358537986004477,-0.000428388785316095,0
0.47,0.000788520022380581,0.000453522528950522,-0.0391414166166264,-0.0226985914733658,0.000147989836040802,0.000897521876273423,-0.00752038986646788,-0.0446174885654426,0.35853522261772,-0.000415770580681152,0
0.48,0.000788453416472801,0.000453522039310702,-0.0391406890956593,-0.0226985729924409,0.000148015148135602,0.000897458938342343,-0.00752074708480498,-0.0446167807227575,0.358532550197324,-0.000403567745320944,0
0.49,0.000788389022453864,0.000453521565771543,-0.0391399849925016,-0.0226985530514818,0.000148039619879521,0.000897398090198301,-0.00752109079002664,-0.0446160949565553,0.358529965748052,-0.000391766606003589,0
0.5,0.000788327056814171,0.000453521107804127,-0.0391393179781703,-0.0226985157656872,0.000148063177441998,0.000897339533964126,-0.00752140143979734,-0.0446154384730543,0.358527466374546,-0.000380353939596721,0
0.51,4.70222235375931,-0.00248672804025665,4.88986360393835,0.128575800433806,-0.384001095945704,4.68651730033322,-0.268595264678658,4.88417386928131,0.0812259367299307,25.1020864574484,779.881170628384
0.52,4.70162453914907,-0.029319143421871,4.92089315359364,1.47637921648885,-1.72385539850489,4.37429485567048,-0.398716360927932,5.12210018288332,0.369163240394302,53.4666889137,779.881170628384
0.53,4.6402543212127,-0.00127171336087428,5.74966842469585,0.0775115727536255,-3.53525933892656,3.00564522013503,-4.32924200482663,3.78448922597223,0.86591740082743,82.1140810014626,779.881170628384
0.54,4.48999655835277,-0.00286198621813116,6.25749227385643,0.161968675417553,-4.48996402186538,-0.0173311090046265,-6.2579817312527,0.141802893118906,1.57401885993093,111.211866745995,779.881170628384
0.55,4.3224390163203,0.0157074331787694,7.11324408159625,-0.767541149086501,-2.60051979295619,-3.45268338828051,-3.64408741663209,-6.15694629502717,2.49968823931691,141.461107640374,779.881170628384
0.56,4.18121209652874,0.0810125720342589,7.17255149757236,-4.03279011448963,1.93245187394769,-3.70873662961687,6.97659586131396,-4.36302661930337,-2.64187114246377,169.357595497535,779.881170628384
0.57,4.0595062172868,-0.0114115597299003,7.14077855883576,0.599036424926627,3.91634992283139,1.06860855032337,7.05025460352694,1.28198014421622,-1.30723339658951,194.568988939795,779.881170628384
0.58,3.95387216771029,-0.0217396664441917,6.13855885485366,1.12060950341036,-0.853093475179861,3.86080422377213,-0.195940036128629,6.23692856908573,0.211970046201048,220.342742489536,779.881170628384
0.59,3.84438540655317,0.0396918186020538,5.01704619142932,-1.95748658410529,-3.62016849983399,-1.29431627796017,-4.02849459276754,-3.57403658765972,1.92448719830313,246.14037084728,779.881170628384
0.6,3.71182181062131,0.0215121746398372,5.9950625350522,-1.03991962278072,2.2931061769247,-2.9188607347408,4.54486362318474,-4.04554350708072,-2.46988814404447,269.144918053934,779.881170628384
0.61,3.57349363327678,0.0416899409340978,6.70402804272737,-2.05596741337732,1.45422031596834,3.26448128664719,0.768684756342151,6.96994388412931,-0.407412400361784,293.563013605159,779.881170628384
0.62,3.49833377286111,0.0421991686296477,5.02107469759992,-2.07198727904325,-3.39660462481456,-0.838568410364953,-4.33898285424563,-3.26765209193966,1.82490250168604,315.253944861247,779.881170628384
0.63,3.35481997642308,0.00220001120113844,6.38382792979089,-0.0771628404259738,2.95367073239085,-1.59080203635598,5.65901559649843,-2.95546199767622,-2.06417743799906,337.966730326417,779.881170628384
0.64,3.23655981906528,-0.0499049281100126,7.13225767605003,2.54143168337702,-1.56270927776755,2.83473979007188,-1.10225579553997,7.49086154724847,0.488400445543462,358.391694028836,779.881170628384
0.65,3.1797699349645,0.0266493382487496,4.48592408859382,-1.29631328433089,0.141759390847428,-3.17672021141929,1.53202795889683,-4.41099006946484,-3.08861708435743,379.467788959775,779.881170628384
0.66,3.07275059870336,0.00901170963065123,4.83926184315087,-0.415877354034791,0.72831950133455,2.98520152698576,0.728915649388786,4.8020923706496,-0.236368879188716,399.191580139198,779.881170628384
0.67,2.93109510459463,0.0338615636397295,6.97401127550593,-1.65016376505183,-1.12109386435331,-2.7084338029533,-1.06075140902661,-7.08764277955809,2.7606902134319,418.031195345199,779.881170628384
0.68,2.83609828117359,0.0405483202400445,6.73794840076935,-1.99185284224499,1.10976103604236,2.61027356222145,0.703347416401741,6.99090328987826,-0.387702494605125,436.974366748395,779.881170628384
0.69,2.75369631676229,0.0465592053364213,6.19594226167303,-2.29686077510988,-0.757564548754814,-2.64784952726201,0.615260601167721,-6.57926472509467,2.87983754401693,454.94687639325,779.881170628384
0.7,2.6669452865699,0.0173594640226931,6.06699235801203,-0.820950030431839,0.0334044838924147,2.66679257779911,-0.784433891538952,6.07182169488264,-0.00601640795967574,471.88079661728,779.881170628384
0.71,2.54092591168085,0.010171945371951,7.85566107231466,-0.464601610461382,0.921782259925498,-2.36785249169167,3.31136468913934,-7.13877646624716,-2.76634941822275,488.692508126476,779.881170628384
0.72,2.4969724655699,-0.0171848798647074,5.63951148715777,0.899763627796791,-1.93100293484549,1.58315965067592,-3.76119268197697,4.29733568722917,0.877177868088496,505.122468774014,779.881170628384
0.73,2.36177493641582,-0.00890892049137071,8.1691656427763,0.47960579202697,2.35576460536908,-0.168621894297652,8.11001437818588,-1.0922251601574,-1.64602498340971,520.877620327551,779.881170628384
0.74,2.28943271068629,0.0371769152798426,7.72386108658409,-1.83002031083526,-1.83723698305668,-1.36654474053317,-5.00593118526323,-6.16016699378569,2.22655742774123,535.989502243745,779.881170628384
0.75,2.26918735095319,0.0210830238896729,4.81239398877892,-1.02408024552101,0.191367898298289,2.2612019049884,-0.659931757333591,4.87569136924851,-0.0751391281414472,550.492802358839,779.881170628384
0.76,2.13398787083906,0.0164604039793544,7.72663919264215,-0.779949831642355,1.62058435171325,-1.38848173800361,6.40903618969242,-4.38560486961212,-2.27149919239946,564.480255184509,779.881170628384
0.77,2.11029315104531,0.0230214022410938,5.15955520979785,-1.10531969722083,-1.99295073171474,-0.694272676451811,-4.47857791712367,-2.79017587909234,1.9169217846494,578.026270085564,779.881170628384
0.78,2.00216422978444,0.0275727494649425,6.90312482971977,-1.33437262134436,0.18700084207618,1.99360290544636,-0.780147471397716,6.98749258533838,-0.0797561856983475,591.158414663706,779.881170628384
0.79,1.89815361102555,0.0583605924782555,8.54467170362628,-2.87686492569467,1.71677615778566,-0.811832934699293,8.98248291862559,-0.776380666969045,-1.98177903678081,603.83135434777,779.881170628384
0.8,1.89264897400434,0.0579377757572146,5.37434598271778,-2.85506091575026,-1.19301818896346,-1.47043684851194,-0.985694262679516,-6.00527887738114,2.49058014958626,616.05000806744,779.881170628384
0.81,1.82790452260726,0.0165120184535249,5.26092069789356,-0.782030355808682,-1.25751172497882,1.32671468374413,-4.21616025866143,3.24235265512793,0.767658636379197,627.83828120328,779.881170628384
0.82,1.74618590591638,-0.0192177638177636,6.09028956894753,1.00548585076831,1.32272080693154,1.14015095815314,5.30460145413863,3.15655385546908,-0.870396798143349,639.217601030286,779.881170628384
0.83,1.6629951133656,-0.0401544761437688,7.09772715065268,2.05211588102624,1.12032075917734,-1.22965301023848,3.10228314328835,-6.70557600755828,-2.4268270329959,650.183144218384,779.881170628384
0.84,1.61317525562851,0.0115658238697446,6.49649618170151,-0.544755716128419,-1.12292926592811,-1.15823056313329,-4.09470722956633,-5.07292757027479,2.37883788670695,660.833428893004,779.881170628384
0.85,1.5452321518028,-0.0110501994754574,6.89362345151714,0.573446898839265,-1.28728363520692,0.854848145814219,-5.39465325331729,4.32996557879721,0.977441616785475,671.065466285439,779.881170628384
0.86,1.52518248607191,0.0202600445618933,4.97252557244028,-0.993841204680765,0.542948054603635,1.42541204401684,0.774766314498032,5.01133396079457,-0.350655582034855,680.906910941183,779.881170628384
0.87,1.40979626493592,0.0378459890072026,7.92098514107411,-1.87409948786787,1.40738495288748,-0.0906941117003281,7.98570073542268,1.57570246550961,-1.60831036702468,690.30977139309,779.881170628384
0.88,1.38796295111182,-0.0124441615714391,6.28770928234045,0.647647293400532,0.478993750891751,-1.30275131833474,1.50699920384967,-6.13870413324146,-2.79822169727751,699.349045189456,779.881170628384
0.89,1.31254558544509,0.0161339212002561,7.43044170240082,-0.778081634367766,-0.935777781901021,-0.920519505597299,-4.68025536819187,-5.8234083328433,2.3602664032987,708.008373623517,779.881170628384
0.9,1.25631772341579,0.0304277120772767,7.69168222395127,-1.48885420521844,-1.20175306652268,0.367490999800288,-7.80854542080861,0.636616595615838,1.29824585838524,716.367721978775,779.881170628384
0.91,1.20972831966651,0.0213257285666013,7.53487298621337,-1.03205606650753,-0.333149124021615,1.16314618826082,-3.18906937177786,6.90429483617055,0.296579321458609,724.465980096768,779.881170628384
0.92,1.17176319400904,0.00253036566998954,6.98360752287314,-0.114428350354751,0.708218365965843,0.933521361133939,4.11757436088976,5.64175941204856,-0.646856336250365,732.348676012244,779.881170628384
0.93,1.10391846169728,-0.0118278318832121,8.01222076633901,0.605688654309006,1.10275766565575,0.0519749797559602,8.0289502725183,-0.313843712604056,-1.53441335364981,739.788033463616,779.881170628384
0.94,1.07470823634613,-0.00513347440255417,7.20384697823566,0.27880654391897,0.754129234506051,-0.765710939906809,4.83077666216132,-5.35133078916681,-2.3685912720995,746.882658576643,779.881170628384
0.95,1.08233752993406,0.00325702314971776,4.63473414236392,-0.131861699581688,-0.0139713200319498,-1.08225225299841,0.0859743039325568,-4.63581238805818,3.13169312485148,753.714227326252,779.881170628384
0.96,0.971111264273588,0.0889025010353238,8.05343419909181,-4.42211842244042,-0.722655632310576,-0.654774449241251,-2.19460793811533,-8.92169433118787,2.39824600291089,760.348934554434,779.881170628384
0.97,0.980779509849653,0.0119687835490841,5.46577105464216,-0.590606809965048,-0.972664412353728,-0.126473869479614,-5.32784400968629,-1.35556181496497,1.71230186151073,766.742626826831,779.881170628384
