t,iq,id,vq,vd,ia,ib,va,vb,theta_e,omega,r
0,0,0,0,0,0,0,0,0,0,0,0
0.01,0.000693534907787545,0.000332541112623183,-0.0283313608151743,-0.0166425618248027,-0.000748661568481936,-0.000176295535345368,0.0325023171990287,0.00482081387586103,2.24916713397314,-0.0107252299135969,0
0.02,0.000734480913070962,0.000376269173576113,-0.0338558154346053,-0.0188310087148864,-0.000807992190319683,-0.000167896763017059,0.0381773243786004,0.00658141559645846,2.24910904964906,-0.00568047081702637,0
0.03,0.0007215024785722,0.000393573310732593,-0.0349139332236522,-0.0196970292667117,-0.000808748630656801,-0.00014625809351141,0.039544793865002,0.00657000557487131,2.24908259527262,-0.00256453234707629,0
0.04,0.000674271925770179,0.000384748502097492,-0.0337124814725757,-0.0192553718804645,-0.000766436084247704,-0.000123489953077712,0.0383321969551457,0.00615982385183724,2.24907697337181,-0.000751686784186821,0
0.05,0.00068871598495579,0.000394248121142966,-0.0343484127050358,-0.0197308022475944,-0.000783643962643161,-0.000125153620687962,0.0391256969364705,0.00618852582806299,2.24907387482712,-0.000799779630797904,0
0.06,0.000687632315980736,0.00039500503254352,-0.0344174966284897,-0.0197686809874805,-0.00078327531585389,-0.000123882836945749,0.0392032681349053,0.00620230519239378,2.24907201074964,-0.000575840719058733,0
0.07,0.000704445183791482,0.000404345023230231,-0.0349507032408112,-0.020236116927353,-0.000802227129294228,-0.000127159536812673,0.0399117452184998,0.00617289874680521,2.24907211281078,-0.0010215763027359,0
0.08,0.000687788938332092,0.000395809607266093,-0.0345022988059839,-0.0198089424334859,-0.000783902279725739,-0.000123353495033237,0.0392945708958158,0.00622410807620345,2.24907057174681,-0.000428663122780739,0
0.09,0.000684798436333155,0.000395129334459273,-0.0343909925797339,-0.0197748948952105,-0.000781146834432703,-0.000122007017873276,0.039186536721956,0.00618079108809963,2.24907084685697,-0.000380198707527813,0
0.1,0.000684718792289546,0.000395075149056067,-0.0343743547243744,-0.0197721977291306,-0.000781050789724967,-0.000121999433548415,0.039171887656043,0.00617246168228695,2.24907109849783,-0.000404589013638086,0
0.11,0.000684919317523861,0.000395070843347491,-0.0343753695314664,-0.0197719820915934,-0.000781204216603728,-0.000122128681075353,0.0391725419460497,0.0061732701010192,2.24907119473546,-0.000419889710066212,0
0.12,0.000685019725726108,0.000395070503458656,-0.0343771334791005,-0.0197719645273946,-0.000781282183745906,-0.00012219196658609,0.0391739042789697,0.00617439155338899,2.24907121989927,-0.000425132111545133,0
0.13,0.000722632939551779,0.000413080319634789,-0.0357278164018628,-0.0206732827211127,-0.000821870562702421,-0.000131766816604298,0.0407911711479775,0.00631995567141714,2.24906862788469,-0.00112591943284174,0
0.14,0.000742475016649693,0.000427485243446176,-0.0374492654300326,-0.021394209771571,-0.00084635925068102,-0.0001329992575162,0.0425839433578171,0.00683867392827341,2.24906752195434,-0.00152308507834368,0
0.15,0.000687893213577955,0.000397653500055729,-0.0347059391256444,-0.0199012349920758,-0.000785140864407377,-0.000121980336246523,0.0395110683893865,0.0062798757576869,2.24906697133582,-5.29881922709318e-05,0
0.16,0.00068182385568245,0.000395276121791283,-0.0343690506687225,-0.0197822520059738,-0.000778922918574651,-0.00012002528714895,0.0391740758947386,0.00616124306372765,2.2490695219721,-0.000164003196700513,0
0.17,0.000683314605064883,0.000395086804804342,-0.0343476497998563,-0.0197727680489944,-0.000779964764444286,-0.000121109037857836,0.0391514536096108,0.00615524843912893,2.24907076290131,-0.000332983156512411,0
0.18,0.000684496613523558,0.000395071766158901,-0.0343643449989055,-0.0197720285306362,-0.000780875660842735,-0.000121862695869388,0.0391639870841283,0.00616631454714437,2.2490711425589,-0.000403468940529411,0
0.19,0.000684932996314595,0.00039507057758722,-0.0343738552186529,-0.0197719696105782,-0.000781214697587008,-0.000122137492153838,0.0391713548167061,0.00617233073467852,2.24907122209812,-0.000423117692291578,0
0.2,0.000685043823696646,0.00039507048354154,-0.0343769575478299,-0.0197719636679022,-0.000781300934143052,-0.000122207109686227,0.0391737666919747,0.00617428220061855,2.2490712292468,-0.000426736228836855,0
0.21,0.000685061111371926,0.000395070475568534,-0.0343776226735465,-0.0197719637165559,-0.000781314390660235,-0.000122217960739455,0.0391742846451524,0.00617469938006028,2.24907122627877,-0.000426872507717481,0
0.22,0.000685060471087657,0.000395070474654079,-0.034377658023767,-0.0197719637979499,-0.000781313891764769,-0.000122217558172433,0.0391743122340042,0.00617472142037698,2.24907122431764,-0.000426648792812273,0
0.23,0.000685058783065491,0.000395070474488381,-0.0343775880170036,-0.0197719638812589,-0.000781312577355419,-0.000122216498615685,0.0391742577792983,0.00617467740288679,2.24907122363279,-0.000426532956723821,0
0.24,0.0006850580263659,0.000395070474453733,-0.0343775185342168,-0.0197719639628667,-0.000781311988144984,-0.000122216023721822,0.0391742037283146,0.00617463373584362,2.24907122346748,-0.000426496374071539,0
0.25,0.000685057793535256,0.000395070474448452,-0.0343774578536181,-0.0197719640435175,-0.000781311806849421,-0.0001222158776183,0.0391741565297303,0.00617459559806379,2.24907122344459,-0.000426488412925282,0
0.26,0.000693665392042538,0.00039891547179809,-0.034645413165704,-0.0199643924378597,-0.000790426695806286,-0.000124622904452506,0.0395035400524665,0.0061928944895245,2.24907136836554,-0.000664427344210441,0
0.27,0.000672866589522778,0.000387955049191985,-0.0340499434412167,-0.019415853579731,-0.000767354607682888,-0.000120106092923764,0.0386957007428958,0.0062463399359837,2.24907008196907,8.9056909165889e-06,0
0.28,0.000673131303455371,0.000387563564248389,-0.0330594508830945,-0.0193962576556178,-0.00076731503684012,-0.000120577370445232,0.0379121487349861,0.00564013138420915,2.2490705385218,-4.59207720333631e-05,0
0.29,0.000683263404084498,0.00039447218571645,-0.0343001571072737,-0.0197420192586719,-0.000779539154934037,-0.000121556121153055,0.0390951747861538,0.00614942358546854,2.24907157385312,-0.000416884789878707,0
0.3,0.000676502165513749,0.000391313619644164,-0.0338959872113536,-0.019583934851927,-0.000772292227351098,-0.000119775809063804,0.038681254987833,0.00601905024758979,2.24907493649471,-0.000595329683785915,0
0.31,0.000687256635181586,0.000394771281009356,-0.0343479301465587,-0.0197569775838258,-0.000782835997656987,-0.000123829914331206,0.0391417502752414,0.00616780787568096,2.24907301582176,-0.000671738630791405,0
0.32,0.000686769971009939,0.000395046699775341,-0.0344017272032072,-0.0197707712224306,-0.000782630019844472,-0.000123309124247245,0.0391923021944404,0.00619077361831641,2.24907176952937,-0.000528174586831561,0
0.33,0.000685686610827621,0.000395068593834747,-0.0343910166292615,-0.0197718704093964,-0.000781800245443058,-0.000122611982807587,0.0391846547011187,0.00618318043034522,2.24907133727161,-0.000454717454268015,0
0.34,0.000685216758651787,0.000395070325505598,-0.034381676447731,-0.0197719571973326,-0.000781435491357267,-0.000122315744201581,0.0391774370070094,0.00617724828151056,2.24907123347104,-0.000431653488005766,0
0.35,0.000685082415375806,0.000395070461882363,-0.0343781138130309,-0.0197719647984121,-0.000781330971444918,-0.000122231333012579,0.0391746677970385,0.00617500642291393,2.24907121911688,-0.000426668228769722,0
0.36,0.0006850566875897,0.0003950704730471,-0.0343771497878472,-0.019771964925596,-0.000781310945162435,-0.000122215182585529,0.0391739172232066,0.00617440150495902,2.24907122063184,-0.000426161985290327,0
0.37,0.000685055290605839,0.000395070474206361,-0.0343769473765098,-0.0197719650083687,-0.000781309857893161,-0.000122214306591566,0.0391737596548437,0.00617427450993379,2.2490712224841,-0.000426320711536121,0
0.38,0.0006850566875897,0.000395070474401717,-0.0343768962777007,-0.0197719650860407,-0.00078131094569445,-0.000122215183563308,0.0391737199105439,0.0061742424168199,2.24907122323331,-0.000426435457499539,0
0.39,0.000685057444289291,0.000395070474444211,-0.0343768548047905,-0.0197719651648839,-0.000781311534905025,-0.000122215658481646,0.0391736876656093,0.00617421634123097,2.24907122343776,-0.000426476695172734,0
0.4,0.000685057677119935,0.000395070474452074,-0.034376805699058,-0.019771965244684,-0.000781311716200567,-0.00012221580459365,0.039173649478968,0.00617418546909084,2.24907122347408,-0.000426486927845913,0
0.41,0.000685057735327595,0.000395070474452683,-0.0343767533588912,-0.0197719653248031,-0.000781311761524593,-0.000122215841116356,0.0391736087742325,0.00617415256586882,2.24907122347503,-0.000426488452156689,0
0.42,0.000685057735327595,0.000395070474452307,-0.0343766991479698,-0.0197719654050286,-0.000781311761524668,-0.000122215841114664,0.0391735666129106,0.00617411848862089,2.24907122347249,-0.000426488354085724,0
0.43,0.000685057735327595,0.000395070474452256,-0.0343766450215552,-0.019771965485254,-0.000781311761524787,-0.000122215841113737,0.0391735245173823,0.00617408446444788,2.24907122347126,-0.000426488186868433,0
0.44,0.000685057735327595,0.000395070474452046,-0.0343765907977262,-0.0197719655654795,-0.00078131176152469,-0.000122215841113677,0.0391734823459959,0.00617405037918937,2.24907122347097,-0.000426488116192001,0
0.45,0.000685057735327595,0.000395070474452166,-0.0343765365674355,-0.0197719656457049,-0.000781311761524765,-0.000122215841113584,0.0391734401695762,0.00617401628988772,2.24907122347097,-0.000426488096308936,0
0.46,0.000685057735327595,0.000395070474452163,-0.0343764823079397,-0.0197719657259304,-0.000781311761524729,-0.000122215841113809,0.0391733979704141,0.00617398218227243,2.24907122347126,-0.000426488092591569,0
0.47,0.000685057735327595,0.000395070474452354,-0.034376428041975,-0.0197719658061558,-0.000781311761524849,-0.000122215841113661,0.0391733557662166,0.00617394807058711,2.24907122347126,-0.000426488092421662,0
0.48,0.000685057735327595,0.000395070474452197,-0.0343763737695412,-0.0197719658863813,-0.00078131176152475,-0.000122215841113783,0.0391733135569819,0.00617391395484267,2.24907122347126,-0.000426488092624902,0
0.49,0.000685057735327595,0.000395070474452265,-0.0343763194906389,-0.0197719659666068,-0.00078131176152475,-0.000122215841114003,0.0391732713427084,0.00617387983505324,2.2490712234716,-0.000426488092733877,0
0.5,0.000685057735327595,0.000395070474452376,-0.0343762652052681,-0.0197719660468322,-0.00078131176152482,-0.000122215841113916,0.0391732291234002,0.00617384571119155,2.2490712234716,-0.000426488092770435,0
0.51,4.64363554969875,0.0252906894861036,7.8194282554424,-1.21876709673519,-3.55713338813413,2.98509510676328,-6.79542215859004,4.05599422640599,0.878060439646518,271.541546370289,723.650174717987
0.52,2.26983022479176,0.0160569949403206,10.1867334823736,-0.776434358339143,1.49061391642119,-1.71185782956302,7.32564581164033,-7.12090603758521,-2.41809627673656,513.823283734898,723.650174717987
0.53,1.07009612073667,0.0263143516465985,8.37661773373685,-1.31374001371754,-1.05188324171298,-0.198342629108447,-7.91582461996594,-3.03864411649971,1.78175333195678,620.888125541571,723.650174717987
0.54,0.483268167423283,-0.00363801190581792,9.17191097779529,0.173236891166689,-0.123361059867859,0.467272303569946,-2.10654514444733,8.92840576807911,0.250585666637166,670.077775398016,723.650174717987
0.55,0.165540984296772,-0.0287112129727226,12.0160595995849,1.42428683990607,0.126886173459726,0.110127427178962,11.0232514150495,4.99021137264908,-1.0277189891196,692.600095012442,723.650174717987
0.56,0.0849699728244492,-0.00666728031906463,10.004381034266,0.325648725497301,0.0730531172068447,-0.0439043389086276,7.95645142766383,-6.07359594066196,-2.19025078386804,703.146271632169,723.650174717987
0.57,0.0784775440574923,0.025297967757936,7.60146602041366,-1.26557225009929,-0.0373111924104291,-0.0735294975835491,0.0558204888904086,-7.70589662873471,2.9838590790232,707.970478722476,723.650174717987
0.58,-0.018398658566669,-0.0189368173241772,11.1621105293668,0.9556278660056,0.0235342770435979,-0.0119687715099463,-10.8713005754752,-2.70569027897859,1.90012943358383,710.327156511836,723.650174717987
0.59,-0.0492549600283216,0.0385264704887406,12.159431557329,-1.91296982237423,0.0623368317499791,-0.0049456468824768,-10.2491538657908,6.81660284702204,0.827841595916864,711.2884972865,723.650174717987
0.6,0.00359613771292284,-0.00257620534023272,9.28003025609875,0.150361930489674,-0.00164934638000853,0.00410471642432242,2.34802096779912,8.97933003063282,-0.239563544918454,711.814382005159,723.650174717987
0.61,-0.0501376115193655,-0.000110617505385611,11.7853290900036,0.0256953346684409,-0.0483934455062501,-0.0131097962277416,11.3752652864567,3.08187956815984,-1.30403933221538,712.150133886415,723.650174717987
0.62,-0.0226475923041405,0.00508263699976171,10.3383205642287,-0.277166835597204,-0.0194855192625072,0.0126119457307892,7.43617200493325,-7.18756144019347,-2.36599887972461,712.427918145938,723.650174717987
0.63,-0.0492163129451562,-0.0150976713461494,11.6996412057719,0.731558193177364,0.0283199328339978,0.0429903075619348,-3.98988546053733,-11.0225947827902,2.85673819363009,712.459202585869,723.650174717987
0.64,-0.049483772059456,-0.0282764532434704,11.6345333700847,1.39577764730564,0.054571694163446,-0.0164356837823584,-11.6506765470568,-1.25391306564404,1.79740729390671,712.63723693656,723.650174717987
0.65,-0.0175810903635898,-0.0309185558575351,10.1237702836188,1.53685643131009,-0.0110251739197386,-0.0338156380204151,-5.67945344744218,8.52035568414133,0.738595372282828,712.641251385733,723.650174717987
0.66,-0.0264460726017988,0.0145220307179775,10.5161321811137,-0.727782678165601,0.00548457972349388,-0.0296682240366715,2.61071434793807,10.2128778642831,-0.31936623023284,713.012168360384,723.650174717987
0.67,-0.0137638241831736,0.0440468339610523,9.94580840981504,-2.19531873926829,-0.00502101717028581,-0.0458732582744405,9.33662806580651,4.07012354266111,-1.3769483836933,712.936764500924,723.650174717987
0.68,-0.0304235473985753,0.00269106746638537,10.7488098916466,-0.117944370135303,-0.0218038695643327,0.0213875045866403,7.07012042479968,-8.097173713095,-2.43477861715403,713.048120707947,723.650174717987
0.69,-0.0247716515221309,0.0115574218044058,10.4875921656927,-0.557372807299004,-0.00235858175526969,0.027233174805787,-3.07406659647528,-10.0424284135188,2.79144577574132,713.146231528791,723.650174717987
0.7,-0.0613972162599491,0.0517927794640934,12.2032614553876,-2.57441585553037,0.0520201261640651,0.0612047109539937,-11.6119822717504,-4.55072245542511,1.73638679175062,713.347021914133,723.650174717987
0.71,-0.0432558701309391,-0.0498286071394386,11.3758426281144,2.46981791055331,-0.0114506684444542,-0.0649834023610365,-5.24789877605427,10.3908303059574,0.681472993838451,713.160271785022,723.650174717987
0.72,-0.031659063598703,-0.0473302595636047,10.9158528035016,2.34571999150046,-0.0556227946532868,-0.0121882932875446,6.17000764062727,9.3053345141827,-0.373830356204729,713.168240235899,723.650174717987
0.73,-0.00120878652748936,-0.0476245713887103,9.37509482428243,2.36686806201118,-0.00796002598960487,0.0469701921549425,9.61620625908089,-1.01145665753368,-1.42829771058548,713.321398214446,723.650174717987
0.74,-0.000739199194343667,0.00535239668858153,9.30388790838803,-0.275788809354946,-0.00468156624892747,-0.00269768478843619,5.92224424535634,-7.18090612510413,-2.48159226882957,713.552300915063,723.650174717987
0.75,-0.0129372551421871,0.032312335995202,9.79848004139943,-1.61520489436144,-0.0249195184123892,0.0242997372449882,-2.25042474694048,-9.67236715756955,2.74962111672634,713.858963109607,723.650174717987
0.76,-0.0493176521284407,0.010119757855236,11.6101248658706,-0.495654461953358,0.0476173075032414,0.0163472424785422,-11.4512583643911,-1.97720879492373,1.6991078929489,713.941160637061,723.650174717987
0.77,-0.000289479367055819,0.0172106665798182,9.13636462622684,-0.842254854259426,0.0138888047521701,0.010168182973458,-6.19140809179466,6.7711902693509,0.648773379404082,714.007156197109,723.650174717987
0.78,-0.0338780444148565,0.0062556474581106,10.9396545646366,-0.291952999854099,-0.0074898185692204,-0.0336267398998969,4.00904017880127,10.1827734626896,-0.40175182239052,713.779133136017,723.650174717987
0.79,-0.0678262080742589,0.0298648150689893,12.7320302411056,-1.49504774836637,-0.0638344971605743,-0.0376491520899771,12.4671550321632,2.98493002168067,-1.45268537663532,713.676041467126,723.650174717987
0.8,-0.0257579393486,-0.0347553960473032,10.6793098956255,1.71532938025439,0.0126039127691573,0.0413829720633805,4.97644440704733,-9.60338564221681,-2.50423231923839,713.819124501092,723.650174717987
0.81,-0.0186158962230738,0.00955763850256633,10.3447483392745,-0.499945051802475,-0.00128723708568334,0.0208864325967656,-3.69179885650581,-9.67648616290266,2.72882495631017,713.782608656086,723.650174717987
0.82,-0.0280108816701203,-0.0354779155424462,10.7879257339063,1.76082177659855,0.0316873489777461,-0.0322366855916821,-10.9151521785807,0.582484238110134,1.67927695388559,714.034163220272,723.650174717987
0.83,-0.0136062663540193,0.0188826694989799,9.98266754712099,-0.949986615002884,0.0232736402766518,0.000152839056646308,-6.65608965286236,7.50017309520826,0.630964642270809,714.354632725795,723.650174717987
0.84,-0.0518778006672442,-0.0156284121197502,11.8748868540283,0.786781059778353,-0.0352456059521115,-0.0411497354611613,5.51479709430618,10.5460407376718,-0.415660427911562,714.348741456786,723.650174717987
0.85,0.00809020854215177,0.0132084110655942,8.91446494906609,-0.645989321488958,0.00946499455203089,-0.0122608105467478,8.79313218504125,1.60181581587815,-1.46294433661476,714.397403797716,723.650174717987
0.86,-0.0342818876069039,-0.0218277898862047,10.8923783616138,1.11253494009436,-0.00266798185016053,0.0405534474743628,5.54349479214381,-9.44199692093562,-2.50891883060506,714.798648706568,723.650174717987
0.87,-0.0235020173627273,0.0282458922259266,10.3688572841642,-1.39270547848293,-0.0164863121643243,0.0328386473378099,-2.87131212796478,-10.060238396428,2.73005544330416,714.638778347484,723.650174717987
0.88,-0.0673956795027753,-0.0135932797928992,12.5708133113699,0.657197814180567,0.0685081831053383,-0.00579514613916527,-12.5634799132353,-0.785002385991732,1.68543018749386,714.754561461775,723.650174717987
0.89,-0.0440130929837329,0.0130965030426154,11.4441723431664,-0.679813095261225,0.0368480781915251,-0.0274023699619432,-7.39853153686971,8.75745154497173,0.642150362158178,714.749724369887,723.650174717987
0.9,-0.0216136819330705,0.0203700756652046,10.371164700699,-1.03878175390244,-0.0281567507459738,0.00944926540738492,5.80810454334252,-8.65482792404734,-2.65036671259198,714.807415859571,723.650174717987
0.91,-0.0290520328717356,0.0117906020234067,10.7263772211149,-0.601123305179369,0.00516673787618194,0.0309248076756121,-5.104276438648,-9.45319414566025,2.5905130779167,714.941999285441,723.650174717987
0.92,-0.0174339249703622,-0.0212541805809632,10.104257617611,1.06337172362937,0.0169678448414513,-0.0216280876056309,-10.078758152646,1.2827375125629,1.54905952055739,715.19502449324,723.650174717987
0.93,-0.0309081776522521,0.0095362831541216,10.6942802369062,-0.467831031327945,0.023380443622152,-0.0223519797380486,-5.61637354375319,9.11278463897755,0.508613694470799,715.436716537265,723.650174717987
0.94,-0.0209730092955804,0.0219021686257688,10.1355343232545,-1.07854705730167,0.0082753390048654,-0.0291734618065575,4.19946645757803,9.28745396997267,-0.530666815686682,715.538480239602,723.650174717987
0.95,-0.0243014106429188,0.0252535012168283,10.2886451288835,-1.24262170416349,-0.0242752788953397,-0.0252786217483784,10.2873544289419,1.25326219965589,-1.56976206408372,715.5340157733,723.650174717987
0.96,-0.0124642802879138,0.0234194290072977,9.75232124047237,-1.16316273764312,-0.0265039987193005,-0.00116875575329036,5.95839969828197,-7.80757261683318,-2.60843399707503,715.490504900225,723.650174717987
