t,iq,id,vq,vd,ia,ib,va,vb,theta_e,omega,r
0,0,0,0,0,0,0,0,0,0,0,0
0.01,0.00110697661933986,0.00061555584237089,-0.052252836049875,-0.0308358314724411,-0.00104459093403615,0.000716335125043803,0.0491416819266635,-0.0355851440248672,1.4771848788752,-0.00727027204271168,0
0.02,0.00122503245618333,0.000686586931623241,-0.0588093716468779,-0.0343941080048795,-0.00115545058194291,0.000798147909892752,0.0553349255597345,-0.0397434632644233,1.47713515834357,-0.00684314598534312,0
0.03,0.0012535060632155,0.000705157614905432,-0.060541766815923,-0.0353243908186125,-0.0011820265511654,0.000819352149394362,0.0569709280639629,-0.040834194879175,1.47709118564323,-0.00587680031515579,0
0.04,0.001229135021574,0.000695193410800309,-0.0597929174648405,-0.034825226988291,-0.00115866749500849,0.000807190445737958,0.0562707096308744,-0.0402690532714769,1.47705740788552,-0.00477605320400529,0
0.05,0.00124393282709882,0.000705208428030238,-0.0607628335372342,-0.0353269359771024,-0.00117243866037383,0.000818581329471758,0.0571881961509123,-0.0408610397078771,1.47702778151556,-0.00409098401385182,0
0.06,0.00124039562473176,0.000705282346309727,-0.0608533942650812,-0.0353306262463055,-0.0011688901930569,0.000818352131081272,0.0572770204116487,-0.0408745847355191,1.4770034847081,-0.00340766535297384,0
0.07,0.00127286737897162,0.00072463819352572,-0.0625137636868468,-0.0363002496901593,-0.00119939005928617,0.000840687433979959,0.0588384630105673,-0.0419965956765181,1.47698399470643,-0.00313322680133248,0
0.08,0.00123522656126656,0.000705429080239933,-0.0609903749761603,-0.035337968431866,-0.00116370067150925,0.000818055983436026,0.0574112398598264,-0.0408967894874607,1.47696750168536,-0.00239622468509177,0
0.09,0.00123287395633607,0.00070526938469088,-0.06101863912617,-0.0353299916990366,-0.00116136270543986,0.000817691728958666,0.0574395933541173,-0.0408922455922562,1.47695445067878,-0.00202567442253909,0
0.1,0.00123124173963364,0.000705264891336844,-0.0610542316513176,-0.0353297543495224,-0.00115972941617826,0.000817546616175051,0.0574746175567602,-0.0408959543431194,1.47694383930697,-0.00172656404682334,0
0.11,0.00122991676764403,0.000705262251882701,-0.0610832857793528,-0.0353296360795378,-0.00115840346769717,0.000817429816736445,0.0575032019191514,-0.0408990556878758,1.47693520862499,-0.0014833063641729,0
0.12,0.00122883929462338,0.000705260112250906,-0.0611069163180186,-0.0353295171261341,-0.0011573252005047,0.000817334826261183,0.0575264524749898,-0.040901555812779,1.47692818889443,-0.00128545387221535,0
0.13,0.00128743001066135,0.0007379798427264,-0.0638204155078567,-0.0369685903918663,-0.00121258459884459,0.0008554115215888,0.0600740473987267,-0.0427882102955078,1.47692053482986,-0.00153298661083696,0
0.14,0.00138618378507961,0.000795903801467932,-0.0691301689698316,-0.0398702479324884,-0.0013054686517937,0.000922344808839238,0.0650881644496494,-0.0461751857665018,1.47691487022721,-0.00214554363498183,0
0.15,0.00122763130541292,0.00070598962724393,-0.0612394014346756,-0.035366046984773,-0.00115603927092051,0.000817968935776558,0.0576541853869356,-0.0409513916097534,1.47690999639816,-0.000784974546186509,0
0.16,0.00122570479361552,0.000705259812205645,-0.0611766532676887,-0.035329493069179,-0.0011541877587926,0.000817064416834879,0.0575950451165367,-0.0409092503424871,1.47690766623561,-0.000707138920748177,0
0.17,0.00122540082042436,0.000705253326248134,-0.0611822403142377,-0.0353291683176863,-0.00115388419726737,0.000817031629851252,0.0576005611334116,-0.0409095590419238,1.47690578725096,-0.000654058359606652,0
0.18,0.00122516611482468,0.000705252811746004,-0.0611873364634702,-0.035329137233969,-0.00115364932518449,0.000817010876238264,0.0576055752361818,-0.040910093899906,1.47690425914826,-0.000610987148907536,0
0.19,0.00122497507727744,0.00070525243185027,-0.0611914638908336,-0.0353291351856741,-0.00115345814928295,0.00081699402105177,0.0576096338292185,-0.0409105504257055,1.47690301627459,-0.00057595635499685,0
0.2,0.00122482011617739,0.000705252123154425,-0.0611948320475088,-0.0353291066995699,-0.00115330307381528,0.000816980351131436,0.0576129484645755,-0.0409108960880909,1.47690200538934,-0.000547464202814519,0
0.21,0.00122469380555364,0.000705251872065936,-0.0611975480518323,-0.0353291072999753,-0.0011531766713994,0.000816969206857988,0.0576156188119424,-0.0409111987001901,1.47690118319061,-0.000524290219931454,0
0.22,0.00122459101082482,0.000705251667834426,-0.0611997442708609,-0.0353291078035616,-0.00115307380229404,0.000816960136872888,0.0576177779508645,-0.0409114436437938,1.47690051445952,-0.000505441749615052,0
0.23,0.00122450776156251,0.000705251501717513,-0.0612015386878558,-0.0353290790331978,-0.00115299049097005,0.000816952793332816,0.0576195449087871,-0.0409116145806947,1.47689997055115,-0.000490111418396873,0
0.24,0.0012244397750148,0.000705251366602747,-0.0612029745470774,-0.0353290793951118,-0.00115292245516814,0.000816946794535854,0.0576209563103357,-0.040911775055584,1.47689952816628,-0.000477642552157877,0
0.25,0.0012243844777323,0.000705251256705037,-0.0612041325729886,-0.0353290767941203,-0.0011528671178331,0.000816941915325089,0.0576220947583825,-0.0409119017743346,1.47689916835526,-0.000467501047506282,0
0.26,0.00123540693491435,0.000711125537167759,-0.0617024155408826,-0.0356233489568488,-0.00116329004194839,0.000823824072694107,0.058090581491815,-0.0412516110767079,1.47689891350461,-0.000546059461237049,0
0.27,0.00118765965860972,0.000684757277056415,-0.0595624305306519,-0.0343024311120499,-0.00111822480060285,0.000793096014671229,0.0560838432891139,-0.0397359086071752,1.47689819164667,-0.00015646500608903,0
0.28,0.00116892069740172,0.000672965838916612,-0.0579875104980795,-0.033711755116499,-0.00110067365904493,0.000779599970143341,0.0545712281398394,-0.0390001905906789,1.47689781088519,-9.33634598420234e-07,0
0.29,0.00122370876905333,0.000704989204394434,-0.0611820094315104,-0.0353159341852729,-0.00115221828215971,0.000816618613569176,0.057601267589051,-0.0408967903091489,1.4768983437532,-0.000439999920450279,0
0.3,0.00122150483541662,0.00070377696734895,-0.0610601018487466,-0.0352552325018067,-0.00115013953007369,0.000815202517218236,0.05748567923886,-0.0408247980886942,1.47690056823925,-0.000482968186537762,0
0.31,0.00122448866845702,0.000705239566316792,-0.0611996066529524,-0.035328480237283,-0.00115297266294054,0.000816939032970108,0.0576176806278504,-0.0409108329103579,1.47690004635335,-0.000492006468556315,0
0.32,0.00122444897181555,0.000705251288563877,-0.0612024565203783,-0.0353290741750724,-0.00115293166941732,0.000816947507650123,0.0576204435911983,-0.0409117177169341,1.47689959015816,-0.000479384425380774,0
0.33,0.00122439216114352,0.000705251271325834,-0.0612036649236368,-0.0353290774009068,-0.00115287480723712,0.00081694259211671,0.0576216311759378,-0.0409118556253352,1.47689921879923,-0.000468919786942458,0
0.34,0.00122434582784559,0.000705251179850074,-0.0612046329123373,-0.0353290776731707,-0.00115282843986633,0.000816938505077455,0.0576225825177757,-0.0409119640588547,1.47689891675421,-0.000460406439607449,0
0.35,0.00122430810928144,0.000705251104819541,-0.0612054087395928,-0.035329077909761,-0.00115279069379852,0.000816935177105874,0.0576233448545219,-0.0409120511916896,1.47689867108788,-0.000453482121505333,0
0.36,0.00122427771257478,0.00070525104378808,-0.061206044041433,-0.0353290489278797,-0.00115276027348438,0.000816932496689739,0.0576239719004299,-0.0409120934170914,1.4768984712773,-0.000447850253678604,0
0.37,0.00122425268328067,0.000705250994148021,-0.0612065356334693,-0.0353290491119685,-0.00115273522634016,0.000816930287858886,0.0576244546608678,-0.0409121490567853,1.47689830876336,-0.000443269595527482,0
0.38,0.00122423242701474,0.000705250953773702,-0.0612069307058763,-0.0353290492767615,-0.00115271495511146,0.000816928500797655,0.0576248425697261,-0.0409121938796744,1.47689817658436,-0.000439543934747494,0
0.39,0.00122421577962378,0.000705250920935257,-0.061207233652076,-0.0353290494265302,-0.00115269829630963,0.000816927031162986,0.0576251397690254,-0.0409122286281537,1.47689806907807,-0.000436513682805526,0
0.4,0.00122420250827714,0.000705250894226443,-0.0612074836572467,-0.0353290495622225,-0.00115268501449943,0.000816925861034949,0.0576253850828438,-0.0409122572424946,1.47689798163957,-0.000434049038988601,0
0.41,0.00122419156523692,0.000705250872503361,-0.0612076697492052,-0.0353290496882131,-0.00115267406360519,0.000816924895358115,0.0576255674336594,-0.0409122789141447,1.47689791052264,-0.000432044430369004,0
0.42,0.00122418260125717,0.00070525085483493,-0.0612078081306851,-0.0353290498059601,-0.00115266509351838,0.000816924103971988,0.0576257028280785,-0.0409122953392346,1.47689785268134,-0.000430413989616234,0
0.43,0.00122417538350724,0.000705250840464969,-0.0612079145171338,-0.0353290499164411,-0.0011526578704803,0.000816923467150664,0.0576258068108368,-0.0409123081350254,1.47689780563742,-0.000429087876869789,0
0.44,0.00122416944632585,0.000705250828777325,-0.061207987923819,-0.0353290500215921,-0.00115265192929254,0.000816922942943233,0.0576258783189154,-0.0409123173272314,1.47689776737573,-0.000428009288140139,0
0.45,0.001224164789713,0.000705250819271684,-0.0612080464112943,-0.0353290501214099,-0.00115264726866258,0.000816922532741721,0.0576259352662298,-0.0409123247036946,1.47689773625672,-0.000427132022122473,0
0.46,0.00122416083159207,0.000705250811540302,-0.061208075662102,-0.0353290502183226,-0.00115264330802719,0.000816922183101049,0.0576259633436276,-0.0409123290012344,1.47689771094731,-0.000426418501163269,0
0.47,0.00122415757196307,0.000705250805252884,-0.0612080876313808,-0.0353290503123201,-0.00115264004653141,0.000816921894942489,0.0576259744092159,-0.0409123314032534,1.47689769036306,-0.000425838161620961,0
0.48,0.00122415512724132,0.000705250800139178,-0.0612080978354575,-0.0353290504029258,-0.00115263759938292,0.000816921679928338,0.0576259838749475,-0.040912333414897,1.47689767362243,-0.000425366144678513,0
0.49,0.00122415303176553,0.000705250795980135,-0.0612080909814333,-0.0353290504920793,-0.00115263550240558,0.000816921495007677,0.0576259764857269,-0.0409123336456106,1.47689766000719,-0.00042498223149962,0
0.5,0.00122415128553571,0.000705250792597805,-0.0612080735134676,-0.0353290505797742,-0.00115263375514023,0.000816921340674786,0.0576259586334944,-0.0409123327331636,1.47689764893486,-0.000424669977188129,0
0.51,0.674960719571322,-0.0530074660706222,1.53821030493275,2.65611831869786,-0.112744916141932,0.667585461426186,2.50900478779991,1.76803575753456,0.0889326173144835,25.9480082865945,110.535544587428
0.52,0.429306307733519,0.0526126677675206,5.06345633725052,-2.63456568499811,-0.10340081709211,0.419976510883747,-4.26214727182392,3.79652829056968,0.363349515742762,47.778046549669,110.535544587428
0.53,0.329745547693021,-0.012470642771756,3.46011933017767,0.626609893127994,-0.240030288088224,0.22643565080348,-1.97847819094836,2.90700701498582,0.776732845108265,64.2712764277426,110.535544587428
0.54,0.322314251077237,0.0332289995917945,-1.16106672917703,-1.66181671977682,-0.301134971055979,0.119617607685769,0.665455508987437,-1.91490984782311,1.29541867207911,76.8360559151783,110.535544587428
0.55,0.244102719410329,0.000608842283330593,-1.28046146386729,-0.0274893540761554,-0.231469093629312,-0.0775149469900392,1.22196321178533,0.383592406181303,1.89643467586025,86.854504875039,110.535544587428
0.56,0.189851023324831,0.0482614124054313,-1.4800135684921,-2.41968333265199,-0.144469780974868,-0.132291561975533,2.83501871556523,-0.0893111170538659,2.56115428111377,94.024278687761,110.535544587428
0.57,0.0978377965277089,-0.000992754665356227,1.18060819435642,0.0479593830839495,0.0133519892632064,-0.0969275212410705,0.101660226214867,-1.17720049669258,-3.01484847425742,98.7996725937831,110.535544587428
0.58,0.0588381812338422,0.0779162152204556,1.7037572121533,-3.90376612364569,-0.00581910547666011,-0.0974628451084736,3.83002766994552,1.86361654680886,-2.27721835402756,102.287822673588,110.535544587428
0.59,0.0350240313324345,0.01715526969663,1.85582352454626,-0.858015211787337,0.0358853121822858,-0.0152718832734983,1.80766048866875,0.955319117166418,-1.51768784678268,104.870640882574,110.535544587428
0.6,0.0228010499427404,0.0785859238830781,1.62075700366728,-3.93413266003182,0.0733775535363084,-0.036212842308696,-1.8091676847306,3.85112520442949,-0.740833357456658,106.87059974485,110.535544587428
0.61,0.0460274256192119,-0.0640583565726768,-0.0883275995236691,3.20932605136061,-0.0661789089050474,0.0429225927928606,3.20988920199437,0.0647053297606202,0.0476706082298309,108.354767112885,110.535544587428
0.62,0.00848537755908921,-0.011438459256426,1.24028982602313,0.570183085639251,-0.0139319703189553,-0.00295638047499996,-0.552188390718928,1.2484052166027,0.847350405317038,109.557825755765,110.535544587428
0.63,-0.0399913179669559,0.01486172841144,3.36106572684424,-0.746144900713675,0.0386390856014128,0.0180886027098907,-3.2886252458891,-1.01903828442746,1.65282730863689,110.337408864966,110.535544587428
0.64,0.0498905453945586,-0.0414034632029065,-1.27805115925321,2.07503561350274,0.000908205072117287,-0.0648266029382068,-0.812868459881886,2.29748393463424,2.46290118704868,110.717316138728,110.535544587428
0.65,0.00993892284438158,0.00984309267427786,0.59101199555626,-0.490605775540421,-0.00842504473949196,-0.0111663459483643,0.565258529251472,-0.520069227116423,-3.00741574909823,111.098029668188,110.535544587428
0.66,0.0276870117228447,-0.0621231910883055,-0.391237221893188,3.11492328102035,0.0586981386187683,0.034356804447255,-2.13289001171676,-2.30360452516403,-2.19278724692474,111.321973380716,110.535544587428
0.67,-0.0205201663192476,0.0298001930696743,1.6651421772349,-1.49613624047569,-0.014263629564244,-0.0332517308483855,1.33864789400165,1.79419729582793,-1.37298720894444,112.08943559519,110.535544587428
0.68,0.0393632265685611,-0.0230099837869249,-1.40771766332332,1.15093289510872,0.000983514741407256,0.0455845989180102,0.244397168783897,-1.80182839709175,-0.550557956061772,112.30681285992,110.535544587428
0.69,-0.0157319845009976,0.0405434306771849,1.24638217451881,-2.03085970178002,0.0432868347398848,-0.00418509804153156,-2.29219635541145,0.650918982294054,0.273759877937435,112.543540635655,110.535544587428
0.7,-0.0287023019611968,-0.0132797777083702,1.89363123200241,0.667426910595191,0.0195189580997598,-0.0248834263829415,-1.38270618167099,1.45582331997068,1.09850861704916,112.462209789087,110.535544587428
0.71,-0.0141386926438392,-0.0178572237622839,1.24354042577094,0.89737301557543,0.0194197554219568,-0.0119019397379002,-1.47638022036657,0.414695749339044,1.92205956549804,112.273818921933,110.535544587428
0.72,0.0214936114620305,-0.0683843126212114,-0.682031553662509,3.42276616241057,0.0548370301227558,-0.0461658929695103,-2.89630561189653,1.94728247699987,2.74636436353256,112.681012200445,110.535544587428
0.73,0.0169642160518301,-0.0774490758859349,-0.425957224516499,3.87795541781991,0.0774703760568097,0.0168666776649986,-3.7024928541901,-1.22944070389257,-2.71158864413345,112.492019308098,110.535544587428
0.74,-0.00351535195803526,0.026201841842061,0.579024762424247,-1.31250975612516,-0.0114928305624017,-0.0238077521191978,0.958637343820936,1.06722349039745,-1.88716872255135,112.547345521365,110.535544587428
0.75,0.00453384604979538,0.0500215050312985,0.27513602720239,-2.50362382454945,0.028264382625098,-0.0415190486454293,-0.975830284064163,2.32197918703411,-1.06349316466351,112.236411318329,110.535544587428
0.76,0.0472081462639383,-0.0292517992316713,-1.80310586076885,1.46867596848615,-0.0171416263225989,0.0528246294732276,0.995978558358878,-2.10148199060498,-0.240951535608444,112.021326031095,110.535544587428
0.77,-0.00873052511323592,0.0173750252903851,0.866332606949758,-0.873349581585539,0.0193123529545553,0.00226861101845277,-1.20592112396722,0.242952506242745,0.58255960787975,112.518744056083,110.535544587428
0.78,-0.00834440692837775,-0.00288187088625716,0.880972518406028,0.142208502909955,0.00776146172454637,-0.0042064258806993,-0.845902194085132,0.28422757524299,1.40668461416433,112.315054002098,110.535544587428
0.79,0.00912150248603027,0.0148464486087541,0.100010966798478,-0.743764505273132,-0.0162971849004819,0.00616608532332604,0.3758098496479,-0.649580472067761,2.22895289880952,112.02282973806,110.535544587428
0.8,-0.0170047781993132,0.0281852618494626,1.4431006550592,-1.41000040066822,-0.0265081819586178,0.0195163458767111,1.27180848755053,-1.56625151285202,3.04981549223395,112.043180468905,110.535544587428
0.81,-0.0335645497590603,-0.0801428634819648,2.16437460896471,4.0177278874936,0.0373546139112215,0.0784480107278754,-1.55150323817111,-4.29179362595867,-2.41181422254724,112.274693635554,110.535544587428
0.82,0.0535149899760545,0.00983200431304369,-2.18292094400399,-0.495313307075815,0.0533252622529501,-0.010813827564883,-2.17344955084895,0.535346775326202,-1.58917508563555,112.269817901335,110.535544587428
0.83,0.0247483573429131,-0.0696510458896937,-0.713173985383552,3.48691643664115,-0.0330411857763081,0.0661213235438934,2.01863277823728,-2.93126680398972,-0.765978695266637,112.144620624894,110.535544587428
0.84,0.0274969608762245,0.0241314355373553,-0.860744723201135,-1.20920211738448,0.0225630875956193,0.0287978491675084,-1.15940379626998,-0.926733012469324,0.0557046864293109,112.089547116212,110.535544587428
0.85,-0.0152302932839109,-0.00719057593206027,1.22587455150755,0.362017081341462,0.00713111581062569,-0.0152582241117409,-0.712362848033161,1.06130295201649,0.878296653974923,112.269864623942,110.535544587428
0.86,-0.0137677990708796,0.0794019056407923,1.27279702272722,-3.97472952051191,0.00340379455448359,0.0805147756208528,-0.749109937120759,-4.10576683755898,1.70023286428374,111.8423307325,110.535544587428
0.87,-0.0137550560578962,-0.00227596613363673,1.23281694411449,0.111193667867259,0.00985606691421104,0.00986101079909777,-0.807905132640974,-0.937811786086065,2.52042348628763,112.072397097198,110.535544587428
0.88,0.00412409983539414,0.0611296891814524,0.358533936114804,-3.06492181103036,-0.059095912903202,-0.0161715854822722,3.07512196716006,0.256743409195274,-2.94184481799582,112.016549108286,110.535544587428
0.89,-0.0165658287535719,0.0232621474388505,1.40342941499438,-1.16614048635274,-0.0262863343405112,-0.0111616671110704,1.8060949921094,0.259843484158893,-2.12122004096918,111.935293999065,110.535544587428
0.9,-0.0141463091228514,0.000626302218490984,1.2828474130021,-0.0298983181435842,-0.0134665022980564,-0.00437762859600908,1.22837547790578,0.371059401920697,-1.30074053038355,111.777658066178,110.535544587428
0.91,-0.00886439728691491,-0.0263519093383423,1.10799686362022,1.32303376635893,-0.0274587926804246,0.00436066159773247,1.68590969155885,0.368488681815439,-0.481987175591975,111.713540530899,110.535544587428
0.92,0.0245227411364767,0.0583767843011731,-0.699591896614923,-2.92555055054454,0.0469603929462783,0.0424727591818977,-2.52874054847018,-1.62903225386222,0.337568180906618,112.087670612744,110.535544587428
0.93,0.0328309499001274,-0.0447501632343318,-1.28059904225555,2.2391863348159,-0.0479400490694803,-0.0279678400320769,2.06659785224313,1.5437171587296,1.16107282449465,112.458096841404,110.535544587428
0.94,-0.0336530415800268,0.0373722216871678,2.16110536848205,-1.87343493250687,0.0158262662239446,0.0477361441554579,-1.22761251436072,-2.58323486632631,1.98374570257013,111.997251003684,110.535544587428
0.95,-0.0460568478878117,0.023864177584172,2.80981182436417,-1.19454494670087,-0.00731582047341667,0.0513537825279761,0.199633425085168,-3.0466582699105,2.8050408290155,111.905749933464,110.535544587428
0.96,-0.0745224531795342,0.0574139957547703,4.23912478587898,-2.87372158159119,-0.0854582494514287,0.0393300208126316,4.51385815659552,-2.41940885773624,-2.65856650167432,111.926521018514,110.535544587428
