t,iq,id,vq,vd,ia,ib,va,vb,theta_e,omega,r
0,0,0,0,0,0,0,0,0,0,0,0
0.01,0.000969290030608662,0.000549956506628805,-0.0480304746343692,-0.0275352798300198,0.00110660379874857,0.000131921776882832,-0.0550029103092262,-0.00630856453050136,-0.936053745718947,-0.00169723071914008,0
0.02,0.0010716909916504,0.000608447042608251,-0.0531714905525289,-0.0304637899218601,0.00122374451478498,0.00014552919905304,-0.0608791884431142,-0.00699816536591489,-0.936066245904773,-0.00177712367400337,0
0.03,0.00110977370287411,0.000630337808027251,-0.0550682037737534,-0.031559821152714,0.00126739216047439,0.000150467722078756,-0.0630564757347898,-0.00723949210696352,-0.936078766632534,-0.00173849557448925,0
0.04,0.00108628627960777,0.000617761329955814,-0.0539242743449651,-0.030930149025683,0.00124102361389316,0.000146653782127892,-0.0617620553077245,-0.00706753185685123,-0.936090162865074,-0.00159634343875788,0
0.05,0.00110832889997921,0.000630599543893155,-0.0550272836315491,-0.0315729381063972,0.0012663873024,0.000149371803254262,-0.0630314648447367,-0.00720324954892345,-0.93610124226248,-0.00154071514681382,0
0.06,0.0011081256589132,0.000630966939983438,-0.0550313892489392,-0.0315913235338695,0.00126644304187334,0.000148942193432513,-0.0630457474709208,-0.00719021912898111,-0.936111708636097,-0.00144947719862414,0
0.07,0.00113806280123942,0.000648478395073051,-0.0565221570708627,-0.0324680978912405,0.00130093462241375,0.0001525787555547,-0.0647661329620507,-0.00736747187035098,-0.936121411914405,-0.00142032127553428,0
0.08,0.00110743859606089,0.000631477145572832,-0.0550230977126274,-0.0316168765081379,0.00126619510800322,0.000148099891609809,-0.063054357836353,-0.0071635270551125,-0.936130725118178,-0.001283121339672,0
0.09,0.0011057690160659,0.000630983331649151,-0.054952325576458,-0.0315921380070432,0.00126455913072263,0.000147496734256823,-0.062982761067896,-0.00714094380186728,-0.936139347190687,-0.00120519656234104,0
0.1,0.00110503687277113,0.000630966450829562,-0.0549270885802105,-0.0315913002522891,0.0012639607332751,0.000147066029370921,-0.0629619992015492,-0.00712614679000443,-0.936147424867504,-0.00113372295428695,0
0.11,0.00110437620887952,0.000630963508184723,-0.0549046930059082,-0.0315911493616024,0.00126342807963569,0.00014666712988241,-0.0629439288811934,-0.00711251355424857,-0.936154995498089,-0.001066783015985,0
0.12,0.00110375773529246,0.000630961121562894,-0.054883736361007,-0.0315910423278613,0.00126292965556103,0.000146293404657735,-0.0629270397406407,-0.00709972828952418,-0.936162091002503,-0.00100404562399221,0
0.13,0.00115650108691902,0.000661193450264897,-0.0574966276740338,-0.033104705217874,0.00132332858512715,0.000153209002684115,-0.0659286485036564,-0.00742946888614038,-0.93616911051991,-0.00104015101875362,0
0.14,0.00121712450187398,0.000696681366427021,-0.0605724626160278,-0.0348815249914512,0.00139318921489334,0.000160563977571172,-0.0694590835083927,-0.00782174732866347,-0.9361756515124,-0.0010949102250302,0
0.15,0.00110556372518665,0.000632852731983619,-0.05499954103328,-0.0316857444018428,0.00126550838526531,0.000145815834705663,-0.0630765833691778,-0.00709087742395304,-0.936181860435852,-0.000835739663257064,0
0.16,0.00110167145840139,0.000631007508688261,-0.0548147208754976,-0.0315933442392532,0.00126128075554705,0.000144987357944996,-0.0628730048764076,-0.00705537261169773,-0.936187282551514,-0.000781505621135893,0
0.17,0.00110112427657812,0.000630952569641118,-0.054794539152425,-0.0315906010116678,0.00126080827036504,0.000144700805061824,-0.0628551618236061,-0.00704529810109657,-0.93619235214808,-0.000736487197076202,0
0.18,0.00110070701653288,0.000630949439760012,-0.0547803390381673,-0.0315904447411025,0.00126047107884631,0.000144449960783011,-0.0628436671647897,-0.00703670671254284,-0.936197103206425,-0.000694473107642113,0
0.19,0.00110031897680004,0.000630947902812586,-0.0547671773966612,-0.0315903641253322,0.00126015831781584,0.000144215535950358,-0.0628330514767046,-0.00702868890293343,-0.936201556082636,-0.000655101284285423,0
0.2,0.00109995508299972,0.000630946502443866,-0.0547548289061256,-0.0315903126393279,0.00125986504052541,0.000143995670855007,-0.062823105868248,-0.0070211473604012,-0.936205729501333,-0.000618200556516893,0
0.21,0.00109961430788656,0.000630945190933877,-0.0547432669675319,-0.0315902349135757,0.00125959039431072,0.000143789772346985,-0.0628137762283388,-0.00701410978738868,-0.936209641001818,-0.000583615676865647,0
0.22,0.0010992948847367,0.000630943961597529,-0.0547324264505622,-0.0315901833892681,0.00125933295511447,0.000143596777287388,-0.0628050413220608,-0.00700749429311443,-0.936213307021316,-0.000551201300577688,0
0.23,0.0010989953686028,0.000630942809265911,-0.0547222568271117,-0.0315901289324434,0.001259091558716,0.000143415813440734,-0.0627968433035279,-0.0070012934042885,-0.93621674296596,-0.000520821209465618,0
0.24,0.00109871501303638,0.000630941729122908,-0.0547127411201139,-0.0315900511688849,0.00125886560344241,0.000143246423654201,-0.062789156531557,-0.00699551254626813,-0.936219963275083,-0.000492347734371598,0
0.25,0.00109845175003123,0.000630940716654188,-0.0547037950622331,-0.0315900257743343,0.00125865342335609,0.000143087368250192,-0.0627819581089942,-0.00699003995942791,-0.93622298148147,-0.000465661218495879,0
0.26,0.00110940005178365,0.000637251978227289,-0.055247954425507,-0.0319060131594407,0.00127121229493107,0.000144491729411205,-0.0634075308506288,-0.00705798663641807,-0.936225773459609,-0.000461567151210905,0
0.27,0.00107064964317886,0.000615256939454049,-0.0533389506700558,-0.0308047587794559,0.00122696660183432,0.000139229012668049,-0.061217320315773,-0.00681296671055697,-0.936228568738075,-0.00036600033812242,0
0.28,0.00106469491881707,0.000611739581340114,-0.0529789052493404,-0.0306286421509337,0.00122008624875462,0.000138528448821735,-0.0608229754011981,-0.00674120054395293,-0.936231072476556,-0.000333307291459027,0
0.29,0.00109653658286342,0.000630382782031897,-0.0546230470070891,-0.0315620819345394,0.00125678179510198,0.000142388373613521,-0.0627004353371383,-0.0069640282103525,-0.936233275248342,-0.000372771907904804,0
0.3,0.00109148861049797,0.000627722133538911,-0.0543760947877967,-0.0314288699200855,0.00125113943945617,0.000141536450495012,-0.0624225969922778,-0.00692480566982028,-0.936234919871959,-0.00034920592694768,0
0.31,0.00109704955597937,0.000630843177866486,-0.0546533362150276,-0.0315851412549617,0.00125746836963732,0.000142317049916306,-0.0627385241117945,-0.00696318172982046,-0.936236978233476,-0.00034156836557262,0
0.32,0.00109705668312148,0.000630932684090111,-0.0546562898178088,-0.0315896056640378,0.00125752744802449,0.000142246740910573,-0.0627435629211512,-0.00696121502449547,-0.9362389279498,-0.000324654637845388,0
0.33,0.00109690285066913,0.00063093467446001,-0.0546511333008788,-0.0315897081034895,0.00125740500128267,0.00014215164434978,-0.0627394836493654,-0.00695796094736848,-0.936240755936673,-0.000308501879790826,0
0.34,0.00109675367467952,0.000630934174521047,-0.0546460512384989,-0.0315896853965704,0.00125728481162079,0.000142061458422932,-0.0627353893400618,-0.00695485900401982,-0.936242469220959,-0.000293353591137688,0
0.35,0.00109661369549656,0.000630933637609444,-0.0546412774861024,-0.0315896597584435,0.00125717199100097,0.000141976889881311,-0.0627315408286701,-0.00695194895179482,-0.936244074982068,-0.000279155704735936,0
0.36,0.0010964825638778,0.000630933132392675,-0.0546368039995487,-0.0315896340996745,0.00125706629988327,0.000141897667833745,-0.062727933411088,-0.00694922325231552,-0.936245579967645,-0.000265848850925268,0
0.37,0.00109635969774664,0.000630932658800429,-0.0546326105778168,-0.0315896084213765,0.00125696727040157,0.000141823439259166,-0.0627245508648703,-0.00694666953032767,-0.9362469905024,-0.000253377118143436,0
0.38,0.00109624451502645,0.000630932214906986,-0.0546286764818953,-0.0315895827247862,0.00125687443352671,0.000141753853139613,-0.0627213765313858,-0.00694427511680083,-0.936248312513403,-0.000241688095515286,0
0.39,0.00109613655005597,0.000630931798852219,-0.0546249862899946,-0.0315895570108485,0.00125678741396383,0.000141688627890881,-0.0627183980312216,-0.00694203051858798,-0.936249551556983,-0.000230732661150434,0
0.4,0.00109603526872618,0.000630931408891721,-0.054621520608789,-0.0315895574113453,0.00125670578130832,0.000141627441705399,-0.062715615274588,-0.00693990286610031,-0.93625071283964,-0.000220464775978346,0
0.41,0.00109594045868309,0.000630931043389623,-0.0546182757207114,-0.0315895287528092,0.00125662936429173,0.00014157016384461,-0.0627129925948916,-0.00693793408164767,-0.936251801241421,-0.000210841290282107,0
0.42,0.00109585170224015,0.000630930700813326,-0.0546152371725826,-0.0315895029895513,0.00125655782629715,0.000141516542152575,-0.0627105373278688,-0.0069360895751346,-0.936252821336484,-0.000201821762366787,0
0.43,0.00109576823245457,0.000630930379725029,-0.0546123726819709,-0.0315895033376568,0.00125649054944862,0.000141466117720452,-0.0627082372682708,-0.00693433124248924,-0.936253777411705,-0.000193368288607112,0
0.44,0.00109569018622098,0.000630930078777849,-0.0546096947692681,-0.0315894775459951,0.00125642764378168,0.000141418967712251,-0.0627060715528279,-0.0069327083331977,-0.936254673484681,-0.000185445344160816,0
0.45,0.00109561684456839,0.000630929796708493,-0.0546071727500855,-0.0315894778633625,0.00125636853007797,0.000141374662179383,-0.0627040464702924,-0.00693116034217628,-0.936255513321251,-0.000178019633680378,0
0.46,0.00109554846080625,0.000630929532334245,-0.0546048243016394,-0.0315894520458254,0.00125631341215101,0.000141333347784395,-0.0627021453112346,-0.00692973960096831,-0.936256300450831,-0.000171059951391161,0
0.47,0.00109548396671809,0.000630929284544718,-0.0546026006932604,-0.0315894523360955,0.00125626142954066,0.000141294388002393,-0.0627003598239142,-0.00692837494032916,-0.936257038181053,-0.000164537049953415,0
0.48,0.00109542384844354,0.000630929052300373,-0.0546005305689084,-0.0315894264962363,0.00125621297358973,0.000141258067947853,-0.062698682131443,-0.00692712521524526,-0.936257729612139,-0.000158423517554819,0
0.49,0.00109536727059725,0.000630928834625911,-0.05459857626759,-0.0315894267620468,0.00125616737136681,0.000141223889521106,-0.0626971128899006,-0.00692592584956154,-0.936258377649799,-0.000152693662711332,0
0.5,0.00109531460290304,0.00063092863060785,-0.0545967601089374,-0.0315894009016156,0.00125612492047906,0.000141192069199458,-0.0626956391300854,-0.00692483196806651,-0.93625898501748,-0.000147323406306311,0
0.51,3.40207703528929,-0.00125326644815063,1.45554051503174,0.0659008592284478,-0.217034980297609,3.39514735203743,-0.026552700828165,1.45678964446643,0.0634698101666835,19.4749669296112,709.584247846623
0.52,3.31403841612672,0.00181279214591512,4.36251055813396,-0.0840694957209613,-0.932621453936794,3.18010552237436,-1.31062612851176,4.16182954975373,0.285815764264317,41.1685523107833,709.584247846623
0.53,3.29155557201662,-0.0243022828533559,3.8686809204051,1.22789963508535,-2.0559037925532,2.57063966366173,-1.42936285083265,3.79886185829503,0.667213635478572,62.9112331333118,709.584247846623
0.54,3.2007071137088,0.00289619763083171,6.55243821401286,-0.129598822852691,-2.99321626268903,1.13366256905694,-6.17555421424817,2.19403111879082,1.20965219255477,85.2237946090381,709.584247846623
0.55,3.10930732574361,0.0463430596781957,8.80811934948693,-2.3091070943287,-2.93698565597679,-1.02179008690132,-7.48382291689731,-5.18722821904029,1.920506500716,108.892219507379,709.584247846623
0.56,3.13535185252638,0.0643204628548517,5.36398314749517,-3.2054424021319,-1.10752169330559,-2.93393320645511,1.23044601726881,-6.12643279556584,2.80115508441329,130.940232262102,709.584247846623
0.57,3.05408388366455,0.0156708190125714,7.62762736044711,-0.761504690036765,1.94225410024991,-2.35697326100456,5.46607634054628,-5.3742532487881,-2.44722953540608,151.297372255291,709.584247846623
0.58,2.96711616960889,0.0285783572952479,9.90907043902756,-1.40392723444178,2.83508412747394,0.875724315412997,9.011847292943,4.35284929832095,-1.26157381107239,172.588002615404,709.584247846623
0.59,2.93434849657822,-0.0219346938087659,9.24615558780662,1.11967325274026,-0.267020647048407,2.92225635497866,0.343249026736075,9.30737564797265,0.083646768631638,193.871381919556,709.584247846623
0.6,2.88113600454786,0.039926104330672,9.95942873984031,-1.96470942524122,-2.88131554651943,0.0236535810066919,-9.94817374715757,-2.02092628414638,1.57644408970473,213.512891701763,709.584247846623
0.61,2.93955101265642,-0.0148666802796283,4.62916960463691,0.767940986490101,0.24285611227775,-2.92953956841707,-0.406521272602127,-4.67479251327239,-3.0639401265887,234.514380443476,709.584247846623
0.62,2.7992532392195,-0.00268383991299459,9.62254878016272,0.174234667376227,2.67723942211216,0.817444173608253,9.25652749708909,2.63448314505149,-1.27541468625605,253.492084778451,709.584247846623
0.63,2.75462928330307,-0.0172884493964491,9.43555831272385,0.893564631386973,-1.69776991302334,2.16929912675639,-5.06146654598256,8.01310020074486,0.657786554623393,273.579177105667,709.584247846623
0.64,2.77026096193959,-0.0241346224767976,6.50249293862803,1.2499149487676,-1.08385481551665,-2.54954643341319,-3.7420001716929,-5.46279566807238,2.73091132905773,292.414612222708,709.584247846623
0.65,2.67658421408308,0.0423388500849557,8.85671236814301,-2.07836122355031,2.6142965121774,0.575629550772315,8.13935272233545,4.0634808488518,-1.33825240334179,311.065506217444,709.584247846623
0.66,2.56713839358979,0.0390131229922541,11.9342676878682,-1.92519000145081,-2.1542234879813,1.39679730792913,-11.1337528312265,4.70878431025853,1.01074305689578,329.878183265966,709.584247846623
0.67,2.59938783130519,0.0701694088468796,8.07695776880841,-3.48480915245833,0.8292446283427,-2.46456774908709,6.05304385972015,-6.38293049159053,-2.79003681642085,347.794715807068,709.584247846623
0.68,2.49870451827123,0.111012557647022,10.7806203371477,-5.50663376934956,0.544993066978968,2.44107161192154,-3.54254141131783,11.5756291696202,-0.175258594226064,365.274883871327,709.584247846623
0.69,2.51567168596297,0.0348121482116308,7.52884808485065,-1.6961918423555,-1.39391346814287,-2.09447395795431,-2.65921867552864,-7.2449414274066,2.56822182390595,382.759749477178,709.584247846623
0.7,2.44002989355945,-0.00633650322515111,8.88452484415847,0.355594249099088,1.82161278471978,1.62342628267572,6.88397535532251,5.6277981736887,-0.845459801827556,400.020354007466,709.584247846623
0.71,2.36266018430463,-0.0609138407925829,10.3611207061023,3.08158838907725,-1.9471160383835,-1.33963158202852,-10.3651711759166,-3.06793673012746,2.14765242748548,416.806677928242,709.584247846623
0.72,2.28404005867727,-0.0353772505915706,11.9077461859395,1.79904447164341,1.92922380678764,1.22318683888672,11.0939558778274,4.68562943696207,-1.02121712407018,433.174775240008,709.584247846623
0.73,2.25804133499932,-0.00516007043288536,10.8483527117552,0.285045783261763,-1.80732858734675,-1.35363978748099,-8.86815609889747,-6.25490328164947,2.21135445133017,449.070158323612,709.584247846623
0.74,2.24189641762873,0.0812729749865548,9.26984816398839,-4.04260599630099,1.54523550632662,1.6263308623485,3.10778943420739,9.62363720520244,-0.723598218377004,464.681162157798,709.584247846623
0.75,2.14487048798727,-0.0617399342662043,11.7127668748173,3.11701864703781,-0.785139153842924,-1.99695711992641,-7.46444600311641,-9.54917582707315,2.7382130026157,479.99398418474,709.584247846623
0.76,2.11947887723162,-0.0639343191602187,10.5816250789865,3.22821216040452,-0.122528611040763,2.1168998671817,2.9343196553959,10.666860420235,0.0276606788151572,494.946489945553,709.584247846623
0.77,2.06339869506218,-0.0200083400661031,10.9893365623556,1.03142735575212,1.1250246728559,-1.72983640669341,5.03175291712533,-9.82399221558731,-2.57465752465331,509.486752262733,709.584247846623
0.78,1.95864195119336,0.0293416757540726,13.8507796021977,-1.43456448435601,-1.82335664698509,0.715897873167588,-13.4712473528871,3.52527525248238,1.21164216014538,523.641961150507,709.584247846623
0.79,1.94128455497511,-0.0101428331243039,12.3546989192334,0.553587039581993,1.79284333352192,0.744581346727606,11.6440893984399,4.16656046115251,-1.18238859914441,537.433990164328,709.584247846623
0.8,1.84406108301335,0.00309006946419066,14.8652801596588,-0.098417486532152,-0.607970549449062,-1.74096026302046,-4.78445107030638,-14.0746320798323,2.80729245384519,550.91654820717,709.584247846623
0.81,1.88113270164471,0.0513800801282133,10.6751532520012,-2.50841618160744,-1.03800069266382,1.56966707166218,-8.18297879538219,7.29999361151688,0.611575667303223,564.084132321768,709.584247846623
0.82,1.74686605572134,0.00607249518133035,15.021593251677,-0.284577337362812,1.74149757023968,0.136982132697876,14.9478517495801,1.51359709049135,-1.48882407263969,577.058557777503,709.584247846623
0.83,1.73609179277602,-0.0442345260284039,13.2061980092376,2.24551504034899,-0.561684209471134,-1.64331441150743,-6.69381139055627,-11.6034000501269,2.7867680500245,589.516663177024,709.584247846623
0.84,1.62161816999992,-0.00165547394726503,16.6311595780589,0.134274442100943,-1.23983590499888,1.04520579722057,-12.6180302851554,10.8350731543244,0.869347932893394,601.550671046986,709.584247846623
0.85,1.64829265533009,0.0676996927523792,13.0059129834124,-3.32795124578629,1.38918183507289,0.889733530399642,8.74668654063562,10.1845228943868,-0.960098070047186,613.433350287125,709.584247846623
0.86,1.63122442710194,0.0080465841190609,11.5172034183624,-0.380198902611592,0.684435068288754,-1.48071148992186,5.22820441287473,-10.2691968723305,-2.70367889588614,625.078275727151,709.584247846623
0.87,1.50739022790116,-0.0361285670110255,15.4505326733864,1.85838418691631,-1.40459394574199,-0.548312338098566,-15.1573620908145,-3.52518455197756,1.91901109119274,636.114693760844,709.584247846623
0.88,1.45529135415196,0.0186481502211138,15.8222527979825,-0.900852622218581,-0.466332403466682,1.37867863131808,-6.11086899827894,14.6223287863492,0.338978666052752,646.984910368126,709.584247846623
0.89,1.38111579891504,0.0462877434186638,17.2655918047523,-2.29154844366319,1.28604911410225,0.505668944389834,14.9379833605717,8.95592026300296,-1.16266727337322,657.498770772014,709.584247846623
0.9,1.38994115340217,0.0192138974221666,14.6337729583576,-0.902452955922887,0.713665907444224,-1.19289000177171,8.45382106382004,-11.9789248998115,-2.58862624301133,667.6083242294,709.584247846623
0.91,1.35177029659493,0.0678500317827648,14.3302585424828,-3.38239605846172,-1.01652208582172,-0.893627109372762,-7.91710601075758,-12.4143604509103,2.34209652300473,677.588012983984,709.584247846623
0.92,1.32506802810333,0.0525446475662669,13.5156627047753,-2.57603834087468,-1.13075299584856,0.692794256232702,-13.053021549158,4.35060229395041,1.06073606561195,687.013279689139,709.584247846623
0.93,1.23060063242179,0.0125575149527275,16.0710880808856,-0.620259184387317,0.198410242568952,1.21456534749779,1.81590306099512,15.9802093112846,-0.151724716241742,696.392022039045,709.584247846623
0.94,1.19265805165474,0.0844606647443547,15.8563433078233,-4.17784812344348,1.17118248805452,0.240620887996791,14.1399421298119,8.30301599442535,-1.29746559437278,705.23347565274,709.584247846623
0.95,1.20990732513031,0.0220584731725452,12.8646993673476,-1.09537446870969,0.820257861470529,-0.889684973649932,9.6828108193823,-8.54069725929844,-2.37854468893128,714.047164287073,709.584247846623
0.96,1.09925159210381,0.0200644171924375,16.3167989129128,-0.951767556717153,-0.296846298461407,-1.05860234208592,-3.19711119018732,-16.0287949729239,2.88645140282363,722.372991242201,709.584247846623
0.97,1.16042088866531,0.0040301115413599,11.181874674946,-0.186889292656882,-0.320967364814078,-1.11515596728625,-2.87572485570683,-10.8073796735461,2.86481761810238,730.527875784007,709.584247846623
