t,iq,id,vq,vd,ia,ib,va,vb,theta_e,omega,r
0,0,0,0,0,0,0,0,0,0,0,0
0.01,0.000560624815794458,0.000303772371322333,-0.0275051632687237,-0.0152026066716236,0.000511838454210301,-0.00038026206023606,-0.0250691849519557,0.0189522880385425,-1.71319819854032,-0.00223577952725519,0
0.02,0.000634999076149789,0.000344196393400079,-0.0312814063595116,-0.0172256768454192,0.000579716018949003,-0.000430841410863239,-0.0285197464892089,0.0214912630341486,-1.71321411315091,-0.00211948228457361,0
0.03,0.00065885026328662,0.000360165691084617,-0.0325231386602022,-0.018024862383413,0.000601052756608043,-0.00045004286267108,-0.029635156795482,0.0224590225512803,-1.7132282046804,-0.0018222919175502,0
0.04,0.000636831636568283,0.000352096497062834,-0.0315145127306497,-0.0176210407895161,0.000580397724722954,-0.000438936165876741,-0.0286938276000898,0.0219164287422106,-1.71323914128754,-0.00140423894513266,0
0.05,0.000647840316802078,0.000360809129076428,-0.0321024468193226,-0.0180570747699353,0.0005900539734405,-0.000449128725563379,-0.0292137034197578,0.0224317759782167,-1.71324822146191,-0.00119257753024204,0
0.06,0.00064484053099518,0.000361521792333917,-0.0319988876310499,-0.0180927372805491,0.000586980078700039,-0.000449412621046372,-0.0291059644551346,0.022452589718426,-1.71325560204213,-0.000965289175944871,0
0.07,0.000656240381297466,0.000370003369131142,-0.032586281300327,-0.0185172144715869,0.00059705763759157,-0.000459430199929666,-0.0296270108064123,0.0229563322734168,-1.71326128837175,-0.000853573192881712,0
0.08,0.000639808077283783,0.000362273263980093,-0.0318144752874408,-0.0181303506075315,0.000581887176972517,-0.000449448113609699,-0.0289178433046147,0.0224639442123807,-1.71326613786331,-0.000637365014840642,0
0.09,0.000636060759523918,0.000361638811046003,-0.0316532910167104,-0.0180985959725665,0.000578266258255526,-0.000448290144910708,-0.0287627182821201,0.022409731042343,-1.71326982399744,-0.000513449607225488,0
0.1,0.000634052996983529,0.000361586185839324,-0.0315722525844946,-0.0180959672868789,0.000576285011130688,-0.00044795463913183,-0.0286828092061584,0.022395705422023,-1.71327272603238,-0.000420250596788154,0
0.11,0.000632563051279458,0.000361581383619886,-0.0315129257304575,-0.0180957242561821,0.000574809816551441,-0.000447739640439115,-0.0286240666066884,0.0223871064531568,-1.71327502155662,-0.000346983210945615,0
0.12,0.000631393888119009,0.000361580602944274,-0.0314664570564642,-0.0180956757997614,0.000573651798099457,-0.0004475738921305,-0.0285780350142,0.0223805119928819,-1.71327683845167,-0.000289039443028378,0
0.13,0.000660639439907047,0.000378014776824007,-0.0329004224244588,-0.018918149596185,0.000600266486256365,-0.000467995498413646,-0.0298806354526922,0.0233983291026257,-1.71327871438335,-0.00037002065150551,0
0.14,0.000681715674441254,0.000391018812377075,-0.0340036616962704,-0.0195689534812406,0.000619281809090629,-0.000483861564232074,-0.0308802427583996,0.0241992470190227,-1.71328027147816,-0.000422448019506692,0
0.15,0.000633773089706268,0.000363992715764724,-0.0316095387312585,-0.0182164037018032,0.000575662231047041,-0.000450302145355262,-0.0287024164418962,0.0225204705329611,-1.71328159597084,-0.000162472068773606,0
0.16,0.000628571863298189,0.000361777147017819,-0.0313593282350669,-0.0181055140512557,0.000570828104325332,-0.000447370726296276,-0.0284704768924073,0.0223751883105771,-1.7132821048276,-0.000123707807677684,0
0.17,0.000627844319187908,0.000361595451936089,-0.0313258971618298,-0.0180964255889625,0.000570133579439156,-0.000447087756031506,-0.0284386674485885,0.0223614544660893,-1.71328245177255,-0.000110311645968526,0
0.18,0.000627619229625895,0.000361580500002439,-0.0313164687381072,-0.0180956810764463,0.000569912773986186,-0.000447041145114838,-0.0284294342851742,0.0223593862632736,-1.71328272062221,-0.000101497159154321,0
0.19,0.000627477435719918,0.000361579228910164,-0.0313107682809856,-0.0180956202990508,0.000569772502659956,-0.000447019872410079,-0.0284237954824917,0.0223585226417685,-1.71328293283685,-9.47051173546428e-05,0
0.2,0.000627369109222798,0.000361579088774653,-0.0313064419848365,-0.0180955997966778,0.000569665218788155,-0.000447004446453454,-0.0284195121863531,0.0223578927638807,-1.71328310075721,-8.93479245937328e-05,0
0.21,0.000627283660376634,0.000361579048838028,-0.031303027538485,-0.0180956000329486,0.000569580582146917,-0.000446992348452746,-0.0284161293371025,0.0223574119057789,-1.71328323367113,-8.51093249200014e-05,0
0.22,0.000627215964865974,0.000361579023043283,-0.0313003176029613,-0.0180955987815462,0.000569513529305105,-0.00044698276971952,-0.0284134446898537,0.0223570288313445,-1.71328333888093,-8.17543890239956e-05,0
0.23,0.00062716247202563,0.000361579003100822,-0.0312981728568464,-0.018095598959373,0.000569460544174702,-0.000446975201134175,-0.0284113197916992,0.0223567268080392,-1.71328342216159,-7.90987492455411e-05,0
0.24,0.000627120096848513,0.000361578987353162,-0.0312964692658421,-0.0180955991168715,0.000569418571203866,-0.000446969205577716,-0.0284096319689394,0.0223564869175757,-1.71328348808387,-7.69966310740556e-05,0
0.25,0.000627086511028189,0.000361578974890505,-0.0312951143225758,-0.0180955992583096,0.000569385304192952,-0.000446964453581574,-0.028408289570166,0.0223562961305763,-1.71328354026589,-7.5332661108141e-05,0
0.26,0.000633490180395846,0.00036508299045325,-0.0316065879069783,-0.0182709620221977,0.00057522649911016,-0.000451342301693203,-0.0286917046965201,0.0225741120300628,-1.71328351607356,-0.000105641417398567,0
0.27,0.000616070359684185,0.000355151754629254,-0.0307603764301797,-0.017773946088829,0.000559393386054329,-0.000439038149294924,-0.0279246419710898,0.0219619736927583,-1.71328378402301,-1.73476629768346e-05,0
0.28,0.000615671333853548,0.000354815084680954,-0.0306757351737082,-0.0177570971279308,0.000559046208002716,-0.000438648233740823,-0.027843250878851,0.0219332762567659,-1.71328379565829,-1.51662688357534e-05,0
0.29,0.000625848297382973,0.000361024479772083,-0.0312354336067727,-0.0180678506475963,0.000568238329049466,-0.000446239809666215,-0.0283531515672123,0.0223203569826658,-1.71328365481804,-6.62950276023712e-05,0
0.3,0.000619912292760629,0.000358086355530887,-0.0309425839996341,-0.017920816275179,0.000562780017788884,-0.000442488124485478,-0.0280841647975187,0.022133206911086,-1.71328296179193,-5.88881866251469e-05,0
0.31,0.000626628813717374,0.000361292774526389,-0.031269855511888,-0.0180812709941535,0.000568973111966738,-0.000446615871823546,-0.0283853326665093,0.0223385119000789,-1.71328303720877,-8.7762440528118e-05,0
0.32,0.000627240818678922,0.000361555590969321,-0.0313004071204904,-0.0180944252901498,0.00056954153223595,-0.00044696301081466,-0.028413703618996,0.0223558752711925,-1.71328317441743,-8.66248121262133e-05,0
0.33,0.000627238374745219,0.000361577110330091,-0.0313009384646698,-0.0180955035852965,0.000569536005075165,-0.000446984031471712,-0.0284140738474072,0.0223570214064533,-1.71328329105036,-8.32407707283147e-05,0
0.34,0.000627185987915306,0.000361578854432627,-0.0312989042399088,-0.0180955925207181,0.00056948385982959,-0.000446978371740403,-0.0284120455257816,0.0223568232165431,-1.71328338420351,-8.03050049828227e-05,0
0.35,0.000627139305376602,0.000361578981600964,-0.0312970364378414,-0.0180955999614922,0.000569437599321744,-0.000446971910484905,-0.028410193945177,0.0223565674412544,-1.7132834580267,-7.79545373634151e-05,0
0.36,0.000627101819642999,0.000361578979513097,-0.031295527789022,-0.0180956001100213,0.000569400467646891,-0.000446966618517306,-0.0284086992574888,0.0223563550122287,-1.71328351647171,-7.60912274246474e-05,0
0.37,0.000627072075528292,0.000361578969437132,-0.0312943258151037,-0.0180956002444389,0.000569371005715664,-0.000446962411055909,-0.0284075084111631,0.0223561857725798,-1.71328356273573,-7.46160051861497e-05,0
0.38,0.000627048559633298,0.000361578960770645,-0.0312933715226647,-0.0180956003674797,0.000569347712996586,-0.000446959083939157,-0.0284065629534803,0.0223560514198061,-1.71328359935701,-7.34482364577785e-05,0
0.39,0.000627029874974158,0.000361578953853596,-0.0312926083398069,-0.0180956004816989,0.00056932920571633,-0.000446956440269499,-0.0284058068405514,0.0223559439800491,-1.71328362834525,-7.25238646500096e-05,0
0.4,0.000627015148435956,0.000361578948373576,-0.031292003133184,-0.0180956005886881,0.000569314618941458,-0.000446954356656971,-0.0284052072390125,0.0223558587949843,-1.71328365129132,-7.17921608760767e-05,0
0.41,0.000627003448696121,0.000361578944035442,-0.0312915176634446,-0.01809560069014,0.000569303030266441,-0.000446952701273929,-0.0284047262686339,0.0223557904718809,-1.71328366945478,-7.12129673002322e-05,0
0.42,0.000626994251885702,0.000361578940601338,-0.0312911323129819,-0.0180956007870199,0.000569293920719549,-0.000446951400060298,-0.0284043444881955,0.0223557362542068,-1.71328368383233,-7.07544959992001e-05,0
0.43,0.000626986917720432,0.000361578937882897,-0.0312908202862543,-0.0180956008804973,0.000569286656179284,-0.000446950362355039,-0.0284040353558976,0.0223556923604221,-1.71328369521309,-7.03915846324386e-05,0
0.44,0.000626981096954345,0.000361578935731219,-0.0312905682382636,-0.0180956009712111,0.000569280890680938,-0.000446949538771563,-0.0284037856479267,0.0223556569138409,-1.7132837042217,-7.01043154834825e-05,0
0.45,0.000626976556756797,0.000361578934028053,-0.0312903678131268,-0.0180956010595828,0.000569276393549161,-0.000446948896411137,-0.0284035870819637,0.0223556287423467,-1.7132837113527,-6.98769223201083e-05,0
0.46,0.000626972947881822,0.000361578932679881,-0.0312902041315899,-0.0180956011462537,0.00056927281891572,-0.000446948385809025,-0.0284034249207062,0.0223556057447494,-1.7132837169973,-6.96969250912275e-05,0
0.47,0.000626970037498779,0.000361578931612604,-0.0312900676058847,-0.0180956012316495,0.000569269936181591,-0.000446947974004962,-0.0284032896665643,0.0223555865687517,-1.71328372146526,-6.95544449833144e-05,0
0.48,0.000626967767400005,0.000361578930767899,-0.0312899569394486,-0.0180956013158765,0.000569267687627527,-0.000446947652815195,-0.0284031800306106,0.0223555710373147,-1.71328372500214,-6.94416622412744e-05,0
0.49,0.000626965962962517,0.000361578930099153,-0.0312898646781817,-0.0180956013992534,0.000569265900320232,-0.000446947397506418,-0.0284030886299096,0.0223555580977323,-1.71328372780167,-6.93523869939537e-05,0
0.5,0.000626964565978656,0.000361578929569889,-0.0312897889331317,-0.0180956014818864,0.000569264516578356,-0.000446947199864282,-0.028403013591198,0.0223555474862371,-1.71328373001768,-6.9281719533497e-05,0
0.51,3.15836113299175,0.0015230743102479,4.76818300501668,-0.0702441258808501,-0.337686939252229,3.14025713870803,-0.581930459423576,4.7330603574163,0.107605391728471,32.9668763436026,737.453316100666
0.52,3.06882854231682,0.000370244038149115,4.78318535811847,-0.00471343900328589,-1.42508506822385,2.71787440981816,-2.22587348314238,4.23371841572745,0.483048613675418,69.3984030203636,737.453316100666
0.53,2.93247010333662,0.00158306889917448,6.8558383962569,-0.0570486744086837,-2.6469189543292,1.26222163754351,-6.21436562506015,2.89610679100633,1.1263676809575,106.440242949092,737.453316100666
0.54,2.85045861488502,-0.00445859660430425,5.74073701607304,0.239176508883246,-2.53041709656795,-1.31229703636507,-5.21008457580036,-2.42245445842021,2.04765588424272,144.168354161716,737.453316100666
0.55,2.74794780367266,-0.012211975066398,6.55990260526955,0.642463730486359,0.244881558351214,-2.73704206880784,-0.084622095041012,-6.59074509722865,-3.05680482936418,177.018047884057,737.453316100666
0.56,2.59188095881872,0.00287518141154008,9.68201442982471,-0.124596858745934,2.58625993983031,-0.170630287417379,9.66977680235651,-0.50233891861084,-1.63556723859863,211.157856255901,737.453316100666
0.57,2.52013436707529,0.0335896494889545,9.07742880430377,-1.63829474661823,-0.0331089199178634,2.5201407286278,-1.87792442674716,9.03089825108372,0.0264646969587837,241.894696626021,737.453316100666
0.58,2.41715085679693,0.0384859258999026,9.75843324015868,-1.89463844098148,-2.28693271053367,-0.783605901265181,-8.53743078939132,-5.09204768644517,1.91682445476486,273.221667764156,737.453316100666
0.59,2.33431484169898,-0.015977007203803,9.71096747655655,0.823070555128517,1.81625050247828,-1.46646348648124,6.99223612701882,-6.78888565329182,-2.25688511692522,302.890103124051,737.453316100666
0.6,2.23626799553407,0.0153115953101219,10.5986363607415,-0.730149171921993,-0.131016773230544,2.23247924916071,-1.42194273787492,10.5281664771552,0.0654662683866137,330.96284644407,737.453316100666
0.61,2.11983941777532,0.000374797999512899,12.4331333327166,0.0389113882960051,-1.10727283033083,-1.80766871324331,-6.5256089758541,-10.5830404921979,2.59217897540191,357.997639835364,737.453316100666
0.62,2.0402755102786,0.0254041837321548,12.4903489664757,-1.21117743383528,1.69570951429099,1.1348739020423,9.60672266574686,8.07382484972258,-0.968548415243304,384.177785588112,737.453316100666
0.63,1.963463731479,-0.00543496570065571,12.4998710952852,0.334125241558363,-1.82773845197467,-0.717350343178867,-11.7695746302343,-4.22321324338908,1.94203492903995,409.426366678012,737.453316100666
0.64,1.86729614312556,-0.000362761122677746,13.5553648645168,0.0486453610966482,1.77164402771729,0.589976657827127,12.8771844375196,4.23419460386939,-1.24953031935171,433.791106664064,737.453316100666
0.65,1.77030355341413,-0.00477049859295764,14.6996757058218,0.259554749740419,-1.59570772878436,-0.766625249509417,-13.3787488532418,-6.09564710644591,2.01597068194286,457.181311610279,737.453316100666
0.66,1.73046380356379,-0.00866381153734286,13.1408089140337,0.468985441395845,1.27720277800286,1.16761855969174,10.0576837773401,8.47017138518569,-0.83519777753705,479.246029212455,737.453316100666
0.67,1.65164388902832,0.0486513994890064,13.6796321106044,-2.37487809335188,-0.666687505169292,-1.5118936025025,-2.94820990903908,-13.5676246621141,2.75572800137955,500.295206252019,737.453316100666
0.68,1.53932958908353,0.0139908174931991,15.9493638628067,-0.678363607228745,-0.316041916133701,1.50660175031384,-4.07880446776816,15.4339152169996,0.215861865587587,520.843537520411,737.453316100666
0.69,1.54444713502096,0.0265514342030131,12.3795072871443,-1.29427215850502,1.25371039893605,-0.902348140759595,10.9083477678217,-5.99460508032009,-2.17745964870188,540.338315484398,737.453316100666
0.7,1.40570828214688,0.00320977636434211,16.192813232275,-0.0935305350217217,-1.35156278639045,-0.386398902178967,-15.5329342290539,-4.57645087073035,1.85154223650484,558.774627513159,737.453316100666
0.71,1.35020022405064,-0.0168914416302426,15.8135836739035,0.868316417782409,0.342241057785397,1.30621476955081,5.03621291495466,15.0153242218802,-0.268759337436703,576.824395621995,737.453316100666
0.72,1.28825841119365,0.0358465142623846,15.9556790420578,-1.7267347148767,0.970143816089245,-0.848360585305416,13.3986093977791,-8.83417074062241,-2.26150705727751,593.650294719916,737.453316100666
0.73,1.26233444683898,-0.0107389505230128,14.2970936048197,0.570215160103357,-1.05012461553388,-0.700601079491334,-12.2726754661467,-7.35618568120937,2.15063334239407,609.942085413959,737.453316100666
0.74,1.11472017732186,-0.0200667892734931,18.8827638323809,1.00853620809713,-0.447766013758587,1.02103346991319,-6.34044372540124,17.8150130114332,0.395284971618816,625.400494317085,737.453316100666
0.75,1.15109845094195,0.0832381522920181,14.3006925204224,-4.10536514998466,1.11842579596721,0.284745452418583,12.2708339406864,8.4137069106591,-1.24931150697484,640.049237994873,737.453316100666
0.76,1.03412521606842,-0.00135669448313835,17.4449569101921,0.0901644012415352,0.359202100781314,-0.969737414933944,5.95342065726652,-16.397909430636,-2.7881625670959,654.215927657499,737.453316100666
0.77,0.988755550423247,0.0233886001051557,17.1448374536422,-1.17166356083482,-0.885361316580671,-0.440817313872989,-14.6158339169868,-9.03856436181432,2.05640899951009,667.575858407773,737.453316100666
0.78,0.91137995705951,0.0703721715479265,18.5068006354196,-3.45985974242197,-0.543092978356971,0.735265724427244,-14.7253868641131,11.7318063783291,0.713249780932119,680.15870992365,737.453316100666
0.79,0.864874131485264,0.0509643033506907,18.3798929042254,-2.49803700526975,0.487826071892353,0.715982085746905,7.29408923243701,17.0545276780021,-0.539232499637896,692.206781417683,737.453316100666
0.8,0.86907193160425,0.0128713883910013,15.802063942775,-0.611525040788309,0.859444002010776,-0.12964452302028,15.7407302371329,-1.51940755851417,-1.70570508760685,703.659149807361,737.453316100666
0.81,0.779890217776041,-0.00799712667065527,17.984300469709,0.410273458865012,0.275437610958514,-0.72967583781239,5.79310998545082,-17.0306566048492,-2.79090383079907,714.472939560341,737.453316100666
0.82,0.727579849111206,0.0383941801871355,18.3886297123558,-1.9265985772866,-0.475000274981979,-0.552468359883145,-9.71186405992442,-15.7331872568048,2.48416995033764,724.740417053019,737.453316100666
0.83,0.646574230378759,0.0236463677026627,20.3161432426032,-1.19797327996912,-0.645902003937724,0.0377887206008215,-20.3374924280618,-0.753138746859293,1.5489130795086,734.357591409872,737.453316100666
0.84,0.62526536520652,-0.0169205730645178,19.3239938491694,0.830024964906351,-0.407402251259564,0.474622469325162,-11.5407928702831,15.5214619044189,0.682279113121046,743.45382383146,737.453316100666
0.85,0.541662046411587,0.0259568829441438,21.5162374844139,-1.31881114614908,-0.542113589029572,0.0135789868709062,-21.4805044220719,-1.80988068619245,1.59363750815123,752.03286861072,737.453316100666
0.86,0.533628727445706,-0.0200949791938002,19.9808936356036,0.986523086986301,-0.415220329029601,0.335790865427684,-14.4036949638637,13.8831880224403,0.853130347884033,760.164453083647,737.453316100666
0.87,0.474764661480152,-0.00766631986378947,21.073419669434,0.361822475701147,-0.0879703050602536,0.4666063455186,-3.21278205179458,20.8302175590097,0.170198656890723,767.729975812155,737.453316100666
0.88,0.441297817357825,0.00954435427560604,20.956985600246,-0.50211990919425,0.204075472804911,0.391392462501222,8.83494022021454,19.010291979803,-0.459003042151029,774.849523555604,737.453316100666
0.89,0.40236697429705,-0.0184446722169308,21.1750771926826,0.895762241853634,0.337138840340384,0.220401429832236,18.6910448513198,9.99155275600087,-1.03760418722256,781.52298270117,737.453316100666
0.9,0.420763384460742,0.000746086488549055,18.5948463290585,-0.0638801607458439,0.42076404420007,3.81616084490609e-05,18.5946949657006,0.0985383620062134,-1.56893245915791,787.757708808116,737.453316100666
0.91,0.364166564134376,-0.0288934531932395,19.8252369972686,1.42031924733417,0.335581040304975,-0.144351943037485,16.8724773100182,-10.5060381774071,-2.05620084617011,793.553773994154,737.453316100666
0.92,0.353731884850481,-0.0354058529105261,18.7944573860495,1.75350766731929,0.239483793382523,-0.26273053398361,9.80752778000423,-16.1281994165444,-2.50221003820678,798.995043635704,737.453316100666
0.93,0.34274658510797,-0.00823297783716111,17.8551767077823,0.40571839442442,0.0867691075376459,-0.331683773351008,3.70790600513797,-17.4706432548652,-2.90974068609961,804.052891038238,737.453316100666
0.94,0.307317693487687,0.000723979812985429,18.2022329410896,-0.0272465634007824,-0.0436082266006814,-0.304208828685338,-2.51344665686411,-18.0278842996066,3.00156878162664,808.715911961591,737.453316100666
0.95,0.24682827590506,0.0439620718578584,19.8550031682394,-2.17571777472909,-0.152772462574594,-0.198789929893831,-7.21986460781222,-18.6233308967792,2.66260834157,813.017064545675,737.453316100666
0.96,0.188162653921986,0.0350387547765738,21.4753056885829,-1.71678824292066,-0.158080588451119,-0.10790470898995,-14.0097825955701,-16.3664934519882,2.35385052611956,816.976197555827,737.453316100666
0.97,0.181066230036855,0.0624684840185183,20.5724481325337,-3.0853574705106,-0.188780797408638,-0.0323898392260575,-16.5479334657762,-12.6059886918428,2.0729323651541,820.618775626411,737.453316100666
