t,iq,id,vq,vd,ia,ib,va,vb,theta_e,omega,r
0,0,0,0,0,0,0,0,0,0,0,0
0.01,0.000507211995755386,0.000278861692532995,-0.0243674763987966,-0.0139508276792446,-0.000303849758996177,0.00049264914103091,0.0143245856803572,-0.0241496530838021,1.05534148102676,-0.00409287845272602,0
0.02,0.00062495103083986,0.00033931539992929,-0.0301811543390717,-0.0169751889217561,-0.000376471974045484,0.000603297260341263,0.0178911336859823,-0.0296473683755993,1.05530942711279,-0.00453890961954169,0
0.03,0.000667703217882333,0.000362751709491857,-0.0323434439841436,-0.0181476517878003,-0.000402094753958203,0.000644776084194334,0.019193442950283,-0.0317340098613604,1.0552772428172,-0.00432300322673724,0
0.04,0.000653899063566381,0.000357106465140543,-0.0318044220065349,-0.0178652352218228,-0.000392849745909633,0.000633070367271207,0.0188628179951923,-0.0312231001981076,1.05524894656525,-0.00368117094968324,0
0.05,0.00066584814016616,0.000366045921522785,-0.0324750639646466,-0.0183124534464594,-0.00039882222422537,0.000646748943478169,0.019225006174813,-0.0319433070973409,1.05522383417633,-0.00332440418894255,0
0.06,0.000665063089901137,0.000367701630963115,-0.0325289913763583,-0.0183952931130074,-0.00039730853835945,0.000647811182605287,0.0192303704049637,-0.0320423929001026,1.05520166026761,-0.00290968052693158,0
0.07,0.000672129326080688,0.000373906053971831,-0.0329420504659149,-0.0187056878997419,-0.000400384668613147,0.000656700605538023,0.019436077429874,-0.0325164626434269,1.05518279629182,-0.0026248881812738,0
0.08,0.000661013886400559,0.000369155763109542,-0.0324840912012206,-0.0184680457938354,-0.000393045579097987,0.000647093894425599,0.0191542865662494,-0.0320842360474801,1.05516582220221,-0.00221493887532197,0
0.09,0.000656475291236541,0.000368273266148349,-0.0323278625903339,-0.0184238844884777,-0.000389522945373244,0.000644093845329566,0.0190396849781134,-0.031969057152792,1.05515141076541,-0.00190996556939604,0
0.1,0.000653644708946302,0.000368108319881656,-0.0322443850886351,-0.0184156370168728,-0.000387133787518756,0.000642559391232417,0.0189707331727492,-0.0319209545497901,1.05513902795349,-0.00165732728109679,0
0.11,0.000651436081118612,0.000368076628503251,-0.0321833997935839,-0.0184140454386876,-0.000385221132057248,0.000641446842419563,0.0189181223657903,-0.0318896995571406,1.05512835608785,-0.00144162514379946,0
0.12,0.000649580540047387,0.000368069800742528,-0.0321331407350393,-0.0184137183271838,-0.000383604350298713,0.000640529436215699,0.0188742668308878,-0.031864805157527,1.05511915183608,-0.00125602307884812,0
0.13,0.000673920176168153,0.000382456711136929,-0.0333241443031387,-0.0191334587052736,-0.000397678583912901,0.000665051339098885,0.0195551852934224,-0.0330784304903171,1.05511055134561,-0.00131192107677572,0
0.14,0.000687653546107744,0.000391151684926802,-0.0341028858326511,-0.0195684391263469,-0.000405332929454835,0.000679391092372569,0.0200178886707859,-0.0338410219278378,1.05510275186502,-0.00128926389889085,0
0.15,0.000653799792903647,0.000372347052353173,-0.0324293848441037,-0.0186276848870993,-0.000385150632431023,0.000646340070655481,0.0190257238295752,-0.0321974762734719,1.05509582173743,-0.00086404743288425,0
0.16,0.000645824282234624,0.000368858888865553,-0.0320712626900902,-0.0184531828472605,-0.000379929326185069,0.000639374374309416,0.0188000716098618,-0.0318691568008203,1.05509081842137,-0.000701879392477129,0
0.17,0.000643504904849499,0.000368211521984357,-0.0319780089257041,-0.0184208085982747,-0.000378228224760601,0.000637668956028003,0.0187347807058658,-0.0317950819494116,1.05508671162246,-0.000605949106245938,0
0.18,0.000642484112394372,0.000368091092901234,-0.031943908260446,-0.0184147760440157,-0.0003773973550233,0.000637062103545507,0.0187079789003359,-0.0317730825883739,1.05508321372952,-0.000532637634635483,0
0.19,0.000641813967326109,0.000368068444229049,-0.0319244407076806,-0.0184136467347552,-0.000376823622294067,0.000636713048376779,0.0186915046579383,-0.0317625558510779,1.05508020579029,-0.000471421926721184,0
0.2,0.000641281018746304,0.00036806397364786,-0.0319097794757827,-0.0184134249912974,-0.000376360543611515,0.000636447307256614,0.0186787772871424,-0.0317551810758583,1.05507761293813,-0.000419047575057201,0
0.21,0.000640831074484152,0.000368062911508878,-0.0318975931464502,-0.0184133718128977,-0.000375968220729091,0.00063622532946646,0.0186681311519629,-0.031749166750477,1.05507537654669,-0.000373958232199587,0
0.22,0.000640444925853411,0.00036806251344178,-0.0318871719485005,-0.0184133490232041,-0.000375631264849382,0.000636035273959012,0.0186590153597351,-0.031744043581887,1.05507344732189,-0.000335080063664797,0
0.23,0.000640112328278973,0.000368062266087856,-0.0318782037221288,-0.0184133333680046,-0.000375340989794839,0.000635871658365339,0.0186511684687252,-0.0317396381992935,1.05507178301221,-0.000301544433182368,0
0.24,0.000639825364509447,0.000368062070467774,-0.0318704616880342,-0.0184133328456121,-0.000375090533487796,0.000635730506169487,0.0186443880891905,-0.0317358464117692,1.05507034722679,-0.000272614381834512,0
0.25,0.000639577982950274,0.000368061904969493,-0.0318637884252257,-0.0184133169573225,-0.000374874621956855,0.000635608826226649,0.0186385513151201,-0.0317325646466213,1.05506910858465,-0.000247656805575748,0
0.26,0.000644172478215979,0.000370807247434812,-0.0320856162430292,-0.0185506657751169,-0.000377517040948462,0.000640263289775866,0.0187637621982904,-0.0319614642743577,1.05506820879895,-0.000271519382764308,0
0.27,0.000633030094262655,0.000364316146173822,-0.0315621563328046,-0.0182259254087166,-0.000371024251660338,0.000629121895410593,0.0184684955218592,-0.0314208329383479,1.05506684483255,-0.000148430840209249,0
0.28,0.000632409413905709,0.000364116345575034,-0.0314444482718434,-0.0182159342937422,-0.000370582340400877,0.000628642274186591,0.0183709999282979,-0.0313541058068804,1.05506605520887,-0.000128449546450474,0
0.29,0.000637468377686937,0.000367329733746467,-0.0317779511301413,-0.0183766957614465,-0.000373398264708936,0.000633932805396141,0.0185818279096033,-0.0316584395805653,1.05506560288136,-0.000164626737614501,0
0.3,0.000628595628725564,0.000362834805110406,-0.0313537992973945,-0.0181518203811609,-0.000367896773650184,0.000625646484997861,0.0183237681019654,-0.0312536211674203,1.05506629885889,-9.93862880437317e-05,0
0.31,0.000636703747489662,0.000367092084049267,-0.0317402757831011,-0.0183648049064109,-0.000372850496450805,0.000633348851372923,0.018554927436409,-0.0316295089096787,1.05506592909352,-0.000163900736232927,0
0.32,0.000638348919238637,0.000367881613160092,-0.0318206898466931,-0.0184042914696327,-0.000373891954321775,0.000634847249728509,0.018605390755381,-0.0317035279055536,1.05506536433837,-0.000167982757636016,0
0.33,0.000638618662458916,0.000368027988845816,-0.0318356954296512,-0.0184116182033769,-0.000374054081516699,0.000635107818181614,0.0186148141397944,-0.0317173120377081,1.05506482432664,-0.000160423810485028,0
0.34,0.000638604461444044,0.000368055086933821,-0.0318369608868124,-0.01841297731422,-0.000374028060509403,0.000635124566636872,0.0186152295905734,-0.0317191273425459,1.05506434711803,-0.000151522162354387,0
0.35,0.000638539094547389,0.000368060069491873,-0.0318355372392039,-0.0184132293114217,-0.000373968475492265,0.000635096818884927,0.0186138537007244,-0.0317186521685863,1.05506393299612,-0.000143331306468262,0
0.36,0.000638471399094553,0.000368060956223647,-0.0318337714973005,-0.0184132761579506,-0.000373908920540624,0.000635064338550171,0.0186122831742301,-0.0317178287663826,1.05506357521207,-0.000136155221198232,0
0.37,0.000638410631307843,0.000368061088431817,-0.0318321332441794,-0.0184132699324951,-0.000373855795442412,0.000635034600001145,0.0186108512830441,-0.0317170211558799,1.05506326644162,-0.000129940848717076,0
0.38,0.000638357604130636,0.00036806108512538,-0.0318306879627744,-0.0184132716300066,-0.000373809497899474,0.00063500854515134,0.0186095847009724,-0.0317163148168454,1.05506300004291,-0.000124574676001908,0
0.39,0.000638311620078601,0.000368061060504162,-0.0318294262788018,-0.0184132718508922,-0.0003737693611398,0.000634985931544914,0.0186084797245792,-0.0317156970573321,1.05506277021724,-0.000119944222362061,0
0.4,0.000638272038869254,0.000368061035225477,-0.0318283391278873,-0.0184132720521656,-0.00037373481478324,0.000634966463265976,0.0186075275906596,-0.0317151647681311,1.05506257194701,-0.000115949324607111,0
0.41,0.000638237812764701,0.00036806101266801,-0.0318273940442371,-0.0184132722369961,-0.00037370494294944,0.00063494962816276,0.0186066999171566,-0.0317147020215192,1.05506240090011,-0.000112502900791004,0
0.42,0.000638208359688335,0.000368060993068311,-0.0318265791749061,-0.0184132724071831,-0.000373679236779619,0.000634935140777629,0.0186059862733396,-0.0317143030431696,1.05506225333923,-0.000109529681533889,0
0.43,0.000638182922940563,0.000368060976133464,-0.0318258715675252,-0.0184132725650596,-0.000373657036092177,0.000634922628880156,0.0186053665887478,-0.0317139565757111,1.05506212603933,-0.000106964701401245,0
0.44,0.00063816097865244,0.000368060961518857,-0.0318252578615493,-0.0184132727122266,-0.000373637883559453,0.000634911834854287,0.0186048291515716,-0.031713656083299,1.05506201621834,-0.000104751908450791,0
0.45,0.000638142002955018,0.000368060948909899,-0.03182472295987,-0.0184132728502806,-0.000373621322082258,0.000634902500966411,0.018604360751455,-0.0317133941665202,1.05506192147671,-0.000102842945590436,0
0.46,0.000638125704809993,0.000368060938031703,-0.0318242618812125,-0.018413272980119,-0.000373607097297346,0.000634894484220078,0.0186039569888937,-0.0317131684080883,1.05506183974353,-0.000101196095149107,0
0.47,0.000638111560346633,0.000368060928647158,-0.0318238566475791,-0.0184132716481527,-0.000373594752455911,0.000634887526717945,0.0186036028844923,-0.0317129687104572,1.05506176923285,-9.97753674839562e-05,0
0.48,0.000638099394945524,0.000368060920550774,-0.031823505661933,-0.0184132717653116,-0.000373584134773873,0.000634881542739891,0.0186032955644715,-0.031712796847002,1.05506170840393,-9.85497145382835e-05,0
0.49,0.00063808891756658,0.00036806091356611,-0.0318232005094558,-0.0184132718772924,-0.00037357499030899,0.000634876389096372,0.018603028383568,-0.0317126474273637,1.05506165592705,-9.74923513431932e-05,0
0.5,0.000638079895379155,0.000368060907540423,-0.0318229348437647,-0.0184132719848069,-0.000373567115861825,0.000634871951257284,0.0186027957841465,-0.0317125173436344,1.05506161065551,-9.65801706726691e-05,0
0.51,2.57130501743138,-0.012485036075518,0.431183421401174,0.627399097430591,-0.301892300732259,2.55355172408005,0.574866099010586,0.499076886417608,0.112822748418963,34.4009271557342,559.541554412802
0.52,2.4078079339358,0.0435714010356864,0.953068695258659,-2.17442976426429,-1.11655263689477,2.13371687970914,-2.36512597256407,-0.206552345673835,0.500199417675252,70.934368592598,559.541554412802
0.53,2.23367225657139,0.0174183570629663,2.34952764821862,-0.863084191306508,-2.03043949980343,0.931080333041952,-2.49688766748135,0.175346705148644,1.148643857345,105.776987267949,559.541554412802
0.54,2.10125393693327,0.0253793227298375,1.72024437027001,-1.25879481378826,-1.87625870754989,-0.946343214612434,-0.946050546294174,-1.910181520307,2.05001762146632,140.154734171071,559.541554412802
0.55,1.96724674772318,-0.00769730911157718,1.13242447382347,0.392452647084447,0.129595517333519,-1.96298854221874,-0.321520412731502,-1.15456870445847,-3.07958153483356,174.126103298885,559.541554412802
0.56,1.80430119127522,0.0533248144541506,3.01493086863867,-2.65844303902917,1.78421810914799,-0.273700682611696,3.31756600123334,2.26955576311612,-1.69346500227686,203.274366344537,559.541554412802
0.57,1.71987173792016,0.0414387358203402,1.69957251746754,-2.05884826142087,0.224027586076155,1.70572201850119,-1.86651705875353,1.90879987821374,-0.106501963471851,229.536678330744,559.541554412802
0.58,1.62650143471441,-0.00463752392080684,0.69769793411006,0.240321237918917,-1.61752985252624,-0.170662239357706,-0.718586912977702,0.167837877588769,1.67306413818329,256.245074359746,559.541554412802
0.59,1.49332399003492,0.00798855141980304,2.17162968329025,-0.38836467092375,0.709399070696087,-1.31409029928051,1.38257432807539,-1.71909593284258,-2.64123348486509,280.126605220334,559.541554412802
0.6,1.36914437057208,0.0121746288398744,3.78852227464462,-0.59210172353809,0.6772193557061,1.18999095513942,1.32730130761017,3.59746531815271,-0.508494204853462,301.850166870704,559.541554412802
0.61,1.32995043983438,-0.0323059203947435,1.01849278057775,1.62528758897526,-1.29224625558288,-0.316087740730702,-1.34262566439343,1.36976042294926,1.78640306476735,323.645367545136,559.541554412802
0.62,1.22828629007532,0.0230578501198597,2.10277633735068,-1.13637166657086,1.07623723196996,-0.592395387693715,2.39004421922515,0.0264105974072428,-2.05520095996825,342.384194382069,559.541554412802
0.63,1.10426083281976,-0.0188493697597694,4.18404234344921,0.950111175163744,-0.570228473303359,0.945825974412973,-1.27688155390554,4.09615613401671,0.525473351916844,361.363613454247,559.541554412802
0.64,1.0379383538557,-0.0151751517655546,3.96718462551475,0.776337397107843,0.111858268368033,-1.03200486405515,-0.403164820742993,-4.02227693407404,-3.04824429679373,377.816571457435,559.541554412802
0.65,0.960215789824974,-0.0238332018831016,4.26516697505707,1.200017134683,0.183199538027216,0.942878737594508,2.08908460013432,3.90735408967909,-0.21672256858937,394.21770541641,559.541554412802
0.66,0.88414198295953,0.0522017177367438,4.94531580112989,-2.59540963261172,-0.404740511820819,-0.787792601804115,0.377715678976444,-5.57221952186147,2.72596730588568,408.766744775047,559.541554412802
0.67,0.862749284934808,0.0268131543918234,2.93697322433096,-1.33016051930699,0.442761073351765,0.740957425111831,0.264999341080601,3.21324043245862,-0.507549303247307,422.700504942391,559.541554412802
0.68,0.775179052433556,-0.0159928117782845,4.44494486124342,0.802389205549378,-0.359456540525675,-0.686985683135883,-2.84463925937852,-3.50847413282169,2.63890028606448,435.915354473697,559.541554412802
0.69,0.72523086242769,-0.0021839626704471,4.37636038675242,0.124863012639527,0.284028983410213,0.667302113059383,1.84080693938097,3.97234827508718,-0.405422114718571,447.583643019435,559.541554412802
0.7,0.717202211957418,-0.0286575626597377,2.23371520742107,1.44116343761528,-0.130523011734617,-0.705807347752866,-1.89910172686313,-1.86006674955732,2.91879503827262,459.058289787462,559.541554412802
0.71,0.630873162797707,0.00421444105502747,4.23689060784967,-0.210674848640318,-0.0202834788548379,0.630561091042996,-0.375020599271835,4.22551599983436,0.0388364920777731,469.647645815687,559.541554412802
0.72,0.555528429380433,0.0349442036540094,5.88637487429635,-1.73415179487501,0.171061238474296,-0.529689518407287,3.77059379793867,-4.84141653024835,-2.7663995587377,479.083542585607,559.541554412802
0.73,0.571112276183183,-0.0190250169247793,3.05689426552299,0.958794571939742,-0.415203804603505,0.392602832285885,-1.46842770530543,2.84738646060908,0.780069157997086,488.259738509417,559.541554412802
0.74,0.518901961288847,-0.00821423103779757,3.75808243642871,0.409869655989057,0.494812509816896,-0.156484181787358,3.43502580856699,-1.57853553281933,-1.89292210728976,496.833263628415,559.541554412802
0.75,0.474191398746965,0.0168138180115988,4.27208126957788,-0.827040949204891,-0.467561172478968,-0.0807882238437214,-4.01167856593228,-1.68555931048996,1.77733641455873,504.494007267255,559.541554412802
0.76,0.426367559982371,0.0268344452669971,4.99341263906608,-1.33285186648995,0.318849776098206,0.284331151899035,2.56291604655031,4.48799790778979,-0.779709009099146,511.822192007804,559.541554412802
0.77,0.388189215497461,0.0231400588797285,5.30634233148816,-1.15689582590179,-0.0783371888808869,-0.380906306316569,0.387281546533274,-5.41716622364932,2.99830056321477,518.828423653511,559.541554412802
0.78,0.397693842351927,-0.0288472100221968,3.41230498432304,1.43969396448737,-0.229567245905616,0.32602366996587,-0.523553354975189,3.66639276427273,0.541091603929163,525.095114609398,559.541554412802
0.79,0.330143519294257,-0.0145070451564172,5.44219784913024,0.738499969581989,0.319633484920862,-0.0839025208710268,4.9794576467437,-2.31687314681579,-1.87141432649868,530.917226854299,559.541554412802
0.8,0.323970022915435,-0.0035517089662007,4.4548594315334,0.186582463798615,-0.287137139411861,-0.150071494810911,-4.05512950755607,-1.85378268614941,2.0414346730298,536.480661639239,559.541554412802
0.81,0.287120067032598,-0.0235471165924283,5.09183694424287,1.178869490212,0.0595078017415615,0.281870929903224,2.5851679781523,4.54240500907231,-0.289890232041455,541.63568680336,559.541554412802
0.82,0.302301694421434,-0.0208556186394028,3.22968796654753,1.03880423231719,0.177277560804227,-0.245751780693866,0.822416937646385,-3.29144785391085,-2.58554927406664,546.368778451643,559.541554412802
0.83,0.235514291020834,-0.0371929097847187,5.54325609406202,1.86551564463812,-0.238379032640136,-0.00507253495336556,-5.24082459819275,2.59645802502623,1.43544383142455,550.710449809577,559.541554412802
0.84,0.23384062631027,-0.0248887975735434,4.66291142635034,1.25619376687861,0.149676798593459,0.18137736000022,4.21066811862748,2.36453795586101,-0.795968487646929,554.683091102852,559.541554412802
0.85,0.235365225516713,-0.0234009840404404,3.68292615827616,1.17639819336162,0.0566339439615621,-0.229645360998111,-0.640701140073553,-3.81278898521381,-2.99890105039309,558.439846356199,559.541554412802
0.86,0.225961497955816,0.00980852894248586,3.30096669366846,-0.492309529463654,-0.19777298235315,0.109729910460149,-3.17314523720317,1.03435926501582,1.10763498973646,561.941885894941,559.541554412802
0.87,0.202636041987857,0.0138647147630588,3.68445544820427,-0.700372441287068,0.182188235214518,0.0897833101271328,2.83428970951759,2.45612201424099,-1.04460581786347,565.121339583953,559.541554412802
0.88,0.161478035807301,0.00692487094263339,5.02158727995058,-0.346139382582635,-0.0122279188798926,-0.161163233665817,0.180923765492377,-5.03025027940124,3.1087228940769,568.064452773368,559.541554412802
0.89,0.139756860594233,-0.00552094419780822,5.4085456106057,0.286275868275635,-0.120574505378432,0.0708819410057148,-4.39602052416339,3.16375141973787,0.999861491141646,570.812545121081,559.541554412802
0.9,0.144935937177444,0.027828847336972,4.49709039761568,-1.38625040656938,0.141356707728584,0.0424164096753153,3.34472867878205,3.31033265690531,-1.08957935570551,573.342891253587,559.541554412802
0.91,0.142987544301052,-0.00555853044571904,3.99248784948132,0.277937569419385,0.00274730089599522,-0.143069170067308,-0.356348859239906,-3.98625438366258,3.12193823605171,575.666827784001,559.541554412802
0.92,0.102064396394635,0.0279190083829191,5.46016443364896,-1.40351935434985,-0.0758943139440617,0.0737337449981139,-5.45911295828359,1.40760361225023,1.06684796876008,577.911137098879,559.541554412802
0.93,0.157675962115329,0.0162856417080723,2.16151105542865,-0.823089961116928,0.139498446591398,0.0752802401259801,1.32343052135915,1.89687605867299,-0.973014060343184,579.850125363929,559.541554412802
0.94,0.140924453490971,0.000393958862537555,2.51262495991688,-0.00982969456789083,0.0196327458843161,-0.139550750927238,0.366726609574452,-2.48573779910968,-2.99902907754844,581.638675156959,559.541554412802
0.95,0.0977036359578952,0.0180132002764973,4.22149993421527,-0.892294201336151,-0.0880075800610235,0.0460992593801317,-4.2965666284439,0.395936666223111,1.27060097656814,583.253530231586,559.541554412802
0.96,0.123044699093668,0.050230988872197,2.51743800527181,-2.50798229155767,0.119557609219717,0.0580441926104207,-0.185685812719489,3.54866031962887,-0.731238656827561,584.822345148878,559.541554412802
0.97,0.0758587991534174,-0.00790423595832101,4.46237320025691,0.39399692770536,0.0381139118001587,-0.066063333872679,1.45754374126549,-4.23598564677811,-2.7221312651684,586.250872730217,559.541554412802
