t,iq,id,vq,vd,ia,ib,va,vb,theta_e,omega,r
0,0,0,0,0,0,0,0,0,0,0,0
0.01,0.000786487618578756,0.000448470524763792,-0.0388219109637362,-0.0224515853190837,-0.000198468381107942,0.00088334528212924,0.0095641558320284,-0.0438148533882864,0.739242212810904,-0.00214935866293149,0
0.02,0.000871845443649837,0.00049711274604708,-0.0431004572293175,-0.0248867484571884,-0.000220015026847641,0.000979198114712585,0.010646416780888,-0.0486174194283821,0.739226153058237,-0.00229786415190217,0
0.03,0.000904975345018507,0.000516053188280093,-0.0447393159683367,-0.0258349467327504,-0.000228321681802218,0.00101644501958759,0.0110490043008558,-0.0504675179690698,0.739209725215094,-0.00229684318673358,0
0.04,0.00088541844718822,0.000505217838160286,-0.0437895094621525,-0.025292501272928,-0.000223138186021586,0.000994696054358088,0.0108092252305713,-0.0494003280302043,0.739194373643512,-0.00215331304474825,0
0.05,0.000904741456611043,0.000516351834397744,-0.0447493066009875,-0.0258498950270345,-0.000227912371227689,0.00101648033489978,0.0110431466086072,-0.0504853090231078,0.739179189198575,-0.00212047837251288,0
0.06,0.000905131611437771,0.000516767913344681,-0.044778771101346,-0.0258707408130691,-0.000227852803170651,0.00101705231447248,0.0110468498302432,-0.0505212893777642,0.739164522513776,-0.00203718736808773,0
0.07,0.000929268302391779,0.000530782058905165,-0.045974060796922,-0.0265723066668478,-0.000233741560867633,0.00104433426382977,0.0113328804912183,-0.0518774283048789,0.739150612490653,-0.00202527179745231,0
0.08,0.000905403258340821,0.000517305350411687,-0.044811391494792,-0.0258976331212034,-0.00022761060376839,0.00101762139267555,0.0110475588531882,-0.0505638176205606,0.739136990619724,-0.00187953449396869,0
0.09,0.000904142083339759,0.000516795169255403,-0.044758505237004,-0.0258721083560855,-0.000227124938807957,0.00101634857012895,0.0110301439162483,-0.050507679683656,0.739124078241046,-0.00180167739759706,0
0.1,0.000903782223918771,0.000516773315584515,-0.0447495060887621,-0.0258710007273962,-0.00022688610836409,0.00101607069724659,0.0110242757940711,-0.0505004189788694,0.739111711366868,-0.00172950206373141,0
0.11,0.000903470605321237,0.000516769958499667,-0.0447425110369495,-0.0258708372006131,-0.000226666636172865,0.00101584081466209,0.0110190862221811,-0.0504952695822125,0.739099861910402,-0.00166044044373947,0
0.12,0.000903173364033467,0.000516767403464077,-0.0447358724061914,-0.0258707086556281,-0.000226456764752746,0.00101562198109348,0.0110141360312717,-0.0504904016004237,0.739088508025086,-0.00159427082605215,0
0.13,0.000946132257536424,0.000541423124418552,-0.0468538926221639,-0.0271050345566675,-0.000237159827239457,0.00106398330097322,0.0115279970575107,-0.0528873844693555,0.73907718139281,-0.0016503443070705,0
0.14,0.000991226600038579,0.000567694597745486,-0.0491560537772743,-0.0284202439482218,-0.000248106579292027,0.00111501141440142,0.0121060872872954,-0.0554749541651285,0.73906634884794,-0.00171528785655427,0
0.15,0.000905798569781824,0.000518677820577438,-0.0448876978254154,-0.0259663498519237,-0.000226779931008822,0.00101885651269911,0.0110440673632231,-0.0506673989541095,0.739055869434955,-0.00141387664943136,0
0.16,0.000902205854899537,0.000516830213619095,-0.0447179036356724,-0.0258738522381999,-0.00022571581064946,0.0010149587415986,0.0109975797510642,-0.0504797026024566,0.739046334694207,-0.00134887344656776,0
0.17,0.000901836069334535,0.000516758696717304,-0.0447061217347754,-0.0258702680774038,-0.000225510338651061,0.00101463931214359,0.0109918326752283,-0.0504686804404581,0.739037218592802,-0.00129537515290028,0
0.18,0.000901602188207147,0.000516754134243843,-0.0447007455127329,-0.0258700518515933,-0.000225347313592553,0.00101446534159361,0.0109879304325555,-0.0504646571077973,0.73902848452166,-0.00124445918989708,0
0.19,0.0009013829894417,0.000516752170723652,-0.0446958326721723,-0.0258699392767807,-0.000225192630662667,0.00101430388873241,0.0109842822000575,-0.0504610420125531,0.739020115753797,-0.00119568615451358,0
0.2,0.000901173031797337,0.000516750379809016,-0.0446911265553467,-0.0258698540319507,-0.000225044402249918,0.00101414930128041,0.0109807707286637,-0.0504575942215339,0.739012096982386,-0.00114895341542218,0
0.21,0.000900971921714186,0.000516748667032643,-0.0446866182802431,-0.0258697687994797,-0.000224902417922723,0.00101400122830788,0.0109774094810921,-0.0504542889370876,0.739004413568881,-0.00110417513351899,0
0.22,0.000900779251738621,0.000516747025855458,-0.0446822976994025,-0.0258696835782024,-0.000224766393554534,0.0010138593676747,0.0109741909091192,-0.0504511188183627,0.73899705148784,-0.00106126955035576,0
0.23,0.000900594425897816,0.000516745453171961,-0.0446781449191478,-0.0258696198389021,-0.000224635916129431,0.00101372328005073,0.0109710850593305,-0.0504480837757652,0.738989997300481,-0.00102015834600762,0
0.24,0.000900417588400338,0.000516743946125466,-0.0446741764168234,-0.0258695346327941,-0.000224511071588425,0.00101359307322624,0.0109681341203173,-0.050445167207152,0.738983238130903,-0.000980766476758559,0
0.25,0.000900247896547111,0.000516742501981926,-0.0446703590958352,-0.0258694708982024,-0.00022439128162674,0.00101346812545928,0.0109652834348026,-0.0504423737099896,0.73897676164021,-0.000943022037358952,0
0.26,0.000909289719634749,0.000521976206125367,-0.0451187754412213,-0.0261314665617019,-0.000226606405339766,0.00102367792349619,0.0110733364797318,-0.0509503548681198,0.738970609434644,-0.000933141257253519,0
0.27,0.000878933161513095,0.000504656347052329,-0.0436319621980692,-0.0252643923539221,-0.000218956547513693,0.000989575444990673,0.0107125333320312,-0.0492674261137801,0.738964474365697,-0.000812161292648743,0
0.28,0.000875420494386907,0.000502620861175412,-0.043388906685832,-0.0251624911504044,-0.000218089614917126,0.00098560929984788,0.0106238716405797,-0.0490191955834702,0.738958758292838,-0.000769356566596645,0
0.29,0.000898681668997098,0.000516205747273083,-0.0446096672361605,-0.0258425813524936,-0.000223709534159819,0.00101195412941258,0.0109431067482037,-0.0503796569716254,0.738953450434856,-0.00080446742010218,0
0.3,0.000893873545465249,0.000513606909905827,-0.0443766841470318,-0.025712485248622,-0.000222387602373466,0.00100665074752677,0.0108821246923584,-0.050119869869404,0.73894889822292,-0.000764703989089738,0
0.31,0.000899165998846942,0.000516617343541513,-0.0446401256780271,-0.0258631873515266,-0.000223721816908575,0.00101259148809845,0.0109479076146436,-0.0504161541511394,0.738943891452495,-0.000750831872861614,0
0.32,0.00089925235738784,0.000516729656752071,-0.0446477226541317,-0.0258688191199414,-0.000223692069215456,0.00101273204679461,0.010948617806911,-0.0504256156033687,0.738939061820496,-0.000723286123726463,0
0.33,0.000899139462645216,0.000516732893381827,-0.0446453907489399,-0.0258689921264573,-0.000223608954207578,0.00101265181182225,0.0109466859671631,-0.0504240590898884,0.738934432905588,-0.000696332785293892,0
0.34,0.000899023787495168,0.000516732064506477,-0.0446427858658157,-0.0258689341866278,-0.000223527168501077,0.00101256673948593,0.0109447507639837,-0.0504221431171607,0.73892999752925,-0.000670484708564151,0
0.35,0.000898912522227008,0.000516731122266984,-0.044640266404177,-0.0258688918556078,-0.000223448625189488,0.00101248480839801,0.0109428709235623,-0.0504202987538083,0.738925747645622,-0.000645716776688059,0
0.36,0.000898805913570904,0.000516730213813048,-0.0446378502916911,-0.0258688495158298,-0.000223373373732747,0.00101240630185937,0.0109410696714499,-0.0504185288200732,0.738921675498794,-0.000621984644961992,0
0.37,0.000898703728696214,0.000516729343096964,-0.0446355311597464,-0.0258688071676986,-0.000223301246791562,0.00101233105216191,0.0109393423415263,-0.0504168286916894,0.738917773655568,-0.000599245027129497,0
0.38,0.000898605851187615,0.000516728508746113,-0.0446333084821895,-0.0258687648112472,-0.000223232159690197,0.0010122589739882,0.0109376882186453,-0.0504151980592918,0.738914034993933,-0.000577456415978181,0
0.39,0.000898512048214463,0.000516727709251312,-0.0446311754794096,-0.0258687224467385,-0.000223165949757399,0.00101218989580194,0.0109361023909937,-0.0504136319877268,0.73891045268897,-0.000556579038965316,0
0.4,0.000898422319776759,0.000516726943157432,-0.0446291369444257,-0.0258686800734789,-0.000223102611385537,0.00101212381814224,0.0109345877559981,-0.0504121340924453,0.738907020201707,-0.000536574786848908,0
0.41,0.000898336069910853,0.000516726209070885,-0.0446271676892804,-0.0258686591104976,-0.000223041737834282,0.00101206030098384,0.0109331111997763,-0.0504107002494074,0.738903731266551,-0.000517407144171111,0
0.42,0.00089825361742441,0.000516725505655606,-0.0446252880138052,-0.0258686138096626,-0.000222983538672121,0.00101199958048032,0.0109317199073305,-0.0504093147207558,0.73890057988014,-0.000499041122609426,0
0.43,0.000898174657401874,0.000516724831631114,-0.044623486871948,-0.0258685714113714,-0.000222927803619726,0.00101194143170268,0.0109303860119907,-0.0504079877510005,0.7388975602896,-0.000481443197106935,0
0.44,0.00089809882670621,0.000516724185770841,-0.0446217501009639,-0.025868550417864,-0.000222874283397846,0.00101188558666062,0.0109290860195648,-0.0504067213928003,0.7388946669834,-0.000464581244675222,0
0.45,0.000898026385940468,0.000516723566898531,-0.0446200946792142,-0.0258685080032362,-0.000222823148998477,0.00101183223841902,0.0109278627547724,-0.0504054994133417,0.738891894679796,-0.000448424485759894,0
0.46,0.000897956725256239,0.000516722973887471,-0.0446184936752444,-0.0258684869906373,-0.000222773985381304,0.0010117809365734,0.0109266661686731,-0.0504043308007454,0.738889238318481,-0.000432943428057315,0
0.47,0.000897890033162506,0.000516722405657941,-0.0446169600976901,-0.0258684659678634,-0.000222726915358405,0.00101173182085789,0.0109255206051841,-0.0504032108044227,0.738886693050365,-0.000418109812676469,0
0.48,0.000897826381751921,0.000516721861175207,-0.0446155009746795,-0.0258684235296065,-0.000222681983512909,0.00101168494493339,0.0109244463858122,-0.0504021302554985,0.738884254229445,-0.00040389656255785,0
0.49,0.000897765161177693,0.000516721339447383,-0.0446140890549187,-0.0258684024892981,-0.000222638775334704,0.00101163985834,0.0109233932842204,-0.0504010978918792,0.738881917404265,-0.000390277733046995,0
0.5,0.000897706501740334,0.000516720839524185,-0.0446127338892693,-0.0258683814399738,-0.000222597374936062,0.00101159665773322,0.0109223833413747,-0.0504001064040821,0.738879678308395,-0.000377228464535632,0
0.51,2.27222160518767,-0.0346911279460779,1.98647200556003,1.73839179161245,-0.173263049113805,2.2658716674277,1.6139511235165,2.08883671475754,0.0610515776713112,18.7413128915003,523.740506435039
0.52,2.22586198340021,0.0650099601807631,1.81051405956389,-3.25148402577569,-0.539722785989664,2.16041365908304,-3.62009799003375,0.8631338669677,0.274011180977045,39.2844023479002,523.740506435039
0.53,2.10149992994897,0.0150742584930968,5.52000679416238,-0.749696357118532,-1.23677824708846,1.6990905674429,-3.88343190096208,3.99392993254334,0.636383339128109,59.5377921618862,523.740506435039
0.54,2.09145840711016,0.0129869254558426,3.42631285948629,-0.64302691447537,-1.90119609552867,0.871676737816904,-3.38772471484876,0.822450412015026,1.14711516944623,79.8279941420492,523.740506435039
0.55,2.04966853299642,-0.013967692782872,2.72785752660522,0.708298983574263,-1.98893640443899,-0.495447444937078,-2.81791987347917,0.0471351486707573,1.80811485006549,100.68058693546,523.740506435039
0.56,1.95875720927748,0.0357823997396057,4.27275261336611,-1.78481317775454,-0.999091355748716,-1.68517852107598,-0.559877890735776,-4.59657586927252,2.62469836367809,121.877844479138,523.740506435039
0.57,1.93135918520445,0.00231955358701741,3.00950625051154,-0.107617821177753,0.83409197172148,-1.74196563264383,1.39997574259447,-2.66622905757366,-2.69382930051892,140.919049365726,523.740506435039
0.58,1.93446810721047,-0.0107517353593369,0.473894647480993,0.550333190147826,1.93414295289555,-0.0370606987544057,0.460148762901393,-0.561877097851243,-1.59551320796921,158.620465246802,523.740506435039
0.59,1.80776959943997,-0.0119739113423981,4.3296690212646,0.613597996535287,0.638130498716486,1.6914383718658,2.12776104353297,3.82036245357348,-0.367383605463327,176.641637079515,523.740506435039
0.6,1.75903780692811,-0.0003179656472308,4.02805538592738,0.0254185185965406,-1.47728297657652,0.954907908869653,-3.36866155903819,2.20861848082565,0.996778992705007,195.203975777012,523.740506435039
0.61,1.72040417863611,0.00406823589440575,3.6201955529177,-0.189695511575349,-1.04821780065426,-1.36420179255249,-2.04824082742356,-2.99107167104905,2.48879992895364,211.651698817775,523.740506435039
0.62,1.63506505857969,0.0138387831388793,5.48877510622034,-0.677181138776383,1.33031858877021,-0.950726937705775,4.88152076994535,-2.59922708395607,-2.18283078206466,228.336536063464,523.740506435039
0.63,1.61509062565697,-0.0117672883047467,3.99587063990737,0.601278639454454,0.687626372287631,1.4614466019303,2.2696826570811,3.3432108532492,-0.447064872726116,244.738266735203,523.740506435039
0.64,1.58905258360418,0.0436792084142196,3.09034173034323,-2.16840555082607,-1.55910869422295,0.310122663320866,-3.41081818067253,-1.6181823078837,1.40192950468407,259.8057722298,523.740506435039
0.65,1.51934457603279,0.0415255339447645,4.1191614131651,-2.06754487910188,0.296611443492208,-1.4906890897431,2.92994425237737,-3.55776042655623,-2.91785743084172,275.608413999938,523.740506435039
0.66,1.48052254541627,-0.0279033390724779,3.91929939155107,1.41618773556278,1.08962387671684,1.00271900904781,3.87265206799201,1.53917555309595,-0.845753741967914,289.741132820852,523.740506435039
0.67,1.4583794035963,0.0146953816987365,2.65619109205322,-0.723666112204256,-1.41404049854408,0.357177697448177,-2.75187674348388,-0.0788552352622498,1.33345421775439,304.603739854567,523.740506435039
0.68,1.34340413616366,0.0201342647661387,6.33131861756031,-0.988309407214797,0.594727669259165,-1.20475684729196,3.76689105868181,-5.1839061212061,-2.66805192817684,317.930294852818,523.740506435039
0.69,1.40426595512531,0.0119990486330555,1.04345354010502,-0.586416388342851,0.407423029255907,1.34391715709118,-0.268442311069418,1.16645539841971,-0.285809597616465,331.659395391988,523.740506435039
0.7,1.28175112908625,0.0638508896657303,5.12901521769227,-3.18104898177552,-1.07987087831329,-0.693427558722507,-2.32273166982043,-5.57052845947197,2.19139993869991,344.43682036816,523.740506435039
0.71,1.29511762067527,0.000436546209713506,2.36412562711751,-0.00364927217936436,1.29345598227398,0.0655855462416009,2.36086579693594,0.124161132562667,-1.51979697963816,356.900424866088,523.740506435039
0.72,1.25061645360977,-0.00494453373229742,2.50885348380853,0.258318712239614,-1.13924093476869,0.51594191049059,-2.17379788059509,1.2789359384393,1.14159451326154,369.305147809884,523.740506435039
0.73,1.17862843180065,-0.00865302600105389,4.188533169728,0.454431731742919,0.808779957898988,-0.857388380378895,2.5188207131232,-3.37725636099306,-2.39270146855745,380.737760296389,523.740506435039
0.74,1.13396446671912,-0.0120616235648566,4.40839052557571,0.620506655655205,-0.49576477554435,1.01992067430465,-1.32401894324638,4.25040108385348,0.441814815458991,392.201391577549,523.740506435039
0.75,1.08459365309112,0.040984996948658,4.92358858762177,-2.04241712620661,0.19226608484224,-1.06820265629695,3.04956248139849,-4.3718830004505,-2.92573876809131,403.351940748273,523.740506435039
0.76,1.02284057742346,0.0245876486699529,6.18198981441714,-1.21276589330768,-0.0456996946225901,1.02211493346026,-1.63436578934878,6.0841308043248,0.0687151226818265,413.77430030063,523.740506435039
0.77,1.00936376683948,0.0313578842443631,5.00688034576159,-1.55087337875642,-0.0327704725359507,-1.00931889254211,1.54386465943387,-5.00904591185389,3.14019313885729,423.923585465197,523.740506435039
0.78,0.999333250823825,0.0175718648103329,3.66480304848306,-0.866658297222776,0.0157338282968237,0.999363879316314,-0.873397258435983,3.66320286324308,0.00183923413673034,433.929407115114,523.740506435039
0.79,0.976498033490342,-0.00257907549472641,3.010205126555,0.137006122358807,0.0767014498386912,-0.973484436770078,0.0919057682427399,-3.0119194729052,-3.06560560587904,443.587726040206,523.740506435039
0.8,0.909132570836002,-0.0229055586240675,4.67736550953654,1.16086994023244,-0.219906892758218,0.882432804517253,0.116771169082416,4.81785550032464,0.219040898058645,452.651185945632,523.740506435039
0.81,0.851178854485767,-0.0294535675514857,5.88056235915047,1.49397291963047,0.380357543845552,-0.762037462205758,1.08369806705876,-5.96980462359528,-2.71322887505312,461.392726001923,523.740506435039
0.82,0.825899788140838,-0.0135354181267461,5.47036109334692,0.69306039978578,-0.543179987740044,0.62229347458709,-2.99973288599319,4.62674678603075,0.701233926175411,469.922199559814,523.740506435039
0.83,0.784284590225184,0.026390538811059,5.9099677285088,-1.31138910042367,0.660854072659914,-0.423167429810267,5.7510350743047,-1.89025276057003,-2.10671003821404,478.182593763126,523.740506435039
0.84,0.777754219551827,-0.00855283292566913,4.65218674444425,0.434074875342762,-0.770962561010887,0.102915045067569,-4.54207314897347,1.09582572152732,1.4270954304309,486.064322645702,523.740506435039
0.85,0.761350262292974,0.041860266629208,3.95621721481586,-2.09173920905027,0.738849638077892,0.188434912179292,3.14663266639791,3.18209528962305,-1.26615512768553,493.510559983183,523.740506435039
0.86,0.707502264135962,0.010979739338495,5.15264768402637,-0.536968559364961,-0.497283297228479,-0.503377920384899,-3.17608909612961,-4.09274619820181,2.37780278168317,500.687009223999,523.740506435039
0.87,0.67583544688712,0.0249390283611856,5.26367010265974,-1.23018161722151,0.16493867223018,0.655874028154537,-0.108669071713769,5.40442048640153,-0.209486060060132,507.554513779617,523.740506435039
0.88,0.633979180080174,0.0137675910834101,5.91768672385885,-0.672513090589034,0.230969363503273,-0.590569471325993,2.89540255429345,-5.20460700412047,-2.74707287465239,514.197107677522,523.740506435039
0.89,0.647007615395477,0.0108430232561767,3.85057857349482,-0.5277594408408,-0.554610633554604,0.333381869154933,-3.59728635909019,1.47139941170221,1.04631837749583,520.597470934149,523.740506435039
0.9,0.628039391517662,-0.0119216062662958,3.41480681569288,0.609294428879844,0.616586692400337,0.119985218875724,3.46871876114478,-0.0116381119072342,-1.39758239187024,526.750997660144,523.740506435039
0.91,0.59005344679745,-0.0113173710908976,3.96930659490905,0.575861928590935,-0.350939381899347,-0.474481509858987,-2.87744172509455,-2.79416193587162,2.48558542680568,532.628565376538,523.740506435039
0.92,0.549779288723713,-0.0233757437697106,4.68496934141611,1.1766574198485,-0.0929593327376554,0.542367268705726,0.572572812341228,4.79641749520005,0.127253368065976,538.197642899192,523.740506435039
0.93,0.496603667779396,0.0127232885917999,6.05882256851024,-0.633507880408047,0.396710900104102,-0.298994225133417,5.29851721512369,-3.00605696424169,-2.19103532774098,543.589924070916,523.740506435039
0.94,0.449549360887513,-0.00247991528226663,7.18538826576113,0.125277255091401,-0.435928131109387,-0.10985191105145,-7.00708813056312,-1.59568632597464,1.81213579758735,548.621905890869,523.740506435039
0.95,0.494830696339111,-0.0616530843729547,3.71666688750415,3.08780371367404,0.151117447952299,0.475207362923316,4.35993062053463,2.08306253170027,-0.431846064740795,553.470273228449,523.740506435039
0.96,0.502988276236496,-0.0115288582546443,2.13451735312376,0.577765308340955,0.251515284259871,-0.435740957895507,0.517550247168969,-2.14991135258273,-2.64101365842783,558.093517598225,523.740506435039
0.97,0.392729537248097,0.0132777825544642,6.50264907126574,-0.666895441927362,-0.389185447144461,0.0542906683292254,-6.53673496210419,0.0170443451446304,1.46598867620255,562.482487579762,523.740506435039
