t,iq,id,vq,vd,ia,ib,va,vb,theta_e,omega,r
0,0,0,0,0,0,0,0,0,0,0,0
0.01,0.000563242572847738,0.000318741734209242,-0.0274969889233421,-0.0159472954654041,-0.000161095863263823,-0.00062680667819842,0.00823783290271755,0.0307007938265153,-2.87818620997349,-0.0019857850532393,0
0.02,0.000673688984000997,0.000379322945080453,-0.0329518120240304,-0.0189782939901063,-0.000190842284480338,-0.000749214232568449,0.00974458840788684,0.0367565035769565,-2.87820193552621,-0.00227233011198225,0
0.03,0.000715454917827211,0.00040255131219932,-0.0350111292379137,-0.0201404446366724,-0.000202408763564118,-0.000795584056419547,0.0103311522297463,0.0390472018751993,-2.87821852566767,-0.00230136784144426,0
0.04,0.000701665552687952,0.000395049341474701,-0.0343726470657515,-0.0197651190630053,-0.000198767676390916,-0.000780314001444701,0.0101355942154878,0.0383328648522447,-2.87823425375868,-0.00213374713135399,0
0.05,0.000718419469613653,0.000404975225212459,-0.0352153577522595,-0.0202617220826635,-0.000204001998814101,-0.000799071118133859,0.0103962927450627,0.0392756400397711,-2.87824943234356,-0.00208187246881808,0
0.06,0.000720399494423968,0.000406505967656763,-0.0353398713562604,-0.0203383098307821,-0.000204976215969712,-0.000801378365189383,0.0104384018501732,0.0394156456380486,-2.87826399109431,-0.00198061098010795,0
0.07,0.000732634600855175,0.000414034555715454,-0.0359602028175048,-0.0207149895555306,-0.00020907163810438,-0.000815148527470342,0.0106411735329353,0.0401124968657372,-2.87827760943182,-0.00192384615014327,0
0.08,0.000721329680553158,0.000407900709390709,-0.0354373476857671,-0.020408088029544,-0.000206102286495236,-0.000802634003933175,0.0104814623600531,0.0395276436790552,-2.87829081609031,-0.00178409692990666,0
0.09,0.000718844027023436,0.000406951034412176,-0.0353408381435812,-0.020360584787027,-0.00020584216897964,-0.000799984300512309,0.0104612020146962,0.039421967302105,-2.87830317466554,-0.00168290852303691,0
0.1,0.000717834274626613,0.000406802296480195,-0.0353145926671554,-0.0203531310188709,-0.000205970670096322,-0.000798968232979477,0.0104612951081257,0.0393945643735165,-2.87831483617478,-0.00159230902040462,0
0.11,0.000717098490660791,0.000406777393226962,-0.0353003882168677,-0.0203518838362836,-0.000206146906860691,-0.000798249049946366,0.0104642215243435,0.0393804094930032,-2.87832585586621,-0.00150749460847956,0
0.12,0.000716438648964201,0.000406771723904772,-0.0352886886528526,-0.0203516083012499,-0.000206321455297466,-0.000797608318776858,0.0104674101923132,0.039368932309009,-2.87833627167026,-0.0014274585925508,0
0.13,0.000745178940326359,0.000423440270722877,-0.0367033018082279,-0.0211855749007888,-0.000214945197868422,-0.000829693845878758,0.0109049420118895,0.0409517177566476,-2.87834644399696,-0.00145671059478694,0
0.14,0.000762905181483105,0.000434010103792392,-0.0376491340748627,-0.0217144066951392,-0.0002205465442067,-0.000849557713146161,0.0111698449805439,0.0420024679967679,-2.87835621040139,-0.00144872536908657,0
0.15,0.000722398478012004,0.000410973337925409,-0.0356350071381892,-0.0205618280354851,-0.000208850950583896,-0.000804450076735539,0.0105814296431523,0.0397577143785539,-2.8783655334077,-0.00123117094837706,0
0.16,0.000715355561084074,0.00040741330198469,-0.0353094684747585,-0.0203836986466193,-0.000207252732596955,-0.00079672170940616,0.010494468753918,0.0393969524209576,-2.87837386968777,-0.00114329831754279,0
0.17,0.00071380163684769,0.000406862002055725,-0.0352492688688525,-0.0203561306978025,-0.000207130939324363,-0.000795076247574936,0.0104838205066006,0.0393315715470416,-2.87838167175066,-0.00107947332868263,0
0.18,0.00071316662532712,0.000406775549560719,-0.0352328050996367,-0.0203517975388496,-0.000207218531852787,-0.000794439087191506,0.0104842096053729,0.0393144702012111,-2.87838903393326,-0.00102228491124591,0
0.19,0.000712702438118853,0.000406760974468056,-0.0352238392261744,-0.0203510749006437,-0.000207330752470288,-0.000793985651464095,0.0104861180011615,0.0393055521359096,-2.87839599095127,-0.000968740856517874,0
0.2,0.000712285981883469,0.000406757569092705,-0.0352164446504267,-0.0203509065593843,-0.000207441031555665,-0.000793581286592007,0.0104881377093097,0.0392982994415269,-2.87840256672435,-0.000918212237722297,0
0.21,0.000711895952032238,0.000406755952034837,-0.0352096286362491,-0.020350822598429,-0.00020754587147315,-0.000793202976715357,0.0104900741327814,0.0392916310914176,-2.87840878240977,-0.000870463819241281,0
0.22,0.000711527866485924,0.000406754670695323,-0.035203212239643,-0.0203507531846378,-0.000207645052215396,-0.000792846012293016,0.0104919071896599,0.0392853559318859,-2.87841465776917,-0.000825331925492825,0
0.23,0.000711179959520167,0.000406753497456949,-0.0351971462218919,-0.0203507021777673,-0.000207738828859229,-0.000792508625505592,0.0104936541614983,0.0392794272314693,-2.87842021144348,-0.000782671427158774,0
0.24,0.000710851338767459,0.000406752394104285,-0.0351914220498995,-0.0203506356575749,-0.00020782741124978,-0.000792189941283194,0.0104952852189058,0.0392738277448905,-2.87842546104675,-0.000742346706507289,0
0.25,0.00071054051007822,0.000406751351844819,-0.0351859991873793,-0.0203505846170076,-0.000207911193345752,-0.000791888511326784,0.0104968414967083,0.0392685262221697,-2.87843042322691,-0.000704229826765265,0
0.26,0.000716021366145319,0.000410060483687456,-0.0354609636323003,-0.0205161452867205,-0.000209684315212374,-0.000798040528427295,0.0105853568345313,0.0395770435965446,-2.87843503425993,-0.00068990142855807,0
0.27,0.000701662062769932,0.000401881299577785,-0.0347731291628991,-0.0201069231929568,-0.000205525637117732,-0.000782046956242549,0.0103693297972363,0.0388063895721217,-2.87843967343361,-0.000602836602192109,0
0.28,0.000701061496116028,0.000401700458254688,-0.0346880729728563,-0.0200978855323761,-0.000205510519981286,-0.000781419161318361,0.0103828909227227,0.0387218670201934,-2.87844386514428,-0.000569402712926123,0
0.29,0.000708046695736214,0.00040596791789112,-0.0350986252287316,-0.0203113846308811,-0.000207817109469558,-0.000789273161023191,0.0104823975726654,0.0391737817895991,-2.87844771663553,-0.000566233722178032,0
0.3,0.00069944122821024,0.000401374596137509,-0.0346870812390859,-0.0200815705561411,-0.000205622782237178,-0.000779768471772128,0.0103676656088845,0.0387165932219064,-2.87845084040803,-0.000511495939934011,0
0.31,0.000707441350108037,0.000405916423573458,-0.0350820480164454,-0.0203088098399046,-0.00020793003823883,-0.000788673890760527,0.0104844810780259,0.0391570364898329,-2.87845429587514,-0.000514988815861088,0
0.32,0.000708572712968286,0.00040661742731116,-0.0351434919155412,-0.020343884371845,-0.000208315288699768,-0.000789947949076593,0.0105024979497936,0.0392254533710866,-2.87845766017404,-0.000494052066593255,0
0.33,0.000708591736679825,0.000406725152052643,-0.0351506245637758,-0.020349274959141,-0.000208416882149654,-0.000789993672024145,0.0105059731191755,0.0392337090702039,-2.87846085628428,-0.000470302562408682,0
0.34,0.000708438167023531,0.00040674126072064,-0.0351490442163367,-0.0203500785561622,-0.000208474769015101,-0.000789848947807349,0.0105072787423185,0.03923236036737,-2.87846388001817,-0.000447206705019891,0
0.35,0.00070826484430175,0.000406743246057475,-0.0351461822577299,-0.0203501905365186,-0.000208524025152267,-0.00078968151100393,0.010508243414228,0.0392295960024254,-2.87846673862594,-0.000425269749855566,0
0.36,0.000708096604934501,0.000406743077177658,-0.0351432614240068,-0.020350177949175,-0.000208569754578611,-0.000789518454646081,0.0105090969665684,0.0392267440278496,-2.87846944079103,-0.00040451661889163,0
0.37,0.000707936863852565,0.000406742601512591,-0.0351404638873043,-0.0203501464247472,-0.000208612859762631,-0.000789363554915156,0.0105098943466816,0.0392240077318111,-2.87847199502035,-0.000384896931007909,0
0.38,0.000707785601614267,0.000406742103026779,-0.0351378041876641,-0.0203501302969987,-0.000208653626468339,-0.000789216865246003,0.0105106652443242,0.0392214099996061,-2.87847440940403,-0.000366350986475986,0
0.39,0.000707642798958135,0.00040674162424545,-0.0351352969437473,-0.020350097268156,-0.000208692106928507,-0.000789078376536115,0.0105113749734121,0.0392189564664466,-2.87847669159728,-0.000348820381556783,0
0.4,0.000707507602031115,0.000406741170469874,-0.035132914224998,-0.0203500796308172,-0.000208728534160203,-0.000788947264216281,0.0105120622653848,0.0392166284865278,-2.87847884883765,-0.000332249587980192,0
0.41,0.000707379855687117,0.000406740741320354,-0.0351306622614804,-0.0203500634214179,-0.000208762953641269,-0.000788823376979113,0.0105127122868171,0.0392144283722272,-2.87848088796614,-0.000316586065092762,0
0.42,0.000707259094259604,0.000406740335605252,-0.0351285310055705,-0.020350045731177,-0.000208795490522218,-0.00078870626354732,0.0105133250974005,0.0392123455976137,-2.87848281544967,-0.000301780140314239,0
0.43,0.000707145104393915,0.000406739952068302,-0.0351265223416835,-0.0203500126121862,-0.000208826203978543,-0.000788595716326634,0.0105138869801685,0.0392103782907685,-2.87848463740083,-0.000287784859298018,0
0.44,0.000707037265069245,0.000406739589502258,-0.0351246169967324,-0.020349996331691,-0.000208855258987015,-0.000788491134166092,0.0105144343323064,0.0392085161736401,-2.87848635959758,-0.000274555838280743,0
0.45,0.00070693530471545,0.000406739246762299,-0.0351228126001661,-0.0203499785738018,-0.000208882729440386,-0.000788392253419212,0.010514950300006,0.0392067521364494,-2.87848798750206,-0.000262051123528557,0
0.46,0.000706838932299614,0.000406738922765739,-0.0351211051706703,-0.0203499622499884,-0.000208908694109516,-0.000788298791723385,0.0105154389333525,0.0392050830380982,-2.87848952627634,-0.000250231058324323,0
0.47,0.000706747856780745,0.000406738616488794,-0.0351194901116,-0.0203499459058433,-0.000208933231595616,-0.000788210466780547,0.0105159002156804,0.0392035040107816,-2.87849098080093,-0.000239058157210009,0
0.48,0.000706661593024922,0.000406738326963451,-0.035117952665695,-0.0203499449353907,-0.00020895647081517,-0.000788126808947657,0.0105163530308818,0.0392020047603856,-2.87849235568817,-0.000228496987102926,0
0.49,0.00070658023818522,0.000406738053274218,-0.035116506529719,-0.0203499285518541,-0.000208978389092536,-0.00078804791089595,0.0105167642610334,0.0392005904597777,-2.87849365529843,-0.000218514054926401,0
0.5,0.000706503365335235,0.000406737794555578,-0.035115138877271,-0.020349912150993,-0.000208999099908147,-0.000787973359313329,0.0105171522701284,0.039199252684842,-2.87849488375347,-0.000209077701394237,0
0.51,2.93956237868915,0.00383428454969076,3.04931052344253,-0.189499121950513,-0.170050930877746,2.93464211801886,-0.369537547081048,3.0327622041457,0.0591857002373861,18.1845313802922,462.849437286026
0.52,2.86342122295745,0.00881439148356342,1.91013809366874,-0.436089414296843,-0.743204055775368,2.76530405652966,-0.922246180421883,1.72865945080096,0.265634307315453,38.032766226044,462.849437286026
0.53,2.76043275792097,-0.0173847861454181,2.21191517252269,0.877426607980153,-1.60812636203777,2.24370694287638,-0.56083512651744,2.3125548952818,0.615566681544917,57.3785529751416,462.849437286026
0.54,2.64793581405143,-0.0233031890130874,2.94247099775614,1.17605799245946,-2.37857270935519,1.16382944638169,-2.10539953999553,2.36823578877831,1.1069471126186,76.7141582897061,462.849437286026
0.55,2.57863167393086,0.0185240778221867,1.27105658527967,-0.915885352460951,-2.54423111303739,-0.420205300669982,-1.09681404662491,-1.11867321813013,1.74166229699925,96.5836327854064,462.849437286026
0.56,2.43933608561202,0.0156095546999482,3.18379469366834,-0.77047289945118,-1.43073819232125,-1.97575110320106,-1.22389240604919,-3.03846417103024,2.52124150119653,115.689450272703,462.849437286026
0.57,2.36831552549054,0.00505414387592573,2.38771544446318,-0.239464006322832,0.673174165968149,-2.27063438600822,0.913011714044851,-2.21922005760336,-2.85124379373984,132.512390437636,462.849437286026
0.58,2.30901151286621,0.0124623689381811,1.2405119589316,-0.606695346678874,2.23408479903415,-0.583570550930058,1.35207607297386,0.280783647717757,-1.8209024164702,148.638105718663,462.849437286026
0.59,2.19551801816654,-0.0261275939760178,2.44714589205077,1.32035139849903,1.34191966122529,1.73788194135215,2.55393915451312,1.0996570499679,-0.66943200708944,165.676849119903,462.849437286026
0.6,2.08157730977446,-0.0134420913226511,4.07393232044178,0.688280843312055,-1.19108346265031,1.70718041559408,-1.74243640225365,3.74627420978655,0.602716687424172,181.026192941343,462.849437286026
0.61,2.01328589269337,-0.0253366912657935,3.74646116399077,1.28763819462498,-1.83504908566253,-0.828587283785819,-3.94873471973115,-0.318555311897169,1.98234121857842,195.498907878622,462.849437286026
0.62,1.97191576978183,0.0226530762374503,1.76957364543426,-1.11851044272817,0.617845576613674,-1.87276047812746,1.63177988119256,-1.31139273920616,-2.81143738508497,210.598557865304,462.849437286026
0.63,1.91184987772773,0.0268455132891581,1.28928875834821,-1.32242634731007,1.80388252851734,0.633954619717505,0.754300608871491,1.6858551355081,-1.2187994287347,223.838624679499,462.849437286026
0.64,1.81724643614011,-0.0103357681073968,2.29245397048689,0.531861748327872,-0.836820535654755,1.61314067237572,-0.570537246773356,2.28313586459058,0.472849171329091,237.759633926984,462.849437286026
0.65,1.72863592074893,0.0357842528192667,3.41213812253279,-1.7694216735224,-1.35517120558981,-1.07376611177369,-1.50262447444265,-3.53774777433021,2.26155138275379,250.114971936738,462.849437286026
0.66,1.63564735434448,0.0175969512402164,4.60467485949677,-0.866106303368366,1.36719395512317,-0.898015929447649,4.34334819524145,-1.75741205905413,-2.14120097508914,262.892387237275,462.849437286026
0.67,1.59386004601225,-0.000868414711103438,3.65040888435075,0.0657883832702511,0.272348007194797,1.57041942276428,0.690531330444001,3.58510524475857,-0.172260685181139,274.255188658112,462.849437286026
0.68,1.5226979910488,0.0436645455183722,3.99902503373398,-2.16867694330316,-1.46294451644237,-0.424628197710147,-3.14301480752148,-3.28889325222734,1.88195764998755,285.938479193943,462.849437286026
0.69,1.4812242968201,0.056123289794594,3.16932221215006,-2.78932284080289,1.10123665788567,-0.992196081667511,4.22050575384042,0.110708520233854,-2.26628286291131,296.758593092808,462.849437286026
0.7,1.44827415415138,0.0332349968952586,1.91763377575669,-1.64238385657151,0.107784641058069,1.44464011496065,-1.54143570571187,1.99967997324725,-0.051528072736852,307.174642370234,462.849437286026
0.71,1.36617072532592,0.0167135985198681,3.1524817624046,-0.822516974519935,-1.08341024293713,-0.832420591174878,-1.9670621679868,-2.59717959774486,2.23816140848936,317.548965924611,462.849437286026
0.72,1.30988756578358,-0.0167781645351643,3.35389493205062,0.862030481205625,1.30355127198845,-0.129772967512109,3.23649295817838,-1.23159291059352,-1.68283094444539,327.058547663277,462.849437286026
0.73,1.24958964729419,0.0309436710309025,3.74171843873628,-1.52857471531241,-0.828996834270337,0.935519131910966,-3.66870433218141,1.69635080632069,0.749860214624041,336.348567298024,462.849437286026
0.74,1.20491148448666,-0.0221473849567709,3.42657842052343,1.12177466074717,0.150792617293416,-1.19564366710073,-0.74914244383039,-3.5268404642602,-3.03451551066974,345.409112645639,462.849437286026
0.75,1.16287021376713,0.00379628544058337,3.14172015801987,-0.178958893734657,0.532014678126131,1.03404155047479,1.26880730110847,2.87968051519764,-0.471915864739452,353.955607801441,462.849437286026
0.76,1.1432916151363,-0.00331295639534912,1.81519027136581,0.187832480886207,-0.953266940290697,-0.631196350963675,-1.61962677101554,-0.840836419731406,2.15276093698316,362.020093978339,462.849437286026
0.77,1.05531557234051,0.028863755041057,3.91721032563183,-1.42701113032396,1.05076351573383,0.102078928198425,3.71028069253192,1.90124030146901,-1.44660882435135,369.976351474808,462.849437286026
0.78,1.02616325728221,0.023674122920053,3.17054775768199,-1.17261796527836,-0.980478419443157,0.303699792061698,-3.37044451888528,-0.259826329212505,1.29348834795989,377.616076480982,462.849437286026
0.79,1.00202680383132,-0.000349660869796736,2.28571916591166,0.0264915028606672,0.812948556256931,-0.585809254569186,1.83845196016071,-1.35842125105615,-2.19556217943736,384.892887013713,462.849437286026
0.8,0.947458989848342,0.0271370563839468,3.02364933226397,-1.3376237724887,-0.552421813247701,0.770224056701521,-2.89604963227062,1.59517684557307,0.650825338345416,391.724974763638,462.849437286026
0.81,0.862440649530639,0.0410081527851161,5.32289379259476,-2.03306764444759,0.302495580619516,-0.808691514895105,3.96778093319405,-4.08941032917036,-2.73613704704938,398.297559537459,462.849437286026
0.82,0.828156589735098,-0.019758150442992,5.13257276707854,1.00422642458208,-0.190083480826924,0.80628902506937,-0.0755875718645618,5.22934608150625,0.207670117739353,404.691244684579,462.849437286026
0.83,0.85574094142164,0.0250687853148434,1.9053762162608,-1.24189989370911,0.0224344507338654,-0.855814055880497,1.34567193282372,-1.83355963107217,-3.08609803685099,410.874592982949,462.849437286026
0.84,0.767190555392977,-0.0183979403802638,4.56587887134371,0.928259254330089,0.0220903425212643,0.767093116421803,1.16777799037326,4.51056644738021,-0.052765846546028,416.744443057587,462.849437286026
0.85,0.758080787816525,-0.00378348040509041,3.32746228414886,0.194882998177632,-0.0864500158855214,-0.753144866764617,-0.589444433081487,-3.28063102096549,3.02231663012511,422.356359071213,462.849437286026
0.86,0.668499459913981,-0.0488985604747269,6.18378479270436,2.45034096444458,0.0485910835826896,0.66852187976015,3.32144237300419,5.76293204604472,-0.145573472283375,427.676048405721,462.849437286026
0.87,0.670793831888762,0.0331793803739646,4.51530741976096,-1.64647958685697,-0.122258650372573,-0.660392352008324,1.03019011087648,-4.69442269723737,3.00795745802212,432.717824030735,462.849437286026
0.88,0.696493352298136,0.0131868455364637,1.703159874072,-0.641861480852664,0.0723444531300403,0.692851472389294,-0.494761377117565,1.7515567067509,-0.0851075905663006,437.590224143654,462.849437286026
0.89,0.628560050516333,-0.0203920316008223,3.61684269957823,1.03674533294571,0.0195340791082718,-0.628587298480725,-1.04168106420051,-3.61542425717413,3.14022773425868,442.276494438443,462.849437286026
0.9,0.62731531725871,-0.0209232079475453,2.25142656321119,1.06233354912198,-0.093377612658874,0.620679393368542,0.794653819068808,2.35923704764113,0.11598312712952,446.758085258725,462.849437286026
0.91,0.560557841653648,-0.0163959434815049,4.20835110303327,0.83328014564005,0.162878191579293,-0.536623346035098,0.299922013836209,-4.27955857456533,-2.87614675567088,451.05306190399,462.849437286026
0.92,0.553542091681557,-0.0141458206796883,3.23165585256244,0.719201742524479,-0.251282991969712,0.493422546558874,-0.743490331779253,3.22615449450303,0.445482828828518,455.148533946916,462.849437286026
0.93,0.52744223991503,0.000800653457828676,3.25139117158842,-0.0304153319961822,0.320591986167943,-0.418827811752559,2.00431172200868,-2.56031329413456,-2.48675830025774,459.060792141828,462.849437286026
0.94,0.494825145723712,-0.0158498140836983,3.65218110039763,0.800973070479949,-0.395100312550831,0.298326808163826,-2.33982088053876,2.91637152926896,0.892040668095203,462.766774120806,462.849437286026
0.95,0.463762195011446,0.0132283653747124,4.01946278124091,-0.655525752929432,0.41906600756689,-0.199083009004456,3.94259376816663,-1.02066127669676,-1.98578026442973,466.308617323984,462.849437286026
0.96,0.466708361015041,-0.00871957893027753,2.73565640025674,0.441989636675312,-0.464103030458137,0.0500110229613545,-2.65840630050601,0.782334148956807,1.4447711187548,469.663701769084,462.849437286026
0.97,0.428057634239587,-0.00715572029588131,3.56311818788302,0.362388346207069,0.41926925953761,0.0865900142656705,3.56838862438965,0.306168515063261,-1.3838488533907,472.87281886667,462.849437286026
