t,iq,id,vq,vd,ia,ib,va,vb,theta_e,omega,r
0,0,0,0,0,0,0,0,0,0,0,0
0.01,0.000566101960561826,0.000323162400766807,-0.0276253404673089,-0.0161710826650344,0.000615022186693546,-0.000215993233449567,-0.0300847861393174,0.0109347607859361,-1.38982210767915,-0.00129521269349843,0
0.02,0.000653445048873789,0.000372290321130605,-0.0319528543097264,-0.0186294369415395,0.000709778783958915,-0.000248605295492677,-0.0347839738149968,0.0125744178765865,-1.38983220086404,-0.00145594692550964,0
0.03,0.000687081912355714,0.000391347131832871,-0.0336039128081115,-0.019583051298601,0.000746293404964548,-0.000261304966632134,-0.0365795605536608,0.0132156953611931,-1.38984284399871,-0.00148871174171195,0
0.04,0.000672007223495138,0.0003828612846716,-0.032892732949813,-0.0191584079193782,0.000729935056888864,-0.000255678087552851,-0.0358034382981974,0.012926340585803,-1.38985306497712,-0.00140937927001471,0
0.05,0.000688669700384828,0.000392482157056203,-0.0337198931312491,-0.019639840846745,0.000748054205390873,-0.000262150921479687,-0.0367035980242959,0.0132514313694498,-1.38986317942027,-0.00140472739966588,0
0.06,0.000690290004415367,0.000393516699198019,-0.0338174474860086,-0.0196916110457484,0.000749831618060185,-0.000262884437159595,-0.0368087441866892,0.0132851665945469,-1.3898730895757,-0.00136577877150278,0
0.07,0.000704761782304765,0.000401985541931157,-0.0345372152953328,-0.0201153907098631,0.000765588500546246,-0.000268618304570679,-0.0375928889789221,0.0135728730188216,-1.38988258993622,-0.00135865183008618,0
0.08,0.000691636587343558,0.000394536984229665,-0.0339189787612535,-0.0197426608847156,0.000751334824053701,-0.000263659976184245,-0.0369175522215923,0.0133178120192939,-1.38989200024671,-0.00128737443248049,0
0.09,0.000689966424943875,0.00039373306041607,-0.033855320264473,-0.0197024427588378,0.00074954489965037,-0.000263176430978446,-0.036847576575428,0.0132900361697508,-1.38990102621391,-0.00124454392956729,0
0.1,0.000689576685564689,0.000393644911441492,-0.0338531686560885,-0.0196980216994304,0.000749143362943494,-0.000263166379569797,-0.0368445486727896,0.0132863960511209,-1.38990975763618,-0.00120597756559137,0
0.11,0.000689335597185359,0.000393633910746719,-0.0338576921790432,-0.0196974743236395,0.000748902003654016,-0.000263205262408737,-0.0368487875949161,0.0132853553661931,-1.38991821244388,-0.00116895203358882,0
0.12,0.000689117326433211,0.000393631267359705,-0.033862809280474,-0.0196973431156057,0.000748684662801061,-0.000263248057770851,-0.0368536888414635,0.0132846075198421,-1.38992640032599,-0.00113313090330885,0
0.13,0.000719121545937619,0.000410902321205127,-0.0353329828634194,-0.0205615887342375,0.000781304009016107,-0.000274846431482803,-0.0384552323434714,0.0138706061407656,-1.38993455710112,-0.0011681229029487,0
0.14,0.00074026162562321,0.000423243244307375,-0.0364503846738023,-0.0211791280634098,0.000804316870977095,-0.000283189846717296,-0.0396653758932225,0.014277393447119,-1.38994252156039,-0.00118321438977461,0
0.15,0.00069421926282242,0.000396816364875989,-0.0341559443519482,-0.0198567214684488,0.000754269984061906,-0.000265481455944384,-0.0371703921132375,0.013389543390165,-1.38995029228617,-0.00104202698299121,0
0.16,0.000688932666640498,0.000393968521180867,-0.0339134903446367,-0.0197142232069247,0.00074855548187289,-0.000263636312756556,-0.0369061661692026,0.0132932434980865,-1.38995750672725,-0.000998551006741534,0
0.17,0.000688182351886884,0.000393660527917211,-0.0338904421384602,-0.0196988156097271,0.000747760176611208,-0.000263473488159616,-0.0368806303346085,0.0132824888815427,-1.38996445892141,-0.000966814833268409,0
0.18,0.000687941786173634,0.00039362615304482,-0.0338916773048456,-0.0196970812595427,0.00074751557822719,-0.000263487969046604,-0.0368814440763715,0.0132808088429242,-1.38997118788284,-0.0009372328046517,0
0.19,0.000687762617573773,0.000393621288639068,-0.0338954799228689,-0.0196968386470969,0.00074733673890434,-0.00026352027566325,-0.0368850545283285,0.0132801266685831,-1.3899777040729,-0.000908712434187192,0
0.2,0.000687594902788519,0.000393619639482828,-0.0338994426067576,-0.0196967710350573,0.000747169798686782,-0.000263553529397158,-0.0368888566485704,0.0132795803178243,-1.38998401458633,-0.000881106318545534,0
0.21,0.000687433429474629,0.00039361837204669,-0.0339033259747742,-0.0196967045028633,0.000747009118942437,-0.000263585885412668,-0.0368925835928549,0.0132790419936503,-1.38999012595534,-0.000854372943841958,0
0.22,0.000687277136641522,0.000393617180008144,-0.0339070900974925,-0.0196966394427196,0.00074685359926782,-0.00026361723807148,-0.0368961960690077,0.0132785194902637,-1.38999604446945,-0.000828483361462221,0
0.23,0.000687125603599015,0.000393616029296782,-0.0339107260129386,-0.0196965907812339,0.000746702818132047,-0.000263647634228594,-0.0368996878635749,0.0132780293228596,-1.39000177621487,-0.000803410787626963,0
0.24,0.00068697908964861,0.000393614915200975,-0.0339142583498978,-0.0196965257489372,0.000746557028240394,-0.000263677027190415,-0.0369030772326019,0.0132775350410675,-1.39000732708536,-0.000779129422877497,0
0.25,0.000686836986243927,0.000393613836204714,-0.0339176677997396,-0.0196964771066937,0.000746415629216495,-0.000263705529304518,-0.036906350996453,0.0132770725506271,-1.39001270278886,-0.000755614297366101,0
0.26,0.000692995611186572,0.000397222357133102,-0.0342261078250352,-0.0198770497486041,0.000753121328340981,-0.000266151804292484,-0.037242162323413,0.0133994368924957,-1.39001786198081,-0.000747767864605974,0
0.27,0.000676120269377086,0.000387557973031879,-0.0334179323115262,-0.0193934300107568,0.000734782031919768,-0.000259682819398932,-0.0363601366261422,0.0130691924803388,-1.39002303318945,-0.000686001252667144,0
0.28,0.000675643683008647,0.00038734894332476,-0.0333302498692111,-0.0193829708132195,0.000734274362334346,-0.000259566467600857,-0.0362719386544405,0.0130748453198754,-1.39002791711606,-0.000663824387273041,0
0.29,0.000685112292612135,0.000392935353953347,-0.0338721110313154,-0.0196625290123979,0.000744591819213679,-0.000263362997846625,-0.0368551694957535,0.013252601039812,-1.39003256983117,-0.000665903404918046,0
0.3,0.000678353015223123,0.000389215438434103,-0.0335524346474777,-0.0194763779993941,0.000737272813859062,-0.000260921959064572,-0.0365071805027803,0.0131271071636505,-1.39003674426061,-0.00063209335869842,0
0.31,0.000685213199153229,0.000393134873631757,-0.033893415847359,-0.0196725027664298,0.000744724693291157,-0.000263547506840138,-0.036877806667972,0.013258898078531,-1.39004113839075,-0.000629186800671941,0
0.32,0.000685875016606986,0.000393556286419615,-0.0339337375302524,-0.0196936012439973,0.00074545035171579,-0.000263846285008595,-0.0369212072558168,0.0132725629590766,-1.3900454412003,-0.000612178691246342,0
0.33,0.000685851136016988,0.000393600933979702,-0.0339405677308787,-0.0196958280663188,0.000745433785328851,-0.000263897608355564,-0.0369282711162283,0.0132736797263868,-1.3900496134906,-0.000594129348797358,0
0.34,0.00068575383960557,0.000393605021732675,-0.0339435868016766,-0.0196960402346608,0.00074533774217411,-0.000263922131996848,-0.0369312255051228,0.0132734949647068,-1.39005365470261,-0.00057647415298537,0
0.35,0.000685651608472099,0.000393604763305224,-0.0339461222779585,-0.0196960178240733,0.000745236096881869,-0.00026394317153739,-0.0369336637035834,0.0132731616906798,-1.39005756845237,-0.000559356592721608,0
0.36,0.000685551517758936,0.000393604058733828,-0.0339485240244622,-0.0196959884835722,0.000745136509396609,-0.000263963294640678,-0.0369359707471454,0.0132728410956553,-1.39006135870437,-0.000542777037355711,0
0.37,0.00068545451204703,0.000393603327419316,-0.0339508457766407,-0.0196959562312079,0.000745039983291044,-0.000263982747047738,-0.0369382001663318,0.0132725276146972,-1.39006502934936,-0.000526720436520189,0
0.38,0.000685360720984605,0.000393602613867544,-0.0339531011639237,-0.0196959076366331,0.000744946653118637,-0.000264001552115212,-0.0369403629042203,0.0132722057241035,-1.39006858416121,-0.000511170501780197,0
0.39,0.000685269768867889,0.000393601922223378,-0.0339552785944272,-0.0196958753819646,0.00074485614908696,-0.000264019784238857,-0.0369424533834923,0.0132719097908156,-1.39007202679487,-0.000496111268263386,0
0.4,0.000685181668925939,0.000393601252304873,-0.033957385650452,-0.0196958431250607,0.00074476848325342,-0.000264037443557726,-0.0369444760782565,0.0132716225053179,-1.39007536079031,-0.000481527253723709,0
0.41,0.000685096362951095,0.000393600603483332,-0.0339594261836338,-0.0196958108657797,0.000744683597350603,-0.000264054542525265,-0.0369464347316764,0.0132713433005183,-1.39007858957617,-0.000467403462127108,0
0.42,0.00068501379273341,0.000393599975100934,-0.0339614037279255,-0.0196957771486151,0.000744601433131702,-0.000264071093481817,-0.0369483325142959,0.0132710702308475,-1.39008171647204,-0.000453725370403166,0
0.43,0.000684933783654443,0.00039359936651575,-0.0339633158832303,-0.0196957448844567,0.000744521817866694,-0.000264087129624417,-0.0369501675454256,0.0132708067088124,-1.39008474469341,-0.000440478913752286,0
0.44,0.000684856147862071,0.000393598777105074,-0.033965159406614,-0.0196957289458516,0.000744444565836771,-0.00026410268646719,-0.0369519392664103,0.0132705680615671,-1.39008767735424,-0.000427650471209294,0
0.45,0.000684781202848674,0.000393598206265856,-0.0339669559814714,-0.0196956966744596,0.000744369988467798,-0.000264117708643375,-0.0369536630977537,0.0132703183758811,-1.39009051747013,-0.000415226851641262,0
0.46,0.000684708586141094,0.000393597653413438,-0.0339686933159801,-0.0196956644008048,0.000744297728320296,-0.000264132262938756,-0.0369553298439604,0.0132700760325001,-1.3900932679613,-0.000403195280183257,0
0.47,0.000684638297739332,0.000393597117982272,-0.0339703769015034,-0.0196956321244292,0.000744227784552777,-0.000264146350940204,-0.0369569448692176,0.0132698401476676,-1.390095931656,-0.000391543385102277,0
0.48,0.000684570033376853,0.000393596599423809,-0.0339719968799393,-0.0196956147116311,0.000744159857037333,-0.000264160028864604,-0.0369585011111545,0.0132696272176883,-1.39009851129339,-0.000380259185074524,0
0.49,0.000684504052341041,0.00039359609720722,-0.0339735714573742,-0.0196955824287021,0.000744094200049912,-0.000264173251598535,-0.0369600111004395,0.0132694048182465,-1.39010100952592,-0.000369331076868985,0
0.5,0.000684440095347411,0.000393595610818405,-0.0339750927072121,-0.0196955664609118,0.00074403055776248,-0.000264186067176789,-0.0369614726097772,0.0132692051456198,-1.39010342892245,-0.000358747823413694,0
0.51,1.70500016568663,-0.0160495060215477,-0.241520541268335,0.803781306494344,-0.060075764037832,1.70401703460096,0.8097504941982,-0.22068234562392,0.0258278606347905,7.93050282283146,170.155078136843
0.52,1.58063304614596,-0.0138030541895496,1.90612391476312,0.691938029098531,-0.195683251002585,1.56853416161417,0.467892821447234,1.97310996200992,0.115381851486001,16.4383263175445,170.155078136843
0.53,1.53511911787475,-0.017627266516062,0.29786010808707,0.883865032876238,-0.420267316121807,1.47657604260301,0.77457953971812,0.5195811553367,0.265808161288818,24.5359930310159,170.155078136843
0.54,1.45182038683643,-0.0350828435588798,0.76541328310456,1.75795573678259,-0.694156010253346,1.27560208332192,1.21446691960405,1.48368998366477,0.474203192784652,32.2619145222687,170.155078136843
0.55,1.37906740134329,0.0186615921684968,0.826031880128413,-0.931136714568251,-0.914238905840469,1.03263855027673,-1.24462879406021,-0.0156017050882103,0.738189033982163,39.729970320745,170.155078136843
0.56,1.30908299855642,-0.0120402254602239,0.829812362185346,0.605790359800971,-1.14548045214855,0.63381211560222,-0.424197654089583,0.935749361062196,1.05621398225772,47.0080400562153,170.155078136843
0.57,1.24929412083513,0.00644664622026042,0.361044483915177,-0.318973400161254,-1.23551172001709,0.185170595130866,-0.402977277261405,-0.264019816277098,1.42719018063437,54.1889002165778,170.155078136843
0.58,1.15870774612912,0.0388810838009334,1.42407225110877,-1.94314618498345,-1.12432798874265,-0.282846165515923,-0.831617759789291,-2.26101985267639,1.8507942027455,61.3489401134311,170.155078136843
0.59,1.13242901773455,-0.00511122892709337,-0.489331623259707,0.258112657981586,-0.82164647679975,-0.779306532778304,0.1797754781044,0.523209670404355,2.32524046226442,67.9754527184999,170.155078136843
0.6,1.06360207080654,0.0218143619475525,0.0803121627208171,-1.08909224547103,-0.331173680021765,-1.01096450237977,1.01827882964685,-0.394563287343193,2.84553429808848,73.8781242255689,170.155078136843
0.61,0.971727285610313,0.0586741287270672,2.06593178362302,-2.93324196561653,0.198313113512491,-0.953083668934921,3.37249510100366,-1.22403405064729,-2.87613658416761,79.2634836731147,170.155078136843
0.62,0.951765877620296,-0.0243394258070238,0.642696331877064,1.2219823835189,0.740208960313667,-0.598783256715072,-0.303390589647783,-1.34694234128709,-2.27653097953404,84.3012195741482,170.155078136843
0.63,0.922985839844109,-0.021580504259465,-0.290005898088577,1.08462755675746,0.922249967655307,-0.0427033473701205,-0.364783154407243,-1.06181618374581,-1.64044364651868,89.2455912826222,170.155078136843
0.64,0.868952423214223,0.00358482402303891,-0.016740802757302,-0.175826631091577,0.717786116414092,0.489769594662962,-0.113488384704672,0.135335306609534,-0.967900225840911,94.2814242518427,170.155078136843
0.65,0.760361724380921,-0.0470270241554168,3.06414049475809,2.35522492828019,0.149122753791247,0.747076901802055,3.06094042839163,2.35938236160366,-0.258788447655367,99.0708324331797,170.155078136843
0.66,0.752800117958155,-0.0476871889923499,1.37734993104614,2.38918959036302,-0.392023850581803,0.644437263173709,1.47559755963988,2.32979217382938,0.483252556034951,103.295618919815,170.155078136843
0.67,0.713423228416731,-0.0282347303454384,1.47249339833162,1.41695963385803,-0.686881981572492,0.194841079429563,-0.959320625918318,1.80436009399481,1.25484099110881,107.178595879467,170.155078136843
0.68,0.714284815778143,0.00283297644386027,-0.405626997312367,-0.136834831190158,-0.633667635134856,-0.32966066187725,0.422731309841096,0.0674927526147601,2.05447242120876,110.999057621734,170.155078136843
0.69,0.657485508561992,-0.00267982781969223,0.537602274900276,0.135693245767237,-0.165923515605714,-0.636210470218154,-0.268948410015859,-0.484866595750564,2.88239980338854,114.894225263369,170.155078136843
0.7,0.590155133841699,0.0124825508262918,2.17215128622128,-0.622892639181983,0.321085664509609,-0.495320999071579,1.73521654434421,-1.44750129340668,-2.54530926976952,118.430709626408,170.155078136843
0.71,0.584632063252599,0.0227972829448966,0.911125899503109,-1.13752743780528,0.579857934688938,-0.0779688467975508,1.01459148100391,1.04629020982684,-1.66548213463283,121.580857016416,170.155078136843
0.72,0.530633800274438,0.0148312996088066,2.13248176755192,-0.737883591360711,0.377455710216226,0.373255119545523,0.940529743939413,2.05118367878306,-0.763050704251255,124.635184734086,170.155078136843
0.73,0.51616602832218,0.024352053282153,1.32846785304847,-1.21787579424796,-0.0592708868472397,0.51332967308085,-1.41631100682935,1.11450052433022,0.162098305770227,127.783405412156,170.155078136843
0.74,0.475205376040342,-0.0155540207988602,1.99493065649752,0.779791599616129,-0.432413679156609,0.197687852583055,-1.43896182945285,1.58657244286015,1.10927390545994,130.573238410421,170.155078136843
0.75,0.445625768866871,-0.0261807264575885,2.23319919458155,1.31343643527523,-0.37732209598319,-0.238528388664514,-2.5898926557955,0.0689198349150824,2.07584568059294,133.117129712771,170.155078136843
0.76,0.449158973482604,-0.0260073316796431,0.837823324854142,1.3059193613355,-0.0103128835565363,-0.449793073750353,-1.36925332027236,-0.729738752502347,3.06083090045746,135.635529946905,170.155078136843
0.77,0.405988546378456,-0.0181854720889751,1.74751511810509,0.910417202469555,0.33468712026316,-0.230525362412781,0.843904881564781,-1.78058785838539,-2.21871460030319,138.1816249806,170.155078136843
0.78,0.369819582101909,0.00396273704130026,2.45636400117025,-0.196547211439663,0.345789431865503,0.131194113438912,2.21546791974817,1.07891464404582,-1.19745474607461,140.400489676377,170.155078136843
0.79,0.361229571670821,0.0385496732021011,1.87705663396561,-1.9254353968603,0.0958356525614854,0.350411769853108,-1.60038803708121,2.16087972950006,-0.160650365210773,142.463283284257,170.155078136843
0.8,0.33200948479983,0.0413371495235778,2.29623461828995,-2.06881783810407,-0.232319646500726,0.240762621221736,-3.086243935133,-0.166730448165827,0.891421816623992,144.597397413337,170.155078136843
0.81,0.34371271242571,-0.0348456329142743,0.7488500777208,1.74458790127011,-0.305005132980762,-0.162248314849871,-1.35302602797186,1.33179726377222,1.95864326566564,146.531472860042,170.155078136843
0.82,0.32248978989439,-0.00195773601693951,0.955130022572213,0.101018726272707,-0.0310200277191761,-0.321000397502466,-0.198130581753017,-0.939799135800181,3.03918568915347,148.260990712841,170.155078136843
0.83,0.294694390185441,0.0301598505129366,1.49059499680988,-1.50575587717677,0.229978201842986,-0.186720183340736,2.07200385985985,0.442689745637862,-2.15076595397549,150.009184424556,170.155078136843
0.84,0.296044026560651,-0.00961080593316413,0.575713905287491,0.480953542903757,0.251192006094776,0.156961808498152,0.739372993943534,-0.126847889221798,-1.04474475980099,151.710530596805,170.155078136843
0.85,0.234900822181311,0.0336711124166123,2.89488710613278,-1.68305005372153,0.0164836940384218,0.236728595449886,-1.88930036217883,2.76470124643818,0.0728530287556324,153.196368330996,170.155078136843
0.86,0.245153176780881,-0.00944015543660002,1.67763574528983,0.475933447259778,-0.231997415076641,0.079789698697148,-1.39227313786771,1.05002373766822,1.20105564367191,154.63981613685,170.155078136843
0.87,0.242177523941702,-0.0484422210905731,1.09377483945432,2.42358806258635,-0.140279070385188,-0.203269240906215,-2.47170534726566,0.980201598056616,2.34010981810331,156.10387001742,170.155078136843
0.88,0.228096888628682,0.024961092205944,1.16093448532518,-1.24745156199626,0.0542221742385637,-0.222960091825963,1.56828158299219,-0.6666311987836,-2.79403318845621,157.376487932818,170.155078136843
0.89,0.238915760632006,0.0301725038964344,0.00844300284963569,-1.50633337429857,0.236447361622902,-0.0456482842100196,0.106400764884156,1.50259455478013,-1.63588474281111,158.607180441738,170.155078136843
0.9,0.203259721548316,-0.0264959852255779,1.16886513288037,1.32493458148904,0.0681585780681635,0.193315700016059,1.71000882256015,0.444485287557896,-0.468592718640039,159.846545551107,170.155078136843
0.91,0.21105657603192,0.0346110231835685,0.221538030615632,-1.73067149773037,-0.11082940252753,0.182919776808091,-1.45948519593167,-0.956141148011954,0.707282247014271,160.949904117185,170.155078136843
0.92,0.177857209584459,0.0241733261566373,1.35875316402176,-1.20649947801317,-0.176429235861061,-0.0330191070764728,-0.910097544295936,-1.57275987075323,1.8908946867842,162.002112876741,170.155078136843
0.93,0.182328712866202,0.0177737315431517,0.589853992339635,-0.890711014006791,-0.0285098506741535,-0.180960917004063,0.85432365903264,-0.641424140775115,3.08250483814021,163.084155751826,170.155078136843
0.94,0.215099359936151,0.0240349043441307,-1.50701568241992,-1.20122404524496,0.185373217209901,-0.111723684208068,-0.867139186883248,1.72107672824476,-2.00191874488084,163.985820131406,170.155078136843
0.95,0.19735773850133,0.0451774460106735,-1.0706975178562,-2.25736495378209,0.172690667366588,0.105683546396253,-2.34376684761479,0.865359274133521,-0.796578942978153,164.885809266892,170.155078136843
0.96,0.190678974217277,0.00755508264609749,-1.20937316566605,-0.37914658983524,-0.0700558532312198,0.177504163079034,0.141280928731529,-1.2595139100437,0.415505798645394,165.799167971441,170.155078136843
