t,iq,id,vq,vd,ia,ib,va,vb,theta_e,omega,r
0,0,0,0,0,0,0,0,0,0,0,0
0.01,0.000484334478392723,0.00027134901282065,-0.0229263173684306,-0.013575498647078,0.000301610392861951,-0.000466091562502854,-0.0139356407111018,0.0227092075944076,-2.05657535959644,-0.00273485337831081,0
0.02,0.000587885709887461,0.000326751351733947,-0.0279825942901878,-0.0163472583012261,0.000367302536854877,-0.000563440236555588,-0.0171122415986865,0.0275214393636023,-2.05659699691864,-0.00310918685495192,0
0.03,0.000626701062267222,0.000348082815581849,-0.0299021252660587,-0.0174144699500371,0.000391653483549899,-0.00060043602221509,-0.0183107260834108,0.0293618488751324,-2.0566194971986,-0.00308821834541703,0
0.04,0.000614929104718776,0.000342130498077728,-0.0294539364680756,-0.0171166831987914,0.000384010722426164,-0.0005896836835176,-0.0180528426658144,0.0288896190503885,-2.05664032267622,-0.00278467529738656,0
0.05,0.00062864269132944,0.000350706902189584,-0.0301882652471252,-0.0175457548102722,0.000392120798901262,-0.000603678924325151,-0.0185012600551,0.0296122989122179,-2.05665986333067,-0.00264734866313931,0
0.06,0.000629798026979555,0.000352170815731046,-0.0303304988070454,-0.017618994807451,0.000392447780772203,-0.000605520088524719,-0.0185922897660505,0.0297438211594338,-2.05667809949711,-0.00244983389197532,0
0.07,0.00063900680943237,0.000358373125404242,-0.0308401180724128,-0.0179292955760231,0.000397684189595763,-0.000615311534800465,-0.0188975203058901,0.0302565075456708,-2.05669463708908,-0.00231933200395266,0
0.08,0.000629265650625361,0.000353477310551968,-0.0304614784844461,-0.0176843532556722,0.000391347392292092,-0.000606439351195312,-0.0186766279533402,0.0298633820894802,-2.05671027081409,-0.00208607576390718,0
0.09,0.000626371424109551,0.000352638448000474,-0.0303951435684899,-0.0176423827486226,0.000389171372768158,-0.000604351452854179,-0.0186371499681888,0.02979555441104,-2.0567244462745,-0.00190995182638565,0
0.1,0.000624842024958145,0.000352493343226112,-0.0303866389114179,-0.0176351259976761,0.000387878953374701,-0.000603513902657978,-0.0186326325320313,0.0297854074709932,-2.05673741835626,-0.00175544542892938,0
0.11,0.000623648553552414,0.000352466986569512,-0.0303885747494327,-0.0176338144844963,0.000386828781980026,-0.000602937798119557,-0.0186346025555386,0.0297853735274984,-2.05674931161525,-0.001615033202866,0
0.12,0.000622592977002508,0.000352461058769596,-0.0303921699212945,-0.0176335185646591,0.00038589160620357,-0.000602443757726361,-0.0186375947994877,0.0297869943026335,-2.05676021995407,-0.00148648093464086,0
0.13,0.000646641447456549,0.000366547800004667,-0.031564490000085,-0.0183382704633416,0.000400569960444282,-0.000626135894232737,-0.019344704180551,0.030957900651031,-2.05677066945359,-0.00151261571698439,0
0.14,0.000660825759230674,0.000375233432876559,-0.0323993468351415,-0.0187728002875293,0.000409048930341764,-0.000640444990453811,-0.0198796341426811,0.0317322525568608,-2.05678048566987,-0.00148708736238887,0
0.15,0.000627256698741335,0.000356349536484612,-0.0307520845641458,-0.0178280456576644,0.000388181353875454,-0.000608071701999111,-0.01886409866887,0.0301276567031569,-2.05678961913143,-0.00118474572033592,0
0.16,0.000620426335566422,0.000353119999662247,-0.0304708834451753,-0.0176664772411686,0.000383645693159857,-0.000602028698772522,-0.0186906933370125,0.0298535950703419,-2.05679734263771,-0.00105749014691688,0
0.17,0.000618624574146769,0.000352566943816354,-0.0304205524377191,-0.0176388060342152,0.000382306708031373,-0.000600700752958151,-0.0186589077850466,0.0298057485931458,-2.05680430533006,-0.000968716592772055,0
0.18,0.000617803122318688,0.000352471556376605,-0.0304130456510144,-0.017634040073172,0.000381621112136239,-0.000600235139568791,-0.0186543067944157,0.0297981468063492,-2.0568106693366,-0.00089249396765492,0
0.19,0.000617204552568834,0.000352454484300597,-0.0304133635494022,-0.0176331904198344,0.00038109633061364,-0.000599942672268037,-0.0186548109393944,0.0297976528536343,-2.05681650265962,-0.000823546728079604,0
0.2,0.000616684447606909,0.000352450864556238,-0.0304149993770146,-0.0176330084423947,0.000380634936842234,-0.00059969856153053,-0.0186561829195458,0.0297983558725277,-2.05682185264094,-0.000760483736133707,0
0.21,0.000616212713359576,0.000352449602453371,-0.0304167459030293,-0.0176329398633614,0.000380215478881152,-0.000599478957090811,-0.0186576129934971,0.029799202622541,-2.05682675990532,-0.000702671201746871,0
0.22,0.000615781026011125,0.000352448796416439,-0.0304183930936909,-0.0176328930355548,0.000379831462476092,-0.000599278304466283,-0.0186589571656061,0.0298000146425752,-2.05683126119532,-0.000649647401363063,0
0.23,0.000615385142818663,0.000352448116988598,-0.0304199054818673,-0.0176328622662014,0.000379479269498602,-0.000599094344149202,-0.0186601857353059,0.0298007709556054,-2.05683539011702,-0.000601011092021193,0
0.24,0.000615022088748372,0.000352447503850507,-0.0304212940900607,-0.0176328328703781,0.000379156278770031,-0.000598925645542188,-0.0186613143916754,0.0298014642983142,-2.05683917747814,-0.000556398374153666,0
0.25,0.000614689069830465,0.000352446943021706,-0.0304225653302641,-0.0176328033983296,0.000378860009163663,-0.000598770902491844,-0.0186623486406094,0.029802096909021,-2.05684265153466,-0.000515476224530542,0
0.26,0.000619169330783324,0.000355186430127888,-0.0306464154306456,-0.0177698558754301,0.000381539834177094,-0.000603287174789733,-0.0187961597417453,0.0300279026164676,-2.05684572641893,-0.000507700349342806,0
0.27,0.000607584514476704,0.000348577387591445,-0.0301215766074504,-0.0174392182717713,0.000374382134707855,-0.000592033068826023,-0.0184864632059126,0.0294904457305315,-2.05684893729849,-0.000402701567928115,0
0.28,0.000606977437063822,0.000348404535696019,-0.0299848958709673,-0.0174305633834052,0.000373924526533253,-0.000591597648790973,-0.0183695764872381,0.0294189935234903,-2.05685161838664,-0.000369034230989793,0
0.29,0.000612331975386047,0.000351754244363961,-0.0303671343015601,-0.0175981519286045,0.000377092749025381,-0.000597061600792348,-0.0186291887654685,0.0297457748752958,-2.05685392613109,-0.00037506539980071,0
0.3,0.000604348292312325,0.000347592624590173,-0.0300015067526828,-0.0173899436679545,0.000371976974538838,-0.000589652967009614,-0.0184031297493838,0.0293909061383491,-2.05685532534721,-0.000311823608811269,0
0.31,0.000611586834802684,0.000351614992978967,-0.0303485908622833,-0.0175911838489052,0.00037649695855774,-0.000596591652630454,-0.0186159483549095,0.0297310138303353,-2.05685728092553,-0.00033302504587465,0
0.32,0.00061278386400264,0.000352302433473697,-0.0304138079599372,-0.0176255760602485,0.000377233050955974,-0.000597759394639634,-0.0186574879198431,0.0297919249227111,-2.05685922337203,-0.000318384405438117,0
0.33,0.000612868151421457,0.000352419725790322,-0.0304264776207267,-0.017631445328572,0.000377251701320894,-0.000597903159385674,-0.01866589442035,0.0298030667929888,-2.05686103282025,-0.000298605185195254,0
0.34,0.000612756504256764,0.000352439560081325,-0.0304293072562502,-0.017632435206707,0.000377142724351995,-0.000597869168370173,-0.0186678842770019,0.029805294966406,-2.05686269774167,-0.000279279397000895,0
0.35,0.000612619011586975,0.000352442750148597,-0.0304302688488382,-0.0176325929177003,0.000377018752667995,-0.000597808335193461,-0.0186686152724235,0.0298059121488362,-2.05686422589516,-0.00026133198968449,0
0.36,0.000612486349928189,0.000352443111169328,-0.0304308440825593,-0.0176326080234268,0.000376900449691919,-0.000597747209513437,-0.0186690750380627,0.0298062203995749,-2.0568656278133,-0.000244828218320496,0
0.37,0.000612363240732729,0.000352443003743954,-0.0304313023328984,-0.0176326129608403,0.000376790881072233,-0.000597690088113866,-0.0186694395749603,0.0298064628471741,-2.0568669137929,-0.000229682054988324,0
0.38,0.000612250253216935,0.000352442830205544,-0.0304317177942514,-0.01763259889616,0.00037669035639217,-0.000597637596314551,-0.0186697783259545,0.0298066665194473,-2.05686809339762,-0.000215787413936591,0
0.39,0.000612146468957861,0.000352442658187245,-0.03043208928435,-0.0176325993937554,0.00037659802672161,-0.000597589368242992,-0.0186700743039313,0.0298068607048277,-2.05686917542212,-0.000203041923369738,0
0.4,0.000612051409401443,0.000352442498193371,-0.0304324345122881,-0.0176325852644894,0.000376513459177218,-0.000597545192718913,-0.018670356562242,0.0298070280184546,-2.05687016793794,-0.000191350737179763,0
0.41,0.000611964266086751,0.000352442351048212,-0.0304327512364236,-0.0176325711075523,0.000376435934106201,-0.000597504695624293,-0.0186706160781662,0.0298071804594573,-2.05687107834929,-0.00018062667964087,0
0.42,0.00061188411413557,0.000352442216001528,-0.0304330283251951,-0.0176325700587463,0.000376364630028712,-0.000597467446824419,-0.0186708366705897,0.0298073245686171,-2.05687191344798,-0.000170789753809584,0
0.43,0.00061181059786008,0.000352442092107152,-0.0304332802079741,-0.0176325704381164,0.000376299229158631,-0.00059743328169545,-0.0186710363683259,0.0298074568758366,-2.05687267946411,-0.000161766574287542,0
0.44,0.000611743361565213,0.000352441978453069,-0.030433518631247,-0.0176325562075203,0.000376239413997945,-0.000597402035441379,-0.0186712328793893,0.0298075687947446,-2.05687338211262,-0.000153489825252668,0
0.45,0.000611681486821869,0.000352441874194521,-0.030433724726807,-0.0176325565409928,0.000376184369748613,-0.000597373280255485,-0.0186713957358733,0.0298076774035278,-2.05687402663518,-0.000145897759281671,0
0.46,0.000611624792557948,0.000352441778555598,-0.0304339143459346,-0.0176325553980676,0.000376133933791842,-0.000597346932689254,-0.0186715463032105,0.0298077760144677,-2.05687461784066,-0.000138933736888721,0
0.47,0.000611572923085367,0.000352441690824148,-0.03043409243807,-0.0176325411102279,0.000376087789328187,-0.000597322827623725,-0.0186716942772187,0.0298078567050861,-2.05687516013935,-0.000132545804003621,0
0.48,0.00061152519280358,0.000352441610346633,-0.0304342456610434,-0.0176325413869244,0.000376045328050787,-0.000597300645729066,-0.018671814795744,0.0298079378178326,-2.05687565757721,-0.000126686304385679,0
0.49,0.000611481420642721,0.00035244153652364,-0.0304343841372428,-0.0176325416473159,0.000376006387920695,-0.00059728030329253,-0.0186719235097419,0.0298080112587863,-2.05687611386501,-0.000121311524094439,0
0.5,0.000611441425532795,0.000352441468805172,-0.0304345163978578,-0.0176325273149745,0.000375970807059789,-0.000597261716527968,-0.0186720346703653,0.0298080681888893,-2.05687653240695,-0.000116381365368073,0
0.51,2.49715622276063,-0.0200890143721609,0.366648983399679,1.00750800414545,-0.216491921736459,2.48783520700095,0.975538688849501,0.444778733757543,0.0787569572746369,23.9692365003631,285.345318532941
0.52,2.24292941437433,-0.00153624978854894,2.08551822426492,0.081338645078024,-0.763559479748384,2.10895984760625,-0.632129370840434,1.98907382905842,0.346688695268154,48.7605202246811,285.345318532941
0.53,2.03813691425013,-0.00141326582195267,2.1849068537508,0.077068311644464,-1.4470927128837,1.43524449445669,-1.49592387393046,1.59435543328074,0.788815358547741,71.6118222362931,285.345318532941
0.54,1.89194023218984,-0.00669877102973293,-0.103172080088118,0.343241321563991,-1.86349310198075,0.326919217211277,0.162063311468365,0.319678848244002,1.39358934694646,93.2488572821974,285.345318532941
0.55,1.66845950489595,-0.00953661657964655,1.70253663387557,0.482876295090194,-1.38676798449845,-0.927751380329623,-1.68665843313863,-0.535708723067613,2.15469860929408,114.235994026052,285.345318532941
0.56,1.51136673559601,0.00755302811343916,1.33698069680984,-0.371945769029706,-0.129147123951734,-1.50585772172368,0.263153711123852,-1.36257519537931,3.06103627795595,132.393060292931,285.345318532941
0.57,1.36563803316141,0.0101341208061194,1.79447845360458,-0.499243640823611,1.1026012798435,-0.805816576963369,1.74819918230131,-0.6428038210488,-2.19449613620904,147.639344892923,285.345318532941
0.58,1.25090806034018,0.02452423056626,1.31290147623205,-1.2172096963203,1.10357200864652,0.589492353674568,0.551257131387019,1.70335706949641,-1.06058711950754,161.667639303632,285.345318532941
0.59,1.13959887399374,0.0124760177168787,0.646615173939292,-0.619328631091581,-0.187285659834256,1.12417317449151,-0.722994550551383,0.528164762485455,0.176029724746475,175.593799112515,285.345318532941
0.6,1.0089507206619,-0.0288429568312304,1.91317133454033,1.44972775503097,-1.00874572293184,0.0352921995582123,-1.8172392004735,1.56830379942038,1.50724507299958,187.211517166751,285.345318532941
0.61,0.943456759125302,-0.00815416985014644,0.577409729810487,0.41770330458174,-0.201469982997047,-0.921730433899376,-0.535451540681502,-0.470286821333675,2.91775646709366,197.589656896585,285.345318532941
0.62,0.843735132831119,-0.00171808470520168,0.931986628223949,0.0895313753974118,0.804584238434585,-0.254039621813683,0.861034933235227,-0.367741466410039,-1.87866671143867,207.875575902681,285.345318532941
0.63,0.791535060252436,-0.0180103075219112,-0.285740322200629,0.908302111517754,0.23409991016275,0.756339444196621,0.770681562674076,-0.559204959270905,-0.322914669077926,216.342204351167,285.345318532941
0.64,0.681825319774968,-0.0190865474111679,1.6560529609193,0.962543437660218,-0.660744350528967,0.169313219278264,-1.32716472373845,1.38117163119454,1.29196159459024,224.312399192873,285.345318532941
0.65,0.60931424301536,-0.000321266454900493,1.9389553054892,0.0198035876997556,-0.107187622469367,-0.599812273584728,-0.361590876018686,-1.90504380452276,2.96423005409027,231.634098225643,285.345318532941
0.66,0.545579806725248,-0.0112574980395366,2.31162870417208,0.571300563936258,0.545684691185328,-0.00350350887578298,2.29533037167391,-0.633616670533111,-1.59784770945257,237.9293847964,285.345318532941
0.67,0.484338384570931,0.0233681560258345,2.56923680455768,-1.16799051676434,-0.0586636280105119,0.481340129465092,-1.584626975398,2.33540937610222,0.169487707925625,244.09110916118,285.345318532941
0.68,0.465253445865612,-0.0108961179813972,1.2204149849707,0.552016174771753,-0.422938924594035,-0.194170441468653,-1.33924086478373,0.0238432137935302,1.97777492875329,249.198880349928,285.345318532941
0.69,0.404855233960036,0.00699856581130634,1.95305637396136,-0.350272245305593,0.249599055428885,-0.318837030341927,1.50234486548977,-1.29617890387055,-2.46011688149474,254.244074631824,285.345318532941
0.7,0.402386269879782,-0.00986990803934121,0.171134923895471,0.499591019620633,0.212516630731404,0.34183154760063,0.511577637488833,-0.131021638990039,-0.580746195878786,258.403837027862,285.345318532941
0.71,0.326142111208754,-0.00266778380440566,2.1356005333846,0.132482829483355,-0.317249607468607,0.0756867249598316,-2.04138230628813,0.641170506085746,1.32842281473537,262.487298534239,285.345318532941
0.72,0.330404858938177,0.00644668273600639,0.320106815474521,-0.317809527476682,0.0344899963643826,-0.328663004731351,0.354979477458994,-0.278317875191534,-3.01752604988128,265.959354178186,285.345318532941
0.73,0.294387161735068,-0.00799593196598502,0.605995074638592,0.398761112828626,0.252258310836596,0.15196539256127,0.723798898342805,-0.048534630402406,-1.05575408927913,269.283530356632,285.345318532941
0.74,0.263543767389029,-0.00576598239918436,0.843421666710123,0.292497441193888,-0.214539039265647,0.153171683132371,-0.500417912696523,0.739254200957633,0.928889268819262,272.099351052779,285.345318532941
0.75,0.227749740840894,-0.0130354060915018,1.4118513510265,0.650148748941466,-0.0343490666393809,-0.225521635073152,-0.928087850776119,-1.24686429670084,2.93327160547177,274.766910139556,285.345318532941
0.76,0.222730970239725,-0.0252657889955661,0.602579450751052,1.26786461835988,0.210055692319563,0.0782563180941117,0.890668681597639,-1.08503086802976,-1.32712855416188,277.037042163465,285.345318532941
0.77,0.157130197263228,-0.0566435939300544,2.87405386834794,2.83124075732673,-0.145516330568517,0.0819962996919252,0.26697338457838,4.02552295683934,0.711671005813782,279.233714785937,285.345318532941
0.78,0.173852656574685,0.0271602679522475,1.1591214988731,-1.35538637534531,-0.0891107320062817,-0.151729047300172,0.834977567940973,-1.57589572518517,2.76553554755175,281.069288060949,285.345318532941
0.79,0.136775109481329,-0.0372729528904005,2.17514318696972,1.86183694053799,0.131325949480242,0.0533872511365074,2.38249064354397,-1.5878989295286,-1.45073014605853,282.873252381253,285.345318532941
0.8,0.158924782820045,0.004993793782381,0.352452361091376,-0.245914553138347,-0.0893987159606003,0.131491042110614,-0.406142220258665,0.140517369771429,0.628509682890888,284.384962448369,285.345318532941
0.81,0.116673659413554,-0.0290031934025859,1.7856698192208,1.44797083021542,-0.0214604008934866,-0.118293614459905,-2.05347628144666,-1.03366889764893,2.71848269187029,285.807442435949,285.345318532941
0.82,0.0879575701665307,-0.0116187452923354,2.6445308572955,0.585066406489327,0.0862401833759946,0.0208365103374622,2.69150785747666,-0.302707132938405,-1.46506389483827,287.022153233577,285.345318532941
0.83,0.094928972876358,0.011326596741991,1.71280841033764,-0.56982078360049,-0.0478925627640104,0.0827411875489548,-1.48349762970736,1.02841779379738,0.643458281124983,288.243824206828,285.345318532941
0.84,0.0518616893980692,0.0296101678477892,3.38030971697254,-1.47773030394367,-0.0467916695107435,-0.0371070954346121,0.112812107110605,-3.68747258462238,2.76005288998595,289.224601525142,285.345318532941
0.85,0.0628648434328984,-0.0380443857957453,2.37761266780185,1.90077265575875,0.0554649032166172,0.0481975968445485,2.66666397860663,-1.46795160416611,-1.3996068579955,290.151926986466,285.345318532941
0.86,0.0563305166149063,-0.0379570374423368,2.29598067588674,1.90339836528322,-0.0658571227046613,0.0166343975714295,-0.114080479930623,2.98017419710777,0.730444407806814,290.977394122235,285.345318532941
0.87,0.0394780842135474,0.0308616957571609,2.74893065586605,-1.54623307823974,-0.0404275796516601,-0.0296069958234229,0.741115764432112,-3.06564901883975,2.86641186835392,291.754345493476,285.345318532941
0.88,0.0869424260461985,0.00789610687031638,0.0645530185309704,-0.390656482533091,0.0854827393993576,0.0177210387756379,-0.051807698129176,0.392550050262566,-1.27581477702161,292.362076849804,285.345318532941
0.89,0.059903606662152,0.00734862084066924,1.1085094484857,-0.368349767473413,-0.0410305036274017,0.0442599377708048,-1.08462132469856,0.433671915840674,0.869616502158127,292.95201731048,285.345318532941
0.9,0.0581237673859872,-0.0211705903062373,0.907860301739774,1.0588860293086,0.0139113436635421,-0.0602747106714725,-1.16186332482075,-0.771701733169261,3.01912197662031,293.515967578301,285.345318532941
0.91,0.0575363230383239,-0.0319924968223051,0.707312087931147,1.60142067175525,0.037356091833813,0.054207662969356,1.34466335290193,-1.12103480098572,-1.11086152419807,293.930775314603,285.345318532941
0.92,0.0528902579875769,0.00492791648274016,0.699228031980622,-0.25100744333339,-0.0432885105841163,0.0307858506827756,-0.730828995476668,0.133467436803225,1.04551172015967,294.406713855256,285.345318532941
0.93,0.0437009071502523,-0.0187448867575272,0.964102864633322,0.939744442856794,0.0214713373999084,-0.0424278415143498,-0.876885686233219,-1.02160924269199,-3.07830274094881,294.729244772223,285.345318532941
0.94,0.0326220204900258,0.0169875103783971,1.3277393594093,-0.854629851022915,0.0362236510328208,0.00637329079520431,0.533455223726362,1.48617277362463,-0.916536350508254,295.073781328727,285.345318532941
0.95,0.0296312532642233,-0.01579027425727,1.33747151105046,0.792824239819744,-0.0331137073436652,-0.00555214526885243,-1.01607802269192,1.17685418379671,1.24730608203568,295.311188217673,285.345318532941
0.96,-0.00803883317040808,-0.0239863105845395,3.0949998901349,1.19562613818239,0.0209562432393908,0.0141704553028875,-0.322844854364532,-3.30216858779959,-2.87040213804976,295.498177949147,285.345318532941
