t,iq,id,vq,vd,ia,ib,va,vb,theta_e,omega,r
0,0,0,0,0,0,0,0,0,0,0,0
0.01,0.000857837685824874,0.000482623906452582,-0.042606935992638,-0.0241650129845112,0.000577163023112099,-0.000797304317718792,-0.0285851993545941,0.0397766919826229,-2.00254110117281,-0.00138547873641793,0
0.02,0.000947014921506045,0.000533830491313178,-0.0470918157381967,-0.0267289482061236,0.000636720558774292,-0.000881135168430431,-0.0315851984144053,0.0439823944647009,-2.00255111448232,-0.00140357587081591,0
0.03,0.000979085201757942,0.000552649571004641,-0.0487010550630903,-0.0276712106930593,0.000657963877780251,-0.000911653945403287,-0.0326520174043479,0.0455119151970558,-2.00256080287855,-0.00132634289032506,0
0.04,0.000957458781832386,0.000541847570414504,-0.0476491286532202,-0.0271303646223578,0.000642834957062982,-0.000892798592320738,-0.0319225810762177,0.0445807689860271,-2.00256924849704,-0.00117236762452153,0
0.05,0.000975753950612027,0.000552853787610679,-0.0485725244317499,-0.0276814483205125,0.000654837954322843,-0.000910456114367258,-0.0325302526062618,0.0454679598856925,-2.00257719691714,-0.00109499760567876,0
0.06,0.000974683270587,0.00055314008422862,-0.0485355592741036,-0.0276957679909052,0.00065373914569887,-0.000910272794344381,-0.0324903586830668,0.0454657307353763,-2.00258442730285,-0.000993661672403406,0
0.07,0.00100057794413131,0.000568579152415935,-0.0498317997800815,-0.0284688173988178,0.000670789980421501,-0.000935135967124666,-0.0333438105769394,0.0467105141228241,-2.00259086172068,-0.000950400313776278,0
0.08,0.000972654216077077,0.000553548322640296,-0.048462602008877,-0.0277162069601467,0.000651714184630774,-0.000909802501151455,-0.0324149798714431,0.0454541637439567,-2.00259683610874,-0.000819414382809349,0
0.09,0.000970666597256519,0.000553151422158082,-0.0483759521830512,-0.0276963480111653,0.000650070292685528,-0.000908613643653236,-0.0323443538374351,0.0454000354362332,-2.00260213521365,-0.000743044150376157,0
0.1,0.00096955044699322,0.000553139131919347,-0.0483312818432409,-0.0276957161085866,0.000649057400132114,-0.000908138458528755,-0.0323038315207752,0.0453809207096504,-2.00260690947007,-0.000675416222304998,0
0.11,0.000968563455401882,0.000553137127615642,-0.0482919604500545,-0.0276956339068667,0.000648157937372696,-0.0009077263559618,-0.0322679586316043,0.0453645282942729,-2.00261121305479,-0.000614489745445096,0
0.12,0.000967674749656579,0.000553135558538308,-0.0482565632363658,-0.0276955402486237,0.000647347944709125,-0.000907355501291132,-0.0322356738795028,0.0453497538536082,-2.00261509243304,-0.000559569820218863,0
0.13,0.00101407324419414,0.000579649054793477,-0.0505620892644586,-0.0290230806572377,0.000678387202158669,-0.000950856653371438,-0.0337737790562952,0.0475204790577721,-2.00261889968554,-0.000588280983159846,0
0.14,0.00106861981982209,0.000611839169428261,-0.0533213420271888,-0.0306348435444317,0.0007144508181548,-0.00100292348511798,-0.0356050087020093,0.0501392312456234,-2.00262229264183,-0.000636930557159392,0
0.15,0.000968297622480758,0.00055467352010321,-0.0483102788121014,-0.0277725485886056,0.000647260586653724,-0.000909019654666636,-0.032251759884738,0.045442507395022,-2.00262541366191,-0.000418674530767463,0
0.16,0.00096482647094412,0.000553170904516849,-0.0481439427652556,-0.0276973179876726,0.000644734718680717,-0.000906203791189471,-0.0321320668845709,0.0453046457487521,-2.00262790300452,-0.000378363977348664,0
0.17,0.00096423007808111,0.000553130558391651,-0.0481193648143896,-0.0276952972388528,0.000644207936228169,-0.000905918977063406,-0.0321104897188428,0.0452925955240458,-2.00263013753633,-0.00034658235401549,0
0.18,0.000963766225593429,0.000553128709690439,-0.0481008589716703,-0.0276951999273997,0.000643785615133337,-0.000905724455243318,-0.032093632241845,0.045284826403072,-2.00263215153533,-0.000318066107992177,0
0.19,0.000963350013913917,0.000553127949856563,-0.048084270769452,-0.0276951749996553,0.000643406286156528,-0.000905550732512945,-0.0320784950870778,0.0452779191951202,-2.00263396700667,-0.000292364571317803,0
0.2,0.000962975160978649,0.000553127288609319,-0.0480693329144208,-0.0276951270448379,0.000643064640475507,-0.000905394293242595,-0.0320648745377499,0.0452716760209459,-2.0026356035265,-0.000269196547305786,0
0.21,0.000962637063981798,0.000553126693060989,-0.0480558564660524,-0.0276951049053043,0.000642756495463362,-0.000905253192796214,-0.0320525777508993,0.0452660627393657,-2.00263707873479,-0.000248312198420811,0
0.22,0.000962332319974413,0.000553126156146344,-0.0480437083806716,-0.0276950827082862,0.000642478749003344,-0.00090512601098392,-0.0320414940004755,0.0452610006893719,-2.00263840853161,-0.000229486419657277,0
0.23,0.000962057727535145,0.000553125672085802,-0.048032762031197,-0.0276950604584454,0.000642228482913734,-0.000905011412063285,-0.0320315076292372,0.0452564373447653,-2.0026396072504,-0.000212516297692349,0
0.24,0.000961810143450306,0.000553125235682428,-0.0480228904075509,-0.0276950381607781,0.000642002832935336,-0.000904908084224935,-0.0320225026968549,0.045252319972047,-2.00264068781145,-0.000197218920457803,0
0.25,0.000961586948372502,0.000553124842248957,-0.04801398970313,-0.0276950129088563,0.000641799411540399,-0.000904814934525106,-0.0320143856132589,0.0452486028628459,-2.0026416618615,-0.000183429405524725,0
0.26,0.000971267516483726,0.000558618845669651,-0.048495132337009,-0.0279700944230574,0.000648290975760109,-0.00091385688926755,-0.0323361833648582,0.04569983903487,-2.00264251282832,-0.00018864043523682,0
0.27,0.000936705376734037,0.00053911498109764,-0.0467860302446186,-0.0269935304315587,0.000625064334277107,-0.00088167823136396,-0.0311926851513327,0.0440976156300959,-2.00264342145005,-0.000115740629702553,0
0.28,0.000931094346865505,0.000535670163546792,-0.0464622143344934,-0.0268210604755214,0.000621409616032834,-0.000876201629752578,-0.0309707526307646,0.0438054691491823,-2.00264415019674,-9.59100808731901e-05,0
0.29,0.000960022864424329,0.000552665141100352,-0.0479432146658247,-0.0276719893815345,0.000640568592457523,-0.000903744729866765,-0.0319596078531243,0.0451981669395964,-2.00264468561619,-0.000139099590362574,0
0.3,0.000955808526748352,0.000550477849738656,-0.0477348814573435,-0.027562473128929,0.000637656523968508,-0.000899994422370577,-0.0318162327534577,0.0450115114843678,-2.00264482438195,-0.000129825656123102,0
0.31,0.000960589185079652,0.000553053843735892,-0.0479727700560058,-0.0276914663324595,0.000640919606978282,-0.000904335222112818,-0.0319782666443995,0.0452282482184291,-2.00264537424839,-0.000130616305402087,0
0.32,0.000960615005562461,0.000553121309983591,-0.0479751708813153,-0.0276948309491907,0.000640914356196434,-0.000904407629606828,-0.0319790156528467,0.0452323251698455,-2.00264588587715,-0.000123622952103478,0
0.33,0.000960513258657026,0.000553122901066032,-0.0479711449839833,-0.0276949214880525,0.000640820866890487,-0.000904366784163023,-0.0319753005839162,0.0452307371139576,-2.00264634753943,-0.000117094522159727,0
0.34,0.000960418178642305,0.000553122779561804,-0.0479673482740254,-0.027694898896484,0.000640734190391442,-0.000904327144566723,-0.0319718430713528,0.0452291407827842,-2.00264676370903,-0.000111203064313872,0
0.35,0.000960332147719574,0.000553122629160458,-0.0479639083540541,-0.0276948991830681,0.000640655781434297,-0.000904291239893364,-0.031968701873752,0.045227713250435,-2.00264713885733,-0.000105892137091143,0
0.36,0.000960254556907666,0.000553122492505176,-0.0479608041684669,-0.0276948994494257,0.000640585065434167,-0.000904258856589075,-0.0319658672695465,0.0452264250378644,-2.00264747702705,-0.000101104702365434,0
0.37,0.000960184913640524,0.000553122369287327,-0.0479580195717149,-0.0276948768047723,0.000640521591872062,-0.000904229790559107,-0.0319633340113305,0.0452252487152103,-2.00264778186355,-9.67891648683965e-05,0
0.38,0.000960121874743829,0.0005531222582108,-0.0479554950801959,-0.0276948770377202,0.000640464138453517,-0.000904203480553362,-0.0319610287627939,0.0452242010758067,-2.00264805665203,-9.28990098520486e-05,0
0.39,0.000960065122274505,0.000553122158079813,-0.0479532217214735,-0.0276948772554264,0.00064041241424247,-0.000904179794316905,-0.0319589528229509,0.045223257668177,-2.00264830435483,-8.93923073736834e-05,0
0.4,0.000960013899532961,0.000553122067816309,-0.0479511678751033,-0.0276948774597155,0.000640365730044124,-0.000904158415869104,-0.0319570773527292,0.04522240534477,-2.00264852764135,-8.62312605211996e-05,0
0.41,0.00095996768265025,0.000553121986448396,-0.0479493129666364,-0.0276948776518585,0.000640323608312301,-0.000904139126607971,-0.0319553835570746,0.0452216355724127,-2.00264872891861,-8.33817980231957e-05,0
0.42,0.000959926386513729,0.000553121913098937,-0.0479476577951117,-0.0276948549462781,0.000640285970151766,-0.000904121891507082,-0.0319538816423245,0.045220927970585,-2.00264891035578,-8.08132070135768e-05,0
0.43,0.000959888842572485,0.000553121846978569,-0.0479461485064976,-0.0276948551182778,0.000640251752854014,-0.000904106222004633,-0.0319525034507201,0.0452203016339038,-2.00264907390879,-7.84978019924714e-05,0
0.44,0.000959855082129196,0.000553121787374427,-0.0479447907727381,-0.0276948552810263,0.000640220983551103,-0.000904092131687023,-0.0319512636330786,0.0452197382072047,-2.0026492213402,-7.64106264193197e-05,0
0.45,0.000959824581314913,0.000553121733644914,-0.0479435621146733,-0.0276948554358038,0.000640193185299892,-0.000904079401724362,-0.0319501417015551,0.045219228333798,-2.00264935423932,-7.45291837203442e-05,0
0.46,0.000959797107298995,0.000553121685210737,-0.0479424542301192,-0.0276948555831804,0.000640168145591833,-0.000904067935057647,-0.0319491300511174,0.045218768585147,-2.00264947403864,-7.28331948083283e-05,0
0.47,0.000959772310835476,0.000553121641550155,-0.0479414526695182,-0.027694855724,0.000640145546295004,-0.000904057585862913,-0.0319482155000326,0.045218352955413,-2.00264958202916,-7.13043795061933e-05,0
0.48,0.000959750017301373,0.000553121602192732,-0.0479405514138692,-0.027694855858682,0.000640125227961898,-0.000904048281370508,-0.0319473925290437,0.0452179789629547,-2.00264967937513,-6.99262595114085e-05,0
0.49,0.000959729935658382,0.000553121566714175,-0.0479397383625652,-0.027694855987944,0.000640106925502668,-0.000904039900052374,-0.0319466501007257,0.0452176415772204,-2.00264976712553,-6.86839807897637e-05,0
0.5,0.000959711774868198,0.000553121534732834,-0.0479390011748298,-0.0276948561125035,0.000640090373902687,-0.000904032320353089,-0.0319459769641872,0.0452173356638383,-2.00264984622653,-6.75641534685914e-05,0
0.51,2.75637339717239,-0.0213321385923501,7.14829428687205,1.0709711105976,-0.165473808425558,2.75148465078432,0.695616829449454,7.19452622193073,0.0523284280666659,16.0102893053972,747.20662666772
0.52,2.75647635379586,-0.0312650346157062,6.14294440842632,1.57208941008736,-0.672695788013211,2.67331624919584,0.0974377755284528,6.3401685307431,0.235173529648482,33.8578981913813,747.20662666772
0.53,2.76991440551455,0.0140626575231979,4.40817357957853,-0.692807102455309,-1.43287001914202,2.37054995316648,-2.89051539181799,3.39954361033507,0.548759271407219,51.7442293669761,747.20662666772
0.54,2.68451321610472,-0.00767793051717836,7.41723884008254,0.400515444800462,-2.25700376833146,1.45348001286414,-6.00669178942558,4.36983962854473,0.995800052940734,70.4092487887895,747.20662666772
0.55,2.67307606158138,0.0458101646719096,6.47843560006255,-2.28460366775208,-2.67344444867422,0.0113570260041858,-6.44845469494858,-2.36790493687135,1.58368420844378,89.8771864305891,747.20662666772
0.56,2.59597641398364,-0.0131968854652607,9.0744040022802,0.675980556804927,-1.91216903320366,-1.75581242967532,-7.16980089585978,-5.60318773766376,2.30850930837936,107.570395627871,747.20662666772
0.57,2.65779303292145,0.0158903971957901,4.85178228851164,-0.768779385167618,0.0302595155894516,-2.65766827732227,0.852905456537818,-4.83770249192548,-3.12422868439097,124.544487903055,747.20662666772
0.58,2.48978224937603,0.0145155730108891,11.7921359381463,-0.713875205812622,2.08346980522574,-1.36322409085242,10.2924297226852,-5.79913598709169,-2.14436175909189,142.897732779339,747.20662666772
0.59,2.54903521391548,-0.00322694741441532,7.59043756399233,0.190246788678393,2.18983958747632,1.30468138489529,6.62291143386994,3.71321698700508,-1.0347451722207,159.606584164145,747.20662666772
0.6,2.43548882151829,0.0261162877037281,11.8817259309145,-1.29245550225479,-0.453290854429874,2.39307652646425,-3.60356158617133,11.3956218003822,0.197922606817136,177.098091045155,747.20662666772
0.61,2.45503516134501,-0.0200189662031716,9.59412053533948,1.0374694497883,-2.4550834046434,0.0128015113455674,-9.5793944594058,1.16563008582149,1.55742801874991,193.503026886871,747.20662666772
0.62,2.39314077699001,0.0258018332459016,11.2467009687209,-1.2730815237569,-0.273387214189488,-2.37761391824007,0.102049550357667,-11.3180654325388,3.037892721026,210.575958617298,747.20662666772
0.63,2.39859742028273,0.0202505459370942,9.70158634691174,-0.967524046139421,2.39071993693768,-0.195289150559955,9.74633066037397,0.256747122859447,-1.64385923696934,226.435857568909,747.20662666772
0.64,2.30978592453653,-0.00684307132930551,12.7042072186207,0.380073902334857,-0.185656961291345,2.30232259632232,-0.604686155091225,12.6954988826249,0.0775022421680266,242.717000816128,747.20662666772
0.65,2.25193217170845,-0.0223763241226504,14.1519612902209,1.14400515027237,-2.11183530700767,-0.782208950302028,-13.7057432231686,-3.70666411269338,1.9155856786138,258.895630471891,747.20662666772
0.66,2.23174128412334,0.0188185789418762,13.8001914626758,-0.922510399025177,1.47032958257102,-1.67903371520361,9.86769211370742,-9.69148916276007,-2.41393437229314,274.508213074561,747.20662666772
0.67,2.22395376955343,0.0129583307423529,12.8089720393881,-0.592851968671725,0.766106159972983,2.08787443087413,3.78446401989141,12.2514925721208,-0.345851267870918,289.706340700837,747.20662666772
0.68,2.15247590131797,0.00347303162092349,14.9523788069869,-0.117733413638932,-2.07880740316668,-0.558322799321902,-14.4036162846547,-4.01538678943221,1.83479619974857,304.868425086418,747.20662666772
0.69,2.15704871781854,0.100366800262891,13.2799502031269,-4.97041047865351,1.74127340728893,-1.27706679022908,13.8121473376202,-3.20727978943364,-2.1570986632461,319.901118579402,747.20662666772
0.7,2.11120131701741,0.0156538199120207,14.121472286465,-0.729338644351677,-0.493491901767978,2.05277416827651,-4.11035708289287,13.529703583104,0.243339974667951,334.717581183595,747.20662666772
0.71,2.12091247693898,0.0372704527383101,12.1909735898902,-1.80893939501287,-0.841543710576814,-1.94716794464971,-2.96621983443646,-11.9621753330247,2.75122005113722,349.267999008005,747.20662666772
0.72,2.10277756263977,-0.0304557515454845,11.6509947026273,1.58720293581733,1.6523282330527,1.3009275310333,10.2213091422802,5.81289343942031,-0.918311473411685,363.574002675374,747.20662666772
0.73,2.0014843735683,0.0024920037589633,15.2634297201601,-0.0585421991111843,-1.94991149808838,-0.451432228959749,-14.8525476230292,-3.51817326420865,1.79954745253253,377.678070576311,747.20662666772
0.74,1.94988326946111,0.0475012344121205,16.3832108630988,-2.31092689416161,1.93717634825931,-0.22726400405641,16.5265699464688,0.788965841713487,-1.66322340355842,391.637673644232,747.20662666772
0.75,1.91145179853887,-0.0334953611276921,16.8115445197491,1.69715285669195,-1.82922981095639,0.555597170675857,-15.4762376293,6.78191903519365,1.25839670876986,405.460126106029,747.20662666772
0.76,1.88850563761002,0.0185331519302027,16.4732882010673,-0.899090813202618,1.70639142036153,-0.809336358704988,15.3298669655814,-6.09694737252863,-2.003857590256,418.867934796853,747.20662666772
0.77,1.89268087585411,0.0468792969230388,14.8086595869356,-2.29277690293877,-1.67842221181146,0.875977993560228,-14.3040392354953,4.46628326887135,1.11454184959873,431.950366238433,747.20662666772
0.78,1.81040709347932,0.0660237321856868,17.4834587441288,-3.23261844091661,1.65390343107439,-0.739281014237696,17.4216104748336,-3.55086469826394,-1.95469284463436,444.84860320601,747.20662666772
0.79,1.74512893173448,0.0460037661712278,19.2544086203813,-2.28507396871881,-1.69423771957015,0.420891772863774,-19.2945577731403,1.91673021108373,1.35365527677756,457.752888669435,747.20662666772
0.8,1.73323336629036,-0.0264967854272811,18.3834821120609,1.37844393502992,1.73056860708017,0.0996608140083177,18.4252918286614,-0.600951974075996,-1.52855768201148,470.167349794162,747.20662666772
0.81,1.65743528897561,0.0592760100601929,20.7373446359221,-2.894767070399,-1.55422661551955,-0.578778895711462,-18.0560124299123,-10.6017712704871,1.96302552781698,482.402041644294,747.20662666772
0.82,1.71035247901481,0.0120352532974333,16.596620195372,-0.568709034077048,1.16110869134547,1.25589691323613,10.7603618228814,12.648551115268,-0.739164444580887,494.556208659758,747.20662666772
0.83,1.69051656661482,0.0380947544386531,16.1517127222322,-1.82848620177206,-0.393394751931128,-1.64454797481495,-1.61536736135218,-16.1744172673845,2.92932395660066,506.305725630182,747.20662666772
0.84,1.61817971562063,-0.0202754730126862,18.2791509505151,1.04489317280382,-0.650227459368198,1.48193148894796,-6.17215242467605,17.2372763411409,0.400946979192301,518.070359752361,747.20662666772
0.85,1.56489237144425,-0.002566100711205,19.5204193979857,0.207052480493337,1.39466263769403,-0.709796341282193,17.2881972851755,-9.06685606104927,-2.04320826553116,529.345014466664,747.20662666772
0.86,1.55795747488249,0.0479678888824171,18.397366287086,-2.35965566902025,-1.4993126569173,-0.426138438437142,-16.8186348568083,-7.82077890819711,1.87849550942186,540.566608482296,747.20662666772
0.87,1.51170801410583,-0.0177229872939114,19.276752359838,0.900126155183584,0.574916930605069,1.39822950444269,8.3675579424832,17.3892893102896,-0.401825949880561,551.581088054072,747.20662666772
0.88,1.47100314134538,-0.0318062006045053,19.8687189201742,1.66333814568136,0.782466584082366,-1.24603688590641,8.77261989181791,-17.9045755478718,-2.60248334923257,562.231604328353,747.20662666772
0.89,1.4832818184765,-0.0142310606100759,17.8048052951133,0.741977739859635,-1.48334217033455,0.00484580398050152,-17.7937906772825,0.970894379629759,1.5579355114586,572.855941954802,747.20662666772
0.9,1.4083678980863,0.0213144500752743,20.1359439450216,-1.058105806838,0.679536101358511,1.23376866919715,8.51200626654428,18.2789927450565,-0.488309485998549,583.195193583394,747.20662666772
0.91,1.42570723816193,0.0434736491106992,17.8388835903329,-2.0969984950235,0.8651020348671,-1.13407652139665,12.8743924348849,-12.5249027888506,-2.45945063766819,593.260542963568,747.20662666772
0.92,1.36969486646238,0.00643735724073868,19.2029924201485,-0.26987662244611,-1.28632743079756,-0.470603025446489,-17.9088685468877,-6.93542923328608,1.92622095394802,603.213167097804,747.20662666772
0.93,1.33751150707231,-0.0123889509476639,19.3990468037301,0.641781891347714,-1.14617338742648,-0.689475948537535,-17.0408144019718,-9.2922303784895,2.1030893504409,612.960080629041,747.20662666772
0.94,1.27381417080776,-0.0103956038628552,21.1974320200178,0.524359149778203,-0.443639605088306,1.19410824933396,-6.7269137217865,20.1085730110536,0.347558719907744,622.42482039195,747.20662666772
0.95,1.22531495266213,0.0105170930191716,22.2337451234625,-0.485438562666061,1.19501384560844,0.271015223312441,21.5286934363778,5.57587945849611,-1.33919739195133,631.650778650499,747.20662666772
0.96,1.21345870168574,0.113960319961513,21.4394979366779,-5.62660068779198,0.108576362218109,-1.21395228439591,9.43104604244942,-20.0590647245049,-2.95875063359698,640.713601098574,747.20662666772
0.97,1.19180496984894,0.00967635959697877,21.136532492343,-0.409703616107082,-1.16996467629591,-0.227322181740986,-20.633693334289,-4.60125659352307,1.77082244937971,649.586756680189,747.20662666772
