t,iq,id,vq,vd,ia,ib,va,vb,theta_e,omega,r
0,0,0,0,0,0,0,0,0,0,0,0
0.01,0.000403063000623245,0.000217764501200518,-0.0191393582257592,-0.0108913587627904,-0.000372241546302456,-0.000267053162611644,0.0181710754397307,0.0124398049163708,2.68846295030728,-0.00391696306191737,0
0.02,0.000553701070000972,0.000290834344177879,-0.0264466656424724,-0.0145458999996771,-0.000503895925199115,-0.000370483990533094,0.0246563772374655,0.0174089744651754,2.68843034825527,-0.00478775490274175,0
0.03,0.00062001650464933,0.000323532091261464,-0.0297394970638753,-0.0161812526744576,-0.000562341466411541,-0.000415771037071736,0.0275689896374769,0.0196525172457775,2.68839558010853,-0.0047045100809724,0
0.04,0.000621415116207932,0.000325478639229844,-0.0299725545605953,-0.0162786108018447,-0.000564716893639262,-0.000416158529030766,0.0277591815326597,0.0198185528523816,2.68836432205622,-0.00400512393145841,0
0.05,0.000631334852702643,0.000334469954348868,-0.0305821479187719,-0.0167283096667607,-0.000577155374405793,-0.000421124115188991,0.0284309461635424,0.02016892203065,2.6883372807299,-0.00349351567924805,0
0.06,0.000629447231504081,0.000337308099333065,-0.0306173552235557,-0.0168702500125331,-0.000578890010634435,-0.00041817093001726,0.02857443598039,0.0201377601727044,2.68831420907875,-0.00294597278856557,0
0.07,0.000629513298486186,0.000341545422593891,-0.0307213175100217,-0.0170821843481405,-0.00058273620704028,-0.000416363761235419,0.0288108743597827,0.0201378720395239,2.6882953744138,-0.00251622469722961,0
0.08,0.000620224920969631,0.000339540206979551,-0.0303726993639522,-0.0169818844632739,-0.000576872423149102,-0.000408882271757513,0.0285683535762034,0.0198679249173645,2.68827923179123,-0.00204765413333573,0
0.09,0.000613527907833626,0.000338905839805707,-0.0301290841938543,-0.0169501563041395,-0.000573374466838778,-0.00040313196688239,0.0284333967642832,0.0196624378330859,2.68826614639608,-0.00167675332104766,0
0.1,0.000608403825966135,0.000338704642031051,-0.0299460689188462,-0.0169401046761827,-0.000570953699095639,-0.000398607480452412,0.0283444149062544,0.0195020084543726,2.68825550160655,-0.00137850660868816,0
0.11,0.000604354321853568,0.000338640411495709,-0.0298028284329905,-0.0169368924423914,-0.000569125829272305,-0.000394990208861156,0.0282789604395789,0.0193743981756371,2.68824682756985,-0.00113682521432513,0
0.12,0.000601100473354047,0.000338619565178979,-0.0296882819271671,-0.0169358523615193,-0.00056768475515288,-0.000392070156675403,0.0282279931445587,0.0192716782359213,2.68823975374262,-0.000940252176305583,0
0.13,0.000617935066101422,0.000349302739784118,-0.0305107471891645,-0.0174701622663175,-0.000584664553997379,-0.000402521439475595,0.0290686793265532,0.0197768588472131,2.68823342435352,-0.000976182075945992,0
0.14,0.000626950288653693,0.000355427997425743,-0.0310415115025922,-0.0177765080198411,-0.000594121938397818,-0.000407939760395384,0.0295766618838325,0.0201196606719518,2.68822769635934,-0.000941976582420291,0
0.15,0.000605469730805346,0.000343920619759281,-0.0299841041662865,-0.0172009771814637,-0.000574370676476146,-0.000393666500507016,0.028596231577859,0.019421010740881,2.68822272689882,-0.000597979184811365,0
0.16,0.00059658887758069,0.000340285720719139,-0.0295851281840685,-0.0170191716124112,-0.000567214431386729,-0.000387273094088605,0.0282581032161021,0.0191418811684899,2.68821954025208,-0.000429883825819677,0
0.17,0.000592686092520797,0.000339137445056941,-0.0294144040873888,-0.016961742159908,-0.000564473609443933,-0.000384266255542507,0.0281317414274174,0.0190134949227207,2.68821727565038,-0.000336261428701546,0
0.18,0.000590794381051903,0.000338774621155728,-0.0293349579605152,-0.0169436074565484,-0.00056331952369677,-0.000382723606331974,0.0280806737699104,0.0189499697312334,2.68821555744627,-0.000276701554549336,0
0.19,0.000589750989127533,0.000338659913712757,-0.0292932884701802,-0.0169378639925304,-0.000562759911254289,-0.000381835106581232,0.0280572847222204,0.0189149877092983,2.68821420546129,-0.000234608973329148,0
0.2,0.000589092878149831,0.000338623595890236,-0.0292682301958043,-0.0169360405216909,-0.000562439419786911,-0.000381258780686096,0.0280446902976697,0.018893229301915,2.6882131215297,-0.000202776230826412,0
0.21,0.00058863047582724,0.000338612054154543,-0.0292512305821687,-0.0169354686966507,-0.000562226843074227,-0.000380847656180461,0.0280367468658065,0.018878172997648,2.68821224443907,-0.000177771542456824,0
0.22,0.000588282102767946,0.00033860835116647,-0.0292386927316947,-0.0169352893747404,-0.00056207119566345,-0.00038053569993131,0.0280311074453599,0.0188669603871779,2.68821153154445,-0.000157741772122263,0
0.23,0.000588009153890796,0.00033860713469079,-0.0292289799019161,-0.0169352180298108,-0.000561950769239669,-0.000380290533242442,0.0280267999659398,0.018858243807233,2.68821095086868,-0.000141541004818099,0
0.24,0.000587790525894654,0.000338606712219336,-0.029221236262549,-0.0169351998347542,-0.000561854808579384,-0.000380093912037177,0.0280234007577869,0.0188512772013791,2.68821047740858,-0.000128375761057085,0
0.25,0.000587613807429615,0.000338606547569297,-0.0292149883955251,-0.0169351946117484,-0.000561777403113209,-0.000379934902437386,0.0280206667222266,0.0188456520165889,2.6882100911815,-0.000117653277987557,0
0.26,0.00059028295947215,0.000340280883500255,-0.0293406698246269,-0.0170189360837369,-0.000564451743105867,-0.000381600945522494,0.0281509998514347,0.0189219528205896,2.68820996307998,-0.000143358015233532,0
0.27,0.00058481036702385,0.000336875888153766,-0.0290878983154375,-0.0168486413751328,-0.000558993963787011,-0.000378172285932807,0.0278872064310575,0.0187692903986447,2.68820928616442,-6.9183228726172e-05,0
0.28,0.000583972855868413,0.00033654546274589,-0.0289738928042358,-0.0168321172521655,-0.000558330172173328,-0.000377563986268364,0.0278224206271469,0.0186740340009357,2.68820905063715,-5.4816158267266e-05,0
0.29,0.000585924408396649,0.000337955410164074,-0.0291411635643913,-0.0169026339720375,-0.000560452464647884,-0.000378700813947162,0.0279590789229104,0.0187935189589855,2.68820907006821,-7.61948101753203e-05,0
0.3,0.000576118870213862,0.000333117117880067,-0.0286759447704415,-0.0166606438096444,-0.0005518076548531,-0.0003720057511474,0.0275377463473676,0.0184813253512105,2.6882101657095,3.94985927068284e-06,0
0.31,0.000583275896466949,0.000336872660750965,-0.0290101406974032,-0.0168484730427154,-0.0005583185457962,-0.000376794854504111,0.0278529764815436,0.0186994921929131,2.68821035795303,-7.7217384492887e-05,0
0.32,0.000585936114179846,0.000338058850821935,-0.0291355888956861,-0.0169078006656336,-0.000560550155878478,-0.000378666659826078,0.0279612607282772,0.018786275898446,2.688210195298,-0.000102036249266341,0
0.33,0.000586877121148173,0.000338433492143606,-0.0291810039023909,-0.0169265405182971,-0.000561299213984336,-0.000379348357466129,0.0279980043014029,0.0188188872627351,2.68820993897891,-0.00010627225214684,0
0.34,0.000587169330530405,0.000338551802764953,-0.0291960296936521,-0.016932459890742,-0.000561533659627989,-0.000379559079690793,0.0280099119136354,0.0188297950709663,2.68820968200509,-0.00010353446256935,0
0.35,0.000587223931503163,0.000338589152905949,-0.029199770917056,-0.0169343294077244,-0.00056159123865441,-0.000379591676492261,0.0280132355421009,0.0188323330620675,2.68820945380588,-9.89044624317334e-05,0
0.36,0.000587197273083772,0.000338600934323907,-0.029199518713837,-0.0169349188157789,-0.000561590226561857,-0.000379562442388922,0.0280136585768466,0.0188318427552008,2.68820926042315,-9.41994255337106e-05,0
0.37,0.000587148029620564,0.000338604642484518,-0.0291980328243563,-0.0169351052719354,-0.000561572051922934,-0.000379516459588309,0.0280131783854143,0.0188304208166115,2.68820909983796,-9.00013248358125e-05,0
0.38,0.00058709721440245,0.000338605803009481,-0.0291963207984773,-0.0169351651532638,-0.000561550887776423,-0.000379470195704911,0.0280124848206595,0.0188288518266049,2.6882089677141,-8.64366638116485e-05,0
0.39,0.000587051637824455,0.00033860616079944,-0.0291947261754904,-0.016935182825647,-0.000561531287497642,-0.00037942900622508,0.0280118042848913,0.0188274075354229,2.68820885947344,-8.34739304925262e-05,0
0.4,0.0005870128133215,0.000338606266645102,-0.0291933418862447,-0.0169351888389395,-0.000561514410705389,-0.000379394008103892,0.028011205024217,0.0188261579879961,2.6882087709774,-8.10352961367905e-05,0
0.41,0.000586980786022993,0.000338606294227058,-0.0291921899903218,-0.0169351779282146,-0.000561500434644437,-0.000379365163852007,0.0280106920345784,0.0188251252223017,2.68820869869306,-7.90370914249834e-05,0
0.42,0.000586954126914341,0.000338606298163351,-0.0291912173934192,-0.0169351780867135,-0.000561488783611179,-0.000379341163250844,0.0280102672807222,0.0188242491643376,2.68820863967692,-7.74032396601981e-05,0
0.43,0.000586932357249197,0.000338606295508756,-0.0291904160201561,-0.0169351782308686,-0.000561479264163115,-0.000379321567089335,0.0280099173074585,0.0188235273413462,2.68820859150427,-7.60686401004056e-05,0
0.44,0.000586914545704989,0.000338606291488619,-0.0291897525567333,-0.0169351783633775,-0.0005614714738243,-0.000379305534730694,0.0280096275628987,0.0188229297483264,2.68820855218683,-7.49789979145355e-05,0
0.45,0.000586899993789786,0.000338606287622252,-0.0291892030292232,-0.0169351784862811,-0.000561465108631764,-0.000379292436672413,0.0280093875787006,0.0188224347869649,2.68820852009784,-7.40895518733671e-05,0
0.46,0.00058688811942698,0.000338606284281917,-0.029188747335811,-0.0169351786012929,-0.000561459914468982,-0.000379281748735984,0.0280091885766248,0.0188220243483684,2.688208493909,-7.33635976261612e-05,0
0.47,0.000586878456955285,0.000338606281497288,-0.0291883695206912,-0.016935178709789,-0.000561455687809775,-0.000379273051683994,0.0280090235895215,0.0188216840577706,2.68820847253611,-7.27711130123036e-05,0
0.48,0.000586870540713415,0.000338606279206304,-0.029188052351105,-0.0169351788131314,-0.000561452224970061,-0.000379265926430732,0.028008885087168,0.0188213983980308,2.68820845509348,-7.22875706091998e-05,0
0.49,0.000586864079663064,0.000338606277330706,-0.029187786141206,-0.0169351789121828,-0.000561449398676126,-0.000379260110969702,0.0280087688414556,0.0188211586412294,2.68820844085797,-7.18929432835374e-05,0
0.5,0.000586858782765931,0.000338606275798156,-0.0291875603616611,-0.0169351790078026,-0.000561447081608587,-0.000379255343367246,0.0280086702522869,0.018820955304941,2.68820842924072,-7.1570882812695e-05,0
0.51,3.70024435546013,-0.0139910480874431,1.95865125004249,0.704820324459602,-0.510578503716737,3.66487566379591,0.435515273573457,2.03553748566529,0.134644649519961,41.3047880636884,739.669900036404
0.52,3.52316877350048,0.0233480522917551,2.14450546522619,-1.15770284162513,-1.97769816904251,2.91581434427513,-2.16928604527497,1.11057535253902,0.602616989022617,86.0570219434454,739.669900036404
0.53,3.32733864041072,-0.00471156469339951,3.37638459012678,0.251289096230338,-3.27632946918515,0.580404889849396,-3.2795989444405,0.841040946657534,1.39404837222581,129.825971163622,739.669900036404
0.54,3.1625532034383,0.0339900347924449,2.6252353182237,-1.68406082318536,-1.89749665440149,-2.53029732118148,-0.194271160437595,-3.11290540306947,2.50889603808479,174.587504254275,739.669900036404
0.55,3.01451047435165,-0.0326788490786207,1.50919415466191,1.65270141200702,2.19249998716067,-2.06912665476364,-0.0609889177336949,-2.23726826858769,-2.33809284314095,215.96533898051,739.669900036404
0.56,2.81834520547836,0.0227888543542305,4.0843817471889,-1.11518508316875,1.65789633238295,2.27924741530988,1.46866475631657,3.97099935281354,-0.620785699832246,252.19293813828,739.669900036404
0.57,2.69365810483673,-0.0192015806853563,2.76003545999364,0.980003873173855,-2.63956077477684,0.537477071802031,-2.49816238389498,1.5288518684131,1.36279058271714,289.532239221817,739.669900036404
0.58,2.54013525310735,0.00427672809372082,3.45877741307262,-0.18765560868918,1.1474518970409,-2.26619935982234,1.73489490386164,-2.99808196906101,-2.67120769714597,323.120121668562,739.669900036404
0.59,2.39987955570251,-0.0124831931011308,3.80781554662402,0.645100333256333,0.428930166598878,2.36127012943677,1.33414451685818,3.62431677495446,-0.1848944729278,355.874317945809,739.669900036404
0.6,2.24686384037944,0.0360580909353396,5.11601267034732,-1.77426533020976,-1.30566747061064,-1.82891491308802,-1.44497349705248,-5.21858742361902,2.53764357679072,385.966076916145,739.669900036404
0.61,2.1862294949136,0.0332804292825863,1.93620750208986,-1.64325597946755,1.60348677617385,1.48645119329193,0.264384905456513,2.525725703035,-0.808034843554237,415.6694926554,739.669900036404
0.62,2.02541684224678,-0.0072208504511076,4.4235156411392,0.395924496897498,-1.45520026254502,-1.40881429628858,-3.46346459121536,-2.78004673702514,2.33643466809648,442.170753989673,739.669900036404
0.63,1.90690139850956,0.0362497911408284,4.73090210064647,-1.78445303834565,1.11609009890382,1.54658652590934,1.22843557001169,4.90475823892394,-0.606099645270215,468.28498467325,739.669900036404
0.64,1.79084241848347,-0.0144608773936887,5.23096759315044,0.743826188307112,-0.384667799496425,-1.74910158905802,-1.88992759323977,-4.93401186169151,2.91704099705297,493.071858590197,739.669900036404
0.65,1.69152701933538,-0.0153449037575134,5.32476305855926,0.785773714062656,-0.563739484769135,1.59489714919966,-0.985709881090037,5.29140038079058,0.330686492761697,515.877981118119,739.669900036404
0.66,1.59624792953886,0.0165356727490439,5.39274705970347,-0.792637617356752,1.37695040379878,-0.807643774512459,5.07355835947336,-1.99223513055247,-2.09090519382721,537.26950305596,739.669900036404
0.67,1.50326192724437,0.0461221616122652,5.49542242094053,-2.27640830848344,-1.42573683291393,-0.47874644538293,-4.36299972673574,-4.04301072914878,1.92542692711029,557.765013689443,739.669900036404
0.68,1.47948027158128,-0.00856717439560595,2.3415126445346,0.454902243751094,0.27972258174237,1.45282158152291,0.9021971229493,2.20808918914685,-0.19600045505972,577.251939240822,739.669900036404
0.69,1.3422499250267,-0.0186367426232344,5.10028550565772,0.95247191199925,1.11125555977267,-0.753055954285022,3.6367969284741,-3.70051659682957,-2.18025649445291,595.535102040638,739.669900036404
0.7,1.2764847475229,0.0285287153625462,4.50133924750118,-1.41074127539202,-1.01271783122942,-0.777579444538506,-2.62423290457514,-3.91990403323019,2.24794729143454,612.707605936612,739.669900036404
0.71,1.1525534947288,-0.0225938180550307,7.0250221118161,1.14270995407469,-0.586907471426616,0.99218428671769,-2.46269179730353,6.67771449091232,0.514568043657414,628.785990057224,739.669900036404
0.72,1.15160412105023,0.0223856715957623,3.56949770809519,-1.10796491350423,1.03871023286612,0.49776924578752,2.69023246844866,2.59452296258058,-1.10447539840545,643.919229154438,739.669900036404
0.73,1.03408097230118,-0.0190576839294325,6.09633290003673,0.962623693876853,0.53552451992775,-0.884816444890272,2.22738443972686,-5.75592544789681,-2.61575809389672,658.184452658059,739.669900036404
0.74,1.01268153225167,0.000720683488184992,3.99453831007569,-0.0269602124848581,-0.783636550502958,-0.641434456405411,-3.07217310360994,-2.55319713010477,2.25744941058581,671.525009506671,739.669900036404
0.75,0.891981992087819,-7.5352803705242e-05,7.00518367828426,0.010930658774211,-0.721755998405874,0.524118458606582,-5.66154200122406,4.12548906363564,0.942636362883628,684.0787142398,739.669900036404
0.76,0.856416684286075,-0.0167287572276811,5.91666681262429,0.844428727797569,0.223236398524065,0.826979382340299,2.46402194897013,5.44505297338171,-0.283188644191152,695.83635641026,739.669900036404
0.77,0.805792370239917,0.0106540424360004,5.74178015785779,-0.524336478399738,0.798867057189493,0.105954129199814,5.6056521944064,1.34893721095414,-1.42571437406301,706.764778521796,739.669900036404
0.78,0.728103190029106,0.0216875730098045,7.04319579832042,-1.074756923744,0.424155340594315,-0.592196633896999,5.12458314721302,-4.94978353727861,-2.49027224083183,717.033711489533,739.669900036404
0.79,0.732294572349927,0.0154991604917863,4.39736867031385,-0.760702972319498,-0.259107209878026,-0.685097816708196,-0.751136216321842,-4.39901291419828,2.80117739295113,726.59910424305,739.669900036404
0.8,0.679050482729116,0.0308478896142531,4.75195781418078,-1.52461290195842,-0.656681152694475,-0.175587625088314,-4.06998938492718,-2.8880328902476,1.87746733618186,735.527671233662,739.669900036404
0.81,0.592041097636678,-0.0143286604732777,6.90034535814283,0.737968160939694,-0.51122399260786,0.298944812940249,-5.48281804390031,4.25418257314906,1.01745852465876,743.884384448713,739.669900036404
0.82,0.552297514845783,0.0418725753901845,6.80037046927065,-2.0716450890018,-0.0778591941398242,0.548382898495688,-3.48537421991604,6.19587914998818,0.216707464569505,751.70159192554,739.669900036404
0.83,0.544153069762396,0.0140361093056414,5.22883610658281,-0.691641845770471,0.286706669614084,0.462708181573526,2.04143310989506,4.86329583000552,-0.528937848822653,759.001757651662,739.669900036404
0.84,0.484085775235862,-0.0256746229478095,6.32418574230199,1.28058876494661,0.446370197197037,0.189081651948294,6.38208726602246,0.950891695682145,-1.22310123510933,765.827219283062,739.669900036404
0.85,0.453424743329221,0.00829980676615349,6.05997842005695,-0.415719466339252,0.430922964966335,-0.141309174932657,5.91415905059349,-1.38523783175756,-1.86936625243248,772.120284243893,739.669900036404
0.86,0.426982846125359,0.0261665889026271,5.68390133260139,-1.30220018806744,0.244798663420416,-0.350817125647664,4.55195986602903,-3.64446444167202,-2.47114166737838,777.954029914714,739.669900036404
0.87,0.401739623637926,-0.0159987544388304,5.33320125309116,0.815173136376184,0.0600549739970353,-0.397547588902954,-0.224090156308548,-5.39048480659097,-3.03146532112543,783.355592001341,739.669900036404
0.88,0.334408173704225,0.0433739726511987,7.18005197987314,-2.15139312973789,-0.173689158090318,-0.289036683667694,-0.904688942983525,-7.44064357087523,2.72947742344223,788.331668434249,739.669900036404
0.89,0.289949627853256,-0.0433290913500173,7.96912848330512,2.15906938480773,-0.200036919382297,-0.214320852306769,-7.58217524132429,-3.26790575165318,2.24231439188238,792.917210331301,739.669900036404
0.9,0.291519699472835,0.0273323749125048,6.51998273661547,-1.37435934982479,-0.290593591493046,-0.0358630517700698,-6.07315686242377,-2.741496713952,1.78707346964804,797.136917724213,739.669900036404
0.91,0.252586852290843,-0.0270590747105861,7.17603796032208,1.35443845705013,-0.25269686444165,0.0260116546138018,-6.73802569534754,2.81585405707685,1.3615006101369,800.988428079154,739.669900036404
0.92,0.250503103596655,0.038203475210565,6.08242123248772,-1.89953757721215,-0.183763973065202,0.174476682204278,-6.07720547367208,1.91615883669087,0.962657952667556,804.455949474307,739.669900036404
0.93,0.200454194881155,-0.0109413822565842,7.4448629752734,0.562682595495014,-0.120345447560998,0.160681583706658,-3.66349830494386,6.50548819025469,0.588311788001875,807.622346163927,739.669900036404
0.94,0.213063828235178,-0.00870228675344416,5.72382090901823,0.423916566354698,-0.0583364924147012,0.205106748669365,-0.927748121489673,5.66401928640931,0.236281908155063,810.563941450813,739.669900036404
0.95,0.187833815527072,-0.036637317769878,5.96191247717202,1.82597078727401,-0.0185630739343227,0.190471120107322,2.38603991435484,5.76067558785799,-0.0954812303239242,813.182380834891,739.669900036404
0.96,0.182931161402779,0.0154984600795349,5.23381774977293,-0.770328995655661,0.0869422281508177,0.161694344493485,1.37376616284356,5.10872014590857,-0.408825811734396,815.563942227262,739.669900036404
0.97,0.101790164291637,0.01821427813472,8.38477678249059,-0.89900539357187,0.0798753973319564,0.0656728130625565,4.75313866795527,6.96565612078668,-0.705604635655941,817.674583488567,739.669900036404
