t,iq,id,vq,vd,ia,ib,va,vb,theta_e,omega,r
0,0,0,0,0,0,0,0,0,0,0,0
0.01,0.000688346486169158,0.000372471909660522,-0.0338107191054837,-0.0186401836198862,-0.000719356462199451,-0.000308354485615942,0.0356042085216933,0.0149318956384237,2.47175033446237,-0.00311978892792801,0
0.02,0.000783164546241952,0.000423577245911004,-0.0386165059064681,-0.0211977271170231,-0.000818295721889789,-0.000350936605786263,0.0405932304303287,0.0171104589822219,2.47172805380126,-0.00296827609577114,0
0.03,0.000813241705119186,0.000443677174209807,-0.0401799598381623,-0.022203623194718,-0.000852733622173316,-0.000362017783368631,0.042352824937673,0.0177106825212406,2.4717083061537,-0.00255039940012721,0
0.04,0.000785847705318541,0.000433776853881745,-0.0389199850958764,-0.0217081662289797,-0.000827969330028904,-0.000346678184271018,0.0411823879114126,0.0170299925661226,2.47169298674602,-0.00195963971924292,0
0.05,0.000799179387500224,0.000444566600353101,-0.0396322602630706,-0.0222481368130581,-0.000844709418309815,-0.000350418541423598,0.0420481376585354,0.0172525292250491,2.47168031728966,-0.00166019549632574,0
0.06,0.000795375636728843,0.000445511981610732,-0.0394974209195271,-0.0222954553605355,-0.000843092230015765,-0.000346841204224035,0.0420016813711649,0.0171170193381636,2.47167004042663,-0.00134047861858456,0
0.07,0.00080882907301145,0.000455758577745693,-0.040192050785824,-0.0228082360386225,-0.000859480576163987,-0.000351017791193209,0.0428350847712455,0.0173427820779709,2.47166214809425,-0.00118099999041937,0
0.08,0.000788942749282138,0.000446491660778399,-0.0392556868039104,-0.0223444741917412,-0.000839870813430606,-0.000341178078922026,0.041890253806705,0.0168964821593706,2.47165542859531,-0.000880513623956248,0
0.09,0.000784141087573141,0.000445676415755159,-0.0390466646904948,-0.0223036696228698,-0.000836251967045336,-0.000337916203212514,0.0417285645134019,0.0167577625519912,2.47165033720871,-0.000706786776427369,0
0.1,0.00078156312336632,0.000445603850006607,-0.0389406435359168,-0.0223000351627831,-0.000834595664674885,-0.000335937171882952,0.0416599493732794,0.0166767474487232,2.471646342671,-0.000576737105341002,0
0.11,0.000779663417588067,0.000445596723404129,-0.0388635269299476,-0.0222996848304696,-0.000833411521195473,-0.000334449878116659,0.0416118420162361,0.0166163856776631,2.47164319283915,-0.000474887816327501,0
0.12,0.000778179140121947,0.000445595502952036,-0.0388033905183579,-0.022299618965662,-0.00083248973622316,-0.000333285111361285,0.0415744900845313,0.0165691851321997,2.4716407073139,-0.000394596636954326,0
0.13,0.000813926206217554,0.00046569084946955,-0.0405585981241747,-0.0233052977389212,-0.000870439479122811,-0.000348825098913166,0.0434527305412324,0.0173204212711217,2.47163814268288,-0.000507664751593024,0
0.14,0.000838981557461234,0.000481178826719763,-0.0418679830800914,-0.0240803774368345,-0.000898138625218212,-0.000358845547463844,0.0448733779436623,0.0178654005446414,2.47163600298452,-0.00057693565259664,0
0.15,0.000781366071650234,0.000448719593677672,-0.0389908061727242,-0.0224559754097274,-0.000836919656389779,-0.000333837835520163,0.0418135341356911,0.0166187292138908,2.47163418573795,-0.000221142409074985,0
0.16,0.000774671865847575,0.000445868099688209,-0.0386678055335789,-0.0223132646603935,-0.000830527954972767,-0.000330360678749896,0.0415011135269663,0.0164541344533615,2.4716335047705,-0.000166100530280325,0
0.17,0.000773701881832598,0.000445617505756957,-0.0386227341931636,-0.022300730076453,-0.000829729361829631,-0.000329755590560871,0.0414633085545568,0.0164265700074057,2.47163305113799,-0.000147772883863966,0
0.18,0.000773416197617958,0.000445595408977803,-0.0386105049086894,-0.0222996293253433,-0.000829534759400058,-0.000329545089763152,0.0414548576318839,0.0164176531840541,2.47163270245502,-0.000136102084533701,0
0.19,0.000773244231949617,0.000445593402048496,-0.0386034523340568,-0.0222995138767083,-0.000829426493708464,-0.000329411313902527,0.0414503923084892,0.0164121853729977,2.47163242831459,-0.00012720230504795,0
0.2,0.000773114312442469,0.000445593173785036,-0.0385981640858515,-0.0222995055285821,-0.000829345711849933,-0.000329309439377831,0.0414471055496535,0.0164080364204088,2.47163221208075,-0.000120213247252615,0
0.21,0.000773012449034626,0.000445593112719196,-0.0385940189986319,-0.0222995043904572,-0.000829282467571968,-0.000329229490542752,0.041444533544245,0.0164047809441861,2.47163204144414,-0.000114701395896587,0
0.22,0.000772932122462652,0.000445593074984768,-0.0385907466409366,-0.0222995046573429,-0.000829232603125004,-0.00032916643863482,0.041442503974974,0.0164022101727812,2.47163190678086,-0.000110351924617614,0
0.23,0.000772868792527647,0.000445593046122278,-0.038588163143283,-0.0222995048846657,-0.000829193290424377,-0.000329116727516042,0.041440901659733,0.0164001805630971,2.47163180050617,-0.000106919412209915,0
0.24,0.000772818733939316,0.000445593023423996,-0.0385861161742041,-0.0222995050810751,-0.000829162216086645,-0.000329077433844968,0.0414396321127503,0.0163985724570763,2.4716317166351,-0.000104210512453756,0
0.25,0.000772779269145259,0.000445593005517063,-0.038584498629447,-0.0222995052528185,-0.000829137717954243,-0.000329046455765808,0.0414386289096086,0.0163973017017444,2.47163165044507,-0.000102072675987562,0
0.26,0.000780568584419747,0.000449861503187789,-0.0389639926928107,-0.0225131193898679,-0.000837320365889766,-0.000332501566762705,0.0418417176732222,0.0165621234563149,2.4716316923178,-0.000144229844194687,0
0.27,0.000759702794042235,0.00043793431195717,-0.0379486243102053,-0.0219162335587137,-0.000815014681400176,-0.000323551952500904,0.0407433586992625,0.0161368554043352,2.47163131991954,-2.37108617564328e-05,0
0.28,0.000759267675197044,0.000437578523760214,-0.0378536907005489,-0.021898428937787,-0.000814465612489232,-0.000323431805992906,0.0406704532413199,0.0160734975267282,2.47163130864361,-2.10949602015891e-05,0
0.29,0.000771212751765359,0.00044488894833815,-0.0385087667406989,-0.0222642731999503,-0.000827613155668533,-0.000328255615950884,0.0413639886502171,0.0163598111222683,2.47163150576495,-8.96200937794834e-05,0
0.3,0.000763585881562592,0.000441123211559192,-0.0381322033041854,-0.0220758235999433,-0.00081992513691781,-0.000324616475472714,0.0409824283938783,0.0161817019929357,2.47163247481152,-7.78006749710632e-05,0
0.31,0.000772135765154812,0.000445200536568413,-0.0385494582283802,-0.0222798550299515,-0.000828430256342619,-0.000328786356116113,0.0414014557204276,0.0163820674545906,2.47163237782339,-0.000119904050548687,0
0.32,0.000772979152645667,0.00044555865703849,-0.0385914943308219,-0.0222977796316169,-0.000829234736267457,-0.000329224907098775,0.0414416115121662,0.0164038790065248,2.47163218660249,-0.000118759725192454,0
0.33,0.000772988059883816,0.000445590076208248,-0.0385927148679107,-0.0222993540786204,-0.000829264948939647,-0.000329212243390707,0.0414436062198501,0.0164038512762565,2.47163202293654,-0.000114033288090105,0
0.34,0.000772922110732792,0.000445592804780412,-0.0385901234060343,-0.0222994925439483,-0.000829226179239228,-0.000329158746801632,0.0414421077155987,0.0164017285765641,2.47163189235394,-0.000109877941639258,0
0.35,0.00077286180760699,0.000445593019654819,-0.0385876722209392,-0.0222995044047485,-0.000829188936094608,-0.000329111259425953,0.0414405966290937,0.0163997955826525,2.47163178914174,-0.000106551276213631,0
0.36,0.000772813378834517,0.000445593018943749,-0.0385856929400311,-0.0222995060524569,-0.000829158890243879,-0.000329073231616561,0.0414393702116419,0.0163982397320082,2.47163170767014,-0.000103920642399542,0
0.37,0.000772775078193678,0.000445593003422946,-0.0385841228523251,-0.0222995062214777,-0.000829135116246156,-0.000329043166141162,0.0414383964440313,0.0163970062557875,2.4716316433716,-0.000101843986721357,0
0.38,0.000772744810210036,0.000445592989859576,-0.0385828775508637,-0.0222995063718014,-0.00082911632724168,-0.000329019407056495,0.0414376241171639,0.0163960279353137,2.47163159262755,-0.000100205045367362,0
0.39,0.000772720945069087,0.000445592979039605,-0.0385818917354736,-0.022299506507217,-0.000829101512746107,-0.000329000673981026,0.0414370127324268,0.0163952534645219,2.47163155258108,-9.89116017198758e-05,0
0.4,0.000772702085786972,0.000445592970490514,-0.0385811083302356,-0.022299506630975,-0.000829089805667466,-0.000328985870317223,0.041436526887789,0.0163946380091727,2.47163152097662,-9.78908279024884e-05,0
0.41,0.000772687184625794,0.00044559296374257,-0.0385804850575648,-0.0222995067455226,-0.000829080555625007,-0.000328974173616035,0.0414361403618694,0.016394148354887,2.47163149603485,-9.70852431514029e-05,0
0.42,0.000772675484885963,0.000445592958417077,-0.0385799920349672,-0.0222995068526158,-0.000829073292907679,-0.000328964989811772,0.0414358346233933,0.0163937610190826,2.47163147635095,-9.64494835762746e-05,0
0.43,0.000772666171660227,0.000445592954214227,-0.0385795948154287,-0.0222995069541532,-0.000829067511624129,-0.000328957679409993,0.0414355883019631,0.0163934489535058,2.47163146081671,-9.59477483692738e-05,0
0.44,0.000772658895702621,0.000445592950897446,-0.0385792808831317,-0.0222995070509462,-0.000829062995010688,-0.000328951968077098,0.0414353936407988,0.0163932023109221,2.47163144855719,-9.55517838757854e-05,0
0.45,0.000772653133144196,0.000445592948279677,-0.0385790279690682,-0.0222995071442091,-0.00082905941784853,-0.000328947444724494,0.0414352368241064,0.0163930036065084,2.47163143888218,-9.5239292590993e-05,0
0.46,0.00077264859294665,0.000445592946213691,-0.0385788246081364,-0.022299507234626,-0.00082905659947968,-0.000328943880862717,0.0414351107420373,0.0163928438303911,2.47163143124686,-9.49926775399434e-05,0
0.47,0.000772644984071677,0.00044559294458341,-0.0385786586783154,-0.0222995073228769,-0.000829054359232837,-0.00032894104807802,0.0414350078749418,0.0163927134625269,2.47163142522104,-9.47980513666353e-05,0
0.48,0.000772642131896296,0.000445592943296744,-0.0385785233711878,-0.0222995074093679,-0.000829052588714235,-0.00032893880926904,0.0414349240009714,0.0163926071518675,2.47163142046572,-9.46444543040049e-05,0
0.49,0.000772639920003828,0.000445592942281386,-0.0385784144065262,-0.0222995060391758,-0.000829051215665841,-0.000328937073005606,0.0414348553262567,0.0163925224357047,2.4716314167127,-9.45232370117641e-05,0
0.5,0.000772638057358681,0.000445592941479992,-0.0385783184078169,-0.0222995061233626,-0.000829050059391943,-0.000328935611021372,0.0414347958298594,0.0163924470125316,2.47163141375099,-9.44275735158459e-05,0
0.51,2.08303556455428,0.0287203668666343,2.23752733861643,-1.43474438809829,-0.135579759497471,2.07881700769585,-1.60666900027879,2.11745950935989,0.0789143056778789,24.043966163228,581.546871613016
0.52,2.03871713053811,0.0296402971930513,1.59781054619988,-1.47732265419668,-0.67440486357713,1.92416843481821,-1.93728076691444,0.991173040540178,0.351650374682022,50.2769891039286,581.546871613016
0.53,1.97287677153205,0.00481756160377445,1.98227848767858,-0.230606664941435,-1.43321166183166,1.35579139138005,-1.60142592334623,1.19081587521471,0.815592048606541,76.3444260314655,581.546871613016
0.54,1.85600676842866,0.0498499099421199,4.68005876553408,-2.48367984931212,-1.84231367357998,0.230491791859219,-4.89983061146703,-2.01575683594576,1.47318529842483,103.267315659343,581.546871613016
0.55,1.77033708702031,-0.0246402782836403,5.8083556403699,1.2400016618577,-1.2700816051903,-1.2335287840787,-5.07401975793354,-3.08689534363035,2.3276779719127,129.243039343925,581.546871613016
0.56,1.76454981638086,-0.00596611633153654,3.44028685794418,0.314551195473323,0.388525895230315,-1.72125514604003,0.439077460174678,-3.42662036173891,-2.92297178326852,152.214763545555,581.546871613016
0.57,1.65448555784603,-0.0228537734175582,6.18461344544191,1.15909060617085,1.63888980929392,-0.227782679484328,5.93798197534776,-2.08165908911604,-1.72270992863264,175.651564462217,581.546871613016
0.58,1.60117642514127,-0.028988924774288,6.05940522373601,1.46464729435306,0.521569957189,1.51412386611717,3.45278883927732,5.19035958230805,-0.349842463412687,198.194141909201,581.546871613016
0.59,1.52393105890292,0.0417925223931616,7.40610783228225,-2.0660973705255,-1.39274115716338,0.619987545326647,-7.63420712720543,0.915463329036544,1.17939497482316,219.386900074843,581.546871613016
0.6,1.47009500162271,-0.0272239250234413,7.46189338372665,1.379792275559,-0.372540966379252,-1.42236903940538,-3.35200987240085,-6.80791520284463,2.86691455052449,240.286323020224,581.546871613016
0.61,1.3910591261681,-0.0169122820032113,8.93033458866635,0.852780310926262,1.3911617964544,0.000611444089410166,8.91972908795685,-0.957362586322781,-1.58251405292163,260.464399152689,581.546871613016
0.62,1.38927711873798,0.0563408155482118,6.65428796516351,-2.79061131349274,-0.484687839991545,1.30320485646343,-5.14444856117657,5.05981312181803,0.396599432567869,279.180098122791,581.546871613016
0.63,1.32546125612426,0.0414969608337328,7.40938813408713,-2.06056066890094,-0.812151319552466,-1.04832236139182,-2.68461467789314,-7.2067875522325,2.51375784893578,298.05495200254,581.546871613016
0.64,1.28932899566138,-0.0339647754935428,6.92459490139833,1.70632038361074,1.2859631057146,0.0991047716730194,7.002004773928,-1.35405795514325,-1.52021867826959,315.967597859368,581.546871613016
0.65,1.20353790231393,0.0285135572421665,9.0465255134118,-1.39455192568993,-0.891227901959748,0.809338823992302,-7.75211211323818,4.86715078069726,0.857202006292123,332.774851333752,581.546871613016
0.66,1.19711339137501,-0.0122113690386687,7.18398782141478,0.644972606510119,0.269178984093371,-1.16652143737937,0.913894096482196,-7.15475144654231,-2.92500900108587,349.136871544096,581.546871613016
0.67,1.11754026240058,0.0503419428757478,9.0123114800921,-2.49179678524599,0.384160365979745,1.05064330888707,0.334453218493197,9.34446095169762,-0.305525478383601,365.084514573483,581.546871613016
0.68,1.07974738849049,0.0337522559803475,8.83318171546383,-1.66753690768418,-0.732674224199517,-0.793840109171508,-4.52506393630909,-7.76721152854796,2.42749127991289,380.335789806307,581.546871613016
0.69,1.07252013281638,0.0126527866492839,7.19015155329754,-0.615512436534096,0.917057032708168,0.556296617881996,5.7776656758978,4.32385409750001,-1.01373348209999,394.970223135928,581.546871613016
0.7,1.03382741295505,0.0194866279910334,7.18155509330875,-0.960148378889903,-0.973744075271025,-0.347852446192878,-6.37626246865464,-3.44091490719256,1.93274601799464,408.952934890579,581.546871613016
0.71,0.932451089119741,-0.0201907746563315,10.3628883012241,1.0238090192559,0.893955854316557,0.265924108562891,10.2649732835271,1.75155997329017,-1.30331326960371,422.393332392163,581.546871613016
0.72,0.90590778154329,0.0397624949137286,9.85748300791385,-1.97474062270148,-0.883816571257947,-0.202776312798848,-8.97637631319929,-4.52705644564904,1.84019000955932,435.255981811597,581.546871613016
0.73,0.858446046135691,-0.0264992370560478,10.462914030402,1.34553614235939,0.792906096412217,0.330048096438827,10.2574579012763,2.46324885497223,-1.2072183301591,447.521295981484,581.546871613016
0.74,0.829389355642572,0.016157821688025,10.1915038477638,-0.782770186404349,-0.717093764394771,-0.417042337804016,-8.30184819605262,-5.96311968464542,2.11703544803077,459.33232661588,581.546871613016
0.75,0.801047423137514,0.052656670509124,9.94765533593415,-2.60207922864345,0.588489624730135,0.546012509608839,4.94167794523907,9.01701070644893,-0.757181540686877,470.564285574961,581.546871613016
0.76,0.758447497464307,0.0447034133679733,10.4463783969102,-2.19998759457821,-0.342450005964303,-0.678210140731961,-2.13290728618406,-10.4602807580042,2.73287980107924,481.468149418503,581.546871613016
0.77,0.668194460797598,0.0284298482087584,13.368894681315,-1.42832483026493,0.0166058228450335,0.668592806091574,-1.66458144083829,13.3415375968312,0.0176897511169089,491.903373632099,581.546871613016
0.78,0.728058805965349,0.028611422282096,8.83504388052687,-1.43490960768642,0.335774652283543,-0.646640256489309,5.62277707526323,-6.96429062539469,-2.62337772982407,501.825062875214,581.546871613016
0.79,0.701028644503721,0.0239393229883025,8.6769318244748,-1.18652443151679,-0.610444063871819,0.345502961613242,-8.2416496282599,2.96178958033371,1.08989807108677,511.33647454332,581.546871613016
0.8,0.614657019906732,0.00964776429528241,11.5713136348712,-0.453374607582458,0.60843287599251,0.0877824976177237,11.3536109634887,2.27955387326263,-1.4118138028564,520.252056002067,581.546871613016
0.81,0.609603581587197,-0.00768466670838541,10.4330308702089,0.420239893493739,-0.390415823818513,-0.468242528288994,-7.10104277450478,-7.65505886466387,2.43397973432819,528.91160561948,581.546871613016
0.82,0.576682653121303,0.00762676012014196,10.7041095526844,-0.38916944363023,-0.0260775345625456,0.57614322183993,-1.01386603334426,10.6630900698698,0.0584558298593308,537.227388374578,581.546871613016
0.83,0.558407283614954,0.0275411342750395,10.3089965139736,-1.36245165578802,0.414167227006123,-0.375556542407992,8.83306535036949,-5.48713405664389,-2.25806107224635,544.986609969673,581.546871613016
0.84,0.474927589850368,0.0657449665560721,13.2270747115634,-3.25599758629194,-0.478704943715874,-0.026836413518204,-12.3537699685362,-5.73945931876105,1.76435547725857,552.395395938584,581.546871613016
0.85,0.472907549423353,0.0125328630531482,12.0925373961454,-0.639900886514013,0.214119904702113,0.421842730609724,4.60759122804639,11.1986176333049,-0.443199518741012,559.549025196589,581.546871613016
0.86,0.468597605261638,-0.0280153667684193,11.1075654599283,1.41671514404998,0.265579917670283,-0.387086403484231,4.51229332969183,-10.2481364721978,-2.59997117824371,566.305959424525,581.546871613016
0.87,0.425986914665635,0.053892915988782,12.0950443507561,-2.66301260502548,-0.426198200956478,0.052195702520254,-12.0843411219958,-2.71116831431069,1.57477952526535,572.686910695966,581.546871613016
0.88,0.393148019444304,-0.0303490143322979,12.6055631047973,1.50891962487246,0.157425695663219,0.3615294983938,7.2401690890732,10.428662962479,-0.487725176959922,578.82293054447,581.546871613016
0.89,0.35175755756175,0.00407652959234321,13.6067104244365,-0.178993648091454,0.205308406402272,-0.28565443398604,8.2128524747423,-10.8500535265337,-2.50681800933312,584.529520725556,581.546871613016
0.9,0.349579756290331,-0.0189991476989057,12.6675698189648,0.932708681932765,-0.336272490997506,-0.0974052638188748,-12.5512410356388,-1.95028691966035,1.79844655212323,590.049221088283,581.546871613016
0.91,0.344223694450016,0.0195464977962312,11.9281595357727,-0.968366600423756,0.0675847262359199,0.338089222212912,0.712505376866025,11.9461734405457,-0.140577994502706,595.190952154001,581.546871613016
0.92,0.288138898543321,0.0169005216818371,13.7564174320984,-0.817144569228886,0.248978574638239,-0.146011375782804,12.6249169365043,-5.52432965702877,-2.04259975091568,600.104366832086,581.546871613016
0.93,0.295022607912978,0.0297714681002934,12.4629042670615,-1.49343705632692,-0.226358820823921,-0.1915368469194,-7.58333367268882,-10.0023690903612,2.37363162491301,604.75435534461,581.546871613016
0.94,0.326414848456562,0.0242133603776402,9.98519896061879,-1.17846896735629,-0.146965161283157,0.292462273605868,-6.14212583312275,7.96035662770523,0.539697541019514,609.13076635672,581.546871613016
0.95,0.248685558819578,0.0153052813178862,12.9879776870692,-0.777787440751125,-0.151720389396257,-0.197635225208144,-6.61618631558581,-11.2035082157444,2.54833991781648,613.24752135803,581.546871613016
0.96,0.230436005747145,0.0316864941266001,13.0573555681942,-1.55622113761158,-0.138519082255006,0.186861581139527,-10.2445685512404,8.24409933603046,0.774554691008088,617.073585999105,581.546871613016
0.97,0.194813171460717,0.0403604604705151,14.0213794442417,-2.03655275842678,0.183655939491399,0.0764959765837795,10.4324965185525,9.58695181210631,-0.971846830166168,620.719173176137,581.546871613016
