t,iq,id,vq,vd,ia,ib,va,vb,theta_e,omega,r
0,0,0,0,0,0,0,0,0,0,0,0
0.01,0.0005838040304116,0.00032372448740968,-0.0281969774858175,-0.0161949709071041,-0.00066720928666409,2.13648651454809e-05,0.0324808688184002,-0.00152963486477132,2.04508431927305,-0.00222934603211423,0
0.02,0.000721653550506544,0.000395634098013178,-0.0349903151838526,-0.0197923847391631,-0.000822683812102299,2.23949050953741e-05,0.0401672738243236,-0.00162811665743258,2.04506665449696,-0.00252865777517862,0
0.03,0.000773171271564471,0.000423612854087168,-0.0375661511114281,-0.02119207746097,-0.000881292496832563,2.37739426079262e-05,0.0430979989879296,-0.00169774546820953,2.04504849694399,-0.00246685225190923,0
0.04,0.000759272615869247,0.000417314110280964,-0.0370015354272498,-0.0208769718756007,-0.000866050902650181,2.45317318452651e-05,0.0424517695831304,-0.00167595880899433,2.04503207267657,-0.00216307791915759,0
0.05,0.000774575646739644,0.000427756229422654,-0.0378251542725211,-0.0213993697148689,-0.00088443320395234,2.6846453743888e-05,0.0434230265758287,-0.00176524302251688,2.04501710716791,-0.00200086832859262,0
0.06,0.000774976886600567,0.000429752346462951,-0.0379272625379201,-0.0214992274439832,-0.000885701298087772,2.84510917392573e-05,0.0435594421100627,-0.00180804517878621,2.04500353696739,-0.00179857364040616,0
0.07,0.000784073081407321,0.000436875457530626,-0.0384351906922578,-0.0218555782268776,-0.000897046058149442,3.06452596450575e-05,0.0441740220213878,-0.00189366354860969,2.04499162933005,-0.00165688874504516,0
0.08,0.000772160268639093,0.000431492212795719,-0.0379321672268528,-0.0215862714861808,-0.000883989245055795,3.1305347687382e-05,0.0436035097233998,-0.00188424175795242,2.04498067059308,-0.00144338798091965,0
0.09,0.000767566913180551,0.000430458073913054,-0.037771087547387,-0.0215345299270084,-0.000879430182066356,3.24911445965076e-05,0.0434365584624458,-0.0019121774572772,2.04497106321558,-0.00128018417770015,0
0.1,0.000764776584718087,0.000430257367502316,-0.0376895432519765,-0.0215244954471927,-0.000876855781829201,3.35941169817619e-05,0.0433594126669068,-0.00194085238483152,2.04496255714427,-0.0011409191737224,0
0.11,0.000762576200963743,0.000430216600120253,-0.0376303774829698,-0.0215224436593492,-0.000874879283010839,3.45691401941704e-05,0.0433058227535505,-0.00196636879011317,2.04495500793302,-0.00101845047864019,0
0.12,0.000760681464589993,0.000430206726715626,-0.0375806689387668,-0.0215219571155259,-0.000873188833699644,3.54313277257029e-05,0.0432613627126989,-0.00198892237355651,2.0449483040103,-0.000909938270864074,0
0.13,0.000788822465595992,0.000446863006617487,-0.0389656035933448,-0.0223552197588517,-0.000905830083374019,3.74070710799244e-05,0.0448739529740386,-0.00209820359927558,2.04494199472441,-0.000930416990967565,0
0.14,0.000804738028502047,0.000456856161978511,-0.0398555340159894,-0.0228551557147489,-0.000924552324180497,3.90364843132437e-05,0.0458939566440989,-0.00213693191156778,2.04493618008964,-0.000908240554658327,0
0.15,0.000766029384438331,0.00043530437307891,-0.0379428000777841,-0.0217769798785642,-0.000880273623750798,3.75401434897209e-05,0.0436999472963427,-0.00205122808847598,2.04493090494311,-0.000670368005292756,0
0.16,0.00075684744953558,0.000431174672455075,-0.037528851083478,-0.0215703752999908,-0.000870218914793864,3.80617967290452e-05,0.0432373240494214,-0.00205659020556945,2.04492675043831,-0.000570312731850585,0
0.17,0.000754119775020342,0.000430382488402463,-0.0374201715269843,-0.0215307449399407,-0.000867430308326536,3.86054607116474e-05,0.0431225316872109,-0.0020711049377572,2.04492317476333,-0.000505400034087798,0
0.18,0.000752865885654926,0.000430229762728309,-0.0373794114702897,-0.0215231118480756,-0.000866244881611697,3.90447896878841e-05,0.0430827762606044,-0.0020830590891032,2.0449200234894,-0.000452904666427173,0
0.19,0.000752004210509875,0.000430199640554605,-0.0373552319166079,-0.0215216070864161,-0.000865464392486119,3.94138135242576e-05,0.0430605710183401,-0.00209288000136805,2.04491722984343,-0.000407389840810134,0
0.2,0.000751293062512508,0.000430193100792481,-0.0373363383319247,-0.0215212744773263,-0.000864828603762002,3.97348192891254e-05,0.0430436044351026,-0.00210131682494211,2.0449147496794,-0.000367203109815678,0
0.21,0.000750673184546056,0.000430191164190684,-0.0373201155517035,-0.0215211685136689,-0.000864276128784036,4.00180079256019e-05,0.0430291180768582,-0.002108723906543,2.04491254705248,-0.000331560955311519,0
0.22,0.000750125046059808,0.000430190185556515,-0.0373058195788993,-0.0215211223672426,-0.000863787926283062,4.0269080980135e-05,0.0430163737926705,-0.00211529386338297,2.04491059074015,-0.000299914823815242,0
0.23,0.000749638782332856,0.000430189458153139,-0.0372931472532238,-0.0215210846998912,-0.000863354896230226,4.04919379491111e-05,0.0430050783741824,-0.00212112063328687,2.04490885316181,-0.00027180923268257,0
0.24,0.000749206795712745,0.000430188839070997,-0.0372818840826481,-0.0215210661266041,-0.00086297021305404,4.06899420603627e-05,0.0429950457899417,-0.00212631265304374,2.0449073098532,-0.00024684646037836,0
0.25,0.000748823326716222,0.000430188294240436,-0.037271888142938,-0.0215210294813432,-0.000862628736332371,4.08657116597999e-05,0.0429861327616339,-0.00213090259648507,2.04490593909247,-0.000224674724535617,0
0.26,0.00075398413112467,0.000433340527426587,-0.0375256523473572,-0.0216787314086867,-0.000868659396268785,4.13150816546038e-05,0.0432839024996059,-0.00215540344003256,2.04490481506617,-0.000228926726991616,0
0.27,0.000741157420245075,0.000425946416329935,-0.0369199910618673,-0.021308834445744,-0.000853871669085852,4.05936436057503e-05,0.0425761680483895,-0.0021028741664173,2.04490349546973,-0.000156542972053818,0
0.28,0.000740355467581788,0.000425702187347228,-0.0367975625241415,-0.0212965985832583,-0.000853046630781665,4.07432988663354e-05,0.0424616550181989,-0.00214792272905782,2.04490253531442,-0.000138826942359482,0
0.29,0.000746047962626041,0.000429327549565193,-0.0371642566271316,-0.021477979668474,-0.000859766355146493,4.13705440166612e-05,0.0428707099548158,-0.00214191719184872,2.04490180552094,-0.000151182857096259,0
0.3,0.000735670742936616,0.000424005888465309,-0.0366680985368969,-0.0212117543546318,-0.000848104159282359,4.13735480002823e-05,0.0423077340089819,-0.00213157597520098,2.04490174773855,-0.000107797594452273,0
0.31,0.000744908544770094,0.000429002411387174,-0.0371135918113017,-0.0214617080487312,-0.000858604147472296,4.16020070535152e-05,0.0428182033360645,-0.00215059819034784,2.0449011696488,-0.000136958220927902,0
0.32,0.000746752051298153,0.000429959338136803,-0.0372057260451067,-0.0215095756780972,-0.00086068116897357,4.1612305191213e-05,0.0429220275259457,-0.00215115072862807,2.04490052217488,-0.000134780340034657,0
0.33,0.000747019010410002,0.000430142457697449,-0.0372221631734636,-0.0215187482642793,-0.000861002259589068,4.16538690935195e-05,0.0429408380406188,-0.00215183329807865,2.04489991822515,-0.000126798220850854,0
0.34,0.000746961244438512,0.000430177366809668,-0.0372226895695211,-0.0215204884908646,-0.000860966779879639,4.17117675496455e-05,0.0429420996929704,-0.00215316456253592,2.04489937558174,-0.000118405918161393,0
0.35,0.000746846315637423,0.000430183903406634,-0.0372201181988032,-0.0215208060101367,-0.000860867491463327,4.17704689104598e-05,0.0429399558569046,-0.00215464174885411,2.04489889226859,-0.000110671336578538,0
0.36,0.000746730366109784,0.000430185021738735,-0.0372171691332685,-0.0215208707098637,-0.000860764823441683,4.18247692667415e-05,0.042937360676915,-0.00215606412369746,2.04489846270326,-0.000103741077286748,0
0.37,0.000746624428191537,0.000430185117088884,-0.0372144059347308,-0.0215208829772187,-0.000860670597711199,4.1873547408406e-05,0.0429349070282033,-0.00215735293209295,2.04489808110261,-9.75726291526077e-05,0
0.38,0.000746529987805317,0.00043018502975692,-0.0372119328146958,-0.0215208686576193,-0.000860586519722519,4.19168771672226e-05,0.0429326994164035,-0.00215848382080579,2.044897742153,-9.20910316471264e-05,0
0.39,0.000746445703112768,0.000430184919229413,-0.0372097134093256,-0.0215208691749978,-0.000860511468260653,4.19555171559838e-05,0.0429307243901476,-0.00215951045116758,2.04489744109613,-8.72216921422113e-05,0
0.4,0.000746370848058216,0.000430184814740347,-0.0372077395367115,-0.0215208681882941,-0.00086044481052853,4.19898285165599e-05,0.0429289672006986,-0.00216042220203216,2.04489717369799,-8.28966318302348e-05,0
0.41,0.000746304521965885,0.000430184720718956,-0.0372059913912601,-0.0215208508202029,-0.000860385747062502,4.202022963377e-05,0.042927403426936,-0.00216121504090397,2.0448969361957,-7.90551004341625e-05,0
0.42,0.00074624549939804,0.000430184636973665,-0.0372044301385971,-0.0215208512079259,-0.000860333187363487,4.20472826824373e-05,0.042926014095638,-0.0021619372129008,2.04489672524712,-7.56430597038086e-05,0
0.43,0.000746192996088181,0.00043018456254361,-0.0372030364972977,-0.0215208515616507,-0.000860286433107221,4.20713474177779e-05,0.042924773924,-0.00216258182073119,2.04489653788316,-7.26124958094875e-05,0
0.44,0.000746146429956669,0.000430184496423906,-0.0372017990402913,-0.0215208504292363,-0.000860244965848779,4.20926909617945e-05,0.0429236720767403,-0.00216315290265099,2.04489637146731,-6.9920759320648e-05,0
0.45,0.000746105044309985,0.000430184437693207,-0.0372006956962094,-0.0215208507249986,-0.000860208111838323,4.21116599740753e-05,0.0429226902423732,-0.00216366322862915,2.04489622365726,-6.75299683630964e-05,0
0.46,0.00074606846233205,0.000430184385526504,-0.0371997215766253,-0.021520833209019,-0.000860175535358881,4.21284275446791e-05,0.0429218152834514,-0.00216409800197127,2.04489609237295,-6.54064762164886e-05,0
0.47,0.000746035807834457,0.000430184339191284,-0.0371988452639869,-0.0215208334600317,-0.000860146456451418,4.21433946274026e-05,0.0429210354867302,-0.00216450329990717,2.0448959757667,-6.35203979451395e-05,0
0.48,0.000746006820419481,0.000430184298035138,-0.0371980647750358,-0.0215208336918308,-0.000860120643073244,4.21566809371674e-05,0.0429203409641016,-0.00216486427391125,2.0448958721974,-6.1845189846775e-05,0
0.49,0.000745981092633498,0.000430184261479606,-0.0371973694981183,-0.0215208339065515,-0.000860097732386641,4.21684732327331e-05,0.0429197222721796,-0.00216518583310817,2.04489578020758,-6.03572758963116e-05,0
0.5,0.000745958158815224,0.000430184229010576,-0.0371967448859245,-0.0215208341066428,-0.000860077309802282,4.21789847636534e-05,0.0429191664664966,-0.00216547467667975,2.04489569850248,-5.90357159505948e-05,0
0.51,4.71044924536327,-0.0367412927508647,4.47816368791867,1.84869729321186,-0.468889109382277,4.68719799228058,1.4299105155443,4.62892942431163,0.091904619594806,28.3898161612026,702.217616817264
0.52,4.69013901994163,0.0339425473639143,5.49446224469333,-1.67512094622123,-1.87360153526854,4.29978760056121,-3.76202793042749,4.34077082941648,0.418171479825932,60.7817006048202,702.217616817264
0.53,4.72787618543374,0.0233991181198743,3.60847271998625,-1.13590222251741,-3.93664489265044,2.61843230439313,-3.63879430812997,1.03466188347977,0.988798362670727,95.6186362613371,702.217616817264
0.54,4.708829491745,0.0580910669659636,4.56180783679698,-2.86098146208044,-4.5786752659027,-1.1009916274884,-3.71873531139504,-3.89439511991451,1.81911290547831,129.973423687578,702.217616817264
0.55,4.67557488170906,0.0305080947538005,6.22556205466569,-1.46400331504581,-1.19080749552749,-4.52149408126448,-0.128089448826093,-6.39410053846965,2.89059928742373,163.074451117949,702.217616817264
0.56,4.43699872955364,0.00378224982846076,6.64523624351676,-0.120782094983261,3.88954142892259,-2.13505023457743,5.88606712102986,-3.0867404965997,-2.07195817387643,195.9546620877,702.217616817264
0.57,4.19835337022098,0.0726235079962277,6.55497207917384,-3.56402608128733,2.14524104169797,3.60962408959356,0.156122811463352,7.45959560127663,-0.51892989916272,227.52220888663,702.217616817264
0.58,3.95311798900151,0.0290279413644505,7.61702496579971,-1.38130261855218,-3.7496946030595,1.25210815832085,-7.67025495461563,1.0460665298295,1.2558583508656,257.016218726517,702.217616817264
0.59,3.73525267465963,0.00875952794420809,7.91682698379449,-0.364579322961343,0.360253262017611,-3.71784976297959,1.14482400877405,-7.84209446276962,-3.04265084862971,284.778143770707,702.217616817264
0.6,3.58167201405006,0.0424768201283518,5.54627272233518,-2.04604905702554,2.74086171614569,2.30604764682877,2.86560201070526,5.17066562161163,-0.859481528555217,311.012146714508,702.217616817264
0.61,3.39243611340796,0.0573476851993107,5.52696960846705,-2.78195302997603,-3.38305383569558,0.25856969145208,-5.68232275191664,-2.44905366559447,1.51141674549476,335.740886620239,702.217616817264
0.62,3.19586834246669,0.0213627132077545,6.41749932324835,-0.973454103701151,2.52629547685161,-1.95751423788831,5.69008774496004,-3.12326942650826,-2.22333180511299,359.190528214993,702.217616817264
0.63,3.03205142695038,0.0665991970229147,5.93574847673431,-3.25661994922311,-1.37740958505902,2.70194636210704,-5.67952423697902,3.68533416589316,0.493405833039371,381.807486166434,702.217616817264
0.64,2.80767763730339,0.0757658321335728,9.08299763695913,-3.70124104231982,0.559055070163567,-2.75249915619548,5.65336218209769,-8.01495647925711,-2.91423157714975,402.585926597322,702.217616817264
0.65,2.64189819346261,0.0560612394356268,9.69638114013127,-2.73490492054626,-0.237172148973813,2.63182793870329,-3.79301267692067,9.33341132554655,0.111091000092888,422.715965004738,702.217616817264
0.66,2.51993714478574,0.0861882616251253,8.54779232039132,-4.22044815410736,0.258518244780641,-2.50812279349086,5.34749332752154,-7.89184714031903,-3.00469373512218,441.29735729162,702.217616817264
0.67,2.36736822581005,0.0197306155237629,9.21863140178255,-0.913001705041837,-0.67349435371153,2.26963146111492,-3.56917090868103,8.54855286349483,0.29679909296551,459.238734963416,702.217616817264
0.68,2.32041929913451,0.0319787328292173,5.1150425632159,-1.53371428066113,1.25109307899284,-1.9545164289014,4.09692918071667,-3.42507097830197,-2.55842536870577,476.062197516266,702.217616817264
0.69,2.12589794837247,0.060837785167476,8.68189722145967,-2.95500444661676,-1.74317000824793,1.21840126614481,-8.87824956552709,2.29871165998085,0.989380201356991,491.785203483533,702.217616817264
0.7,2.06155929204348,0.0177089938641909,6.02076992300905,-0.799401260870539,2.05649230723297,-0.145532516524977,6.05875818551031,0.424455052041535,-1.63285601300206,506.771924043812,702.217616817264
0.71,1.92984676975724,0.0628363260708982,7.04203256203506,-3.06508922229162,-1.66434204779357,-0.978888403528645,-4.31153299771818,-6.35575941606962,2.13500830437023,520.982015182814,702.217616817264
0.72,1.79022495764991,0.073605719107212,8.76859014704294,-3.61104730191603,0.564444934703366,1.7005073115296,-1.05289311790106,9.42439663139079,-0.279392460468434,534.371505325821,702.217616817264
0.73,1.71301408285895,0.0378522012134646,7.65664662363833,-1.82460730496308,0.85293587123842,-1.48605196300955,5.51922285603669,-5.61173844739748,-2.59844631372028,547.023896246908,702.217616817264
0.74,1.60734955158431,0.0397817472743011,8.23105065973528,-1.92231547037569,-1.59215027853206,0.224081813105752,-8.39733775114226,-0.964474169698325,1.45571794598456,558.979521178184,702.217616817264
0.75,1.49271509214293,-0.00421707240660607,9.51346661504773,0.279576119564277,0.944778547901157,1.15568578144612,6.25803370155017,7.1708593649939,-0.688148865015456,570.22318130943,702.217616817264
0.76,1.41327954897517,0.0437598043255626,9.27335438291117,-2.1185641670485,0.49670647566529,-1.32384163745451,5.48432500068117,-7.77210363594459,-2.75169251386034,580.867715155489,702.217616817264
0.77,1.31623762118872,0.00860041133920797,10.1400448520423,-0.362205200294179,-1.3155170500805,0.044388438306021,-10.1461444482206,-0.0863425989440494,1.54360091863315,590.928582040951,702.217616817264
0.78,1.26885636754739,0.0196314199775959,8.71807209233753,-0.948865616107893,0.480409212311488,1.17455900781619,2.29148540171135,8.46488166594017,-0.372780963482135,600.453762326331,702.217616817264
0.79,1.19666436902447,0.0588361350694731,8.7206949338746,-2.90520841931956,0.916303303139705,-0.771916808689844,8.69776804228156,-2.97314432412168,-2.22174902035507,609.369757346037,702.217616817264
0.8,1.12034149497774,0.0245284466644984,9.14875616007943,-1.17475603613963,-0.23262806640205,1.09619838203985,-3.23818222639187,8.63677989123942,0.231001456169511,617.745775970138,702.217616817264
0.81,1.07610944805742,0.0254816942715785,8.16556964008018,-1.2141976219186,1.07491319953467,0.0567668425009426,8.04900847078713,1.83419356919302,-1.49435967208834,625.709362490674,702.217616817264
0.82,1.01083527426599,-0.0234588568149025,8.35703689466034,1.19749448186894,0.00191451478337335,-1.0111056345885,-1.37529547930576,-8.32962310296341,3.12028290447942,633.28717624273,702.217616817264
0.83,0.983591123781598,-0.0123568966642805,6.81399934771094,0.661684864830893,-0.982290590542505,0.0520517762307439,-6.75607492344964,1.10628459253774,1.50529325895586,640.336456620049,702.217616817264
0.84,0.844671192639983,0.0405599900661574,11.0640919545578,-1.97869408829704,0.090734273091195,0.84076264674201,-1.31703154349732,11.1622035901253,-0.0595211369330552,646.959985170522,702.217616817264
0.85,0.860653622778819,0.0530770763099718,7.66825507061109,-2.63451124558757,0.860307628210579,-0.0584176281152258,7.68445825183816,2.58686812706726,-1.57700278223829,653.256441021536,702.217616817264
0.86,0.755333902540093,0.00691473585857449,10.4869553533182,-0.30258198527976,0.0622733268361425,-0.752794228633031,1.26150557324584,-10.4152000522781,-3.04990338274268,659.126747811322,702.217616817264
0.87,0.721487759356213,0.0758088685802293,9.88829455348072,-3.78477150525989,-0.719634714920184,-0.0917466540970766,-8.75616596637755,-5.9525139304898,1.80229167859006,664.708087559664,702.217616817264
0.88,0.694131767522205,-0.00944598793819368,9.03818846626603,0.506733871040177,-0.285947690544738,0.632567826911675,-3.14598303194025,8.48813411360516,0.410943857121028,669.931634088328,702.217616817264
0.89,0.612287489972949,-0.0344839808995112,11.0519361911354,1.72758900766576,0.475283198889256,0.387544831173953,9.95930282052641,5.09334317333819,-0.942997285260605,674.915090313209,702.217616817264
0.9,0.615186441030427,-0.00208624366608554,8.92378557802279,0.132083668369725,0.475411205647335,-0.39043936172633,6.79277040044796,-5.78875335670605,-2.26176210779365,679.548351933612,702.217616817264
0.91,0.556617205622784,0.0374854902686343,9.99021210503308,-1.87632178703365,-0.254194441086224,-0.496601511976009,-2.22026367000414,-9.91944305834286,2.73573940753313,683.946191464149,702.217616817264
0.92,0.521427536995998,-0.0124920051254243,9.98287518319608,0.650056418574331,-0.52044961009291,0.034277250238372,-9.88447997498256,1.54189036405658,1.48107772774034,688.010989865017,702.217616817264
0.93,0.469942774840349,0.0643643579956209,10.8882451840782,-3.22598271485522,-0.0565158956340227,0.470951096978784,-5.87350038594653,9.71919960086389,0.255547841752687,691.894046209202,702.217616817264
0.94,0.498739572566679,0.00620333031572601,7.86059742044765,-0.280677727816068,0.407157267762974,0.288101721374222,6.19475302431399,4.84693787467851,-0.942555027480428,695.498943433468,702.217616817264
0.95,0.45441829731665,-0.0111627791092651,8.58584180889649,0.555377094413871,0.394569933451365,-0.225688201264025,7.05837396349286,-4.91980490221723,-2.11492207377304,698.910321104003,702.217616817264
0.96,0.42613041933635,-0.00162618076647517,8.57853769660891,0.112719943618506,-0.0500826960693575,-0.423180224375009,-1.15260986074234,-8.50150017977704,3.01997607487601,702.090775486193,702.217616817264
0.97,0.382340590369412,0.0132212707568198,9.43637882569735,-0.658055895929604,-0.366713583251046,-0.108996682993721,-8.73780178311349,-3.6234103967472,1.89427195806694,705.053727734274,702.217616817264
