t,iq,id,vq,vd,ia,ib,va,vb,theta_e,omega,r
0,0,0,0,0,0,0,0,0,0,0,0
0.01,0.00104853181592527,0.000589474097860642,-0.0515529796648966,-0.029520837393484,-0.000195608639472585,-0.001186859697361,0.0101233090475951,0.0585380915871763,-2.79278224631948,-0.00415482668745185,0
0.02,0.00115786523507666,0.000652981191091689,-0.0571260692766798,-0.0327012677285537,-0.000217962270970315,-0.00131130804426424,0.0112093679889437,0.0648622445753075,-2.79281192993062,-0.00416536270025914,0
0.03,0.00119284004539351,0.000673729349226589,-0.0589073209362511,-0.0337403463332266,-0.000225546751830301,-0.0013512613635572,0.0115790323415914,0.0668910266074975,-2.79284026303137,-0.00387379692813157,0
0.04,0.00116878136952473,0.000662030208321082,-0.0578029134056715,-0.0331544445928754,-0.000222805425461006,-0.00132464773765062,0.0114073952239304,0.0656526109812142,-2.79286446487992,-0.0033902859954393,0
0.05,0.00118822261212387,0.00067386656428232,-0.0588119841286021,-0.0337472126900904,-0.000227316638674407,-0.00134695815384217,0.0116211907343029,0.0668032317138183,-2.79288706247822,-0.00312099263621608,0
0.06,0.00118649537727104,0.000674055005462973,-0.0587838517242444,-0.0337566535483558,-0.000228111128151244,-0.00134539464243351,0.0116410270687253,0.0667797826524381,-2.79290729824198,-0.00279665609348277,0
0.07,0.00121855332059062,0.000693071366379007,-0.0603937603135928,-0.0347089958267444,-0.000235054685633759,-0.0013820164285487,0.011987233333396,0.0686179780606174,-2.79292506162691,-0.0026578986418907,0
0.08,0.00118354958212518,0.000674360490520304,-0.0587343990802374,-0.0337719433056145,-0.000229450365001996,-0.00134272268712639,0.0116745626668498,0.0667381328514068,-2.79294130897961,-0.00225134915597516,0
0.09,0.00118144709044938,0.000674052475568459,-0.0586712932202234,-0.0337565362536768,-0.000229898194005462,-0.00134063820165781,0.0116825882191673,0.0666733943974701,-2.7929555085561,-0.00201988961856659,0
0.1,0.00118011027300536,0.000674044685123862,-0.0586410779823101,-0.0337561479151738,-0.000230364446082965,-0.00133937624138156,0.0116933858988141,0.0666447167840023,-2.79296812182365,-0.00181659417152203,0
0.11,0.00117893224623884,0.000674042094387483,-0.0586147056630191,-0.0337560040164152,-0.000230779430751881,-0.00133826560912618,0.0117030062556641,0.0666197506127011,-2.79297932978486,-0.00163599113232688,0
0.12,0.00117788556326259,0.000674039861870045,-0.0585912731232455,-0.0337558940051993,-0.000231148192431803,-0.00133727882233576,0.0117115705629104,0.0665975733885475,-2.79298928908129,-0.0014755096212789,0
0.13,0.00123429564690513,0.000706158918251555,-0.0613649716632145,-0.035364411608502,-0.000242080232208188,-0.00140126490106945,0.0122765681496951,0.069753761404734,-2.7929991298058,-0.00156665813928285,0
0.14,0.00131231936428677,0.000752022211817056,-0.0653694483670426,-0.037661259713251,-0.000258546718738836,-0.00149025941204128,0.0130680708580175,0.0743018222323667,-2.79300767438603,-0.0017720589722076,0
0.15,0.00117763377954992,0.000675304808504666,-0.0586513153571839,-0.0338192552094612,-0.000232458047591627,-0.00133746818999049,0.0117523553219306,0.0666753399724185,-2.79301544927887,-0.0010648289193052,0
0.16,0.00117455619673165,0.000674053369174612,-0.0585179155417933,-0.0337565679491045,-0.000232340994627183,-0.00133414686822404,0.0117393983115112,0.0665284814672833,-2.79302140237798,-0.000958242599011248,0
0.17,0.00117395718423758,0.000674031815157439,-0.0585033105207312,-0.0337554920808645,-0.0002325323638465,-0.00133357529147455,0.0117437262551822,0.066514325382956,-2.79302667474649,-0.000873089761781724,0
0.18,0.00117346399428725,0.000674030431670014,-0.0584922315864511,-0.0337554171137119,-0.000232705757940676,-0.00133311019759325,0.0117477513584435,0.0665038320587911,-2.7930313594068,-0.000797598774600795,0
0.19,0.00117302624536408,0.000674029491695421,-0.0584824075626169,-0.0337553903827153,-0.00023285993355143,-0.00133269748230218,0.0117513583904407,0.0664945407547789,-2.79303552214937,-0.000730521340521021,0
0.2,0.00117263759639219,0.000674028661019982,-0.0584736913319149,-0.0337553355837519,-0.00023299682106167,-0.00133233105860518,0.0117545297774612,0.0664862864661769,-2.79303922112665,-0.000670916968919621,0
0.21,0.00117229204839985,0.000674027922854737,-0.0584659330500895,-0.0337553057413337,-0.000233118523396989,-0.00133200527085241,0.0117573699904274,0.0664789458702277,-2.79304250800559,-0.000617953038657841,0
0.22,0.00117198503388188,0.000674027266841142,-0.0584590377218552,-0.0337552787197024,-0.000233226652717926,-0.00133171581223264,0.0117598937384894,0.0664724215902318,-2.79304542869757,-0.000570889746354154,0
0.23,0.00117171236188354,0.000674026683843708,-0.0584529143119214,-0.0337552516170816,-0.00023332268673145,-0.00133145873138467,0.01176213211158,0.0664666265992118,-2.79304802399945,-0.000529069710125728,0
0.24,0.00117146984145,0.000674026165742903,-0.0584474585558933,-0.0337552215325473,-0.000233408097896029,-0.00133123007829959,0.0117641204130191,0.0664614614890629,-2.79305033016205,-0.000491908786104701,0
0.25,0.0011712545622047,0.000674025705319463,-0.0584426185154711,-0.0337551942927823,-0.000233483916666827,-0.0013310271077535,0.0117658840069988,0.0664568790586965,-2.79305237939795,-0.000458887909069632,0
0.26,0.00118256615930312,0.000680369064606874,-0.0589982075630667,-0.0340728627178412,-0.000235585022004848,-0.00134382457285538,0.0118748215831442,0.0670875329834988,-2.79305413925154,-0.000480506618121077,0
0.27,0.0011385514522375,0.000655626632688722,-0.0568605224566454,-0.0328337541470732,-0.000227364895240607,-0.00129400575551081,0.0114404144457667,0.0646551725907697,-2.79305607871627,-0.000258801506180103,0
0.28,0.00112755621844754,0.000648879997632746,-0.0561617390965716,-0.0324959009853286,-0.000224780968306332,-0.00128136715791176,0.0113616220499192,0.0638830029318789,-2.79305758826692,-0.000187369042741375,0
0.29,0.00116981893911776,0.000673614586602525,-0.0583895986104085,-0.0337345919809955,-0.000233595985809614,-0.00132953596303971,0.0117650359461752,0.0663999386384812,-2.7930585208571,-0.000356489717898509,0
0.3,0.00116613079046218,0.000671699583135597,-0.0582095026413442,-0.0336386870148891,-0.000233055444098501,-0.00132541559913279,0.0117363909360153,0.066197919828612,-2.79305832677032,-0.000343495638236198,0
0.31,0.0011704287441755,0.000673986232542774,-0.0584218521146114,-0.0337532130081212,-0.000233738265366993,-0.00133023580997982,0.0117715840690253,0.0664366013683647,-2.79305945299723,-0.000344547125387903,0
0.32,0.00117040115591167,0.000674023266369062,-0.0584233364579388,-0.0337550815434016,-0.000233783867618864,-0.00133022228691575,0.0117729019091152,0.0664386224534913,-2.7930604852794,-0.000328264850121669,0
0.33,0.00117030625014166,0.00067402366731977,-0.0584212266456504,-0.0337550830999234,-0.0002338178774162,-0.0013301330096755,0.0117736848913312,0.0664366292187136,-2.79306140313364,-0.000313481201300977,0
0.34,0.00117022056846494,0.000674023493881786,-0.0584192829294589,-0.0337550834307552,-0.000233848061019296,-0.00133005222962128,0.0117744032005608,0.0664347928775279,-2.79306221874142,-0.00030033880181666,0
0.35,0.00117014420001395,0.000674023331128948,-0.0584175409756264,-0.0337550837343792,-0.000233874953066275,-0.0013299802276954,0.0117750465396142,0.0664331472274486,-2.79306294348339,-0.000288660473027166,0
0.36,0.00117007676822582,0.000674023186363279,-0.0584160112940264,-0.0337550561158332,-0.000233898702524003,-0.00132991665011559,0.0117755857747625,0.066431692501005,-2.79306358748278,-0.000278283208716993,0
0.37,0.00117001658150454,0.000674023057720231,-0.0584146354546506,-0.0337550563735586,-0.000233919897339826,-0.00132985990426158,0.0117760939026501,0.066430392731624,-2.7930641597349,-0.000269062061001473,0
0.38,0.0011699630304566,0.000674022943406347,-0.0584134062063883,-0.0337550566117203,-0.000233938754598529,-0.0013298094149051,0.011776547712538,0.0664292314833408,-2.79306466823313,-0.000260868228568817,0
0.39,0.00116991553300537,0.000674022841825944,-0.0584123150627781,-0.0337550568320333,-0.000233955481051432,-0.0013297646327664,0.0117769505765127,0.066428200697034,-2.7930651200798,-0.000253587259645456,0
0.4,0.00116987327424019,0.000674022751560863,-0.0584113396302003,-0.0337550541265233,-0.000233970362077117,-0.00132972478997447,0.0117773078287901,0.0664272782581452,-2.79306552158662,-0.000247117453375449,0
0.41,0.00116983599402008,0.000674022671351028,-0.0584104832042495,-0.0337550264264444,-0.000233983492802645,-0.00132968964029054,0.0117775979748083,0.0664264596614005,-2.79306587836224,-0.000241368439251631,0
0.42,0.0011698026992381,0.000674022600076165,-0.0584097105588845,-0.033755026605655,-0.000233995217969635,-0.00132965824877129,0.011777883070866,0.0664257297971964,-2.79306619538963,-0.000236259914819569,0
0.43,0.00116977301333108,0.000674022536741089,-0.0584090157590486,-0.0337550267741398,-0.000234005671139228,-0.00132963026012018,0.0117781392249961,0.0664250735103868,-2.79306647709708,-0.000231720524012183,0
0.44,0.0011697467034684,0.000674022480461578,-0.0584083985876129,-0.0337550269326039,-0.000234014936233559,-0.00132960545428423,0.0117783667735626,0.0664244905508331,-2.79306672742015,-0.000227686860441902,0
0.45,0.00116972330398875,0.000674022430451511,-0.0584078459279083,-0.0337550270824191,-0.00023402317619511,-0.00132958339251424,0.0117785704296506,0.0664239685498155,-2.79306694985424,-0.000224102581735865,0
0.46,0.0011697025820615,0.000674022386012782,-0.0584073551717486,-0.0337550272242776,-0.000234030474018283,-0.00132956385501355,0.0117787512911693,0.0664235050196185,-2.79306714750739,-0.000220917622553976,0
0.47,0.00116968395561004,0.00067402234652463,-0.0584069052133284,-0.0337550273599153,-0.000234037031579165,-0.00132954629384453,0.0117789167510755,0.0664230800914757,-2.7930673231402,-0.000218087495257742,0
0.48,0.00116966754104969,0.000674022311435436,-0.0584065090055053,-0.03375502748898,-0.000234042811865512,-0.00132953081766166,0.0117790625484598,0.06642270591049,-2.79306747920559,-0.00021557266852065,0
0.49,0.00116965298913449,0.000674022280255393,-0.058406155404115,-0.0337550276125168,-0.000234047936589514,-0.0013295170975396,0.0117791926350492,0.0664223719772021,-2.79306761788406,-0.000213338015143364,0
0.5,0.00116963995061847,0.000674022252549018,-0.0584058326050849,-0.0337550277315519,-0.000234052527189337,-0.00132950480462852,0.0117793111716894,0.0664220671747842,-2.79306774111199,-0.000211352321400861,0
0.51,1.72853154978556,-0.0771523207625895,1.94336619123022,3.86534439990174,-0.237660545548035,1.71385275455418,3.66773999354256,2.2946116932581,0.0931866071692098,28.1992803913027,462.570550659027
0.52,1.67337942995261,0.0129380685248121,-0.1587009270003,-0.644801584155517,-0.654585610185186,1.5400921365763,-0.528251113954522,-0.402375232545476,0.409627740993639,57.8403719336647,462.570550659027
0.53,1.5742425323741,0.0290608557387429,0.102456396992942,-1.45012931754106,-1.25275546106142,0.953775570484319,-0.939635834037671,-1.10925959552722,0.938533774202272,86.3733878158591,462.570550659027
0.54,1.35746415851086,0.00349485309960401,6.38693773027334,-0.167780191755401,-1.35077777161024,-0.134612656772867,-6.33673760794457,-0.816627363731824,1.67269858140344,113.71887346952,462.570550659027
0.55,1.26275484826464,0.0013581689465535,6.56389470511233,-0.061067266006205,-0.645471219472831,-1.08531956412432,-3.2966162884847,-5.67633367212292,2.60613332631446,140.921949164444,462.570550659027
0.56,1.18596148805172,0.0634543457785921,6.0047064921897,-3.17710799198253,0.611351753649468,-1.01822401191966,5.99417046835878,-3.19694160821244,-2.54741823826642,166.661490484954,462.570550659027
0.57,1.10646941825646,0.000512099972555635,6.25129596313147,-0.0215944997792585,1.04765247772341,0.35594820087082,5.91110550006847,2.03420729232416,-1.24281203007747,188.722355955753,462.570550659027
0.58,1.10383910353985,0.0343973888500008,3.02246293278302,-1.71251665323556,-0.201873192276479,1.0857675446906,-2.3178691682097,2.58756217059983,0.214979180777095,208.886370544142,462.570550659027
0.59,0.994539667547207,0.0159867444927701,5.10147541951663,-0.792050013253308,-0.967847227152875,-0.229426396076994,-4.74930770178058,-2.02397406930885,1.81962149408518,229.134233209035,462.570550659027
0.6,0.907292357954563,0.0292889341850944,6.15007824474534,-1.46597712940162,0.351770186830155,-0.836836304259039,3.89731724582823,-4.9782998750365,-2.71139055388778,248.355956168205,462.570550659027
0.61,0.911500644123514,-0.0607985070328971,3.14991706243492,3.05525863663893,0.631550332292192,0.660056104037097,4.38635102011972,-0.128481770185966,-0.829934626014705,264.808423345546,462.570550659027
0.62,0.831454158546058,0.0362798839095272,4.30912368586178,-1.81318264387306,-0.752253901596247,0.35601448744854,-4.67505912686335,0.000632794744186205,1.17237217924243,281.619835910081,462.570550659027
0.63,0.812026973241499,0.0607439746462183,2.59410765647174,-3.03923033074142,0.064309395583964,-0.811752386733292,3.4005989465653,-2.09815212539102,-2.9878685530387,297.033540276281,462.570550659027
0.64,0.67952076061837,0.0734365327226203,6.8665152603672,-3.66434156486322,0.521269614060431,0.442062640252462,2.07280926618224,7.50199258003292,-0.75978223423446,310.840812897543,462.570550659027
0.65,0.632181087550669,-0.0301946633836487,6.8400434957758,1.50921274837271,-0.632208348978939,-0.0296183833948219,-6.83866492446947,1.51544719300491,1.56988477228127,324.603101523764,462.570550659027
0.66,0.598859706301487,0.0407906338124127,6.50123154936933,-2.03184958288465,0.423480470808877,-0.425395245015519,6.22841267062429,-2.75704551837478,-2.29044135179264,336.242025927463,462.570550659027
0.67,0.492437112624062,-0.0327497495165189,9.74128405142315,1.63449298328391,-0.138569534783272,0.473672186235233,-0.512925392554705,9.86413147847229,0.218193995366888,348.253957783336,462.570550659027
0.68,0.521892587499718,0.032277484031567,6.4569790672952,-1.6077960223945,-0.200515766419166,-0.482915247512328,-0.583155170877213,-6.62853805690177,2.80980367544458,358.59357655512,462.570550659027
0.69,0.55168290577917,0.0101304813922722,3.15144963320337,-0.512790049824654,0.40543109906342,0.374275672592295,1.92127862927905,2.550152319861,-0.806973987403629,369.036722051212,462.570550659027
0.7,0.517500546695964,0.0749575221071663,3.21828559290898,-3.7453923352992,-0.510471331859534,-0.113333425345841,-1.68181801137453,-4.64293162554218,1.93311481222535,378.24842465603,462.570550659027
0.71,0.415212190190323,0.031118624868263,6.72542666430464,-1.56576125004037,0.415895194981502,-0.0200179541321044,6.68120885585356,1.74482673453032,-1.5440849513428,387.335719279979,462.570550659027
0.72,0.3868908389104,0.0358118003791787,6.69861690591436,-1.78433647125311,-0.366625507827126,0.128657464959065,-6.93140119657019,-0.104893026608288,1.32559918214728,395.381395817514,462.570550659027
0.73,0.376198677859005,-0.0830432741139733,5.84843186540747,4.15139452491472,0.373932056434546,-0.0927170306311813,3.39554764251418,-6.31731651836615,-2.03110512221539,403.089822988771,462.570550659027
0.74,0.344141111164091,0.0487912289811157,6.20586733654087,-2.43171337052429,-0.251412886905798,0.240010934576813,-6.4615106613984,1.63551193446159,0.949434041576358,410.007632501447,462.570550659027
0.75,0.29271981025339,0.0266761064017632,7.55443453908903,-1.34276900643903,0.199850872638718,-0.21553684295981,6.51567575529764,-4.05197226815054,-2.30305795039149,416.764700517288,462.570550659027
0.76,0.327614944668584,0.0372727537041722,4.71369020621215,-1.85218556645528,-0.202448116227746,0.260260581676765,-4.6202033538963,2.0744126159882,0.774381671448538,422.749902589214,462.570550659027
0.77,0.254733245597003,-0.00639094166409544,7.26463477404804,0.317659777379571,0.179040043836397,-0.181313356515173,4.74155271545656,-5.51303038092657,-2.3875864705883,428.713042208626,462.570550659027
0.78,0.304051611802329,0.0694208945025382,3.81280818567006,-3.46919614146194,-0.162990032148311,0.26589639458522,-5.14616596224806,0.299673184730445,0.774383022240994,434.072035188382,462.570550659027
0.79,0.229572403210525,0.00678119286125398,6.58944955933177,-0.334481020540513,0.16539020642281,-0.159359820883112,5.1029439024937,-4.18242591997538,-2.30809753305938,439.034253264582,462.570550659027
0.8,0.183564932756741,0.0762528960937312,8.04179767709759,-3.82988938861981,-0.100978050714486,0.171213381412117,-8.73011272427777,1.7673976433837,0.926581584775654,443.615778028432,462.570550659027
0.81,0.129240902108043,0.0402035822089956,9.9364476053487,-2.00201055892252,0.0923497388592635,-0.0989498081491928,9.62322551926787,-3.18348361032202,-2.08909613868738,447.836917386525,462.570550659027
0.82,0.108817121120913,-0.013616103047148,10.1648898503559,0.675576622211727,-0.106596337121303,0.0257640257637583,-9.26841866065069,4.22821534139991,1.20916595856283,451.989928708134,462.570550659027
0.83,0.186554301748782,-0.0117016048783594,5.57604003469328,0.596689942995296,0.185703607918531,-0.0212980060978772,5.38412181129597,-1.56827729617597,-1.74762843647367,455.606348486627,462.570550659027
0.84,0.177091303770893,0.0509548669858253,5.36873290422503,-2.5466136872975,-0.178723397244271,0.0448962762184627,-5.27892151486595,-2.72791530460988,1.6048477885608,459.040658770383,462.570550659027
0.85,0.22316566394109,-0.0291402903982492,2.43300298599743,1.44912381018307,0.20740270115678,0.0873852941840519,2.73057301466584,-0.750622647333936,-1.30187933615889,462.274096140677,462.570550659027
0.86,0.154926991539594,0.00698325513637692,5.24831279448092,-0.336180689786619,-0.137449871478863,-0.0718238915003443,-4.36841413877394,-2.92826954993175,2.09736168669199,465.175389625072,462.570550659027
0.87,0.084338961078616,-0.0311333161318669,8.22833723854617,1.55640390460499,0.036035922187899,0.08236356015408,6.8263223399994,4.85069584038624,-0.766057216126425,467.822311430278,462.570550659027
0.88,0.118625925225976,0.00482150569082388,5.99080218045646,-0.253968699656054,-0.0578799883404533,-0.103659365242869,-2.47920170690574,-5.45964923435953,2.67297046295047,470.400483366793,462.570550659027
0.89,0.156983896840215,0.0523142646719364,3.57011986090194,-2.60936531610375,0.0756603443717808,0.147160587267271,-2.03392312065913,3.92653790422809,-0.153219210454456,472.820268963462,462.570550659027
0.9,0.10847279941134,-0.0394558583699473,5.53392432914363,1.96842454674452,0.0581292084232844,-0.0997201489164778,-0.952225423328121,-5.79588478319589,-2.96268634200807,474.911393748342,462.570550659027
0.91,0.051717566863719,-0.00597112019052091,7.92672299064591,0.304843977172087,-0.0311383108591505,0.0417224950772578,-3.71755778857909,7.00754103159072,0.526194040100213,476.922313944267,462.570550659027
0.92,0.0890759936709566,0.023874897399776,5.66626400572113,-1.18950185630628,0.0539983818023872,-0.0747577296140121,5.14493912072508,-2.65538394450211,-2.25417551743222,478.701404703403,462.570550659027
0.93,0.030677216904229,-0.031105380912204,8.23203274333756,1.54600647187227,-0.0387023987024724,-0.0202672320102495,-7.36831527301763,3.98301759170955,1.26087083034013,480.285394761535,462.570550659027
0.94,0.0283613266395697,0.000321959313199675,7.98786677454429,-0.00354764672878205,0.0283059799233811,0.00180000198135092,7.96523165960626,0.600926619872982,-1.49593939596458,481.874220984739,462.570550659027
0.95,0.0876925952078715,0.0756640712420159,4.70701376681,-3.78665195116209,-0.112456878060891,0.0277217154592999,-2.48056525366946,-5.50831259302396,2.04100260948093,483.162033650466,462.570550659027
0.96,0.0114454705409357,0.0601978958212935,8.20661772746451,-3.02871971848446,0.0535424148399064,-0.0297992494926652,2.93535480311983,8.24047388429043,-0.695749334405609,484.433958753072,462.570550659027
0.97,0.0549469758177873,0.0270785914154142,5.72918887588207,-1.34315551605851,-0.0412852690840145,-0.0452542464441069,-0.302352459814529,-5.87675547440025,2.8599071588067,485.675823405176,462.570550659027
