t,iq,id,vq,vd,ia,ib,va,vb,theta_e,omega,r
0,0,0,0,0,0,0,0,0,0,0,0
0.01,0.000519545336170557,0.000279215398903444,-0.0245560329531019,-0.0139650922595948,0.000457042266387327,-0.000372828327862734,-0.021455938846894,0.0183756699037387,-1.76192669811842,-0.00458648993513995,0
0.02,0.000707874598074645,0.000369672685078699,-0.0336985285620246,-0.0184893467919303,0.000624739230143509,-0.000497438674624653,-0.0295715563124928,0.0245554439848868,-1.76196446005812,-0.00549326380138238,0
0.03,0.00078801668030457,0.000409455146230446,-0.0377112564057038,-0.0204790921981831,0.000695840677435511,-0.000551751354179507,-0.0331320441408903,0.0272726919830903,-1.76200393787678,-0.00529228983973101,0
0.04,0.000785925905615748,0.00041082951847323,-0.0378638512145532,-0.0205478221795347,0.000693507633083847,-0.000552727405889485,-0.033267846394921,0.0273703237350884,-1.76203864111942,-0.00440171056011532,0
0.05,0.000796408160847665,0.000421935656046125,-0.0385631590941507,-0.0211033050423817,0.000701671115902211,-0.000565644147513593,-0.0338479950332071,0.0280495981301796,-1.76206803934928,-0.00376786597427744,0
0.06,0.000792453478122043,0.000425302582827962,-0.038556062021061,-0.021271707637479,0.000697134512855905,-0.000568214988303739,-0.0338083194764535,0.0282144111858521,-1.76209261237053,-0.00311290519510658,0
0.07,0.000791850651673303,0.000430739150891551,-0.0386688729502662,-0.0215436220249905,0.000695497792227627,-0.000573451385622797,-0.0338668150086702,0.0285034774434278,-1.76211219000116,-0.00261616573333539,0
0.08,0.000779287295366293,0.000427969209725973,-0.0382031522336753,-0.0214050857657472,0.000683680983961019,-0.000568354330820905,-0.0334354675615187,0.028279463328907,-1.76212869191643,-0.00207882325613911,0
0.09,0.000770500037448928,0.000427126880759589,-0.0378882127036823,-0.021362957572457,0.000675206880372063,-0.000565865132937559,-0.0331339189658016,0.0281786449654656,-1.7621417360379,-0.00166533000703549,0
0.1,0.000763961465304055,0.00042686985391389,-0.0376585457595577,-0.0213500915166271,0.000668830678002254,-0.000564376219212885,-0.0329105992064002,0.0281226765505836,-1.76215209335958,-0.00134132201959528,0
0.11,0.000758925535970408,0.000426790722970337,-0.0374835537167008,-0.0213461362006177,0.000663897075040432,-0.00056334622046684,-0.0327393220305817,0.0280857815078374,-1.76216033511069,-0.00108514214364156,0
0.12,0.000754977890104808,0.000426765801583474,-0.0373471206481298,-0.0213448904272999,0.000660022537275023,-0.000562575252066186,-0.0326054321854451,0.0280588232123114,-1.76216690021101,-0.000881705035993249,0
0.13,0.000777038341509806,0.000440522849721936,-0.0384158231398796,-0.0220329491792558,0.00067906018860181,-0.000580281160782874,-0.0335235824063685,0.028937790857175,-1.7621727949636,-0.000951034530487365,0
0.14,0.000788877122819544,0.000448395212849643,-0.0391164844275725,-0.0224266945397972,0.000689182272174481,-0.000590265345022845,-0.0341364000042576,0.0294578033244709,-1.76217814133388,-0.000933515683342366,0
0.15,0.000760985165283994,0.000433319650807182,-0.0377405362826605,-0.0216726807167047,0.000664664541390627,-0.000570162598717202,-0.0329288677740414,0.0284559806626083,-1.76218274253586,-0.000543661904857812,0
0.16,0.000749852430821767,0.000428744470417904,-0.0372416093051942,-0.0214438627003665,0.000654603874689664,-0.000563555016093833,-0.0324825018201289,0.0281365205144172,-1.76218538897374,-0.000367752586286902,0
0.17,0.000745197391923934,0.000427355853203431,-0.0370373908991343,-0.0213743944908894,0.000650297012677109,-0.000561307378804781,-0.0322951784293343,0.0280295293339881,-1.76218711052926,-0.000278778720441371,0
0.18,0.000743089773830444,0.000426934295056588,-0.0369481112806541,-0.0213533226119165,0.000648307382460493,-0.000560493391677431,-0.0322115030986527,0.0279918985047759,-1.76218833550299,-0.000227328769976204,0
0.19,0.000742019353282551,0.000426806241071756,-0.0369048954550174,-0.0213469105993556,0.000647280350854636,-0.000560164650313777,-0.0321702703511631,0.0279774124288813,-1.76218925607952,-0.000193714476213919,0
0.2,0.000741397401171502,0.000426767282043654,-0.0368810462043695,-0.0213449694737808,0.000646676767399335,-0.000560008551713928,-0.0321472059024264,0.0279709928967935,-1.76218996874435,-0.000169728583668639,0
0.21,0.000740989917316242,0.000426755380792558,-0.0368660776914881,-0.0213443628856961,0.000646278674489699,-0.000559919715226718,-0.0321326104379308,0.0279675679635413,-1.76219052885978,-0.000151674214099494,0
0.22,0.000740698238426932,0.000426751706736109,-0.0368556562145609,-0.0213441852356733,0.000645992772268334,-0.000559860909323034,-0.0321224006484714,0.027965425349165,-1.76219097237025,-0.000137685798940632,0
0.23,0.000740478446206953,0.000426750542069493,-0.0368479237472081,-0.0213441309532737,0.000645777017723971,-0.000559818182835467,-0.0321148098470309,0.027963912442997,-1.76219132481909,-0.000126687126274992,0
0.24,0.000740307955939327,0.000426750149015123,-0.0368419671567964,-0.0213441142919254,0.000645609558350347,-0.000559785545971101,-0.032108957348981,0.0279627719808061,-1.76219160538878,-0.00011797641101817,0
0.25,0.000740173961894574,0.000426749998155165,-0.0368372982777602,-0.0213441091164869,0.000645477914640091,-0.000559760052615425,-0.0321043684588278,0.0279618859206778,-1.76219182892333,-0.000111053510496759,0
0.26,0.000743776444861478,0.000428950700394647,-0.0370045820995473,-0.0214541782590259,0.000648595999005871,-0.000562605841929689,-0.0322476603437543,0.0281017661986938,-1.76219179100968,-0.0001474581470468,0
0.27,0.00073657341649328,0.000424417003225402,-0.0366740263494617,-0.0212274113640672,0.000642386585040994,-0.000556785116423547,-0.0319662605094436,0.0278162792433267,-1.76219242999608,-6.05481718106521e-05,0
0.28,0.000735556086766429,0.00042401063274065,-0.0365188626728468,-0.021207088681685,0.000641465059725803,-0.000556192727934518,-0.0318177923574724,0.0277668152795358,-1.76219256691883,-4.71042280012655e-05,0
0.29,0.000738231006893139,0.000425918579951982,-0.0367510237509199,-0.0213025147105122,0.000643728265124401,-0.000558574593914456,-0.0320275651421925,0.0279046582275233,-1.76219242569453,-7.69692011691561e-05,0
0.3,0.00072585150283674,0.000419861762449296,-0.0361651546567395,-0.0209995829862706,0.00063272775996312,-0.000550272555657136,-0.0315100587199911,0.0274957650631123,-1.76219104844133,1.03371042891689e-05,0
0.31,0.000735173049162181,0.000424659804859462,-0.0365968818622962,-0.0212395563070241,0.000640966517156956,-0.00055675603810051,-0.0318882601555696,0.0278134747633737,-1.76219078425829,-8.80253378160228e-05,0
0.32,0.000738560741315975,0.000426115792523362,-0.0367556098499621,-0.0213123797002392,0.000644015289745349,-0.000558829977564939,-0.0320302321925249,0.0279151680923247,-1.76219094588635,-0.000117312701227148,0
0.33,0.000739724407901011,0.000426557585551265,-0.0368116499191946,-0.0213344784415785,0.000645073514888175,-0.000559485240042704,-0.0320810376038645,0.0279475323849342,-1.76219121624222,-0.000121987965021312,0
0.34,0.000740067960817355,0.000426691612541153,-0.0368295278335238,-0.0213411858378473,0.000645385147979484,-0.000559682347058425,-0.0320973055968216,0.0279575268367944,-1.76219148557664,-0.00011861744979439,0
0.35,0.000740119885480046,0.000426732250461638,-0.0368335924673691,-0.0213432211707691,0.000645428262345748,-0.000559732272280596,-0.0321009022549326,0.0279603057639908,-1.76219172076041,-0.000113232274880372,0
0.36,0.000740077074642875,0.000426744554552629,-0.0368329629595404,-0.0213438206847256,0.000645383783342534,-0.000559736333866897,-0.0321001647368276,0.0279607808487017,-1.76219191604512,-0.000107913221725669,0
0.37,0.000740010601812356,0.000426748265803843,-0.0368309678338896,-0.0213440087345971,0.0006453177295324,-0.000559727434661211,-0.0320981658340414,0.0279605910261916,-1.76219207470185,-0.000103282533135196,0
0.38,0.000739945525741364,0.000426749373928624,-0.0368288147065081,-0.0213440643780666,0.000645253559541223,-0.000559716225521931,-0.032096037870086,0.0279602401617612,-1.76219220232415,-9.94422793378758e-05,0
0.39,0.000739888947924741,0.000426749695733507,-0.0368268735352079,-0.021344082157273,0.00064519789644626,-0.00055970584461049,-0.032094125906109,0.0279598916277842,-1.76219230450644,-9.63240748565386e-05,0
0.4,0.000739842090765269,0.000426749781837938,-0.0368252367249214,-0.0213440868005744,0.000645151832845536,-0.00055969706819198,-0.0320925158188216,0.0279595874364348,-1.7621923861407,-9.38164725476055e-05,0
0.41,0.000739804022957634,0.000426749798751693,-0.0368238900240754,-0.0213440884968684,0.000645114420489037,-0.000559689885200728,-0.0320911915649985,0.0279593350100806,-1.76219245129106,-9.18089791443079e-05,0
0.42,0.000739773463938229,0.000426749796534315,-0.0368227979494165,-0.0213440901615385,0.000645084390824964,-0.000559684103314745,-0.0320901176623766,0.0279591305669948,-1.76219250325996,-9.02052736688735e-05,0
0.43,0.000739749016720733,0.000426749790000092,-0.0368219144584291,-0.0213440903451894,0.000645060368070584,-0.000559679473046007,-0.032089249110595,0.027958964010951,-1.76219254470495,-8.89254323725474e-05,0
0.44,0.000739729458946736,0.000426749783343063,-0.0368211978771753,-0.0213440905081432,0.00064504115019949,-0.000559675767356691,-0.0320885446594132,0.0279588289162968,-1.76219257775344,-8.79045426926234e-05,0
0.45,0.000739713859293667,0.000426749777596124,-0.0368206172565576,-0.0213440906543354,0.000645025821747615,-0.000559672811192652,-0.032087973876606,0.0279587194540209,-1.76219260410492,-8.70903971109007e-05,0
0.46,0.000739701402854276,0.000426749772880867,-0.0368201443926325,-0.0213440907872075,0.00064501358190575,-0.000559670450529211,-0.0320875090346577,0.0279586303058219,-1.76219262511602,-8.64411979495309e-05,0
0.47,0.000739691507551957,0.000426749769080632,-0.0368197601260086,-0.0213440909092375,0.000645003858642839,-0.000559668575221719,-0.0320871312933118,0.0279585578641743,-1.76219264186868,-8.59235538715914e-05,0
0.48,0.000739683591310101,0.000426749766038385,-0.0368194434059516,-0.0213440910228917,0.000644996080057956,-0.000559667074944646,-0.0320868199616242,0.027958498154727,-1.76219265522613,-8.55108165036328e-05,0
0.49,0.000739677188464958,0.000426749763608845,-0.0368191772600976,-0.0213440896749468,0.000644989788633061,-0.000559665861416175,-0.0320865586343605,0.0279584465442271,-1.76219266587648,-8.51817291460699e-05,0
0.5,0.000739672182606137,0.000426749761670584,-0.036818960982399,-0.0213440897762713,0.000644984869799553,-0.000559664912726249,-0.0320863460492947,0.027958405773682,-1.76219267436826,-8.49193398205884e-05,0
0.51,3.82187545861277,0.00413716883823223,0.421594103016303,-0.200110231789538,-0.499922940235351,3.78904027309542,-0.253961724341875,0.391521564073149,0.132263997322227,40.4400370507403,639.111810026026
0.52,3.55834827360503,-0.0221506876167904,2.70170761861825,1.1219304236727,-1.99491611660943,2.9466324468657,-0.567734171634232,2.86977870966057,0.588908154995044,83.8514087189235,639.111810026026
0.53,3.36316690626543,-0.0176389276251203,1.64353154878682,0.903181672854555,-3.29224621133692,0.687253705049621,-1.41787347051483,1.2274232797402,1.35975773039148,126.587176346329,639.111810026026
0.54,3.1471621898951,0.0264345455192678,1.31443322414603,-1.30270568092863,-2.03456920241813,-2.40121985567207,0.159672461509469,-1.84371404965579,2.4470636708963,169.246966146686,639.111810026026
0.55,2.90746991719424,-0.0181179216459575,3.965409792834,0.933117426238273,1.84606551301288,-2.24627507223375,1.77402580080805,-3.66715358477399,-2.45991071330334,205.420632803822,639.111810026026
0.56,2.74576449392528,-0.0144874717161401,2.97269448850788,0.74880387560853,2.00850295673693,1.87225757194797,2.69281804027005,1.46504292364683,-0.825767907137596,241.022683508739,639.111810026026
0.57,2.59391493699329,0.0693051340336373,1.99907248979088,-3.43528948106934,-2.23478111348595,1.31869301839617,-3.41436531249826,-2.03460417550762,1.06441707103163,273.521362977005,639.111810026026
0.58,2.40743630256154,-0.00489317584055982,3.15101562804965,0.269843480840107,0.106180274018525,-2.40509859329516,-0.137027446113605,-3.15957884398801,-3.0995058327753,305.021854551217,639.111810026026
0.59,2.25615761712596,-0.0100352484650422,3.41032133424304,0.540044412329239,1.54711804969933,1.64218562891708,2.74098507449059,2.09974769710579,-0.76004663997291,332.958810796508,639.111810026026
0.6,2.06687127093279,0.0534848899971809,5.62021402835852,-2.64305255955813,-2.03120377083476,-0.386042388102648,-4.93188697074858,-3.77478787018622,1.78448373543163,360.247582084356,639.111810026026
0.61,1.95450768248768,-0.00650765089755123,4.47721789418204,0.351867419109579,1.91930499400673,-0.36933855797141,4.32607168498585,-1.2059828062532,-1.76423547085772,385.819774092424,639.111810026026
0.62,1.8458529049808,-0.00160091069708057,3.70500938487093,0.103344391092459,-1.68464786786205,0.754411738408782,-3.33780232184418,1.61147456245625,1.14889306199703,409.359632620224,639.111810026026
0.63,1.69203429460189,0.00403792869816622,5.57698739942212,-0.172634555641559,1.4967611226318,-0.78911501110744,5.01968776921675,-2.43625241768795,-2.05359176918296,431.163580437472,639.111810026026
0.64,1.54388555018321,0.0076215300695443,7.4685289424171,-0.343793431035495,-1.42650469014078,0.59052946479533,-7.04456228623626,2.50424852646114,1.18324211446787,451.568314717456,639.111810026026
0.65,1.51198951810892,0.0365500330018235,3.84403634607921,-1.78994543297895,1.49042362424574,-0.257071250967252,4.06430971974784,1.20909329043851,-1.71742901477148,470.78319744726,639.111810026026
0.66,1.32277713865901,-0.0113280960942833,8.42027783575645,0.60247099202566,-1.28529158197298,-0.312878944049346,-8.33559489965963,-1.33488119184143,1.8010186059878,488.657102946147,639.111810026026
0.67,1.26882861526971,0.0410120867416198,6.52431548998879,-2.01578392629459,0.969845560150375,0.819150557371938,3.49596204341785,5.86586113383167,-0.837122629076664,505.410091573136,639.111810026026
0.68,1.19223500076802,-0.01002843538384,6.04418175948656,0.536300903447211,-0.245003040302196,-1.16683262587881,-1.81564887255094,-5.78991977253164,2.92621531055278,521.030903187281,639.111810026026
0.69,1.09947909988915,-0.00103435874268587,6.59833580461004,0.0652581593566369,-0.544099635785071,0.955411402135026,-3.20318635959961,5.76904594915281,0.516744631903932,535.700417553409,639.111810026026
0.7,1.02729372657247,0.0338817075240473,6.36915193187902,-1.68359830079776,0.995453300120293,-0.256033392430586,6.5827356122321,0.261134887096086,-1.78957297040255,549.274128308488,639.111810026026
0.71,0.966832550942869,-0.00450434545180317,5.78919401745456,0.238619771560537,-0.728880796500895,-0.635230867624414,-4.53795058103582,-3.60259785310377,2.28299052406499,561.899395617402,639.111810026026
0.72,0.890887580504481,0.0336410071191653,6.24986396029494,-1.66414303467939,-0.110157877912423,0.88469070323529,-2.64817530140829,5.90062192782054,0.161621405292335,573.527137138374,639.111810026026
0.73,0.818908053313872,-0.0260449127118084,6.74177588228646,1.32848999518232,0.788598785275021,-0.222262666957908,6.02670025197286,-3.30080471811787,-1.87730885037824,584.322374955136,639.111810026026
0.74,0.80960961631747,0.0330652719068804,4.27351258346428,-1.62418477142445,-0.545522830395948,-0.599137617377503,-1.50122307196688,-4.31824214941091,2.44381763573144,594.457379373249,639.111810026026
0.75,0.697751329092575,-0.0581117541624985,7.04836964994804,2.91037940861487,-0.416346792337522,0.562929162268712,-1.23095887488222,7.52559388173098,0.553724279677512,604.002232762564,639.111810026026
0.76,0.724362064356018,-0.026626417381098,3.07394695024913,1.34312419583732,0.683862965137003,0.240293177794731,3.33400587653284,-0.370860180707009,-1.26963790511142,612.793095461633,639.111810026026
0.77,0.65109512831128,0.0692798237271293,4.31451843872168,-3.44362487972614,0.00289880311313086,-0.654764199561075,3.89814694181761,-3.90871744826052,-3.03115923154335,620.802654396873,639.111810026026
0.78,0.546246882519532,-0.00672267844149901,7.28875061880905,0.359830606657759,-0.546255072276388,0.00602055479611698,-7.27837436748467,0.529745425104487,1.54746885300582,628.27422429245,639.111810026026
0.79,0.500682151097009,0.0132486705267695,7.38056308138254,-0.662529782614893,0.0652961356315933,0.496582881671766,0.109363122155013,7.40943296201748,-0.104285790730873,635.307250533783,639.111810026026
0.8,0.527414586056223,0.0678545512876448,4.0397049167725,-3.37906875684658,0.513309618193525,-0.13886548017892,4.46125032287939,2.79902965948936,-1.70704959169016,641.634386512613,639.111810026026
0.81,0.436502925620634,0.0408120571637403,6.70675312327089,-2.01997461442371,-0.0941030021665452,-0.428188104772368,1.18114097741823,-6.90403801342979,3.01848827182432,647.561619749766,639.111810026026
0.82,0.436635344821313,-0.00159492647089936,4.89080625725143,0.0778135677007875,-0.435733395012184,0.0280958468252882,-4.87419816896928,0.41016217146956,1.50275327178866,653.134284862215,639.111810026026
0.83,0.348329151303498,-0.0180135612221765,7.67070991878165,0.912996766011575,-0.026831052439439,0.347761097106494,0.718402673818276,7.69137512744591,0.0253329785126996,658.035363925272,639.111810026026
0.84,0.30814473927777,-0.0487343797439234,8.13739446944383,2.45113144039174,0.297061660652018,0.0953026226515031,8.41659313288469,-1.17736745533849,-1.41720686517374,662.655037904684,639.111810026026
0.85,0.328219175781479,-0.0305463324320629,5.66299837591316,1.52628473523041,0.130526120208088,-0.302694297467176,0.299338089263333,-5.85743052941378,-2.82726976850989,666.901192037902,639.111810026026
0.86,0.325847034797258,0.0117518768837453,4.4238551533888,-0.571488631797797,-0.290897779656108,-0.147285024654928,-3.5958557893684,-2.63949139352727,2.07553074309885,670.762639904481,639.111810026026
0.87,0.294528927605887,-0.00418709197048052,4.70907922319338,0.200893869242085,-0.197890734014795,0.218183588582938,-2.96304842969619,3.66553263254954,0.722449317644558,674.329525524048,639.111810026026
0.88,0.264541112554901,-0.0232128193662487,5.00129485367214,1.16593444116798,0.131542755905672,0.230688834977889,3.80613718013996,3.44756045638439,-0.605755816977081,677.583472585802,639.111810026026
0.89,0.156499069474428,-0.0110968766080865,9.29030338308495,0.569325296092393,0.151229230010539,-0.041771035505914,8.5675984549342,-3.63732387306099,-1.91107568065975,680.506363674957,639.111810026026
0.9,0.217826634523074,0.0235600028021463,5.15962456552066,-1.18462437597157,-0.0353437592972382,-0.216227507774624,0.902937525130096,-5.21629795880011,3.08730973508289,683.248292203153,639.111810026026
0.91,0.19254592114057,-0.0254296919025485,5.44129839162974,1.28520305077294,-0.180218739276404,-0.0724003245279521,-5.59003482941426,-0.104812567967495,1.82148737400771,685.662038964476,639.111810026026
0.92,0.149207573062659,-0.0128859605241797,6.69164120371543,0.631754298846125,-0.0988626025922792,-0.112495038319743,-5.2703419335758,-4.17141119964996,2.33445575722768,687.862357782196,639.111810026026
0.93,0.147241362023471,-0.0144962819393171,5.95578035806207,0.730135557119438,-0.137827695862205,0.0537930026481758,-4.9784944660364,3.34947913217757,1.10055085508119,689.73656855016,639.111810026026
0.94,0.155905875707918,-0.0202745370781403,4.72178216622052,1.01276936079444,-0.00145865813478497,0.157211867396935,1.5709224119332,4.5665228981237,-0.120039697099714,691.530621954949,639.111810026026
0.95,0.140149350923277,0.00235871931144338,4.75621083274425,-0.120876106524416,0.136615266735301,0.0313635619126492,4.58802898652995,1.25942150902833,-1.32830239203498,693.09928061269,639.111810026026
0.96,0.104152198619618,0.0385010311582141,5.84672984676326,-1.91275562307314,0.0287518172845463,-0.107253638075276,4.93926676183311,-3.66695075370271,-2.5255957239155,694.510708742998,639.111810026026
0.97,0.0727603464641292,-0.0327786299211022,6.75397061227417,1.62846599515289,-0.0117882942245343,-0.0789274522353313,-5.02301964140201,-4.79971813869544,2.57006180315204,695.750661916008,639.111810026026
