t,iq,id,vq,vd,ia,ib,va,vb,theta_e,omega,r
0,0,0,0,0,0,0,0,0,0,0,0
0.01,0.000577447402352844,0.000295229061801527,-0.0280040791979659,-0.0147686493149592,-4.76289285024384e-05,-0.000646789909155954,0.00272549616257461,0.0315422434995037,-2.74247941282398,-0.0027343763936939,0
0.02,0.000732628228209151,0.000366659004057631,-0.0358072976427955,-0.0183418817730357,-5.31579742600454e-05,-0.00081753114668371,0.00298636478994443,0.0401206781697063,-2.74249967214065,-0.00267430356789125,0
0.03,0.000774589836004641,0.000394929321679049,-0.0380693765432866,-0.019756090575562,-6.29160407419164e-05,-0.000867179424906364,0.00341116915686638,0.0427544672544004,-2.74251692632796,-0.00209486483180928,0
0.04,0.000741237629304536,0.000390170813575835,-0.03664708358205,-0.0195180442691444,-7.15008490613267e-05,-0.000834598176038594,0.00374497150968777,0.041351396295091,-2.74252870802999,-0.00133606389300284,0
0.05,0.000738351717467253,0.000399952829502297,-0.0366251765068414,-0.0200073873848884,-8.16421728108597e-05,-0.000835739241709074,0.0042047040880524,0.0415213146186172,-2.74253659360998,-0.000942029096603029,0
0.06,0.000727055193204823,0.00040204356780646,-0.0361617931400328,-0.0201119771604117,-8.79622145119382e-05,-0.000826142199139353,0.0044813384881905,0.0411349548894576,-2.74254183027482,-0.000625421776520261,0
0.07,0.000726683184568429,0.00040830850852221,-0.0361886992984799,-0.0204253687041987,-9.38819764246804e-05,-0.000828233338720883,0.00475977803380989,0.0412814989636655,-2.74254486638306,-0.000478038806010083,0
0.08,0.000712797177767387,0.000403829212632192,-0.0355579134297993,-0.0202013066750395,-9.51517562866397e-05,-0.000813697728203696,0.00479849928423936,0.0406132047920286,-2.74254715107328,-0.000287446847272813,0
0.09,0.000705889724797723,0.000402870873371114,-0.0352458923879626,-0.0201533579788504,-9.69535400465704e-05,-0.00080696050415014,0.00487560078046993,0.0403070624714455,-2.74254840703701,-0.000186924197118666,0
0.1,0.000702294594879936,0.000402665720956749,-0.0350842463521267,-0.0201430918279051,-9.81619164611021e-05,-0.0008035680549822,0.00492897512470511,0.0401541242552265,-2.74254911201145,-0.000132152924297194,0
0.11,0.00070035517178211,0.000402621736238021,-0.0349973516627287,-0.0201408993678696,-9.88752473124407e-05,-0.00080176387708737,0.00496073282302726,0.0400732027745461,-2.74254951336288,-0.00010159978679497,0
0.12,0.000699280890754457,0.000402612266735939,-0.0349493384686496,-0.0201404305275335,-9.92841042455932e-05,-0.000800770296742298,0.00497896494499797,0.0400287785138032,-2.74254974400719,-8.42778246891534e-05,0
0.13,0.000727458373718711,0.000417665155244582,-0.0363061688719613,-0.0208934367457499,-0.000102206836402679,-0.000832582506416937,0.00514565578833735,0.0415715747081582,-2.74255032516208,-0.000221509517416976,0
0.14,0.000742413821925392,0.000426505188519013,-0.0371135712952329,-0.0213356495129095,-0.00010454218394005,-0.000849797558596488,0.00523944926920667,0.0424873544219861,-2.74255100302897,-0.000276679080915025,0
0.15,0.00070901298550242,0.000407719780913495,-0.0354421387412414,-0.0203959170023363,-0.000100210557881056,-0.000811722044451406,0.00502298249050364,0.0405821176852526,-2.74255158619254,-5.31706293332549e-05,0
0.16,0.000698934118095046,0.000403702160686433,-0.0349557761110181,-0.0201949492917942,-0.000100424356083271,-0.000800874075423505,0.00502676177805192,0.0400558850413829,-2.74255130904762,-7.39727759644751e-06,0
0.17,0.000696495874743109,0.000402843011960112,-0.034833384738493,-0.0201519641960782,-0.000100579741038188,-0.000798293624872424,0.00503469172291485,0.0399264102137308,-2.74255092119408,-1.16660541404346e-05,0
0.18,0.0006963326924341,0.000402659351853387,-0.0348210125453532,-0.0201427871023321,-0.00010047366576361,-0.00079807193577743,0.00503103033431561,0.039911445986192,-2.7425506119706,-2.5500044330145e-05,0
0.19,0.000696698758563915,0.000402620131484497,-0.0348354141741854,-0.0201408206127366,-0.000100295128626703,-0.000798394024047554,0.0050236143768217,0.0399239531388672,-2.74255040109162,-3.77293414073797e-05,0
0.2,0.000697081415332119,0.000402611780778247,-0.0348517388318367,-0.0201404007522196,-0.000100138650831009,-0.000798743385720725,0.00501687942366766,0.0399388327685092,-2.74255026683427,-4.6390796724082e-05,0
0.21,0.000697366574579121,0.000402610017614822,-0.0348641608359011,-0.0201403114065899,-0.000100026165615033,-0.000799005464196821,0.00501196740485955,0.0399502445183834,-2.74255018435174,-5.20058894568461e-05,0
0.22,0.000697555807666747,0.000402609654190875,-0.0348724764564906,-0.0201402921266693,-9.99522671404758e-05,-0.000799179693655177,0.005008716735208,0.0399578995672009,-2.74255013468197,-5.54893913254239e-05,0
0.23,0.000697674551290773,0.000402609584569911,-0.0348777152783302,-0.0201402875625004,-9.99060431572227e-05,-0.000799289083903318,0.00500667587601117,0.0399627251674488,-2.74255010512077,-5.75988600018988e-05,0
0.24,0.00069774701982853,0.000402609574459134,-0.0348809182082183,-0.0201402874723187,-9.98778632195046e-05,-0.000799355856652383,0.00500543064023156,0.039965676506496,-2.74255008765131,-5.88584887988506e-05,0
0.25,0.000697790442743523,0.00040260957510483,-0.0348828371705189,-0.0201402874503505,-9.98609842181946e-05,-0.000799395869254568,0.00500468462262612,0.0399674447453891,-2.74255007737209,-5.96043790701157e-05,0
0.26,0.000702716512443354,0.000405371457093734,-0.035116813831507,-0.0202784459203285,-0.000100491823209783,-0.000805008017695986,0.00504107530578304,0.0402367188322039,-2.74254996015178,-9.40610299829009e-05,0
0.27,0.000692788492137433,0.000399075847103313,-0.0346464567809364,-0.0199635179896531,-9.85484889305623e-05,-0.000793413903274191,0.00493365371813192,0.0396809536047971,-2.74255027938876,-2.06483265411434e-05,0
0.28,0.000691812046136277,0.000398810493613289,-0.0345200071306657,-0.0199502434652521,-9.86833467536764e-05,-0.000792411076442544,0.0049705513295931,0.0395592811626289,-2.74255025271403,-1.62054427435326e-05,0
0.29,0.0006959178058431,0.000401797053048774,-0.0347930846697107,-0.0200996408506867,-9.98398803230789e-05,-0.000797354665519195,0.00500210327525031,0.0398689511522937,-2.74255006937955,-4.90192550134706e-05,0
0.3,0.000684293127856964,0.000396607682905195,-0.0342239778249002,-0.0198400466084117,-9.95741455015008e-05,-0.000784627127060581,0.00498398886567522,0.0392436996544673,-2.74254919574042,-2.27198456136778e-05,0
0.31,0.000695230043291802,0.000401326179543724,-0.0347474974309418,-0.0200760867025614,-9.96725373058687e-05,-0.000796538072404384,0.00499807774368479,0.0398177982046993,-2.74254920918994,-8.61305746221339e-05,0
0.32,0.000698258285657466,0.00040233527272617,-0.0348957500269274,-0.0201265697855963,-9.94259469014486e-05,-0.000799720442562084,0.00498700200314828,0.0399740164644094,-2.74254943717679,-9.29623697685252e-05,0
0.33,0.000698798288183499,0.000402551028593567,-0.0349247302689484,-0.0201373676395482,-9.94151116230864e-05,-0.000800301826669724,0.00498570015916986,0.0400049141197925,-2.74254965087429,-8.59050762993382e-05,0
0.34,0.000698664296298503,0.000402597129116571,-0.0349205846875273,-0.0201396771209524,-9.95097744062442e-05,-0.000800196258484633,0.00498944507459507,0.0400019907917416,-2.74254980516437,-7.77416290724594e-05,0
0.35,0.000698421821114822,0.000402606960533528,-0.0349104620803129,-0.0201401529048025,-9.96131246029427e-05,-0.000799976643587942,0.00499382051644011,0.0399928478398247,-2.74254990607448,-7.14946663865825e-05,0
0.36,0.000698220015254582,0.000402609045778792,-0.034901725154035,-0.0201402596747031,-9.96935052581524e-05,-0.000799791496863002,0.00499731602718168,0.0399848385143262,-2.7425499689695,-6.73045406167334e-05,0
0.37,0.000698080084058433,0.000402609481239669,-0.0348955847261085,-0.0201402819088987,-9.9748305408962e-05,-0.000799662724972938,0.00499972382107754,0.0399791889670098,-2.74255000715671,-6.4658823151864e-05,0
0.38,0.000697990269641849,0.00040260956810765,-0.0348916161886027,-0.0201402865652112,-9.97832998816632e-05,-0.000799579998443718,0.00500127094574263,0.0399755339189968,-2.74255002999505,-6.30407597504259e-05,0
0.39,0.000697934914157751,0.000402609582981947,-0.034889159603817,-0.0201402882305869,-9.98048320285015e-05,-0.000799528996480457,0.0050022274938858,0.0399732709190922,-2.74255004353148,-6.20689465341643e-05,0
0.4,0.000697901444752762,0.000402609583982882,-0.0348876682345135,-0.0201402883894074,-9.98178434108048e-05,-0.000799498156245327,0.00500280741036793,0.0399718967433965,-2.74255005151095,-6.1491476642976e-05,0
0.41,0.000697881537732752,0.000402609582917508,-0.0348867774386027,-0.0201402885163577,-9.9825580777886e-05,-0.000799479812370267,0.00500315382131603,0.0399710759601612,-2.74255005619902,-6.11505397659036e-05,0
0.42,0.00069786977978526,0.000402609581939516,-0.0348862480138516,-0.0201402886241493,-9.98301504640663e-05,-0.000799468977550324,0.00500335973125869,0.0399705881586401,-2.74255005894769,-6.0950044805861e-05,0
0.43,0.000697862794865958,0.000402609581291399,-0.0348859300270731,-0.0201402887207128,-9.98328650485614e-05,-0.000799462540999863,0.00500348343398576,0.039970295184466,-2.7425500605572,-6.08324266998541e-05,0
0.44,0.000697858720329699,0.000402609580896191,-0.034885741553801,-0.02014028881043,-9.98344485425876e-05,-0.000799458786338489,0.00500355678300589,0.0399701215490442,-2.74255006149884,-6.07635316614596e-05,0
0.45,0.000697856333815604,0.000402609580661434,-0.0348856280977541,-0.0201402888961716,-9.98353760140252e-05,-0.000799456587178484,0.00500360096582171,0.0399700170374106,-2.74255006204961,-6.07232142372048e-05,0
0.46,0.000697854995039405,0.000402609580523466,-0.0348855615275689,-0.0201402889794466,-9.98358963075266e-05,-0.00079945535349962,0.00500362692036054,0.0399699557281623,-2.74255006237163,-6.06996343049278e-05,0
0.47,0.000697854121924492,0.000402609580442619,-0.0348855150239733,-0.0201402890616271,-9.98362356203405e-05,-0.000799454548932174,0.0050036450719425,0.0399699129091844,-2.74255006255981,-6.06858484712933e-05,0
0.48,0.000697853656263205,0.00040260958039513,-0.0348854870083289,-0.0201402891428497,-9.98364165909056e-05,-0.000799454119826869,0.00500365603627885,0.039969887125641,-2.74255006266988,-6.06777905319173e-05,0
0.49,0.000697853365224901,0.000402609580367667,-0.0348854666230074,-0.0201402892236618,-9.98365296960774e-05,-0.000799453851637349,0.00500366403375578,0.0399698683730008,-2.74255006273432,-6.06730812721503e-05,0
0.5,0.000697853248809579,0.000402609580351532,-0.0348854543312357,-0.0201402893040634,-9.98365749429448e-05,-0.000799453744358348,0.00500366888514791,0.039969857078002,-2.74255006277204,-6.06703293106243e-05,0
0.51,4.52569866563096,0.00922166689060439,4.52612454514289,-0.447070992350044,-0.536690669284123,4.49377308914652,-0.989703737071782,4.43916235152218,0.120904456895928,37.0742237397448,762.361107463948
0.52,4.2701408373857,0.04519324745901,6.04996621721416,-2.22949722331804,-2.16418683367106,3.68136395235377,-5.03100352701078,4.03258634246318,0.542040515478374,77.8088678735792,762.361107463948
0.53,4.04250746586018,-0.0104768247189508,5.65952225644149,0.55590057072735,-3.86046408180286,1.19949716485763,-5.23395040542418,2.22373127181581,1.26694845450203,119.805471364864,762.361107463948
0.54,3.77557760048997,0.0622783933517146,8.84883795671592,-3.06068531471318,-2.90520690472294,-2.41218524503203,-4.72011373142239,-8.08642406397013,2.28023369466635,156.043476483519,762.361107463948
0.55,3.58214275398936,0.0387976330943232,8.33348416784225,-1.89060205493653,1.4182565769272,-3.28965047509533,5.10983811585712,-6.84915242461003,-2.72371357215726,192.32906959775,762.361107463948
0.56,3.40701770123928,0.0230579558107569,7.74331193608175,-1.10515985727529,3.17449201039515,1.23729614960255,6.78717593899342,3.88773723684453,-1.19237922555667,225.984402601873,762.361107463948
0.57,3.15334016775369,0.00383714883839725,11.6295656774322,-0.143359516228057,-1.72075367975329,2.64245637823893,-6.47805257534816,9.65930559758968,0.578431497386219,257.513081083499,762.361107463948
0.58,3.01186538187042,0.0263535156456117,10.3294158195478,-1.26638989377191,-1.63971587194167,-2.52653110916903,-4.47901166881853,-9.39356316882786,2.5746712016948,287.330875025193,762.361107463948
0.59,2.84702283113968,0.0269396406742029,10.649100589053,-1.28512611773998,2.84169270507052,0.176202483578584,10.5303101793511,2.04143577438037,-1.49940733173483,315.444020591865,762.361107463948
0.6,2.70186717733577,0.0276550346508284,10.5242363108042,-1.29670028221695,-2.11706208825502,1.67895775985556,-9.10768283562986,5.43057040402979,0.910536465536137,341.800237895216,762.361107463948
0.61,2.53288279458592,0.0385391343349657,11.9467979012853,-1.87735141564408,0.876380391114709,-2.37674944536741,6.05451905987533,-10.4686783972755,-2.77311533968147,367.172209470816,762.361107463948
0.62,2.37801888333066,0.0747213940184884,12.9538127188714,-3.66228996302481,0.0600683578556671,2.37843412534083,-3.74203239558237,12.9310024854718,0.0061613096067681,390.840352247562,762.361107463948
0.63,2.20098936536701,0.0109717503014111,15.5664403621061,-0.504397937579311,-0.420871546480188,-2.16040313532607,-2.40479920425124,-15.3878336231476,2.95417577728247,413.373629617566,762.361107463948
0.64,2.12576810593365,0.0608407631310909,13.3793853787266,-2.94840956152698,0.52540774031731,2.06071306713908,0.0565774768762499,13.7002872613715,-0.221032430297909,434.324495298758,762.361107463948
0.65,2.03552768600075,-0.00342339031150885,12.2210379647507,0.241529949755165,-0.207561080573534,-2.02492051150358,-1.50684129462613,-12.1301910523007,3.03776426504362,454.468642375568,762.361107463948
0.66,1.84049573857341,-0.00496751820206109,16.6639318123716,0.293458375639289,-0.290722049365183,1.81739647021691,-2.29788179308598,16.5073462594872,0.155923323874603,473.423641243268,762.361107463948
0.67,1.77680553103263,0.0323950883004949,14.8533248773711,-1.58449724708961,0.90141119684848,-1.53151728395416,9.11690165577448,-11.8327509750566,-2.5913868279249,491.275817226628,762.361107463948
0.68,1.61622898196382,-0.0153448694767593,18.123411550402,0.79725244188117,-1.4265887637967,0.759786868910009,-15.5331436882944,9.37097139255745,1.07192396416996,508.182954519603,762.361107463948
0.69,1.56052810100238,0.00446076165865808,16.4216796348802,-0.195054807089195,1.54519658367236,0.218255286808681,16.2258134829372,2.53625417206975,-1.42761850531823,524.095499956856,762.361107463948
0.7,1.43368299604299,0.0229465115345637,18.4937158836921,-1.12200590043907,-0.910512875774217,-1.10767313706877,-10.6354231751705,-15.171163380321,2.46958121898675,539.160724622977,762.361107463948
0.71,1.36428329117011,-0.0146630179302231,17.9355905101227,0.769048934803212,-0.273380304163218,1.33669260189334,-2.64967450882342,17.7554517883442,0.190990496813524,553.357816545307,762.361107463948
0.72,1.27955436560496,0.0529928164019765,18.3827629977562,-2.5937352896335,1.14923016189821,-0.565099679802006,17.8650555015212,-5.04908210588132,-1.98640677701234,566.712271409459,762.361107463948
0.73,1.20317238281489,0.0590902804826156,18.6258732947754,-2.87314254497698,-0.997561511140615,-0.675267706548171,-13.1682150773933,-13.4824410160882,2.21493535503902,579.385516759606,762.361107463948
0.74,1.08700210599149,-0.00909537421425333,21.0339479827806,0.464897346053836,-0.249914672562164,1.05792200123647,-4.21101383070044,20.6133563449123,0.223611644856715,591.461670552352,762.361107463948
0.75,1.0437262109881,0.00131849004962403,19.9685453307653,-0.0393367526418819,1.03712251691157,-0.117230656547698,19.8493741278396,-2.17869152015396,-1.68208985539679,602.766679959998,762.361107463948
0.76,1.00973960218881,0.0453791828397933,18.6484080726339,-2.19360675512199,-0.40360432794225,-0.926680571140838,-4.6229242492487,-18.1990001270757,2.77574169116543,613.382277798613,762.361107463948
0.77,0.953487259831425,0.0309782218670007,18.6076233740803,-1.54785722417358,-0.799644409516812,0.520256113101412,-16.7199338843398,8.31163765580241,1.02647084259774,623.507815497546,762.361107463948
0.78,0.917946934129375,0.0686184892562803,17.6444327292489,-3.37549329564641,-0.830362764940635,-0.397281700491574,-13.6248089810118,-11.7083107900706,2.09166389094338,633.03683428231,762.361107463948
0.79,0.785484323676927,-0.0413334227749339,21.7325807983779,2.06034561598528,-0.400775939750674,0.676810697830239,-8.24973057958339,20.2111859518342,0.482057079254005,641.997746457569,762.361107463948
0.8,0.79350825414711,0.0713728975732195,18.8974045167651,-3.51739881880006,0.728313939785046,0.322967869953617,14.8111486477147,12.2520964596289,-1.06370148397669,650.444952666059,762.361107463948
0.81,0.693106546100463,-0.028809707005002,21.6278824001156,1.42960610365655,0.411077841448801,-0.558785908675963,10.8959919235351,-18.737300518674,-2.54887300987773,658.517724703196,762.361107463948
0.82,0.656919819682641,0.0567501699454003,21.2684681417357,-2.77501354880179,-0.525217554927599,-0.398636113863985,-13.9100918690836,-16.326597363986,2.30620208059356,666.024400664388,762.361107463948
0.83,0.606746857164239,-0.0112617859910387,21.7267922726285,0.56694879281289,-0.493748935010387,0.352818034797682,-17.1018594747053,13.4127303670451,0.931800013795422,673.179512831678,762.361107463948
0.84,0.532766071797816,-0.00775115641109239,23.4960909793173,0.40241077587526,0.196269931002174,0.49535631808728,9.3437701730586,21.5620542781516,-0.391791120728533,679.910108047534,762.361107463948
0.85,0.573310781212759,0.0545080568439233,19.6331524739975,-2.67575680005041,0.565377225601056,-0.109567207171386,19.7997198867767,0.769053265663811,-1.66742736210299,686.257127605572,762.361107463948
0.86,0.516057034228577,-0.0186278922012159,20.752823727293,0.928961138607421,0.142797113656173,-0.4962568339843,4.11415070731337,-20.3621321430407,-2.89749431485485,692.292176662003,762.361107463948
0.87,0.456977413162856,0.0246949568761416,22.0813738037703,-1.26212930326108,-0.384445498988198,-0.248273750815196,-17.1351679643062,-13.9844934936879,2.19819847852347,697.935978280223,762.361107463948
0.88,0.446252173882365,0.0621517441226108,21.0625865884277,-3.05038786772752,-0.356434586818268,0.275605201895592,-19.795621836149,7.81477933525781,1.05097902504754,703.261617935614,762.361107463948
0.89,0.444174212979201,0.0535086947004772,19.7076335454302,-2.65049301209457,0.0793228771119039,0.440297391601326,-1.4965867124077,19.8286701868878,-0.0583554210755527,708.284042068138,762.361107463948
0.9,0.381878719006534,0.0289164279996636,21.4391041192123,-1.46267309154138,0.357967113416419,0.136114148973014,18.7851709248074,10.4351306332463,-1.13186055624963,713.031200968933,762.361107463948
0.91,0.364312147137047,0.0172386610666423,21.0131346097382,-0.896677275373486,0.290767099888461,-0.220170401301877,17.840134607275,-11.139365038343,-2.17160981531787,717.50928128983,762.361107463948
0.92,0.296104978291325,0.0532623996923002,23.1735156501177,-2.61158239169966,-0.0643923764893839,-0.293885459388412,1.7357136946138,-23.2555259700832,3.10386778189229,721.750643259455,762.361107463948
0.93,0.303847292919375,0.0538633454637386,21.6131133781182,-2.64751884166514,-0.286556700585327,-0.114497575295854,-16.9660107355019,-13.6488279949305,2.12637471804596,725.74325813589,762.361107463948
0.94,0.266104623126309,0.00221180570584102,22.3862594407275,-0.0890670237269566,0.185223407750487,-0.19107289644262,15.7780170475941,-15.8810176855297,-2.36342654053917,729.513758658168,762.361107463948
0.95,0.233402288574013,0.0300950910576213,22.999241056127,-1.51308310867767,-0.0633905254622803,-0.226636237391485,-1.8144928010727,-22.9774264339255,2.99709397069929,732.967783065508,762.361107463948
0.96,0.257598955176719,0.0213314880519132,20.8118940811039,-1.09523447265747,-0.233218361556153,-0.111451558641904,-17.4210663742418,-11.4385715969017,2.0992163379537,736.287842843354,762.361107463948
0.97,0.229265027493706,-0.00807907662317475,21.2831880973141,0.362178134739898,-0.218441524243972,0.0700787043026839,-19.9015885299034,7.55195620838427,1.22513235482922,739.455099875757,762.361107463948
