t,iq,id,vq,vd,ia,ib,va,vb,theta_e,omega,r
0,0,0,0,0,0,0,0,0,0,0,0
0.01,0.000494333857344902,0.00027580026530671,-0.0241014122288136,-0.0138030381312222,0.000536639580517657,-0.000180138028973827,-0.0262295991424826,0.00913291092148914,-1.38574964655994,-0.00221226774225774,0
0.02,0.000559748529567734,0.000311684517744859,-0.0273913436734122,-0.0155989374166992,0.000607536563693783,-0.000203383821210624,-0.029793626678822,0.0102933165737806,-1.38576605952563,-0.00228299996199068,0
0.03,0.000584117049980752,0.000325904491366865,-0.0286209629234504,-0.0163106089902028,0.000634101868596734,-0.00021288796540303,-0.0311330159291188,0.0107671167660634,-1.3857820279759,-0.00216180621540794,0
0.04,0.000568907583978905,0.000318591058614091,-0.0279317172499313,-0.0159445913102897,0.000617803673377064,-0.00020850593012998,-0.0303880530104459,0.0105345647663587,-1.38579601514614,-0.00187879901796368,0
0.05,0.00058139661405482,0.000326436981438055,-0.0285772356844931,-0.0163372621697184,0.000631520069867995,-0.000213928789644408,-0.0310946478495205,0.0108021946697645,-1.38580889771138,-0.00174633593449379,0
0.06,0.000580955980683819,0.000327044527644549,-0.0285939955207288,-0.0163676641472477,0.00063119620042953,-0.000214614377705384,-0.0311165874305181,0.0108293580675626,-1.38582055797606,-0.00156961947575851,0
0.07,0.000593149017095388,0.000334830062954252,-0.0292165060982877,-0.0167573192945108,0.000644610917088886,-0.000220031118501449,-0.0318000312630285,0.0110981976104175,-1.38583079293858,-0.00147536661067191,0
0.08,0.000579398914934308,0.000327693427889749,-0.0285829825781306,-0.0164001427852687,0.000629780798020833,-0.000215550995714308,-0.0311115218887797,0.0108639211246632,-1.38584025965589,-0.00126710153864372,0
0.09,0.000577119686108528,0.000327138156827804,-0.0284998846218017,-0.016372349296563,0.000627436541411796,-0.000215429552865669,-0.0310246399721386,0.0108521407816087,-1.38584854713884,-0.00113198944901879,0
0.1,0.000575956505351092,0.000327094007604596,-0.028467733332461,-0.0163701427006362,0.000626283488863791,-0.000215604678621954,-0.0309925511528715,0.0108561128477898,-1.3858559218881,-0.00101594325896545,0
0.11,0.000574995150238599,0.00032708965505634,-0.0284427160781718,-0.0163699344161907,0.000625336308808167,-0.00021578129235168,-0.0309678508231986,0.0108607120432315,-1.3858624950304,-0.000912875889084759,0
0.12,0.000574144953361506,0.000327088492127261,-0.028420739883289,-0.0163698680791729,0.000624499129979649,-0.000215940144038187,-0.0309461734958428,0.010864869185052,-1.38586835462251,-0.000821028829334192,0
0.13,0.000600102983679321,0.000342038551642804,-0.0296934191470368,-0.0171180788909299,0.000652762240790585,-0.000225865931093614,-0.0323346665769322,0.0113664903517459,-1.38587400055422,-0.000862080350509407,0
0.14,0.000620071669013289,0.000354116892190568,-0.030754338696193,-0.0177225649393793,0.000674610124336767,-0.000234070135194484,-0.0334885850047298,0.0117657694627958,-1.38587909779112,-0.000882370211963476,0
0.15,0.000576048610436207,0.000329184797004549,-0.0285628682033946,-0.0164747790150337,0.000626752440211798,-0.000217660310697582,-0.0311050007129232,0.0109423358679823,-1.38588373733193,-0.000599919560392998,0
0.16,0.000571751839620756,0.000327248487417173,-0.0283669869996396,-0.0163778726037059,0.000622172127704735,-0.00021654926029407,-0.0308946023263363,0.0108832076870046,-1.38588734194163,-0.000525161124629961,0
0.17,0.000570963857879395,0.000327097699370345,-0.0283392225740272,-0.0163703364739827,0.000621369169422172,-0.000216547886689053,-0.0308658911693664,0.0108810024672586,-1.38589050904508,-0.000473930023684119,0
0.18,0.000570526564454119,0.000327085593413938,-0.0283272680557679,-0.0163697253120881,0.000620936493847425,-0.00021661813584101,-0.030853997386794,0.0108826865962526,-1.38589332836289,-0.000429601448350688,0
0.19,0.000570159663032185,0.000327084298299464,-0.0283177140962371,-0.016369667467022,0.000620575063965579,-0.000216685877544304,-0.0308445682962204,0.0108844637551373,-1.38589584132077,-0.00039020113344171,0
0.2,0.000569834710870287,0.000327083881025492,-0.028309296384408,-0.0163696367053839,0.000620255088496133,-0.000216746598898289,-0.0308362640260518,0.0108860501818672,-1.38589808149104,-0.0003550875079749,0
0.21,0.000569545109258423,0.000327083566207512,-0.0283017924963915,-0.0163696223845254,0.000619969932322207,-0.00021680076978556,-0.0308288636668044,0.0108874772346188,-1.38590007851029,-0.000323786008068243,0
0.22,0.000569286997992236,0.000327083289935709,-0.0282951023531135,-0.0163696094623036,0.000619715783639182,-0.000216849053829279,-0.0308222657943547,0.0108887493507594,-1.38590185877206,-0.000295882056408161,0
0.23,0.000569056884609488,0.000327083043940519,-0.0282891338973588,-0.0163695950340719,0.000619489202949383,-0.000216892099865324,-0.030816379131926,0.0108898813326686,-1.38590344580413,-0.000271006812037529,0
0.24,0.000568851800522088,0.0003270828246285,-0.0282838123473147,-0.0163695820149691,0.000619287267099805,-0.000216930463356887,-0.0308111304810737,0.0108908904466607,-1.38590486057922,-0.000248831532325951,0
0.25,0.000568668795636366,0.000327082629087833,-0.0282790557933772,-0.0163695825124438,0.000619107071724221,-0.000216964695567238,-0.0308064413514176,0.0108918042333818,-1.38590612179439,-0.000229063162029116,0
0.26,0.000574206335727058,0.000330277783120115,-0.0285500483491801,-0.0165294853100527,0.000625137393750899,-0.000219088039258572,-0.031102199922913,0.0109991956665439,-1.3859071777752,-0.000240042846399275,0
0.27,0.00055809872626688,0.000321120442217926,-0.0277756875618485,-0.0160711815787724,0.000607620588034087,-0.00021304869787929,-0.0302567703162802,0.0106910966181757,-1.38590840188178,-0.000143785637126033,0
0.28,0.000557486365662117,0.000320776742393381,-0.027673544649254,-0.0160539869771642,0.000606955289740436,-0.000212823970961375,-0.0301531977148924,0.010692999526972,-1.3859092932685,-0.000127477046199958,0
0.29,0.000567181355462045,0.000326592464332405,-0.028219528264227,-0.0163450527622592,0.000617554043573438,-0.000216758693040377,-0.0307433773099362,0.0108787534596314,-1.38590994192907,-0.000164669619677115,0
0.3,0.000562192023957812,0.000324016396921062,-0.0279784800045873,-0.0162161285754361,0.000612176170909115,-0.000215143749726881,-0.0304827363094274,0.0107963399553776,-1.38590995420038,-0.000140347386683534,0
0.31,0.000567505507037355,0.000326843909481451,-0.0282372736141371,-0.0163576294242019,0.000617918754471124,-0.000216946662928239,-0.0307631252013788,0.0108878735014443,-1.38591058997629,-0.000156534506794617,0
0.32,0.000567884332831431,0.000327063356651905,-0.0282576134502901,-0.0163686173594355,0.000618331328510332,-0.000217093120394126,-0.0307851314527509,0.0108949545020839,-1.38591122300237,-0.00014888928721094,0
0.33,0.000567842754864295,0.000327080314451615,-0.0282574338123806,-0.0163694566746566,0.000618293452778436,-0.000217117785095923,-0.0307851029591277,0.010895830086801,-1.38591179308793,-0.000140151952677621,0
0.34,0.000567772498279873,0.000327081559041633,-0.0282556676899604,-0.0163695224001361,0.000618224511882372,-0.000217132238453612,-0.0307833734753659,0.0108962350236293,-1.38591230179851,-0.000132195643145672,0
0.35,0.000567706956459289,0.000327081591421924,-0.0282539491215057,-0.0163695284563275,0.000618159994522339,-0.000217144599360677,-0.030781680366793,0.0108965708660907,-1.38591275533721,-0.000125088345229077,0
0.36,0.000567648399552476,0.000327081536652717,-0.0282524075356183,-0.0163695286755137,0.000618102337694587,-0.000217155560071755,-0.0307801606876606,0.0108968669193911,-1.3859131596526,-0.000118751206567714,0
0.37,0.000567596226989499,0.000327081481331898,-0.0282510311731352,-0.0163695153473392,0.0006180509658274,-0.000217165319429236,-0.0307788014037105,0.0108971179310484,-1.38591352008389,-0.000113101791804459,0
0.38,0.000567549602653161,0.0003270814315093,-0.0282497949258726,-0.0163695155393182,0.000618005057133222,-0.000217174040040922,-0.030777582758687,0.0108973552698814,-1.3859138413936,-0.000108065556055305,0
0.39,0.000567508042383317,0.000327081387053526,-0.0282486894612534,-0.0163695157191585,0.000617964134758567,-0.000217181813416083,-0.03077649304517,0.0108975674808054,-1.38591412782832,-0.00010357595352152,0
0.4,0.000567471022309622,0.000327081347418496,-0.0282477019118362,-0.0163695144329071,0.000617927682839973,-0.000217188737668988,-0.0307755193065148,0.0108977556167976,-1.38591438317353,-9.95736532866107e-05,0
0.41,0.000567437960358261,0.000327081312084068,-0.0282468150082576,-0.0163695145923417,0.000617895128396156,-0.000217194921382792,-0.0307746450662,0.0108979258186604,-1.3859146108033,-9.60057635269929e-05,0
0.42,0.000567408507281873,0.000327081280583883,-0.0282460218010897,-0.0163695147431095,0.000617866127393424,-0.000217200430165526,-0.0307738631931137,0.0108980780270666,-1.38591481372622,-9.2825133247231e-05,0
0.43,0.000567382313834492,0.000327081252502076,-0.0282453143045126,-0.0163695148860623,0.000617840335879628,-0.000217205329471119,-0.030773165808488,0.0108982137935087,-1.38591499462351,-8.99897292246282e-05,0
0.44,0.000567358914354832,0.000327081227467698,-0.028244677561545,-0.0163695150223109,0.000617817295542303,-0.000217209706018089,-0.0307725381843987,0.0108983359422908,-1.38591515588632,-8.7462080530763e-05,0
0.45,0.000567338173928576,0.000327081205150106,-0.0282441123666165,-0.0163695016261004,0.000617796873243149,-0.000217213585601927,-0.0307719785920911,0.0108984310977706,-1.38591529964574,-8.52087833417009e-05,0
0.46,0.000567319605684766,0.000327081185254544,-0.0282436009938882,-0.0163695017511908,0.000617778589942061,-0.000217217058609666,-0.0307714745604024,0.0108985291696957,-1.38591542780104,-8.32000594873572e-05,0
0.47,0.000567303016501425,0.000327081167518134,-0.0282431397782387,-0.0163695018714762,0.000617762255392161,-0.000217220161332763,-0.0307710199817139,0.010898617588408,-1.38591554204656,-8.14093629283643e-05,0
0.48,0.000567288231755571,0.000327081151706603,-0.0282427252619446,-0.0163695019873863,0.000617747697575624,-0.000217222926575662,-0.030770611440861,0.010898697036448,-1.38591564389192,-7.98130289382645e-05,0
0.49,0.00056727507682422,0.000327081137611189,-0.0282423534184054,-0.0163695020993433,0.000617734744514866,-0.000217225387066308,-0.0307702449652807,0.0108987682958735,-1.38591573468278,-7.83899613640177e-05,0
0.5,0.000567263318876729,0.000327081125045454,-0.028242016831276,-0.0163695022079146,0.000617723167052305,-0.00021722758616463,-0.0307699132520456,0.0108988327675301,-1.38591581561916,-7.71213538342391e-05,0
0.51,1.66138954373922,-0.00979211038310024,0.369699230072694,0.49136572476066,-0.109705631585419,1.65779244052753,0.468238944204624,0.398585106741396,0.0601855277261648,18.3735587640781,321.267337688155
0.52,1.54192358889158,-0.0133515787248912,2.62730476961985,0.670858927290112,-0.421051632134811,1.48338199453524,-0.048570861397263,2.71116634019663,0.267912442850315,38.1383532486392,321.267337688155
0.53,1.48639211776942,0.0244467180697125,1.79638747551317,-1.21939110614439,-0.840705790126071,1.2260395361651,-2.03432191847207,0.758588797668889,0.617515387164625,57.1232472945404,321.267337688155
0.54,1.40421192490286,0.0327897412580058,2.33190960294273,-1.63533396734119,-1.23947145734114,0.660754722728326,-2.81822175402067,-0.412002094898857,1.10437214702948,75.6520720322517,321.267337688155
0.55,1.35589912867318,0.0103398572841795,1.06320573578066,-0.510378270145332,-1.34099750646652,-0.200736263380414,-0.970855027882436,-0.669576679752835,1.72701047665269,94.2769840101287,321.267337688155
0.56,1.25896574916376,-0.0159668977531842,2.18614722419669,0.801922622647831,-0.754915595201944,-1.00764683471553,-1.9684990887328,-1.24391756810304,2.48593039601749,112.468856446029,321.267337688155
0.57,1.20915671900448,0.0069891994865583,1.47119194629621,-0.345316663336777,0.266608076730558,-1.17941890498888,0.669040689090368,-1.35500328308324,-2.91349851970809,128.284521163365,321.267337688155
0.58,1.11216998823724,0.0209589538624944,3.4709648524508,-1.04123012191937,1.0378720290275,-0.400228699426925,3.61773169825679,-0.209223643905466,-1.92000591575243,142.641943024245,321.267337688155
0.59,1.02694114296892,0.0326161586001182,4.83054241846047,-1.62260453377721,0.774492303816623,0.67515449806171,2.43411411845656,4.47683749849274,-0.822066906619791,157.043665606756,321.267337688155
0.6,0.974967556293368,-0.0109410728016769,4.40038241077694,0.550267117969227,-0.374538014375522,0.900223704801398,-1.13423358169986,4.28715213683134,0.383043990458566,171.405267591053,321.267337688155
0.61,0.986043881841986,-0.00875196804554906,1.31260455171776,0.446133119743338,-0.978604481954194,-0.121212217873639,-1.35493901299378,0.293437797138577,1.68515537680946,183.660546849424,321.267337688155
0.62,0.906629534021779,-0.00755800613225227,2.77120371187208,0.389676936713513,-0.0523310588042944,-0.905149543280924,-0.571832776437197,-2.73942063281493,3.07550593561891,195.796333385589,321.267337688155
0.63,0.856104424648956,0.0183229838046848,2.69352245913936,-0.913786042271323,0.84281287852487,-0.151383517701397,2.80294321832489,0.483298545191827,-1.72711877964376,207.777059159965,321.267337688155
0.64,0.797616872753648,0.000200318514397974,3.42713154056479,0.00053623273609362,0.131871806906825,0.786640033542627,0.56629540521219,3.38002076885854,-0.165843755173098,218.112420328136,321.267337688155
0.65,0.766424116758721,-0.0286688867261156,2.66322376174959,1.43594555836382,-0.765514832398652,0.0470624393031722,-2.50861295806132,1.69161505029343,1.47200684791852,228.794181616973,321.267337688155
0.66,0.721532267326587,0.00203239945663697,2.8317321420232,-0.0933428265254466,0.0288711582088149,-0.72095728005526,0.214534248019917,-2.82513625580388,-3.09875167632478,238.187995821442,321.267337688155
0.67,0.688934357460054,0.0148492267935147,2.4255215896685,-0.742503135296606,0.670974139997259,0.15698647037309,2.16459111057932,1.32250187594359,-1.31941202181392,247.45456188956,321.267337688155
0.68,0.606766601723522,0.0177234617039929,4.59842536224632,-0.880724656143341,-0.289641721249187,0.533467434220396,-3.07259237266619,3.53275640874411,0.52660941531317,255.914328079786,321.267337688155
0.69,0.57924451517553,-0.012940590892214,4.16534480249725,0.650720869910396,-0.367761280286562,-0.447708954540294,-3.20861748647528,-2.73464966672385,2.43158417846694,263.972427241682,321.267337688155
0.7,0.561467388164385,-0.0116658242403351,3.29189152263281,0.590206401797437,0.537091717470831,-0.164055498083957,2.94353762489996,-1.58760185320588,-1.88802140576785,271.507373086137,321.267337688155
0.71,0.501660993083626,0.0281049117164034,4.61666267071166,-1.40807060357438,-0.0362712454636271,0.501136742612986,-1.9868272120248,4.39872193589804,0.128217161469228,278.715816527174,321.267337688155
0.72,0.48306900202501,0.0199146394668736,3.96448501832202,-0.989472580780984,-0.403308968305451,-0.266634824557722,-2.63501023959954,-3.12296629597931,2.19614962996879,285.281899856545,321.267337688155
0.73,0.421996254566028,-0.0334284815237716,5.49159826831962,1.67039036285193,0.401446411500807,-0.134309645736506,4.40059218386527,-3.68546386988443,-1.97270440267253,291.659898453566,321.267337688155
0.74,0.418748155178603,0.0019924536454661,4.25132284251278,-0.0902446021154263,-0.0757328127901874,0.411847700496068,-0.877429084536752,4.16077014518838,0.18661199887486,297.358043904622,321.267337688155
0.75,0.404628121435012,-0.0305944592784958,3.53975698377225,1.52964779272173,-0.254715619343233,-0.315879551185517,-3.53834615205695,-1.53290847155552,2.38751224767284,303.051892710165,321.267337688155
0.76,0.371636314289392,0.0214422593489181,3.94139545832157,-1.06188180493565,0.368466666075882,-0.0529682600763397,4.01741978733431,0.722861936240991,-1.65593840694772,308.020395363887,321.267337688155
0.77,0.3405890386065,0.0152679233414841,4.2220495987657,-0.762474295104968,-0.1856036431439,0.285981276229359,-3.07514009212055,2.99175254307008,0.620474329763987,312.910704902321,321.267337688155
0.78,0.318174061741596,0.0227924128611341,4.1816541829515,-1.14351221195033,-0.0889846532603761,-0.306326556363153,0.241506343216786,-4.32845544864001,2.93039663498814,317.397118361613,321.267337688155
0.79,0.334289932670271,0.023874815780135,2.26657001178331,-1.18714069023858,0.295905731740809,0.157351720156362,1.28969872388369,2.20982348578983,-1.01076394678761,321.481057281145,321.267337688155
0.8,0.282147256887005,-0.0142511347627262,3.80508115543676,0.709717019807006,-0.278899676247425,0.0450015555283203,-3.57288204035414,1.48891059952521,1.36035454572929,325.401210748276,321.267337688155
0.81,0.264358765152909,-7.88476611040534e-05,3.70282689538623,0.0146785852440614,0.153066466079628,-0.21553704992882,2.1311042498302,-3.02812436244221,-2.52437657313648,328.975120203203,321.267337688155
0.82,0.255432588034522,-0.00835857556697747,3.19723345085142,0.421245640034195,0.017261518165427,0.254985710984258,0.73928755948822,3.13898128902946,-0.100304436216921,332.288724701961,321.267337688155
0.83,0.237370216707924,-0.0115410846770173,3.19814614695423,0.571901630130292,-0.161335023837366,-0.174495921152575,-2.68318888569489,-1.83185907086415,2.34678114996968,335.382073644411,321.267337688155
0.84,0.193187978237566,-0.028067120712626,4.55057671113674,1.41407993634361,0.189249812296877,0.0478943289566962,4.67241078892141,-0.935920878002225,-1.46720053535811,338.229504870949,321.267337688155
0.85,0.182941413150748,-0.0265885377808807,4.2275317320798,1.33016970128248,-0.169979464196002,0.0726738793416047,-2.91431529828298,3.33888339451161,1.02244346224704,340.932001227966,321.267337688155
0.86,0.180304663487385,-0.0257372159825484,3.59574272846716,1.28163631021161,0.0921825861818588,-0.157081338059795,0.177492368244897,-3.81319470525596,-2.75268633839533,343.373968786795,321.267337688155
0.87,0.187275563384048,-0.0010747223812357,2.50774101628564,0.0623675199014481,0.0411226216852658,0.182708022962156,0.625445981676505,2.42929455527828,-0.227122472373829,345.626471897178,321.267337688155
0.88,0.136785228676372,-0.0262053065217671,4.33384680816545,1.3091973062177,-0.0829661490470969,-0.111863912796943,-4.07658991098216,-1.96917252695949,2.31415746053696,347.668079993263,321.267337688155
0.89,0.143825243742408,0.0319583303629574,3.31845367267147,-1.60649671129814,0.147056431722095,-0.00902449479559637,3.02569715271493,2.10668535883536,-1.41343686427019,349.579999221262,321.267337688155
0.9,0.144761760347946,-0.0163369564988232,2.63527336304171,0.825484143934016,-0.139055776690271,0.0434321813376444,-2.07854672516934,1.81816756134616,1.15568189432913,351.354320140425,321.267337688155
0.91,0.116481421187455,0.00998290892225974,3.45922431381277,-0.502473569891108,0.0570627831643868,-0.102036359842625,2.35609240155111,-2.58215823238346,-2.54618835429991,352.894320414495,321.267337688155
0.92,0.108249479621335,0.00811592328466902,3.31295253631763,-0.41387490081017,0.00313766652883535,0.108507940252344,-0.565535109269277,3.2904584758963,0.0459258255064505,354.319506011513,321.267337688155
0.93,0.102782906078506,-0.000679117734795523,3.03936844103305,0.0416322569514455,-0.0480880140039569,-0.0908423353508481,-1.4763506409847,-2.65704394958582,2.64812909637313,355.646153578672,321.267337688155
0.94,0.0787435810366437,-0.00409685569562781,3.77813632544315,0.202443495343503,0.0651484768844329,0.0444185967890002,3.33318224377405,1.79030544662897,-1.02436695473544,356.632924863602,321.267337688155
0.95,0.0781621853630268,0.017303447326391,3.34648699437617,-0.874453014325064,-0.0785366314098455,0.0155156062367996,-3.32566446303705,-0.950578327695047,1.59361415727092,357.618518283245,321.267337688155
0.96,0.0724181569022471,0.0108410625257375,3.17418400528507,-0.534678543024663,0.0586283348800165,-0.0438706785336411,3.04840935514233,-1.0336951423216,-2.06460125157004,358.572529170829,321.267337688155
