t,iq,id,vq,vd,ia,ib,va,vb,theta_e,omega,r
0,0,0,0,0,0,0,0,0,0,0,0
0.01,0.000497217847207827,0.000245435866342817,-0.019627623038706,-0.0122777475726099,0.000207945790771523,-0.000514026166814338,-0.006486136635666,0.0222242368406598,-2.29864658098493,-0.0111794410719359,0
0.02,0.000628981832047786,0.000304999696162833,-0.0268955950419857,-0.0152573958294012,0.000266644404418854,-0.000646176230836236,-0.00992786135332743,0.0292847866494981,-2.29872613416563,-0.0100069520722826,0
0.03,0.000654169692488206,0.000328590331131178,-0.029499457271343,-0.0164374883887599,0.000269711762434749,-0.00068056238324444,-0.0110847032482077,0.0318988770606989,-2.29878677799,-0.0068754992118076,0
0.04,0.000614812237576107,0.000324668177812236,-0.0291488717240466,-0.0162412931140478,0.000242918207098793,-0.000651455491815953,-0.0109524458970246,0.0315195217868877,-2.29882114714863,-0.00350611082737765,0
0.05,0.00060675690676272,0.000332809528494027,-0.0294042073659397,-0.0166485471711673,0.000231475758573357,-0.000652177199351196,-0.0108714774638727,0.0319936323583658,-2.29883954318512,-0.0020894998240449,0
0.06,0.00059599929188262,0.000334556831858196,-0.0293168902156049,-0.0167359605727766,0.000222276499281948,-0.000646325450167746,-0.010747821223675,0.0320008869744463,-2.29884923503794,-0.00114949320723463,0
0.07,0.000596437581533208,0.000339758896385179,-0.0294303387351147,-0.0169961971092407,0.000219139894427721,-0.000650501039974775,-0.0106592306914253,0.0322706733011062,-2.29885266479115,-0.000943072667392558,0
0.08,0.000586967773195354,0.000336048453708681,-0.0291951110346272,-0.0168105767503933,0.000214538032587191,-0.000641430559440011,-0.0106070590215939,0.031975620367985,-2.29885569666424,-0.000467498761351561,0
0.09,0.000582776426884683,0.000335251726030161,-0.029075180678628,-0.0167707260862017,0.00021193898424799,-0.000638046981416424,-0.0105440271811558,0.0318660771943507,-2.29885649028056,-0.000292096585153681,0
0.1,0.00058117070058445,0.000335080665128759,-0.0290215630038404,-0.0167621695122203,0.00021085416635419,-0.000636850811330277,-0.0105096958850644,0.0318240119775264,-2.29885652898471,-0.000241876822202713,0
0.11,0.000580676166199583,0.000335043952070885,-0.0290007420673874,-0.0167603318796829,0.000210509529503971,-0.000636494303037773,-0.0104953808940481,0.0318087840865554,-2.29885639255398,-0.000235903306522412,0
0.12,0.000580591357187843,0.000335036081580676,-0.028994158066295,-0.0167599378960037,0.000210451540168866,-0.000636431967489619,-0.0104907323482489,0.0318041075185047,-2.29885626596862,-0.000241480765103564,0
0.13,0.000605277349419364,0.000347545739972456,-0.0298864323606387,-0.0173857209235155,0.000220553411586327,-0.000662197027878233,-0.0107403161280735,0.032864992632685,-2.29885806416644,-0.000860420997683528,0
0.14,0.000617788979571905,0.000354887305189832,-0.0308838452131634,-0.0177529783479197,0.000225006111117332,-0.000676003308146677,-0.0112403911756307,0.0338028658783711,-2.29886035353818,-0.0010859472144501,0
0.15,0.000589812936266701,0.000339296127934187,-0.0294785286004992,-0.0169730391278922,0.000214496587262154,-0.000645749468657597,-0.0107103052851219,0.0322855550732351,-2.29886218729844,-0.00013678401617762,0
0.16,0.000580670019196501,0.000335948697314072,-0.029117716645481,-0.0168055886463272,0.000209900304079182,-0.000637166430980285,-0.0105524534425979,0.0319204473455164,-2.29886047121832,2.5260218376202e-05,0
0.17,0.000578734878466493,0.000335230141639516,-0.0289976126528591,-0.0167696462982649,0.000208935131681351,-0.000635341969467289,-0.0104867769402745,0.0318136776550447,-2.29885859046716,-3.75437627572542e-05,0
0.18,0.000579015430510406,0.00033507597218218,-0.0289707444610124,-0.0167619267842261,0.000209247944781378,-0.000635413309199417,-0.0104718976788946,0.031790023327261,-2.29885732730032,-0.000126708732424057,0
0.19,0.000579673015313263,0.000335042929236637,-0.0289731470733258,-0.0167602830004058,0.000209761237320003,-0.000635826070896608,-0.010474806971635,0.0317903878002966,-2.29885663489532,-0.000190568751393501,0
0.2,0.00058018320505524,0.000335035861315891,-0.0289809730473636,-0.016759926604711,0.000210146989843328,-0.000636160217599026,-0.010480896439179,0.0317953258891699,-2.29885630509701,-0.000226841110097124,0
0.21,0.000580484720653608,0.000335034354287596,-0.0289872260684422,-0.0167598516199604,0.000210373151613407,-0.000636359699026774,-0.0104856183851062,0.0317994293745656,-2.29885616744972,-0.000244613227403419,0
0.22,0.000580636875460726,0.000335034034104422,-0.0289909537694924,-0.016759835261184,0.000210486974188263,-0.000636460697019185,-0.0104884134248129,0.0318018971490236,-2.29885611874156,-0.000252253499504333,0
0.23,0.000580704221719313,0.000335033966042737,-0.0289928287356414,-0.0167598307841906,0.000210537299343665,-0.000636505457250788,-0.0104898164094819,0.0318031413181827,-2.29885610599208,-0.000255071429921791,0
0.24,0.000580730007713055,0.000335033951296493,-0.0289936373086249,-0.0167598307909606,0.000210556557941801,-0.000636522604694795,-0.0104904199976863,0.0318036793594367,-2.29885610537069,-0.000255878254516979,0
0.25,0.000580737982162587,0.00033503394786873,-0.0289939209883505,-0.0167598308484738,0.000210562511489635,-0.00063652790897647,-0.0104906316472086,0.0318038681922616,-2.29885610756303,-0.000255974237065214,0
0.26,0.000584879646308043,0.000337326485316559,-0.0291223127674449,-0.0168745111270871,0.000212128900751851,-0.000640995076289401,-0.0105101749956107,0.0319749034129067,-2.2988556701764,-0.000407107550685447,0
0.27,0.000576875620323292,0.000332106110606418,-0.0288893632361158,-0.0166133742178515,0.00020962704134553,-0.000631772469772326,-0.0105100085633862,0.0316249779618605,-2.29885704778217,-8.09735635958458e-05,0
0.28,0.000575827171260647,0.000331884141493451,-0.0283585305946157,-0.0166022683452705,0.000208992219995605,-0.000630909079438703,-0.0101211553257884,0.0312634576872967,-2.29885687807275,-6.06566022180615e-05,0
0.29,0.000578930421062165,0.000334357653465429,-0.0289309099686414,-0.0167260002449037,0.000209663276162413,-0.000634820276527906,-0.0104661090350876,0.031736685357356,-2.29885606410541,-0.000205010212403633,0
0.3,0.000568703762761673,0.000330033466705088,-0.0284796308006284,-0.0165096904910699,0.000204909062004621,-0.000624786631765637,-0.0102732934078585,0.0312748891797729,-2.29885248463422,-0.000129975216286853,0
0.31,0.000578812442005181,0.000333960584252481,-0.0288345186378319,-0.0167061442783019,0.000209841462605821,-0.000634444698477109,-0.0104074702527796,0.0316576891869957,-2.29885285642386,-0.000406753172951734,0
0.32,0.000581645790561218,0.00033480366217605,-0.0289657869793815,-0.016748311792443,0.000211394697968318,-0.000636959653003989,-0.0104773604497948,0.0317765272054211,-2.29885406617346,-0.000413588906880136,0
0.33,0.000581937130153912,0.000334984591680421,-0.0290035658694675,-0.0167573698930891,0.000211491161690436,-0.00063728877962969,-0.0104995029081025,0.0318084378359123,-2.29885503547742,-0.000360230945057653,0
0.34,0.000581583040378025,0.000335023388799211,-0.029008197373862,-0.0167592995369758,0.000211200658346487,-0.000637082244150522,-0.0105016576550551,0.0318129662613695,-2.2988556168091,-0.000312501553761934,0
0.35,0.000581213480415977,0.000335031694426917,-0.0290040964760188,-0.0167597182568719,0.000210919078425411,-0.000636842593145276,-0.0104983084140576,0.0318105531055853,-2.29885591324383,-0.000282545853801172,0
0.36,0.000580968891926491,0.000335033467307616,-0.0289995308608457,-0.0167598077895354,0.000210735237107338,-0.000636681189798923,-0.0104948365410984,0.0318075832666825,-2.29885604575462,-0.000266795601052206,0
0.37,0.000580836003856765,0.00033503384419047,-0.0289964341199638,-0.0167598257083487,0.000210635757052002,-0.000636593055240528,-0.0104925113680602,0.0318055365406521,-2.298856097156,-0.000259555421235532,0
0.38,0.000580773139588062,0.000335033924076455,-0.0289947075202284,-0.0167598303329317,0.000210588767496836,-0.000636551286977888,-0.0104912189264793,0.031804391244118,-2.29885611334127,-0.000256651322146886,0
0.39,0.000580747178972997,0.000335033941140512,-0.0289938600351744,-0.0167598319422794,0.000210569375477998,-0.000636534025572902,-0.010490585139888,0.0318038285414743,-2.29885611636546,-0.00025568408449981,0
0.4,0.000580738040370248,0.000335033944949874,-0.0289934724455299,-0.0167598320485603,0.000210562551816601,-0.000636527947205959,-0.0104902957731994,0.0318035707010462,-2.29885611552089,-0.000255467469368287,0
0.41,0.000580735770271476,0.000335033945912606,-0.0289933046902195,-0.0167598321352668,0.000210560857500721,-0.000636526437059088,-0.0104901705356035,0.0318034591231234,-2.29885611414112,-0.000255486827930232,0
0.42,0.000580735653856155,0.000335033946213978,-0.0289932190673328,-0.016759832215831,0.000210560771046254,-0.00063652635960489,-0.0104901065996355,0.031803402197209,-2.29885611312584,-0.000255550011529556,0
0.43,0.000580736119517441,0.000335033946329662,-0.0289931669072047,-0.0167598322947348,0.000210561118942007,-0.00063652666942972,-0.0104900676299107,0.0318033675414501,-2.2988561125414,-0.000255600649713993,0
0.44,0.000580736468763406,0.000335033946378302,-0.0289931181429689,-0.0167598323739727,0.000210561379794238,-0.000636526901801296,-0.0104900311854937,0.0318033351487416,-2.29885611225224,-0.000255631022923302,0
0.45,0.000580736701594049,0.000335033946398585,-0.0289930706378102,-0.016759832453543,0.000210561553660843,-0.000636527056720826,-0.0104899956755029,0.0318033035958187,-2.29885611212697,-0.0002556465121289,0
0.46,0.000580736876217032,0.000335033946406126,-0.028993024391466,-0.0167598325332793,0.0002105616840356,-0.000636527172914771,-0.010489961102555,0.0318032728814912,-2.29885611208062,-0.000255653436538455,0
0.47,0.000580736934424693,0.000335033946408614,-0.0289929744013526,-0.0167598326133475,0.000210561727492562,-0.0006365272116465,-0.0104899237337384,0.0318032396765686,-2.29885611206722,-0.000255656122761871,0
0.48,0.000580736934424693,0.000335033946409054,-0.0289929224180017,-0.0167598326935818,0.000210561727492937,-0.000636527211646608,-0.0104898848765328,0.0318032051455542,-2.29885611206617,-0.000255656968717066,0
0.49,0.000580736934424693,0.000335033946408833,-0.0289928707718756,-0.0167598327738161,0.000210561727491811,-0.000636527211646864,-0.0104898462709574,0.0318031708389689,-2.29885611206817,-0.000255657126838481,0
0.5,0.000580736934424693,0.000335033946408544,-0.0289928192469235,-0.0167598328540503,0.00021056172749071,-0.000636527211647076,-0.0104898077558335,0.0318031366130157,-2.29885611207021,-0.000255657082736997,0
0.51,3.49975530572675,0.00209526644999708,3.02485640224359,-0.0851973440598292,-1.88537790192546,2.94849822062608,-1.702817023595,2.50148536389561,0.569512144415138,167.173100894894,533.654071512077
0.52,2.20217687311243,-0.00774994405238549,4.9830270770762,0.411458704044059,-1.61488155336507,-1.49726437568829,-3.94467478656374,-3.07236032135824,2.31490031230989,302.062349272149,533.654071512077
0.53,1.36802938312688,0.0267579964740283,5.48870871818094,-1.32229034100052,1.3539600757851,0.197515813680377,5.19826262987787,2.20282563307992,-1.40638102372141,387.846519872465,533.654071512077
0.54,0.927397808250313,0.0116899025882864,2.04137345607684,-0.579738537439482,-0.92568436999445,-0.0575482034297043,-1.99241966304081,-0.730456189853934,1.64548908876448,442.432910968454,533.654071512077
0.55,0.591036305503039,0.0135602565125841,2.88672171143565,-0.662249029300029,0.567226038244599,0.166620576510541,2.549136903487,1.50785843611512,-1.26214749496945,475.907033299334,533.654071512077
0.56,0.379307994638729,0.0128370576796015,2.88285764779646,-0.635085559657202,-0.287412757697006,-0.247857320972622,-1.68745853594773,-2.42212418653561,2.31626092754859,498.188039380312,533.654071512077
0.57,0.200146744521905,-0.0191770073303782,5.28189745486189,0.956227901210817,0.0331125587267071,0.19831801584182,2.28664467527977,4.85634313570872,-0.260963984658132,512.146207216114,533.654071512077
0.58,0.120000331646089,0.0229576528352203,5.06591330594356,-1.15577125910672,0.023936588154567,-0.119808902700895,2.97892387972776,-4.25738151279643,-2.75537015672796,521.097101067462,533.654071512077
0.59,0.0955249880522873,0.0310587935287925,3.61784001482278,-1.5438819698976,-0.0700503276319674,0.0719904410078715,-3.92047932964043,0.31965565174096,1.08609677924349,526.690802750391,533.654071512077
0.6,0.0447463455109507,-0.0222842757497333,4.35563576022651,1.12067869120239,0.0378607394935322,0.0326402939214466,4.4974844928549,-0.0108093112055248,-1.32136805463104,530.415770183704,533.654071512077
0.61,0.0303448566634627,0.00910997372986957,4.01153775887337,-0.457026630030654,-0.0239578594311145,-0.0207321711058917,-1.76474168362591,-3.63139027391674,2.5757941053114,532.61828637954,533.654071512077
0.62,0.0410359926997694,-0.0149345629715628,2.89210652534786,0.74008764228589,-0.0228802468135962,0.037195270852032,0.143489972178153,2.98184850388283,0.202439009465395,533.950014044176,533.654071512077
0.63,0.0359971773967743,-0.000201415261193948,2.61519170841781,0.0014285510346454,0.029985298307366,-0.0199178119797471,2.16946765127872,-1.46035606020947,-2.16272103061672,535.061528418164,533.654071512077
0.64,0.00494758398688441,0.0362023010327901,3.88184571105021,-1.80264360140953,-0.0117104249262874,0.034611430704636,-3.4704766002324,-2.50480383370455,1.76122245382406,535.585999797674,533.654071512077
0.65,0.010852384827089,-0.00312269929169021,3.37361563360745,0.161693173827868,0.00349193179532471,0.0107392699769749,2.02362187332403,2.70414157166146,-0.594546846720986,535.990989149543,533.654071512077
0.66,-0.00292418154805864,0.00391218035936886,3.91337809206275,-0.196997622351802,-0.004402659871805,0.00211484726243671,0.947975855264829,-3.80193081637263,-2.94753173813515,536.2275744953,533.654071512077
0.67,-0.0189553291065978,-0.0171095764165348,4.70357508406357,0.848264290525179,0.00629066145387903,-0.0247481248818038,-3.44435881150726,3.31354240286678,0.983179983542016,536.250091521594,533.654071512077
0.68,-0.03179424453836,0.0185381283023938,5.36379672271275,-0.937568931846719,-0.0274384023628731,-0.0245289678236596,5.06743771886645,1.99259272054222,-1.36920019354716,536.254696336417,533.654071512077
0.69,0.0109142929158235,-0.00762489139271671,3.17673329699083,0.390134477575139,0.000397211013666524,-0.0133080044339391,-2.06715453081819,-2.4435039383068,2.56163532900892,536.291623040595,533.654071512077
0.7,0.0276970240323148,0.00830688452766693,2.38305422546593,-0.409166353807066,0.00239467451225908,0.0288165751744192,-0.893518979954079,2.24677288105866,0.208473075991422,536.171557174279,533.654071512077
0.71,-0.0148961095404144,-0.00394125917692136,4.50366177498358,0.196630024739376,-0.010367801595795,0.011398960189856,3.67490842458007,-2.61087740444237,-2.14487601444636,536.132697745095,533.654071512077
0.72,0.0149595162126174,-0.0356350617294181,3.03022440642665,1.77637030682481,-0.00703351820311129,-0.0380022942920754,-3.3388374140851,1.09083277480013,1.78524184206777,536.133133473651,533.654071512077
0.73,-0.0299727855008916,0.00953387463764987,5.25728454722488,-0.487045193080942,-0.00807890804540323,-0.0303972676581761,2.41633489429088,4.69442003970938,-0.567736309556562,536.189702247757,533.654071512077
0.74,-0.00393700288466517,0.0448094877547519,3.9722992528899,-2.23354301469334,-0.0445850049419727,-0.00596385101099917,3.04864959676978,-3.38727196857745,-2.92098250781089,536.114276798517,533.654071512077
0.75,-0.028032987776239,-0.00863480045066411,5.18044048659995,0.438119313603584,0.0191023670890491,-0.0222600034609334,-4.14770144733729,3.13456294751159,1.00800599903728,536.110485094111,533.654071512077
0.76,0.00772757309161949,0.0021811060793631,3.3980849543826,-0.108436590112352,0.00801938041753594,-0.000402675222229194,3.28830670414624,0.863584894925516,-1.3458732141017,536.025418401478,533.654071512077
0.77,0.0270144256904134,0.0201927943596075,2.49033459311147,-1.01586265095077,-0.0314366008538051,-0.0122175392854211,-0.457454452908949,-2.65037331988499,2.58335950072833,535.932320067967,533.654071512077
0.78,-0.0392901326038116,-0.0294348814147359,5.72460228042316,1.46246007973216,-0.0197262782417828,-0.0449555414899257,0.121993328805449,5.90719716799458,0.229470860845381,536.095801936428,533.654071512077
0.79,0.0226732134332976,0.00685467940571751,2.59602166691134,-0.334437431959184,0.0156851046511541,-0.0177493303881972,2.38424379570359,-1.08007333714778,-2.12426727562143,536.081559744399,533.654071512077
0.8,0.00646588054172955,0.000963522729586856,3.37590675473145,-0.0410456763081751,-0.00651272467351254,-0.000566042893576376,-3.27387132913035,-0.824740980237608,1.80541977115727,536.108116921436,533.654071512077
0.81,0.0204657810607465,0.00112043256160116,2.71622509412345,-0.0543481071495699,0.0116278795456397,0.0168788619528569,1.36999482516436,2.34604915927172,-0.548546621892156,536.022569266298,533.654071512077
0.82,-0.0286741216305065,-0.0243584102393244,5.24115550000398,1.212802816441,0.0169046204289838,0.033612069392114,0.0581512309420413,-5.37933267990827,-2.90338541572107,535.854923688702,533.654071512077
0.83,0.0012528217544993,-0.00509017731239906,3.75389967241697,0.245278403773183,-0.00371423398953288,-0.00369918008364117,-3.08053168098729,2.1592241218464,1.02469617293848,535.775185831924,533.654071512077
0.84,0.0023998812601186,-0.0127039535046741,3.68979070284801,0.641713741171815,-0.000693306692907094,0.0129100422362268,3.73647944133789,0.255094768452083,-1.33043696799689,535.786364715852,533.654071512077
0.85,-0.00236430422021249,0.00409374316999228,3.86287511842051,-0.197295117796505,-0.00228016112316081,0.00414119944460528,-1.82960581352817,-3.40782512918761,2.59784492598932,535.884470321254,533.654071512077
0.86,0.01968889250463,0.0173269929748743,2.81447165441917,-0.864367406963376,0.012099138151305,0.0232698953501269,-1.51415477967401,2.52501821992237,0.242198374013534,535.850797900157,533.654071512077
0.87,0.0292335321778537,0.0238882395952766,2.26376281710139,-1.1993328243492,0.0127318408669989,-0.0355407881551938,2.55803639992378,-0.139538855940755,-2.11249094384882,535.951879951312,533.654071512077
0.88,-0.0081441025926985,-0.0329638497467917,4.206539393705,1.63984973441119,0.0159043861172881,-0.02999987165642,-4.47882684251786,0.569377675169961,1.81605957516267,535.710455035096,533.654071512077
0.89,-0.00118822791331826,-0.00610471658833817,3.82908430635199,0.3067728420059,-0.005847295951562,0.00211862697348225,2.23132434787834,3.12684950969962,-0.539850500056998,535.75501691439,533.654071512077
0.9,-0.0128941697256291,0.0258150572348926,4.37152210097094,-1.28394599133861,-0.0281795464611216,0.00621208130980286,2.31088353186374,-3.92664488973893,-2.8953352334669,535.811190620585,533.654071512077
0.91,0.00778540398376498,-0.0131174007677492,3.33104691869944,0.65929014711527,-0.0134113801084069,-0.00726729672436725,-2.52135119617856,2.27449449728709,1.03222326527764,535.862665696724,533.654071512077
0.92,0.0080248101267209,0.00751817893951176,3.35381980311786,-0.379933939209018,0.00962393723124174,-0.00531981431119165,3.15813152675314,1.19107612253636,-1.32294875546929,535.763350845831,533.654071512077
0.93,-0.0109545260989836,0.0139837486778703,4.40550558435107,-0.708737005933261,-0.00639130695556172,0.0165740177548759,-1.64977973889825,-4.1459636286934,2.60336834824932,535.441144229719,533.654071512077
0.94,-0.0128818662103764,-0.013126817124008,4.48242968987541,0.653437672196899,-0.00960045918424637,-0.0156871599826357,-0.456127138318024,4.50678430256125,0.245623427551413,535.51123657667,533.654071512077
0.95,-0.000670300639722533,-0.0187931831481081,3.86352164919723,0.948363709244615,0.00911262718295486,0.0164497131163561,2.82188083234078,-2.80413655639228,-2.11233357241406,535.507888250767,533.654071512077
0.96,0.0126017238349901,0.00938935093953024,3.22825650183324,-0.465937978097235,-0.0144847767224067,0.00609545715931471,-3.02249736765501,-1.22607010549171,1.81282090939007,535.508649086249,533.654071512077
