t,iq,id,vq,vd,ia,ib,va,vb,theta_e,omega,r
0,0,0,0,0,0,0,0,0,0,0,0
0.01,0.000565264021892289,0.000309163346599069,-0.0271140327189729,-0.0154678162119438,0.000489919998879748,-0.000418430142346187,-0.0233692382453042,0.0206954780685592,-1.77716550609015,-0.00210132821303656,0
0.02,0.000682581020775721,0.000369347731621074,-0.0329508439407096,-0.018478915696395,0.000592407388042308,-0.000501386161924866,-0.0284648035742559,0.024839150532949,-1.77718160248791,-0.00224312760926547,0
0.03,0.000723241546952851,0.000392444324797408,-0.0350428330947162,-0.0196344585858267,0.000627463656924538,-0.000532334709128883,-0.030275185802279,0.0263993416565672,-1.7771972563662,-0.00207912944461973,0
0.04,0.000704985329712155,0.000385318135684519,-0.0343218748995922,-0.0192779328500622,0.000611048403384513,-0.00052162652302005,-0.0296422503912824,0.0259030265284828,-1.77721059613138,-0.00172186284879246,0
0.05,0.000717278906059126,0.000394991420363572,-0.0350279295319072,-0.0197619081104329,0.000621092270083212,-0.00053362125452524,-0.0302338179266302,0.026521785630625,-1.7772221917651,-0.00152709421408948,0
0.06,0.000715502836277822,0.000396535521713507,-0.0350512284588005,-0.0198391612631719,0.000619032066588293,-0.000534774746260178,-0.0302405217124222,0.026602477002296,-1.77723220831955,-0.0013078867204575,0
0.07,0.000723758855455436,0.000403757853066224,-0.0355308511212356,-0.020200490930155,0.000625627898200532,-0.000543541183127823,-0.0306356735527155,0.027054698689694,-1.77724050924144,-0.00116621845322309,0
0.08,0.000710334757217061,0.00039793312207788,-0.0349743522546192,-0.0199090790411574,0.000613678872452659,-0.000535092962449053,-0.0301505293088615,0.0266556246652132,-1.7772478606702,-0.00095550451784984,0
0.09,0.000705334883328969,0.000397000144408677,-0.0348027885591705,-0.0198624020303721,0.000608973186336754,-0.000533158579246421,-0.0299920157687798,0.0265749524183153,-1.77725393114172,-0.000806524142192291,0
0.1,0.000702317115676596,0.000396849606280765,-0.0347145469972683,-0.019854871354761,0.000606047654287739,-0.000532395700311169,-0.0299070567004412,0.0265496449930362,-1.77725902411412,-0.000686372768741198,0
0.11,0.00070000021750183,0.0003968243905753,-0.034650848659518,-0.0198536143678613,0.000603782850184869,-0.000531898647564274,-0.0298448550630749,0.0265354845924589,-1.77726331251459,-0.000586123923798948,0
0.12,0.000698090366471767,0.000396819391895484,-0.0345991831978082,-0.0198533578019776,0.000601912665857889,-0.000531504404708782,-0.0297942436481046,0.0265247495634967,-1.77726692640257,-0.000501817773569441,0
0.13,0.000725708907326137,0.000412948716440244,-0.0359425800774152,-0.0206603347558674,0.000625636104870085,-0.000552955264795561,-0.0309435780488062,0.0275900973608892,-1.77727032481338,-0.000543471553942648,0
0.14,0.000741799537657421,0.000423076344441907,-0.0368531327412024,-0.0211670329761738,0.000639306983729165,-0.000566168462429874,-0.0317308263921249,0.0282728020247011,-1.7772733602032,-0.000545410280774295,0
0.15,0.000702238094797537,0.000401014618962445,-0.0348928405333951,-0.0200632521242914,0.000605107372342665,-0.000536466340363517,-0.03003839058295,0.0267906606390727,-1.77727601660969,-0.000326562006065563,0
0.16,0.000694094087988018,0.000397486499472616,-0.0345260182872879,-0.0198867310567056,0.000597858752269945,-0.000531344551658467,-0.0297155036287224,0.0265427363884597,-1.77727775233856,-0.000256358601586914,0
0.17,0.000692005229640413,0.000396921987844129,-0.0344418026283086,-0.0198584945663604,0.000595929274048055,-0.000530364594044864,-0.0296388295798545,0.0264978745537425,-1.77727912001234,-0.000218837116344568,0
0.18,0.000691149644650062,0.000396831417255605,-0.0344134535357567,-0.0198539657242684,0.00059510983047202,-0.000530101211747872,-0.0296119811173381,0.0264876634217615,-1.7772802547643,-0.000191313251916134,0
0.19,0.000690599945372878,0.000396816678209436,-0.0343976325108721,-0.0198532263668596,0.000594574324694657,-0.000529974653231723,-0.0295966225074398,0.0264837243543819,-1.77728120783516,-0.000168890660407999,0
0.2,0.000690169165067365,0.000396814104980634,-0.0343858275117097,-0.0198530948803568,0.000594152797406775,-0.000529884292704614,-0.0295850739752531,0.0264811991396217,-1.77728201054145,-0.0001501377383092,0
0.21,0.000689812250399736,0.000396813511022127,-0.0343761651974433,-0.0198530606769521,0.000593803227874125,-0.000529810937880227,-0.0295756060125837,0.026479204688077,-1.77728268702954,-0.000134358590930984,0
0.22,0.000689512422733613,0.000396813262174204,-0.034368064639217,-0.0198530573043512,0.000593509518306313,-0.000529749561416637,-0.0295676631258904,0.026477557452475,-1.77728325722651,-0.000121063442105178,0
0.23,0.000689260107253341,0.000396813092648588,-0.0343612528930319,-0.019853040264588,0.000593262342882608,-0.000529697950218484,-0.0295609868487102,0.0264761584195409,-1.77728373784823,-0.00010985779765501,0
0.24,0.000689047241835996,0.000396812956162714,-0.0343554980795537,-0.0198530395424516,0.000593053812749718,-0.000529654414541603,-0.0295553437065577,0.0264749898159679,-1.77728414296947,-0.00010041260979053,0
0.25,0.000688868093386974,0.000396812842125014,-0.0343506574650773,-0.0198530237487427,0.000592878312471537,-0.000529617775724001,-0.0295506001188142,0.0264739920085572,-1.77728448445093,-9.24511787825247e-05,0
0.26,0.000694340275993062,0.000399994323479514,-0.0346118036183786,-0.0200122005910074,0.000597581859630214,-0.00053385372408821,-0.0297735581819419,0.0266833347878117,-1.7772846902043,-0.000110596601284739,0
0.27,0.000680970658082366,0.000392197018365217,-0.0339841254535712,-0.0196220997029392,0.000586094642887597,-0.000523481239360263,-0.0292391816106875,0.0261728454382283,-1.77728516096422,-4.56706126260131e-05,0
0.28,0.00068044421681174,0.000392016168103575,-0.0338489412371598,-0.0196130540164289,0.000585616360416251,-0.000523196413080189,-0.0291087185676305,0.0261362815656424,-1.7772853582855,-3.93320320735879e-05,0
0.29,0.000686875830537306,0.000396045588691935,-0.0342661363504444,-0.0198146522826897,0.000591085190814481,-0.000528458902941812,-0.029475717269834,0.0264191339165377,-1.77728540380539,-6.48114826971782e-05,0
0.3,0.000677824024922686,0.000391495210551845,-0.0338322268230459,-0.0195869822672589,0.000583158885285342,-0.000522149043052059,-0.02909771688812,0.0261073230730912,-1.77728488669969,-3.85358192050037e-05,0
0.31,0.000686560980144024,0.000395962406321202,-0.0342465454316107,-0.0198104832917042,0.000590794313302556,-0.000528312678293225,-0.0294574087695795,0.0264110240398241,-1.77728496847395,-7.27265132331532e-05,0
0.32,0.000688127799942857,0.000396676659130653,-0.034322649860211,-0.0198462214082377,0.000592181311890539,-0.000529333103821076,-0.0295245644269376,0.0264616116858184,-1.77728515320326,-7.52601929677705e-05,0
0.33,0.000688349752820061,0.000396790819717989,-0.034335034134831,-0.0198519361708858,0.000592375049989798,-0.00052949045031001,-0.0295355092508957,0.0264697493766599,-1.77728533085835,-7.2414577424065e-05,0
0.34,0.000688328872128733,0.000396809032318934,-0.0343356726781861,-0.0198528336654748,0.000592350797343401,-0.000529504086124497,-0.0295359461469138,0.0264707632685413,-1.77728548476447,-6.90720049682828e-05,0
0.35,0.000688271654179457,0.00039681190922837,-0.0343343403829379,-0.0198529794269677,0.000592294135942461,-0.000529495248118964,-0.029534608814318,0.0264706366346609,-1.7772856152821,-6.60756243624358e-05,0
0.36,0.000688215891269416,0.000396812339473919,-0.0343328586207586,-0.0198530029613005,0.000592239411077784,-0.000529484301675471,-0.0295331507884043,0.0264703591241936,-1.7772857254462,-6.35160385587255e-05,0
0.37,0.00068816752070873,0.000396812383168202,-0.0343315416450849,-0.0198530075572291,0.000592192009927393,-0.000529474482267259,-0.0295318583886221,0.0264700963524873,-1.77728581833324,-6.13521076879971e-05,0
0.38,0.000688126484307865,0.000396812368994613,-0.0343304154091065,-0.0198530077650908,0.000592151806723852,-0.000529466101263052,-0.029530753962393,0.0264698679614233,-1.77728589663425,-5.95268859244505e-05,0
0.39,0.000688091792542028,0.000396812348891205,-0.0343294574398492,-0.0198530079532382,0.000592117821102941,-0.000529459007977542,-0.0295298145579642,0.0264696736866551,-1.7772859626363,-5.79881529715554e-05,0
0.4,0.000688062572296306,0.000396812330640892,-0.0343286473738546,-0.0198530081243597,0.000592089195879122,-0.00052945303216327,-0.0295290201927914,0.026469509412871,-1.77728601827025,-5.66910919970697e-05,0
0.41,0.000688038008663448,0.000396812315048437,-0.0343279641721089,-0.0198530082809735,0.000592065132428732,-0.00052944800849735,-0.029528350231158,0.0264693708771491,-1.777286065165,-5.55977747900197e-05,0
0.42,0.000688017170320882,0.000396812301871812,-0.0343273779237557,-0.0198530084259704,0.000592044718536315,-0.000529443746611871,-0.0295277753606855,0.0264692519903925,-1.77728610469306,-5.46762024673282e-05,0
0.43,0.000687999708022642,0.000396812290759632,-0.0343268851919244,-0.0198530085604477,0.000592027611834221,-0.000529440175244585,-0.0295272921866522,0.0264691520832239,-1.7772861380117,-5.38993973294842e-05,0
0.44,0.000687984981484459,0.000396812281392003,-0.0343264657909298,-0.0198530086863937,0.000592013185188969,-0.000529437163385901,-0.0295268809259531,0.0264690670478294,-1.77728616609642,-5.32446185040668e-05,0
0.45,0.000687972525045048,0.000396812273495465,-0.0343261063815873,-0.0198530088052687,0.000592000982452173,-0.000529434615782875,-0.0295265285007084,0.0264689941750528,-1.77728618976943,-5.2692697229727e-05,0
0.46,0.000687962047666104,0.000396812266839548,-0.0343258008537701,-0.019853008917977,0.000591990718448468,-0.000529432472950183,-0.0295262289120615,0.0264689322335168,-1.77728620972368,-5.22274758803073e-05,0
0.47,0.000687953200101662,0.000396812261229012,-0.0343255387978215,-0.0198530090256087,0.000591982051081788,-0.000529430663438375,-0.0295259719558063,0.0264688791072949,-1.77728622654332,-5.1835334984513e-05,0
0.48,0.00068794574952108,0.000396812256499881,-0.0343253145657015,-0.0198530091288908,0.000591974752240392,-0.000529429139642478,-0.0295257520906975,0.0264688336536548,-1.77728624072094,-5.15047945169506e-05,0
0.49,0.0006879394630919,0.000396812252513506,-0.0343251215369094,-0.0198530077733573,0.000591968593846806,-0.000529427853935784,-0.0295255631241013,0.0264687931039044,-1.77728625267128,-5.12261778220028e-05,0
0.5,0.000687934166194767,0.000396812249153457,-0.0343249552149026,-0.0198530078699317,0.000591963404829681,-0.000529426770610219,-0.0295254000489153,0.026468759395562,-1.77728626274445,-5.09913283236703e-05,0
0.51,4.67663955651118,-0.0194827841156541,6.16876996155647,0.985368220445572,-0.494466642227641,4.65046662821336,0.353605260627782,6.23695732614244,0.101762300988905,31.4659700887795,630.342204731392
0.52,4.70070013670053,-0.00777985129599257,4.96661531214,0.41335508789486,-2.10976857335368,4.20065695673328,-1.852075083222,4.62687237489649,0.463788785082341,67.4632136967004,630.342204731392
0.53,4.66647514687922,-0.0114269720610412,6.67887052086213,0.606241118036125,-4.15826338730052,2.11777394307513,-5.66758696350565,3.58514961176513,1.09729334757009,106.153495157026,630.342204731392
0.54,4.69870103492597,0.0491477509658007,5.0686998759785,-2.41419113345692,-4.25617665612134,-1.99127275603499,-3.52248581707056,-4.37174232202027,2.01885819191201,144.255497581269,630.342204731392
0.55,4.62031346921418,0.0288054056573546,8.98930526436028,-1.37686411744087,0.277605062781538,-4.61205612870389,1.96986467868687,-8.87823164157218,-3.07523958210056,181.003904214304,630.342204731392
0.56,4.40345770092108,0.0545173909605552,6.98580831315512,-2.65796418413266,4.39806137552742,-0.224650855356049,7.08330835311666,2.38600799808948,-1.60945153564727,217.438335721762,630.342204731392
0.57,4.07745813864203,0.0361857827938413,6.73475012370969,-1.74405495625355,-0.418518426061987,4.05608390079657,-2.48385126928243,6.49838978450234,0.111693377831525,251.680734231408,630.342204731392
0.58,3.73830358773638,-0.0023758622212835,8.60338033919802,0.182734832192063,-3.27976615910377,-1.79389333584851,-7.63830387402918,-3.96331416970521,2.07066524859781,283.009665267453,630.342204731392
0.59,3.4477216746977,0.0480453507003172,9.17849342153772,-2.34056034602947,3.06448449128664,-1.58051507571673,9.25905554613058,-1.99821285560005,-2.03303176478334,311.867874440195,630.342204731392
0.6,3.17455642326323,0.0346818686782229,9.9306638926655,-1.66960492521094,-1.05664555893511,2.99374539319555,-4.97556208302609,8.75496704238983,0.350225902933248,338.435923545999,630.342204731392
0.61,2.93158535945996,0.0593921701960167,10.1862343887648,-2.8981069680752,-0.698172356465009,-2.84785454515301,0.603635580957459,-10.573269083243,2.92143361730419,362.911968678136,630.342204731392
0.62,2.75449423178987,0.0257328593692272,8.09321708359125,-1.20227505869622,1.61448595704818,2.23189062176201,3.70132082219538,7.2969755549871,-0.616898038172758,385.564612432739,630.342204731392
0.63,2.4902360297372,0.040189030399,11.0109927156583,-1.95977361452123,-1.90175563481156,-1.6081716784685,-7.00258849648443,-8.72046028334271,2.28888209850395,406.91258282004,630.342204731392
0.64,2.3244659043972,0.0593850307457674,9.74963219837274,-2.90659422775824,1.91204912477833,1.32315398462016,6.15840558083231,8.09800337801593,-0.939911776803265,426.279048490051,630.342204731392
0.65,2.12839657868284,0.0148685996921276,10.9149158917726,-0.664501766484184,-1.66374290911622,-1.32749862665508,-8.06602798080839,-7.38350486794359,2.25124050130627,444.161630988049,630.342204731392
0.66,1.95513031988448,0.0696078122315439,11.3428670361927,-3.42811155297021,1.33272264291071,1.43221163671028,4.83553118841997,10.8180506352195,-0.713843657874239,460.878667888191,630.342204731392
0.67,1.85244809542583,0.0316864560334407,9.07309871749616,-1.53038798411552,-0.785299768024613,-1.67805609324696,-2.30764264581336,-8.90718772332655,2.72098957598098,476.197823483096,630.342204731392
0.68,1.68782853398167,0.0367711334165651,10.2799460643049,-1.77806178656075,0.0683591932559381,1.68684447921936,-1.58531968467236,10.3114284315625,-0.0187201173129554,490.350214580433,630.342204731392
0.69,1.54468253305238,0.0490074918044325,10.9731628113081,-2.41892945906025,0.67401068184707,-1.39073917861191,7.23858820349756,-8.59443788921478,-2.65859078151243,503.569854411947,630.342204731392
0.7,1.38771116104321,0.0563089748939051,12.9335242873651,-2.75675556412112,-1.19524384773672,0.707322494754,-12.6950970659141,3.70273712531635,1.07699681453357,515.583563983522,630.342204731392
0.71,1.29603375173347,0.0119218953001451,11.9719892738302,-0.538894065040959,1.27596434330757,0.227509586232213,11.6668012706926,2.73946748405738,-1.38514812247926,526.713515969427,630.342204731392
0.72,1.2345347909229,0.0552916079474317,9.91069731794313,-2.72815339677595,-0.769155892886311,-0.967229302878445,-3.60612125362207,-9.62603925757632,2.51453329813771,537.10747047479,630.342204731392
0.73,1.12182806260652,0.00598430181573295,10.8251311964251,-0.279498538545479,-0.221121877166136,1.09983595565804,-2.46399472763347,10.5446818271136,0.203739216409574,546.671369377428,630.342204731392
0.74,0.999197658680711,-0.0128605565550121,12.6162969846768,0.653951004817025,0.897032665400413,-0.440333682827636,10.9571986479232,-6.28795668816316,-2.03998998825953,555.447093192407,630.342204731392
0.75,0.923575214663925,0.0498554191684172,12.3713110267185,-2.45132401441956,-0.838145637169442,-0.391137611149584,-9.75749536411643,-7.99059510691933,2.06135496355089,563.492314123428,630.342204731392
0.76,0.913449787037307,0.00752745144566086,9.12835362343652,-0.32361680938728,0.0654399599540369,0.911133792373536,0.25592153557081,9.13050227980125,-0.0634589428556247,570.964797619096,630.342204731392
0.77,0.818158494538168,0.00455429027523729,10.4103265959948,-0.180358177125877,0.688712192775604,-0.441678139901775,8.89076778770999,-5.41864162427736,-2.13547197800836,577.885615893907,630.342204731392
0.78,0.781208022338386,-0.00482952981966339,9.04592975195496,0.284583979067804,-0.661982362002257,-0.414835691475606,-7.84439151652843,-4.5139068282213,2.12440404824147,584.243866314824,630.342204731392
0.79,0.63901576965033,0.0426316090180434,13.2076250602635,-2.09883395524485,-0.0505187426926645,0.63844065079381,-3.99260842810422,12.7634455239963,0.145579571410905,590.076263948693,630.342204731392
0.8,0.595852126824646,0.0453125881293849,12.6179531778326,-2.23654213851537,0.571373707201305,-0.175000212581227,12.8011506100505,-0.587712679916004,-1.79210377056465,595.47055238681,630.342204731392
0.81,0.59608856514455,0.0524115807535275,10.0813054626328,-2.59232279600998,-0.356402026133812,-0.480672598616653,-3.06249637044268,-9.94856639373977,2.59127649207111,600.428281597221,630.342204731392
0.82,0.526684671140171,0.0593857334088811,11.2155612316761,-2.94350990344537,-0.361455594058695,-0.387650953397792,-4.31715345136983,-10.7617494103181,2.503428699823,604.990684431934,630.342204731392
0.83,0.521408499205315,0.00070696693465265,9.32458516983135,-0.00570435669658819,-0.323438214468773,0.408968268044157,-5.79856794413797,7.3023647489248,0.670501110614097,609.173541864883,630.342204731392
0.84,0.418137274858377,0.00191245812625096,12.4761946928579,-0.0676484616358769,0.379497493046343,0.175567909635035,11.2703974145104,5.3514626456189,-1.132913209945,613.036094755449,630.342204731392
0.85,0.365135961071892,0.045711015559803,13.299328499284,-2.25824782782646,0.0395581728549084,-0.36585368382973,5.25867116190712,-12.4224876492061,-2.90934431996821,616.549481767576,630.342204731392
0.86,0.382891505949474,0.0482870589886505,10.6970680539307,-2.38343476261089,-0.384867499619578,0.0285403771979919,-10.560402571153,-2.93017469670867,1.62222478063425,619.81232100145,630.342204731392
0.87,0.314114848287621,0.0407476330747084,12.5454915635677,-2.00751533280227,0.0738839262028949,0.308009209220749,-0.663512676606877,12.687758955425,-0.106425753728619,622.832685869695,630.342204731392
0.88,0.332721328904591,0.0366586945882816,10.1323551650068,-1.80303170685252,0.314125770691299,-0.115638846347373,10.2685107768551,-0.687917837656141,-1.81379389147883,625.61173846307,630.342204731392
0.89,0.2631809489393,-0.0306743115599261,12.2571814335633,1.52046534586048,-0.0640673939459746,-0.257100163958013,-5.74358936647723,-10.9344178058341,2.78134560688317,628.123455313375,630.342204731392
0.9,0.215029600967787,-0.0289585113201619,13.3918099313982,1.42551851777097,-0.205553807475295,0.0694547111624194,-11.3689786482274,7.21934905509857,1.1110830137285,630.479726740877,630.342204731392
0.91,0.278134119815118,0.000433489035017956,9.08256453461768,-0.0395169093527803,0.144045513215505,0.237927860160502,4.65789826553097,7.79734081976562,-0.542834332706557,632.583903801374,630.342204731392
0.92,0.200986658578473,-0.0417962174277481,11.8394926118093,2.07745090476918,0.188608317906271,-0.081052224734267,8.50638628637965,-8.4929841583336,-2.18170647404343,634.570218706464,630.342204731392
0.93,0.169135455492627,0.02217277509974,12.433861994681,-1.1140394246752,-0.121844269685209,-0.119383450298607,-6.79836441642817,-10.4701599416602,2.47634505166684,636.344823001424,630.342204731392
0.94,0.196170531596592,0.0549361394640047,10.1692219469775,-2.74007408635612,-0.113434657048897,0.169214170406315,-9.51076484165528,4.5239842100015,0.863604537204846,637.958182163847,630.342204731392
0.95,0.17952930054712,-0.012146830598992,10.1541900191964,0.626754400035224,0.111768881312283,0.141017844327374,7.29382241092224,7.09228811187474,-0.737760681674265,639.427338336236,630.342204731392
0.96,0.105704840920724,7.42642390498954e-05,13.0785461094804,0.0184833089428657,0.0766993433005042,-0.0727374019781032,9.48339082372744,-9.00633157589462,-2.32898563993916,640.746181498828,630.342204731392
0.97,0.0568534709490884,-0.0164842344583464,14.7790367134872,0.837291302103422,-0.0277011530583865,-0.0523134138044194,-10.8811870801509,-10.0359728292746,2.37240225077355,641.990298018544,630.342204731392
