t,iq,id,vq,vd,ia,ib,va,vb,theta_e,omega,r
0,0,0,0,0,0,0,0,0,0,0,0
0.01,0.000604998074635137,0.000341705249819138,-0.0295475702046823,-0.0170935361615095,0.000494353378076422,0.000488262107530999,-0.0245332478772672,-0.023735366693987,-0.277459268750159,-0.00134491260109233,0
0.02,0.000757994388761144,0.000424830884206278,-0.0370790403320295,-0.0212518323533078,0.00061621423163839,0.00061263104254941,-0.0305958028964675,-0.0298394446234826,-0.277470248445905,-0.00161243730385896,0
0.03,0.000818385157023283,0.000457774224020209,-0.0400544225152855,-0.0228997967549355,0.00066444787427208,0.000661680079637163,-0.0329961465617586,-0.0322492134249087,-0.277482163920248,-0.00165929165921234,0
0.04,0.000808638610406467,0.000452350167648936,-0.0396206340905474,-0.022628452796819,0.000656568870490509,0.000653784669990769,-0.0326167178351854,-0.0319059749792231,-0.277493624693968,-0.00154802959961738,0
0.05,0.00082766841246171,0.00046369384053846,-0.0405834405429737,-0.0231959147562133,0.000672699110973535,0.000668971512723532,-0.0334265890741434,-0.0326761266148691,-0.27750465727125,-0.00150640395556861,0
0.06,0.000830943010353262,0.000466133603660358,-0.0407791949063321,-0.0233179564522603,0.000675949731744456,0.000671445294175877,-0.0335979370771189,-0.0328306024081205,-0.277515231709035,-0.00143201798595671,0
0.07,0.000842222161476641,0.000473366653280312,-0.0413614265574534,-0.023679786625806,0.000686002874539105,0.000680304500826117,-0.0341057644500212,-0.0332910908921739,-0.277525113825601,-0.00138144384127502,0
0.08,0.0008323050735956,0.000468211168970058,-0.0409127067160151,-0.0234218833728263,0.000678334028658887,0.000672172879432583,-0.033735105325131,-0.0329298779266378,-0.277534662402671,-0.00128460477002,0
0.09,0.00082914474352963,0.000467098601076646,-0.0407901075480135,-0.0233662314154149,0.000676404126340567,0.000669432271943944,-0.0336482856283489,-0.032826917592279,-0.277543589965445,-0.00120814922602564,0
0.1,0.000827578401630108,0.00046685674058246,-0.0407431178903481,-0.0233541268448169,0.000675747963519342,0.00066798646458696,-0.0336240447536455,-0.0327847603394542,-0.277551988901453,-0.00113946301885781,0
0.11,0.000826424303567585,0.000466802501210592,-0.0407144727553989,-0.0233514205385245,0.000675384852066537,0.000666886051932933,-0.0336138524232852,-0.0327576870090479,-0.277559902481133,-0.00107548770500119,0
0.12,0.000825410021986061,0.000466788785209749,-0.0406910434558459,-0.0233507308981335,0.000675098705010044,0.000665909312809473,-0.0336070134931292,-0.0327350927152378,-0.277567361490418,-0.00101535665338473,0
0.13,0.000855163269006596,0.000484198357175975,-0.0421616664960914,-0.0242216448416689,0.000699999808752237,0.000689748166722313,-0.0348478141278194,-0.0339105300913526,-0.277574598836946,-0.00102785057917283,0
0.14,0.000872096559519636,0.000494409782562915,-0.0430704639822536,-0.0247324509984051,0.00071446539098195,0.000703230152445772,-0.035588341451933,-0.0346443206418562,-0.277581558932401,-0.00101294714564591,0
0.15,0.000833727243302071,0.000472727808425215,-0.0411673048815713,-0.0236478295064781,0.000683103472851971,0.000672266570982191,-0.0340239339482364,-0.033111006482222,-0.277588189397555,-0.000873146299816959,0
0.16,0.000824380630452565,0.000468057373878459,-0.0407337509845999,-0.023414203631757,0.000676054450793696,0.000664553616098357,-0.0336806359749391,-0.0327578717457104,-0.277594120780446,-0.000805648894056659,0
0.17,0.00082169371092055,0.000467050171330463,-0.0406223243114963,-0.0233638204699449,0.000674353130447032,0.000662241853526706,-0.0336018262011068,-0.0326643324647973,-0.277599639294124,-0.000756698201532363,0
0.18,0.000820558888211903,0.000466831868595098,-0.0405851504635241,-0.0233528953447753,0.000673835618045093,0.000661206807597541,-0.0335813011262413,-0.0326314016523904,-0.27760482480109,-0.000713904657237255,0
0.19,0.000819808421373987,0.000466783522742037,-0.040565605991342,-0.0233504678314194,0.000673586681615972,0.000660495031933441,-0.033573769627235,-0.0326131067273314,-0.27760970922145,-0.000674329489861861,0
0.2,0.000819173683868902,0.00046677185042947,-0.0405507093310091,-0.0233498885514946,0.000673404539325638,0.000659884695316026,-0.0335692800518403,-0.0325987846309693,-0.277614312745793,-0.000637197856219201,0
0.21,0.000818591974075581,0.000466768147047966,-0.0405374726667875,-0.0233497035051596,0.000673244414214135,0.000659323351511998,-0.0335656158266025,-0.0325859598319635,-0.277618652146689,-0.000602234893952286,0
0.22,0.000818047517300075,0.000466766227474883,-0.0405251826797483,-0.0233496028209482,0.000673096045772623,0.000658797514291918,-0.0335622839734493,-0.0325740307240069,-0.277622742719427,-0.000569285502355177,0
0.23,0.000817534910260215,0.000466764756002908,-0.0405136260794221,-0.0233495390691297,0.000672956678781457,0.000658302343474534,-0.0335591809069055,-0.0325628046964882,-0.277626598764396,-0.000538227216706485,0
0.24,0.000817052211841294,0.000466763441379807,-0.0405027560195332,-0.0233494616159226,0.00067282551067714,0.000657836042844657,-0.0335562455464605,-0.0325522501181857,-0.277630233735299,-0.00050895001402769,0
0.25,0.000816596997559767,0.000466762217463384,-0.0404924978590323,-0.023349403613269,0.000672701822301942,0.000657396290183181,-0.0335534897436442,-0.0325422856908091,-0.277633660308363,-0.000481351416623121,0
0.26,0.000821695284993456,0.000469948968151077,-0.0407511685044606,-0.0235088161650816,0.000677165981325248,0.00066142377322149,-0.0337777983344767,-0.0327472519707832,-0.277636831321036,-0.000468531575233815,0
0.27,0.000808909057913668,0.000462694243639996,-0.040140973468995,-0.0231459035132502,0.000666686647344319,0.000651113462712266,-0.0332616413323907,-0.0322597863656696,-0.277640016392231,-0.000414385548952755,0
0.28,0.000807923726833745,0.000462382775948689,-0.0400429444723948,-0.0231303340704979,0.000666118910000386,0.000650249319580453,-0.0332198921286943,-0.0321696832932817,-0.277642890557935,-0.000389845499328609,0
0.29,0.000813320471693936,0.000465815657923661,-0.0403743635324755,-0.0233020514133806,0.000670901244675306,0.000654496704908761,-0.0334759574874331,-0.0324412561566886,-0.27764552814015,-0.000381846329061608,0
0.3,0.000801957507144289,0.000459783925222256,-0.039829670294538,-0.023000317250775,0.000661987382453603,0.000645220742560323,-0.0330365507700242,-0.032000055353507,-0.277647658867491,-0.000339149720070682,0
0.31,0.000811511927098197,0.000465254818213411,-0.0403018842660816,-0.023273997793218,0.000669869080558943,0.000652908162458197,-0.0334292563026425,-0.03237909312701,-0.277649977704651,-0.000343202440162659,0
0.32,0.000813462081708481,0.000466432254152859,-0.0404044769345626,-0.0233329000468776,0.000671537439149601,0.000654459375295371,-0.0335140966921563,-0.0324615357594489,-0.277652247508833,-0.000330109877275225,0
0.33,0.000813689326323858,0.000466685200314748,-0.0404229773153251,-0.0233455523170523,0.000671844398489996,0.00065460713422923,-0.0335314054383407,-0.0324757872476269,-0.277654406338741,-0.000313906723063638,0
0.34,0.000813535759082569,0.000466739106728297,-0.0404225618263165,-0.023348246780819,0.000671855482158483,0.000654443302471018,-0.0335339490509289,-0.0324745807269333,-0.277656445773612,-0.000297751006826805,0
0.35,0.00081330687748287,0.000466750185274729,-0.0404180847542118,-0.0233488163164363,0.000671804657756437,0.00065421885805263,-0.0335333320529976,-0.0324700545118227,-0.277658369283702,-0.000282320269869922,0
0.36,0.000813072222369873,0.000466752071806323,-0.0404129457370297,-0.0233489038141668,0.000671743338010679,0.000653991454961952,-0.0335320664461631,-0.0324650275268237,-0.277660182744621,-0.000267728251042794,0
0.37,0.00081284664747423,0.000466752007530381,-0.0404078873525519,-0.023348892352721,0.000671682562375077,0.000653773389061521,-0.0335307243812148,-0.0324601087007805,-0.277661892289608,-0.000253962321072322,0
0.38,0.000812632782410339,0.000466751550094213,-0.0404030575120688,-0.0233488798621336,0.000671624553621822,0.00065356675828534,-0.0335294407753254,-0.0324554132377611,-0.277663503836307,-0.000240983213730503,0
0.39,0.000812431247229999,0.00046675103337598,-0.0403985066193453,-0.0233488421356046,0.000671569806584269,0.000653372063618888,-0.0335282063495397,-0.0324509960575844,-0.27766502299365,-0.000228747667483804,0
0.4,0.000812240956254745,0.000466750527821372,-0.0403941994517423,-0.0233488222844366,0.000671518094978844,0.000653188238071642,-0.0335270530832271,-0.0324468112912781,-0.277666455056634,-0.000217213474969648,0
0.41,0.000812061608322242,0.000466750047233828,-0.0403901391690692,-0.023348803845935,0.000671469352882223,0.000653014984853805,-0.033525966174453,-0.0324428663222312,-0.277667805017707,-0.000206340523056023,0
0.42,0.000811892563142749,0.00046674959329692,-0.0403863109487826,-0.0233487839120885,0.000671423409558864,0.000652851684554534,-0.0335249389181364,-0.032439147534428,-0.277669077583857,-0.000196090924015533,0
0.43,0.000811733238645158,0.000466749165156728,-0.0403827018989531,-0.0233487653951539,0.000671380107604566,0.000652697774631368,-0.033523970726747,-0.0324356415822141,-0.277670277192429,-0.000186428945301277,0
0.44,0.000811582994539673,0.000466748761483719,-0.0403792953500435,-0.0233487453871569,0.000671339273022968,0.000652552636857411,-0.0335230543714638,-0.0324323330910406,-0.27767140802585,-0.000177320899082407,0
0.45,0.000811441423378224,0.000466748380910625,-0.0403760852715914,-0.0233487267998261,0.000671300795442501,0.0006524158771022,-0.0335221911286471,-0.0324292153307198,-0.277672474027364,-0.000168735028006908,0
0.46,0.000811308001286281,0.000466748022123545,-0.0403730591276684,-0.0233487067246229,0.000671264532473262,0.00065228698940791,-0.0335213748865607,-0.0324262769178534,-0.277673478913698,-0.000160641395207467,0
0.47,0.000811182146192848,0.000466747683878341,-0.0403702006515973,-0.0233486880742567,0.000671230325693772,0.000652165411975263,-0.0335206041020005,-0.0324235012926753,-0.277674426188568,-0.000153011780087457,0
0.48,0.000811063567053981,0.000466747365000801,-0.0403675072847088,-0.0233486679392235,0.00067119809638906,0.000652050863001669,-0.0335198753835511,-0.0324208866810941,-0.27767531915505,-0.000145819579959311,0
0.49,0.000810951856421722,0.00046674706438342,-0.0403649701234144,-0.02334864923125,0.00067116773387104,0.00065194294884966,-0.0335191891925298,-0.0324184236178054,-0.277676160926716,-0.000139039717297713,0
0.5,0.00081084649042143,0.000466746780981295,-0.0403625736677537,-0.0233486290421303,0.000671139095475554,0.000651841164018817,-0.0335185385791456,-0.0324160978951844,-0.277676954438658,-0.000132648552301583,0
0.51,4.71055654023304,-0.0196095723771829,4.4727668649577,0.985730346602019,-0.245998606491611,4.70416965464313,0.769608663046823,4.51497621812551,0.0480832708482943,14.8658214281782,728.809963725074
0.52,4.71633122547998,0.024829041971056,4.18474384753539,-1.23223053844058,-0.998523428642179,4.60948453432869,-2.11039213981121,3.81794685473409,0.218592000872758,31.655451427991,728.809963725074
0.53,4.71779991599561,0.0441543255933052,4.11213398451178,-2.19331737395708,-2.27581073237713,4.13282846997475,-3.92847488692679,2.50746327436002,0.512713695317153,48.6640303444114,728.809963725074
0.54,4.74371984321092,-0.00272570829968477,2.81687968949004,0.158336518355931,-3.81609169227847,2.81785904127265,-2.17095234858366,1.80190109003953,0.934176399282511,66.5557175848319,728.809963725074
0.55,4.7353762243117,-0.0182004444211552,3.23479022680215,0.934253505113868,-4.72215359025223,0.354097037578206,-3.15134002377114,1.18564475194316,1.49210657131797,85.6288431827711,728.809963725074
0.56,4.74059565574973,0.00102018136249749,2.9746794039388,-0.0207497330646438,-3.87502190481811,-2.73083383772485,-2.41921450811149,-1.73105438140539,2.18490315526323,103.106231864427,728.809963725074
0.57,4.7073839328987,-0.0024632838688925,4.63607850898201,0.161902506739687,-0.651123092891591,-4.66213559191317,-0.803997140902371,-4.56870057681112,3.00230496777364,120.030489886412,728.809963725074
0.58,4.70586188712569,-0.00919101788414112,4.71309576794124,0.497622759929785,3.40840896006601,-3.24468317967312,3.0634758434717,-3.61607741696042,-2.3335435781058,138.629254976802,728.809963725074
0.59,4.72979308288531,0.0520296061413612,3.51746748495105,-2.55479303611525,4.51046826875109,1.42454402649215,2.54613069892239,3.52374281539897,-1.25388007900419,155.710032698017,728.809963725074
0.6,4.70768746780534,-0.0122097083969801,4.62368996471154,0.65794640533488,0.211830300382562,4.70293507241493,0.87722996727927,4.58714180580615,-0.0476052875534169,173.862798667258,728.809963725074
0.61,4.66751578469423,0.0317243970300342,6.63324118088441,-1.52782714542178,-4.47690452564433,1.3206195159856,-6.79711691089166,0.365165783910736,1.29074355417262,191.009831714701,728.809963725074
0.62,4.68744885380317,0.0409955596410216,5.6376591704966,-1.99352681649076,-1.7956174204745,-4.33008261725102,-0.265825311891455,-5.97383352582828,2.75723740305319,209.170593651586,728.809963725074
0.63,4.6789931926872,0.0805993418098583,6.06154704982687,-3.96042091844605,4.35096405683722,-1.72295830687337,7.06786118411882,1.57245819357987,-1.9306209341542,226.413265394529,728.809963725074
0.64,4.7278874165131,0.0445017232520151,3.61799177056545,-2.1501355240444,1.0060181758741,4.61982978651879,-1.3686046166978,3.97993324401182,-0.205001225405386,243.912038253562,728.809963725074
0.65,4.6680789209656,0.0260700068310437,6.60955352030254,-1.22916001735036,-4.65579033600324,-0.339494926027442,-6.4930275332055,-1.74287852101969,1.64917103951688,261.784124405911,728.809963725074
0.66,4.60980945970417,0.0365942448065217,6.82392337228362,-1.75621431464018,2.13864819981411,-4.08385434007665,4.76291279433295,-5.19277195949574,-2.65123987408329,279.483197078692,728.809963725074
0.67,4.47295084216487,0.077498709180626,6.66625740652656,-3.80263043386908,2.37061232008268,3.79387565877169,0.174781729254351,7.67257697086034,-0.541168823039494,296.575952677534,728.809963725074
0.68,4.36690413006678,0.044820644280593,5.1796562582906,-2.16612958282742,-4.34008505616565,-0.485306373949086,-4.87859960848716,-2.77852878043723,1.69241664762755,313.079203754798,728.809963725074
0.69,4.19080816709491,0.0682361699917984,7.35091594589174,-3.33760590862185,3.25090832038077,-2.64558582562797,7.84057565056178,-1.92378582816558,-2.23761391675463,329.107683070387,728.809963725074
0.7,4.03023108810551,0.0142531241280497,8.91271628086899,-0.636967748640235,-0.910364293809084,3.92609253936239,-2.6639116463507,8.52911567259538,0.231385374167173,344.658414753531,728.809963725074
0.71,3.95721019473145,0.0340548679647619,6.25809267734901,-1.62551625168617,-1.31087144019822,-3.73393737582612,-0.483776612030029,-6.44763423531747,2.81257095341347,359.748258861962,728.809963725074
0.72,3.84124405293606,0.0417336096100871,5.94456273993855,-2.00643904350698,2.73278232984907,2.69977745491224,2.75771810551588,5.63547820995564,-0.78060929025033,374.313588403547,728.809963725074
0.73,3.68432110552542,0.0291922449313813,7.91918703900888,-1.37356910885635,-3.33988559433169,-1.55571154542217,-6.56208245810105,-4.64104398478329,2.01463301451265,388.345025178028,728.809963725074
0.74,3.60480987876512,0.0483764869565492,6.21308244338329,-2.3247374987562,3.54291487550915,0.666894842856699,5.62922204491119,3.5097944463297,-1.37132082068237,401.965974205303,728.809963725074
0.75,3.44454230587782,0.0188757984690837,8.67205830284455,-0.852226956219599,-3.44052678135876,-0.167342342230141,-8.61331388360881,-1.3197385859609,1.62487646766404,415.329472022699,728.809963725074
0.76,3.36864737892693,0.0590415113549776,6.96507159307773,-2.87659322485229,3.36888499111369,-0.0434163593964508,6.95165440966183,2.90886779462281,-1.56615809336221,428.290969298473,728.809963725074
0.77,3.25717945463501,0.028369106757262,7.33620169070459,-1.32934726169296,-3.2548250106401,-0.127031319076557,-7.26444073318365,-1.67777239902488,1.61851464081843,440.574608777139,728.809963725074
0.78,3.11889505381754,0.0883957317180795,9.20406924816501,-4.33257868273212,3.08414805416929,0.472600192633536,8.27741835613027,5.9135838646864,-1.39040941626283,452.656066362191,728.809963725074
0.79,3.05030989749069,0.0852283671219503,7.59729666561656,-4.18605888450165,-2.84246691147699,-1.10997126199302,-5.36594676171381,-6.81532251330461,1.97101625402856,464.399960135821,728.809963725074
0.8,2.95099436406691,0.064226738875335,7.83277795555441,-3.11903356959386,2.29088134548951,1.86127791359308,3.95129042408457,7.447689903172,-0.866735380146236,475.577642559772,728.809963725074
0.81,2.84305072830963,0.0713024513755598,8.49161990238072,-3.49572190632913,-1.37910841820113,-2.48718343797977,-0.831600384321109,-9.14527861870237,2.66038611555054,486.671655916265,728.809963725074
0.82,2.72826571697974,0.0792793320390526,9.77720614621106,-3.87547755903816,0.125213783060197,2.726543699167,-3.71027372367887,9.84108506372615,-0.0168414189386828,497.114264263592,728.809963725074
0.83,2.63497452824971,0.025077245258035,9.96678388825222,-1.18490517065048,1.29686114634712,-2.29387680572644,6.01337365646364,-8.03617562067352,-2.61751814757796,507.507284251516,728.809963725074
0.84,2.59541991505798,0.0338229833242853,7.74083644329687,-1.60220064712044,-2.34295485291534,1.1170994077883,-7.70072815493069,1.78504387603326,1.13891890025987,517.365242102631,728.809963725074
0.85,2.50102074457506,0.0762582822886704,8.26442687890245,-3.73848450458574,2.43952736787596,0.556440753177372,7.05565787123817,5.70041314571039,-1.3160578220412,526.989261302498,728.809963725074
0.86,2.40473205511525,0.0172315527968921,9.07849852708066,-0.803255490897008,-1.29269502302038,-2.02779998046379,-4.14475292099297,-8.11698084966216,2.58123022160029,536.354533292694,728.809963725074
0.87,2.33540408695023,0.0521367663472164,8.66240846071968,-2.523338072838,-0.555724250617966,2.26892067931519,-4.6849191727456,7.71077737423552,0.262521008207996,545.240056734484,728.809963725074
0.88,2.31384008913992,0.102684572530723,5.90820821509694,-5.06505787585398,2.07038587005918,-1.03822079954416,7.46108506425502,2.21222631361263,-1.99126389930388,554.000608821441,728.809963725074
0.89,2.14172825895205,-0.010474210742193,10.8418042644208,0.577014545332628,-1.84260373039194,-1.09175140807336,-9.64608778706121,-4.98303681481956,2.10079586130465,562.47928998721,728.809963725074
0.9,2.14287253966039,0.0597630792260258,7.25249319138802,-2.91368632945212,0.123167002308995,2.14016453489244,-2.69773211269081,7.33556180300613,-0.029604829969523,570.564677250148,728.809963725074
0.91,2.08026503109879,0.0680404658311291,6.9057196328018,-3.32663597340061,1.75998901829294,-1.11111239759585,7.63975920376062,-0.624139291298145,-2.10122994677177,578.39991709551,728.809963725074
0.92,1.96906858432536,0.0277120888591924,9.07259391672952,-1.3233418445306,-1.28522603298668,-1.49204326136321,-4.8091402448612,-7.80611069103042,2.4445979026411,586.078530444115,728.809963725074
0.93,1.91115362867465,0.0370244713280616,8.70438839662614,-1.80182819857965,-0.857731200664905,1.7082670140465,-5.65004240173497,6.86221415252493,0.484701444120539,593.467554115509,728.809963725074
0.94,1.82769642677786,0.0617981393128444,9.73170849000048,-3.04979335185311,1.81668005757908,0.209682633695721,9.17242843152045,4.45802044544326,-1.42208486901132,600.603561531103,728.809963725074
0.95,1.77620209936248,0.0225967753897183,9.2565878290763,-1.08318297644201,-0.263124699534406,-1.75674981273163,-0.181397737332517,-9.31798253157559,3.00563986420423,607.449239109699,728.809963725074
0.96,1.70738182267541,0.0120866821934773,9.70997744877969,-0.535073309008356,-1.5868521218928,0.630237351743911,-9.24341627722629,3.02146008210127,1.19981785462935,614.082364461639,728.809963725074
0.97,1.70927424535065,0.0325075681971972,6.71657910804625,-1.557180465776,0.932583714675474,1.4328163884222,2.23521347360752,6.52235131260507,-0.557973716143245,620.504360056941,728.809963725074
