t,iq,id,vq,vd,ia,ib,va,vb,theta_e,omega,r
0,0,0,0,0,0,0,0,0,0,0,0
0.01,0.00105981398617483,0.00060108542216374,-0.0526870263273701,-0.0300962329866655,0.00117462322218712,0.000323681411156546,-0.0585459601448601,-0.0159397783524456,-0.785984498526152,-0.00140533427045351,0
0.02,0.00117132650819367,0.000664873647134378,-0.0582816628552507,-0.0332900830233659,0.00129860302360066,0.000357341492897433,-0.0647615349373713,-0.0176330781609833,-0.785994822382484,-0.00146724064190475,0
0.03,0.00121216839240467,0.00068837970867585,-0.0603221763224801,-0.03446704317707,0.00134411500822192,0.000369558763303159,-0.0670371843422827,-0.0182416539027906,-0.786005131543774,-0.00143054757657456,0
0.04,0.00118684962467078,0.000674883767392208,-0.0590807176846631,-0.0337912925740533,0.00131666717042954,0.000361203119288507,-0.0656814368679818,-0.0178418470713504,-0.786014476159476,-0.00131019368739809,0
0.05,0.00121042635938037,0.00068863683652739,-0.0602632898086192,-0.0344799175914762,0.00134307094154227,0.000368121053581606,-0.0670049529815714,-0.0181896974029263,-0.78602354244071,-0.00126068267166055,0
0.06,0.00121008499188271,0.000688998651030599,-0.060259102756318,-0.034498030357059,0.00134308822698672,0.000367612354568537,-0.0670149452246436,-0.0181733508206681,-0.786032078976418,-0.00118257306954342,0
0.07,0.00124293173866174,0.000708214809596189,-0.061899541210289,-0.0354601872982387,0.00137991133905666,0.000377216409832501,-0.0688557089006832,-0.0186512583236308,-0.786039968744725,-0.0011567125254004,0
0.08,0.00120917866454892,0.000689512026008252,-0.0602371759480165,-0.0345237443705684,0.00134281539144577,0.000366587917567748,-0.0670178818851557,-0.018138627268456,-0.786047518368864,-0.00104089898270274,0
0.09,0.00120739176502899,0.000689010513826171,-0.0601589673056751,-0.0344986167811223,0.00134119919771116,0.000365670718655143,-0.0669449138814793,-0.0181006743658167,-0.786054485092881,-0.000975045867924571,0
0.1,0.00120656905252281,0.000688993837168727,-0.0601278800905264,-0.0344977821586967,0.00134060766160774,0.000365092431859242,-0.0669224453355373,-0.0180788619210845,-0.786060991891106,-0.000914722739684554,0
0.11,0.00120582435895103,0.000688990286454032,-0.060100022886501,-0.0344976224324784,0.00134008044211309,0.000364560568539236,-0.0669027311868983,-0.0180588832485679,-0.786067071374484,-0.000858394836509575,0
0.12,0.00120512958732431,0.000688987288406341,-0.0600740446930511,-0.0344974515082569,0.00133958878536684,0.000364064131643553,-0.0668843312411677,-0.0180402672033703,-0.786072751669742,-0.000805766467108481,0
0.13,0.00126276331507849,0.000722010906643648,-0.0629401486793833,-0.0361509437933418,0.00140370707637555,0.000381414974736957,-0.0700808522380892,-0.0188951634688704,-0.786078368360636,-0.000835207120001707,0
0.14,0.00133093474432533,0.000761914560503773,-0.066381834043209,-0.0381489036151605,0.00148014337053387,0.000401343610668728,-0.0739280595190227,-0.01991302974765,-0.786083579633357,-0.000883056905432773,0
0.15,0.00120682079832702,0.000690920812835421,-0.0601814061757437,-0.0345942787679479,0.00134215747965599,0.000363869906267771,-0.0670290039342972,-0.0180465621197031,-0.786088513585257,-0.000664788079083894,0
0.16,0.00120278019735442,0.000689028436369913,-0.0599874371845954,-0.0344995278763424,0.00133796273499923,0.000362348049570687,-0.0668248767372309,-0.0179762591414399,-0.786092795570222,-0.00062020204384361,0
0.17,0.00120219186718681,0.000688976009809373,-0.0599642133795039,-0.034496891657531,0.00133751083324141,0.000361964084661469,-0.0668066525245785,-0.0179614475673409,-0.786096787055801,-0.00058308075065979,0
0.18,0.00120173266436434,0.00068897270524649,-0.0599470002029841,-0.0344967400738471,0.00133718491460025,0.000361636957929375,-0.0667944322946518,-0.0179491426952466,-0.786100516189801,-0.000548526071531982,0
0.19,0.00120130661973192,0.000688970833574163,-0.0599310654620677,-0.0344966238470645,0.00133688338048074,0.000361332576890055,-0.0667831371935209,-0.017937732600746,-0.786104000456824,-0.000516243971932915,0
0.2,0.00120090830218826,0.000688969116909575,-0.0599161635660403,-0.0344965391619185,0.00133660149109906,0.000361047986161971,-0.0667725910492746,-0.0179270453557916,-0.786107255942317,-0.000486081658080746,0
0.21,0.00120053584908747,0.000688967513590098,-0.0599022246197534,-0.0344964830789453,0.00133633790479462,0.000360781878613392,-0.0667627426097671,-0.0179170326347121,-0.786110297668826,-0.000457899840608342,0
0.22,0.00120018828861655,0.000688966015363611,-0.0598892217207888,-0.0344963954330062,0.00133609193346674,0.000360533554310069,-0.0667535305895595,-0.0179077170521782,-0.786113139671842,-0.000431568474897639,0
0.23,0.00119986321654896,0.000688964615333254,-0.0598770549244505,-0.0344963392834352,0.00133586187600081,0.000360301301490992,-0.0667449290701965,-0.0178989824794031,-0.786115795065497,-0.000406966058022463,0
0.24,0.00119955989389969,0.000688963307074049,-0.0598657062171418,-0.0344962544986631,0.0013356472096077,0.000360084585915887,-0.0667368830447971,-0.0178908579106408,-0.786118276102795,-0.000383979065159252,0
0.25,0.00119927626568395,0.000688962084579595,-0.0598550905356683,-0.0344961982858016,0.00133544648024758,0.000359881944275414,-0.0667293729569034,-0.0178832419875391,-0.786120594232116,-0.000362501425657274,0
0.26,0.00121117804013427,0.000695812095214072,-0.060448411010637,-0.0348391742648186,0.00134870934834875,0.000363441619006933,-0.0673916008279685,-0.0180596399468279,-0.786122730872655,-0.000359698478884841,0
0.27,0.00116841624930712,0.000671555420484227,-0.0583312719047436,-0.0336246464841488,0.00130131141861366,0.000350388079438168,-0.065035332057808,-0.017422965228105,-0.786124872253726,-0.000280481984517657,0
0.28,0.001161283143692,0.000667329492211794,-0.0579305100955664,-0.0334130501600657,0.0012932785415112,0.000348335764838304,-0.0646022653633785,-0.0172893964860321,-0.786126780034129,-0.000253166523991554,0
0.29,0.00119725593019089,0.000688382068370403,-0.0597665741708805,-0.0344671620236475,0.00133360983449005,0.000358854348981018,-0.0666463603266036,-0.017840720313492,-0.786128440898152,-0.000288320202593836,0
0.3,0.0011920265802764,0.000685632036901624,-0.0595090769733944,-0.0343294715061168,0.0013279667112137,0.00035710372725523,-0.0663668800116691,-0.0177561283401362,-0.786129645547124,-0.000270059099065297,0
0.31,0.00119780375255463,0.000688867954531121,-0.05979784341936,-0.0344914798026349,0.00133434179911453,0.000358893927992163,-0.0666857191222857,-0.0178454229909377,-0.786131200833447,-0.000263986117682828,0
0.32,0.00119779384291003,0.000688953356991168,-0.0597995311451164,-0.0344957643098789,0.00133439565829692,0.000358824532802463,-0.0666899669939507,-0.0178434857257272,-0.786132669844558,-0.000250612991980184,0
0.33,0.00119763072495552,0.000688954926914121,-0.0597934787089488,-0.0344958528092204,0.0013342818335914,0.000358706332847231,-0.0666857711586501,-0.0178390549673761,-0.786134042849813,-0.000237898752517052,0
0.34,0.0011974737768522,0.000688954310987881,-0.0597875974551984,-0.0344958248857315,0.00133417079771006,0.00035859415976164,-0.0666816125744696,-0.0178348335702983,-0.786135325714789,-0.000226013103723061,0
0.35,0.00119732740229247,0.000688953680015094,-0.0597821147808675,-0.0344957683874468,0.0013340672028578,0.000358489581084207,-0.0666777143333451,-0.0178309196508205,-0.78613652434559,-0.000214907703127185,0
0.36,0.00119719036120835,0.000688953088964572,-0.059776977181433,-0.0344957404116608,0.0013339702124015,0.000358391674274802,-0.0666740790185872,-0.017827234629113,-0.786137644272858,-0.000204531491354819,0
0.37,0.00119706240051904,0.000688952536655758,-0.0597721799857254,-0.0344957124097144,0.00133387964831613,0.00035830025440802,-0.0666706832464679,-0.0178237950602229,-0.786138690664254,-0.000194836593912568,0
0.38,0.00119694282173262,0.000688952020586948,-0.0597676957298573,-0.0344956843837013,0.00133379501632941,0.000358214823231713,-0.0666675076717311,-0.0178205812137655,-0.786139668348249,-0.000185778275029013,0
0.39,0.00119683083019332,0.000688951538382505,-0.0597634916602298,-0.0344956848691143,0.00133371575408994,0.000358134814885602,-0.0666645493612494,-0.0178175494519627,-0.786140581836505,-0.000177314736198352,0
0.4,0.0011967263853942,0.000688951087821449,-0.0597595722432349,-0.0344956538859252,0.0013336418329036,0.000358060196668883,-0.066661769170992,-0.0178147450923482,-0.786141435343772,-0.000169406923451816,0
0.41,0.00119662892551831,0.000688950666828947,-0.0597559154894487,-0.0344956257923913,0.00133357285518134,0.000357990567801214,-0.0666591758886306,-0.0178121280210827,-0.786142232808831,-0.000162018347151318,0
0.42,0.00119653786848484,0.000688950273465029,-0.0597524979780031,-0.0344955976799607,0.00133350840899312,0.000357925513438775,-0.0666567509520642,-0.0178096835014961,-0.786142977911089,-0.000155114913610872,0
0.43,0.00119645241963886,0.000688949905917522,-0.0597492852865878,-0.0344955980754574,0.00133344793198471,0.000357864468771555,-0.0666544902213667,-0.0178073667949892,-0.786143674089183,-0.00014866476777638,0
0.44,0.00119637300413728,0.000688949562492888,-0.0597463036220933,-0.0344955699262539,0.00133339172498165,0.000357807731104383,-0.0666523719870399,-0.0178052365764032,-0.786144324555452,-0.000142638146235658,0
0.45,0.00119629849833151,0.000688949241608705,-0.0597435014698982,-0.034495570283172,0.00133333899282292,0.000357754503593443,-0.0666504001605204,-0.0178032158748777,-0.786144932311038,-0.000137007239876716,0
0.46,0.00119622921096264,0.00068894894178573,-0.0597408985798488,-0.034495542101702,0.00133328995395578,0.000357705001682365,-0.0666485484614716,-0.0178013588244535,-0.786145500160818,-0.000131746065567282,0
0.47,0.0011961640183826,0.000688948661642576,-0.0597384428124701,-0.0344955424256076,0.00133324381322026,0.000357658428898605,-0.0666468203471422,-0.0177995880433061,-0.786146030724823,-0.000126830346259524,0
0.48,0.00119610357857789,0.000688948399887255,-0.0597361708632296,-0.0344955142157235,0.00133320103620353,0.000357615247801146,-0.0666452015258747,-0.0177979696590282,-0.786146526451202,-0.000122237398964245,0
0.49,0.00119604688431195,0.000688948155314127,-0.0597340358916874,-0.0344955115988579,0.00133316091012431,0.000357574744493487,-0.0666436971375516,-0.0177964321203614,-0.78614698962767,-0.000117946030085472,0
0.5,0.00119599401150285,0.000688947926795378,-0.059732045019487,-0.0344954833645286,0.00133312348867975,0.000357536970559225,-0.0666422760758559,-0.0177950165549767,-0.786147422391172,-0.000113936437623349,0
0.51,1.62152554570605,-0.0585014828564517,5.69117040864246,2.93005348525243,-0.0990970352209892,1.61955157265341,2.78658909000779,5.76277322910567,0.0250493451117442,7.6715543311034,423.669757311465
0.52,1.65746174340802,-0.0560235971639734,3.30386060717136,2.80708311150717,-0.241895614127679,1.64067199225383,2.41809798640336,3.59833470298129,0.112594348499779,16.2041661052223,423.669757311465
0.53,1.66321598009254,0.0634645540563124,2.39989489690549,-3.17462716700075,-0.370574501319415,1.62264897159818,-3.68888672228498,1.49327422659129,0.262664912484201,24.7559087674942,423.669757311465
0.54,1.58768162199713,-0.0616465890337258,5.53827130152876,3.09138384775576,-0.78134826298681,1.3834840536466,0.21436315684399,6.33901818426877,0.475302509220447,33.2701473369818,423.669757311465
0.55,1.62838330427734,-0.0479909265989376,2.80446432379181,2.40943613805736,-1.14635175682732,1.15750290034364,-0.152719219540943,3.69419537745104,0.75109500084824,42.0139467868077,423.669757311465
0.56,1.61425524550684,0.00579613372669274,2.71478812688776,-0.28265454206146,-1.43016282975816,0.748657380375459,-2.53986713076112,0.999521446552311,1.09213455772769,51.1292397123822,423.669757311465
0.57,1.58298955155869,0.0307023046863817,3.41338450978918,-1.53436536326877,-1.5770007046893,0.140951513885095,-3.51201981381845,-1.29274425429559,1.50104642295372,60.3460129056911,423.669757311465
0.58,1.52725289791299,0.00957655034780258,5.47172922542863,-0.475037568589505,-1.40812517790576,-0.591419147346511,-4.844748633855,-2.58725570493937,1.97469864562503,68.7418063969057,423.669757311465
0.59,1.54986823395002,-0.0258477306051197,3.69554588025397,1.30263995171992,-0.897005940999888,-1.26417561659593,-3.23816105407769,-2.20640956867338,2.50780484963231,76.7059219554673,423.669757311465
0.6,1.57989372635574,-0.0195470691076154,1.52010543870416,0.991229869798031,-0.0474194169621858,-1.57930290741956,-1.05475486284773,-1.47673605592091,3.09920437162865,84.7316758854099,423.669757311465
0.61,1.54782402503656,0.00794579088812218,2.29810366920671,-0.39345967816782,0.880471434779613,-1.27302490180292,1.6393799487813,-1.65786741819094,-2.53136787685105,93.3947318754567,423.669757311465
0.62,1.50845301284939,-0.037175549928448,3.50723677426874,1.86887115855582,1.47217951099888,-0.330907843488136,2.94722476365177,-2.6659436210435,-1.81653558638027,101.467697435197,423.669757311465
0.63,1.47338785548499,-0.0482806771309773,4.59683759240556,2.43176311134224,1.25010264057923,0.781310555727816,5.19641521178536,0.204099552580541,-1.04495583585275,109.084432697356,423.669757311465
0.64,1.43888200925574,0.0456952013279015,5.52694291892598,-2.28317368217497,0.352724385979563,1.39572740731117,-1.0468105724116,5.88762836102362,-0.215787666230761,117.304863353653,423.669757311465
0.65,1.47357615705861,0.0244127935383553,3.0195627334558,-1.21261921293466,-0.899953821790565,1.16709288138713,-2.83111643342397,1.60405242970736,0.673439006556373,125.106334278561,423.669757311465
0.66,1.43266685056192,-0.0156207947970511,4.37857073712538,0.800539189583873,-1.43037668476142,-0.0824672881816207,-4.41116123999956,0.595316057901851,1.61748395121936,132.536613618966,423.669757311465
0.67,1.42134697195325,0.0781258697853207,4.10153103379206,-3.9055499154832,-0.777406029889364,-1.19246414239676,1.3358173762233,-5.50376860895061,2.61877099053827,140.585768324176,423.669757311465
0.68,1.32154417773936,0.00403497197772323,8.39549273953493,-0.184745413861297,0.669406078750969,-1.13946952414135,4.43366323047433,-7.13169401799225,-2.60738287021563,147.773335976224,423.669757311465
0.69,1.41261981138545,-0.00807827953215612,3.03111856550038,0.410308879437039,1.40808261298404,0.113416688061798,3.0532788428684,-0.183088618865699,-1.49614153216492,155.49501781526,423.669757311465
0.7,1.3121797711413,0.0136454941352335,7.3359188310275,-0.665575941846879,0.438137410329041,1.23694687071547,1.74763777936675,7.15572907689491,-0.330020605692305,162.568165140125,423.669757311465
0.71,1.26447281699068,-0.00189224856735842,8.92778701593236,0.0993109183135925,-0.982653180625015,0.79579382513345,-6.86696442825526,5.70614083259637,0.88858643398315,170.017471450288,423.669757311465
0.72,1.29982243339975,-0.0221664615541679,6.43486891887202,1.13028291801103,-1.06794927256907,-0.741292156714397,-5.97657497564489,-2.63924781676674,2.16051782545233,176.942256946683,423.669757311465
0.73,1.24268283701688,0.0664011955061919,8.48542757294297,-3.31882035077317,0.354980441625777,-1.19275254694515,5.97685775145873,-6.8770793971856,-2.79894285821467,184.211712687262,423.669757311465
0.74,1.22082713307333,-0.0563802590464065,8.8735677074003,2.8465860053361,1.19950709393994,0.234052032774634,9.19412990130252,-1.52027336409199,-1.42424329450232,190.896090935699,423.669757311465
0.75,1.23356491258353,-0.0419717379127545,7.43938565286049,2.11383348554542,-0.0435707763321568,1.23350946805869,2.104188012844,7.44211957060643,0.00129630319055652,197.874663312137,423.669757311465
0.76,1.19595588857425,0.0318528723732149,8.57527828644332,-1.59030415148925,-1.18756523901376,0.144961705219108,-8.68733828552426,-0.77111509974491,1.47595844878877,204.652375027182,423.669757311465
0.77,1.17285663337336,0.0342586433836981,8.97289706653206,-1.69303316524144,-0.198598153103419,-1.15642773690287,0.416391590656769,-9.12172467839374,3.0007187960774,211.212304408536,423.669757311465
0.78,1.14686530176197,0.0761767361121281,9.48105402447689,-3.80533150801023,1.12535721668576,-0.233824828372761,9.91571663312349,2.45957251417863,-1.70933545675475,217.934540906424,423.669757311465
0.79,1.16507711688565,0.0458809295599414,7.82712764524569,-2.29285298799553,0.148806713355713,1.15644554997117,-1.59117973748042,7.99932803693917,-0.0886128975354177,224.419067924594,423.669757311465
0.8,1.13139746944863,0.0473961273291333,8.76480049673899,-2.34826034175054,-1.13177897993669,0.0371882687688094,-8.74326107195984,-2.4272289154149,1.57981708992777,230.661719871058,423.669757311465
0.81,1.21135595884722,-0.0158299577186934,3.98672634515183,0.808039825496808,0.200123972727808,-1.1948155682513,-0.191471892506835,-4.06328116490804,-2.98870671234798,237.038654376369,423.669757311465
0.82,1.08768917622004,-0.0168186489786658,9.39774025813304,0.846047735515066,1.01888537810484,0.381081615016864,9.13616236138707,2.35878274465428,-1.22834824450039,243.364342005217,423.669757311465
0.83,1.10715566827909,0.0446198410217537,7.69597590580628,-2.21027361756321,-0.566997661672362,0.951996983016962,-6.05303538682145,5.24157583300424,0.577448348726639,249.370559884551,423.669757311465
0.84,1.05831685969819,-0.00682658536267988,9.38479456996054,0.36821250205339,-0.687732737358736,-0.804428281299342,-6.42266200461382,-6.85269015361991,2.42779103741527,255.335419326545,423.669757311465
0.85,1.02490196511408,0.062353024060195,10.2947182852968,-3.10444084400104,0.92399740651435,-0.447817742456582,10.7013951747564,-1.04829329923774,-1.96132765797371,261.291776358528,423.669757311465
0.86,1.03880298268234,0.032768756890691,8.83857156009865,-1.63204116959735,0.0580346644573208,1.03769812854183,-1.41650251329306,8.87566483324375,-0.0243338765163371,267.195372958394,423.669757311465
0.87,1.06441912291326,0.00897096639889561,6.81143515017148,-0.445743008060917,-0.990172108993999,-0.390676006470759,-6.14770975183938,-2.96647946923045,1.95502660335887,272.971051729596,423.669757311465
0.88,0.993627261450708,-0.028112871075692,9.61677999494738,1.40978207784482,0.755234460869408,-0.646302079010617,6.18027197583561,-7.50161191231149,-2.30691252305882,278.599282657742,423.669757311465
0.89,1.05272299318646,0.0307057386885855,5.9343028578419,-1.50643172999665,0.284573851733202,1.01399520002888,-0.0254217780091179,6.12247014683895,-0.244448128481489,284.085644763982,423.669757311465
0.9,1.02343813367792,0.0682607506990327,6.65942358428752,-3.38760755727085,-1.00076712528743,-0.224833948717871,-5.42504870879297,-5.13737811965084,1.85838750347238,289.543196941936,423.669757311465
0.91,0.980782118115821,-0.0310635625239621,8.04895949402958,1.58238252612179,0.763236492860637,-0.616740272803902,5.06420517588785,-6.45317823494867,-2.28209378692504,294.928593334817,423.669757311465
0.92,1.01434397576143,0.0396731269577532,5.62298199358651,-1.96243182633351,0.140840691574363,1.00530172473888,-1.39068834757078,5.79094561303555,-0.100099810377886,300.293807237622,423.669757311465
0.93,1.02493231822265,0.0412594782106195,4.36063278569913,-2.04494030438135,-0.895385479721875,-0.500473220245295,-2.64900160540527,-4.02239849278484,2.12071692228646,305.51836476416,423.669757311465
0.94,0.914405748106193,0.0567011527336279,9.1558937284297,-2.82299953271132,0.845612305202393,-0.35255172979474,9.57567980240159,-0.325687963954624,-1.90387287404584,310.655718207449,423.669757311465
0.95,0.842940382832513,-0.0459632296889343,12.0248094648291,2.31440748423186,-0.364127516500624,0.761624749611217,-2.44902467291453,11.9981166363712,0.39149566291797,315.614206606928,423.669757311465
0.96,0.838370695649878,0.0249169506915995,11.5312803604574,-1.23585406425048,-0.363360964360226,-0.755946484438835,-3.55537494180151,-11.0388890311845,2.72324004011901,320.584928947079,423.669757311465
0.97,0.879561712362107,0.0345718783888426,8.75886615516111,-1.71848930236816,0.83005457877619,0.292973406440544,7.50343994376056,4.83418357292718,-1.19220424228263,325.436338325491,423.669757311465
