t,iq,id,vq,vd,ia,ib,va,vb,theta_e,omega,r
0,0,0,0,0,0,0,0,0,0,0,0
0.01,-2.9749834393597e-05,0.000452304028139052,0.00139578301289978,-0.0226250923077609,0.000452304398405952,-2.97442044756433e-05,-0.0226251096795891,0.00139550139389524,1.24471932572591e-05,-0.000562377810711214,0
0.02,1.28644522098459e-05,0.0005983412638387,0.00026367552741307,-0.0299301475850189,0.00053765798562147,-0.00026287193201294,-0.0264787673252037,0.01395557738621,-0.476241549148142,-0.00149360974720211,0
0.03,2.0922019853334e-06,0.000654055021843998,-0.000425202078469568,-0.0327170519416503,0.000582233339749254,-0.000297987729601287,-0.029271349724322,0.0146210249256547,-0.476242751943609,0.000694417668614117,0
0.04,-3.79102891633669e-06,0.000649478176748717,9.87510786907602e-05,-0.0324881123732859,0.000649478181328852,-3.79024416750594e-06,-0.0324881124925807,9.87118240874989e-05,1.20827589914139e-06,8.67254473102783e-05,0
0.05,9.41227846350663e-07,0.00066616652876242,6.19523223548359e-05,-0.0333228923122933,0.000666166528655168,9.41303752574331e-07,-0.0333228923193522,6.1948525383946e-05,1.13944817694073e-07,-0.000194757784617182,0
0.06,5.29979512765048e-07,0.000670119076020416,-4.64549213934937e-05,-0.0335206079832396,0.000595794303105224,-0.000306739311650953,-0.0298118873195813,0.0153259483253186,-0.476240637991967,5.31971924954712e-05,0
0.07,-4.19431702061514e-07,0.00067997344420971,3.01453368255281e-06,-0.0340135410207472,0.000679973444250073,-4.19366261313337e-07,-0.0340135410210372,3.01126021416745e-06,9.62401528070768e-08,2.53920337620851e-05,0
0.08,3.45103893236373e-08,0.000673389170441116,9.66134407983118e-06,-0.0336841838799483,0.000673389170439738,3.45372716516389e-08,-0.033684183880334,9.65999937558098e-06,3.99209390077107e-08,-2.19892237920598e-05,0
0.09,8.47492354756318e-08,0.00067182972027059,-4.38193780938743e-06,-0.033606176158614,0.000597110571330615,-0.000307919057264274,-0.0298686502962122,0.0154025590304909,-0.47624035056282,2.36562762396507e-06,0
0.1,-4.00477334763439e-08,0.000671460372804951,-6.42263238715459e-07,-0.033587700782441,0.000671460372805157,-4.00442853817162e-08,-0.0335877007824377,-6.42435718842829e-07,5.1352168606862e-09,4.23965224360405e-06,0
0.11,-4.71603332705957e-09,0.00067137289482525,1.22473395600685e-06,-0.0335833271645864,0.000671372894825284,-4.71120230745423e-09,-0.0335833271645952,1.2244922993758e-06,7.1957322712508e-09,-2.15069792245022e-06,0
0.12,1.10002126339673e-08,0.000671352176131715,-3.4794116015288e-07,-0.0335822912922991,0.00059665236677779,-0.000307765653925605,-0.0298455743910165,0.0153951933353301,-0.47624031696196,-1.78456965259967e-07,0
0.13,-3.0850236353338e-09,0.000695545587556358,-1.95182941998426e-07,-0.0347924904487433,0.000695545587556358,-3.08495227788903e-09,-0.0347924904487433,-1.95186511431199e-07,1.02592045793805e-10,5.69199627866656e-07,0
0.14,-1.42631058132529e-09,0.000709545733301109,1.13234953606894e-07,-0.0354928031184578,0.000709545733301111,-1.42542231102043e-09,-0.0354928031184579,1.13190520666822e-07,1.25188590836031e-09,-1.72977561451578e-07,0
0.15,1.16153624692978e-09,0.000680393209591435,-3.52494091167577e-08,-0.0340345400684322,0.000604682847980474,-0.00031191917705987,-0.0302473557935586,0.0156028005553118,-0.47624031354623,-6.76100956418104e-08,0
0.16,-1.16449373930999e-10,0.000673488589636056,-5.57123184228385e-08,-0.0336891576736362,0.000673488589636056,-1.1631348240691e-10,-0.0336891576736362,-5.57191159707881e-08,2.01772570730515e-10,6.58618234730133e-08,0
0.17,-2.32900981827543e-10,0.000671853267178166,-1.38548886313165e-08,-0.0336073553392378,0.000671853267178166,-2.32620570202548e-10,-0.0336073553392378,-1.3868915344563e-08,4.17370337681698e-10,-9.05580733870414e-09,0
0.18,1.16366774745358e-10,0.000671465949764744,-2.54486683381197e-08,-0.0335879807803063,0.000671465949764744,1.16560302325848e-10,-0.0335879807803063,-2.54583489491115e-08,2.88216521712492e-10,-1.19553918549199e-08,0
0.19,-4.825935494404e-14,0.000671374215698473,-3.0481218230012e-08,-0.0335833918236869,0.000671374215698473,1.44157679441911e-13,-0.0335833918236869,-3.04908432893429e-08,2.86601763795423e-10,6.62155644649624e-09,0
0.2,-2.91572693385435e-11,0.000671352488973377,-2.65337569174794e-08,-0.0335823064817805,0.000671352488973377,-2.89442146516057e-11,-0.0335823064817805,-2.65444143111908e-08,3.17351451640003e-10,2.93499210141057e-10,0
0.21,-5.1550466213942e-14,0.000671347343114384,-2.66266282608664e-08,-0.0335820475735059,0.000671347343114384,1.53971508343786e-13,-0.0335820475735059,-2.66369088537633e-08,3.06133593385966e-10,-1.65574115411698e-09,0
0.22,2.90527772870543e-11,0.000671346124345296,-2.94078141614357e-08,-0.0335819894540774,0.000671346124345296,2.925632094403e-11,-0.0335819894540774,-2.94179957960562e-08,3.03187356855913e-10,5.56052118712683e-10,0
0.23,-5.16812470544074e-14,0.000671345835686119,-2.80012214911641e-08,-0.0335819749839932,0.000671345835686119,1.5436573054239e-13,-0.0335819749839932,-2.80115283465572e-08,3.06916296555584e-10,1.76959434121903e-10,0
0.24,-5.15604368467265e-14,0.000671345767318601,-2.79040469638356e-08,-0.0335819692435433,0.000671345767318601,1.54004165437904e-13,-0.0335819692435433,-2.79143296892024e-08,3.06197807883214e-10,-1.96282953571434e-10,0
0.25,-5.14594032426481e-14,0.000671345751126316,-2.81599493893481e-08,-0.033581969323484,0.000671345751126316,1.53702845691294e-13,-0.033581969323484,-2.81702119885207e-08,3.05598491671008e-10,3.29284127470671e-11,0
0.26,-5.18551995764122e-14,0.000675639017822646,-2.83164270662352e-08,-0.0337967258391807,0.000675639017822646,1.54885029795048e-13,-0.0337967258391807,-2.83267685987218e-08,3.05992140651844e-10,3.37376129856943e-11,0
0.27,-5.11232253947628e-14,0.000666119090421915,-2.84278544626401e-08,-0.0333205224371834,0.000666119090421915,1.52698611305935e-13,-0.0333205224371834,-2.84380500120255e-08,3.05984079470832e-10,-2.03555500075879e-11,0
0.28,-5.10696216647596e-14,0.000665614723740993,-2.85800245612056e-08,-0.0332952930008765,0.000665614723740993,1.52538546923252e-13,-0.0332952930008765,-2.85902094224905e-08,3.05894928891689e-10,-1.1382690773649e-13,0
0.29,-5.14111274899715e-14,0.00066998838398182,-2.87270942864106e-08,-0.0335140711075394,0.00066998838398182,1.53558595797165e-13,-0.0335140711075394,-2.87373472550372e-08,3.05930264147234e-10,4.9721977612901e-12,0
0.3,-5.07251994010931e-14,0.000661035070090975,-2.88665924574588e-08,-0.0330662108991791,0.000661035070090975,1.5150978747294e-13,-0.0330662108991791,-2.88767086298523e-08,3.05936849683634e-10,-1.45786744620518e-12,0
0.31,-5.13273583322178e-14,0.000668903717409241,-2.90101633747675e-08,-0.0334598147126874,0.000668903717409241,1.53308377474502e-13,-0.0334598147126874,-2.90203996369163e-08,3.05927042234573e-10,-2.55202369589812e-13,0
0.32,-5.14707366556142e-14,0.000670767364613035,-2.91538226023325e-08,-0.0335530388738653,0.000670767364613035,1.53736624608155e-13,-0.0335530388738653,-2.91640874585747e-08,3.05929256683728e-10,6.52401059577514e-13,0
0.33,-5.15048515580079e-14,0.000671208759526245,-2.92966904303544e-08,-0.0335751169628923,0.000671208759526245,1.53838520116666e-13,-0.0335751169628923,-2.93069620896909e-08,3.05930708978843e-10,2.93742380276551e-14,0
0.34,-5.15126915239041e-14,0.000671313301560153,-2.94399088162325e-08,-0.0335803462748172,0.000671313301560153,1.53861946617158e-13,-0.0335803462748172,-2.94501820395528e-08,3.05929642186093e-10,5.39697081621729e-14,0
0.35,-5.15146118090177e-14,0.000671338061784185,-2.95830995911147e-08,-0.0335815860059311,0.000671338061784185,1.53867663004984e-13,-0.0335815860059311,-2.95933731967962e-08,3.05929734220888e-10,1.91739326782239e-13,0
0.36,-5.15150952952113e-14,0.000671343926111314,-2.97264114430283e-08,-0.0335818799939289,0.000671343926111314,1.5386910483393e-13,-0.0335818799939289,-2.97366851452145e-08,3.05929929713979e-10,1.24100534360408e-13,0
0.37,-5.15151791246285e-14,0.000671345315046006,-2.98696069436367e-08,-0.0335819499134079,0.000671345315046006,1.53869367489393e-13,-0.0335819499134079,-2.98798806632901e-08,3.05929812886155e-10,1.2887765815711e-13,0
0.38,-5.15152107665322e-14,0.000671345644007934,-3.00128129690328e-08,-0.0335819645429068,0.000671345644007934,1.53869459662896e-13,-0.0335819645429068,-3.00230866943211e-08,3.05929847408083e-10,1.40417846286157e-13,0
0.39,-5.15152196944307e-14,0.000671345721920642,-3.01560074366014e-08,-0.0335819704429813,0.000671345721920642,1.53869481031476e-13,-0.0335819704429813,-3.01662811640179e-08,3.05929857031523e-10,1.34381112972841e-13,0
0.4,-5.15152243555122e-14,0.000671345740373838,-3.02992086197345e-08,-0.0335819705227171,0.000671345740373838,1.53869492415392e-13,-0.0335819705227171,-3.03094823476956e-08,3.05929872522221e-10,1.36330469494664e-13,0
0.41,-5.15152243555122e-14,0.000671345744744207,-3.04423929320286e-08,-0.0335819706025133,0.000671345744744207,1.53869504455795e-13,-0.0335819706025133,-3.04526666605495e-08,3.05929888465386e-10,1.36583588675891e-13,0
0.42,-5.15152290165938e-14,0.000671345745779708,-3.05855779425817e-08,-0.0335819706823272,0.000671345745779708,1.53869511345334e-13,-0.0335819706823272,-3.05958516716889e-08,3.05929905198686e-10,1.36511781294941e-13,0
0.43,-5.15152290165938e-14,0.00067134574602508,-3.07287617983921e-08,-0.0335819707621415,0.00067134574602508,1.538695199841e-13,-0.0335819707621415,-3.07390355279521e-08,3.05929917954706e-10,1.34594484510158e-13,0
0.44,-5.15152290165938e-14,0.000671345746082941,-3.08719456538416e-08,-0.0335819708419559,0.000671345746082941,1.53869509646465e-13,-0.0335819708419559,-3.0882219382908e-08,3.05929902529962e-10,1.31723262595968e-13,0
0.45,-5.15152290165938e-14,0.000671345746096966,-3.10151336728492e-08,-0.0335819709217702,0.000671345746096966,1.53869510882193e-13,-0.0335819709217702,-3.10254074020017e-08,3.05929904364244e-10,1.36376222268324e-13,0
0.46,-5.15152290165938e-14,0.000671345746099785,-3.11583175286319e-08,-0.0335819710015846,0.000671345746099785,1.53869516141682e-13,-0.0335819710015846,-3.11685912580718e-08,3.05929912197207e-10,1.3407202410671e-13,0
0.47,-5.15152290165938e-14,0.000671345746100378,-3.13015027719989e-08,-0.0335819710813989,0.000671345746100378,1.53869513333126e-13,-0.0335819710813989,-3.13117765013227e-08,3.05929908013466e-10,1.34596307952518e-13,0
0.48,-5.15152290165938e-14,0.000671345746100583,-3.14446880155879e-08,-0.0335819711612133,0.000671345746100583,1.53869520826844e-13,-0.0335819711612133,-3.1454961745311e-08,3.05929919175605e-10,1.34670944922474e-13,0
0.49,-5.15152290165938e-14,0.000671345746100716,-3.15878718710374e-08,-0.0335819712410276,0.000671345746100716,1.53869510407177e-13,-0.0335819712410276,-3.15981456002637e-08,3.05929903654978e-10,1.33648910931244e-13,0
0.5,-5.15152290165938e-14,0.000671345746100679,-3.1731058502433e-08,-0.033581971320842,0.000671345746100679,1.5386952069564e-13,-0.033581971320842,-3.17413322321984e-08,3.05929918980127e-10,1.33422694830083e-13,0
0.51,0.543212779283917,0.00374118001576071,1.93758656463041,-0.171473996820148,-0.540376744763483,-0.0555616209634792,-1.9073015947376,-0.381897438762231,1.68014345244558,386.240752646484,428.822819455033
0.52,0.027815602073798,0.0245767931275619,3.53727972649007,-1.22501784569201,0.0274121089595453,-0.0250260416676882,3.5567400759818,1.16731170541827,-1.58706492178939,421.245570405014,428.822819455033
0.53,-0.00944983617020648,-0.0161792955468347,4.53221374224194,0.804666896072222,0.00838194531325642,-0.0167574461300386,-4.47057126644254,1.09655951532945,1.50597407399443,422.352007623983,428.822819455033
0.54,0.0207568987617535,-0.0166558621954017,2.79233271803108,0.824634239030909,0.0224230454705916,0.0143343511712836,2.68782149426811,-1.11926728323457,-1.67822018471246,422.768356621966,428.822819455033
0.55,-0.000330400571666545,0.0242478591787992,3.60921838234309,-1.20439023864336,0.00388007741771038,0.023937686574212,-3.7467462538918,-0.662499575343599,1.42372830109692,423.082682021375,428.822819455033
0.56,-0.0152543773719185,0.00466130593448622,4.24161626041599,-0.23035107081721,-0.0158554661990231,-0.00174011310879874,4.21035417135762,-0.563283115478781,-1.75804590201551,423.451772592244,428.822819455033
0.57,-0.017117263681662,-0.0196683579715661,4.47502370720934,0.978212392996083,0.0122721554069059,-0.0230051999103238,-4.1418130910275,1.95655845424817,1.34468683321596,423.304377687234,428.822819455033
0.58,-0.00631748201945322,-0.0418933584180457,3.81009966246206,2.08695557423861,0.00481750130267029,0.0420922289717202,3.13463920469953,-3.0077034533178,-1.83442297161183,423.368451393148,428.822819455033
0.59,-0.0100973040145335,0.0119431296263009,3.95472607818502,-0.589191313012188,0.0131973644966147,0.00839186892033196,-3.95064242892597,0.615978210309086,1.26822695209291,423.173480155792,428.822819455033
0.6,0.0267000337545988,0.0124614692497612,2.4612959839944,-0.620916373477178,0.0209790124266797,-0.0206896364385815,2.52704237074809,-0.239941493124661,-1.91257804684328,423.322096893361,428.822819455033
0.61,0.0355179711714894,0.0195395033911233,2.16086573270783,-0.983308455217578,-0.0256530658010338,0.0313885119736234,-2.37173815115815,-0.105329840188945,1.18812950703509,422.898237362788,428.822819455033
0.62,0.00129037118366437,0.0180530780162179,3.58534053713986,-0.911660784398981,-0.00619817478182749,-0.0170047438388586,3.64491486400229,-0.632762030501557,-1.99168224059236,422.825762083694,428.822819455033
0.63,-0.0420037110319023,0.0228507403699491,5.52571134187367,-1.13570952041835,0.0477797532944396,0.00188765755073841,-5.45731171869368,1.42866047523155,1.11204499615532,423.627427744781,428.822819455033
0.64,-0.000193993641250598,-0.010345872152777,3.66310947057884,0.518682670981134,0.00478228100611576,0.00917630058972551,2.96782984922754,-2.20893383618762,-2.06997349998514,423.235817909801,428.822819455033
0.65,-0.00965559791470805,-0.0290948888700203,4.15808742942719,1.44845967491887,-0.00658845885753797,-0.0299388600205799,-2.83171431692937,3.3718126472157,1.03375600910386,423.34537024577,428.822819455033
0.66,-0.0291442099469164,-0.00121561821644394,5.19724473259017,0.056478733784597,-0.0237968469894127,0.0168692849415904,4.33083158492055,-2.87375023981917,-2.14577582710442,423.720114727471,428.822819455033
0.67,0.00705593030918533,0.00745499056496085,3.14402897829471,-0.365196053969119,-0.00149154587824677,0.0101557041973868,-2.78307762413412,1.50756933911362,0.958717185618656,423.69777623337,428.822819455033
0.68,0.0298276165294306,0.0145186837285782,1.91686125537463,-0.725745531981448,0.0150618780470754,-0.0295570417114479,1.96721107173852,-0.575451343535515,-2.21731104804302,424.438043272292,428.822819455033
0.69,0.0165646422266535,-0.0348132600803183,3.16607098278877,1.73433917359398,-0.0347960424110528,-0.016600779561368,-1.36618845666002,3.34147676005813,0.889263112679371,423.029811164656,428.822819455033
0.7,-0.00872207353816395,0.0245786973938612,4.21955583387438,-1.22836139127152,-0.0227609845082488,-0.0127328125957857,3.98270681492553,-1.85784002785372,-2.29054992740619,422.957367997297,428.822819455033
0.71,0.0226885580502969,-0.0192640247597578,2.71083479257017,0.97126009597929,-0.0297179842213506,0.00164764382249609,-1.29749592148851,2.57069558298359,0.811460297937868,423.377082175146,428.822819455033
0.72,0.0310945759629103,-0.00550634650026268,2.32314611312598,0.275132614185799,0.0256247850914148,-0.0184543462391101,1.4222877365627,-1.85736464183649,-2.37020190493943,423.6912428119,428.822819455033
0.73,0.0367322563685752,0.014035804790866,2.11515383212796,-0.709698578028909,-0.0141608221478964,0.0366842417142521,-1.94310504046721,1.09630771543978,0.733386664681853,423.606365305017,428.822819455033
0.74,0.00220737144943778,-0.0137559796173011,3.4242917730806,0.695268546843432,0.0119409439682844,0.00717727811176978,1.67517480548709,-3.06642493312303,-2.44128085280216,423.91043164583,428.822819455033
0.75,-0.00837962984826048,-0.0286259472068353,4.15328014165015,1.43847186709889,-0.0173759438789792,-0.0242433418529077,-1.42735967169608,4.1571121725395,0.664157439046884,423.655802471729,428.822819455033
0.76,-0.0306383862054255,0.0273408109977351,5.18216110698993,-1.37007549067689,-0.0401303167720404,0.00870564937625961,4.15532368650781,-3.38602800480145,-2.51300498546491,423.990789549978,428.822819455033
0.77,-0.000383929902997512,-0.0417422732695333,3.67864337406716,2.07979893759974,-0.0343994375574841,-0.0236483292350128,-0.331376631419031,4.21285772636088,0.593064629143786,423.736636992132,428.822819455033
0.78,-0.0180261134598659,-0.00906634027981971,4.64465431432614,0.46183473281443,-0.00187220782451545,0.0200906478342353,2.07140678862778,-4.18274777341988,-2.58266343960257,424.226082578212,428.822819455033
0.79,0.0130903530323059,0.0326270990510708,2.95055005803376,-1.62623897619866,0.021648644115954,0.0276987570648857,-2.8875397773782,1.73565920811931,0.525841855004147,423.868682583348,428.822819455033
0.8,0.0331908952679409,0.0276496163625362,2.36544795165853,-1.38543653049879,-0.0089219247337012,-0.0422674351330788,2.3306793422928,-1.44316048846123,-2.65505160898309,423.679278894619,428.822819455033
0.81,-0.0266586275871114,0.0140586408007251,5.43271463436951,-0.712520860548124,0.0242824998758555,-0.0178518348012518,-3.01176873284647,4.57726155851479,0.451558598006581,423.401578032432,428.822819455033
0.82,-0.00221016814594037,-0.00396151734379317,3.88099584289299,0.20686068994518,0.00273005714442173,0.00362287881203546,1.37956579815243,-3.6334168885727,-2.72546752106497,423.835226036041,428.822819455033
0.83,-0.0134683137501537,-0.0212648878987933,4.3876144323939,1.06878439587022,-0.0147251099084256,-0.0204147513040353,-0.640865728054882,4.47020711050524,0.381331354080811,423.954390766018,428.822819455033
0.84,0.0118476547173536,-0.0273460454638936,3.15119745915618,1.36477744378659,0.0297477909292929,-0.00180057203189556,-0.207039353191625,-3.42779777756667,-2.79320975444079,424.070006069712,428.822819455033
0.85,-0.00378081253092301,-0.0056251229574368,4.09026991826129,0.27245688595021,-0.00417671276206536,-0.00533775441393358,-1.00838726544465,3.97337336300328,0.315051666986105,423.581569113447,428.822819455033
0.86,0.0130651141699862,0.00519677216840048,2.84165205905788,-0.250950208894967,-0.001337543703772,-0.0139969505995247,1.03526938391968,-2.6582286836935,-2.85828966768879,424.365801095445,428.822819455033
0.87,0.00931812604408585,-0.00661422083806035,3.27541913397144,0.335532950579786,-0.00870226550896441,0.0074058061870124,-0.480109661814663,3.25736819790812,0.248421868172158,423.9681496244,428.822819455033
0.88,0.00240991174309823,-0.0237259157387708,3.82134385551119,1.18283718076154,0.0237020103270332,0.00263466481928664,-0.352567805919304,-3.9846541381247,-2.92966344539348,423.536220927079,428.822819455033
0.89,0.00146117046889212,0.0198823158934459,4.09645044168587,-1.00356692059429,0.0193150928017154,0.00493646578911034,-1.70864038850806,3.85598246988475,0.176860251926076,423.815529364984,428.822819455033
0.9,-0.00506664398997983,0.0389337957079464,3.82802371443139,-1.93895298642188,-0.0392569423469259,-0.00063545819645082,2.4738067651197,-3.50622080460593,-2.99599929364111,424.344350916854,428.822819455033
0.91,6.33234280768206e-05,-0.0150321308592543,3.74222822083698,0.755832699212703,-0.0149454668460356,-0.00161306812637887,0.333883065166325,3.80316673639521,0.111726587659868,423.886204872933,428.822819455033
0.92,0.036958203116791,0.0145106687822395,1.99120157076238,-0.730208461020827,-0.0115371317089324,-0.0379916158916752,0.885661767373686,-1.92709401061949,-3.06228683362508,424.267264091262,428.822819455033
0.93,0.0237938094759001,-0.0020253970755425,2.86965880438186,0.0929053302372219,-0.00314852863716176,0.0236713829361536,-0.0429276163420688,2.87084138776562,0.0473155995377205,423.658366600184,428.822819455033
0.94,-0.00138872828465819,-0.0538796369464404,3.69729813674447,2.70438205810702,0.053852395700859,0.00220529385954279,-2.64802648822106,-3.73786724561814,-3.12643374647477,424.654365639412,428.822819455033
