t,iq,id,vq,vd,ia,ib,va,vb,theta_e,omega,r
0,0,0,0,0,0,0,0,0,0,0,0
0.01,0.00102039478195467,0.000576908711814137,-0.0498255638491223,-0.0288924665888208,0.000479420444881127,0.00106966593375565,-0.0241290088184444,-0.0522986842273161,0.0932199323968365,-0.00263330662854205,0
0.02,0.00112859092888164,0.000639413587971085,-0.0553574151330528,-0.0320228245789383,0.000531605031597623,0.00118320045284646,-0.0267319494384013,-0.0580973973896366,0.0932008890187463,-0.00270336198185495,0
0.03,0.00116290673146844,0.000659390038764724,-0.0570970789066849,-0.0330232611583478,0.000548323853491312,0.00121921624046319,-0.0275672563992839,-0.0599221042005768,0.0931822663329732,-0.00257362257514696,0
0.04,0.00114099911464212,0.000648177023397939,-0.056118046886858,-0.0324617039691441,0.000539217542085299,0.00119635148496694,-0.0271001972480292,-0.0588946238641003,0.0931658750632586,-0.00231492186382928,0
0.05,0.0011601173400028,0.000659513692382808,-0.0571118634862103,-0.0330294588796286,0.000548745512111012,0.00121643286537055,-0.0275739729713584,-0.0599365174107021,0.0931502092123321,-0.00217874804243761,0
0.06,0.00115908764378646,0.000659680969663075,-0.0571292594768862,-0.0330378459904727,0.000549025349466749,0.00121541528431931,-0.0275815692371501,-0.0599542208229235,0.0931358047073425,-0.00200193555649903,0
0.07,0.00119082843781557,0.000678278383132913,-0.058718733278964,-0.0339692189019557,0.000564606488828367,0.00124874074415331,-0.0283618849595517,-0.0616230553627152,0.0931227839518964,-0.00193270813679394,0
0.08,0.00115724062849846,0.000659957477353916,-0.0571574293364828,-0.0330516858779588,0.000549503021587121,0.0012135881399509,-0.0275942411626111,-0.0599828602384877,0.09311060013182,-0.00169242872850423,0
0.09,0.00115566022772253,0.000659677868214247,-0.0571323739398509,-0.0330376978316275,0.000549384874187624,0.00121198255423304,-0.0275833017531586,-0.0599563098798707,0.0930996172982456,-0.00155541132007789,0
0.1,0.00115469750073505,0.00065967092687782,-0.0571326414225982,-0.0330373247726857,0.00054947961016575,0.00121101783966369,-0.0275835068368964,-0.0599562648489546,0.0930895867819582,-0.00143160677541881,0
0.11,0.00115382564615174,0.000659668336925896,-0.0571332483995987,-0.0330372134597147,0.000549569163365464,0.00121014448357948,-0.0275838889650625,-0.059956606103382,0.0930804238267922,-0.00131853236091841,0
0.12,0.00115302946152556,0.000659666026847863,-0.0571338127932826,-0.0330371050743452,0.000549650988341687,0.00120934693001561,-0.0275842304591908,-0.0599569270890815,0.0930720533590493,-0.00121523791306587,0
0.13,0.00120795407223884,0.000691037779390163,-0.0598180157538139,-0.0346082276242179,0.000575792871862587,0.00126694467988745,-0.0288996085584765,-0.0627752901481151,0.0930637818459044,-0.00126765475115214,0
0.14,0.00128644321259369,0.0007369551174972,-0.0638849350849058,-0.0369078590579437,0.000614227575467049,0.0013493566874513,-0.0308118498331034,-0.0670380854507791,0.093056355402087,-0.00139562477633454,0
0.15,0.00115310849953421,0.000660826871068108,-0.0572426837401759,-0.033095224604452,0.000550826797174547,0.00120952106419778,-0.0276333377720609,-0.0600701038535153,0.093049454075,-0.00094253437565228,0
0.16,0.00115037456409344,0.000659675836172741,-0.0571374867426888,-0.0330375752148542,0.000549941646523014,0.00120668887123522,-0.027586054072026,-0.0599598481325907,0.0930437520092004,-0.000866091222768909,0
0.17,0.00114984352466369,0.000659657043886986,-0.0571360639118032,-0.033036651541248,0.000549978544917311,0.00120615552350904,-0.0275855783086245,-0.0599582022226338,0.0930385530551827,-0.000801833941996784,0
0.18,0.0011493914978657,0.000659655469675233,-0.0571363551075041,-0.0330365588462935,0.000550024698844933,0.00120570269332823,-0.0275857437122494,-0.059958352539221,0.0930338039132984,-0.000743226237129515,0
0.19,0.00114897873720739,0.000659654266850231,-0.0571366256512959,-0.0330365022406094,0.000550067075569746,0.00120528921952474,-0.0275859223417862,-0.0599584969763507,0.0930294655191266,-0.000689688924749931,0
0.2,0.00114860171605468,0.000659653171435788,-0.0571368717178769,-0.0330364484937504,0.000550105783678406,0.00120491154674217,-0.0275860835956415,-0.0599586276580746,0.0930255023442349,-0.000640781980089817,0
0.21,0.00114825752402167,0.000659652170669487,-0.0571371044908747,-0.0330363946977052,0.000550141120741187,0.00120456675822097,-0.027586225484861,-0.059958754554461,0.0930218819373034,-0.00059610490656373,0
0.22,0.00114794270281738,0.00065965125633709,-0.0571372942074453,-0.033036365314959,0.000550173436211086,0.00120425139361616,-0.0275863769079052,-0.0599588494858481,0.0930185746530656,-0.000555291870089016,0
0.23,0.0011476554378751,0.000659650420981973,-0.0571374808310948,-0.0330363114234862,0.000550202924395612,0.00120396363066851,-0.0275864870656745,-0.0599589469517991,0.0930155534095361,-0.000518008677286975,0
0.24,0.00114739277073718,0.000659649657790985,-0.0571376358987605,-0.0330362848478094,0.000550229883562785,0.00120370050951148,-0.0275866116854747,-0.0599590227435351,0.0930127934678751,-0.000483950038551033,0
0.25,0.00114715323607526,0.000659648960536133,-0.0571377952357734,-0.03303623087277,0.000550254471212382,0.00120346055817593,-0.0275866943160666,-0.0599591068262031,0.0930102722286331,-0.00045283706819743,0
0.26,0.00115795827988627,0.000665788387645569,-0.0576687850324588,-0.0333437051325299,0.000555366579413388,0.00121478784878329,-0.02784366020793,-0.0605162955352554,0.0930080089005786,-0.000455466972133015,0
0.27,0.00111487332974633,0.000641474469535237,-0.0556040116327286,-0.0321260319503995,0.00053516191362004,0.0011696297545188,-0.0268231480628082,-0.0583472944234039,0.0930057056341939,-0.000308174338721404,0
0.28,0.00110312658504022,0.000634428412179351,-0.0548160614234312,-0.0317731538334979,0.000529239531157396,0.00115727835522108,-0.0265450867818149,-0.0575299249282529,0.0930037333081338,-0.000251780869362727,0
0.29,0.00114566773470891,0.000659265937431683,-0.0571036942312556,-0.0330170493470997,0.000550020782527843,0.0012019414600546,-0.0275712470220055,-0.0599231489501103,0.0930021927290102,-0.000351144849741642,0
0.3,0.00114224246247311,0.000657489775687681,-0.056942250497572,-0.0329281075034925,0.000548571309401081,0.0011983656231353,-0.0274977281078745,-0.0597541220703242,0.0930014300452413,-0.000332436427406606,0
0.31,0.00114610031958785,0.000659613528647183,-0.0571351266379294,-0.0330344620527427,0.000550329442886638,0.00120240319944095,-0.0275858022649578,-0.0599559996367751,0.0929999100846273,-0.000324778054077042,0
0.32,0.00114603276635964,0.000659645213228427,-0.0571383835045548,-0.0330360414577482,0.000550368955235297,0.00120233810636539,-0.0275871567360759,-0.0599593502961033,0.0929985034121607,-0.000307602550345029,0
0.33,0.00114591134520596,0.000659645341881715,-0.0571384800221538,-0.033036065169134,0.000550381904272281,0.00120221651443806,-0.0275872484485223,-0.0599594131403973,0.0929972181000508,-0.00029174437102115,0
0.34,0.00114579978515323,0.000659645024293663,-0.0571385349143362,-0.0330360382531703,0.000550393359338271,0.00120210476071302,-0.0275872869529545,-0.059959432904232,0.0929960439472697,-0.000277254958488797,0
0.35,0.00114569757250084,0.000659644727590752,-0.057138566967115,-0.0330360386297943,0.000550403844865992,0.00120200237180686,-0.027587348664125,-0.0599594352632573,0.0929949713446867,-0.000264018662454686,0
0.36,0.00114560452248399,0.000659644456439498,-0.057138609312334,-0.0330360116674967,0.000550413393276004,0.00120190915935836,-0.0275873766364837,-0.0599594478907146,0.0929939915097774,-0.000251927148324771,0
0.37,0.00114551930646856,0.000659644208728996,-0.0571386342392805,-0.0330360119968584,0.000550422135537791,0.0012018237958669,-0.027587428318856,-0.0599594480473164,0.09299309641916,-0.00024088140678585,0
0.38,0.00114544162327392,0.00065964398243525,-0.0571386620904526,-0.0330359849957073,0.000550430106454131,0.00120174597723492,-0.0275874478755397,-0.0599594507132771,0.0929922787432909,-0.000230790990919882,0
0.39,0.00114537060992773,0.00065964377570696,-0.0571386820263177,-0.0330359852852367,0.000550437392397476,0.00120167484036482,-0.0275874910997204,-0.0599594499832501,0.0929915317867169,-0.000221573276384247,0
0.4,0.00114530541734762,0.000659643586853502,-0.0571386810938771,-0.0330359855576236,0.00055044407790706,0.00120160953632193,-0.0275875323710539,-0.0599594302556933,0.0929908494331195,-0.000213152784862266,0
0.41,0.00114524647701604,0.000659643414328751,-0.0571387078902685,-0.0330359555971752,0.000550450128115245,0.00120155049150789,-0.0275875374268028,-0.0599594369579361,0.0929902260954407,-0.000205460566014896,0
0.42,0.00114519222747617,0.000659643256721994,-0.0571387089665105,-0.0330359558385701,0.000550455692763175,0.00120149614827316,-0.0275875717097158,-0.0599594223428547,0.0929896566688012,-0.000198433632892777,0
0.43,0.00114514263454916,0.000659643112743547,-0.0571387051232564,-0.0330359560661062,0.000550460779358149,0.00120144646990226,-0.0275876034826703,-0.0599594041868922,0.0929891364913559,-0.000192014446166164,0
0.44,0.00114509766405935,0.000659642981214924,-0.0571387152289769,-0.033035928979395,0.000550465395032981,0.00120140141991404,-0.0275876040666347,-0.0599593986245055,0.092988661302864,-0.000186150442981127,0
0.45,0.00114505622020486,0.000659642861059707,-0.0571387032282224,-0.0330359291836878,0.000550469645152461,0.00120135990500041,-0.0275876314121477,-0.0599593747190545,0.0929882272127189,-0.000180793606541686,0
0.46,0.00114501850164065,0.000659642751295026,-0.0571386962545509,-0.0330359293768158,0.000550473514572019,0.00120132212091104,-0.0275876560286472,-0.0599593568536624,0.0929878306662964,-0.000175900072939676,0
0.47,0.00114498404270545,0.000659642651022185,-0.0571386867022541,-0.0330359295601717,0.000550477049544338,0.00120128760212642,-0.0275876788184302,-0.0599593373660359,0.0929874684166358,-0.000171429771970594,0
0.48,0.0011449524941533,0.000659642559420566,-0.0571386713986681,-0.0330359297348096,0.00055048028525129,0.00120125599920102,-0.0275877002549937,-0.0599593130154847,0.0929871374974549,-0.000167346099031772,0
0.49,0.00114492393822359,0.000659642475740536,-0.0571386675754328,-0.0330359026042615,0.000550483216571054,0.00120122739245827,-0.0275876917222518,-0.0599592983498979,0.0929868351991169,-0.000163615615383484,0
0.5,0.00114489774477622,0.000659642399296868,-0.0571386556393712,-0.0330359027634587,0.000550485904310711,0.00120120115305432,-0.0275877095470174,-0.0599592788617471,0.092986559045741,-0.000160207774338611,0
0.51,2.71301182409272,0.0617104305626182,5.45742083215131,-3.08785476886614,-0.202512766477963,2.70614669120515,-3.60412366528814,5.13113845244098,0.0974373117042077,29.429597121229,349.140019935641
0.52,2.51093918482987,-0.0273772413786645,3.56920863984274,1.37715021827901,-1.06274838384513,2.27511120077551,-0.221207913656446,3.8192748130201,0.426096039220455,59.7780091082693,349.140019935641
0.53,2.28462033648888,0.0103249141441756,3.79204595598148,-0.507861549359357,-1.87662690239226,1.30302269932963,-3.41232829975957,1.73018827306543,0.96839640688203,87.850788881831,349.140019935641
0.54,2.03418769891374,0.028065309724481,5.70660304366486,-1.39371062406017,-2.01813365937867,-0.256600446033873,-5.45571054061414,-2.17783610462657,1.71106106069706,114.660697864037,349.140019935641
0.55,1.7978887667499,0.0630053654945586,7.18358819143555,-3.15175433092294,-0.908088556164123,-1.55298063988265,-0.631894489566825,-7.81909227600486,2.64749970768575,140.362006282102,349.140019935641
0.56,1.69280028583153,-0.0228169118955897,3.77876163394809,1.14929641419346,0.996747555412673,-1.36842527379416,1.24540572519498,-3.74818440228433,-2.52554385079124,161.835401856591,349.140019935641
0.57,1.49735398642895,0.00828653576489441,6.15902602093287,-0.402382580280596,1.43266587889923,0.435437833436116,5.76371217315188,2.20797084502995,-1.2701989605301,180.412782891789,349.140019935641
0.58,1.37845613224684,-0.0305785092568299,4.99539507500905,1.54441405851183,-0.192426088038821,1.36530163495081,0.946414795067759,5.14232299405925,0.11783857429635,198.434962438561,349.140019935641
0.59,1.22041265659786,-0.048284771187781,6.13884470389555,2.42222548191701,-1.21470436021901,-0.127404037525647,-6.28313211296085,2.01862364864643,1.63575537586633,215.06645221743,349.140019935641
0.6,1.10422877981907,0.0357963301999444,6.3754754869702,-1.7789384038717,0.0992377980502555,-1.10034287150626,2.54374016223265,-6.11070335696081,-3.01924177965212,228.994039445205,349.140019935641
0.61,0.963423556018315,-0.0299934812963372,7.92849854791847,1.50154130381078,0.917522746022828,0.295358371714732,8.03445298939061,0.750520267992409,-1.29048525281772,242.741873661489,349.140019935641
0.62,0.905573151835816,0.0153793661813877,6.0346473258413,-0.762277155492791,-0.44724149852449,0.787574948958868,-3.72498689472774,4.80858684471606,0.533442033350812,254.525434367775,349.140019935641
0.63,0.831832202246267,0.00460144146083907,5.42215888565461,-0.21506892357188,-0.541528688013752,-0.631436984991769,-3.34296221588139,-4.27441987249252,2.43822694835514,265.333840170277,349.140019935641
0.64,0.784276892111646,0.0158295762322274,3.72480754000984,-0.789160250191148,0.746679585129066,-0.24043796733353,3.79451758472696,-0.314008614203153,-1.86214018789738,275.237641826647,349.140019935641
0.65,0.644082175363232,0.00593190972347493,7.28806554115241,-0.281909034292483,-0.11397264633099,0.633945795838975,-1.63258955377194,7.10844732586967,0.187092297914631,283.858019441426,349.140019935641
0.66,0.58767301703629,-0.0281722209579357,6.72776503910101,1.41127825242888,-0.419761411686085,-0.412254298031619,-5.95973271816462,-3.42580131577513,2.29927000567015,292.114796396289,349.140019935641
0.67,0.555853688440571,-0.0093010748990871,5.47313655562508,0.480858384785956,0.541402093705771,-0.12626799229525,5.19151457592838,-1.79850631098745,-1.81665601653646,299.206287563507,349.140019935641
0.68,0.538373546368823,0.0675849997201094,3.5747934664674,-3.38471634340305,-0.148627787058149,0.521846326547488,-4.51424206722561,1.96394287383528,0.402346958933148,305.949634184777,349.140019935641
0.69,0.420688907297406,-0.0252832629759304,7.06166881246792,1.28057538270283,-0.169944810122018,-0.385664571386051,-4.36884881068887,-5.69387388314046,2.66651014749367,311.820583961136,349.140019935641
0.7,0.460425775614368,0.0122818380824536,2.79307716120791,-0.613578170482209,0.448013709830045,0.106894593881524,2.54029979358049,1.31325365352183,-1.30991000418028,317.329087115977,349.140019935641
0.71,0.410732301743426,-0.00729978658858467,3.30502157179763,0.37523565574396,-0.356654626996561,0.203842555963262,-2.64787241851092,2.0131420820892,1.03379511340641,322.139055647582,349.140019935641
0.72,0.294843879143633,0.0371488366013308,7.27271811122335,-1.85716975556221,0.0429804914855313,-0.294050380854982,3.73283459943461,-6.51210058886954,-2.8711188479335,326.540331708761,349.140019935641
0.73,0.255633868990982,0.0712115217937665,7.57397565798802,-3.5757186889163,0.177841189765897,0.196957525964693,0.181510197912138,8.37364469380653,-0.462757346901169,330.592789813092,349.140019935641
0.74,0.241715284870037,0.0254089944581074,6.81123364684111,-1.26472452990359,-0.232324436671828,-0.0713950422949177,-5.77002830832105,-3.83395425762672,1.97367856694562,334.03553411979,349.140019935641
0.75,0.273520211965283,0.0482667911783732,3.89169534991397,-2.42589906275254,0.249726860123017,-0.121570904484952,4.40850237826573,1.26308580074003,-1.84917386043758,337.22171597341,349.140019935641
0.76,0.181288208795687,-0.0550094037593994,7.29329042458125,2.76662368438426,-0.151639880289688,0.113564060582749,-2.08678187702523,7.51609161905332,0.633389282855583,340.055755558533,349.140019935641
0.77,0.191020415742929,0.0169484181911481,5.6449253718841,-0.853982955256186,-0.0178877919389301,-0.190934740184527,0.826206733499106,-5.64905760065603,3.1366738989179,342.810409503994,349.140019935641
0.78,0.224555596416838,0.0468344531249474,2.95476019978079,-2.33263876115245,0.169329248691276,0.154745880136703,-0.163800940849135,3.76098134534278,-0.624750313992941,345.196946991562,349.140019935641
0.79,0.0949434973477474,-0.0644522835503134,8.45352853554479,3.22920609448376,-0.0677011916529969,-0.0926548066332012,-9.04721247095938,0.194584704532837,1.91418111858323,347.435581944478,349.140019935641
0.8,0.139379556615355,0.0630215922869118,5.43181003853078,-3.16751509860133,0.119980445430847,-0.0948845330435172,6.03698765368474,1.75854833991254,-1.81527564376847,349.306589077163,349.140019935641
0.81,0.150984728595623,0.0846593711280616,4.08108881165043,-4.23057196496247,-0.0412777794509942,0.168106342273241,-5.87746677725385,0.0917023531976935,0.751814256372696,351.013450476948,349.140019935641
0.82,0.186663107315432,-0.0303581152323188,1.59715061014624,1.51310710558966,0.0649497606273372,-0.177612666743008,-1.18544217704177,-1.85340498255694,-2.95224034902233,352.623335154157,349.140019935641
0.83,0.147255836271544,0.049462125360512,2.95153311885076,-2.46424213280174,0.0984418224189574,0.120166512639942,-1.25819524285951,3.6333155342736,-0.362294156354636,353.991726092093,349.140019935641
0.84,0.0443295979523843,-0.0225667865999912,7.53191315943392,1.12945058857653,-0.0208951950653942,-0.0451415987227823,-6.61863357285887,-3.76816455340198,2.23720275815902,355.214151225928,349.140019935641
0.85,0.0746643263108769,0.0326609723934871,5.51363276746681,-1.64777178276617,0.0783302520389848,-0.0224916063600256,5.24704019718907,2.36302080220345,-1.43805398666059,356.314320869959,349.140019935641
0.86,-0.00418792422042414,0.0344825281441207,8.94531634677315,-1.71934533358184,0.0170663684399992,0.0302542976245738,-8.9222784632395,1.8351512047701,1.1780529959937,357.39981091548,349.140019935641
0.87,0.0122334890437242,0.0623009490321434,7.71985503025502,-3.12983164662825,-0.0417431741877132,-0.0478390417255915,7.20340297148045,-4.18365790365991,-2.48214576551758,358.25361356618,349.140019935641
0.88,0.0241678875148942,-0.0684019072174775,6.73885599714851,3.43747761995595,-0.0712031970725487,0.0138928911522681,2.41381556282656,7.16951371898114,0.146935933095702,359.054491312615,349.140019935641
0.89,0.0452384707210276,-0.0695246952047654,5.4118346483566,3.48238703068652,0.0490733455241567,-0.0668730830421293,-5.16894711677867,-3.83366135653531,2.78072134738243,359.600884914191,349.140019935641
0.9,0.0163574863938793,-0.0432414745804472,6.51251532002506,2.15270210118991,-0.0156525809533403,0.0435015999075498,6.34975753896154,2.59375429183831,-0.863758223970707,360.278111571944,349.140019935641
0.91,0.0401979744807774,0.00564360237691131,5.02568890345369,-0.273320890001658,-0.0404958088785186,-0.00279586541528771,-4.86038080851327,-1.30726877857798,1.77921131677585,360.831060564239,349.140019935641
0.92,-0.0200433214070189,0.0253577992069005,7.78634313180232,-1.27863449853998,-0.0263919206325773,-0.0186606334020656,7.83032349884484,-0.973693714912489,-1.85727273630191,361.292919385337,349.140019935641
0.93,-0.022145099964676,0.0371607102339966,7.65344673114862,-1.85072314827244,0.0418563152148869,0.0109257820851679,-6.75045919990421,4.05360624981133,0.792753075116996,361.727480659986,349.140019935641
0.94,0.0231731848626996,-0.0372388843007341,5.19091139756299,1.86720859525901,0.0424664858690088,-0.0109694383895249,-0.228510533331318,-5.51178845854185,-2.83773101803925,362.051338155626,349.140019935641
0.95,0.0274056493389424,0.0397786847102101,4.80908344765266,-2.00497552665295,0.0440938896913202,0.0197266891508195,-1.09837021928054,5.09321051306165,-0.182601086113577,362.314547172264,349.140019935641
0.96,-0.0422036240107815,0.00789081796094318,8.12964828387416,-0.385558238233463,0.019927110133349,0.0380305294397742,-4.72951568077189,-6.6235577901835,2.47411216228032,362.556822890089,349.140019935641
0.97,0.0199973649896689,-0.0154158506419281,4.87388527276377,0.766286182236328,0.0119690664642193,0.0222325101038855,4.76250092413005,1.28861829600946,-1.15060146222775,362.80169187712,349.140019935641
