t,iq,id,vq,vd,ia,ib,va,vb,theta_e,omega,r
0,0,0,0,0,0,0,0,0,0,0,0
0.01,0.00059975263915908,0.000333762600066268,-0.0293302576760113,-0.0166959324375882,0.000256089634540044,0.000636803580755027,-0.0128944828032067,-0.0311889481794359,0.125463040320321,-0.00256636375003479,0
0.02,0.000759177142069422,0.000417238700036367,-0.0372040189238983,-0.0208716865696782,0.000318976878138273,0.000805414065597252,-0.0160529593279439,-0.0395230163470356,0.125442269584169,-0.00301720264925745,0
0.03,0.000821573618718719,0.000450553785883884,-0.0403062910565624,-0.022538211662833,0.000344242684427339,0.000871480865634542,-0.0173191935402902,-0.0428090366489244,0.125420306916335,-0.00301115385803668,0
0.04,0.000811321950946708,0.000445693433618708,-0.0398702093180217,-0.0222950729730197,0.000340720428659561,0.000860694797447302,-0.0171333768734491,-0.0423456168552012,0.125399951078655,-0.00269599033668365,0
0.05,0.000828328925067614,0.000456890312042354,-0.0407551912334819,-0.0228551889331942,0.000349718839591348,0.000878962057529624,-0.017579223371564,-0.0432933733878793,0.125381131033074,-0.00252502742422419,0
0.06,0.000829827566795521,0.000459383368022042,-0.0408812720482801,-0.022979890005747,0.000352020169020579,0.000880754602617422,-0.0176879309819256,-0.0434337523884404,0.125363812748365,-0.00230336311748502,0
0.07,0.000838750481291141,0.000466368341545912,-0.0413627118327688,-0.0233293086987401,0.000357848407370886,0.000890475332170704,-0.0179750897704905,-0.0439548259269058,0.125348355823807,-0.00214001309706954,0
0.08,0.000827762297910803,0.000461490836794164,-0.040872434948199,-0.0230853109328437,0.000354395556422856,0.000878958476763997,-0.0177949255786883,-0.0434376351003341,0.125333976258872,-0.00190034397865897,0
0.09,0.000823066473340363,0.000460400965120163,-0.0406834357933972,-0.0230308030075481,0.000353912454262874,0.000874158705806989,-0.0177650259899359,-0.0432430767488261,0.125321148151927,-0.00170975443566793,0
0.1,0.000820121280435829,0.000460155785908711,-0.0405755951994543,-0.0230185322902659,0.000354047372484962,0.000871201882439117,-0.0177668282075569,-0.0431343432780789,0.12530961807324,-0.00154424820663429,0
0.11,0.000817784554311229,0.000460099144701631,-0.0404938301623717,-0.0230156972167293,0.000354292247095892,0.000868872720179964,-0.0177746816136288,-0.0430526804406566,0.125299233196716,-0.00139661757568645,0
0.12,0.000815756868097833,0.000460084730664476,-0.0404239432772267,-0.0230149810148379,0.000354539462001069,0.000866855811033981,-0.0177831071726993,-0.0429830855160269,0.125289874452697,-0.00126392977789283,0
0.13,0.00084418471230941,0.000477037354205973,-0.0418337002857291,-0.0238630066593723,0.000367814713351546,0.000897176015309636,-0.0184487118004189,-0.0444876005121263,0.125281045483871,-0.00127670457263738,0
0.14,0.000859888933600545,0.000486926362370036,-0.0426804267490684,-0.0243576974631876,0.00037567144301936,0.000913989730467115,-0.0188340976727715,-0.0453893491696375,0.125272813002066,-0.00123949899600002,0
0.15,0.000822299943994855,0.0004660611544687,-0.0408177638477064,-0.023313950030061,0.000359672920727017,0.000874085572295033,-0.0180315887121817,-0.0434107350783885,0.125265255377991,-0.000968883285542634,0
0.16,0.00081208425527848,0.000461408061179548,-0.0403399466890791,-0.0230811900008121,0.000356337971584516,0.000863366368698541,-0.0178606162340896,-0.0429074704273033,0.125259049127174,-0.000840556674750245,0
0.17,0.00080872479275817,0.000460369607876692,-0.0401932590255439,-0.0230292363399984,0.000355732039452312,0.000859901553891713,-0.0178276283392076,-0.0427553442893055,0.125253604692233,-0.000753453933567084,0
0.18,0.000807141895680419,0.00046013714890196,-0.0401312155635407,-0.0230176126678334,0.000355703327483945,0.000858300284503654,-0.0178240545234838,-0.0426922479599945,0.125248734182706,-0.00068200115953313,0
0.19,0.000806072402679055,0.00046008447992393,-0.0400926391185126,-0.0230149763165979,0.000355788429351807,0.00085723103103366,-0.0178264447196207,-0.0426535662635512,0.125244353132614,-0.000619339592929447,0
0.2,0.000805196627616666,0.000460071978139484,-0.0400621502251571,-0.0230143429263911,0.00035588880467416,0.000856359149482288,-0.0178297931000582,-0.0426231666937793,0.12524040638682,-0.000563288676147989,0
0.21,0.000804428958149204,0.000460068506212952,-0.0400357216383505,-0.0230141765677129,0.000355984295370736,0.000855595792747622,-0.0178330808413161,-0.0425968608925639,0.125236849413451,-0.000512871860294399,0
0.22,0.000803742372101358,0.000460067114715418,-0.0400121585732731,-0.0230141103667016,0.000356071416954413,0.000854913268572762,-0.0178360949078989,-0.0425734169183059,0.125233643354239,-0.000467453304600357,0
0.23,0.000803124936786527,0.000460066247683303,-0.0399909874380257,-0.0230140657874743,0.000356150147230821,0.000854299531179329,-0.0178388180614663,-0.0425523544649227,0.125230753499405,-0.000426520272328082,0
0.24,0.00080256867772901,0.000460065552280409,-0.0399719160622711,-0.0230140253919837,0.000356221159969877,0.000853746613496349,-0.0178412708609297,-0.0425333809201556,0.125228148640013,-0.000389625517575349,0
0.25,0.000802067483122354,0.000460064944486009,-0.039954733797605,-0.0230139877410698,0.000356285160099228,0.00085324843118532,-0.0178434794158265,-0.0425162866078467,0.125225800664734,-0.000356369589030584,0
0.26,0.000806936902642068,0.000463134863579657,-0.0401977066109391,-0.0231675606064862,0.000358724575662824,0.000858462431049868,-0.0179655884286267,-0.0427765018865211,0.125223797077102,-0.000352077045502272,0
0.27,0.00079486429778475,0.000456212531152698,-0.0396172030838615,-0.0228212918349581,0.000353366119878393,0.000845619010427086,-0.0176946259585812,-0.0421572574225382,0.125221617022802,-0.00026842492678524,0
0.28,0.000793820810848218,0.000455891733808,-0.0395158039823583,-0.0228052285518406,0.000353179616969355,0.000844543018944308,-0.0176914251899405,-0.0420546155424418,0.125219892192385,-0.000240923922937794,0
0.29,0.000798777443332186,0.000459132972779451,-0.0398171401930465,-0.0229673649084898,0.000355777633013256,0.000849865146077356,-0.0178147173051386,-0.0423738168133394,0.125218476117415,-0.000244778597729021,0
0.3,0.000787095487993854,0.000453116706728552,-0.0392507708448109,-0.0226664188980063,0.000351267945227672,0.000837523067021047,-0.017586887057759,-0.0417742858848524,0.125217883426997,-0.000183844353937458,0
0.31,0.000796857457118245,0.000458513948645137,-0.0397289657327914,-0.0229364017641109,0.000355404690845593,0.000847882275903948,-0.017795080904869,-0.042282435356436,0.125216771522237,-0.000213560508321176,0
0.32,0.000799078411342118,0.000459717044186787,-0.0398405644830361,-0.0229966005030831,0.000356321987718293,0.000850235678654668,-0.0178409204169401,-0.0424006576800616,0.125215600814028,-0.000208214766090751,0
0.33,0.000799455023647083,0.000459985063711219,-0.0398622326110572,-0.0230100023263014,0.00035654180731204,0.000850642423883641,-0.0178515577450509,-0.0424238103176688,0.125214503926386,-0.000195455566864775,0
0.34,0.00079939273307187,0.000460044625887813,-0.0398622528010468,-0.0230129750812954,0.000356609532229481,0.00085058770330839,-0.0178545470865279,-0.0424241837729596,0.125213504922012,-0.000181992264393361,0
0.35,0.000799237086897101,0.000460057730819035,-0.0398574372019941,-0.0230136421984291,0.000356642740646497,0.000850434590255053,-0.0178558486904806,-0.042419473064748,0.125212601893159,-0.000169371704057786,0
0.36,0.00079907252076259,0.000460060495137069,-0.039851916469686,-0.0230137723231475,0.000356666727909941,0.000850271367167953,-0.0178567018074481,-0.0424139972580795,0.125211787289481,-0.000157875889914788,0
0.37,0.000798917863061708,0.000460060969488033,-0.0398466309429307,-0.0230138050607464,0.000356687137301672,0.000850117717524398,-0.0178574255171156,-0.0424087440839366,0.125211052864032,-0.000147484133741089,0
0.38,0.000798777220040947,0.000460060947267583,-0.0398418050180779,-0.0230137939614381,0.000356705242054911,0.000849977936624026,-0.0178580452591709,-0.0424039427308295,0.125210390826361,-0.000138109855888623,0
0.39,0.00079864986167932,0.000460060826944001,-0.0398374243472333,-0.0230137945776627,0.000356721534785422,0.000849851347395018,-0.0178586182463398,-0.0423995857741074,0.125209794067091,-0.000129658226937759,0
0.4,0.000798535179262881,0.000460060696116485,-0.0398334796839239,-0.023013776102998,0.00035673618393681,0.000849737354540677,-0.0178591153423567,-0.0423956600778535,0.125209256155795,-0.000122039620399122,0
0.41,0.000798431569626827,0.000460060573195666,-0.0398299102895203,-0.023013776621856,0.000356749412951518,0.000849634367680964,-0.0178595821659803,-0.0423921100315674,0.125208771290821,-0.000115172223135417,0
0.42,0.000798338204539056,0.000460060461277586,-0.0398266923001704,-0.0230137770973199,0.000356761332808181,0.000849541563592105,-0.0178600030323038,-0.0423889094875497,0.125208334241537,-0.000108982036745322,0
0.43,0.000798254255764825,0.000460060360141755,-0.0398238001732707,-0.0230137570467786,0.000356772050751364,0.000849458118816391,-0.0178603610096467,-0.0423860304611536,0.125207940292159,-0.000103402297665733,0
0.44,0.00079817846939059,0.000460060268919069,-0.0398211854956278,-0.0230137574495671,0.000356781726139971,0.000849382787634158,-0.0178607029832971,-0.0423834299599165,0.125207585192812,-9.83728108449915e-05,0
0.45,0.000798110017181604,0.000460060186675703,-0.0398188197448165,-0.0230137578211229,0.000356790464749218,0.000849314746812829,-0.0178610123539184,-0.0423810770581949,0.125207265112114,-9.38393136279694e-05,0
0.46,0.000798048433476581,0.000460060112536876,-0.0398166912544638,-0.0230137581634122,0.000356798326810052,0.000849253532996723,-0.0178612907272001,-0.0423789601195658,0.125206976596541,-8.97528936018478e-05,0
0.47,0.000797992845158132,0.000460060045705161,-0.0398147668322089,-0.0230137570249499,0.000356805423221029,0.000849198278694598,-0.0178615409403869,-0.0423770459746957,0.125206716533407,-8.60694616897902e-05,0
0.48,0.000797942947867697,0.00046005998546213,-0.0398130407129273,-0.0230137382939162,0.000356811793669367,0.000849148680840791,-0.0178617478469455,-0.0423753268414795,0.125206482116976,-8.27492766627555e-05,0
0.49,0.000797897836930654,0.000460059931158082,-0.0398114761514178,-0.0230137385670891,0.000356817552641482,0.000849103840859726,-0.0178619524533546,-0.0423737707874026,0.125206270817492,-7.9756516415898e-05,0
0.5,0.000797857149775825,0.000460059882207575,-0.0398100627026084,-0.023013738821328,0.000356822746775388,0.00084906339813286,-0.0178621372865443,-0.0423723650328673,0.125206080355796,-7.70588914893562e-05,0
0.51,2.32610074008611,0.0121960830508063,0.576951828351168,-0.608567747336972,-0.0954388742314477,2.32417400784803,-0.634609913503897,0.548177318957222,0.0462836060427124,14.1902578529385,464.036727173271
0.52,2.22941416398127,-0.00276573495654664,2.45967875485432,0.141637473755008,-0.462098176272395,2.18099987146627,-0.368242124124527,2.4360785063445,0.207546241094871,29.7240781415296,464.036727173271
0.53,2.18223208481108,-0.0437715123552151,1.92852507235437,2.19502114205982,-1.04880394976307,1.91417425858623,1.05319028799852,2.72545720679203,0.481185248109858,44.921133506303,464.036727173271
0.54,2.12283330822162,0.0187233144064421,1.98872394249298,-0.929665386933606,-1.60485762542084,1.38967759538898,-2.1171802259532,0.580386545278226,0.865952173778661,60.0801821736589,464.036727173271
0.55,2.05616937100534,-0.0652658584833364,2.30147805190278,3.27406739099143,-2.02533492300861,0.360708419898637,-1.57583548970751,3.67873089713313,1.36281532715657,75.5548533892037,464.036727173271
0.56,1.99177727901268,0.0215008619196485,2.34071078038249,-1.06944581511889,-1.83957895993945,-0.763929490465273,-1.73111711925696,-1.90417300377083,1.97519468448082,91.4256970497029,464.036727173271
0.57,1.91702657146199,0.030201727188629,3.22153446946617,-1.50338945476468,-0.848195557945079,-1.71943808132155,-0.0209381571957608,-3.55500011029952,2.69907407664871,105.75527238116,464.036727173271
0.58,1.91219978181523,0.0391664629586572,0.904360271548961,-1.94852005277607,0.675374931284295,-1.78938836466197,2.14512717550122,-0.11413718829864,-2.76021075370472,118.921959813262,464.036727173271
0.59,1.79519895714818,-0.0512602075279992,4.2017418809018,2.57808551223446,1.74388812584819,-0.429209866088142,3.36232118161949,-3.60499043185281,-1.84066842968678,132.045360828766,464.036727173271
0.6,1.76121734703443,-0.0268586951548112,3.11787633869894,1.35194661916709,1.2713916538615,1.21908621331378,3.20381891032774,1.13333883473673,-0.821646138774097,145.883930252311,464.036727173271
0.61,1.70451018044391,0.04186317022673,3.50593941458115,-2.08244634710406,-0.453164542888095,1.64369990488756,-3.00787173361516,2.75334371290611,0.293570186344751,158.159846318345,464.036727173271
0.62,1.68533813647589,-0.00201608149643895,2.12217695343288,0.117433288159454,-1.6808208883034,0.123328181238427,-2.10756651793259,0.274934485539954,1.4963575510974,170.124548772874,464.036727173271
0.63,1.63510922225734,-0.0296903705225647,2.07893157496927,1.495205654647,-0.534882718486205,-1.54543332573022,-2.11936888523129,-1.43731415195358,2.79023563401335,182.663656659154,464.036727173271
0.64,1.54271549303886,0.0150390641705366,4.49245412228575,-0.73641849759198,1.31365417643474,-0.809017905023627,4.22805556999198,-1.68760254251338,-2.1130428619064,193.74212659386,464.036727173271
0.65,1.53391446529379,-0.0262683472260369,2.61048031936688,1.32338774752071,0.908651683789935,1.23609697453284,2.63465414259903,1.27458235394011,-0.651018396227635,205.316557659416,464.036727173271
0.66,1.45796637181577,0.0108197424909154,4.25396544043849,-0.525909759254066,-1.12954723971456,0.921903488130087,-3.64500559958486,2.25537961822809,0.893693599332432,215.906011145174,464.036727173271
0.67,1.43286864350375,0.0269031296640071,3.33642756381438,-1.33684537029007,-0.861856577832935,-1.14500636119111,-0.873090653915427,-3.48663407066068,2.51513355319114,226.718798653654,464.036727173271
0.68,1.3926731637974,0.0284684211145384,3.27026044760543,-1.40795817850764,1.21034854243199,-0.689496481495723,3.54579330174724,-0.322954313926048,-2.06817529494661,236.797388419314,464.036727173271
0.69,1.41359328766817,0.00194769782666399,0.150274582589583,-0.0878323481032873,0.413718282427105,1.35169780618779,-0.0402387899688644,0.169345243002725,-0.295641219793484,247.002612095851,464.036727173271
0.7,1.2876673541448,0.00627886328951266,4.51876429424695,-0.295863678693952,-1.28725616997438,0.0331389788219218,-4.52395287294224,-0.201535274155923,1.5499342382031,256.34943392677,464.036727173271
0.71,1.2762676053932,-0.000117777310828071,3.09926444434961,0.0156920244839805,0.405147428700073,-1.210253930159,0.968700405119385,-2.94402884849378,-2.81864883428806,265.986591104301,464.036727173271
0.72,1.2425052263296,0.029305804655353,2.99740781718243,-1.44540688676974,0.942171043537491,0.810550302178922,1.25730119935991,3.08104663790016,-0.836770864608655,274.745306912757,464.036727173271
0.73,1.20854227349916,0.041036258483544,2.830933570664,-2.03860532791455,-1.11664305578071,0.464076165431463,-3.36755453192097,-0.910863897106774,1.21085708226421,283.645913444305,464.036727173271
0.74,1.14832110720356,0.0318844760183318,4.05296601248683,-1.58770266305866,0.173782978293225,-1.13554280479236,2.28624585349615,-3.70410760400243,-2.96197232363895,292.30403852598,464.036727173271
0.75,1.11530414980234,0.0519402315261177,4.0439437033213,-2.57831049140507,0.828680712503121,0.74825758328441,1.05703950011592,4.67801594278131,-0.789816717363072,300.252416860499,464.036727173271
0.76,1.10829067616812,-0.0285999627728849,2.67480028532633,1.44433598397085,-1.10275945909187,0.114226775036341,-2.4667469872854,1.77646342537448,1.44178199864777,308.36021872948,464.036727173271
0.77,1.06291435821795,0.0148958853923715,3.3037510606313,-0.738391792782126,0.577947146193821,-0.89218042822846,2.4489158556167,-2.33726435012806,-2.55275807818306,316.205246114482,464.036727173271
0.78,1.07428808557618,-0.0132713340611637,1.19961171602604,0.685627156186697,0.208914431750621,1.05386231516504,0.918627392509669,1.03212236690156,-0.208052708265276,323.487543341011,464.036727173271
0.79,0.987883199937026,0.0484291964060493,3.9586953393022,-2.40641962964658,-0.832120213816788,-0.534634972237935,-1.82339799794363,-4.2587960698367,2.1908631164311,330.776644221915,464.036727173271
0.8,0.943155892572784,-0.0240501187466424,4.66096459101832,1.21191447917026,0.942509202767166,-0.0424010448655826,4.56409212085948,-1.53700707085475,-1.64124751810964,337.938170977634,464.036727173271
0.81,0.951188959344064,-0.0164720505235455,2.81540093461162,0.829473078588778,-0.731856066191851,0.607798044752271,-1.59349588670832,2.46480807970097,0.860423724321214,344.755204871679,464.036727173271
0.82,0.892735496844915,0.0671278339579374,4.33838325412583,-3.33799420889116,0.173414079590881,-0.878299704211763,4.37420481721507,-3.29091276325016,-2.8716048241208,351.229664056291,464.036727173271
0.83,0.863468091430796,0.0130722461959485,4.40361560796427,-0.636567314332366,0.245151294592398,0.828039172563364,0.573003505184766,4.41233672235345,-0.272702368739902,357.623056880543,464.036727173271
0.84,0.865758872986203,-0.0253902375312338,2.91114558439007,1.28210214748973,-0.583983062406733,-0.639645896679004,-2.94609687692191,-1.19961148790038,2.37233436941805,363.936565035102,464.036727173271
0.85,0.800936538515983,-0.0175807327074085,4.83075864150035,0.88508910448176,0.746421944186027,0.29096855866235,4.84158306308657,0.823823536041485,-1.22104510550572,369.98454321962,464.036727173271
0.86,0.789363292401699,-0.0110520909885199,4.14775697537077,0.555932788808657,-0.788644205645197,0.0354524048369749,-4.10781986317135,0.799227854960253,1.5118726020561,375.771376109556,464.036727173271
0.87,0.745292677643239,0.0130325733851921,5.13720042847114,-0.634857578091833,0.673344917908079,-0.319746219438216,4.94064081782268,-1.54400152072761,-1.99664769582441,381.281684856608,464.036727173271
0.88,0.749495152486053,0.0309945614517753,3.72479363778261,-1.53111938946645,-0.526019934066295,0.534795919397831,-3.76572971311219,1.42747818079644,0.818455856982807,386.656465830162,464.036727173271
0.89,0.703287649735614,-0.0156154052014056,4.85029757262171,0.797718625453656,0.369733397252938,-0.598460169189269,1.76926446065435,-4.58600532235203,-2.61038173099966,391.933324257053,464.036727173271
0.9,0.642243301125665,0.0080041012170896,6.7496067465925,-0.38874354925628,-0.170875810589181,0.619146170813141,-2.25002414985531,6.37539834879384,0.281744938483268,397.03800856334,464.036727173271
0.91,0.675467559646714,-0.0268447255364211,3.97278959633094,1.35147567331173,0.073248532283862,-0.672020621664598,-1.07497407416102,-4.0563498877871,-3.0727453321541,401.979579344391,464.036727173271
0.92,0.61742474243755,0.0568987186652494,5.78883423584508,-2.84263191873008,0.123477931110083,0.607621574080937,-2.19851481970957,6.06281210520271,-0.10858981397478,406.763670153235,464.036727173271
0.93,0.610159870536578,-0.0309465986674097,5.09748800037005,1.54973223839279,-0.122048497507385,-0.598629203963927,-2.77088416126212,-4.55063236149629,2.88979374917162,411.372908864815,464.036727173271
0.94,0.615843293743442,0.00285780427731053,3.78784153319154,-0.142826290931581,0.220613939454108,0.574978798924446,1.20689746514358,3.59326332719745,-0.361727501428517,415.847082864892,464.036727173271
0.95,0.574453616659916,-0.00496974409685394,4.86165333920655,0.247595094022577,-0.239854909359358,-0.522006971702735,-2.29205758256516,-4.29458363050574,2.702227167902,420.136651804728,464.036727173271
0.96,0.560720431071497,0.00368733817983088,4.59155969033886,-0.185391322927283,0.265262544932819,0.494021032487102,1.98154625431713,4.14611441889429,-0.486189644428305,424.244176467145,464.036727173271
0.97,0.475604392318577,-0.0471470756395134,7.92159002199877,2.36451607992112,-0.188061078795438,-0.439380718029793,-5.89162577117706,-5.79924741162492,2.63836388088166,428.201296842312,464.036727173271
