t,iq,id,vq,vd,ia,ib,va,vb,theta_e,omega,r
0,0,0,0,0,0,0,0,0,0,0,0
0.01,0.000571585653425839,0.000327291951397759,-0.0281507398344804,-0.0163831899026204,0.000607161596382502,-0.000255313486777038,-0.0299349831635942,0.0128362707827957,-1.44882072784357,-0.00111267837757859,0
0.02,0.000636634929935658,0.000364400686989746,-0.0314032435960912,-0.0182407440070324,0.000676240318304293,-0.000284237447554835,-0.0333892159083911,0.0142845619921779,-1.44882915700842,-0.00121273893391586,0
0.03,0.000662475608323768,0.000379170444609404,-0.0326761461373019,-0.0189800682051792,0.000703683398622081,-0.000295759754180512,-0.0347424817536892,0.0148638311701303,-1.44883793415965,-0.00123382449637863,0
0.04,0.000647828544003425,0.000370882669852165,-0.0319650523818744,-0.0185652018282729,0.000688134444299658,-0.000289321212133968,-0.0339860768713752,0.0145388401048178,-1.44884631342579,-0.00117596208646164,0
0.05,0.000662815951193239,0.000379488608797614,-0.0327059021887408,-0.018995997559207,0.000704054953245806,-0.000296045962940543,-0.034773705097496,0.0148766056290155,-1.44885471212731,-0.00117681930265814,0
0.06,0.000663464597320499,0.000379913312613466,-0.0327441132091584,-0.0190172499017866,0.000704747996357765,-0.000296394430832135,-0.0348140945348073,0.0148933396322882,-1.44886296877022,-0.00114972054260919,0
0.07,0.00068065116360152,0.000389848029109092,-0.0335923546010473,-0.0195145560612019,0.000723012907344845,-0.000304170722005096,-0.0357164042472327,0.0152840653478239,-1.44887094009702,-0.00115640948797686,0
0.08,0.000664153961927918,0.000380423577915409,-0.0327902501115286,-0.0190427880791595,0.000705489586613538,-0.000296828278569228,-0.034862757965204,0.0149136309215424,-1.44887887170492,-0.00109641567197133,0
0.09,0.000663212821411384,0.000379955755947328,-0.0327501004780255,-0.0190193728967731,0.000704496266957235,-0.00029648378169012,-0.0348199446275808,0.0148955390248047,-1.44888652986569,-0.00106822103306277,0
0.1,0.000663063836405328,0.000379931378089606,-0.0327486090750916,-0.0190181545387382,0.000704343210734516,-0.0002964829585285,-0.0348182049838838,0.0148947708982969,-1.44889399211421,-0.00104227119122919,0
0.11,0.000662957576230909,0.000379928984137251,-0.0327490640829785,-0.0190180347570409,0.000704235291038331,-0.000296498626852945,-0.0348185336929663,0.0148948499758412,-1.44890126695279,-0.00101705042273741,0
0.12,0.000662855972689142,0.000379927708238505,-0.0327496042329079,-0.0190179688283193,0.000704132183297576,-0.000296514708676687,-0.0348189561796047,0.014894965804922,-1.4489083592652,-0.000992466370882963,0
0.13,0.000694089717705454,0.000397872906368021,-0.0342854413706323,-0.0199162469717619,0.000737313876443043,-0.000310534431988959,-0.0364525057896617,0.0156001027263913,-1.44891549505373,-0.0010298931207603,0
0.14,0.000723818785082116,0.000415117736699583,-0.0358099113733485,-0.0207794651574804,0.000768916763809895,-0.000324042249239899,-0.0380705030312273,0.0162718383640979,-1.44892245690134,-0.00106493304294581,0
0.15,0.00066566031139577,0.000381666367732869,-0.0329032880890558,-0.0191050094159102,0.000707120876466028,-0.000297914303939624,-0.0349817695127508,0.0149634071524569,-1.44892929553445,-0.000926053237433692,0
0.16,0.000662622140206215,0.000380009258040421,-0.0327594112038725,-0.0190220511899024,0.000703901891184893,-0.000296643328720244,-0.0348287794389142,0.0148987776911778,-1.44893569874962,-0.000898012815676936,0
0.17,0.000662383390047981,0.000379926203260795,-0.0327525555018955,-0.0190179009061526,0.000703652967954507,-0.000296594295333595,-0.0348213772849219,0.0148957084679484,-1.44894192792588,-0.000876124191642327,0
0.18,0.000662289004109444,0.000379921100206446,-0.032752650131703,-0.0190176342704168,0.000703556860565877,-0.000296604975172437,-0.0348213483537489,0.014895643749766,-1.4489480001405,-0.000855061227946751,0
0.19,0.000662203808351925,0.000379919881100686,-0.0327530754177673,-0.0190175769508865,0.000703470392379578,-0.000296618284831996,-0.0348216753398471,0.0148957413018327,-1.4489539199766,-0.000834540739746286,0
0.2,0.000662121231944951,0.000379918878471558,-0.0327535127975765,-0.0190175298244744,0.000703386594360119,-0.000296631385537436,-0.0348220177813066,0.0148958423341598,-1.44895969128961,-0.000814535796601873,0
0.21,0.000662040634597102,0.000379917910150724,-0.0327539335753452,-0.0190174827059928,0.000703304807724894,-0.000296644176990004,-0.034822345901599,0.0148959403543465,-1.44896531780759,-0.000795032788137487,0
0.22,0.000661962132723698,0.00037991696652943,-0.0327543464800192,-0.0190174355946621,0.000703225145790074,-0.000296656638128258,-0.0348226683107751,0.0148960344269207,-1.44897080316332,-0.000776019087150306,0
0.23,0.000661885609909417,0.000379916046557819,-0.032754748530858,-0.0190173884903873,0.000703147491833936,-0.000296668784614979,-0.0348229819974429,0.0148961250370635,-1.44897615089823,-0.000757482415804029,0
0.24,0.0006618110079466,0.000379915149623237,-0.0327551395666189,-0.0190173413929953,0.000703071786989755,-0.000296680625406468,-0.0348232867501119,0.0148962123241412,-1.4489813644654,-0.000739410805949709,0
0.25,0.000661738268627586,0.00037991427514892,-0.0327555193806099,-0.0190172943019748,0.000702997972420503,-0.000296692169429573,-0.0348235823134335,0.0148962964296819,-1.44898644723077,-0.000721792589787312,0
0.26,0.000668391246084879,0.000383761994546118,-0.0330853012231948,-0.019209910762299,0.000710067709895398,-0.000299706479183913,-0.0351742511006458,0.0150475874489483,-1.44899137130686,-0.000718062060354699,0
0.27,0.000647344030077425,0.000371695257715471,-0.032057918560332,-0.0186058843305498,0.000687708845532119,-0.000290289858007359,-0.0340810168788577,0.0145730354643668,-1.4489963034263,-0.000659354160965696,0
0.28,0.000645645433085934,0.000370720542874385,-0.0319195273306748,-0.0185570864106049,0.000685903039903684,-0.000289531977551162,-0.0339376534226663,0.0145415735471557,-1.44900102021226,-0.000639768763212768,0
0.29,0.00066065885234019,0.000379455962562161,-0.0327174358322618,-0.018994361497921,0.000701865207261711,-0.000296381810398189,-0.0347827103750646,0.0148788250583251,-1.44900553765612,-0.000654020946261529,0
0.3,0.000656555691453611,0.000377178025858253,-0.0325196083897527,-0.0188803382078091,0.000697514477765241,-0.000294622118107825,-0.0345724345965409,0.0147898230798084,-1.44900966410879,-0.000631695373202447,0
0.31,0.000661097554675052,0.000379774266423878,-0.0327455071277743,-0.0190102892536353,0.000702336815961456,-0.00029665041240533,-0.0348123825621652,0.014891519563411,-1.4490140148311,-0.000625747690095186,0
0.32,0.000661270102404296,0.000379902101383603,-0.0327572619418544,-0.0190166932355659,0.000702522350406084,-0.000296759333719053,-0.0348247647856164,0.0148965965632882,-1.4490182773217,-0.000611436269805982,0
0.33,0.000661222444167913,0.000379907751015606,-0.0327581448602917,-0.019016980579938,0.000702474497851737,-0.000296773650820072,-0.0348256141507565,0.0148969192817919,-1.44902243393309,-0.000597051870133253,0
0.34,0.000661165188094178,0.00037990736865856,-0.032758476045634,-0.0190169495325725,0.000702416416656852,-0.000296783072832042,-0.0348258787441591,0.0148969893620795,-1.44902648631452,-0.000583006430899808,0
0.35,0.000661108623745225,0.000379906704262706,-0.032758761299028,-0.0190169182469024,0.000702359017916111,-0.000296792059000865,-0.0348260992312972,0.0148970612466992,-1.4490304370295,-0.000569312261149631,0
0.36,0.000661053514587196,0.000379906042074673,-0.0327590402228356,-0.019016886962492,0.000702303093218823,-0.000296800800551818,-0.0348263149124188,0.014897130451419,-1.44903428862619,-0.000555961604252448,0
0.37,0.000660999802412432,0.000379905395762108,-0.0327593118832536,-0.0190168556792773,0.000702248585714892,-0.000296809319900627,-0.0348265248235954,0.0148971971760541,-1.44903804359114,-0.000542945895515065,0
0.38,0.000660947370805611,0.0003799047656072,-0.032759572390689,-0.0190168243974227,0.000702195379169707,-0.000296817633200291,-0.034826725067942,0.0148972619774636,-1.44904170434867,-0.000530256734235918,0
0.39,0.000660896277974393,0.000379904151239355,-0.0327598265868941,-0.0190167931164763,0.000702143530617395,-0.000296825734702098,-0.0348269204161096,0.0148973243492986,-1.44904527326222,-0.000517885927893622,0
0.4,0.000660846523918778,0.000379903552264861,-0.0327600762438383,-0.0190167618362922,0.000702093039329796,-0.000296833625661988,-0.0348271125926065,0.0148973841563635,-1.44904875263661,-0.000505825489376654,0
0.41,0.000660797992223445,0.000379902968299046,-0.0327603173812644,-0.0190167305570972,0.000702043789043591,-0.000296841321440057,-0.0348272976132191,0.0148974419603727,-1.44905214471752,-0.000494067631951312,0
0.42,0.000660750501518897,0.00037990239896602,-0.0327605426800059,-0.0190167150322387,0.000701995599039099,-0.000296848845251834,-0.0348274700934147,0.0148975143630796,-1.44905545169555,-0.000482604764244327,0
0.43,0.000660704414544426,0.000379901843899824,-0.0327607719356187,-0.0190166837534158,0.00070194882869587,-0.000296856154205157,-0.0348276458240056,0.014897567759627,-1.44905867570556,-0.000471429485338877,0
0.44,0.000660659433514915,0.000379901302742996,-0.0327609919629683,-0.0190166524753239,0.000701903181774467,-0.000296863285592801,-0.0348278135997462,0.0148976194617212,-1.44906181882931,-0.000460534579999566,0
0.45,0.000660615674845685,0.000379900775147646,-0.0327612101731578,-0.0190166211974999,0.000701858773186931,-0.000296870226378695,-0.0348279807466114,0.0148976686395115,-1.44906488309603,-0.00044991301400993,0
0.46,0.000660572782545303,0.000379900260774371,-0.0327614103569862,-0.019016605669672,0.000701815248950459,-0.000296877020863328,-0.0348281330583419,0.0148977329632759,-1.44906787048396,-0.000439557929634103,0
0.47,0.000660531235766291,0.000379899759291795,-0.0327616179943495,-0.0190165743917803,0.000701773084061525,-0.00029688361190824,-0.0348282919725112,0.0148977781391491,-1.44907078292232,-0.000429462641186741,0
0.48,0.000660490438941254,0.000379899270377642,-0.0327618048746348,-0.0190165588619462,0.00070173168676488,-0.000296890072849181,-0.0348284332839606,0.0148978389230859,-1.44907362229116,-0.0004196206307195,0
0.49,0.000660450929429477,0.000379898793716889,-0.0327619992061149,-0.0190165275840241,0.000701691589863619,-0.000296896339429226,-0.0348285811405572,0.0148978806905898,-1.44907639042361,-0.000410025543809456,0
0.5,0.000660412228079784,0.000379898329003203,-0.0327621785763937,-0.0190165120518518,0.000701652317186084,-0.000296902470794922,-0.0348287170931183,0.0148979374860169,-1.44907908910739,-0.000400671185458577,0
0.51,3.87792294003195,-0.0165278510058575,5.11580113653869,0.830492882894381,-0.278015787809199,3.86797966907968,0.483594575600658,5.16016239895591,0.0674908234069703,20.7821294215614,546.296814559785
0.52,3.75849224761572,0.0242208451101012,4.44028374588901,-1.20613335336727,-1.10099311903758,3.59369792505675,-2.47894301281813,3.87630222626039,0.30373268199911,43.5421726317363,546.296814559785
0.53,3.60901701793328,0.0196390911230064,5.3995147554698,-0.973564382313067,-2.32276483614649,2.76227316636019,-4.23923114432879,3.48303122380457,0.704622379920403,65.7705681689958,546.296814559785
0.54,3.49199861756515,-0.0202868400645817,4.71659230639063,1.02831646651049,-3.33881924354931,1.02310896773584,-4.19453042763957,2.38947530466537,1.2676429653455,87.8888072548322,546.296814559785
0.55,3.38076696353188,0.0155650934426488,3.42628175321392,-0.765000718527438,-3.08755005256714,-1.37726620765017,-2.80776675846844,-2.1073866711626,1.99498198417951,110.70333239643,546.296814559785
0.56,3.2147970961346,-0.0200292454397817,5.03557788144257,1.01716716525497,-0.786221594759097,-3.11723870499563,-2.24660155736909,-4.62000596153005,2.88829794247812,132.508640528649,546.296814559785
0.57,3.1108141142348,0.0381664792177463,4.45352767223955,-1.89294251854696,2.18239146392305,-2.21715778230917,4.49549490894188,-1.79099570898537,-2.35182821866983,151.762993867678,546.296814559785
0.58,2.98597341068005,0.0352826401225272,5.20663738309221,-1.74511144847252,2.76504909600699,1.12773470756786,4.11941727184913,3.63110012902347,-1.1717225775255,170.264819798159,546.296814559785
0.59,2.86241587850497,0.0118036244289187,5.42723556735183,-0.57305712553624,-0.409729751024213,2.8329640869931,-1.36581038847019,5.2837337513735,0.147757018595074,189.853615938735,546.296814559785
0.6,2.7622645575335,0.012137681418855,5.05301729753346,-0.586546005744282,-2.76103419256389,-0.0833246458681011,-5.02973014140557,-0.76081188914426,1.60536002785421,207.401499051372,546.296814559785
0.61,2.69491448979293,0.0182637255342044,3.41721275825253,-0.88884247553236,0.102514944631002,-2.6930258738255,1.04107647289643,-3.37395076417186,-3.09676719609079,224.111543529574,546.296814559785
0.62,2.58178300027804,-0.0272365560416008,3.70431518718686,1.38423373782106,2.5343011962422,0.493622059104953,3.89355019814531,-0.69160747644015,-1.38897759184748,241.423658036088,546.296814559785
0.63,2.43718128387233,0.0259984973969426,6.31068041740162,-1.2755187778118,-1.00753555457894,2.21932436533819,-3.82559030507394,5.17846447326339,0.436828298902396,256.659666224024,546.296814559785
0.64,2.37891905257754,0.0268194593897211,4.27831896766779,-1.32193515369832,-1.66612846277022,-1.69823175322608,-2.00760440414807,-4.00263042212676,2.37700969176687,272.649180548739,546.296814559785
0.65,2.2700076467056,-0.023705643965072,5.38211697762032,1.21371107342135,2.1853870443978,-0.61447549978492,4.82499805084379,-2.67575625569447,-1.85533657661119,286.780573637689,546.296814559785
0.66,2.22011568872323,0.0292330871872462,3.29391703355308,-1.44204405692252,-0.630760951622671,2.12882805003353,-2.35437595659709,2.71777378400672,0.301220798447057,301.477436777391,546.296814559785
0.67,2.08274564182252,0.0348216266437047,6.13315060568817,-1.71520105931756,-1.17465575453469,-1.72024004503771,-1.94098269787751,-6.06547913956329,2.55919129361083,314.589172290323,546.296814559785
0.68,2.02683542562131,0.000334321763248574,4.69540853198472,0.00622423670925079,1.98508188002373,0.409282156862466,4.59978276678774,0.942814150148374,-1.36730161369682,328.002915424062,546.296814559785
0.69,1.95243009188103,-0.0189434041073353,4.53584641804583,0.96801379754827,-1.73287252573266,0.899719359468645,-3.55074388526065,2.98381824205617,1.0821993642565,340.5938718275,546.296814559785
0.7,1.86442162577169,0.0552143989964657,5.15580200763034,-2.73741917821495,0.815332786507174,-1.67760218041946,4.81552700120392,-3.29946325935296,-2.65959279408178,352.472335335518,546.296814559785
0.71,1.81284520095332,-0.0226235293384299,3.94437968466124,1.15315881455832,0.0347727101568292,1.81265286398901,1.27743871720794,3.90590023837527,-0.0316598956236651,364.429424367296,546.296814559785
0.72,1.71791270373944,0.00990608573998386,5.23561069144276,-0.474585843651981,-0.774641078965583,-1.53337972693755,-1.90898906333929,-4.89822537164182,2.67957160600851,375.49351663304,546.296814559785
0.73,1.66250913785067,0.032635039140649,4.59803561136107,-1.60721909731962,1.22805846844455,1.12110395472423,2.22761769737066,4.33160525723369,-0.811268060209569,386.067901427938,546.296814559785
0.74,1.59869751103104,-0.0107754760747366,4.41437906884879,0.560187048463897,-1.4076991681508,-0.757847540504704,-4.16312985982657,-1.57127396178305,2.05791815737939,396.579137936955,546.296814559785
0.75,1.5119054721002,0.0191456433786834,5.5764911902866,-0.942389633800806,1.45491359016914,0.41164445504348,5.07817510861653,2.4894758049571,-1.28240646912599,406.544055725622,546.296814559785
0.76,1.44000841265734,-0.00769589710573593,6.17210884725827,0.411324467476237,-1.42013347597549,-0.238546359791839,-6.1581806196326,-0.58388945523092,1.73187303150876,415.855623176348,546.296814559785
0.77,1.40075686326104,0.00540849817862632,5.14838376421237,-0.246521470588008,1.39396292622903,0.137899971444754,5.09616369670662,0.771844411417174,-1.46832948212512,424.976737078567,546.296814559785
0.78,1.3672536532244,0.0156987605577578,3.91350498263582,-0.766276563894083,-1.3608054975741,-0.133556733677547,-3.80654851588498,-1.18865025036912,1.68010982020214,433.879815904401,546.296814559785
0.79,1.3086579679149,-0.010994608256137,4.05455623039,0.565379771410931,1.285751354978,0.244028710544661,4.09040991433284,0.166214451966849,-1.39163383624352,442.412151918994,546.296814559785
0.8,1.26148324403787,0.00276478954009013,3.77983452127452,-0.125243821420059,-1.20235174739497,-0.381703935774526,-3.56197424384445,-1.27089516059007,1.88038924767139,450.477553602218,546.296814559785
0.81,1.21267254686891,-0.00528333657293001,3.68826033150154,0.28903458621473,1.06270393428859,0.584177171432104,3.37795004749702,1.5087275239655,-1.07253384203206,458.090582276935,546.296814559785
0.82,1.14380170539366,0.00296815550078333,4.63573581025609,-0.125569061504212,-0.844562357296776,-0.77136604530264,-3.32988496926963,-3.22764313131578,2.3135236630985,465.534966805941,546.296814559785
0.83,1.11300039908974,0.0410611910784509,3.74894008781744,-2.0352820532169,0.598038194099148,0.939577686083131,0.138938369762963,4.26352212936664,-0.52994837766068,472.731461631033,546.296814559785
0.84,1.05058052837119,0.0386305281595839,4.53836640793708,-1.91766351961885,-0.226713478570233,-1.02655382856096,1.07126547957179,-4.8090116759524,2.96098669251399,479.640392926923,546.296814559785
0.85,0.995198005697541,-0.0128898546346885,5.06292337060271,0.657765975793786,-0.227782991349286,0.968865381644342,-0.452584740763795,5.08537276784454,0.21795807873697,486.251107007236,546.296814559785
0.86,0.953654525124311,-0.0122217709411249,4.98236822463749,0.621502042319849,0.597103420090265,-0.743689337486777,2.57969535359537,-4.30760139719584,-2.47790482128545,492.584060511802,546.296814559785
0.87,0.913276672259222,-0.0189398942752042,4.93017652033995,0.955918309117246,-0.842999058274503,0.351831760130229,-4.12307454904078,2.86717223034632,1.15468150924806,498.627718330494,546.296814559785
0.88,0.91629623261856,0.00982404361704015,2.78796958159655,-0.484154235166316,0.911055923669514,0.0983483690289011,2.71137854196971,0.809695074385001,-1.45254180778207,504.391607296566,546.296814559785
0.89,0.858495027529061,0.00414941989551944,3.7724964920635,-0.199109438581519,-0.662568145144357,-0.545925254057329,-2.77251410434262,-2.56603583224882,2.2648066147811,509.862543850903,546.296814559785
0.9,0.78123135246266,-0.00849105355488117,5.78564743418526,0.441703139442655,0.193791797839066,0.756861455717895,1.92261241907397,5.47470358851605,-0.261529808827944,515.117293371544,546.296814559785
0.91,0.772365747966771,0.00409316439826929,4.4285413111072,-0.186318208867121,0.291109206794945,-0.715416684419841,1.86303789050197,-4.02191278345174,-2.74984533865463,520.176050141741,546.296814559785
0.92,0.720743491661977,0.0187331794097844,5.2893097618805,-0.920039936729215,-0.627288502269283,0.355431073071358,-5.10072385769176,1.67507831753479,1.08127204538975,524.987195741385,546.296814559785
0.93,0.709363669547022,0.0130171994666405,4.19411366540089,-0.634140198657109,0.692960225002869,0.152224799947787,3.93183819376723,1.59165688761384,-1.33620927186023,529.603551942493,546.296814559785
0.94,0.681661574688399,-0.0193531436752377,3.96522875453891,0.985688178992143,-0.356723670675044,-0.58119297084265,-2.99439940618093,-2.77996267210377,2.56272004857851,534.049657384125,546.296814559785
0.95,0.665969398953749,0.0134799988909086,3.19568783614951,-0.658302172740835,-0.125846606137982,0.654109763293951,-1.3109378756399,2.98784611099066,0.210309644586892,538.288538285951,546.296814559785
0.96,0.634086162196695,0.0227931659481405,3.30551815400485,-1.12517286176895,0.531726738131929,-0.346195703986708,3.41277838178907,-0.738517401359049,-2.11199814715303,542.299926231599,546.296814559785
0.97,0.621197109810044,0.0189919944525399,2.49789415567687,-0.935068598192187,-0.597877478240823,-0.169673410120829,-2.09838399975374,-1.64639396435581,1.87788244872759,546.197081738351,546.296814559785
