t,iq,id,vq,vd,ia,ib,va,vb,theta_e,omega,r
0,0,0,0,0,0,0,0,0,0,0,0
0.01,0.000868760388141001,0.000490192395837067,-0.0419540723170776,-0.0245515734918136,0.000155998391088148,-0.000985239919470022,-0.00684467841750477,0.0481256098379173,-2.47084792019026,-0.00266177211323365,0
0.02,0.000961870126688717,0.000544222139776566,-0.0467902183652516,-0.027257690344087,0.000171527032170741,-0.00109176478935431,-0.00772979494539731,0.0535962357602115,-2.47086701994064,-0.00270491878079564,0
0.03,0.000989551126167816,0.000560484269469516,-0.0482262859938537,-0.0280721835439737,0.000175972287960036,-0.00112356032392252,-0.00798332075975473,0.0552276084882768,-2.47088545968611,-0.00253922291459246,0
0.04,0.000971456070056105,0.000551469838653253,-0.0474824061775459,-0.0276206889080953,0.000171769627353754,-0.00110378488579607,-0.00787379553411696,0.0543643697292091,-2.47090140706478,-0.00225582088897986,0
0.05,0.00098658729893679,0.000560563584891349,-0.0483021847532534,-0.0280761622862427,0.000174033226246435,-0.00112129321200652,-0.00802566256040145,0.0552897882174225,-2.47091648626301,-0.0020953080710908,0
0.06,0.000985432230195254,0.000560671714665649,-0.0483426730545428,-0.0280815837953911,0.000173215315878412,-0.00112045790027062,-0.00804582360633059,0.0553249862992464,-2.47093014838067,-0.00190033624298394,0
0.07,0.00101222095636508,0.000576403438707331,-0.0496928806177411,-0.0288694960820477,0.000177526245048966,-0.00115122396647094,-0.00826703396786101,0.0568725446722289,-2.47094231843172,-0.00181937355023185,0
0.08,0.000983449966382336,0.000560860187473992,-0.0484117795148222,-0.0280910136836655,0.000171809488629452,-0.00111902613279926,-0.00808008997547121,0.0553851748354732,-2.47095355145772,-0.00156633811108433,0
0.09,0.000982059388993547,0.000560663987248058,-0.0484154456300012,-0.0280811966973911,0.000171087826466179,-0.00111781649019074,-0.00808950712136557,0.0553820264891286,-2.47096352157989,-0.0014222297980972,0
0.1,0.000981144958575569,0.000560658483298,-0.0484346759877518,-0.0280809129566588,0.000170513814093535,-0.00111709820688941,-0.00810118353325563,0.0553969885091099,-2.4709724957683,-0.0012936399824349,0
0.11,0.000980326303091085,0.000560655649607031,-0.0484522040511121,-0.0280807748672369,0.000169998242294192,-0.00111645645485411,-0.00811173722781859,0.0554107003538294,-2.47098057525266,-0.00117788569809332,0
0.12,0.000979589371151355,0.000560653123801081,-0.0484679872845231,-0.0280806338723329,0.000169534126339751,-0.00111587877536354,-0.00812125327898032,0.0554230370447466,-2.470987849257,-0.00107367168645792,0
0.13,0.00102607596921879,0.000587149176461385,-0.0507142267079445,-0.0294077144348957,0.000177657046487102,-0.00116876602614084,-0.00847708764727348,0.0580076326347629,-2.4709950473246,-0.00112791775979412,0
0.14,0.00109662443008327,0.000628424634940111,-0.0544234534579414,-0.0314750114469196,0.000189154505553079,-0.00124968925556878,-0.0091621841567354,0.0621984164858761,-2.47100137648352,-0.00127451793480229,0
0.15,0.000979259061356191,0.000561487073592755,-0.0485869075142916,-0.0281224136909742,0.00016865391091201,-0.00111614152390906,-0.0081613510005907,0.0555423269538986,-2.47100718961052,-0.000802013913971559,0
0.16,0.000977183231055326,0.000560655222881966,-0.048521028088135,-0.0280807396209538,0.000168010460229897,-0.00111399902659468,-0.00815280370335765,0.0554648528003447,-2.47101181874009,-0.000730337193286358,0
0.17,0.000976739792935297,0.000560643478737315,-0.0485289996069449,-0.0280801532516829,0.000167739458613231,-0.00111364500958703,-0.00815798621031155,0.055470767711302,-2.47101597805375,-0.000670673370367981,0
0.18,0.00097636003465255,0.000560642048813628,-0.0485370924567301,-0.0280800760242801,0.000167500413748159,-0.00111334722147175,-0.00816286818264553,0.0554770907376664,-2.47101972259222,-0.000617024669297204,0
0.19,0.000976018367423743,0.000560640874656181,-0.0485443865793173,-0.0280800307201124,0.000167285257257069,-0.00111307937119874,-0.00816724945460977,0.0554828048133008,-2.47102309381923,-0.000568725366908515,0
0.2,0.000975710751675646,0.000560639818797409,-0.048550950329692,-0.0280799853300865,0.000167091544508156,-0.00111283821515552,-0.00817119552954368,0.0554879438947963,-2.47102612895332,-0.000525241249162804,0
0.21,0.00097543381135983,0.000560638868085753,-0.0485568574224753,-0.0280799369511348,0.000166917150067737,-0.00111262110611192,-0.00817475264124812,0.0554925641972031,-2.4710288615013,-0.000486092256474077,0
0.22,0.000975184636101391,0.000560638012046931,-0.0485621806774361,-0.0280798914098768,0.000166760239607582,-0.00111242576270336,-0.00817795981111985,0.0554967266337946,-2.4710313216293,-0.000450846200838133,0
0.23,0.000974960373720906,0.000560637241262288,-0.0485669741445085,-0.0280798458024271,0.000166619017566158,-0.00111224994924769,-0.00818085140167133,0.0555004719636258,-2.47103353649577,-0.000419113981147741,0
0.24,0.00097475813706725,0.000560636547249558,-0.0485712704456649,-0.0280798204643173,0.000166491668996291,-0.0011120914027388,-0.00818343040089453,0.0555038385779572,-2.47103553055235,-0.000390545287504074,0
0.25,0.000974576482693104,0.000560635922368543,-0.0485751567537165,-0.028079774736013,0.000166377278208967,-0.00111194899134999,-0.00818578161821491,0.0555068696845017,-2.47103732581234,-0.000364824733949178,0
0.26,0.000983550594133027,0.000565692876007796,-0.0490101097964822,-0.0283330584857672,0.000167990200835366,-0.00112212276227189,-0.00825754014767481,0.0560050542016583,-2.47103890752611,-0.000372609116492283,0
0.27,0.000946536218358754,0.000544862716098121,-0.047272857729797,-0.0272897729253208,0.000161306913980072,-0.00108017881462327,-0.00799527899175162,0.0539956507331957,-2.47104055665615,-0.00022616889311809,0
0.28,0.000934927364712691,0.000537860246547164,-0.0464295906825371,-0.0269390506956768,0.000159577783088741,-0.00106673227815084,-0.0077459678980669,0.0531170342230654,-2.47104192403343,-0.000168347577854635,0
0.29,0.000973474555523423,0.00056035150755205,-0.0485616391109746,-0.028065533737578,0.00016590918054581,-0.0011109098370606,-0.00818823082275588,0.0554874747408182,-2.47104287907649,-0.00028346632931082,0
0.3,0.000970944285489645,0.000559039394002568,-0.0484435666929689,-0.0279998182932019,0.000165364611218929,-0.00110811208590475,-0.00816633379873712,0.055354132372173,-2.47104308833978,-0.000272105490348489,0
0.31,0.000973846673761814,0.00056061378107791,-0.0485878009706623,-0.0280786694252152,0.000165933562138699,-0.00111136457046614,-0.00819412811430827,0.0555161448976918,-2.47104411434969,-0.000267425809965232,0
0.32,0.000973792658541363,0.000560632986581871,-0.0485917587983896,-0.0280796475550283,0.000165883905221441,-0.00111133434098891,-0.00819576907629739,0.0555198613037126,-2.47104505363264,-0.000254106629757791,0
0.33,0.000973707593929013,0.000560632934307941,-0.0485936002676702,-0.0280796363857643,0.000165830145768968,-0.00111126780222411,-0.00819687518103698,0.0555213040534654,-2.47104589948848,-0.000241990000908378,0
0.34,0.000973630561955908,0.000560632672117427,-0.0485952344972047,-0.0280796135486086,0.00016578163619006,-0.0011112074123773,-0.00819786632521398,0.0555225764945345,-2.47104666101973,-0.000231079608631153,0
0.35,0.000973561062008983,0.0005606324333892,-0.0485966957598997,-0.0280796138964176,0.000165737873181102,-0.00111115292566836,-0.00819873603393254,0.0555237272055654,-2.47104734663051,-0.000221256898171383,0
0.36,0.000973498581946335,0.000560632218421188,-0.048598013220762,-0.0280795880977994,0.000165698529823055,-0.00111110394230147,-0.00819954066129151,0.0555247484432956,-2.47104796388941,-0.000212413457087992,0
0.37,0.000973442120515419,0.000560632024878181,-0.0485991861351524,-0.0280795883966803,0.000165662978163224,-0.00111105967750551,-0.00820023843437086,0.0555256721449244,-2.47104851961091,-0.000204451657982202,0
0.38,0.000973391363435255,0.000560631850626037,-0.0486002431988429,-0.0280795886734363,0.000165631017743761,-0.00111101988474909,-0.00820086730906295,0.0555265046120786,-2.47104901992979,-0.000197283606048516,0
0.39,0.000973345880013815,0.000560631693742161,-0.0486012028782005,-0.0280795657243761,0.000165602376284154,-0.00111098422632237,-0.00820145663388331,0.0555272459389091,-2.47104947036951,-0.00019083016909934,0
0.4,0.000973304785405335,0.000560631552496055,-0.0486020569096143,-0.0280795659646212,0.000165576499751698,-0.00111095200871912,-0.00820196463231428,0.0555279185345279,-2.47104987590272,-0.000185020103989603,0
0.41,0.000973267648917786,0.000560631425329056,-0.0486028161696114,-0.0280795661894257,0.000165553116748963,-0.00111092289427806,-0.00820241599530164,0.0555285165373918,-2.47105024100615,-0.000179789270118752,0
0.42,0.000973234621935528,0.000560631310837893,-0.0486035174285416,-0.0280795431954725,0.000165532317962274,-0.00111089700140735,-0.00820285152810166,0.0555290543706704,-2.47105056971082,-0.000175079921347574,0
0.43,0.000973204586782589,0.000560631207759447,-0.0486041310438677,-0.0280795433932838,0.00016551340580904,-0.00111087345424489,-0.00820321624721684,0.0555295376795645,-2.47105086564502,-0.000170840068505824,0
0.44,0.000973177462012687,0.000560631114956369,-0.0486046765883019,-0.0280795435796737,0.000165496326934649,-0.00111085218881623,-0.00820354031333733,0.0555299674070107,-2.47105113207628,-0.000167022905456985,0
0.45,0.0009731531312105,0.000560631031403987,-0.0486051695852608,-0.0280795437550949,0.000165481006529832,-0.00111083311376452,-0.00820383320929581,0.0555303557397241,-2.47105137194537,-0.000163586292374739,0
0.46,0.000973131245130064,0.000560630956180623,-0.0486056116950181,-0.0280795439209175,0.000165467225346658,-0.00111081595532854,-0.00820409581871577,0.0555307040010384,-2.47105158790081,-0.000160492290539415,0
0.47,0.000973111722324881,0.000560630888455981,-0.0486060160937634,-0.0280795208774114,0.000165454930773505,-0.00111080064957659,-0.00820435437373901,0.0555310081172878,-2.47105178232648,-0.000157706743512322,0
0.48,0.000973094027196019,0.000560630827482668,-0.0486063715729271,-0.0280795210272012,0.000165443788183354,-0.00111078677676681,-0.00820456543431005,0.0555312881593486,-2.47105195736874,-0.000155198900059928,0
0.49,0.000973077961881657,0.000560630772587467,-0.0486066822152532,-0.0280795211705485,0.000165433673002161,-0.00111077418177989,-0.00820474960686015,0.0555315329252725,-2.47105211496021,-0.000152941074678672,0
0.5,0.000973063526381795,0.000560630723165145,-0.0486069606047941,-0.0280795213074568,0.000165424583770699,-0.00111076286452849,-0.00820491461466868,0.0555317522887395,-2.47105225684037,-0.000150908341955309,0
0.51,4.07721642530326,0.0758817822530709,7.73807005549578,-3.78830097682125,-0.684734375996044,4.02002371360791,-5.16307047465987,6.89722087136847,0.187320798997923,56.3489736263112,445.019211210137
0.52,3.48551079426772,0.00751414313604148,8.34214543849255,-0.352657247298219,-2.51842807077145,2.40963939452655,-6.28320790710703,5.49882315110257,0.809625719869557,112.497245699575,445.019211210137
0.53,2.92913124799418,0.0355291275922742,9.04335456862882,-1.75985543652864,-2.8409731140176,-0.71410360054585,-8.29346865829064,-4.01219773009382,1.8291824373939,164.859373664178,445.019211210137
0.54,2.54695205291068,0.0189652630444656,6.54980252290176,-0.920395139562289,0.115915308376051,-2.54438363505041,1.26589779048337,-6.49188286138848,-3.08862068776054,205.949124201742,445.019211210137
0.55,2.14933374116492,0.0569230730546827,7.42567478468973,-2.83201221973516,2.13913608986093,0.216731530263777,7.00548096346027,3.75288897934669,-1.44334570483542,242.808477775213,445.019211210137
0.56,1.77713779335532,0.0686135727568383,10.4215403702173,-3.40351485151893,-0.710399531155351,1.63041683782784,-7.59376188852765,7.90741407875697,0.449502364348483,272.685767478736,445.019211210137
0.57,1.58325082933812,0.00855478713867934,6.16434366163087,-0.403816104412906,-0.889039580589931,-1.31010114003741,-3.09842622197906,-5.34433860939073,2.55077461623523,299.363129758954,445.019211210137
0.58,1.33267032357164,0.00851274030159055,6.9364352677349,-0.412525587117828,1.32453609692724,0.147264340601342,6.84071758640979,1.22020264156708,-1.45368160989436,322.062868417618,445.019211210137
0.59,1.16046229779213,0.0344520757782829,5.74340643884016,-1.71688126963973,-0.942309543379329,0.678168426409446,-5.72026814185265,1.79246511850467,0.976658610142239,341.024730451909,445.019211210137
0.6,0.919227322345988,-0.00833209531144385,9.40092760503046,0.436183306257504,0.361533372395411,-0.845187502631254,3.21617917744845,-8.84442690117503,-2.74645461015055,357.166621955224,445.019211210137
0.61,0.779518899121238,-0.0323083222337124,9.16563420266162,1.64448513698608,0.0269566883297142,0.779722308727305,2.33548633677686,9.01435994807714,-0.0759811829246588,370.906234783227,445.019211210137
0.62,0.662851618469699,0.0266705952401545,8.77232445504652,-1.31127088110351,-0.314194221543838,-0.584264991169953,-2.66187116251941,-8.46094259420218,2.68840991138075,382.833327984975,445.019211210137
0.63,0.581663435576194,-0.00635806061676364,7.56539289170765,0.341660604967023,0.391736849892141,0.430017462038102,5.40567800333743,5.30382379978077,-0.749778193795477,392.936351447786,445.019211210137
0.64,0.51262192194631,-0.0231889641219919,6.50708720903422,1.18361448041842,-0.412140827608211,-0.305710485811983,-6.05757523735576,-2.65497823494041,2.16379918120054,401.583427009007,445.019211210137
0.65,0.398577406055327,-0.00797291092868285,8.37500184756168,0.419659009573005,0.360149116707371,0.170938964725337,7.80865659838678,3.05641158214137,-1.14764752354298,408.907139128814,445.019211210137
0.66,0.343879514930804,0.0401190472833948,7.85396917615196,-1.98974741779863,-0.340200631316252,-0.0642354201044561,-6.9034932050863,-4.240956044798,1.87355652467639,415.139903341572,445.019211210137
0.67,0.300151716244928,0.000244231267602021,7.25811566136324,0.00691973274217208,0.292657093633154,0.0666553670748499,7.07711047489736,1.61083772072969,-1.34604343257526,420.448278088688,445.019211210137
0.68,0.256591751156342,0.058163430964822,7.03017217152502,-2.89565202345691,-0.262888691837836,0.0105757820925519,-6.38705917980338,-4.12475410611642,1.75349887873996,425.052451457525,445.019211210137
0.69,0.238387565601599,0.0128490405973885,5.88971059036155,-0.645098690688885,0.237083138154593,0.0280234701723437,5.6932103715818,1.64079213304395,-1.39929352482305,429.007088505409,445.019211210137
0.7,0.159540647347194,0.0234117013497252,8.08509693590565,-1.18433563001653,-0.161112299361513,-0.00664476564648344,-7.72416436142355,-2.66621984563011,1.75772054019647,432.235846545292,445.019211210137
0.71,0.154147064873212,-0.0209209944965092,6.87734509590833,1.03638680637785,0.145637273880435,0.0546698278433753,6.93563180925596,0.51863724035724,-1.34658624992577,435.095687878428,445.019211210137
0.72,0.127672926381831,0.0301802465689195,6.93672504347606,-1.52150798143301,-0.131034056439357,-0.0064264661291112,-6.24227359704917,-3.38631971407532,1.85192746608633,437.443346975702,445.019211210137
0.73,0.120336591986159,-0.00522439094848326,6.19058469194069,0.255765178239213,0.111061167410791,0.0466219553963376,5.89527855558611,1.9064221480398,-1.21673758342839,439.577306889986,445.019211210137
0.74,0.106643893523309,0.0056699238123679,5.94677908045132,-0.284887821982182,-0.0988456075287885,-0.0404303590648614,-5.25515868888933,-2.79797241898453,2.01217575765859,441.325012543754,445.019211210137
0.75,0.0981084385462091,0.0292237648383726,5.57249229323918,-1.45903537608715,0.0991631951667728,0.0254156422232513,4.02777005354957,4.11807272672704,-1.03039257200278,442.834185692531,445.019211210137
0.76,0.0829029760766233,0.0831198431239761,5.62208523914978,-4.15343959365291,-0.116300895465519,0.0159972959350601,-1.96197020249319,-6.70891763393458,2.22080759410504,444.143679619226,445.019211210137
0.77,0.0438547185474751,0.046416896868037,7.0089819480137,-2.3120661522955,0.0637907541302126,-0.00291622036804516,3.43479598167471,6.53250751277361,-0.802706393124777,445.17851881022,445.019211210137
0.78,0.0493204819416475,-0.023132063534939,6.29072234956866,1.17275617120384,-0.0129201350857688,-0.052921379533288,-4.85918217412937,-4.16375951696093,2.4635843640158,446.001996452876,445.019211210137
0.79,0.0544124196565153,0.0358863834159664,5.6004146397579,-1.80386410707309,0.0589569384245242,0.0277961029491787,1.37337919378622,5.72122359675588,-0.547194121772637,446.803308264939,445.019211210137
0.8,0.0317910465654596,-0.0353705867525159,6.33757102162581,1.75632248683362,0.0197279231505249,-0.043273064336969,-4.14157808074607,-5.10850331633369,2.73069189055627,447.546473264096,445.019211210137
0.81,-0.0357499567853894,-0.070765793028393,9.43785870568382,3.52994142494572,-0.0777380986804222,-0.015577062837631,5.91966374578855,8.15421636632217,-0.270028858720535,448.021032333662,445.019211210137
0.82,0.0455043543356138,0.00113078359022019,5.13084738831524,-0.064034233915976,-0.00683131909960332,-0.0450028667352248,-0.580243787817447,-5.09833428209585,3.01579019762161,448.48072636469,445.019211210137
0.83,0.0379165618507521,-0.045298118746647,5.28062467381706,2.2679929880234,-0.0461082219855635,0.0369271863252163,2.15316082913941,5.32847891835076,0.021647007915991,448.874224928754,445.019211210137
0.84,0.038631836765334,-0.0542178506268188,5.0264620131724,2.72162743171777,0.0600310564756633,-0.0287796177332355,-1.82093623064057,-5.41818858022534,-2.96954889544071,449.253558443783,445.019211210137
0.85,0.0160340353304734,0.0874327814863437,5.98250730002734,-4.36846082127604,0.0777521764575456,0.0430834147153203,-6.04843052263032,4.27671974237476,0.324623047528349,449.552627165074,445.019211210137
0.86,-0.0600512445700638,0.000910541333064112,9.65405648186475,-0.0339743584512783,-0.0284849872650608,0.0528733066910153,4.47959313416814,-8.55191242731008,-2.66259669234133,449.747218928731,445.019211210137
0.87,-0.0311708519720439,0.00993776726883399,8.07856261702515,-0.496980895198253,0.0264871156082924,-0.0192045290935636,-5.19104428015126,6.20992940772254,0.634825643121722,449.907929487648,445.019211210137
0.88,-0.0724504545749391,-0.0662278112395963,10.0836586700087,3.29913378981877,-0.00502289911166817,0.0980304128024406,4.8573995400829,-9.43239766148396,-2.34984208751993,449.985437906956,445.019211210137
0.89,0.0267532822329984,0.00342798493291455,5.08605749951361,-0.185470581722372,-0.0197522293690489,0.0183667804988037,-4.24262113179293,2.81114676904412,0.949166364402958,450.098125575361,445.019211210137
0.9,-0.0122399255199333,-0.037229807785708,6.93921669801918,1.85526481932818,0.00569306315882198,0.0387745199372467,5.37801639589209,-4.76147829748502,-2.03421463599488,450.193242730986,445.019211210137
0.91,0.0327669828330532,-0.0140266379874604,4.63981770926911,0.701080047160544,-0.0354644693037964,-0.00356274531968683,-4.21649329380011,2.05927315116587,1.26644993810309,450.293284497435,445.019211210137
0.92,0.0211132416670948,0.000158735721912791,5.22257266950252,-0.00264509505964561,0.0208676419514038,-0.00321491681238763,5.16789097857517,-0.753773917248341,-1.71613863199371,450.273064726816,445.019211210137
0.93,-0.0623640733309597,0.0054565364407606,9.32509292413043,-0.264361575340693,0.0622815670272393,0.00632912640023591,-9.32047778255941,-0.394891112840672,1.58479722891681,450.339424195912,445.019211210137
0.94,-0.0410140271052058,0.00637459220528483,8.19871496214125,-0.307188262839074,0.0390889356753798,-0.0139585440836877,-7.35263892651172,3.64032862192543,1.07362200787024,450.4033322788,445.019211210137
0.95,0.0189653351002748,-0.025101796406658,5.15722066775514,1.25886060681122,0.026197610769285,0.0174203704980137,4.45105180418158,-2.89305943246829,-1.90773696852476,450.472021178677,445.019211210137
0.96,-0.0372309388000646,0.00265144817532219,7.93474515124732,-0.149989332462238,0.0371190708000987,-0.00391759675028376,-7.83812222835775,1.24359050672614,1.39454802832045,450.447602393009,445.019211210137
