t,iq,id,vq,vd,ia,ib,va,vb,theta_e,omega,r
0,0,0,0,0,0,0,0,0,0,0,0
0.01,0.00038371523271937,0.000216622847737398,-0.0185422013080646,-0.0108351853989176,-0.00043678891017468,5.81230241053865e-05,0.0212436934670089,-0.00314959677696569,1.95244288581585,-0.00282196730800791,0
0.02,0.000500419617234494,0.000279816563522138,-0.0242226996525363,-0.0139960583286804,-0.000568631428460155,7.33171269337523e-05,0.027692665263313,-0.00396801182091299,1.95241923689325,-0.00353037681525488,0
0.03,0.000549715848559172,0.000306360541071739,-0.0266206299856617,-0.0153237478126851,-0.000624264953788789,7.9608810781096e-05,0.0304124456973879,-0.00430793855152513,1.95239281355353,-0.0037046178201848,0
0.04,0.000548297840419207,0.000305315247478663,-0.0265837431716286,-0.0152714704553841,-0.000622557622732326,7.91828802784953e-05,0.0303586333176225,-0.00427394360876679,1.95236694201594,-0.00349705287906375,0
0.05,0.000561690723364263,0.00031320634766585,-0.0272566783104551,-0.015666175015022,-0.000637923740140793,8.15351868608371e-05,0.0311300413403865,-0.0043904530821726,1.95234193922514,-0.0034088255592502,0
0.06,0.000564726057199923,0.000315324307617902,-0.0274313034059254,-0.0157721088362149,-0.000641527457850306,8.23860393477202e-05,0.0313314478912077,-0.00442449960220111,1.95231790686657,-0.00324914374490844,0
0.07,0.000571237255747072,0.000319623569435766,-0.0277709116629767,-0.0159871532301579,-0.000649169361888256,8.39664699621222e-05,0.0317266048492583,-0.00449834944578825,1.95229537987157,-0.00312736812424415,0
0.08,0.000566018591013892,0.000317044826738131,-0.0275466129416976,-0.0158581644731736,-0.000643363965494415,8.35300870229619e-05,0.0314703103521892,-0.00446282773080227,1.95227362663012,-0.0029221970000098,0
0.09,0.000563881224660648,0.000316350575279209,-0.0274685666727472,-0.015823442654507,-0.000641120071523454,8.36945392127809e-05,0.0313848567868696,-0.00446029785589643,1.95225323501718,-0.00275083526883985,0
0.1,0.000562657909561776,0.000316162637954919,-0.0274329548130926,-0.0158140390868791,-0.000639913107911339,8.3987803604404e-05,0.0313482181679454,-0.00446542939854809,1.95223403533458,-0.00259549551418124,0
0.11,0.000561729444982911,0.000316110791839282,-0.0274101698641584,-0.015811450677256,-0.000639030545916911,8.42968769480935e-05,0.0313260262684621,-0.00447207588586574,1.95221593371749,-0.00245075252722036,0
0.12,0.000560917921060247,0.000316095579880255,-0.0273917572187068,-0.0158106882760937,-0.000638270233718242,8.45957359188103e-05,0.0313085765510037,-0.00447875670720421,1.95219886046569,-0.00231472021808793,0
0.13,0.000579228708885661,0.000326904959651815,-0.0282904809979278,-0.0163513544570273,-0.000659287317200162,8.782359148496e-05,0.0323438926052954,-0.00464658141116419,1.95218234434163,-0.0023284722941887,0
0.14,0.000589401486903927,0.000333094706778331,-0.0288496975173429,-0.0166609643271759,-0.000671031616613159,8.97929059215303e-05,0.0329780930062734,-0.00472632635597557,1.95216642159937,-0.00228479677219184,0
0.15,0.000567254549104885,0.000320654345189762,-0.0277531761039046,-0.0160387017362435,-0.00064584429038703,8.64990470683639e-05,0.031728679886195,-0.00455736874938703,1.952151234781,-0.00200071944982278,0
0.16,0.000560521763135134,0.000317311485331079,-0.0274464479247727,-0.0158715035194291,-0.000638349865126425,8.59108570799364e-05,0.0313816973871273,-0.00451676839756897,1.95213756596164,-0.00184551242848377,0
0.17,0.000558200617444839,0.000316412540432486,-0.0273503085383279,-0.015826540892371,-0.000635859807323934,8.594841760445e-05,0.0312756731774375,-0.00451121281450362,1.95212485863001,-0.00173119671519755,0
0.18,0.000557158158580414,0.000316170157320916,-0.0273146105780142,-0.0158144161770556,-0.000634800995659902,8.61189756223744e-05,0.0312379732401729,-0.00451361694164734,1.95211292439956,-0.00163249279371458,0
0.19,0.000556501278191131,0.000316104196830232,-0.0272965856031969,-0.0158111104183093,-0.000634165778328095,8.63093359930985e-05,0.0312199618964903,-0.00451760749006817,1.95210168135937,-0.00154198044513856,0
0.2,0.000555974344171082,0.000316085676452607,-0.027284023789641,-0.0158101877568516,-0.000633668879884173,8.64949530394942e-05,0.0312079109871817,-0.00452175661405413,1.95209107950799,-0.00145733538426491,0
0.21,0.000555503872435288,0.000316079944972479,-0.0272734461509221,-0.0158099022688626,-0.000633229196233514,8.66710386568892e-05,0.0311979415036415,-0.00452573978854246,1.9520810794364,-0.00137769577729873,0
0.22,0.000555067510621631,0.00031607769152065,-0.0272638216548559,-0.0158097869754894,-0.000632822513057714,8.68372926341939e-05,0.0311889225395204,-0.00452950839075749,1.9520716461774,-0.00130262738445885,0
0.23,0.000554657948222788,0.00031607641254133,-0.0272548384554352,-0.0158097314460033,-0.000632441110958648,8.69941334866968e-05,0.0311805234156158,-0.00453307700738109,1.9520627473732,-0.00123182837215187,0
0.24,0.000554272343568889,0.000316075433257717,-0.0272463971962225,-0.0158096743081546,-0.000632082099078684,8.71420127073456e-05,0.031172628946599,-0.00453642661815485,1.95205435267801,-0.00116504468920738,0
0.25,0.000553908648825402,0.000316074570282345,-0.0272384335593726,-0.0158096332721524,-0.000631743506329432,8.72815411948382e-05,0.0311651859027275,-0.00453959850831987,1.95204643351592,-0.00110204540902048,0
0.26,0.000556716079906231,0.00031790181420807,-0.0273819769338808,-0.0159010287730203,-0.000635028602059904,8.79376578536629e-05,0.0313323958859947,-0.00457125200479095,1.95203909445543,-0.00106759480724273,0
0.27,0.000549770294562964,0.00031399129996114,-0.0270573879071762,-0.0157054301957201,-0.000627125864042263,8.6896857735937e-05,0.03095830108689,-0.00451069526852615,1.9520317553495,-0.000958907672628322,0
0.28,0.000548944463519333,0.000313718155327577,-0.0269752904180717,-0.0156917642342476,-0.000626257115217667,8.6954762088755e-05,0.0308769828886107,-0.00452876204044362,1.95202509055938,-0.000901930771217437,0
0.29,0.000551512738921754,0.000315439253505084,-0.0271563459837469,-0.0157778571884381,-0.000629280825624891,8.76006069937606e-05,0.0310770441170607,-0.00454150124892385,1.95201895115346,-0.000874785196599162,0
0.3,0.000543256609371258,0.000311070255596003,-0.0267661041847919,-0.0155593267180634,-0.000619991453576298,8.66201191090569e-05,0.03063348953609,-0.00448400490553266,1.95201391499428,-0.000773640364112107,0
0.31,0.000549563148347406,0.00031472716314093,-0.02707519395672,-0.0157422420433207,-0.000627205347749011,8.76715061767094e-05,0.0309884200135918,-0.00453895774443014,1.95200856731112,-0.000780969213422083,0
0.32,0.000551187236969333,0.000315709116479921,-0.0271594136925847,-0.0157913606478033,-0.000629077720304211,8.79820336391291e-05,0.0310848444708098,-0.00455337978423885,1.95200332164042,-0.000753433152642143,0
0.33,0.000551488145821311,0.0003159725175429,-0.0271798340353676,-0.0158045355209611,-0.000629454583728767,8.81177271987335e-05,0.0311086777427469,-0.00455816743015982,1.95199831593074,-0.000717651678673804,0
0.34,0.000551421689439662,0.000316042914874362,-0.0271822992716062,-0.0158080553635649,-0.000629418670110223,8.82107779324755e-05,0.0311122539193792,-0.00456066487748998,1.95199357749826,-0.000681106280892825,0
0.35,0.000551259244092785,0.0003160614857918,-0.0271798389486457,-0.0158089814325233,-0.000629274399018988,8.82912664874627e-05,0.0311102943103702,-0.00456257899990068,1.95198910284584,-0.000645836702581042,0
0.36,0.000551077647196795,0.000316066153731759,-0.0271761552439286,-0.0158092121285133,-0.000629107200351508,8.83658148869285e-05,0.0311069415691514,-0.00456429492691263,1.95198488034544,-0.000612338916444781,0
0.37,0.00055089816926956,0.000316067105019533,-0.0271722848481126,-0.0158092668194259,-0.000628940606395253,8.84359734901637e-05,0.0311033511356852,-0.00456590947841056,1.95198089665713,-0.000580674293036357,0
0.38,0.000550726700081305,0.000316067074997074,-0.0271685270003272,-0.0158092603387442,-0.000628781100708679,8.85020986826373e-05,0.0310998434332149,-0.00456741833591137,1.95197713852173,-0.00055078502492297,0
0.39,0.000550564160466872,0.000316066797498385,-0.0271649406194815,-0.0158092509534738,-0.000628629809995807,8.8564537237611e-05,0.0310964947721014,-0.00456885406404478,1.95197359323882,-0.000522583647815214,0
0.4,0.000550410793828594,0.000316066468744928,-0.0271615525564062,-0.0158092269564017,-0.000628487032197112,8.86233884929801e-05,0.0310933256674686,-0.0045701961850859,1.95197024877322,-0.000495978278858726,0
0.41,0.000550265891129639,0.000316066140589235,-0.0271583417901185,-0.0158092145975136,-0.000628352127514948,8.8678971662444e-05,0.0310903263219132,-0.00457147724221428,1.95196709375491,-0.000470879572190306,0
0.42,0.000550129253915628,0.0003160658261507,-0.0271553122136357,-0.0158092007511425,-0.000628224915727734,8.87313796408648e-05,0.0310874954184353,-0.00457268394039192,1.95196411745519,-0.00044720248370375,0
0.43,0.000550000300115454,0.000316065528188724,-0.0271524479459135,-0.0158091883299222,-0.000628104856721652,8.87808380168775e-05,0.0310848192542056,-0.00457382520871291,1.95196130975021,-0.000424866570573095,0
0.44,0.000549878680477623,0.000316065246723191,-0.0271497438126921,-0.0158091744245942,-0.000627991625518071,8.88274828483509e-05,0.0310822919014581,-0.00457490057100772,1.95195866109026,-0.000403795885214396,0
0.45,0.000549763929346404,0.000316064981077973,-0.0271471882721521,-0.0158091619471858,-0.000627884788871224,8.88714924953756e-05,0.0310799036897237,-0.0045759173062371,1.95195616246599,-0.000383918764651093,0
0.46,0.000549655755680724,0.000316064730428821,-0.0271447778064589,-0.015809149443444,-0.000627784075603264,8.89129798901512e-05,0.0310776507746146,-0.00457687563937078,1.95195380537844,-0.000365167600336622,0
0.47,0.000549553693816469,0.000316064493947544,-0.0271424996192782,-0.0158091354600304,-0.0006276890524818,8.89521226061645e-05,0.031075520701574,-0.00457777923257024,1.9519515818102,-0.000347478612051442,0
0.48,0.000549457394513315,0.000316064270838918,-0.0271403459608989,-0.015809122908572,-0.000627599394391198,8.89890546421245e-05,0.0310735073262089,-0.00457863390801896,1.95194948419813,-0.000330791632056857,0
0.49,0.00054936656672729,0.000316064060349375,-0.0271383115578686,-0.0158091088795917,-0.000627514830285525,8.90238881087074e-05,0.0310716046391426,-0.00457943914988967,1.95194750540717,-0.000315049900756272,0
0.5,0.000549280861218124,0.000316063861766393,-0.0271363877025703,-0.0158090962849366,-0.000627435035146768,8.90567565408924e-05,0.0310698056105386,-0.00458020111064432,1.95194563870671,-0.000300199873716259,0
0.51,1.60370046276725,-0.0394060142497235,1.20893689836992,1.97202066726643,-0.115338858858757,1.60003279837511,1.91253159788579,1.30100608125199,0.0473938525274046,14.6101327412196,361.456673268914
0.52,1.5628322762341,-0.0253543654966941,0.922423589233686,1.26982504848046,-0.355682153513874,1.52203080558855,1.04572789723394,1.17037348597354,0.21334747308769,30.5754424667536,361.456673268914
0.53,1.52342155072802,0.0267446657331169,0.593978183911918,-1.33576579714579,-0.699937870147618,1.35337189135173,-1.4576071483392,-0.111632203679267,0.494851390879869,46.1451853407003,361.456673268914
0.54,1.47123760910235,-0.0446819961092491,0.926331420894361,2.23818654095863,-1.17061197377931,0.892302745741612,0.690916736300447,2.32168106271393,0.889138154929872,61.3687934716883,361.456673268914
0.55,1.45375605059911,-0.0153361683647091,-0.500307112903371,0.770953353446878,-1.43385858012585,0.240190393049193,0.627916621003023,0.671116232467103,1.39427505440669,76.4461929390882,361.456673268914
0.56,1.36359412786575,-0.025402202117651,1.64205496216772,1.27508725347266,-1.22340416925407,-0.602757377453105,-2.02837728792377,0.455935939122055,2.0099510820113,91.5597515780242,361.456673268914
0.57,1.34498889302784,-0.032991344449403,0.076807752655007,1.65449858768225,-0.498380717522291,-1.2496800436827,-1.55149705104548,0.579760216044217,2.7375912802158,107.008597011303,361.456673268914
0.58,1.26602277737463,0.0322970007155629,1.57856850687863,-1.61218025406095,0.504871057715008,-1.16144822707184,2.12768054160447,-0.750985496112124,-2.70603731626659,121.800425315934,361.456673268914
0.59,1.26218119230113,0.0142464767759132,-0.379840472546701,-0.708431478258876,1.23600344298272,-0.256124604897884,-0.236876236088287,0.768142950725452,-1.76383772636178,135.071064567268,361.456673268914
0.6,1.21446139632332,-0.0251612261052596,0.0414055743278717,1.26392426316715,0.789530895599068,0.923141665917665,0.970869294659796,-0.810328191102121,-0.728257873243269,147.364359872119,361.456673268914
0.61,1.18614446773071,0.0377535775133368,-0.465936023830838,-1.88235174520559,-0.422571677464511,1.10896222133491,-1.55708760921555,-1.15577794070021,0.395883556421565,159.331094970799,361.456673268914
0.62,1.13244240991145,-0.0436312087362515,0.166865574801583,2.18941814205995,-1.12996186257314,-0.0866930405054071,-0.250059808279356,2.18148252642977,1.6088590490709,171.767140297619,361.456673268914
0.63,1.08779834459079,-0.0296279559825554,0.263788112131241,1.48642248513799,-0.216560635934372,-1.06643543884938,-1.50761185145699,0.078373961058492,2.91401739562106,184.096208855336,361.456673268914
0.64,1.06761802549998,0.029255970970217,-0.563062627113838,-1.45805640057271,0.968237788237914,-0.450754640173607,0.0621535691108681,1.56176340178343,-1.97910276463103,194.956456318767,361.456673268914
0.65,0.999722328060627,0.0215794479908005,1.09457743361427,-1.07257191621132,0.508544121807037,0.860983903434934,-0.398867391475594,1.47966721854621,-0.511937469317442,205.299960809545,361.456673268914
0.66,0.968429840500922,0.00729808225532907,0.783770000304393,-0.359384456865571,-0.827595517311064,0.502986359361642,-0.857152816833958,0.0934967903583869,1.0322202299147,216.148614806767,361.456673268914
0.67,0.915695744354198,0.03592997654074,1.57267523161382,-1.79290287801621,-0.459509543808654,-0.792868613700511,0.850643874959135,-2.22805141595182,2.65556103431689,226.4614035717,361.456673268914
0.68,0.887518947691121,0.0307241414325894,1.37736927075367,-1.53036894752825,0.818826145632826,-0.343740597843222,1.83087775000804,0.941839629714491,-1.93364738470778,235.650664102785,361.456673268914
0.69,0.836390129797385,-0.0296257149644253,2.28575726085234,1.48958036743899,0.114353081346233,0.829065440720008,1.85975657382159,1.99620675600656,-0.172471385965144,245.015277053584,361.456673268914
0.7,0.83808961226291,-0.00305019523019373,0.473311940905641,0.156907048853315,-0.834587776368487,-0.0765946826499155,-0.485256657236029,0.114760585532822,1.65867597513069,254.343904659551,361.456673268914
0.71,0.805199749913263,-0.00743285017139211,0.632961902028549,0.378609038225266,0.329105894386769,-0.734908970418743,-0.0936034625522223,-0.731590025248905,-2.72978507653876,262.557618406657,361.456673268914
0.72,0.741803141240932,0.0179979545364651,2.28296999148544,-0.894157438363059,0.53196497323747,0.51730947601109,0.958867020647177,2.25655568141321,-0.77510684173437,270.868194529066,361.456673268914
0.73,0.749403972133722,0.000193344677535734,0.351742238136331,-0.00521298090848561,-0.70899859539622,0.242749546978261,-0.334494171146059,0.108919358832205,1.24118069403498,279.003449029874,361.456673268914
0.74,0.735351622961571,0.0391969699633482,-0.31057861315395,-1.95345556594476,0.0869280086404189,-0.731246834632695,1.87174701672953,0.639539544073148,-2.97001818808939,286.285035920991,361.456673268914
0.75,0.644061472376365,0.0270227280516566,2.77044410182129,-1.34912958824961,0.498999313217516,0.408099367114692,1.17202949398996,2.84988737188412,-0.843342122877081,294.001922517865,361.456673268914
0.76,0.653039303410043,0.00770536622722338,0.976116439193324,-0.380018369488882,-0.633561909035925,0.158489784799288,-1.03753241263034,-0.144026930655003,1.33746883515468,300.880291005333,361.456673268914
0.77,0.629355616345389,-0.00713448147508228,0.866151963468919,0.364300374142229,0.266270890545317,-0.570297471061907,0.0256930964218548,-0.939294336838825,-2.71611102602242,307.541184964288,361.456673268914
0.78,0.564523925629262,0.014268561584338,2.75561027757331,-0.710453486119844,0.2516250155628,0.505544959425548,0.521319092610999,2.79756296827913,-0.436560147134304,314.200177664585,361.456673268914
0.79,0.602606841575291,0.00927077303629523,-0.329524824067772,-0.456451898459235,-0.575383880542689,-0.17931632038851,0.455552435416024,-0.3307671747173,1.88828659137944,320.109589290008,361.456673268914
0.8,0.527886745354301,-0.0452196909370085,2.13237085257246,2.26435741420503,0.494129698025524,-0.191167669595043,0.921525899386353,-2.97070866443111,-2.02539240354982,326.304792916395,361.456673268914
0.81,0.530346473259819,-0.0352279294986313,0.879728697642862,1.76850631956122,-0.232655202343478,0.477891144025921,1.30608963736588,1.48177833799454,0.386735121122589,331.739593140953,361.456673268914
0.82,0.509644634251804,0.0105036348938066,0.73464380893671,-0.523651406480807,-0.161966621083062,-0.483337142399147,0.280818645769233,-0.857352441943626,2.83885910765863,337.367280330454,361.456673268914
0.83,0.448088797856326,0.0121060852775314,2.7153366395957,-0.600913607251995,0.372115759522467,0.249919966349413,1.86403674642594,2.06385979118865,-0.952362519548633,342.439276133262,361.456673268914
0.84,0.461740047150939,0.000667360689993401,0.940012197150655,-0.031856896409997,-0.461737195331567,-0.00175469672036676,-0.939832160098803,-0.0367872734093913,1.57604183095092,347.525388672779,361.456673268914
0.85,0.443771976174206,0.0133384038605565,0.801474818745775,-0.663082883416983,0.366067425256489,-0.251209315156091,1.0327559960963,0.12432155038968,-2.14217825678996,352.166995337406,361.456673268914
0.86,0.423726272902239,-0.00712398688279244,0.804882817155584,0.360613783305008,-0.19280141488216,0.377388818006266,-0.0302352182589678,0.881455887517176,0.45550468438722,356.670210203032,361.456673268914
0.87,0.341981971408565,-0.0292888128576742,3.89701961589899,1.46799085865187,0.0103627755903464,-0.343077420138902,-1.68091228052003,-3.81002532182975,3.08635299218722,360.964814333231,361.456673268914
0.88,0.384177308127406,0.0161140085564088,0.847108099809335,-0.800612582019025,0.210070728746864,0.322059240320065,-0.255654972296614,1.13719531057324,-0.536052223693486,365.076622651309,361.456673268914
0.89,0.389725851047018,0.0298879332913392,-0.372103763063239,-1.49202839546544,-0.341577701117793,-0.190011056598908,1.1332807025115,-1.03936749644966,2.15498406905413,368.994302762131,361.456673268914
0.9,0.373927619002009,0.00833407691357757,-0.451439577756175,-0.411166339186397,0.370448671970642,0.0515664864587521,-0.511378576423534,0.333687582057914,-1.41020075771608,372.646788966578,361.456673268914
0.91,0.321690907541446,0.0496800489301208,1.27716189792654,-2.48282235425566,-0.301182590258282,0.12345928309305,-1.82186107954581,-2.11574373758806,1.33499544339203,376.195792753538,361.456673268914
0.92,0.273718952188938,0.0251914550918445,2.84240800050092,-1.25654828436208,0.210363810157367,-0.176928634124411,3.05109283601621,-0.590787049837323,-2.17830196245738,379.570135287728,361.456673268914
0.93,0.270938952343218,-0.00435909373990132,2.16302407651624,0.220313692874576,-0.16011769440873,0.218607505663247,-1.07007847228056,1.89265510382073,0.616082629919211,382.737708743312,361.456673268914
0.94,0.301181852034626,0.00169896733234975,-0.127002264191149,-0.0831482964521441,0.0847467347176052,-0.289017967330247,0.0432333561111677,0.145513199511031,-2.85072382506728,385.762301339986,361.456673268914
0.95,0.24408616659895,0.0235034805002608,1.95628979272365,-1.17330565597683,0.0264425865713603,0.243785274239468,-1.14965061870121,1.97028408367471,-0.0120485450460248,388.61578609311,361.456673268914
0.96,0.261216500277747,0.0359895702953909,0.367305086347652,-1.80114429213025,-0.110432703989542,-0.239445039783578,1.616359295749,-0.875452120093394,2.84637649830967,391.317370148944,361.456673268914
