t,iq,id,vq,vd,ia,ib,va,vb,theta_e,omega,r
0,0,0,0,0,0,0,0,0,0,0,0
0.01,0.000485344349366301,0.000274609368476822,-0.023957675520146,-0.0137398196709849,0.00052096564136906,0.000198907624866321,-0.0258581712836251,-0.00970091948149723,-0.691177303841502,-0.00161412739850955,0
0.02,0.000574805708405116,0.000323738035523435,-0.0284002138068356,-0.0161979287363814,0.000615848759344368,0.000236512628994063,-0.030584153925293,-0.0115565811681852,-0.691189989786494,-0.00182600285903085,0
0.03,0.0006085351424559,0.000342570020868835,-0.0300703085271376,-0.017140163324239,0.000651862885945436,0.000250487558031898,-0.0323749064332927,-0.0122423072635176,-0.691203276515304,-0.0018408449041946,0
0.04,0.000596066082794521,0.0003358197791012,-0.029466478558992,-0.0168024227133642,0.000638716450548484,0.000245175436967755,-0.0317299142270184,-0.0119919685978645,-0.691215812648659,-0.0017019083804285,0
0.05,0.00061033101117638,0.000344272209776059,-0.0301778207376556,-0.0172253306533153,0.000654325365915949,0.000250770040368926,-0.0325093635135622,-0.0122700515293617,-0.691227900970472,-0.00165870717252836,0
0.06,0.000611813171629854,0.000345463841877416,-0.0302597420114785,-0.0172849613478795,0.000656191235382884,0.000251144750355586,-0.0326076725911521,-0.0122947778990576,-0.691239475322971,-0.00157529923172654,0
0.07,0.000622694365652706,0.000352134596854347,-0.0308035469181125,-0.0176187274642321,0.000668270201300323,0.000255268457454942,-0.0332116315645798,-0.0125006235450016,-0.691250282155151,-0.00153021568638858,0
0.08,0.000612467685170585,0.000346570847525036,-0.0303084329154788,-0.0173403493843529,0.000657466721599279,0.000250929328142272,-0.0326816483814902,-0.0122962873108977,-0.691260751691217,-0.00141482809178281,0
0.09,0.000610392388632987,0.000345784077467046,-0.0302138968289676,-0.0173009785478398,0.000655539982781724,0.000249825593775651,-0.03259116755815,-0.0122482332399779,-0.691270529792102,-0.00133287449625415,0
0.1,0.000609566079515836,0.000345671744746939,-0.0301803813840986,-0.0172953604758943,0.000654928948418073,0.000249254554495394,-0.032565585185822,-0.0122256932721929,-0.69127974366069,-0.00125954962678409,0
0.11,0.000608955490531468,0.000345654692300275,-0.0301570763239988,-0.0172945075187084,0.000654528708892121,0.000248789318487815,-0.0325501766580228,-0.0122079991095042,-0.691288438173328,-0.00119094176442695,0
0.12,0.000608404564786292,0.000345651157028798,-0.0301363265578618,-0.017294325378413,0.000654176791490105,0.000248361756886715,-0.0325369077776164,-0.0121918620795755,-0.691296644448803,-0.00112627385925115,0
0.13,0.000633343137325763,0.000360099686954996,-0.0313697105079629,-0.0180172515654421,0.000681209553831441,0.000258358003381927,-0.0338802937383681,-0.0126809221875904,-0.691304660923864,-0.00115107165212354,0
0.14,0.000649143727031863,0.000369515823960139,-0.0321848074307809,-0.0184883697419432,0.000698539470282225,0.000264522458327431,-0.0347630093040598,-0.013008260037265,-0.691312339564599,-0.00114689989693661,0
0.15,0.000613117767405015,0.000349016444696231,-0.0303860847514555,-0.017462704325449,0.000659780066250436,0.000249832222810984,-0.0328261428513825,-0.0122761775150624,-0.691319660303537,-0.000966512403674676,0
0.16,0.000607371069476714,0.000346121668296178,-0.030108346001591,-0.0173178784762939,0.000653887695103575,0.000247246248694597,-0.0325375739553301,-0.0121543282402865,-0.691326182622393,-0.000896784183219181,0
0.17,0.000606171120894261,0.000345712175443527,-0.0300540152871027,-0.0172973813884286,0.000652808686532894,0.000246578901861654,-0.0324872178606914,-0.0121253417867759,-0.691332281001049,-0.000845997307012907,0
0.18,0.000605669746742567,0.000345653575893526,-0.0300337866332446,-0.017294453906775,0.000652445298620476,0.000246226255617116,-0.0324721350837364,-0.0121114375104034,-0.691338028509694,-0.000800306836777485,0
0.19,0.000605290960088048,0.000345644556019577,-0.0300193379165002,-0.0172940026913059,0.000652198181199653,0.000245936654263138,-0.0324626410521183,-0.0121004179247348,-0.691343452204184,-0.000757516088815516,0
0.2,0.000604947564006654,0.000345642577033637,-0.0300063932721752,-0.0172939021097231,0.000651978974258637,0.000245670029471838,-0.0324543723054376,-0.0120903434874769,-0.69134857135583,-0.000717176728773885,0
0.21,0.000604625588390752,0.00034564163142862,-0.0299942787159712,-0.0172938524501754,0.000651774147472403,0.000245419437290781,-0.0324466684633742,-0.0120808854761428,-0.691353403219192,-0.000679108502867652,0
0.22,0.00060432184145504,0.000345640868934726,-0.0299828496109384,-0.0172938215626244,0.000651581015182609,0.000245182950041725,-0.0324394127518188,-0.0120719524249054,-0.691357963939704,-0.000643177584980102,0
0.23,0.000604035372517237,0.000345640167447099,-0.0299720713351948,-0.0172937791686963,0.000651398881290346,0.000244959902960834,-0.0324325599684223,-0.0120635364612675,-0.691362268736032,-0.000609263086747212,0
0.24,0.000603764920365118,0.000345639507770781,-0.02996189282227,-0.0172937511670734,0.000651226930729281,0.000244749327043906,-0.0324260976915822,-0.0120555812559085,-0.691366331970171,-0.000577251714827517,0
0.25,0.000603509543995055,0.000345638885346697,-0.0299522782811426,-0.0172937216952887,0.000651064563627155,0.00024455049119928,-0.0324199910557601,-0.0120480689012613,-0.691370167197003,-0.000547036654589647,0
0.26,0.000608361468658247,0.000348553361929424,-0.0301937693633929,-0.0174395447555933,0.000656404229419185,0.000246427697836362,-0.0326863455119409,-0.0121410150616053,-0.691373724375713,-0.000536583174124846,0
0.27,0.00059545395613367,0.000341199567565915,-0.029561366555307,-0.0170716051638625,0.00064251016557271,0.000241170574320612,-0.0319997206321213,-0.011888312536026,-0.691377307663892,-0.000464607733389456,0
0.28,0.00059497225578309,0.000341052643450436,-0.0295097407387963,-0.017064252084983,0.00064209062520385,0.000240891095272278,-0.0319611777204919,-0.0118531268621386,-0.691380532877124,-0.000438276395874538,0
0.29,0.000601450041934893,0.000344989521328943,-0.0298611654477524,-0.0172612250840611,0.00064925442763614,0.000243369289280974,-0.0323370234054123,-0.0119981669674363,-0.691383485633611,-0.000438059585735403,0
0.3,0.000594430725699369,0.000341246494472776,-0.0295175810502926,-0.0170739513310185,0.000641895960191922,0.000240346903318366,-0.0319737117591986,-0.0118528123858545,-0.6913858540609,-0.000395707711011599,0
0.31,0.000601087903739956,0.000345016193669476,-0.0298472002499757,-0.0172625583187523,0.000649045294806435,0.000243070045884505,-0.0323292064008062,-0.011986396287648,-0.691388506177784,-0.000398409583991368,0
0.32,0.000601937699313956,0.000345548003841479,-0.0298909890737611,-0.0172891731719708,0.000649997444245799,0.000243383933915406,-0.032377660479521,-0.0120030762161609,-0.691391084006304,-0.000381627889719205,0
0.33,0.000601927789140804,0.000345622741407442,-0.0298923692010466,-0.0172929044115204,0.000650049295011803,0.000243327057214338,-0.0323814441946181,-0.0120016811867544,-0.691393528322056,-0.000362898096717053,0
0.34,0.000601796929280879,0.000345632972979359,-0.0298876918874746,-0.0172934201781034,0.000649974300808543,0.000243218223805067,-0.0323788869121356,-0.0119976743641501,-0.691395837141497,-0.000344787344445301,0
0.35,0.000601655184035263,0.000345634116113366,-0.0298823780099261,-0.0172934805560807,0.000649885332660021,0.000243106884088764,-0.0323755713667679,-0.0119934717220233,-0.691398016651013,-0.000327628298294015,0
0.36,0.0006015187356083,0.000345633993105796,-0.0298772294709935,-0.0172934769024733,0.000649798736280268,0.000243000511947263,-0.0323723104329789,-0.0119894412492669,-0.691400073895308,-0.00031142247402329,0
0.37,0.000601389563128041,0.000345633707286764,-0.0298723490030734,-0.0172934645022721,0.000649716625278119,0.000242899924020863,-0.0323692122880958,-0.0119856266127789,-0.691402015703558,-0.000296124591561409,0
0.38,0.000601267550188119,0.000345633413522403,-0.0298677358878871,-0.0172934506305173,0.000649639046371751,0.000242804927630336,-0.0323662821585842,-0.0119820224089939,-0.691403848548633,-0.000281684929249213,0
0.39,0.00060115234754438,0.000345633132834132,-0.029863377672847,-0.0172934367429078,0.000649565794615092,0.000242715236309796,-0.0323635133013674,-0.0119786179171165,-0.691405578544377,-0.000268055511781836,0
0.4,0.000601043664156652,0.000345632867395391,-0.0298592645854519,-0.0172934213846292,0.000649496687563935,0.00024263062067738,-0.0323608984357482,-0.011975406348077,-0.691407211461696,-0.00025519089994968,0
0.41,0.000600941092575032,0.000345632616763005,-0.0298553808481627,-0.0172934074670011,0.000649431466448058,0.000242550763558561,-0.0323584298114258,-0.0119723735135353,-0.691408752748627,-0.000243048181026028,0
0.42,0.000600844341759361,0.000345632380166242,-0.0298517161373678,-0.0172933935353089,0.000649369946389847,0.000242475437867981,-0.0323560997883671,-0.011969512220566,-0.691410207546622,-0.000231586846831516,0
0.43,0.000600752946048351,0.000345632156827774,-0.029848251259444,-0.0172933795905502,0.000649311831088679,0.000242404282197033,-0.0323538961885615,-0.0119668075245465,-0.691411580709121,-0.000220768661769542,0
0.44,0.000600666730819021,0.000345631946006789,-0.0298449812178275,-0.0172933656330827,0.00064925700977411,0.000242337159495672,-0.0323518158824442,-0.0119642554269119,-0.691412876816697,-0.000210557535744212,0
0.45,0.000600585181884335,0.000345631747002498,-0.0298418839788549,-0.0172933645274834,0.000649205155125403,0.000242273671276184,-0.0323498547838204,-0.0119618306104706,-0.691414100193909,-0.00020091940383194,0
0.46,0.000600508396295909,0.000345631559153343,-0.0298389677502355,-0.0172933505446264,0.000649156329531175,0.0002422138900523,-0.0323479983556587,-0.0119595556707274,-0.691415254921437,-0.000191822112649115,0
0.47,0.00060043575313525,0.000345631381834509,-0.0298362047027736,-0.0172933508664974,0.000649110137552495,0.000242157335380344,-0.0323462498397793,-0.0119573917122494,-0.69141634485198,-0.000183235313089137,0
0.48,0.000600367291242187,0.000345631214456606,-0.0298335998000455,-0.0172933368610816,0.000649066604402397,0.000242104035178622,-0.0323445903888765,-0.0119553606970229,-0.691417373621308,-0.000175130359076085,0
0.49,0.000600302729262264,0.000345631056462638,-0.0298311418463151,-0.0172933228458512,0.000649025551102122,0.00024205377081919,-0.0323430239353676,-0.0119534447596519,-0.691418344661629,-0.000167480212000211,0
0.5,0.000600241669426105,0.00034563090732674,-0.0298288136530747,-0.0172933231320374,0.000648986724417767,0.000242006234102429,-0.0323415505832398,-0.0119516214285199,-0.691419261212093,-0.000160259350513357,0
0.51,2.47968243034956,0.0214649411982129,1.24325346514217,-1.07259903873162,-0.0978040566952815,2.47784585185981,-1.13114429938862,1.19023546008201,0.048107035735664,14.8260353556158,665.999496126671
0.52,2.45815528878005,0.0296723960498153,2.30604137348698,-1.48162109593777,-0.502574039312848,2.40641376530584,-1.94521897911447,1.93110098427151,0.217958747687789,31.5105910678757,665.999496126671
0.53,2.44672357795432,0.0075894077144128,2.77091553493604,-0.374718633925217,-1.18846761607672,2.13870488650584,-1.68041752992576,2.2348565684354,0.510306911835843,48.2712273314819,665.999496126671
0.54,2.45490782092464,0.0103150507957647,2.12777319107814,-0.50895050551326,-1.95624388233646,1.48316846053678,-2.00671178626244,0.871525775068344,0.926287687753568,65.2975622732428,665.999496126671
0.55,2.43447109469471,-0.0424685564890224,2.71216488736987,2.13438226410838,-2.42626090377931,0.20423299436259,-2.48212771874169,2.39801334722654,1.46937536962551,83.019636941457,665.999496126671
0.56,2.40114495290211,0.0125738666776478,3.65733435772097,-0.621354710471384,-2.02131634064923,-1.29612323410813,-2.7302380423825,-2.5115685362575,2.1462162754644,101.748738989198,665.999496126671
0.57,2.42572111867289,-0.00186973150258551,1.74944193329922,0.103161756289063,-0.440011899745685,-2.38548023876823,-0.420100530769831,-1.70138325194333,2.95841786250946,119.550645809799,665.999496126671
0.58,2.4014215204795,0.0283864989556062,2.4677661976743,-1.40770442719312,1.62326042114582,-1.76993127479191,2.71550625401225,-0.835181145107664,-2.38757248576397,136.023708202022,665.999496126671
0.59,2.38665555941349,0.0109599836940852,2.66223225974658,-0.531978111130973,2.32077264602495,0.557009161490425,2.459305907387,1.14991120067998,-1.33064951835762,152.481966371258,665.999496126671
0.6,2.31935991718274,-0.0306319743182423,5.12590587422352,1.54513549778494,0.311399113200525,2.29856462506115,2.28344324123269,4.842338453886,-0.147861967197682,170.447297333432,665.999496126671
0.61,2.33666275407534,-0.0278492670911882,3.4394966124398,1.4094836295818,-2.15723631808569,0.898387375185429,-2.60183645237448,2.65466158373141,1.1642695141438,187.216336650217,665.999496126671
0.62,2.30358497622354,-0.00282986648549977,4.37391738306901,0.162907039422686,-1.19490996373429,-1.96944203504334,-2.41259087898534,-3.65199907284264,2.59501441560153,203.278550439092,665.999496126671
0.63,2.31764395616288,-0.00567837248984049,2.60137301692663,0.300193889504476,1.96269395732979,-1.2326143684517,2.03928984268612,-1.64272787825829,-2.1340156472758,220.744331478056,665.999496126671
0.64,2.27504646043423,0.0513308639006093,3.86606799040953,-2.5459712798994,1.05054542351004,2.01861971848717,-0.577406722884817,4.59293511176777,-0.457297094280661,236.536724474537,665.999496126671
0.65,2.22216576489103,-0.00925114625169909,5.44503136759977,0.480034412740249,-2.16366462190036,0.506617877988429,-5.1850406794238,1.73036203849965,1.3366287739004,253.301192189773,665.999496126671
0.66,2.23287372985653,0.0257949161134584,3.87112072888482,-1.26636055263454,0.221456198883254,-2.22201431659584,1.68696600550843,-3.70720790395272,-3.03070425163181,269.073323715683,665.999496126671
0.67,2.18910846407649,-0.0232256532201545,4.91300777629499,1.18098131763328,1.82928889446535,1.20267927522036,4.77191786787631,1.66167450024869,-0.999805832567723,285.428053684722,665.999496126671
0.68,2.16860135158377,-0.000398659454587502,4.836742333302,0.047781777114839,-1.97929425169746,0.886129926262344,-4.39462505032254,2.02079938738549,1.14967294178307,300.752706404373,665.999496126671
0.69,2.15262086143415,-0.0222738427096975,4.36408663469569,1.13563140096425,0.598123277137181,-2.06797515519342,0.0749671923182631,-4.50880147645264,-2.87039132882634,316.822282743996,665.999496126671
0.7,2.11504652578187,0.0154392596253345,5.11301125164703,-0.740497252799036,1.01583536976254,1.85519235619899,1.77077892685024,4.85340728077658,-0.493670953363221,331.702260606469,665.999496126671
0.71,2.08818685025009,0.00929454640941585,5.12078012765394,-0.437808403267372,-1.90598591258606,-0.853128601779248,-4.4839297624515,-2.51166064569811,1.99610767101763,347.140730552907,665.999496126671
0.72,2.04845336268542,0.00325802736059899,5.77926258330451,-0.141414437534439,2.0340870331746,-0.242201848280417,5.75630037736805,-0.533741524934263,-1.68771937910119,362.401646589727,665.999496126671
0.73,2.04484265897966,0.0207755234247593,4.68821119767784,-1.00446856558567,-1.73332190799445,1.08508446013343,-4.52316135057295,1.59037502808763,1.02162750595751,376.823174517423,665.999496126671
0.74,2.02691472632509,0.02345924104284,4.18179219636882,-1.14177435184896,1.28413092510261,-1.56842003652686,3.56143486040206,-2.47127828851068,-2.44395449536365,391.459091958716,665.999496126671
0.75,2.00340942740207,0.0400777931853827,3.91460231314445,-1.97910246154564,-0.888077241038146,1.79626678899883,-3.5609880353201,2.56131256110592,0.479161023137064,406.076125954922,665.999496126671
0.76,1.9458997054391,0.0276108696906909,5.37441524832611,-1.35871181938779,0.668846282503052,-1.82754826861971,3.187724607114,-4.53528928501636,-2.77656489798329,420.278482222442,665.999496126671
0.77,1.8951524584433,0.000321203561119976,6.4968795298363,0.0213292983866686,-0.657250748104168,1.77753323401615,-2.2341869838197,6.1006808706493,0.354333369516077,433.990380497208,665.999496126671
0.78,1.91475126999779,0.0149025740007219,4.03042560021234,-0.707235979820004,0.811315345403058,-1.7344341794901,2.3743379073213,-3.33272152329835,-2.69627741859541,447.62724460776,665.999496126671
0.79,1.83409060456811,0.0534059364202959,6.53783051920399,-2.63727986759902,-1.04652010773179,1.50716163828668,-6.00515285622155,3.69277838101508,0.636044240584166,461.186333401121,665.999496126671
0.8,1.82294881030259,-0.00242477781976358,5.55057652252324,0.15372327632184,1.45694762787216,-1.09565133786656,4.33916245659504,-3.46470774429034,-2.21691806240147,474.516304414226,665.999496126671
0.81,1.79997910973377,0.0250079699034934,5.13276234072361,-1.22156150401237,-1.73249789584181,0.488877525501413,-5.27412828327977,0.145026225021136,1.30965916211293,487.6572544866,665.999496126671
0.82,1.73938226369945,-0.0273069568465147,6.59203760095356,1.39365279469795,1.69203623404477,0.403992217553774,6.73738711219303,0.0695898341012353,-1.35212115833943,500.492136987731,665.999496126671
0.83,1.73129838407047,0.00065337160350476,5.41494540664219,-0.00628791229985945,-1.21734732014224,-1.23104022018859,-3.80154522483587,-3.85615445726491,2.36216443964022,513.065789709549,665.999496126671
0.84,1.71441437863761,-0.0163584236363931,4.65696296060484,0.844749922324148,0.181263420846465,1.7048835244574,1.3756409135233,4.52863318505185,-0.115463610340767,525.391469474112,665.999496126671
0.85,1.67289805686777,-0.00726150062972131,5.12114603110666,0.38931942074415,1.0021361189151,-1.33953866582086,2.7371783297617,-4.34575207235422,-2.50363625856894,537.474616503838,665.999496126671
0.86,1.61705702045878,-0.0112648240257704,6.28250227173085,0.589750570018822,-1.61131241176203,0.136647778529323,-6.20225424980867,1.16175847312217,1.47922735440752,549.32304100531,665.999496126671
0.87,1.60810811453404,0.0434777863206697,5.09098434942243,-2.14752503219042,1.11072973964411,1.16369303143213,1.82129657429486,5.2165950770987,-0.7350858732329,560.910899195864,665.999496126671
0.88,1.58321986061291,0.0188707442989486,4.69093172816572,-0.913575282420045,0.413934515456769,-1.52826681209242,2.15913230288203,-4.26352060785591,-2.8651679859643,572.228578418557,665.999496126671
0.89,1.55906135229004,0.0302518111686356,4.24588819689234,-1.47938630957421,-1.52183241990729,0.340019937654478,-4.45541381080681,-0.604514853363603,1.37038008934576,583.320407975503,665.999496126671
0.9,1.48307123402935,-0.00616205460031122,6.3945263521662,0.345612477866786,0.828259138017081,1.23025406173418,3.87905421409886,5.09532664875247,-0.596696099839751,594.121711846145,665.999496126671
0.91,1.45973443844635,0.0151760707426113,5.89014053371045,-0.718965931571403,0.879207473095915,-1.16535366441341,4.165578518533,-4.22594641749699,-2.48485003698409,604.797251094693,665.999496126671
0.92,1.41225888990426,0.00830157214915161,6.5880264013731,-0.378306753070815,-1.29485613459411,-0.563818835192436,-5.8716214237334,-3.01152282424738,1.98734591957428,615.235986646909,665.999496126671
0.93,1.39817322866612,-0.0292540854441407,5.595791764368,1.48289671787487,-0.376343406065325,1.34688894107308,0.043416183916253,5.78878080264117,0.251547801578085,625.459821596078,665.999496126671
0.94,1.38589597954108,-0.0287950479669123,4.51564673677393,1.4641008133968,1.3636196114839,0.249155325193034,4.69119009323805,-0.726217703055608,-1.41084794979285,635.334757921612,665.999496126671
0.95,1.31980600720278,0.0223729678223501,6.14909020424316,-1.08887813171978,0.161831017136872,-1.31003784992273,1.93545043061111,-5.93725505232039,-3.00173368373173,644.887745801149,665.999496126671
0.96,1.30886645925277,0.0114812821128558,5.02488165291495,-0.535813010347986,-1.28759700404574,-0.235281072694498,-4.8339893386824,-1.47277910134696,1.76030287932607,654.241810634753,665.999496126671
0.97,1.22241795221325,0.0307282870814269,7.6641176885656,-1.51735883342838,-0.340323934589106,1.17449116517153,-3.76368097382975,6.84658917277787,0.307170684270224,663.484143990801,665.999496126671
