t,iq,id,vq,vd,ia,ib,va,vb,theta_e,omega,r
0,0,0,0,0,0,0,0,0,0,0,0
0.01,0.000400336900528056,0.000225966857180168,-0.0190540211118359,-0.0113012057823683,0.000372359576874593,-0.000269590430056535,-0.0176609508365097,0.0133739967181135,-1.68358916400505,-0.0021719718328215,0
0.02,0.000548361113036296,0.000305973907929546,-0.0261547035769854,-0.0153025678091029,0.000510431220698239,-0.000365759362915824,-0.0242658035110968,0.0181495972603528,-1.68360794218184,-0.00286307060169528,0
0.03,0.000617542501857153,0.000342801619855762,-0.0294757941847981,-0.0171444203950107,0.000575018129945347,-0.000410153437642405,-0.0273579979760174,0.0203542020293026,-1.68362974427668,-0.00309013545614655,0
0.04,0.000625465733824393,0.000346405617201201,-0.0299082487471969,-0.0173246688492962,0.000582476109141849,-0.000414639383194607,-0.0277669569152582,0.0205826042455316,-1.68365164413954,-0.00297324561450108,0
0.05,0.00064293530532246,0.000356366749770208,-0.0307894625143381,-0.0178228497903427,0.00059870365346413,-0.000426517294491759,-0.0285860092881863,0.0211774656072599,-1.68367301322266,-0.00291375318455954,0
0.06,0.000648202151486026,0.00035970790335729,-0.0310932850998173,-0.0179899576531598,0.000603551753010893,-0.000430442895592771,-0.0288686342519292,0.0213783280704863,-1.6836936699311,-0.00279113497812357,0
0.07,0.000654790430285084,0.000364131443773765,-0.0314562018129775,-0.0182111917964449,0.000609591264446017,-0.000435592362477578,-0.0292038956036927,0.0216396076839273,-1.68371313729272,-0.0026846792706255,0
0.08,0.000650690038506921,0.000362310375128828,-0.0313132820838509,-0.0181201094710292,0.000605714031015981,-0.000433332259090529,-0.0290717440765352,0.0215335482086288,-1.68373193808207,-0.00252324274650047,0
0.09,0.000648443884117234,0.000361697655973859,-0.0312548285743183,-0.0180894696965262,0.000603543584984293,-0.000432480989420734,-0.029016735586523,0.0214970295392961,-1.68374963033261,-0.00238036003811963,0
0.1,0.000646900017245407,0.000361490549773171,-0.0312267993415063,-0.0180791066171776,0.000602025688526662,-0.000432111235958307,-0.0289896944821758,0.0214840570428417,-1.68376631930771,-0.00224880084921856,0
0.11,0.000645646788006477,0.0003614196495789,-0.031209971346792,-0.0180755664583012,0.000600781634912014,-0.000431908977815074,-0.028973034397549,0.0214790989581613,-1.68378207612462,-0.00212573543452924,0
0.12,0.0006445358782226,0.000361394536754268,-0.0311975042931994,-0.0180743076983752,0.000599674214353859,-0.000431767699291057,-0.028960469143717,0.0214768736057079,-1.68379695790834,-0.00200991134619634,0
0.13,0.000662923529671697,0.000372403827655751,-0.0321031543845518,-0.018624906129478,0.000616696796943517,-0.00044478902603891,-0.0297979398991551,0.0221265096103425,-1.68381131437695,-0.00200720866974838,0
0.14,0.00067319934845469,0.000378747658256455,-0.0326959901009403,-0.0189421855999452,0.000626185367029353,-0.000452259922514567,-0.0303509004466989,0.0225090427619242,-1.68382518357888,-0.00196264328011839,0
0.15,0.000652443969788178,0.000367206195523017,-0.0316817063182213,-0.0183649682241528,0.000606858358646045,-0.000438459184286147,-0.0294079029334615,0.0218214989898557,-1.68383843805397,-0.00174873399087852,0
0.16,0.000644547871773781,0.000363331770790975,-0.0313415915461095,-0.0181711913766987,0.000599444480047306,-0.000433726007999326,-0.0290915574948073,0.0215909434536357,-1.68385046896494,-0.00161588728989355,0
0.17,0.000641247526327754,0.000362030504717959,-0.0312159543269244,-0.0181061144928672,0.000596307168472104,-0.000432067398905061,-0.0289738231238205,0.0215124326880762,-1.68386166004637,-0.00151497659033109,0
0.18,0.000639606789172558,0.000361592859757232,-0.0311667534483799,-0.018084223930617,0.000594721750136581,-0.000431453683374618,-0.0289271803809502,0.0214854348546352,-1.68387217000501,-0.00142838105607253,0
0.19,0.000638581268343583,0.000361445102242083,-0.0311449440326538,-0.0180768437934065,0.000593715179202536,-0.000431197036398199,-0.0289061302364856,0.0214759273392254,-1.68388207639209,-0.00134967833287107,0
0.2,0.000637799001210536,0.000361394680986028,-0.031133112836574,-0.0180743116270298,0.000592939567904157,-0.000431064206590831,-0.0288944595796138,0.0214723464318154,-1.68389142676364,-0.0012764321610969,0
0.21,0.000637126052386276,0.000361376972033913,-0.0311250390302218,-0.0180734268726187,0.000592269111140017,-0.000430975895538409,-0.0288863476110561,0.0214708112386551,-1.68390025691697,-0.00120763049044829,0
0.22,0.000636513814885559,0.000361370284713486,-0.031118512404205,-0.0180730905326149,0.000591657946293778,-0.000430905086766799,-0.0288797215772408,0.0214699813058094,-1.68390859742578,-0.00114277518539239,0
0.23,0.000635943722216139,0.000361367337153867,-0.0311127320454873,-0.0180729526338055,0.000591088435009964,-0.000430842467945381,-0.0288738245740226,0.021469419337901,-1.68391647602101,-0.00108155829686622,0
0.24,0.000635408377373161,0.000361365683291877,-0.0311074192161139,-0.0180728620986135,0.000590553492297465,-0.000430784790623191,-0.0288683961387065,0.0214689445269503,-1.68392391849057,-0.00102374666981392,0
0.25,0.000634903535607368,0.000361364500109151,-0.0311024375639448,-0.0180728070518187,0.000590048982835016,-0.000430730773594407,-0.0288633016087717,0.0214685303966626,-1.68393094904901,-0.000969140561837519,0
0.26,0.000637279988539472,0.000363032583701755,-0.0312320038687934,-0.0181562330214745,0.000592219100454176,-0.000432660349095324,-0.0289824804412553,0.021566239604128,-1.68393748355136,-0.000934332026936028,0
0.27,0.000631255223741886,0.000359705805310688,-0.0309652626154245,-0.0179898512627063,0.000586605665050643,-0.000428678454795809,-0.0287360903416078,0.0213709931724161,-1.68394397747541,-0.000852748919134271,0
0.28,0.000630154361664359,0.000359342130762235,-0.0308597803211054,-0.0179716590558437,0.000585550356284845,-0.000428196294612704,-0.0286332096053451,0.0213411779989472,-1.68394992613339,-0.000802770718981986,0
0.29,0.000631944119156383,0.000360683196357939,-0.0310284041204989,-0.0180387373684158,0.000587174878694038,-0.000429734103489539,-0.0287930630752941,0.0214270256184522,-1.68395543357016,-0.000772238922254808,0
0.3,0.00062205815442321,0.000355477455201371,-0.0305745324389738,-0.0177783869851017,0.000577938008612285,-0.000423448021417174,-0.0283713949768328,0.0211172210463982,-1.683960046385,-0.00068287499435484,0
0.31,0.000628654273483369,0.000359385353317754,-0.0308983427556523,-0.0179738200221348,0.000584048608876873,-0.000428078556128684,-0.0286709636630417,0.0213481060955394,-1.68396481138986,-0.000684740394826975,0
0.32,0.000630782976116114,0.000360696444421312,-0.0310112234896349,-0.0180393937107165,0.00058601362948344,-0.000429624387151991,-0.0287756171616813,0.0214261420871484,-1.68396948436867,-0.000662252949593967,0
0.33,0.000631336971671644,0.000361136051899848,-0.0310493103082366,-0.0180613801367989,0.000586512510405012,-0.000430126370872261,-0.0288108813578329,0.0214524180093527,-1.68397395971039,-0.000632398052065138,0
0.34,0.000631343033592612,0.000361283205440941,-0.0310609498130073,-0.0180687396517125,0.000586500086209017,-0.000430275759805755,-0.0288215240452292,0.0214611674332455,-1.68397820903739,-0.000601136928435554,0
0.35,0.000631164976222762,0.000361332230360821,-0.0310632949671582,-0.0180711896136123,0.000586315900570587,-0.00043030671926651,-0.0288234911700212,0.0214639825065042,-1.68398223089542,-0.000570519650470501,0
0.36,0.000630931329908437,0.00036134834248828,-0.0310624272129366,-0.0180720064541961,0.00058608029351298,-0.000430298567549086,-0.0288224551013436,0.0214648056960812,-1.6839860329142,-0.000541211004856561,0
0.37,0.000630687726864202,0.000361353427638482,-0.0310605280913824,-0.0180722554431196,0.000585836129147963,-0.000430278210310661,-0.0288204628952158,0.0214649421294913,-1.68398962549883,-0.000513387315045251,0
0.38,0.000630449362181748,0.000361354829819661,-0.0310583425941818,-0.0180723196561458,0.000585597671176662,-0.000430254667402736,-0.0288182112771511,0.0214648568883411,-1.68399301961415,-0.000487054741136784,0
0.39,0.000630221127759986,0.000361355012758979,-0.0310561301154373,-0.0180723363079605,0.000585369497277721,-0.000430230945862729,-0.0288159422526948,0.0214647159185571,-1.68399622602098,-0.000462162136548426,0
0.4,0.000630004590797853,0.00036135480237854,-0.0310539929418003,-0.018072316072895,0.000585153066873989,-0.000430208049618286,-0.0288137560271362,0.0214645416787006,-1.68399925502858,-0.000438640954563721,0
0.41,0.000629799581181979,0.000361354474991591,-0.0310519487335758,-0.018072304999796,0.000584948175495649,-0.000430186239944696,-0.0288116647359122,0.0214643822017701,-1.68400211642621,-0.00041641925723986,0
0.42,0.000629605747431425,0.000361354122506121,-0.0310500060399189,-0.0180722909740446,0.000584754459522299,-0.000430165574075421,-0.0288096780428783,0.0214642266852367,-1.68400481947934,-0.000395426536170833,0
0.43,0.000629422682097965,0.000361353774987229,-0.0310481694295293,-0.0180722769069773,0.000584571506930098,-0.000430146041156247,-0.0288077999704502,0.0214640787920132,-1.68400737294691,-0.000375595278757187,0
0.44,0.000629249686686915,0.000361353441787735,-0.031046427917752,-0.0180722613457045,0.000584398619060804,-0.000430127576571472,-0.0288060195906006,0.0214639360776525,-1.68400978510659,-0.000356861386751501,0
0.45,0.000629086237334827,0.000361353125350361,-0.0310447778408022,-0.0180722472025089,0.000584235271749706,-0.000430110128278923,-0.0288043327660394,0.0214638012485353,-1.68401206377719,-0.00033916419482253,0
0.46,0.000628931868374888,0.000361352825835819,-0.0310432172613084,-0.0180722315684291,0.000584080999101527,-0.000430093648273979,-0.0288027377417522,0.0214636714095135,-1.68401421634587,-0.000322446354275812,0
0.47,0.000628786114151365,0.000361352542676068,-0.0310417431046723,-0.0180722173554923,0.00058393533549168,-0.000430078087575096,-0.028801230983935,0.0214635493087851,-1.68401624979146,-0.000306653675684669,0
0.48,0.000628648334374409,0.000361352275091543,-0.0310403423813333,-0.0180722016557247,0.000583797641971259,-0.000430063377020586,-0.028799799773132,0.0214634307803547,-1.68401817070636,-0.000291734963349677,0
0.49,0.000628518238011325,0.000361352022265036,-0.0310390185403521,-0.0180721873804521,0.00058366762677533,-0.000430049486643508,-0.0287984470736676,0.0214633192868126,-1.68401998531728,-0.000277641852926243,0
0.5,0.000628395359395189,0.000361351783397023,-0.0310377652979412,-0.0180721716208774,0.000583544824769679,-0.000430036366553043,-0.0287971668442669,0.021463211398297,-1.68402169950773,-0.000264328655910233,0
0.51,4.72856885169906,-0.0277354324691787,3.57198911747288,1.39132576976802,-0.417610726815535,4.71017344906973,1.0920006751517,3.67456503254923,0.0825647691226392,25.683421959078,686.215164907464
0.52,4.74560868565289,-0.0224244589412916,2.72041904575484,1.13032712486543,-1.77104390194713,4.40280684916779,0.0473452643981302,2.94551822599204,0.377722156573362,54.8602100760104,686.215164907464
0.53,4.77422041921177,-0.00434453280912961,1.29031285348273,0.230900786180667,-3.70552501606994,3.01036274250527,-0.854982463436385,0.993593186438919,0.887630951793552,84.3434518988608,686.215164907464
0.54,4.73499827224022,-0.00855470532620006,3.25190370193869,0.446597615773093,-4.72952734214762,-0.227712408487497,-3.26908979367035,0.295599455373496,1.61709944961235,114.957246567483,686.215164907464
0.55,4.74235533367141,-0.0164830326227476,2.8845809176286,0.845606730001872,-2.51580904211114,-4.02006351502037,-2.25399162359612,-1.98881360939883,2.57893304594198,147.855225801392,686.215164907464
0.56,4.59568985473191,0.0286930140960981,3.09825101151282,-1.41026932813298,2.71577725755298,-3.7075251067662,2.97888689427315,-1.64749864319839,-2.5031399072485,179.080973748361,686.215164907464
0.57,4.35431207669537,-0.0131728170176526,4.86833901203999,0.688441344680365,3.84977694856018,2.03455760073241,4.63091637801636,1.65205621001093,-1.08764480538345,206.78306584365,686.215164907464
0.58,4.20847945737346,0.0604094628196362,1.90716294309163,-2.98806555139395,-2.07005686411531,3.66467095735233,-3.54205774603574,0.140118359529985,0.528540028870855,234.511586448151,686.215164907464
0.59,3.97123507291813,0.0424594566265812,3.2436510368132,-2.09269304358111,-2.8513324441791,-2.76449165356015,-0.831843641270617,-3.7694392659585,2.35142347813254,261.964837014479,686.215164907464
0.6,3.80384915484387,0.0442052826364947,2.64069130074191,-2.17444318700298,3.55529140824215,-1.35319085952386,3.2285431097125,1.13047030392027,-1.92285838460658,286.010892168825,686.215164907464
0.61,3.60574195356841,-0.0178347353073438,3.0379987834145,0.924424807160548,-0.964109114202027,3.4745052495887,0.0941737873548752,3.17413439064842,0.265725126392999,311.054351596721,686.215164907464
0.62,3.39433684504925,-0.0139833301164184,5.31549297755244,0.737347462406721,-1.65738693206257,-2.96222664706944,-3.25650146754512,-4.2653657600027,2.62736003284366,332.963073391643,686.215164907464
0.63,3.2392680138523,0.00121097636806744,4.47835180625865,-0.0278462452024448,2.93336897868925,1.37411977894722,4.04290759990762,1.9264756558548,-1.13233663935264,355.505925063586,686.215164907464
0.64,3.1470438124907,0.00868513480490474,1.55148334266176,-0.394058124323384,-3.14595272901996,0.0833163613848925,-1.56039226480577,-0.357153115395174,1.54707861853571,375.404117684121,686.215164907464
0.65,2.97504349312638,-0.00396833814512587,2.33245177332598,0.233239933594144,2.80864412500023,-0.981028905182167,2.12375874254099,-0.992159737640685,-1.90817160240544,395.649188732542,686.215164907464
0.66,2.82972580693571,0.00415072635869862,2.58050885939558,-0.173192427568387,-2.46505998066552,1.38954836644449,-2.33463877788583,1.11287167597071,1.05896442009473,414.263147245466,686.215164907464
0.67,2.69089611647056,0.0154905787255551,2.66381305317811,-0.736447732404967,2.2856280903555,-1.42023452297269,2.65571997513393,-0.765118721847216,-2.12102880202519,431.833857717602,686.215164907464
0.68,2.52929294498872,0.0306076036608032,4.03107875082652,-1.49891883679096,-2.25040454921331,1.15496276643519,-4.27656675856565,0.455335408444279,1.10872582816739,449.179933930048,686.215164907464
0.69,2.4399327751996,-0.0229132263199413,2.3593081295449,1.17601243943008,2.36785904758993,-0.589101429450061,1.98943512342489,-1.72959185865173,-1.82402719849591,465.251199594189,686.215164907464
0.7,2.31981576868182,0.0117951005085284,2.47274565901619,-0.551847176944594,-2.31467056555287,-0.154869293224906,-2.42671861021197,-0.728040649782696,1.64268891258829,480.281357433811,686.215164907464
0.71,2.20450265650911,0.0461021371705255,2.43820710089427,-2.27257865045937,1.94982436361213,1.02963212880716,1.02880180871114,3.17033664265605,-1.06404069686217,495.030113516826,686.215164907464
0.72,2.12353847442582,0.0427456619497459,1.00082363792433,-2.10951056586272,-1.10239410601871,-1.81548067436629,1.32266099497031,-1.92412335210056,2.61600880039525,509.064875389557,686.215164907464
0.73,1.95297098190486,-0.0135012446211251,4.40027025473485,0.700058282206191,-0.231249299384089,1.93927865488772,0.204888509835555,4.45089660762044,0.111771513296082,522.23015596482,686.215164907464
0.74,1.86994123480047,0.0398926475070779,3.70269407595333,-1.96084850161818,1.37025862062259,-1.2730526138152,4.06948008742457,-0.997096828022781,-2.29810631991787,534.509133867062,686.215164907464
0.75,1.82383117452947,0.00675426223724168,1.28842055444538,-0.303872562420688,-1.81642549088321,-0.164329575285778,-1.25424170601285,-0.423371943103735,1.66472269369083,546.311776311785,686.215164907464
0.76,1.6679528491789,0.0679868587329099,4.54497664581802,-3.3714581114123,0.958592413443048,1.36667095708287,-0.380559911905409,5.64612403879773,-0.570931447270833,557.648240722553,686.215164907464
0.77,1.60262164749604,0.0432878396169388,3.48590757944004,-2.13956667537112,0.60717671677894,-1.48378112155505,3.36442177369933,-2.32593278910075,-2.72616862862525,568.444053472113,686.215164907464
0.78,1.54982411213603,-0.0195139747653977,2.01636677238715,0.998756284397166,-1.54498126976603,0.123969552074439,-1.91530557196889,1.18103922136173,1.47813728327071,578.664889847457,686.215164907464
0.79,1.43696083284948,-0.0240053220926484,3.76111856499941,1.21977846443329,0.703516756344451,1.25319466332044,2.94917706688653,2.63367176968373,-0.528241309014593,588.325030304687,686.215164907464
0.8,1.36767341510015,0.0316369601617578,3.528261253432,-1.56563019257798,0.830791448076349,-1.08688409567129,3.42846282430907,-1.7735467388011,-2.4658244479685,597.463666916839,686.215164907464
0.81,1.2927692137711,-0.0043270935822699,3.73931179434716,0.231807514525779,-1.20164628888419,-0.476777894017837,-3.56508661867862,-1.15167044785089,1.94516848562442,606.141706876026,686.215164907464
0.82,1.23646881368685,-0.00918869643736986,3.18410672446828,0.474229582214238,-0.175691428836282,1.22395754877195,0.0409187326433882,3.21896800027122,0.135138577872408,614.344874789361,686.215164907464
0.83,1.16367471429408,-0.0036063740204227,3.6064767357644,0.197944722686724,1.16264317810233,-0.0491191106707865,3.59380525905432,-0.361137534525147,-1.61611812861769,622.110252482065,686.215164907464
0.84,1.09273665706198,0.00591337815376175,4.08717365762131,-0.274659617062617,-0.190904921641561,-1.0759478057142,-0.42155376073651,-4.07464340029989,2.97140209769758,629.473166290625,686.215164907464
0.85,1.05538811341111,-0.0131131384517676,3.02085359120739,0.679629774955777,-1.02769260017683,0.240549254564004,-2.76947050103206,1.38473325750133,1.32844411153765,636.468719586571,686.215164907464
0.86,0.990139257727079,0.0111993648280551,3.47380482997524,-0.537563951954931,0.269569059245619,0.952803073967709,0.38894728427169,3.49356766204097,-0.264405900606854,643.118486339423,686.215164907464
0.87,0.919250742942129,-0.0099465515634154,4.3537368528943,0.518903476489672,0.895438861974929,-0.208110804026855,4.10686894510829,-1.53554969631991,-1.80997425049354,649.373795452633,686.215164907464
0.88,0.923699702272156,0.00988218842900324,1.58526520183875,-0.472759147262447,-0.165311342198421,-0.908840446814716,0.199014101169762,-1.64224247875177,2.97236520618484,655.323127019956,686.215164907464
0.89,0.860980215297919,-0.00592120326605202,2.29390092458784,0.315158671156241,-0.859922764173871,0.0430677540410163,-2.27225739637272,0.445143532424545,1.51387768436904,660.947285394729,686.215164907464
0.9,0.806946796894027,0.0283085074263491,2.68567849983641,-1.40196580957187,-0.0486109207931959,0.805978587178267,-1.65117885056905,2.54007589239486,0.0953065732203421,666.264933337635,686.215164907464
0.91,0.726390582472006,-0.0352689361245807,4.50773424357653,1.77152222299082,0.6870744537743,0.238360800321963,4.8241550580959,-0.43068198558858,-1.28538238393092,671.285639600368,686.215164907464
0.92,0.688463280360687,0.0047383833802243,4.30162357190372,-0.233452945167898,0.332694618619141,-0.602759016045319,2.30815275711637,-3.63742992809228,-2.63036884949952,676.036774431089,686.215164907464
0.93,0.646064459162551,-0.0489540677549108,4.41065272021757,2.45121176611225,-0.429325612383108,-0.485257977466235,-4.8717137408173,-1.31480103750403,2.34164630685329,680.533457686171,686.215164907464
0.94,0.642449319836726,-0.0394265116178056,2.68415536158853,1.9747536994895,-0.580355763308435,0.278357263910437,-1.38306136067332,3.03174594110463,1.06228319554814,684.734021603679,686.215164907464
0.95,0.574804687008454,-0.00363994431174999,4.25234624386781,0.183706809079666,0.103384323408953,0.565442622265736,0.971782495103968,4.1438913537457,-0.187172782653596,688.701161907587,686.215164907464
0.96,0.574203903679801,0.00456033488649991,2.54495763678083,-0.225436647156463,0.56737370060172,0.088419474783044,2.47493340905238,0.634299358068858,-1.40825806611916,692.46273453479,686.215164907464
0.97,0.555383015581778,0.0273457073732921,1.84071408857021,-1.36402157952137,0.261595766115049,-0.490678853079217,2.11542938188758,-0.879625917937598,-2.60259557511155,695.982542000705,686.215164907464
