t,iq,id,vq,vd,ia,ib,va,vb,theta_e,omega,r
0,0,0,0,0,0,0,0,0,0,0,0
0.01,0.000424967006483873,0.000233037412872025,-0.0205283878476951,-0.0116550045365896,-0.000472487638912854,-0.000107976031935367,0.0230881718589551,0.00491834917270785,2.29705272313221,-0.00237987749557286,0
0.02,0.000585464154700426,0.000313532429846531,-0.0283663608112201,-0.01568083523028,-0.000645943707697851,-0.000154361871879383,0.0316219531314999,0.00711274204092449,2.29703260362282,-0.00299955156700076,0
0.03,0.000658732903699284,0.000350096360701645,-0.0319808498275564,-0.0175095272713216,-0.000725009767262464,-0.00017566256734619,0.0355389732720415,0.00814491741683052,2.29701041529967,-0.00305663350941916,0
0.04,0.000664194609323113,0.000353028275864916,-0.0323395194611593,-0.0176561674959025,-0.000731044058127183,-0.000177081980141903,0.0359046961220499,0.00827270004323367,2.2969895906237,-0.00272799052403618,0
0.05,0.000678370549988779,0.000362982349420141,-0.0331066391412873,-0.0181540040140127,-0.000748256678450021,-0.000179038354096504,0.036809013396651,0.00840915868189985,2.29697072941015,-0.0024860570480485,0
0.06,0.000679525024048333,0.000366229125841975,-0.0332404818255328,-0.0183163805296231,-0.000751278799827417,-0.000177364584550415,0.0370170518832168,0.00837599531845415,2.29695385619474,-0.00220002355249706,0
0.07,0.000682092401317878,0.000370772354992324,-0.0334312414558365,-0.0185436031573317,-0.000756217776848376,-0.000175661199872491,0.0373106863166351,0.00833221518665377,2.29693929414512,-0.00196265487940445,0
0.08,0.000674154494319338,0.000368768193882233,-0.0331115195318941,-0.0184433682260978,-0.000748953776198894,-0.000171879330192853,0.0370051689615074,0.00819438999344864,2.29692625179756,-0.00168824678700636,0
0.09,0.000668451226905075,0.000368112602856314,-0.0328903399792648,-0.0184105904005235,-0.000744255749304922,-0.000168574347867996,0.0368181086385878,0.00807162803433216,2.2969150454051,-0.00145921339988351,0
0.1,0.000663960443501802,0.000367897371430003,-0.0327200576040429,-0.0183998200879011,-0.000740756427245933,-0.000165746378343711,0.0366837045341074,0.00796626452820423,2.29690538746898,-0.00126438868592068,0
0.11,0.000660245748483545,0.000367826037529558,-0.0325808063454229,-0.0183962478727665,-0.00073793271192745,-0.000163327140863639,0.0365772713435692,0.00787617286333463,2.29689705299779,-0.00109723133219247,0
0.12,0.000657098870654804,0.000367801815281384,-0.0324634686977145,-0.0183950361029035,-0.000735564652007852,-0.000161250562345275,0.0364887814443047,0.00779890901500833,2.29688985645551,-0.00095326307619544,0
0.13,0.000674926806205455,0.000379191910679735,-0.033348268531751,-0.0189647027192918,-0.000756459487579991,-0.000164565313811452,0.0375286959037398,0.00796014742712153,2.29688330676863,-0.00094716981364536,0
0.14,0.000684454077829904,0.000385738118893226,-0.0338868181834139,-0.0192921028981777,-0.000767931115334941,-0.000165991214001531,0.0381488369172817,0.00807266515397954,2.29687730697943,-0.000900507726283021,0
0.15,0.000661740261142928,0.000373645883347893,-0.0327691626816561,-0.0186873230427988,-0.000742918416574796,-0.00015994888456734,0.0369115757334931,0.00778265007779258,2.29687194812967,-0.000670308746869898,0
0.16,0.000652268235112488,0.000369698490983428,-0.0323342860436152,-0.0184898981742964,-0.000733215180475887,-0.000156608824438139,0.0364553342206825,0.00764140008797584,2.29686784942517,-0.000541944379059955,0
0.17,0.000647918936408196,0.000368409638723589,-0.0321413731762802,-0.0184254424024692,-0.000729107625101511,-0.000154682517045748,0.0362683068905909,0.00756139621191289,2.29686450911255,-0.000457679603029351,0
0.18,0.000645609405489035,0.000367988591491796,-0.0320437418185484,-0.0184043838218947,-0.00072710146287172,-0.000153461951681275,0.036181338662882,0.00751222112023127,2.29686169923803,-0.000394941836136893,0
0.19,0.00064416113331944,0.000367850845695819,-0.0319854704432606,-0.0183974892422786,-0.000725927367934134,-0.000152601660681444,0.0361332041687616,0.00747860190109395,2.2968593004894,-0.000344542821055849,0
0.2,0.000643116420051309,0.000367805612466781,-0.0319449679120771,-0.018395232533277,-0.000725116418991298,-0.000151940373867226,0.0361014336805882,0.00745332416194674,2.29685723910746,-0.000302439454602546,0
0.21,0.000642291908377632,0.000367790612405298,-0.0319136924906069,-0.0183944867994855,-0.000724490162909603,-0.000151402886326718,0.0360775641536917,0.00743305305629686,2.29685546244483,-0.000266609808452411,0
0.22,0.000641609133017605,0.000367785512457623,-0.0318880763124779,-0.018394232386287,-0.000723976431231539,-0.000150952276453731,0.0360582509202983,0.00741618072594997,2.29685392920189,-0.000235862677154588,0
0.23,0.000641030491380794,0.000367783671568545,-0.0318664761568578,-0.0183941391440703,-0.000723542701490002,-0.000150568519528126,0.0360420462677768,0.0074018618156816,2.29685260528039,-0.000209378806516337,0
0.24,0.00064053479573171,0.000367782918349849,-0.0318480108119937,-0.0183940980188875,-0.000723171692714513,-0.000150239150787741,0.036028219055338,0.00738959175529257,2.29685146182122,-0.000186529704358605,0
0.25,0.0006401082508074,0.000367782540822707,-0.03183213442209,-0.0183940741345355,-0.000722852620177442,-0.000149955525367764,0.0360163381328475,0.00737903331292051,2.29685047411865,-0.000166802364618264,0
0.26,0.000642696053277825,0.000369536305480407,-0.0319595501658971,-0.0184817946307183,-0.000725952256353045,-0.000150361628958069,0.036169864832322,0.0073980036219306,2.29684973619757,-0.000169613548221468,0
0.27,0.000636718869199515,0.000366007947013305,-0.0316776685644691,-0.0183053245038135,-0.000719140102168469,-0.000149031034099369,0.0358419182154393,0.0073427848605303,2.29684874940305,-0.000116388217287133,0
0.28,0.000635683038167484,0.000365642861382348,-0.031578179765331,-0.0182870717484281,-0.000718123215425418,-0.00014861586241304,0.0357554067447824,0.00729035794312495,2.29684809314597,-9.87388865275173e-05,0
0.29,0.000637608591361133,0.000367083656098184,-0.0317253458400469,-0.0183591198841047,-0.000720519788428496,-0.000148816534144878,0.0359132953601705,0.00733417125261354,2.29684765248879,-0.000102712073155438,0
0.3,0.000627110234503425,0.000361803748392227,-0.0312209554280256,-0.0180950656654654,-0.000709163611377617,-0.000145794961735524,0.0353607979226828,0.00719676521414032,2.29684792451847,-4.40499979438939e-05,0
0.31,0.000634430829879211,0.000365830594293994,-0.0315726598550961,-0.0182964499429831,-0.000717311506140353,-0.000147643844373479,0.0357575079994536,0.00727966706042879,2.29684772783243,-8.48335530309513e-05,0
0.32,0.00063707128078864,0.000367144895169898,-0.0317008506312434,-0.0183621861136519,-0.000720158687172373,-0.000148413800386477,0.0358970156356156,0.00731560510642614,2.29684736538251,-9.44828106681402e-05,0
0.33,0.000637961306346622,0.000367573826518154,-0.0317452655339739,-0.0183836432805729,-0.000721109084318219,-0.000148683673785745,0.0359444778980567,0.00732903354651736,2.29684697956058,-9.31568912400837e-05,0
0.34,0.000638204798921457,0.00036771377969898,-0.0317585801905494,-0.0183906465383397,-0.000721384140205369,-0.000148740416185538,0.035959086887284,0.00733262340847143,2.29684661880282,-8.836263514425e-05,0
0.35,0.00063821691017234,0.00036775941672158,-0.0317606264702808,-0.018392917057288,-0.000721423544305275,-0.00014871409731206,0.0359621269072447,0.0073322724968597,2.29684629678771,-8.28430240656327e-05,0
0.36,0.000638152184316778,0.000367774274700896,-0.0317588040651135,-0.0183936622930589,-0.000721385048593296,-0.000148659810123964,0.035961260953212,0.00733049513009584,2.29684601469549,-7.75544183585325e-05,0
0.37,0.000638068074593761,0.000367779091486245,-0.031755881105043,-0.0183939056467114,-0.000721325385492148,-0.000148600189080771,0.0359592385193405,0.00732836371961229,2.29684576952856,-7.27892606146052e-05,0
0.38,0.000637984721337757,0.000367780635266497,-0.0317528415819566,-0.0183939860455251,-0.000721264110160357,-0.000148543541535913,0.0359570204887391,0.00732627795979672,2.29684555718087,-6.85986112820247e-05,0
0.39,0.000637908643960438,0.00036778111459278,-0.0317500170763775,-0.0183940111305654,-0.000721207564757057,-0.000148492541320255,0.0359549263139359,0.00732437735108337,2.2968453735317,-6.49504531982381e-05,0
0.4,0.000637841414124714,0.000367781249819003,-0.0317475005850502,-0.0183940201800197,-0.000721157403402666,-0.000148447690479062,0.0359530516437116,0.00732269412752852,2.29684521480541,-6.17883776270267e-05,0
0.41,0.000637782799014476,0.000367781275617758,-0.031745296537126,-0.0183940233789746,-0.000721113608302801,-0.000148408656534178,0.0359514065769923,0.0073212234928406,2.29684507765844,-5.90527973073661e-05,0
0.42,0.000637731867311307,0.000367781268194538,-0.0317433736834946,-0.0183940236404621,-0.00072107553404656,-0.000148374762067603,0.0359499697011504,0.0073199424165922,2.29684495917169,-5.66881365615821e-05,0
0.43,0.000637688037770095,0.000367781252083513,-0.0317417166130134,-0.0183940086736283,-0.000721042762644965,-0.000148345601001535,0.0359487213502144,0.00731884976693772,2.29684485681176,-5.46448372005092e-05,0
0.44,0.000637649911752295,0.000367781234999891,-0.0317402674920077,-0.0183940088904729,-0.000721014253641259,-0.000148320237398319,0.0359476384832332,0.0073178843257984,2.29684476838576,-5.28795031166763e-05,0
0.45,0.000637617024423964,0.000367781219208084,-0.0317390135112063,-0.0183940090885075,-0.000720989661217461,-0.00014829835958292,0.0359467014420989,0.00731704888908369,2.29684469199779,-5.13544253706889e-05,0
0.46,0.000637588619085512,0.000367781205228535,-0.0317379259550765,-0.0183940092704453,-0.000720968420100818,-0.00014827946359511,0.0359458887670761,0.00731632433098335,2.29684462600912,-5.00369453987535e-05,0
0.47,0.000637564055452669,0.000367781193041506,-0.031736980593814,-0.0183940094385853,-0.000720950051682181,-0.000148263123330609,0.0359451823509481,0.00731569451220991,2.29684456900443,-4.889881936003e-05,0
0.48,0.000637542867864152,0.000367781182477567,-0.0317361609583661,-0.0183940095945989,-0.000720934207807964,-0.000148249028871521,0.0359445698881845,0.00731514845337674,2.29684451976039,-4.79156367127577e-05,0
0.49,0.000637524532451011,0.000367781173339848,-0.0317354467333491,-0.0183940097403588,-0.00072092049675344,-0.000148236831795908,0.0359440361958562,0.00731467262730419,2.29684447722067,-4.70663057430275e-05,0
0.5,0.000637508699967284,0.000367781165442282,-0.0317348255126402,-0.0183940098771295,-0.000720908657363378,-0.000148226299712944,0.0359435720041513,0.00731425876354174,2.29684444047226,-4.63326045243709e-05,0
0.51,3.65410010284607,0.00919586899062634,0.606189723949581,-0.456080781506774,-0.252102505003392,3.64540484069975,-0.498257101820081,0.572027552804716,0.071562894200952,22.0054478855466,608.668534846865
0.52,3.54855424974097,0.0398183922081776,1.28372002338024,-1.98355692831026,-1.08593866839898,3.37854406160236,-2.28798808260622,0.589530084157624,0.322212946774441,46.2975305299367,608.668534846865
0.53,3.42144829951972,-0.00953142502581739,3.00796974577676,0.489512711180173,-2.3386345274133,2.4974362577531,-1.69163848787948,2.53492877853404,0.749787246028082,70.3714075319161,608.668534846865
0.54,3.32031946503756,-0.0285048562247834,3.13600155729587,1.44295879305616,-3.2498364888794,0.681099605258822,-2.75558550562068,2.07927496186373,1.35562199569764,95.1268098449933,608.668534846865
0.55,3.22213113379495,-0.0264496961936738,2.78307429618874,1.33879616139633,-2.68836306710246,-1.77638189847761,-3.06334524000356,-0.392165322821257,2.14649492031347,120.273325731458,608.668534846865
0.56,3.11032562319147,0.0336329026203026,3.88561478679205,-1.66184321904577,-0.129409601277944,-3.10781431387352,1.54138465538206,-3.93495343049675,3.11078951101187,142.412495522035,608.668534846865
0.57,3.03047911941839,0.0118444005072329,3.63397677327054,-0.565587416576766,2.68260444104536,-1.40981466723039,3.48454078317693,-1.1762873138976,-2.05075777985542,163.759408236013,608.668534846865
0.58,2.91630900912262,0.00382007102941218,4.5610409884451,-0.169337861945366,2.02618302653938,2.09748782418305,3.04265548980666,3.40206081370011,-0.766798404750272,186.330859242306,608.668534846865
0.59,2.88497990449161,0.00131849932093608,2.03964627491165,-0.0350824434908111,-1.79672545508964,2.25718595308269,-1.29843069270297,1.5733611921136,0.672755650638253,206.214575521261,608.668534846865
0.6,2.76979059120964,-0.0112052849394455,3.36301095174155,0.584939407450738,-2.12982837617133,-1.77078981407151,-2.96677963236899,-1.68825809190507,2.26036104132452,227.145629532389,608.668534846865
0.61,2.69404916919269,0.0540942720309493,3.17198020794508,-2.67089265180518,1.9951532795015,-1.8111296219732,4.14608974814215,-0.0711744154369649,-2.28780829400895,245.997700292964,608.668534846865
0.62,2.57131195038883,-0.0172969564253405,5.06421156955017,0.892647250418018,1.01488240922501,2.36261677517951,2.84781590970665,4.28170555728279,-0.412452295181915,265.540775048118,608.668534846865
0.63,2.52699050225325,0.0127693013094907,3.48329233542174,-0.599447430539307,-2.52635566443008,-0.0580612636456786,-3.46512283083808,-0.696840357035033,1.59882762511096,283.444158718955,608.668534846865
0.64,2.45869807805446,0.0384986720825913,2.94183229552303,-1.8889427704888,1.36157830951947,-2.04762860251241,3.22345170805001,-1.35345525638408,-2.53911998187076,301.250601279992,608.668534846865
0.65,2.33888230874083,-0.00884747274336517,5.04948786854345,0.471934219415442,0.607959918082047,2.25850248393055,1.7862145355513,4.74652370425009,-0.266736849487053,318.777449674495,608.668534846865
0.66,2.26304157790234,0.0300107251016848,5.22429368897676,-1.47383507911687,-1.93523966244422,-1.17350128923603,-3.65001490602258,-4.01781353162772,2.12915828791502,335.286034071226,608.668534846865
0.67,2.19839120642112,0.0491577113120507,4.88324125151332,-2.4159867309379,2.19020143170876,-0.195852152380389,5.03367592623801,2.08450082133861,-1.6376240572225,351.100199322304,608.668534846865
0.68,2.16750302808708,0.005663682321287,2.85683268280425,-0.241880319861843,-1.81482314744022,1.18512378998114,-2.52777805830042,1.3528995360521,0.994910922910164,366.660262893778,608.668534846865
0.69,2.08667286785869,0.0176427780895494,3.39731404285262,-0.84537091087208,1.15978211624425,-1.73476810205754,2.61076731894489,-2.33244264431981,-2.54383140214416,381.838215705323,608.668534846865
0.7,1.99536893049212,0.0308959168653924,4.55427246158602,-1.51251317463122,-0.577358915606891,1.91026396317929,-2.8258348059101,3.87862751595211,0.308993498524631,396.490314639167,608.668534846865
0.71,1.90624432586891,0.059150978865573,5.71474745059691,-2.92902474095154,0.178974426830914,-1.89874548656441,3.61866559301583,-5.30497725566599,-3.01659086979065,410.565423306623,608.668534846865
0.72,1.86526451946518,0.0158716293124324,4.55076592065068,-0.765330214516129,-0.0626821547370211,1.86427856922463,-0.95626816262527,4.51450462431441,0.0421189239250048,424.136178621491,608.668534846865
0.73,1.78153464435058,0.0769561222901198,5.59996323460122,-3.82220268659299,0.0245715746820543,-1.78302668838605,4.13474972988376,-5.37332916147059,-3.08464300625057,437.233759263186,608.668534846865
0.74,1.70613794147576,0.00142630199942095,6.30932591292557,-0.0444268685573686,-0.280811689383103,1.68287061439266,-1.08746288905449,6.2150616800715,0.166177328667315,449.853147825277,608.668534846865
0.75,1.66216586169555,0.0010449287896141,5.53046780975553,-0.0241297686207835,0.594364017627101,-1.55226539554693,2.00338213181031,-5.15491187843391,-2.77528445539419,462.006651914456,608.668534846865
0.76,1.60596906167009,0.0314827664952482,5.43949231243392,-1.54450816849005,-0.952116922647883,1.29367737756955,-4.53523698687854,3.37715969009597,0.654066963942268,473.701676317191,608.668534846865
0.77,1.54003039974515,0.0337130898040727,5.9045964164076,-1.65272343918091,1.2999854138166,-0.826358353517063,5.90705993598604,-1.64389674850338,-2.1151421458645,485.001301885795,608.668534846865
0.78,1.48786022709133,0.033697360551475,5.76586978841029,-1.64728030709538,-1.47873954209985,0.16790751650453,-5.89105886171158,-1.11991620887291,1.48037718278815,495.862242292654,608.668534846865
0.79,1.39746741364207,0.0571756897043676,7.59481415397467,-2.81906555696574,1.28757449767923,0.546201560425002,5.65855365137288,5.79733587283151,-1.12870429648002,506.371507541816,608.668534846865
0.8,1.35166303123044,0.0278685417671239,7.26193322941559,-1.35864152546203,-0.696435048243717,-1.15876996388112,-2.43308173740561,-6.97579345180915,2.62104416234003,516.552404639254,608.668534846865
0.81,1.32405019650015,0.0136099185119626,6.0560043949012,-0.662946075020865,-0.198061391725781,1.30922337201932,-1.62178697175473,5.87234993402938,0.160421741809401,526.3773319126,608.668534846865
0.82,1.26720138751821,0.0474539474479313,6.389977306851,-2.35044726835291,0.972533639533578,-0.813774878963488,6.49052013597219,-2.05658958178775,-2.2301217160635,535.716499145964,608.668534846865
0.83,1.25877795428336,0.0537416032088841,4.41940298603324,-2.65367680281199,-1.2514580615793,-0.145817756852353,-3.94461731739416,-3.31860174562362,1.72945913194421,544.596563924956,608.668534846865
0.84,1.21184525518097,0.0212089788847278,4.40641011836869,-1.02081223997804,0.630228227432647,1.03529277242578,1.34390608018697,4.31884524012929,-0.529324486515728,553.305265868899,608.668534846865
0.85,1.14367505475368,0.0142716165281214,5.49427735728584,-0.700100091321737,0.448973913844152,-1.0519594738352,2.86004002705872,-4.74314187646485,-2.72572221381395,561.694740521525,608.668534846865
0.86,1.09960705448305,0.00169560607684383,5.45569393362485,-0.0613126763389784,-1.08698506052058,0.166138579366498,-5.40349842329837,0.755354440698428,1.4206686460267,569.603920230833,608.668534846865
0.87,1.05993766965638,0.0362123032532851,5.28455696462335,-1.77522206536296,0.677732555810892,0.815755954472624,1.8328589031868,5.2648441510371,-0.659091873850221,577.187151247301,608.668534846865
0.88,1.001434017426,-0.0337850743686152,6.07942482288254,1.69982728246164,0.472888994912916,-0.883395449953373,1.16197998708179,-6.20472573744422,-2.68382282045885,584.639319121832,608.668534846865
0.89,0.9807546129393,0.00106283139346786,5.03925714770403,-0.0325520922583617,-0.979241767360592,-0.0544637628959888,-5.02933184184928,-0.317794688372072,1.62744107067558,591.640549582546,608.668534846865
0.9,0.876507752883288,0.0147283850718953,8.25842400734755,-0.703807748347949,0.268127853699746,0.834619805816819,1.71987586503842,8.10795531811981,-0.294041296729104,598.358693843544,608.668534846865
0.91,0.864185649260118,0.0645047758760811,6.91065913824249,-3.21970901888644,0.67886551944565,-0.538627244953078,7.52625693695164,-1.21622054342972,-2.16700966495792,604.884503745971,608.668534846865
0.92,0.824909363539202,-0.0199591759909081,6.98937124061477,1.02246217669258,-0.607819133821558,-0.558058892341389,-5.93439669203141,-3.83140641847174,2.28934901237625,610.975943767138,608.668534846865
0.93,0.761245178248581,0.0111035999110809,8.34741385629293,-0.541108443819402,-0.359691736675765,0.670998782342316,-4.52377983554578,7.03615892626888,0.506658346762425,616.90032058522,608.668534846865
0.94,0.781274387284616,0.0301561860176556,5.53970293953191,-1.49466063368878,0.747273446153377,0.229959693111945,4.73350797479613,3.24287238735952,-1.23368189135707,622.532496429978,608.668534846865
0.95,0.713864605586385,0.0123625745572729,7.19743771175704,-0.588565431461682,0.135145739748679,-0.701064289053772,2.06046075401439,-6.92127303051256,-2.93384033196433,627.854746483702,608.668534846865
0.96,0.700601207242574,0.0167745253300347,6.15981720968734,-0.833515983693244,-0.697779367694215,-0.0650183844005816,-6.0206385911388,-1.54596504058877,1.68764552381348,633.030714915479,608.668534846865
0.97,0.664128283895978,0.0452942306437419,6.3673613986788,-2.23871389835526,0.495200149424746,-0.444853635266629,6.39460588337092,-2.15966356093533,-2.23459297455733,637.838741658097,608.668534846865
