t,iq,id,vq,vd,ia,ib,va,vb,theta_e,omega,r
0,0,0,0,0,0,0,0,0,0,0,0
0.01,0.000771664829175929,0.000433701702487179,-0.0373492533625828,-0.0217064041312535,8.2806391288102e-05,-0.000881309750819333,-0.00342021863445527,0.0430631723348876,-2.53587413255784,-0.00220022567662279,0
0.02,0.000870016323451457,0.000488212693850044,-0.0423061857511065,-0.0244346430890854,9.39736747072442e-05,-0.000993201382384421,-0.00399879618668974,0.048691629308901,-2.53589055440619,-0.0023047831825521,0
0.03,0.000907679422034818,0.000509903444730656,-0.0442032302128167,-0.0255202353797046,9.75678648198411e-05,-0.00103651530036375,-0.00418556201130705,0.0508693330576714,-2.53590683432902,-0.0022268729740807,0
0.04,0.000885209135823129,0.000498458903277701,-0.0432139745609595,-0.0249474426972105,9.41688585479665e-05,-0.00101152791285328,-0.00409252600878836,0.0497300082983428,-2.53592144630701,-0.0019861957524169,0
0.05,0.000905350063412902,0.000510620694897916,-0.0442581740835381,-0.0255561362717206,9.56226543925805e-05,-0.0010350113716026,-0.00418588228865541,0.0509350612428515,-2.5359352264002,-0.0018846310774746,0
0.06,0.00090533362539777,0.000511479215632945,-0.0443321777439632,-0.0255991090490353,9.48942634895109e-05,-0.00103548782709269,-0.00419203233489028,0.0510204197604252,-2.53594799214131,-0.00173387918214974,0
0.07,0.000925620199714358,0.000523931984809267,-0.0453700147880614,-0.0262223659199643,9.61931952672661e-05,-0.00105925650718308,-0.00426986206754893,0.0522285266328041,-2.5359595057806,-0.00165951208974766,0
0.08,0.000904140521444633,0.000512415987713865,-0.0444061534294388,-0.0256459907651195,9.34217237749476e-05,-0.00103504232208633,-0.00419445933688792,0.0511080210494854,-2.53597036958947,-0.00146608779172964,0
0.09,0.000901268620553603,0.00051159553267246,-0.0443260778767533,-0.0256049191295379,9.24512637386228e-05,-0.00103221503538659,-0.00418214229706747,0.0510188470016057,-2.53598015204317,-0.00134188980952538,0
0.1,0.000899943087165361,0.000511534241821276,-0.0443149954771654,-0.0256018494399539,9.17378628257552e-05,-0.00103109117211649,-0.00417790157277704,0.0510080254208634,-2.53598908495463,-0.0012324126580316,0
0.11,0.000898831865686809,0.000511527077554064,-0.0443096753382224,-0.0256014958798111,9.110276746679e-05,-0.00103017423749816,-0.00417474718000964,0.0510034842520162,-2.53599725187921,-0.00113262859221456,0
0.12,0.00089782348599843,0.000511523993355347,-0.0443051743938251,-0.0256013558562236,9.05235948348992e-05,-0.00102934410503327,-0.00417191929778022,0.0509997351867346,-2.5360047192587,-0.00104141531227451,0
0.13,0.000938770015088306,0.000535101742842072,-0.0463063416678269,-0.0267813892412386,9.44395584729394e-05,-0.00107643122688677,-0.0043405031008843,0.0533167902370301,-2.53601197031585,-0.0010800557899542,0
0.14,0.000971756689691104,0.000554823303030948,-0.0480878263734878,-0.0277684333384283,9.69949223925691e-05,-0.0011147788778837,-0.00454270521765113,0.0553433714612958,-2.53601865225852,-0.00110126341523998,0
0.15,0.000900985333471041,0.000514589022089849,-0.0445743691945564,-0.0257547533630795,8.97826776881312e-05,-0.00103369023579236,-0.00419800548231917,0.051308463822805,-2.53602485835438,-0.0008132620117397,0
0.16,0.000894867802617144,0.000511732513320388,-0.0443118684409625,-0.0256117787200605,8.86436768951401e-05,-0.00102703497890605,-0.00416587062495409,0.0510112773401202,-2.53603000563198,-0.000733934919538143,0
0.17,0.000893817767414585,0.000511528223186839,-0.0442889533558333,-0.0256015553663125,8.82091474130031e-05,-0.00102605578346177,-0.00416099436789953,0.0509866369983337,-2.53603467117036,-0.000675671169370268,0
0.18,0.000893210007318664,0.000511512253868903,-0.0442848343686298,-0.025600753669459,8.78719556949929e-05,-0.00102554737698197,-0.00415909156867924,0.050982811817559,-2.53603893394719,-0.000623504077906735,0
0.19,0.000892681515680878,0.000511509772368906,-0.0442823657386729,-0.0256006365839386,8.75691739965313e-05,-0.00102511178679828,-0.00415758395359811,0.0509807316991946,-2.53604283138289,-0.000575890762313265,0
0.2,0.000892200521570632,0.000511508363018624,-0.0442802129533254,-0.0256005717732002,8.72928923728191e-05,-0.00102471582747125,-0.004156230175127,0.0509789396225342,-2.53604639499482,-0.000532362050771818,0
0.21,0.000891760854897619,0.000511507135081111,-0.044278248136861,-0.0256005068676799,8.70403009870918e-05,-0.00102435392202632,-0.00415499903991588,0.050977300761514,-2.53604965339158,-0.000492561970112566,0
0.22,0.000891358964994525,0.000511506016380907,-0.0442764549787145,-0.0256004418730371,8.68094106851191e-05,-0.00102402311276967,-0.00415387992360751,0.0509758018196588,-2.53605263271534,-0.000456170697373132,0
0.23,0.000890991348074305,0.000511504993582385,-0.0442748054112525,-0.0256004009479571,8.65982130378759e-05,-0.0010237205137642,-0.00415283576590191,0.0509744335721534,-2.53605535686816,-0.000422896240613222,0
0.24,0.000890655221492986,0.000511504058222584,-0.0442732947564587,-0.0256003570179207,8.64051082879533e-05,-0.00102344383451787,-0.00415188504854615,0.0509731768539193,-2.53605784770473,-0.000392471650241201,0
0.25,0.000890348024123021,0.000511503202822023,-0.044271917949895,-0.0256003159099835,8.62286239574044e-05,-0.00102319096700829,-0.0041510190775779,0.050972030901964,-2.53606012520783,-0.000364652842799705,0
0.26,0.000899036897697124,0.00051655692425313,-0.0446993431112367,-0.0258532465145168,8.70170830282895e-05,-0.0010332117046743,-0.00418624642555237,0.0514674360229941,-2.53606214083673,-0.000367222119217496,0
0.27,0.000873064340240585,0.000501804342872186,-0.0434693123358624,-0.0251148895922217,8.43609949656276e-05,-0.00100346009549634,-0.00409308610861238,0.0500358415567254,-2.53606426091478,-0.000263386823353381,0
0.28,0.000871863356805349,0.000501149915913313,-0.0432661288710843,-0.0250821255229062,8.42137238684986e-05,-0.0010021002943179,-0.00400428657039702,0.0498501415975746,-2.53606600345962,-0.000239171280017442,0
0.29,0.000887988068345654,0.000510766007232254,-0.0442018306684699,-0.0255634079561344,8.54839822649684e-05,-0.00102083162786247,-0.00414109834782359,0.0508934275250694,-2.53606744905314,-0.000271032101850554,0
0.3,0.000880667492512056,0.000506944351388559,-0.0438561045685519,-0.0253721308200294,8.44585606443625e-05,-0.00101263742736782,-0.00410154332720713,0.0505002997279371,-2.53606821127241,-0.000239821420356938,0
0.31,0.000888412285577578,0.000511176416166826,-0.0442343215353635,-0.0255839475017326,8.53858725471762e-05,-0.00102141420118368,-0.00414259795975346,0.0509318412548494,-2.53606953639959,-0.000247677648822214,0
0.32,0.000888855108896238,0.00051147625292213,-0.044262925389726,-0.0255989554440308,8.5390097757127e-05,-0.00102194906581455,-0.00414647466107426,0.0509639071477746,-2.53607080777499,-0.000234012679062354,0
0.33,0.00088874522603699,0.000511497122507851,-0.0442644789341899,-0.0255999999393288,8.5309201673058e-05,-0.00102187069791009,-0.00414644065239183,0.0509657838370526,-2.53607197489345,-0.000219901359421945,0
0.34,0.000888604957037752,0.00051149823305583,-0.0442639954310065,-0.0256000551199195,8.52273580841991e-05,-0.00102175609101453,-0.00414606567083649,0.0509654221321887,-2.53607304241039,-0.000206873264835341,0
0.35,0.000888473651894523,0.000511497973313984,-0.0442634051205623,-0.0256000404232504,8.51518369066014e-05,-0.00102164806635482,-0.00414569200846865,0.0509649324566412,-2.53607401852529,-0.000194951268853238,0
0.36,0.00088835328978095,0.000511497645318808,-0.0442628481155837,-0.0256000198630842,8.50826860979561e-05,-0.00102154899302857,-0.00414534638573442,0.0509644664804392,-2.5360749110408,-0.000184049605324244,0
0.37,0.000888242928051069,0.000511497338976502,-0.0442623208462072,-0.0256000175293684,8.50192878342587e-05,-0.00102145814780094,-0.00414500659878545,0.0509640350099223,-2.53607572711491,-0.000174081581015835,0
0.38,0.000888142356541911,0.000511497058399517,-0.0442618530245542,-0.0255999968880988,8.4961512384518e-05,-0.0010213753607996,-0.00414471926409288,0.0509636417071991,-2.53607647329443,-0.000164967286209832,0
0.39,0.000888050399766339,0.000511496801807209,-0.044261422719309,-0.0255999762124983,8.490868599277e-05,-0.00102129966504799,-0.00414445656900517,0.0509632789659915,-2.53607715556566,-0.000156633605490984,0
0.4,0.000887966115073685,0.000511496567177558,-0.04426101646825,-0.025599976675869,8.48602681596831e-05,-0.00102123028482382,-0.00414419316305868,0.0509629477918516,-2.53607777940212,-0.000149013681721702,0
0.41,0.000887889292289697,0.000511496352633475,-0.0442606545561715,-0.0255999559374662,8.48161356656796e-05,-0.00102116704669255,-0.00414397514983164,0.0509626407841915,-2.53607834980879,-0.000142046383595408,0
0.42,0.000887818802812625,0.000511496156456623,-0.0442603087083486,-0.0255999563397789,8.47756428478427e-05,-0.00102110902213098,-0.00414375138809489,0.0509623588150172,-2.53607887136143,-0.000135675815511874,0
0.43,0.000887754366932263,0.000511495977074904,-0.0442599906611345,-0.0255999567144316,8.47386275029019e-05,-0.00102105598062988,-0.00414354574951638,0.05096209950273,-2.53607934824452,-0.000129850869173261,0
0.44,0.000887695588517547,0.000511495813051175,-0.0442597042033625,-0.0255999329896647,8.47048614204885e-05,-0.00102100759600217,-0.00414337998764049,0.0509618522771935,-2.53607978428403,-0.00012452481356926,0
0.45,0.00088764180463909,0.000511495663071017,-0.0442594376803466,-0.0255999333168922,8.46739647698537e-05,-0.0010209633227367,-0.00414320769992075,0.0509616349773546,-2.53608018297762,-0.000119654920071862,0
0.46,0.00088759280511649,0.000511495525932387,-0.0442592002439726,-0.025599912461411,8.4645815632353e-05,-0.00102092298761432,-0.00414307112482856,0.0509614293944212,-2.5360805475243,-0.000115202119642555,0
0.47,0.000887547752387135,0.000511495400536028,-0.0442589680397416,-0.025599912749619,8.46199351915144e-05,-0.00102088590160955,-0.00414292173449766,0.0509612400185945,-2.53608088084848,-0.000111130689401739,0
0.48,0.000887506541363384,0.000511495285876841,-0.0442587522673993,-0.0255999130200948,8.45962617231594e-05,-0.00102085197797697,-0.00414278316647911,0.0509610640247923,-2.53608118562421,-0.00010740796603321,0
0.49,0.000887468939214594,0.000511495181035459,-0.0442585563297927,-0.0255999132738939,8.45746609580781e-05,-0.00102082102496814,-0.00414265723210409,0.0509609042216248,-2.53608146429677,-0.000104004083748446,0
0.5,0.00088743472443761,0.000511495085171724,-0.0442583828996495,-0.0255998923550869,8.45550052244657e-05,-0.00102079286017486,-0.00414256273333711,0.05096075077434,-2.5360817191017,-0.000100891734679259,0
0.51,4.64074940111522,-0.00601273125022622,7.96351458494128,0.310730600546959,-0.50969114022594,4.61267884189476,-0.555477093827112,7.95019265483058,0.108755770619026,33.4767944232733,662.355074121709
0.52,4.61419287297557,-0.0134436962034614,9.29255508336086,0.694739242379141,-2.19532167793505,4.0585119603587,-3.78529182470169,8.51503425677454,0.492930097828382,71.5107822163176,662.355074121709
0.53,4.67588413430803,0.00929266896589165,6.20933493623257,-0.430501126337551,-4.28901234440437,1.86235117545456,-5.87115965831851,2.06655651667925,1.16313426741269,112.114483291054,662.355074121709
0.54,4.67726286930442,-0.0389059371400737,6.14173259595155,1.98881738976156,-3.92103136291749,-2.55025776570448,-6.24667085037769,-1.62953280943753,2.1391381829006,153.100760400371,662.355074121709
0.55,4.65842284959504,0.0531724391122861,7.08521432015529,-2.60113787915132,1.13935868156452,-4.5172549793712,4.32581425123697,-6.1849423031007,-2.88310844910149,191.425539197646,662.355074121709
0.56,4.58245138982683,0.0645594343449962,8.68495087513718,-3.16676554103261,4.46361272451687,1.03884075113555,7.66909708613173,5.16156231957955,-1.32804404245956,231.684376398549,662.355074121709
0.57,4.21789853573621,0.0427669890601396,7.90488280561304,-2.07861402390813,-2.01573035317756,3.70531081238775,-5.66349984514642,5.89343515573818,0.508372671332583,269.602000798557,662.355074121709
0.58,3.85040364592218,0.0364300401843891,9.21941120686811,-1.76158150786021,-1.98772088190383,-3.29786310813565,-3.16701191497213,-8.83576527192664,2.6086293248741,303.711308695099,662.355074121709
0.59,3.5213590061647,-0.00585268932683995,9.83114087718814,0.358569045370963,3.42040533585549,0.83715640278318,9.63781650447206,1.97291554141167,-1.33242359937948,335.101801870592,662.355074121709
0.6,3.23820949211295,0.0179387520455385,9.34939112182356,-0.837711450741684,-3.04741567572495,1.09525349256746,-9.09473832767353,2.32349081656955,1.23130809169475,364.072088195032,662.355074121709
0.61,2.96315236028124,0.0047219293286842,9.57309862934143,-0.178632400768133,2.23592474489571,-1.9444625843713,7.35063232271083,-6.13549764550698,-2.28499225812089,390.708249770067,662.355074121709
0.62,2.7222412100194,0.0610471733191014,9.24879303948883,-2.99494234193257,-1.63893298482386,2.1744476618568,-8.08170661237962,5.40332032644901,0.668301670677822,414.99116634865,662.355074121709
0.63,2.49484330249925,0.0514405454554182,9.42527453718463,-2.50415033723737,1.47044311741433,-2.01610671150883,7.70215805756369,-5.98191693933422,-2.49082462995733,437.082959958167,662.355074121709
0.64,2.26233611937652,0.0542235599406951,10.7670004666828,-2.63980671700671,-1.56880755386904,1.63093463094377,-9.50609126110301,5.7036047801616,0.789947689305726,457.587523583567,662.355074121709
0.65,2.12568233990111,0.0556910415575549,7.90757238918129,-2.73776477768005,1.84155333303096,-1.06315954770664,8.25571082217729,-1.36685620627501,-2.06817680282836,476.601623381835,662.355074121709
0.66,1.96402344496012,0.0437125249552707,7.35208827739287,-2.11883799542519,-1.95385359563127,0.204340412130652,-7.50086127590436,-1.50988629011375,1.48884481239322,493.614701075811,662.355074121709
0.67,1.78943935462305,0.0272456074201662,7.98597130068242,-1.32480056233635,1.61968202712816,0.761226417037311,6.59329164393995,4.69673710603879,-1.1162230427428,509.645702805834,662.355074121709
0.68,1.56685964199098,0.0170737323376088,11.8267194887871,-0.794094380655079,-0.723164014824754,-1.39009872228507,-4.63508136302502,-10.9095325523133,2.67279267451642,523.907223774006,662.355074121709
0.69,1.50881792659359,0.0394404093884733,7.88658583928818,-1.93867375973122,-0.379651037988326,1.46080531586427,-4.04549626328329,7.04206305928115,0.280400512519165,537.383081468451,662.355074121709
0.7,1.33643861205279,0.0328495007016907,10.3687574044124,-1.58720958280452,1.19042237651531,-0.608310627043113,10.0335391583762,-3.05915941536789,-2.01863342199741,549.476186031323,662.355074121709
0.71,1.23944593708982,-0.00118475337510356,9.44322587465916,0.102210716757262,-1.09847134687791,-0.574097844184474,-8.42058288976454,-4.27536498407527,2.05143042219605,560.714727360157,662.355074121709
0.72,1.10282243883792,0.0234746025620629,11.0347224182173,-1.15600886566063,0.114882818901523,1.09707352829749,-0.236593636308287,11.0925866593799,-0.0830545323515423,571.03765484041,662.355074121709
0.73,1.04386617478552,0.0366086389880007,9.22510025547667,-1.78320117702998,0.856162506844466,-0.598316425634218,8.71179468931114,-3.5195048590174,-2.14568418822985,580.345320487588,662.355074121709
0.74,0.922399707964086,0.0594432963303893,10.843917763072,-2.9359323338467,-0.808579570519357,-0.447832340133656,-7.54393342712782,-8.32462128677687,2.14094629358826,588.97153944296,662.355074121709
0.75,0.891702841787224,0.0346790800998774,8.30019945802809,-1.71409812480403,-0.147527689153523,0.880097822733931,-3.36749414624971,7.77762345446734,0.204953650968418,596.933999273705,662.355074121709
0.76,0.838734733233448,0.0410707752565296,7.25849087519588,-2.04747196826009,0.829820415411684,-0.128688925235761,7.43301104863277,1.27600078252948,-1.67572273443778,604.157692699971,662.355074121709
0.77,0.764166460807883,-0.0181653526755759,7.58222007855829,0.937792973498009,-0.255112479072163,-0.720553941688705,-3.57604153455361,-6.75140310779783,2.77754695921757,610.769235879005,662.355074121709
0.78,0.660865294567535,0.0239437351557029,9.5890869598724,-1.16164915009729,-0.541043524739279,0.380247477775643,-8.67293019529347,4.25209351960696,0.994406100037567,616.827780013989,662.355074121709
0.79,0.638079305408717,0.0225121780882109,7.82529649374052,-1.09908949891769,0.449621545342303,0.453312766329325,4.50418147475295,6.49273533913644,-0.74604362581077,622.419584602034,662.355074121709
0.8,0.545300914420813,-0.0352038226567588,9.81252416560319,1.77512010833041,0.375900133700705,-0.396599906557749,4.91294650757396,-8.67753643111122,-2.44745296018492,627.533275076569,662.355074121709
0.81,0.471735811775838,-0.0115480314354316,11.0721065719234,0.578366323862366,-0.383070840221382,-0.275544487358987,-9.47002654311068,-5.76581727228557,2.16988604078679,632.183156732382,662.355074121709
0.82,0.434170648556201,0.0432787630170394,10.758744040192,-2.17347505899524,-0.184717499145358,0.395293117705687,-7.36718697748164,8.13628436039855,0.536494183753778,636.402991783486,662.355074121709
0.83,0.415654825588219,0.0270856737483161,9.66742506276611,-1.36509910224826,-0.410724054838499,0.069342040164641,-9.75624449961747,-0.371881925940615,1.46861657484975,640.248208133746,662.355074121709
0.84,0.358384490924411,0.0357593609968596,10.6396642653571,-1.77656126906742,0.0741514191985419,0.352448212174349,-0.620273463829562,10.7691172550185,-0.107915103976456,643.828401994268,662.355074121709
0.85,0.365546432966663,0.00784746766739596,8.55875143811216,-0.3652269330605,0.363419403085727,-0.040151150223326,8.55750873350944,-0.393269841113475,-1.65936717666439,647.084582902614,662.355074121709
0.86,0.33651945132199,0.0343792414698364,8.43577310830264,-1.69529374729404,-0.0499662197249855,-0.334560383561008,1.30180632122775,-8.50538588932846,3.09514757985396,650.042502910584,662.355074121709
0.87,0.245269433287196,0.0527825573215014,11.5378144728327,-2.62302470671015,-0.246110240789096,0.0487118326605872,-11.4927741821037,-2.81381645113722,1.58736449904925,652.770104805698,662.355074121709
0.88,0.261244767591061,0.0310509240604662,9.41764258128349,-1.53855772966933,0.00518543700936245,0.263032506967748,-2.45807835829302,9.2204664990889,0.0985910831197203,655.251418641938,662.355074121709
0.89,0.25670507934676,-0.00212454495024144,8.42002037334976,0.11754383147368,0.251269066819323,0.0525915156029826,8.27855591219112,1.54145115026978,-1.37274724985449,657.508819935693,662.355074121709
0.9,0.204787912004989,-0.0213647401335582,9.87926197731414,1.07425806006102,0.0834652658390322,-0.188223511875529,2.02411034027357,-9.7291739077071,-2.82816005932345,659.594705223965,662.355074121709
0.91,0.21739219854269,0.00540410921762113,8.22216326662646,-0.26905798785338,-0.198693995925121,-0.0883700648804116,-7.31187388224621,-3.76999486922925,2.01413328793631,661.483034869869,662.355074121709
0.92,0.158551354264834,0.0151703920847124,10.2077660933059,-0.763773856274596,-0.0751139406258063,0.140451303514349,-6.28555558041792,8.07920974877192,0.586492591125483,663.22357253052,662.355074121709
0.93,0.134918497627628,0.0533998616855152,10.5359056817352,-2.68132315830782,0.135555462805038,0.051761595163212,5.95758378307159,9.09406388153175,-0.829160591133849,664.769273019327,662.355074121709
0.94,0.167832986818883,-0.0349184971381211,8.11009477641798,1.73802908615448,0.153750813780923,-0.0758149072982108,5.32069036516093,-6.36275383972104,-2.23403935632749,666.150453359241,662.355074121709
0.95,0.143851452646499,0.00602320378442652,8.60525620221637,-0.314376170613317,-0.0727330915973304,-0.12425544977598,-3.75490813683169,-7.74918909089125,2.65386043299845,667.399041193071,662.355074121709
0.96,0.101235551713204,-0.00357229255373436,10.0693489251503,0.162282526321989,-0.0976797847218534,0.0268338938929601,-9.56104888811493,3.16298396357793,1.26742477693406,668.568041396994,662.355074121709
0.97,0.12230770791911,-0.0015051740890246,8.40408567547924,0.0582009022372465,0.0120399865885219,0.121722962864091,0.987931821879741,8.34601905707949,-0.110898157209002,669.62320667865,662.355074121709
