t,iq,id,vq,vd,ia,ib,va,vb,theta_e,omega,r
0,0,0,0,0,0,0,0,0,0,0,0
0.01,0.000692019596418585,0.00038567467603357,-0.0341105626622939,-0.0192997008826551,0.000709690984150062,-0.000352100531918168,-0.0349954588986318,0.0176444550999006,-1.52290095356867,-0.0014530435267687,0
0.02,0.000797116290937357,0.000442469365807362,-0.0393672583832966,-0.0221417836586325,0.000817381900273599,-0.000403807317988195,-0.0403819755385723,0.0202320455665033,-1.52291190011983,-0.00153012525312445,0
0.03,0.000835555191508096,0.000464587449090186,-0.0412976837207842,-0.0232485982485508,0.000856830878450457,-0.000424069359470918,-0.0423629381599656,0.0212456459463903,-1.52292267494828,-0.00145897875132293,0
0.04,0.000814258874390613,0.000454398395019284,-0.04029214910808,-0.0227387325576672,0.000835067409738518,-0.000414919072967936,-0.0413339579132926,0.0207848781882171,-1.5229321958889,-0.00127113715322887,0
0.05,0.000832141431032858,0.000465791901948432,-0.0412056686427212,-0.023308874783312,0.000853470893646196,-0.000425451396590626,-0.042273523604025,0.0213110293992992,-1.52294095020618,-0.00118314511698967,0
0.06,0.000831838348494199,0.000466945490720481,-0.0412236147094131,-0.0233666004617583,0.000853219951449959,-0.000426624945095193,-0.042294040711596,0.0213681666769857,-1.52294889869775,-0.00106584838045096,0
0.07,0.000847447493600298,0.000477204285028459,-0.0420182817013969,-0.0238799625967597,0.000869298852500444,-0.000436131504365783,-0.0431121991858261,0.0218432344702483,-1.52295589093083,-0.000998566564442717,0
0.08,0.000829624794109376,0.000468099119350754,-0.0411705852325753,-0.023424336558055,0.000851058343786942,-0.000427894589833295,-0.0422435447478695,0.0214289420810392,-1.52296236885025,-0.000863223849343176,0
0.09,0.000825938297103239,0.000467173139145179,-0.0410131883607376,-0.0233779927655175,0.000847329357841721,-0.000427150760153949,-0.0420839902998802,0.0213904166789131,-1.52296805596083,-0.000771451721874124,0
0.1,0.000824035086550799,0.000467077440635774,-0.0409407262523916,-0.0233732054204347,0.000845421583678972,-0.000427150448047743,-0.042011273777369,0.0213893121278374,-1.52297312371932,-0.000692799414625306,0
0.11,0.000822493242018813,0.000467066187355145,-0.0408837496839204,-0.0233726512751772,0.000843879031053489,-0.000427216733620434,-0.0419542390734823,0.0213916722023687,-1.52297764823271,-0.000622934148808565,0
0.12,0.000821134228069079,0.000467063667665147,-0.0408337437813578,-0.0233725262861623,0.000842519723720652,-0.000427282582492076,-0.0419041979156139,0.0213941069747718,-1.52298168872019,-0.000560583393313302,0
0.13,0.000856859054991658,0.000487736793905264,-0.042602475092434,-0.0244070356526188,0.000879190094193058,-0.000446227966988831,-0.0437202670667645,0.0223430642697113,-1.52298556100505,-0.000584565540187328,0
0.14,0.000881634496028213,0.000502833042891112,-0.0438902592460183,-0.0251624629294591,0.000904657089860712,-0.000460126073348168,-0.0450426022235673,0.0230362406283792,-1.52298908685984,-0.000588867915008495,0
0.15,0.000824726924953095,0.00047068989417997,-0.0410537820875384,-0.0235539791477005,0.000846277065113292,-0.000430741925390334,-0.0421324287358715,0.02156528242797,-1.52299229852348,-0.000413052736633579,0
0.16,0.000817539502768596,0.000467426940056942,-0.0407115284283399,-0.0233907062126871,0.000838940853380433,-0.000427828268593171,-0.041782709991591,0.0214186561170016,-1.52299481700422,-0.000359850475520157,0
0.17,0.000816077629975172,0.000467095038511512,-0.0406489117015959,-0.0233740811600061,0.000837463846420126,-0.000427568449592778,-0.041719323097649,0.0214051342642989,-1.52299702641773,-0.000324130008731572,0
0.18,0.000815334772230275,0.000467060681101666,-0.0406205769747515,-0.0233723815831482,0.000836719353789325,-0.000427571273161938,-0.0416908973883987,0.0214048725663109,-1.52299899502941,-0.000293569204509806,0
0.19,0.000814735562563616,0.000467056592378536,-0.0405984184461153,-0.023372171157173,0.000836119881581746,-0.000427597288361174,-0.041668716490537,0.0214057943313793,-1.52300075259188,-0.000266428933053305,0
0.2,0.000814207715643166,0.000467055639711837,-0.0405789844329086,-0.0233721162954355,0.000835591920772336,-0.000427622867418821,-0.0416492684510098,0.0214067334086572,-1.5230023221303,-0.000242208509445062,0
0.21,0.000813736980369575,0.00046705506266549,-0.0405616588626666,-0.023372095284381,0.000835121096050311,-0.000427645951359517,-0.0416319316548435,0.0214075985192166,-1.52300372380512,-0.000220580345250361,0
0.22,0.000813316652931584,0.000467054574988667,-0.0405461871593289,-0.0233720756177925,0.000834700689924976,-0.000427666589988565,-0.0416164498799827,0.0214083701208201,-1.52300497557469,-0.000201265466449611,0
0.23,0.000812941659343227,0.000467054142174854,-0.040532386973074,-0.0233720364691593,0.000834325625716338,-0.00042768500498784,-0.0416026396473169,0.0214090368028603,-1.5230060934712,-0.000184016276959408,0
0.24,0.000812606489712455,0.000467053755844876,-0.040520046480651,-0.0233720166208222,0.000833990393313359,-0.000427701463444576,-0.0415902909221657,0.0214096480290481,-1.52300709181252,-0.000168611835519162,0
0.25,0.000812307011297495,0.000467053410788567,-0.0405090158959586,-0.0233720175123802,0.000833690858986375,-0.000427716168474917,-0.0415792538848292,0.0214102129330594,-1.52300798338419,-0.000154854849726659,0
0.26,0.000819750834773773,0.000471397855007149,-0.0408772973450243,-0.0235894139553551,0.000841333396715879,-0.000431700688426785,-0.041957483814678,0.0216097996504286,-1.52300873000766,-0.000160735445010272,0
0.27,0.000799096294266001,0.000459617901696765,-0.0398674568799311,-0.0229999263263982,0.000820139351874886,-0.000420921544442708,-0.0409206185801789,0.0210692596953104,-1.52300959082591,-0.000101395887428147,0
0.28,0.00079847018387722,0.000459342460473015,-0.0397842411432292,-0.0229861354576529,0.000819500532921924,-0.000420676843996681,-0.0408368257597352,0.0210594854754148,-1.52301022286543,-9.07071699000662e-05,0
0.29,0.000809909539050663,0.000466269885263346,-0.0404025202257365,-0.0233328033457303,0.000831257535555209,-0.000427050321310535,-0.0414709485080902,0.0213762434118089,-1.52301069761762,-0.000109612649460095,0
0.3,0.000801626467354305,0.000461995255248154,-0.0399963266439398,-0.0231188956347344,0.00082277971019009,-0.000423176272414064,-0.0410549997381349,0.0211819847247659,-1.52301074670471,-9.01602298461773e-05,0
0.31,0.000810124097312972,0.000466538941099128,-0.040415042815091,-0.0233462574899928,0.000831484492184562,-0.000427309227452012,-0.0414840890201954,0.0213891042986653,-1.52301118630645,-0.000102928175165352,0
0.32,0.000810956085300396,0.00046699991134788,-0.0404576879507286,-0.0233693325559314,0.000832337358526079,-0.000427730301810031,-0.0415277781376657,0.0214101345483175,-1.52301163304568,-9.82558085931614e-05,0
0.33,0.000810931582503499,0.00046704655457277,-0.0404581389997381,-0.0233716753582847,0.000832314938384061,-0.000427778399387651,-0.041528331904846,0.0214124699550549,-1.52301203815854,-9.22571680320076e-05,0
0.34,0.000810822608109203,0.000467051163759903,-0.0404542696034831,-0.0233718935885876,0.000832206153474329,-0.000427788510259394,-0.0415244695874584,0.0214128878143001,-1.52301240064476,-8.66926476114667e-05,0
0.35,0.000810715331416653,0.000467051520331043,-0.0404503236246388,-0.0233719172530331,0.000832098877743772,-0.000427794260007199,-0.0415205223095027,0.0214131133786456,-1.52301272444355,-8.16996740381579e-05,0
0.36,0.000810618357457019,0.000467051457201712,-0.0404467400744169,-0.0233719205175277,0.000832001887746369,-0.000427799069549054,-0.0415169368132771,0.0214132998150082,-1.52301301362215,-7.72380065851833e-05,0
0.37,0.00081053185095378,0.000467051362093972,-0.0404435425447787,-0.02337190151823,0.000831915364957892,-0.000427803321388898,-0.0415137364957312,0.0214134442888611,-1.52301327187497,-7.32531960696137e-05,0
0.38,0.00081045437655557,0.000467051273223341,-0.040440673846437,-0.0233719003640353,0.00083183787607685,-0.000427807125024324,-0.0415108660778797,0.0214135897327987,-1.52301350250856,-6.96945136540439e-05,0
0.39,0.000810385225854517,0.000467051193454204,-0.0404381116806865,-0.0233719006412971,0.00083176871237767,-0.000427810519622724,-0.0415083024392376,0.0214137209400682,-1.52301370847676,-6.65164169227702e-05,0
0.4,0.000810323409318728,0.000467051122172687,-0.0404358182929647,-0.0233719008976217,0.000831706884300611,-0.000427813554039214,-0.0415060077424967,0.0214138383731108,-1.52301389241725,-6.36782069411353e-05,0
0.41,0.000810268228456272,0.000467051058507878,-0.0404337692411682,-0.0233719011350053,0.000831651693101896,-0.000427816262734066,-0.0415039575231132,0.0214139432994513,-1.52301405668585,-6.11435343122091e-05,0
0.42,0.000810219207686413,0.000467051001649476,-0.0404319500862292,-0.0233718820382524,0.000831602662805159,-0.000427818669369567,-0.0415021363908906,0.02141401720316,-1.52301420338638,-5.88799367397656e-05,0
0.43,0.000810175202694835,0.000467050950870228,-0.0404303119641038,-0.0233718822447886,0.000831558649563737,-0.000427820829443981,-0.0415004973428044,0.0214141010896769,-1.52301433439791,-5.68584236266418e-05,0
0.44,0.000810135854316123,0.000467050905520407,-0.0404288443827028,-0.0233718824379264,0.000831519293873625,-0.000427822760862315,-0.0414990289401813,0.0214141762352663,-1.52301445139798,-5.50531048206945e-05,0
0.45,0.000810100696888989,0.00046705086501981,-0.0404275307255531,-0.0233718826190151,0.000831484129936243,-0.000427824486536182,-0.0414977145534884,0.0214142434972557,-1.52301455588535,-5.34408590379694e-05,0
0.46,0.000810069381167469,0.000467050828849516,-0.0404263594826624,-0.0233718827890559,0.000831452808307093,-0.000427826023743664,-0.0414965426572681,0.0214143034820268,-1.52301464919812,-5.20010377417371e-05,0
0.47,0.000810041383280942,0.000467050796547278,-0.040425309756102,-0.0233718814943649,0.000831424805180169,-0.000427827398040689,-0.0414954922824208,0.0214143557853835,-1.52301473253145,-5.07152006891661e-05,0
0.48,0.000810016412194452,0.000467050767698744,-0.0404243717469346,-0.0233718816461649,0.000831399829376442,-0.000427828623803015,-0.0414945537573952,0.0214144038275956,-1.52301480695241,-4.95668797620174e-05,0
0.49,0.000809994060452698,0.000467050741935415,-0.0404235293154285,-0.0233718817904339,0.000831377473480221,-0.000427829720917931,-0.0414937108710172,0.0214144469667968,-1.52301487341438,-4.8541368054127e-05,0
0.5,0.000809974153432698,0.000467050718926935,-0.0404227775233275,-0.0233718819276689,0.000831357562688018,-0.000427830698104544,-0.0414929586724688,0.0214144854746997,-1.52301493276836,-4.76255315160113e-05,0
0.51,4.34994928353647,0.0231511548159711,5.375634409327,-1.15232320597365,-0.262839141063165,4.34206291193874,-1.50319369386215,5.28826084762268,0.0657815827944628,20.198570964153,687.324494331023
0.52,4.29050741152036,0.0244157561424185,4.32012019752615,-1.20813746250593,-1.22973739214506,4.11057124057222,-2.41719975421735,3.77891254167059,0.296380778325705,42.6700808928505,687.324494331023
0.53,4.20947590216423,0.00336626020802377,4.16884759033202,-0.146315516312115,-2.6832945726596,3.24339774602879,-2.7726246964783,3.11660885486282,0.691972512346309,65.4092388996876,687.324494331023
0.54,4.04697394414968,-0.0210981833247967,7.53427475300829,1.0763326653248,-3.85835250429719,1.2212940639132,-6.8409127694594,3.33552102990082,1.25902865147151,89.5001470950917,687.324494331023
0.55,3.9460318816006,-0.012976820336118,8.20499783184187,0.677589275046692,-3.58562030208995,-1.64762345750319,-7.74767073154288,-2.7847288704256,1.99824087094717,111.63280392942,687.324494331023
0.56,3.93207519216702,-0.0107081808140864,4.98748092994106,0.577964642757788,-0.959919793164686,-3.81311997879457,-1.79082491987142,-4.69062418673372,2.89225250621257,132.429410979891,687.324494331023
0.57,3.75583933498791,-0.0181393531966569,9.31235377708256,0.941477031675856,2.7155091475674,-2.59473856406664,6.04800062821313,-7.14338857068902,-2.33828508456272,154.461849297434,687.324494331023
0.58,3.69349861082129,0.0237892088203411,8.58301001029268,-1.13807235471999,3.35588122832506,1.54290605545852,7.29298024798154,4.66644496634358,-1.13341344407367,174.323522355865,687.324494331023
0.59,3.64247317518463,-0.0284447190379857,6.87849510661476,1.46969807042904,-0.830471157997055,3.54665160252819,-0.0823136603696046,7.03327319327656,0.222203337822398,194.955371843696,687.324494331023
0.6,3.49793714424722,-0.00368456333718248,10.1223396860591,0.224384549660399,-3.4573895957186,-0.531069698371253,-10.0404440202621,-1.3044512340735,1.72215597250539,214.765871643664,687.324494331023
0.61,3.41938953416327,0.0143336117431218,10.2223871547794,-0.651471033604558,0.745616954630972,-3.3371373354625,2.90602218507947,-9.82225273089889,-2.91758112042578,233.523449788313,687.324494331023
0.62,3.33221854480982,0.0377464223535258,10.6359604351224,-1.82401072664866,3.03630493376519,1.37330170464036,8.87010150507631,6.14589039912537,-1.13470933478466,252.303181892611,687.324494331023
0.63,3.27124696602127,0.0611700564104644,9.78148231622809,-2.99925744744974,-2.26577420037383,2.36031052224595,-9.0290110192616,4.81143445895485,0.783662643919497,270.744961583691,687.324494331023
0.64,3.16591394999526,0.015746746593517,11.2355883624574,-0.72828254371842,-0.972296863555175,-3.01295501259538,-2.70314834530134,-10.9298595753728,2.83441133430786,288.679124087738,687.324494331023
0.65,3.10384351902549,0.0712634525217815,10.6019331425374,-3.50525880868485,2.98449605552451,0.855398366154905,9.07899157811239,6.50074900294266,-1.26870933922369,306.09987705033,687.324494331023
0.66,3.01568292529254,0.0478185846787274,11.338560450645,-2.32781789713835,-2.57244502811829,1.57453380409921,-10.9470680247738,3.76076998979525,1.03739945783737,323.052905635593,687.324494331023
0.67,2.9748708407667,0.00265467007197318,9.77709915521664,-0.0586335912531468,0.946898052950866,-2.82015028745544,3.17587559493399,-9.24710332993332,-2.81676592715361,339.524522619953,687.324494331023
0.68,2.85505862035396,0.112763969033637,12.2265817672627,-5.56047724151358,0.86464287338778,2.7233193238894,-2.12494962984336,13.2624582161672,-0.267954166059666,355.619633014589,687.324494331023
0.69,2.73595347445705,0.0154944908860106,14.6642159722491,-0.695885943358038,-1.86392692223884,-2.00286243216919,-9.41710384526231,-11.2623994998612,2.39777272432117,371.464178093653,687.324494331023
0.7,2.69054223755692,0.0728372571322551,13.4060592374719,-3.59444053087957,2.43742309706041,1.14161790631577,10.3699596346598,9.22531106164785,-1.10570568793196,386.922008344066,687.324494331023
0.71,2.63859908281401,0.0697028839976515,12.6036674725833,-3.41601244248949,-2.59322003872237,-0.492212802183436,-11.5907886507777,-6.01458171610463,1.78478302777507,401.695912453032,687.324494331023
0.72,2.56036777707895,0.0471625225166299,13.2068456150719,-2.2698568836752,2.55731946795424,0.133508787188609,13.0138991440855,3.19553601767883,-1.50021901371717,416.183615728579,687.324494331023
0.73,2.52835132607725,0.0575090947723744,11.4371268575948,-2.82314621733347,-2.52888168436087,-0.0250030110642483,-11.3389408488823,-3.19475284595035,1.60342475630896,430.489501587672,687.324494331023
0.74,2.49230312527223,0.0450186137911448,10.0319494360824,-2.16221592835207,2.48497235421694,0.196249694539745,9.77578430602399,3.12237544363716,-1.47392421118323,444.098115124549,687.324494331023
0.75,2.33868108584861,0.0387505586732809,14.4810525441676,-1.89026904465711,-2.2696384571041,-0.565395526280167,-13.5044425352066,-5.55913947130613,1.83150750206175,457.647427700554,687.324494331023
0.76,2.27613591225636,-0.0177351664775346,14.5011188385075,0.978119632987314,1.96493017556166,1.14898156310721,13.061860642704,6.37392831270745,-1.04946147184048,470.511346254291,687.324494331023
0.77,2.22049869846556,0.0445467670853456,14.1503763091204,-2.17271199519273,-1.45562849168718,-1.67742200371091,-7.38883540018435,-12.2620935623878,2.44692705606445,483.305630907702,687.324494331023
0.78,2.15774588665442,0.0249780302166265,14.2969974958168,-1.18317101302587,0.554742071916488,2.08536626207805,2.3683912429944,14.1490195406453,-0.24841993170529,495.577647839573,687.324494331023
0.79,2.14887680606909,0.002746469392783,11.7293153144594,-0.0526451827162852,0.605717690403327,-2.06174323093063,3.37108669592371,-11.2345620186032,-2.85456553202406,507.486957510072,687.324494331023
0.8,2.03826183024541,0.016918317246287,14.30325149039,-0.793269212540229,-1.5974358817904,1.26609483122803,-11.7703345778892,8.16526197776,0.908896699628797,519.209383965018,687.324494331023
0.81,1.94557361409856,-0.00647592703644961,16.0896321218781,0.361210639182713,1.94342623067056,0.0916139260654356,16.0900249543192,0.34326653290857,-1.52701931200329,530.493204164887,687.324494331023
0.82,1.87598259853189,0.00794052270375767,16.7467320863618,-0.307195694302659,-1.27057686520861,-1.38022034164547,-11.0630837805163,-12.5759922881757,2.40176608160308,541.354414047286,687.324494331023
0.83,1.84148718846772,0.00879775494209967,15.6751850277322,-0.356950084163629,-0.223693432113929,1.82787136150547,-2.33251800762696,15.5047798681671,0.126551176886228,551.983218146702,687.324494331023
0.84,1.77436070595266,0.0639530169074515,16.2878773649734,-3.13298165036582,1.52550771264837,-0.908444892027432,15.7905188015449,-5.07641990540571,-2.07187562234457,562.348485813094,687.324494331023
0.85,1.80446133183616,0.0551686524763489,12.0982660086894,-2.70439766756926,-1.59617335285831,-0.843418582871542,-9.1831042741475,-8.32780901867335,2.08746919712743,572.389701812083,687.324494331023
0.86,1.65520043318702,0.0724718332587051,16.9404801529838,-3.58465835050541,0.0131654195998141,1.65673392926116,-4.18886803536709,16.801280543035,0.0358099342531025,582.085736482841,687.324494331023
0.87,1.58753201845644,-0.00241966340432398,17.7396405258961,0.156165870736594,1.47807252941813,-0.579280037783863,16.4493919597043,-6.64354859417869,-1.94583839855054,591.527384533612,687.324494331023
0.88,1.55932628891964,8.53826732359342e-05,16.6224992583386,0.0281848145592938,1.12390926590477,-1.08089150455515,11.9620260578749,-11.5420192586895,-2.33663125758453,600.634187354456,687.324494331023
0.89,1.51465364831733,0.011764378674186,16.363983680384,-0.557060070054794,-1.31440539389701,-0.752763266546017,-13.8559365893726,-8.72372048181329,2.09866915267158,609.482313342222,687.324494331023
0.9,1.43012093408357,0.0174265530148816,18.1509817173844,-0.840159564755853,-0.425993316170339,1.36531288188175,-6.41591126862697,17.0000025880051,0.314624531783888,618.037374560716,687.324494331023
0.91,1.43033866794701,-0.00529387547657789,15.7525262258599,0.3044127823013,1.41051145704997,0.237390310823245,15.5930406835579,2.2565087811353,-1.40775914991941,626.287644354835,687.324494331023
0.92,1.39322066240188,-0.00391708676234925,15.2729623073209,0.245797074934218,0.102771840619503,-1.38943049717786,0.838610496250072,-15.2519023822758,-3.07057175085556,634.26372403013,687.324494331023
0.93,1.33563753383166,0.0435830429875143,15.8586755527939,-2.1185526196205,-1.33633714504183,-0.00548982671954723,-15.7701893941082,-2.69944104674285,1.60752373574903,641.995893867294,687.324494331023
0.94,1.23743832999548,0.0138712073418036,18.5389663715293,-0.621287292878162,-0.0579648487060836,1.23615780030286,-1.69611832449835,18.4716662663195,0.0580659632839222,649.429542064841,687.324494331023
0.95,1.21452229171195,0.0668952203374042,17.4926131722758,-3.27122589258735,1.21265090314052,0.0949586998737357,16.9033843252588,5.56489288197041,-1.43762523753464,656.673835173172,687.324494331023
0.96,1.17614391171827,0.01508188866756,17.2537109283478,-0.746197058248956,0.288266823651241,-1.14037020428445,5.16361990017667,-16.4798173647412,-2.881173440194,663.684426695589,687.324494331023
0.97,1.14720707423178,0.0443138887313575,16.583544053226,-2.19752835815743,-1.05778495626099,-0.446249681467537,-14.087615705207,-9.02120546227606,2.00862284402677,670.389752439046,687.324494331023
