t,iq,id,vq,vd,ia,ib,va,vb,theta_e,omega,r
0,0,0,0,0,0,0,0,0,0,0,0
0.01,0.00109187158072635,0.000625335922195251,-0.0542521659390279,-0.0313354743769903,-0.000327888065422027,-0.00121479133226223,0.0165474461703871,0.06042674481341,-2.8851048882385,-0.000684498601622218,0
0.02,0.00122918011014918,0.000704395781192578,-0.0611373615949144,-0.0352971793440312,-0.000369535480426422,-0.00136766249069508,0.0186332273226065,0.068091634522723,-2.88510995559188,-0.000749744785216723,0
0.03,0.00125673438089697,0.000720167958143879,-0.0625080249835414,-0.0360874933011443,-0.000377809045465274,-0.00139831452728999,0.019050341835299,0.069617848545193,-2.88511516766622,-0.000743462373372945,0
0.04,0.00124262729455442,0.000712298092824914,-0.0618176353214096,-0.0356931568623834,-0.000373781924817094,-0.00138267069069019,0.0188443726788175,0.0688499172248982,-2.88512001693397,-0.000711958359043856,0
0.05,0.00125637006190681,0.000720191142325556,-0.0625047054541818,-0.036088665824851,-0.000377937500311316,-0.00139796432708361,0.019052995849875,0.0696147495440186,-2.88512490357223,-0.000698262160983767,0
0.06,0.00125622136964009,0.000720217756605325,-0.0625044904567223,-0.0360899880081166,-0.000378007580238797,-0.00139782545968803,0.0190546589185923,0.0696147867566697,-2.88512963810889,-0.00067629964882781,0
0.07,0.00128824079540526,0.000738591858584348,-0.0640949631382955,-0.0370107191615753,-0.000387665173592465,-0.00143345665916238,0.0195421601583414,0.0713867047068443,-2.88513418909406,-0.000675953581539601,0
0.08,0.00125596055026492,0.000720281211727314,-0.0625051292325406,-0.0360931812775894,-0.000378147699654926,-0.00139758586320656,0.0190582123467079,0.0696160431025875,-2.88513863936513,-0.000634559240320116,0
0.09,0.00125565109158149,0.000720208896403035,-0.0624962670509424,-0.036089560041859,-0.000378162217185118,-0.00139726656574238,0.0190572550030578,0.0696064707557141,-2.88514291411011,-0.000614616588064248,0
0.1,0.00125547306725959,0.000720205758667294,-0.0624936886974603,-0.036089396120145,-0.000378210109669324,-0.00139709200497879,0.0190580380049864,0.0696038564070433,-2.88514704561208,-0.000595420313946751,0
0.11,0.00125530156219548,0.000720202978671819,-0.0624912235099065,-0.0360892467831828,-0.000378256499959715,-0.00139692389297928,0.019058796761166,0.069601357854277,-2.88515103877082,-0.00057686713203191,0
0.12,0.00125513553370717,0.000720200292564456,-0.0624888267166242,-0.0360891303135335,-0.000378301403911701,-0.00139676115251776,0.0190595606368672,0.0695989363391214,-2.88515489821919,-0.000558935201792851,0
0.13,0.00131078005142989,0.000752086811740871,-0.0652468079780896,-0.0376869440418807,-0.000395037445501145,-0.00145867211266721,0.0199058847316392,0.0726719165537571,-2.88515880531744,-0.00057681575671167,0
0.14,0.0014312658447561,0.000821620290133603,-0.0713081006769176,-0.041171267415598,-0.000431744019274819,-0.00159285244807705,0.0217392267323174,0.0794186659661128,-2.88516252558237,-0.000637422423342913,0
0.15,0.00125534305048082,0.000720576616925286,-0.0625160346762498,-0.0361079926543393,-0.000378628502527545,-0.00139705307426874,0.019071688437088,0.069629824251728,-2.88516614617201,-0.000507120657809612,0
0.16,0.00125451041382503,0.000720191583372099,-0.0624799036956639,-0.0360886958837251,-0.000378471919423051,-0.00139614873898295,0.0190624197771834,0.0695899165730631,-2.88516950032131,-0.000491091942849471,0
0.17,0.00125436836681154,0.000720187877406763,-0.0624777576235751,-0.0360885038574395,-0.000378508885759447,-0.00139600916967699,0.0190630038737552,0.0695877301803114,-2.88517274158853,-0.000476030488726534,0
0.18,0.00125423377043004,0.000720185690897903,-0.0624758158457342,-0.036088384599694,-0.000378545279870875,-0.00139587723362362,0.0190635989808982,0.069585761923694,-2.88517587432013,-0.00046147505167174,0
0.19,0.00125410348647986,0.000720183582792444,-0.0624739285191367,-0.0360882952574185,-0.000378580508897517,-0.0013957495283924,0.0190642019044693,0.0695838559218045,-2.88517890215262,-0.000447407007863228,0
0.2,0.00125397785407019,0.000720181545205595,-0.0624721180011599,-0.0360881760271223,-0.00037861448419128,-0.00139562637869659,0.0190647493716634,0.069582018567379,-2.88518182859858,-0.000433810030434377,0
0.21,0.00125385618484787,0.000720179575762713,-0.0624703550937249,-0.036088086704917,-0.000378647382841318,-0.0013955071168197,0.0190653068658977,0.0695802367175252,-2.88518465705279,-0.00042066834577689,0
0.22,0.00125373859015926,0.000720177672187042,-0.0624686504013739,-0.0360879973903559,-0.000378679179053834,-0.0013953918486656,0.0190658430041613,0.069578512984657,-2.88518739079662,-0.000407966708483978,0
0.23,0.00125362495358903,0.000720175832278628,-0.0624670029585745,-0.0360879080826886,-0.000378709904714052,-0.00139528045988281,0.0190663582521895,0.0695768463744248,-2.88519003300134,-0.000395690383637841,0
0.24,0.00125351515872188,0.000720174053910002,-0.0624654116623037,-0.0360878187816924,-0.00037873959162455,-0.00139517283617722,0.0190668531036538,0.0695752357616201,-2.88519258673219,-0.000383825129717508,0
0.25,0.00125340908914246,0.000720172335025359,-0.062463875205351,-0.0360877294865148,-0.000378768271509474,-0.00139506886331053,0.0190673280961931,0.0695736798253022,-2.8851950549517,-0.000372357182076506,0
0.26,0.00126216342998442,0.000725199556121724,-0.0629004299155469,-0.0363396375935162,-0.00038141441499894,-0.00140481100658423,0.0192004587740637,0.0700598010763248,-2.88519743443634,-0.000367019567969281,0
0.27,0.00121582178136185,0.000698754425650687,-0.0606119483988076,-0.035014466373133,-0.000367588959306773,-0.00135327702574014,0.0184991131558559,0.0675100285627389,-2.8851997782341,-0.000326275273890304,0
0.28,0.00118467438957733,0.00068069421925452,-0.0589884204178627,-0.0341094930773417,-0.000358020855794257,-0.00131856706172393,0.0180355859846731,0.0657100365208939,-2.8852020325987,-0.00029575410991016,0
0.29,0.00125275104521776,0.000720016508685205,-0.0624449574183396,-0.0360799090400524,-0.000378797068861684,-0.00139438937700171,0.0190651918661064,0.069553224241765,-2.88520412798873,-0.000330028544603455,0
0.3,0.00125141198435521,0.000719312277954179,-0.0623815398511539,-0.0360446273220405,-0.000378458023230697,-0.00139291479727074,0.0190472748368001,0.0694828971350309,-2.88520599060164,-0.000320561571545518,0
0.31,0.00125284602830653,0.000720160084215777,-0.0624554943760161,-0.0360871204402912,-0.00037891727632818,-0.00139451619396877,0.0190697654513249,0.0695651714944779,-2.88520800873266,-0.000312166893920266,0
0.32,0.00125276836424201,0.000720161941093877,-0.0624545815734402,-0.0360871912171783,-0.000378941488640464,-0.00139444079975905,0.0190702011641283,0.0695642692552604,-2.88520996054333,-0.000303102152356638,0
0.33,0.00125268732902252,0.000720160639197628,-0.0624534030143849,-0.0360871347260066,-0.000378963408871604,-0.00139436136825413,0.0190705766101341,0.0695630789181096,-2.88521184700287,-0.000294337216444374,0
0.34,0.0012526088549354,0.000720159369131729,-0.0624522554586449,-0.0360870753244119,-0.000378984622069725,-0.00139428444610325,0.0190709369805389,0.0695619190363947,-2.88521367029455,-0.000285865758539238,0
0.35,0.00125253317481488,0.000720158141516324,-0.0624511537957656,-0.036087015921297,-0.000379005082443318,-0.00139421026042926,0.019071281461017,0.0695608047104185,-2.88521543253346,-0.000277677966111795,0
0.36,0.00125245982299586,0.00072015695497689,-0.0624500778994028,-0.0360869536073204,-0.000379024909622423,-0.00139413835967099,0.0190716124835233,0.0695597156950536,-2.88521713576396,-0.000269764340723039,0
0.37,0.00125238903231653,0.000720155808139457,-0.0624490424089082,-0.036086894202286,-0.000379044046015273,-0.00139406896796539,0.0190719321032514,0.0695586675893491,-2.88521878196219,-0.000262115701930655,0
0.38,0.00125232080277314,0.000720154699677139,-0.0624480502982322,-0.0360868347954528,-0.000379062493025072,-0.00139400208425492,0.0190722368836654,0.069557662495646,-2.88522037303746,-0.00025472317669748,0
0.39,0.0012522546687044,0.000720153628306487,-0.0624470810994613,-0.0360867753882474,-0.000379080370084975,-0.00139393725707838,0.0190725321449967,0.0695566805802475,-2.88522191083582,-0.000247578189099175,0
0.4,0.00125219051877876,0.000720152592787315,-0.0624461319701264,-0.0360867458335809,-0.000379097706732018,-0.00139387437775728,0.0190728476095809,0.0695557266294416,-2.88522339714119,-0.000240672450375029,0
0.41,0.00125212892490587,0.000720151591920483,-0.0624452342173926,-0.036086686421407,-0.000379114359209377,-0.00139381399855677,0.0190731177005295,0.0695548157536466,-2.88522483367779,-0.000233997949311216,0
0.42,0.00125206942650764,0.000720150624546961,-0.0624443672973525,-0.0360866270076824,-0.000379130445525854,-0.00139375567303094,0.0190733766235307,0.0695539356193106,-2.88522622211208,-0.000227546942949244,0
0.43,0.00125201156300795,0.000720149689546863,-0.0624435106882825,-0.0360865974429941,-0.00037914608364657,-0.00139369895476589,0.0190736585694995,0.0695530739138431,-2.8852275640549,-0.000221311947601504,0
0.44,0.00125195590631364,0.000720148785837248,-0.0624426954015847,-0.0360865380253197,-0.000379161129692135,-0.00139364439611655,0.019073898032625,0.0695522454670513,-2.88522886106283,-0.000215285730171111,0
0.45,0.0012519017681034,0.000720147912371692,-0.0624418893002666,-0.0360865084539013,-0.000379175759296305,-0.00139359133042503,0.01907416101477,0.0695514343012627,-2.88523011464063,-0.000209461299760029,0
0.46,0.001251849953113,0.000720147068138644,-0.0624411348779083,-0.0360864490315261,-0.000379189769468636,-0.0013935405353229,0.0190743790962108,0.0695506663565498,-2.88523132624244,-0.000203831899559278,0
0.47,0.00125179942377688,0.000720146252159897,-0.0624403823874178,-0.0360864194532447,-0.000379203424322825,-0.00139349100637568,0.019074622733079,0.0695499086213144,-2.88523249727393,-0.000198390999011318,0
0.48,0.0012517506406703,0.000720145463490426,-0.0624396569659415,-0.036086389870803,-0.000379216608064434,-0.00139344318835482,0.0190748567733936,0.0695491778168985,-2.88523362909352,-0.000193132286232652,0
0.49,0.00125170394795179,0.000720144701217099,-0.062438977815484,-0.0360863304413382,-0.000379229234386737,-0.00139339741344514,0.0190750475722181,0.0695484849258528,-2.88523472301435,-0.000188049660692178,0
0.5,0.00125165830805804,0.000720143964456436,-0.0624382950524609,-0.0360863008529704,-0.000379241567297529,-0.00139335267728865,0.0190752656039067,0.0695477968051445,-2.88523578030523,-0.000183137226134771,0
0.51,4.40991086487779,-0.0106561981182999,14.8035381205545,0.539364223945363,-0.221262486876174,4.40436945573675,-0.168271978068118,14.8124049092029,0.0477784267400112,14.6296559798456,500.691418128162
0.52,4.34349108398877,0.0861725731498018,12.8574315098588,-4.30663961251707,-0.838849070739559,4.26258991055586,-6.94065335995032,11.6485201085727,0.214147157558506,30.7192262226253,500.691418128162
0.53,4.15939562568062,0.0151327510182202,16.7346308154703,-0.740188508382528,-1.97428088306825,3.66101296990815,-8.64688271443948,14.3466779039873,0.49820745184177,46.8283113649093,500.691418128162
0.54,4.06283081012448,-0.00186767606210569,15.8476796509999,0.116147047856997,-3.1897814971755,2.51632503468599,-12.3657275468222,9.91217547742198,0.902418806407159,63.6740472662983,500.691418128162
0.55,3.98470995357761,-0.016796989254511,13.9892694776818,0.864004465795103,-3.94808583146794,0.539271564567084,-13.7319282685097,2.80718903257627,1.43083042589514,80.095637681212,500.691418128162
0.56,3.85025026884348,0.0383571305694217,15.7952720551166,-1.89047194092453,-3.3950596539225,-1.81644387430564,-12.9438960509504,-9.24770557904836,2.07203216024085,94.6992123950601,500.691418128162
0.57,3.79422277627293,-0.0102261000369797,13.4743462696334,0.54564140673994,-1.18765014941305,-3.60357019797164,-4.76989777374194,-12.6136357632042,2.82053235790373,109.834843140584,500.691418128162
0.58,3.72518992040428,-0.0388561715173927,11.7769569099239,1.98352590958156,1.9466442918829,-3.17633841805724,4.34688543045836,-11.1236539026821,-2.60220265152176,124.464990900385,500.691418128162
0.59,3.60359841730297,-0.000125036073346463,13.1147089852094,0.0507168987668135,3.59509607293849,-0.247398050042237,13.0802512069478,-0.951415962496647,-1.63953812646017,138.490222108736,500.691418128162
0.6,3.49506801240849,0.0564580336923036,13.6347982255773,-2.78500715923291,1.93927136951319,2.90824938344632,5.0384408047091,12.9722049701131,-0.571954743820998,152.311236670997,500.691418128162
0.61,3.42197202420914,0.00338905762563635,12.5529942570181,-0.133435181672197,-1.91127845426483,2.83847118894038,-7.13215399763447,10.3309171479818,0.593604162973027,165.967283943939,500.691418128162
0.62,3.33477673073375,0.0611712514045073,12.5113285022972,-3.008011975904,-3.21659326798333,-0.882046208656876,-11.1546358030073,-6.41526126060688,1.85677629638773,178.60403523792,500.691418128162
0.63,3.23223411746729,-9.86676617014126e-05,13.0505989120845,0.0568033357071422,0.236178579740127,-3.22359381410357,0.896555226739783,-13.0198904491725,-3.06848823818966,191.469868448823,500.691418128162
0.64,3.07632543688882,0.0795409492690391,16.4010279212669,-3.94310627055368,3.06887743909243,-0.228245964015315,16.572554511017,3.1451933031893,-1.61918398858941,204.002370453669,500.691418128162
0.65,2.99639663158956,0.0993150797780169,16.1624191102247,-4.93754642931088,0.340426305110837,2.97865174024443,-3.61920817261273,16.5077099695703,-0.08066226936326,216.036041325136,500.691418128162
0.66,2.93977738994872,0.0554348324874784,14.8806647197693,-2.73135347863032,-2.93736646375329,0.131310246074354,-14.9462182635071,-2.34628087556006,1.5449772553565,227.627511367362,500.691418128162
0.67,2.85326794786869,0.0667157349472807,15.1517971195024,-3.27679389620394,0.257283657519609,-2.84242749972584,4.97391410867112,-14.6824559467523,-3.02794521719374,238.890834611955,500.691418128162
0.68,2.80913617651157,-0.00133378044294075,13.3697517289153,0.135710084107115,2.65235392866475,0.925346677874292,12.6702962429878,4.2699264202902,-1.23559663451156,249.921469891712,500.691418128162
0.69,2.75751776226994,0.0450425322922099,12.0614535447931,-2.18645451234922,-1.60293698882832,2.24422058826567,-8.92794592527203,8.39946584630195,0.636559551144375,260.642856713158,500.691418128162
0.7,2.57051935603464,0.055417039883163,17.604015978964,-2.7081223253427,-1.40234369111667,-2.1550111322319,-6.98020995899644,-16.3863349790295,2.5862554432208,271.111338294357,500.691418128162
0.71,2.51533657736614,0.0280365508440281,16.6318558908804,-1.35197943671353,2.49969053400228,-0.281516215942592,16.6834143847586,-0.33190847946422,-1.67179842908403,281.321333655803,500.691418128162
0.72,2.44824397797207,0.0991631950901376,16.3134864984067,-4.93050034742237,-0.923070318988565,2.26972974187222,-11.240567915549,12.8097349053585,0.426739663017849,291.256122020987,500.691418128162
0.73,2.50619909467315,0.0109334075727572,9.82781746438493,-0.502703798886203,-1.30831035271904,-2.13763361278537,-4.66383441235832,-8.66529605938461,2.59673209015174,300.868182688439,500.691418128162
0.74,2.33650705564924,-0.0355092348207229,14.8336051976079,1.83312058959015,2.31424351549986,0.323733034803471,14.9464383415427,0.0124562009073286,-1.44700742556314,310.164252135053,500.691418128162
0.75,2.30087537131861,0.0956301719586214,13.2607138122998,-4.72324608976862,-1.68113206755749,1.57383848458451,-13.1305870613296,5.07378240182578,0.859887838524066,319.157653408993,500.691418128162
0.76,2.24395952979473,0.0897925238608349,12.8175277470148,-4.43064570819428,0.113385478909287,-2.24289117031353,5.57096879779848,-12.3646247654747,-3.05108850648309,327.99459626652,500.691418128162
0.77,2.17576833301363,0.0953801534973295,12.9271175473475,-4.73942700079503,1.3331893079187,1.72211250558067,3.58704251014669,13.293068209003,-0.614975174977927,336.634320055596,500.691418128162
0.78,2.17431774554757,0.0634084083917243,9.86642719280149,-3.11368990001039,-2.08881819979179,-0.607055856636304,-8.43439487140055,-5.9918639418441,1.88278128303339,344.82737019836,500.691418128162
0.79,1.93550438847399,0.0348362788732879,18.7641734345971,-1.67771005925587,1.85490008947509,-0.553837938564274,18.5245081891658,-3.42804785207217,-1.84295417578178,352.884033794023,500.691418128162
0.8,1.95568454353023,0.0110832281837553,14.681818989483,-0.513878835280959,-1.35743577302172,1.40790375873884,-10.6180939418088,10.1526332219881,0.77281711957072,360.768190416866,500.691418128162
0.81,1.91540889308214,0.0178687779320545,13.7987430279716,-0.824594537308628,0.555226030314103,-1.83325791316568,4.90966591564599,-12.9220913903167,-2.83818261627018,368.265305124016,500.691418128162
0.82,1.80684145604906,-0.0065627003493679,16.3284912337604,0.360377320698068,0.193983486660415,1.79641017677935,2.1701283401047,16.1876508725552,-0.111199279990863,375.723135006848,500.691418128162
0.83,1.79807247283743,0.0611620729462255,13.9899369867763,-2.99830163816928,-0.873041902369469,-1.57308717287056,-3.69945354376013,-13.8210778553983,2.66893146085891,382.777609605694,500.691418128162
0.84,1.72907749298104,0.0709659296542322,14.688824224311,-3.52666155890559,1.26950729974444,1.17605117057077,7.85644094486004,12.9025282221623,-0.782574582275413,389.788405445197,500.691418128162
0.85,1.68708559503859,-0.036579026451432,14.1405531948326,1.90052417809873,-1.43866027355379,-0.881959436403394,-13.1708262017188,-5.4860344486292,2.09907212806938,396.416043954638,500.691418128162
0.86,1.6463800212489,-0.0133464516417562,13.534632171882,0.701952806836417,1.56022893492819,0.525767032773833,13.0793506588615,3.55099874876185,-1.25387311165682,403.016791003074,500.691418128162
0.87,1.49277991373413,0.0624297204641913,18.7161780977891,-3.06270424169311,-1.48494104955251,-0.165043691788561,-18.0337853005528,-5.87009945348546,1.72328372824328,409.265811666761,500.691418128162
0.88,1.48632745447149,0.0359604978199899,16.5291731890658,-1.75669139061781,1.48669549137989,0.0141058579985428,16.4606513736903,2.31224724236618,-1.53711907322941,415.402768491332,500.691418128162
0.89,1.46375277201826,-0.0638265326790791,15.2453652119606,3.21851435593527,-1.46513888839747,-0.00374720834723821,-15.1005560913607,3.84098956482435,1.52977678293812,421.383541182316,500.691418128162
0.9,1.37821989185421,0.100515148800763,17.1638805871357,-4.97353128918246,1.36726054019017,-0.200479377193658,17.4801294609579,3.71212665760234,-1.64358510896881,427.068733018288,500.691418128162
0.91,1.39464212005347,0.0617945567808247,14.0237765338866,-3.05551752954144,-1.38796151648552,0.149693149576698,-14.1886641455661,-2.16432562477365,1.50764009938727,432.662392254748,500.691418128162
0.92,1.34592127689638,0.0400677965715948,14.223989675592,-1.99042167597494,-1.2864963132078,0.397538360447415,-14.2396880354079,1.87481876292065,1.30085643761208,438.070911671887,500.691418128162
0.93,1.28213292132229,0.0805949720889444,15.2194946072333,-3.97575414986733,1.24662331618096,-0.310307404066393,15.6867742074593,1.16822605859448,-1.75197922009936,443.281747840942,500.691418128162
0.94,1.31473379803124,0.0227848272719518,11.4503929791647,-1.0869640600224,-1.31151676489037,0.0946989094496416,-11.4927180624159,-0.458717541525475,1.51604441764407,448.305876654007,500.691418128162
0.95,1.24141824277585,0.0551274289080837,12.9918680553089,-2.73267010868608,1.24010981819047,0.079283830270049,12.6206969015437,4.11996737958283,-1.46257265106202,453.285143366108,500.691418128162
0.96,1.11334913406337,-0.052280106995336,17.3566274192922,2.62931359650693,-1.04557053698865,-0.38608516688467,-17.3402247526096,-2.73539958504895,1.87760029152329,458.049488564252,500.691418128162
0.97,1.11353610816579,-0.00179233755260527,15.3680215669356,0.124840891741757,0.954395497180163,0.573668119756664,13.2485584440554,7.78892619585625,-1.03119261951968,462.614524935538,500.691418128162
0.98,1.04693439198858,0.0594368463030475,16.7584844410754,-2.92228496253108,-0.768197029299037,-0.713777054830907,-9.50331088695221,-14.1093455677412,2.37620110752715,467.015501796763,500.691418128162
