t,iq,id,vq,vd,ia,ib,va,vb,theta_e,omega,r
0,0,0,0,0,0,0,0,0,0,0,0
0.01,0.000621322865320432,0.000348771921430242,-0.0302761002637933,-0.01745175997046,-0.00070244954202917,-0.000119367487412377,0.0345163516434703,0.00546146889344975,2.25062483184403,-0.00236981442661088,0
0.02,0.00072509788534732,0.000405089960483974,-0.035436122567483,-0.0202697818027805,-0.000818560801561099,-0.000140794295224325,0.040300895956195,0.00651311155116751,2.25060660669729,-0.0025837651009004,0
0.03,0.000763626256456664,0.000426796730286916,-0.0373578411255384,-0.0213559526917748,-0.000862172609341568,-0.000148117859270153,0.0424783446752347,0.00687569942524028,2.25058811670582,-0.00253156193221584,0
0.04,0.000745940621540777,0.000417791560978953,-0.0365559487244072,-0.0209053458470853,-0.000842759927702085,-0.000143989248034176,0.041571558013459,0.00672134186463884,2.2505712391703,-0.00227071635169431,0
0.05,0.000763089075369277,0.000428310036335031,-0.0374354742790199,-0.0214316604183974,-0.00086271095507253,-0.000146575005274083,0.0425865373819264,0.00686422876967625,2.25055535749017,-0.00216156037257807,0
0.06,0.000763852260486055,0.0004295662593388,-0.0375191898213738,-0.0214945341311235,-0.000864096333817779,-0.000146064961214726,0.0426912694203659,0.00686732245085663,2.25054055417624,-0.0019984218835752,0
0.07,0.000777794865346142,0.0004384497236158,-0.0382358315738427,-0.0219390377488988,-0.000880526042401427,-0.000147908422175597,0.0435281316084844,0.00697151003480149,2.25052714111026,-0.00190405329766823,0
0.08,0.000763175592609568,0.000430774329963054,-0.037568989503839,-0.0215549819797752,-0.000864333230809497,-0.000144677484870661,0.0427681763634605,0.0068504971375758,2.25051444165102,-0.00170248949960061,0
0.09,0.000760131594340568,0.000429852170044052,-0.0374581348667785,-0.0215088238404341,-0.000861387765652487,-0.000143471411753457,0.0426530237635854,0.00681622582662963,2.25050294236328,-0.00156109119230747,0
0.1,0.000758689854043363,0.000429739121234772,-0.037421711461273,-0.0215031755371216,-0.000860196885973566,-0.000142644047577717,0.0426212164795773,0.00679727538592102,2.25049240825923,-0.00143699478035732,0
0.11,0.000757543056827808,0.000429723196600475,-0.0373968050749282,-0.0215023737002826,-0.000859296311004836,-0.000141927300185798,0.0426014067495375,0.00678183216536953,2.25048274226139,-0.00132383484717099,0
0.12,0.000756513460001734,0.000429719099468447,-0.0373750527915779,-0.0215021705363405,-0.000858494199741917,-0.000141275718441823,0.0425844208242879,0.00676794001207595,2.25047387073157,-0.00122006831984457,0
0.13,0.000788458614734707,0.000448251386357632,-0.0389469538716712,-0.0224294813882751,-0.000894989939110896,-0.00014693298272065,0.0443899211201286,0.00703432684610422,2.25046531432207,-0.00125284895406337,0
0.14,0.000809558314035503,0.000461004857339649,-0.0400799929314508,-0.0230676433174575,-0.000919418091763277,-0.000150268143174563,0.0456723425877373,0.00724976717936107,2.25045732368897,-0.00124823568341979,0
0.15,0.000760904619123933,0.000433459982043689,-0.0376632089612755,-0.0216893587490478,-0.000864264222982557,-0.000141105451027979,0.0429263604902025,0.00680243833274347,2.25044988507136,-0.000968459332822858,0
0.16,0.00075394994374187,0.000430159202587939,-0.0373466467927055,-0.0215241960263746,-0.00085678119632395,-0.000139296227031324,0.0425763748937862,0.00673166711481422,2.25044362756176,-0.000870144365067039,0
0.17,0.000752482127967731,0.000429762442996438,-0.0372935694125044,-0.0215043347211707,-0.000855390952722119,-0.000138677425424099,0.042522646460166,0.00671351393453279,2.25043795845652,-0.000800568103770622,0
0.18,0.000751775605176428,0.000429713634215554,-0.0372758038375939,-0.0215018955158085,-0.00085481146180765,-0.000138266889497782,0.0425073301749015,0.00670402445650603,2.25043276479123,-0.00073940172909328,0
0.19,0.000751210557907575,0.000429706607321089,-0.0372635258152538,-0.0215015588821715,-0.000854368208111281,-0.000137913145334043,0.042497600649228,0.00669636689603485,2.25042799908033,-0.000683611747050759,0
0.2,0.000750703108850267,0.000429704681574822,-0.0372527943792022,-0.0215014530133065,-0.000853972903561984,-0.000137591972827955,0.0424892164136443,0.0066895186147471,2.25042362506608,-0.000632451038795148,0
0.21,0.000750238644850228,0.000429703455568945,-0.0372430044114286,-0.0215013955046079,-0.000853611420862377,-0.000137297582381896,0.0424815923947633,0.00668323977128277,2.25041961042532,-0.000585499462575613,0
0.22,0.00074981253970174,0.000429702394874208,-0.0372340258905319,-0.0215013408108426,-0.000853279830492116,-0.000137027456117189,0.0424745990460684,0.00667748280091596,2.25041592561439,-0.000542406021325724,0
0.23,0.000749421533773549,0.000429701428826207,-0.0372257870086973,-0.0215012874827889,-0.00085297555689138,-0.000136779576562522,0.0424681797957361,0.00667220253525529,2.25041254353352,-0.000502853069095855,0
0.24,0.000749062395193727,0.000429700542848081,-0.0372182096474078,-0.0215012519301252,-0.000852696080941768,-0.000136551902087991,0.0424622843706233,0.00666733604593585,2.25040943931114,-0.000466549645050819,0
0.25,0.000748733147590991,0.000429699729577978,-0.0372112715393432,-0.0215011984303364,-0.00085243986424797,-0.000136343176366852,0.0424568731594705,0.00666289614477578,2.2504065901196,-0.000433228769274931,0
0.26,0.000755166660141448,0.000433526873461857,-0.0375303676550879,-0.021692700818124,-0.000859849633148646,-0.000137407579765241,0.0428254460728053,0.00671438260571646,2.25040406165814,-0.000430788884982701,0
0.27,0.000737588273531096,0.000423510477983554,-0.0366886089766582,-0.0211915053715203,-0.000839881995422296,-0.000134148499722898,0.0418557320035154,0.00657507619752017,2.25040141660866,-0.000330183682121718,0
0.28,0.000737002132157572,0.000423314080545146,-0.0365834393152357,-0.021181690726268,-0.000839302944032607,-0.000133931033486599,0.041767774806954,0.00651652068441304,2.25039921633895,-0.000303114483296357,0
0.29,0.00074624479686328,0.000428932479520526,-0.0371200882429103,-0.0214628143296126,-0.000850023424663848,-0.000135368188123681,0.0423618865530829,0.00663505220571815,2.25039733675924,-0.000319291258814405,0
0.3,0.000738037210485157,0.00042464158939147,-0.0367266750162591,-0.0212481061236043,-0.000840942768974737,-0.00013354648183583,0.0419209473758796,0.00655475725703046,2.25039622450968,-0.000273695461582889,0
0.31,0.000746105406172964,0.000429090798657662,-0.037122046134579,-0.0214707401540346,-0.000850014877516599,-0.000135155090964547,0.0423684090066234,0.0066300007712938,2.25039457425878,-0.000287710435620178,0
0.32,0.000746995539182809,0.000429623311381949,-0.0371701662320123,-0.0214973909175786,-0.000851042137637826,-0.000135298947544487,0.0424225982326284,0.00663944524577261,2.2503929610889,-0.00027318805603814,0
0.33,0.000746963475369157,0.000429686723075757,-0.037173310495422,-0.0215005508300669,-0.000851057252460807,-0.000135228201781335,0.0424270397781517,0.00663890012339957,2.2503914676091,-0.000256288303373641,0
0.34,0.000746823051444064,0.000429693977247654,-0.0371708310622387,-0.0215009149882149,-0.000850952771462149,-0.000135133138023275,0.0424253491819863,0.00663700037475244,2.25039009515338,-0.000240311463079877,0
0.35,0.000746679716506281,0.000429694532973215,-0.0371678547265056,-0.0215009430492886,-0.000850841800923997,-0.000135041551047736,0.0424230600998487,0.00663505453964032,2.25038883523523,-0.00022558652647232,0
0.36,0.000746546335001599,0.000429694312072413,-0.0371650324170181,-0.0215009303281254,-0.000850738070176153,-0.000134956911955852,0.0424208645020209,0.00663324162337614,2.25038767879846,-0.000212063420194083,0
0.37,0.000746423663698049,0.000429694021743052,-0.0371624274781354,-0.0215009131969613,-0.000850642613504834,-0.000134879139008976,0.0424188345759057,0.00663157278425625,2.25038661736623,-0.000199650287600283,0
0.38,0.000746310857251714,0.000429693744756957,-0.0371600233794641,-0.0215009138167036,-0.000850554826490856,-0.00013480762985883,0.042416971443846,0.00663002006389051,2.25038564313678,-0.000188256834733947,0
0.39,0.000746207510891345,0.000429693489251841,-0.0371578238431527,-0.0215008966012312,-0.000850474400406807,-0.00013474211764983,0.0424152556843524,0.00662861317672194,2.25038474894631,-0.00017779940567777,0
0.4,0.000746112662846457,0.000429693254571859,-0.0371558028507161,-0.021500877894504,-0.000850400587661978,-0.00013468199281474,0.0424136773754426,0.00662732277828094,2.2503839282189,-0.000168201115641353,0
0.41,0.000746025467770815,0.000429693039140441,-0.037153938371755,-0.0215008783958498,-0.0008503327305667,-0.000134626720139025,0.042412232430654,0.00662611866581533,2.25038317491919,-0.000159391383125662,0
0.42,0.000745945579094527,0.000429692841394936,-0.0371522316744437,-0.0215008596229655,-0.000850270559332912,-0.000134576078291872,0.042410897688526,0.00662503133361531,2.25038248350788,-0.00015130542360099,0
0.43,0.0007458721210268,0.00042969265988561,-0.0371506560059311,-0.0215008600596806,-0.000850213392533236,-0.000134529513645571,0.0424096765598801,0.00662401381817325,2.25038184890018,-0.000143883774755352,0
0.44,0.000745804921623184,0.000429692493280028,-0.0371492184049396,-0.0215008426856394,-0.000850161096229317,-0.000134486915187821,0.0424085512846896,0.00662309914046069,2.25038126642936,-0.000137071859435903,0
0.45,0.000745742988672266,0.000429692340355447,-0.0371478836441453,-0.0215008430678481,-0.00085011289846637,-0.000134447656636669,0.04240751684342,0.00662223731394756,2.25038073181198,-0.00013081958433119,0
0.46,0.00074568632485221,0.000429692199989077,-0.0371466650561509,-0.0215008241916313,-0.000850068801161241,-0.00013441173719337,0.0424065603702697,0.00662146534205015,2.2503802411169,-0.000125080971600026,0
0.47,0.000745634170788283,0.000429692071149921,-0.0371455367666599,-0.0215008245273595,-0.000850028213492602,-0.000134378677336898,0.0424056859408792,0.00662073688671484,2.25037979073535,-0.000119813820757619,0
0.48,0.000745586324091242,0.000429691952891228,-0.0371444997367412,-0.0215008248419505,-0.000849990977892797,-0.000134348347783717,0.0424048822374787,0.00662006737145221,2.25037937735554,-0.000114979398347551,0
0.49,0.000745542640582187,0.000429691844345081,-0.0371435569726588,-0.021500807361985,-0.000849956982084043,-0.000134320656004664,0.0424041404486824,0.00661947238129723,2.25037899793725,-0.000110542153101662,0
0.5,0.00074550230267337,0.000429691744713809,-0.0371426769218527,-0.0215008076407138,-0.000849925589996889,-0.000134295086413965,0.0424034583944929,0.00661890431345043,2.2503786496906,-0.000106469454503333,0
0.51,1.54367299460532,-0.0427097781586319,2.38838718844198,2.13837647716117,-0.104198730678626,1.54074432140738,2.04148863162025,2.47171428101131,0.039865428409932,12.1768385810409,250.919509654747
0.52,1.50841595479562,-0.0318180553538001,0.735051911260853,1.59453175078032,-0.297488763601515,1.47913201468271,1.4398062468815,1.00488346982911,0.177385415498791,25.2634699140067,250.919509654747
0.53,1.43287496079175,0.00283271351243736,1.17429296458564,-0.138267629749355,-0.567610518406836,1.31565838154276,-0.594155011018903,1.02228260622636,0.409278677494122,37.9434839816698,250.919509654747
0.54,1.34533027902022,0.00605962480746047,2.2986937072543,-0.298484979593078,-0.895333710141126,1.00415527991758,-1.75939567574892,1.50917623191237,0.73267496006274,50.23662226292,250.919509654747
0.55,1.31517712480393,-0.0320869015654077,0.52399891954098,1.61166506362844,-1.21140010558123,0.513059668125835,0.187163627293158,1.68434228160996,1.14578211349718,62.5467491167896,250.919509654747
0.56,1.23609418157288,-0.0104175169557763,1.10407876137026,0.524769856731539,-1.23139820306195,-0.108147195403525,-1.14212412657846,0.435804765153305,1.64996870770093,74.8828714928272,250.919509654747
0.57,1.15280325783291,0.0287567257098417,2.29046314264507,-1.43496014680407,-0.922148995299475,-0.692404167384837,-0.906794776195397,-2.54618445219435,2.23978704335929,85.7789160562258,250.919509654747
0.58,1.13372358215658,0.0068232390919224,0.622738789621034,-0.335099231134165,-0.272525112380681,-1.10050251269661,0.179702017348205,-0.683960729696058,2.90485760834635,95.5562321267929,250.919509654747
0.59,1.06806386104768,0.012417476843008,1.34182107566349,-0.613093699261375,0.50003842933382,-0.943862370367942,1.18029272546405,-0.885029245497209,-2.64278102040341,105.152594047428,250.919509654747
0.6,0.981709742551984,-0.00560201750378933,2.94792697594952,0.283987840857606,0.948965049061926,-0.25149699179213,2.77088059414801,-1.04553492637013,-1.83556931125323,115.028856468166,250.919509654747
0.61,0.940911327279244,-0.0321773938934074,2.5880763258853,1.61593983095376,0.752126648501981,0.566264085999931,3.04684558652336,0.16165573838851,-0.959636832998631,123.754299270902,250.919509654747
0.62,0.902176965542437,-0.0338314755733856,2.33416279006299,1.70204573953216,-0.0133108141382314,0.902712948905581,1.75467534473452,2.29486166566855,-0.0227379821203583,131.872481542512,250.919509654747
0.63,0.854184402221732,-0.0209241898974854,2.39089240670027,1.05056398464931,-0.718777209891508,0.461982832216028,-1.3895237300221,2.21117050223738,0.975054502772323,140.337152141275,250.919509654747
0.64,0.820683236808786,-0.00580512397010642,2.00754547222219,0.297429620748396,-0.732506968709704,-0.370119190849347,-1.93041707876272,-0.626253227025256,2.03158350156727,147.74505664397,250.919509654747
0.65,0.783520880095536,0.0334050234762993,1.90427552215298,-1.6618213105007,-0.0341261849607113,-0.783489801234938,1.66006785543088,-1.90580430466257,3.140672224084,154.939938237907,250.919509654747
0.66,0.771282092137777,-0.0157348198211195,0.504674244358345,0.792278739203085,0.713923704888014,-0.2922953879318,0.147965714117927,-0.927635618633453,-1.97979585013086,162.047443433994,250.919509654747
0.67,0.683918151971807,0.00919358815664315,3.12802931971437,-0.450502979965933,0.482152351275642,0.485136754760032,1.85122028850212,2.56134804417304,-0.768871128594178,168.34582117702,250.919509654747
0.68,0.645864435819433,0.000630201388535673,3.18523052786609,-0.028630075329198,-0.30308876840384,0.570331890286338,-1.52276448049344,2.79780298338017,0.489446367246061,174.851207120023,250.919509654747
0.69,0.640643673811608,-0.00269076336604768,1.85216395876915,0.143947925412222,-0.624408132018857,-0.143338904945752,-1.8385514483709,-0.266384885245331,1.79224636876611,180.548436717497,250.919509654747
0.7,0.641960725570339,0.0363801063470252,0.112477784738057,-1.8178558303935,-0.0391582720544873,-0.641797253844486,1.8173519819724,-0.120344695671235,3.13726448361532,186.416749210599,250.919509654747
0.71,0.53986514857785,-0.00940920545205358,3.76548286803338,0.479534222810451,0.531954770674629,-0.092558272200413,3.6075116078417,-1.18096329307338,-1.76049519632076,191.515060574214,250.919509654747
0.72,0.544703379087192,0.0285621391200117,2.02133603574535,-1.42741908617804,0.207199444431352,0.504565116915008,-0.678127736066518,2.379804065583,-0.337265034668904,196.758356867859,250.919509654747
0.73,0.519235518723361,0.00604667113955516,1.97465686527627,-0.293318682523873,-0.465206280846006,0.230705878549323,-1.9064085590497,0.592378250007781,1.12206150422664,201.347141035431,250.919509654747
0.74,0.514868336760663,-0.00254770591017286,0.817513166278137,0.129985628728177,-0.256254926105767,-0.44657508646433,-0.522803993792434,-0.641794378900785,2.61569536251079,206.064229425478,250.919509654747
0.75,0.444970844098604,0.00440256087417695,3.09453202259746,-0.211011112902535,0.372064118669948,-0.244103925077886,2.71804692091066,-1.49428078498573,-2.14154030884435,210.274180566858,250.919509654747
0.76,0.472070334655762,0.0232187968257794,0.503522755504074,-1.15785769703546,0.279785739502956,0.380932347482889,-0.687967349171344,1.05871173525603,-0.584346185579561,214.44491204314,250.919509654747
0.77,0.399024021999835,0.00547231530961581,3.0394101863565,-0.271185325515688,-0.333138229456735,0.219702153931645,-2.70620186269959,1.40997419835398,1.00149032422813,218.286673608732,250.919509654747
0.78,0.405323150023067,-0.0237182649041069,1.62736112198553,1.19334465283392,-0.183075735470374,-0.36239851974955,-1.84928057639332,-0.807797642712402,2.61536101137936,221.917733480241,250.919509654747
0.79,0.383845660110878,0.00978110646572726,1.62880457282584,-0.489750618500004,0.340098193891409,-0.17823125242631,1.67769866129739,-0.279619753702143,-2.02802838918156,225.497413215744,250.919509654747
0.8,0.354251481092581,0.0472229488170148,2.15689264359392,-2.35450434278416,0.170059898273861,0.314330637625965,-1.43405721108307,2.85295574650566,-0.363402275364622,228.663284837003,250.919509654747
0.81,0.357816871256953,-0.0339935527207592,1.01446823414175,1.70360793898155,-0.355318913333713,0.0541935864290556,-0.568915053853326,1.89941082163462,1.32472341916364,231.823342341938,250.919509654747
0.82,0.30456595590367,-0.0266630182404578,2.77882031147613,1.33287109215031,-0.00594701415329107,-0.305672980585245,-1.62142466862004,-2.62094824743882,3.03481793718454,234.773054358053,250.919509654747
0.83,0.281308863179611,-0.00187095737901111,3.084944458753,0.100110343476142,0.28080233401172,0.0169772258773228,3.08586853350919,0.0657250968775806,-1.51706093258001,237.517015900388,250.919509654747
0.84,0.301521351502988,-0.00216075465092512,1.24687614910292,0.108033235913378,-0.0719629513555829,0.292815860064041,-0.183801501394727,1.23797751164902,0.23381975173038,240.181455735624,250.919509654747
0.85,0.295050939123237,-0.0122352703294565,0.806712487777234,0.620596440793999,-0.26274572740649,-0.134794069777469,-0.992563719570712,0.225260389003188,2.00336178628816,242.634558668851,250.919509654747
0.86,0.206812455980803,0.0054788324887089,4.46182418768312,-0.269718715835978,0.120693439569484,-0.168031256613578,2.91283466178468,-3.3905777532114,-2.49221790122728,244.979177087007,250.919509654747
0.87,0.241813722227664,0.0187604358215117,2.01875611871047,-0.940475420869102,0.168137913430632,0.174801236485913,0.556535133182118,2.15641807857935,-0.688543478585703,247.147979318974,250.919509654747
0.88,0.231681729327534,0.0136281090519552,1.86447605177525,-0.674169523044,-0.203788988290662,0.111050426887956,-1.97400885288513,0.18456582071425,1.13060996356988,249.191448559145,250.919509654747
0.89,0.189508233594571,-0.0376916330968465,3.33159005365193,1.89005862173846,0.00373738892143156,-0.193184010025912,-2.44710465540222,-2.94677666013377,2.96460675167284,251.126147938789,250.919509654747
0.9,0.152033045838483,0.00137186609969302,4.58743497766597,-0.0717042976351704,0.15141040956519,0.013813649728556,4.55735603510286,0.52934596430316,-1.47079181057613,253.004049764853,250.919509654747
0.91,0.199353942828227,-0.00528863846105115,1.6538219257578,0.271935294772811,-0.0806957101426004,0.182368217029484,-0.37735723301351,1.63299641314756,0.390066572808765,254.690078067422,250.919509654747
0.92,0.21167486339436,-0.0391876829585708,0.495690504474203,1.9658822315645,-0.13793561064699,-0.165274588500848,-1.63636720835274,1.1969562999687,2.26305753276995,256.276594672756,250.919509654747
0.93,0.167300726160887,0.00819055184023008,2.17044522492022,-0.412126275687839,0.136929616575765,-0.0964722665734645,2.05391606267468,-0.81370101940347,-2.1356441604765,257.851566804856,250.919509654747
0.94,0.169799597269852,0.0200644064085076,1.5491053934391,-1.0028750703952,0.0598963871406083,0.160146515556949,-0.605411627853109,1.74326208232226,-0.240282582639031,259.291047817815,250.919509654747
0.95,0.138641195222645,0.0242909517734655,2.63831829702608,-1.21046357143266,-0.14031565037653,0.011088264527673,-2.51220153462204,-1.45423139274008,1.66538330407439,260.580163365274,250.919509654747
0.96,0.159583299926745,0.00280611120890971,1.13635783423731,-0.1413190449852,0.0652650486662908,-0.145654307516849,0.610754895127832,-0.968637526624603,-2.70275284528036,261.866010288971,250.919509654747
0.97,0.125322530151828,-0.0255180470340048,2.42093961054908,1.27224706423409,0.0698759200341566,0.107117986759767,2.60612921909552,0.829247661289667,-0.778882029249123,263.03109259008,250.919509654747
