t,iq,id,vq,vd,ia,ib,va,vb,theta_e,omega,r
0,0,0,0,0,0,0,0,0,0,0,0
0.01,0.000815891306746485,0.000464688832211772,-0.0400592606855712,-0.0232710563630368,0.0007422957705797,-0.000574988107865125,-0.0363816582035611,0.0286820741454561,-1.7121344245845,-0.00172152784312093,0
0.02,0.000902696784686828,0.000514565563134235,-0.0444462827109653,-0.0257688333009782,0.000821201556764264,-0.000636606006110168,-0.0403726751321562,0.0317734467628244,-1.71214709511785,-0.00182010281105096,0
0.03,0.000931567113418124,0.000531123376769378,-0.0458800373970653,-0.0265980207104143,0.000847442870072675,-0.00065707679164316,-0.0416748944498351,0.0327968856732288,-1.71215988892297,-0.0017901242644279,0
0.04,0.000914377840273323,0.000521758447923637,-0.0450707788833458,-0.0261290306346213,0.000831736949550496,-0.000645393182110738,-0.0409394081274478,0.0322190349518834,-1.71217161621839,-0.00166646310883821,0
0.05,0.000930782872965022,0.000531239176853442,-0.0458952846758886,-0.0266038247926417,0.00084663484479175,-0.000657100646182449,-0.0416884084081013,0.0328057503111541,-1.71218316171612,-0.0016181516607056,0
0.06,0.00093061036339415,0.000531398815509496,-0.0459121117017928,-0.0266118235338821,0.000846434331880787,-0.000657243692548671,-0.041703579423594,0.0328164991426015,-1.71219416082405,-0.00153731061235747,0
0.07,0.000956505347667141,0.00054639207384056,-0.0471953916368214,-0.0273626574191007,0.00086995095173269,-0.000675745603057107,-0.0428678910563458,0.0337411311186997,-1.71220448248777,-0.00151886083465599,0
0.08,0.000930209154558828,0.000531652994307329,-0.0459390595010769,-0.0266245462173845,0.000845987963916022,-0.000657455962396131,-0.0417277989784945,0.0328337393778942,-1.71221445524749,-0.00138796876201881,0
0.09,0.000929330843248948,0.00053139539018146,-0.0459177589735035,-0.0266116412211178,0.000845148587335789,-0.000657085034256775,-0.04170822325361,0.0328183508217168,-1.71222380256022,-0.00131765559410513,0
0.1,0.0009289357598317,0.000531387790242013,-0.0459188256544986,-0.0266112687831441,0.00084475270428123,-0.000657029297765279,-0.0417090412992997,0.0328185016359719,-1.71223265380288,-0.001252036633324,0
0.11,0.000928569605778311,0.000531384669612844,-0.0459202248300544,-0.0266111088581187,0.000844385138792023,-0.000656981671937669,-0.0417101739228807,0.0328188902070809,-1.7122410369598,-0.00118990535211051,0
0.12,0.000928223067701368,0.0005313817838565,-0.0459215601855328,-0.026610954827582,0.000844037252324787,-0.00065693666385389,-0.0417112570780451,0.032819257146961,-1.71224897681501,-0.00113105989085582,0
0.13,0.000972479631210464,0.000556734963164085,-0.0480925515196044,-0.0278806244085646,0.000884272016821937,-0.00068828297421498,-0.0436812931075064,0.0343826607686689,-1.71225689284889,-0.00117066526452159,0
0.14,0.00103357590467358,0.000592266529570922,-0.0512282806819737,-0.0296599823761203,0.000939743003722056,-0.000732080514511376,-0.0465345579155817,0.0365866945184205,-1.71226431711198,-0.00125097107608299,0
0.15,0.000929171417801591,0.00053242408297133,-0.0460191284003407,-0.0266631652925747,0.000844814410322773,-0.000658121219759906,-0.0417997517880375,0.0328856399147813,-1.71227142804846,-0.000968913779898467,0
0.16,0.00092700132741313,0.000531389442371996,-0.0459280821518346,-0.0266113357462618,0.00084280772508924,-0.000656796269036317,-0.0417167152377115,0.0328217548300153,-1.71227776813569,-0.000917752752597161,0
0.17,0.00092670509591956,0.000531369452358227,-0.045927404161177,-0.0266103357271315,0.000842513333401459,-0.000656739760288294,-0.0417159881866549,0.0328209193976284,-1.71228376577731,-0.000873225918376555,0
0.18,0.000926456225561102,0.000531367079696239,-0.0459283009742248,-0.0266102307828569,0.000842263554186804,-0.000656707101038541,-0.0417167044016657,0.0328211789331207,-1.71228944613289,-0.000831125127741443,0
0.19,0.000926221520638846,0.00053136511796856,-0.0459291976423882,-0.0266101212180744,0.000842027938532832,-0.000656676590582021,-0.0417174309821384,0.0328214213519874,-1.71229482610897,-0.000791251925026808,0
0.2,0.000925999076573017,0.000531363264700646,-0.0459300371051988,-0.0266100337429371,0.000841804633056434,-0.00065664767467199,-0.0417181071498143,0.0328216657121755,-1.71229992159192,-0.000753487239249937,0
0.21,0.000925788390451353,0.000531361509334591,-0.0459308297012333,-0.0266099462686196,0.000841593131430361,-0.000656620284963906,-0.0417187457614864,0.032821892229897,-1.71230474762577,-0.00071771954901877,0
0.22,0.000925588880197244,0.000531359846628902,-0.0459315799470518,-0.0266098587936471,0.000841392848732944,-0.000656594346499678,-0.0417193508213923,0.032822102133956,-1.71230931845886,-0.000683843252960836,0
0.23,0.000925399768154237,0.000531358271698895,-0.0459322806705439,-0.0266097904698594,0.000841203006867642,-0.000656569756415562,-0.0417199120851437,0.0328223139351161,-1.71231364758628,-0.00065175833429293,0
0.24,0.000925220921613792,0.000531356779918423,-0.0459329553790447,-0.0266097029861012,0.000841023466675658,-0.000656546502433765,-0.0417204578093142,0.0328224935530966,-1.71231774778934,-0.000621370065109227,0
0.25,0.000925051250929405,0.000531355366904205,-0.0459335781637232,-0.0266096375545644,0.000840853142040506,-0.000656524436943948,-0.0417209561340495,0.0328226786379306,-1.71232163117385,-0.000592588726698519,0
0.26,0.000933811618685537,0.000536394554391401,-0.0463680668702004,-0.026861994132848,0.000848812711870913,-0.000662752017981989,-0.0421153842203707,0.0331339518627508,-1.7123252789555,-0.00058520654089687,0
0.27,0.00089961590699821,0.000516955387971448,-0.0447128593404989,-0.0258885061870194,0.000817698626512424,-0.000638686628540647,-0.0406139280626041,0.0319368656934928,-1.71232889488866,-0.000483409847748585,0
0.28,0.000891001380467503,0.000511896956496346,-0.044166208326158,-0.0256351788585331,0.00080988167526187,-0.000632466304351658,-0.0401083722295689,0.0316090941045914,-1.7123322256447,-0.000440063523647626,0
0.29,0.000923847195085258,0.00053101479880722,-0.0459060374264415,-0.0265925878420319,0.000839700250624477,-0.000656028845036833,-0.0416956500542857,0.0328024811086689,-1.71233521604346,-0.000490559476431827,0
0.3,0.00092087601044669,0.000529442459667927,-0.0457670323733388,-0.026513848954877,0.000836979004904291,-0.000654055112406332,-0.0415690636009361,0.0327050208684477,-1.71233762793124,-0.000466369391444312,0
0.31,0.000924166768643314,0.000531315618484124,-0.0459335454561942,-0.0266076388565916,0.000839970759434334,-0.000656376131501672,-0.0417205881250696,0.0328214803169718,-1.71234044686558,-0.000452998594814236,0
0.32,0.000924111690655328,0.000531346974738282,-0.0459369855080321,-0.026609213203194,0.000839910047771769,-0.000656401657540105,-0.0417236836183229,0.0328236361510464,-1.71234312968231,-0.000433251963668082,0
0.33,0.00092400183653665,0.000531346607413598,-0.0459374356669446,-0.026609198804098,0.000839799676127618,-0.000656387930349873,-0.0417240478953367,0.0328237914305817,-1.71234567086729,-0.00041442069307546,0
0.34,0.000923896755394913,0.000531345740787923,-0.0459378094139929,-0.0266091552918825,0.000839694188438226,-0.000656374268832792,-0.0417243450421622,0.0328239015034235,-1.71234807767842,-0.00039658287603438,0
0.35,0.000923797262187779,0.000531344911000068,-0.0459381627696022,-0.0266091117648567,0.000839594311202376,-0.000656361324780729,-0.0417246261808814,0.0328240033759871,-1.71235035721761,-0.00037968827979576,0
0.36,0.00092370306587168,0.00053134412490038,-0.0459384970257978,-0.0266090653129546,0.00083949975089357,-0.000656349069639415,-0.0417248927803239,0.0328240946301461,-1.71235251621451,-0.000363687068728464,0
0.37,0.000923613621642786,0.000531343380333805,-0.0459387998998461,-0.0266090437781975,0.000839409964268004,-0.000656337429830301,-0.0417251285433237,0.0328242013622761,-1.71235456104381,-0.000348532001411318,0
0.38,0.000923529204217655,0.00053134267511045,-0.0459390994032331,-0.0266090002072203,0.000839325219632843,-0.000656326447070895,-0.0417253676274812,0.0328242812923532,-1.71235649774221,-0.000334178333798614,0
0.39,0.000923449015006196,0.000531342007152621,-0.0459393690636179,-0.0266089786401684,0.00083924472291859,-0.000656316011486988,-0.0417255774241067,0.0328243745235322,-1.71235833202811,-0.000320583687893688,0
0.4,0.000923373270521269,0.000531341374492728,-0.0459396324590276,-0.0266089350426862,0.000839168685189006,-0.000656306156270928,-0.0417257873104092,0.0328244410143255,-1.71236006931689,-0.000307707926647021,0
0.41,0.000923301346797011,0.000531340775266394,-0.0459398704620776,-0.02660891344636,0.000839096485610686,-0.000656296795888615,-0.0417259719695761,0.0328245218710417,-1.71236171473765,-0.000295513035454743,0
0.42,0.000923233264778153,0.000531340207707923,-0.0459400955538306,-0.0266088918355145,0.000839028141974315,-0.000656287935661744,-0.0417261467045738,0.0328245972617728,-1.71236327314838,-0.000283963009921996,0
0.43,0.000923169045408388,0.000531339670144883,-0.0459403196474069,-0.0266088482007184,0.000838963672225293,-0.000656279580785628,-0.0417263262637772,0.0328246472700562,-1.71236474915042,-0.000273023749565957,0
0.44,0.000923107890094964,0.000531339160992753,-0.0459405131107666,-0.0266088236542102,0.000838902283119398,-0.000656271620700697,-0.0417264753678362,0.032824708597621,-1.71236614710137,-0.000262662957136293,0
0.45,0.000923050052623533,0.000531338678750872,-0.0459406982712782,-0.0266088020050981,0.000838844223402581,-0.000656264093219453,-0.0417266182697321,0.0328247685379683,-1.71236747112861,-0.00025285004326002,0
0.46,0.000922995358365572,0.000531338221997478,-0.0459408756721143,-0.0266087803436561,0.00083878931782514,-0.00065625697559894,-0.0417267557894628,0.0328248244501648,-1.71236872514107,-0.000243556036129078,0
0.47,0.000922943458075117,0.000531337789386142,-0.0459410365573537,-0.0266087586711554,0.000838737218392032,-0.00065625022035608,-0.041726879137002,0.0328248752544457,-1.71236991284151,-0.000234753495963841,0
0.48,0.000922894468167489,0.000531337379641133,-0.0459411950220513,-0.0266087369869261,0.000838688038230164,-0.000656243845615101,-0.0417270021514094,0.0328249230852082,-1.71237103773603,-0.000226416434000129,0
0.49,0.000922847922981402,0.000531336991554756,-0.0459413355802428,-0.0266087152930005,0.000838641314325352,-0.000656237787278508,-0.0417271093923577,0.0328249658979055,-1.71237210314606,-0.000218520235758793,0
0.5,0.000922803938932178,0.000531336623982295,-0.0459414714631693,-0.0266086935886379,0.000838597160023154,-0.00065623206329373,-0.0417272138555703,0.0328250056899724,-1.71237311221724,-0.000211041588372645,0
0.51,4.6020596287102,0.00374395797048407,9.89847706587196,-0.177330951907408,-0.546762449550817,4.56946579669733,-1.36007304999649,9.80619680552918,0.119903000599072,36.9165778790841,623.273563216812
0.52,4.36665039505411,0.0718413547634146,9.13378742125082,-3.57670347847005,-2.18809018170974,3.77955793838193,-7.77115699662266,5.98564945209308,0.541231716977449,77.8045058408137,623.273563216812
0.53,4.09280205030581,0.0226308458943578,8.74131340095582,-1.10355635357334,-3.89137616131142,1.26835813134563,-8.66201662809405,1.61178923369776,1.26124314103461,118.961541029754,623.273563216812
0.54,3.83677781526171,0.0321359915972703,7.88998890595044,-1.57673662126895,-2.93171287500942,-2.47526894380073,-4.9585110676681,-6.3364967687741,2.28035223782815,157.636090019763,623.273563216812
0.55,3.55679536987614,0.00228633285843349,10.2941859678069,-0.070616640534087,1.44325645277354,-3.25081671922885,4.24768646321395,-9.37722833037256,-2.7231239941841,191.532762471747,623.273563216812
0.56,3.33982810859881,0.0494730830509693,9.2094830320104,-2.43639405267314,3.11972001775093,1.193417945138,7.64780931784321,5.67993013466707,-1.19061963806919,225.42913460973,623.273563216812
0.57,3.11416066531814,-0.0114976109168645,9.8744680966337,0.614771291218318,-1.69830158749461,2.61034491253259,-4.83784750986543,8.63008084569501,0.57310788389242,256.329895369058,623.273563216812
0.58,2.949906568772,0.0322749105638805,8.13318907943048,-1.56162968690034,-1.65266648543082,-2.44370291203121,-3.17924540919218,-7.64721194350635,2.5578937456811,284.650784400753,623.273563216812
0.59,2.74291556669897,0.0412548837539521,8.88583985521834,-2.01303619423823,2.74264758403931,0.0563205223380952,8.80862684148119,2.32777958996056,-1.53522473118356,311.839798487584,623.273563216812
0.6,2.57561229054042,0.055641988162505,8.26677383283653,-2.73581713921165,-1.89214479657321,1.74833142476777,-8.00424451168305,3.42874828759225,0.846481675150454,337.333495613781,623.273563216812
0.61,2.42064462834148,0.0201966183707518,7.63645292383276,-0.96162072286776,0.617077966057446,-2.34075695105632,2.93595430508152,-7.11479444474933,-2.87549047438251,361.072681125597,623.273563216812
0.62,2.25666639771029,0.000276073978429658,8.02528895603966,0.0364587247765926,0.329837279386667,2.23243156130225,1.20808318705434,7.9339225531701,-0.146564432952091,383.136884298228,623.273563216812
0.63,2.06966197338444,-0.0350388652984311,10.0727403910112,1.80662570021833,-0.778563551199107,-1.91795912440782,-5.60827363446131,-8.55986344788303,2.73905368172185,403.72365674073,623.273563216812
0.64,2.01971108918077,0.0310071361677485,5.71518401287995,-1.49580198380179,1.01663096202957,1.74546721919832,1.4963291026488,5.71504602714538,-0.512057046281636,423.060429690249,623.273563216812
0.65,1.83185941846652,0.0294563941046213,8.62006132932894,-1.42546336788154,-0.878846248290703,-1.60754654055287,-2.75126925976413,-8.29264255800534,2.6573649622473,441.330503726293,623.273563216812
0.66,1.72845633893168,0.0514498126946965,7.59001369437388,-2.54389335658534,0.604562081293186,1.62009662942736,0.0320690878165615,8.00491554384359,-0.327402691640135,458.482646402584,623.273563216812
0.67,1.58692318940897,0.0415042971547278,8.96005045402217,-2.03725049604792,-0.121463567313742,-1.58281218645222,1.58289705529347,-9.05137175430408,3.09115165039487,474.141777646284,623.273563216812
0.68,1.50013219019737,0.0184418826575534,8.01803657256403,-0.871830625173933,-0.480539948074261,1.42120302891849,-3.48381476393078,7.27406583752054,0.338346991605436,488.784796930006,623.273563216812
0.69,1.40807949079805,0.017886368340744,7.57300174232728,-0.869735484922006,1.02827392383851,-0.962112525712182,6.18125013631373,-4.46082301322816,-2.31026426000633,502.683214754124,623.273563216812
0.7,1.31820493430113,-0.0304801563716774,7.37056702530432,1.56850763057664,-1.30812728738779,0.165518242921266,-7.05610984180906,2.6451442989005,1.42181612809407,515.39793087846,623.273563216812
0.71,1.19463469222151,-0.00430478656709232,9.18150210153821,0.235517218130719,1.02724030065637,0.609875350997227,8.03126386859287,4.45581079867865,-1.03862347076077,527.434270021037,623.273563216812
0.72,1.16255886806048,0.00436414269533603,6.57824878026489,-0.184077168909436,-0.316808880214561,-1.1185679688176,-1.59155614913462,-6.38546712804333,2.86934777148605,538.633799606726,623.273563216812
0.73,1.09607139671584,0.0361620820271776,6.03490973664397,-1.79238635771717,-0.564179436956133,0.940415740931112,-4.77937674321313,4.09760202206172,0.573345248983998,549.119480769129,623.273563216812
0.74,1.01997244516326,-0.0450432942417209,6.14377658221412,2.28870575985757,1.02039420103143,-0.0341813070242983,5.94781203810207,-2.75820534166257,-1.64841455563427,558.850674552431,623.273563216812
0.75,0.904055063981057,-0.0120618178551521,8.51942708850155,0.615174292850718,-0.544462876602176,-0.721817997948131,-5.70674783560445,-6.3554784609581,2.48200802534804,567.989712833607,623.273563216812
0.76,0.843796048054207,0.0512834711909811,8.31241557464737,-2.53352103384674,-0.276226156355071,0.798949858047799,-5.52756079406898,6.7053003797336,0.393574020486421,576.32883517669,623.273563216812
0.77,0.766665840591026,0.0361348298491446,9.13323752716736,-1.79814213442518,0.762748078918228,-0.085426021585486,9.23006759618888,1.20631464926751,-1.63523164485237,584.289874590934,623.273563216812
0.78,0.736788072822529,-0.00837600020766671,7.83887023522935,0.454860539587767,-0.324163042963824,-0.661698680072319,-3.9346030400015,-6.79512204399963,2.67469369683284,591.536462455777,623.273563216812
0.79,0.727851256922747,0.0255274167824079,5.59819090204868,-1.25276689026868,-0.479301555491105,0.548351274381133,-4.74346351218916,3.22625482032405,0.753365257797353,598.37230177731,623.273563216812
0.8,0.638423003616177,0.035049027570431,7.57419524823947,-1.75070988565835,0.589887156435475,0.246668823632828,6.05423098421771,4.87644398634226,-1.11988680666943,604.732844637605,623.273563216812
0.81,0.559202422441458,-0.0643587167103853,9.21905634587914,3.25344697569959,0.170489390618873,-0.536453876272143,-1.42355696232888,-9.67209401873184,-2.94846530981478,610.552872867561,623.273563216812
0.82,0.5559350996313,0.0462140467513349,7.17659033213728,-2.29212985236088,-0.554714872536197,0.0590845437178685,-7.22777958070877,-2.12520831640089,1.54762085077812,616.008720521351,623.273563216812
0.83,0.448407154597172,-0.0362652122015373,10.4923619014889,1.81756145121197,0.0540385038707063,0.446613907093555,3.87685963073009,9.91781968500955,-0.201110676858232,621.083961232064,623.273563216812
0.84,0.486122596784483,0.00736163440950294,6.72837586848912,-0.371376675237985,0.455222934199323,-0.170708678586144,6.46014337351874,-1.91716197963539,-1.91442472940935,625.685429428396,623.273563216812
0.85,0.43724757885222,-0.0155858066942744,7.37899545479482,0.806289440357279,-0.177527262006804,-0.39989052730317,-3.95721208998497,-6.28013925469739,2.68815974796549,629.944431007239,623.273563216812
0.86,0.428506319599586,0.0226608531372699,6.13034857548978,-1.12187232244276,-0.184533820371314,-0.387399599045816,-1.30346086636056,-6.09432202420739,2.74988592741139,633.938421737233,623.273563216812
0.87,0.370362140062269,-0.00647720563992921,7.46673669824611,0.320997756101642,-0.337336214716047,0.153017473595191,-6.60720472726144,3.49285587627255,1.12746126991999,637.607511382311,623.273563216812
0.88,0.272684045969084,-0.040726660119351,10.8921103023362,2.02875878813511,0.0869911886157758,0.261625271856067,6.73517312083154,8.797236616752,-0.469261917207514,640.976825525062,623.273563216812
0.89,0.318978131478393,-0.0142681715028729,7.21729677535451,0.7373062801107,0.290643184764842,-0.13220124140579,6.0945581178224,-3.93565174306853,-2.04238350745798,644.038206671566,623.273563216812
0.9,0.240981321085677,-0.0166801791053492,9.8316967960283,0.846728332241273,-0.0902898910321736,-0.224049014870815,-5.05745472382457,-8.47356846164105,2.68940239732011,646.886068000898,623.273563216812
0.91,0.290094817703653,-0.017574061356088,6.18544773052889,0.880096452099647,-0.272759882712612,0.100328945343132,-5.31222738859563,3.28855189467308,1.15782103683016,649.48002657815,623.273563216812
0.92,0.275141794236806,0.0354062198707794,5.78900851439138,-1.78342905044415,0.12888374729988,0.245653387974454,0.341173874862522,6.04787889633839,-0.355197800179806,651.93472632275,623.273563216812
0.93,0.244208725794418,0.0382041846654531,6.29102391867266,-1.91594675485419,0.224086068049369,-0.104321117642877,6.57555791140885,0.0993582732153773,-1.85131533878679,654.100785342523,623.273563216812
0.94,0.177474839294798,0.0249286412394328,8.6426484812437,-1.23089502708691,-0.0580994946296879,-0.169538209441216,-0.428730022304422,-8.71932714755136,2.95099248879928,656.107726745654,623.273563216812
0.95,0.172837078539732,0.0549536760784068,7.96434336942639,-2.74184017987821,-0.167426210654883,0.0697210600781913,-8.1719409243936,-2.04152746891679,1.4840510137682,657.897582949715,623.273563216812
0.96,0.180410208377658,0.00132936272216354,6.70634138885164,-0.0674463950020275,-0.00406909225766823,0.180369212950314,-0.26806942752955,6.70132096097831,0.0299243904107918,659.58368625492,623.273563216812
0.97,0.161853951276129,-0.0225880855101991,6.81943142588837,1.11946846473243,0.15627200364264,0.0478119653248665,6.91063704785939,-0.0308254550245342,-1.41254944845581,661.111682183431,623.273563216812
