t,iq,id,vq,vd,ia,ib,va,vb,theta_e,omega,r
0,0,0,0,0,0,0,0,0,0,0,0
0.01,0.000548791439685986,0.000305838359090001,-0.0266615579600436,-0.015305272592836,-0.000427738777896805,0.000460161584714358,0.0206427204500324,-0.0227808721171863,1.25732432566012,-0.00191241899536651,0
0.02,0.000627525690072787,0.000348612700584771,-0.0306172659507202,-0.0174458564180202,-0.000489438654257518,0.000525137230092215,0.0237452115686441,-0.0260372772773122,1.25731002021002,-0.00199367824451634,0
0.03,0.000656468432089977,0.000365390236856737,-0.0320852120773297,-0.0182854620766159,-0.000511789351503161,0.000550029533033335,0.0248823195266411,-0.0272889928794875,1.25729603167961,-0.00189231855290881,0
0.04,0.000639454937734369,0.000357266696427932,-0.0313335502738186,-0.017878935983266,-0.000498103714811235,0.000537061261925157,0.0242923346021597,-0.0266707743463206,1.25728373997956,-0.00164351772531295,0
0.05,0.000653480297563219,0.000366177327987151,-0.0320693537283398,-0.0183248505659733,-0.00050869116139144,0.000549868745390526,0.0248544428170677,-0.0273221571086865,1.25727245082367,-0.00152659691987689,0
0.06,0.000653092599198638,0.000366990661792783,-0.0321061081038507,-0.0183655499586306,-0.000508065893978436,0.000550528052279836,0.0248765735867835,-0.02737246224658,1.25726223171128,-0.00137152007367479,0
0.07,0.000665898998801168,0.000375327264896249,-0.0327706290829399,-0.0187827576248909,-0.000517671739897323,0.000562412661744537,0.0253797719481071,-0.027974511440758,1.25725326900155,-0.00128498487251177,0
0.08,0.000651285111148033,0.000367824434534117,-0.0321126430342134,-0.0184072784944701,-0.000506079867543535,0.000550772437863921,0.024869447054792,-0.0274146009893394,1.25724498281982,-0.0011054260242653,0
0.09,0.000648493394081465,0.000367136309738141,-0.0320176662239952,-0.0183728501861549,-0.000503632524982606,0.000549260440843033,0.0247895216265823,-0.0273527364612622,1.25723773256895,-0.000985931585760583,0
0.1,0.000647056829695222,0.000367071995103019,-0.0319834998252159,-0.0183696312497063,-0.000502282305833419,0.000548759396904332,0.0247578377975494,-0.0273392955452405,1.25723128820664,-0.000883651039176223,0
0.11,0.000645885170347451,0.000367064913796291,-0.0319582471297172,-0.0183692669743,-0.000501166813883424,0.000548394136435622,0.0247337719436606,-0.0273313017292659,1.25722554964805,-0.000792977067448147,0
0.12,0.000644852568718071,0.000367063199918018,-0.0319362799946633,-0.0183691799709724,-0.000500182291133801,0.000548076549172186,0.0247127631430597,-0.0273245693568725,1.25722043851076,-0.000712258414074237,0
0.13,0.000673377306988473,0.000383534495956118,-0.0333348484800912,-0.019193475533211,-0.00052223248669933,0.000572546012990394,0.0257887287146039,-0.0285402014274457,1.25721553159614,-0.000745844847084732,0
0.14,0.000693941624258104,0.000396034427899689,-0.0344436400332623,-0.0198190086218485,-0.000537935546787648,0.000590782187834133,0.0266503629291029,-0.0294773743274558,1.25721108530954,-0.00075639700751243,0
0.15,0.000647383916353298,0.000369711541325896,-0.0321306235432451,-0.0185017171214137,-0.000501765902473877,0.000551383295047175,0.0248563786224613,-0.0275109241483342,1.2572070425743,-0.000520411723679593,0
0.16,0.000642053438922492,0.00036730195084853,-0.031891248894765,-0.0183811377344645,-0.000497436957807311,0.000547448458338081,0.0246657875745053,-0.0273224615254663,1.25720390181382,-0.000453138538741472,0
0.17,0.000641016343709244,0.000367080862171844,-0.0318562613384125,-0.0183700759191472,-0.000496517136963336,0.000546919596446245,0.0246358435489536,-0.0273012140456784,1.25720115160736,-0.000407893388087702,0
0.18,0.000640473673852094,0.000367060117518387,-0.0318433982242136,-0.0183690355016741,-0.00049600599545163,0.000546733673049546,0.0246238619764759,-0.027296316548045,1.25719870687569,-0.000369100714672245,0
0.19,0.000640029434035331,0.000367057763176508,-0.0318338174363088,-0.0183689130371055,-0.000495582957580756,0.000546595472077146,0.0246147268050629,-0.0272932981342508,1.25719652987496,-0.000334703166730778,0
0.2,0.000639637580623406,0.000367057141525336,-0.0318254650978165,-0.0183688886689712,-0.00049520934731826,0.000546474960102599,0.024606736417337,-0.0272907460966734,1.25719459089278,-0.000304081490078261,0
0.21,0.000639289267121243,0.000367056722732347,-0.0318180580415148,-0.0183688576968052,-0.00049487720713463,0.000546367966317623,0.0245996530397343,-0.0272884741409881,1.25719286386545,-0.000276808691104803,0
0.22,0.000638978904444344,0.000367056361976354,-0.0318114521732389,-0.0183688433468411,-0.000494581252416385,0.000546272640675378,0.0245933318056022,-0.0272864604881361,1.25719132561958,-0.000252517241371771,0
0.23,0.000638702476832046,0.000367056041706817,-0.0318055666057529,-0.0183688274670675,-0.000494317657297233,0.00054618773818994,0.0245877008071237,-0.0272846634329113,1.25718995551884,-0.000230881100182088,0
0.24,0.000638456258997109,0.000367055756486745,-0.0318003218390841,-0.018368812975183,-0.00049408286973781,0.000546112113813904,0.024582683018435,-0.0272830616830613,1.25718873518357,-0.00021161000110085,0
0.25,0.00063823699130744,0.000367055502404354,-0.0317956499538752,-0.0183687969674922,-0.000493873781288916,0.000546044766547463,0.0245782142805393,-0.0272816319307004,1.25718764824283,-0.000194445420477248,0
0.26,0.00064425043773912,0.000370544860805573,-0.0320897766780963,-0.0185434285582359,-0.000498516988212469,0.000551219496081224,0.0248040978099956,-0.0275385047120693,1.2571867429075,-0.000203467276873788,0
0.27,0.000627279064583892,0.000360876343396326,-0.0312791957624139,-0.0180595772615401,-0.000485355486380008,0.000536787492336745,0.0241822889085017,-0.026828218754787,1.25718568528648,-0.000123699082628314,0
0.28,0.00062673998639653,0.000360608242363771,-0.0311662787138197,-0.0180461539368864,-0.00048492499903676,0.000536366535419771,0.024078999842197,-0.0267806341855597,1.25718492073346,-0.000110177241340956,0
0.29,0.000636449693936938,0.000366464767960873,-0.0317274307761369,-0.0183392425540538,-0.000492354102859528,0.000544933093568768,0.0245223502047672,-0.0272325544440056,1.2571843608488,-0.000138302070496472,0
0.3,0.000630297086916321,0.000363290636152415,-0.0314315350785924,-0.0181803978422178,-0.000487480790850166,0.000540015724440801,0.0242898895159492,-0.026990174701196,1.25718435404045,-0.000115045171125676,0
0.31,0.000636717521222981,0.000366710133825844,-0.0317432285271363,-0.018351513411232,-0.000492532877160922,0.000545249382391663,0.0245335771524941,-0.0272491136353322,1.25718381917432,-0.000131166827714078,0
0.32,0.000637278369308394,0.000367022955506443,-0.0317731236463241,-0.0183671743161325,-0.00049296956971961,0.000545720233441562,0.0245571680220312,-0.0272732465493481,1.25718327711487,-0.000125129419425032,0
0.33,0.000637248393943733,0.000367051480616297,-0.0317743164123399,-0.0183686077225717,-0.000492931989308771,0.000545738361234191,0.0245578470563879,-0.0272749900291874,1.25718278756598,-0.000117657652101376,0
0.34,0.000637167427801477,0.000367053999403607,-0.0317727703482423,-0.0183687237914113,-0.000492853956918603,0.000545715994523717,0.0245563286829381,-0.0272746342036482,1.25718235083736,-0.000110787582053695,0
0.35,0.000637089604171905,0.000367054148224744,-0.0317711166490473,-0.0183687357283742,-0.000492779670927349,0.000545692319346388,0.0245547413492832,-0.027274144948211,1.25718196177631,-0.000104646397534747,0
0.36,0.000637019754978917,0.000367054089081641,-0.0317696159911029,-0.0183687360025257,-0.000492713057794362,0.000545670885446422,0.0245533043502905,-0.027273690766646,1.2571816152362,-9.91742370083129e-05,0
0.37,0.000636957414574175,0.0003670540188568,-0.0317682709254964,-0.0183687362558688,-0.000492653611307711,0.00054565173875414,0.0245520163943848,-0.0272732836344153,1.25718130657561,-9.43000039885394e-05,0
0.38,0.000636902059658231,0.000367053954699408,-0.031767079220633,-0.0183687213053521,-0.000492600826138418,0.000545634736197321,0.0245508799297843,-0.0272729085225061,1.25718103165459,-8.99585480739043e-05,0
0.39,0.000636852641354194,0.000367053897405746,-0.0317660098503988,-0.0183687215239514,-0.000492553702307727,0.000545619556782482,0.0245498559729848,-0.0272725848416649,1.25718078678501,-8.60916530004681e-05,0
0.4,0.000636808636362612,0.000367053846359402,-0.0317650556998371,-0.0183687217273605,-0.000492511740435729,0.000545606040111554,0.0245489423507752,-0.0272722960340576,1.25718056868211,-8.26474468608463e-05,0
0.41,0.000636769404399218,0.000367053800889986,-0.0317642017500379,-0.0183687219173691,-0.000492474330076762,0.000545593989466678,0.0245481246964095,-0.0272720375400203,1.25718037441999,-7.95797258764355e-05,0
0.42,0.000636734479802725,0.00036705376038968,-0.0317634398692022,-0.0183687220952921,-0.000492441027046636,0.000545583261901523,0.0245473952032164,-0.0272718069162203,1.25718020139283,-7.68473365857967e-05,0
0.43,0.000636703396911846,0.000367053724315274,-0.031762760235091,-0.0183687222624367,-0.000492411387296724,0.000545573714390011,0.0245467444643004,-0.0272716011908131,1.25718004727911,-7.44136239806789e-05,0
0.44,0.000636675807049977,0.000367053692183338,-0.0317621574290123,-0.0183687072406853,-0.000492385078177639,0.000545565239926593,0.0245461719513292,-0.0272714043051535,1.25717991001155,-7.22459397990566e-05,0
0.45,0.00063665112700179,0.00036705366356313,-0.0317616129789728,-0.0183687073904491,-0.000492361544048303,0.000545557659088511,0.0245456506768549,-0.0272712394854324,1.25717978774869,-7.03152045509063e-05,0
0.46,0.00063662918271366,0.00036705363807107,-0.0317611277047003,-0.0183687075324786,-0.000492340618567539,0.000545550918624837,0.024545186058683,-0.0272710925859719,1.25717967885029,-6.85955174157024e-05,0
0.47,0.000636609566731964,0.000367053615365013,-0.0317606897197649,-0.018368707667924,-0.000492321913463862,0.00054554489323104,0.0245447667499576,-0.0272709599767776,1.25717958185574,-6.70638087861288e-05,0
0.48,0.000636592162641379,0.000367053595140697,-0.0317603007617781,-0.0183687077971145,-0.000492305317383619,0.000545539547345518,0.0245443943679319,-0.0272708422261912,1.2571794954635,-6.56995307858424e-05,0
0.49,0.000636576621195939,0.000367053577126897,-0.0317599500904323,-0.0183687079210361,-0.000492290497566845,0.000545534773539027,0.024544058664255,-0.0272707360502187,1.25717941851481,-6.44843816209381e-05,0
0.5,0.000636562767771018,0.00036705356108196,-0.0317596349848796,-0.0183687065849893,-0.000492277287417641,0.000545530518218712,0.0245437574714154,-0.0272706392510803,1.25717934997752,-6.34020600605584e-05,0
0.51,4.71808148652654,-0.025872992491958,4.09685427494107,1.30450731774667,-0.593175594760654,4.68071629550706,0.802267333671896,4.22401721320836,0.120571839532826,37.3539070512456,735.968129193863
0.52,4.69717691277679,0.00430919568406885,5.14318620125639,-0.193929638744666,-2.45280944717558,4.00589756920181,-2.85502799634278,4.28238113036156,0.55033166672978,80.0498298126385,735.968129193863
0.53,4.66094570309675,0.0314771416525348,6.95598625425346,-1.54069331562915,-4.48331860616536,1.27485682853963,-7.11482077683416,0.372566739949261,1.30050652399568,125.434185526798,735.968129193863
0.54,4.45357024471576,0.0348388991950661,5.3351331217464,-1.70670648021036,-3.0608095983995,-3.23526602860726,-2.3872167464937,-5.06731572349775,2.39171868957517,170.724276578519,735.968129193863
0.55,4.1589462304207,0.0658227896574877,6.60935135691363,-3.24200589044198,2.45089761768562,-3.36069446019596,6.56733211027008,-3.32630072395928,-2.49565726887583,209.983663606755,735.968129193863
0.56,3.87595837467768,0.057454508456998,6.98683012846854,-2.82761819789193,2.84130825030353,2.63691519953395,3.09619412647246,6.87203040216811,-0.807868744647698,249.295575935111,735.968129193863
0.57,3.6432769444292,0.0282000482515714,6.36735751877255,-1.36592814192367,-3.31139627718178,1.5195120374638,-6.36758551351832,1.3648648976364,1.14832787963333,285.061435578491,735.968129193863
0.58,3.38656669012009,0.0147069350944908,7.76827054769496,-0.670142754036229,0.719060345357343,-3.30938097841657,2.33658905512466,-7.43878149971108,-2.92329611794276,317.774419313693,735.968129193863
0.59,3.11488298580462,0.0116528609498754,10.3739518964072,-0.518748943609086,1.43391566719889,2.76523374487311,4.27965488013177,9.46427665077635,-0.474637289452287,349.092649354169,735.968129193863
0.6,2.97820305183387,0.0599006837155602,6.95298583330404,-2.93351336919811,-2.4512561252366,-1.69252028594999,-3.92601440588718,-6.44483697002159,2.19520836487849,378.437868872395,735.968129193863
0.61,2.72584511980457,0.0531669464750928,10.012320059023,-2.59735549965445,2.57005367706538,0.909880452786295,8.45692125414288,5.95594589105089,-1.21103204007071,405.780002210307,735.968129193863
0.62,2.55156690484293,0.0720735050705772,9.81640748292286,-3.54089735536326,-2.4665718146508,-0.657047748031425,-8.40281218130434,-6.188098043642,1.85937120733104,431.269227652232,735.968129193863
0.63,2.36823075093159,0.0558604436456718,10.6705487889123,-2.72695399023554,2.20484412670951,0.866198392827448,8.78014581529434,6.64875394217507,-1.17287588464996,455.06775584877,735.968129193863
0.64,2.19511427718628,0.0076726832362195,11.4784749639609,-0.34190286318844,-1.71716727837949,-1.36745094904273,-8.74021733604864,-7.44854925369823,2.24679760331091,477.562178333403,735.968129193863
0.65,2.06965621125511,0.0666560203619309,10.3038150041859,-3.29630244283309,0.975917046146721,1.82633670961233,1.6052874272734,10.6984702509729,-0.458559291858802,498.520329187391,735.968129193863
0.66,1.9337482276898,-0.00225631314741798,10.2598513346486,0.167585004338434,0.244093683731417,-1.91828193251276,1.11693685519738,-10.2002493206917,-3.01619364500552,517.782661359207,735.968129193863
0.67,1.78340158934749,0.00724988351910283,11.4228616214331,-0.299079726035251,-1.33140902738062,1.18655964515383,-8.75663653941491,7.34115337133874,0.846926294124506,535.920685233394,735.968129193863
0.68,1.70351862796271,0.0477607791276133,9.31246753957138,-2.35586669583119,1.69592888378901,0.167576934477887,8.94076068185585,3.51211588559912,-1.44427554099479,553.032464778554,735.968129193863
0.69,1.55499290289675,0.0167705473549352,11.1961421580498,-0.781612300345918,-0.724892557639627,-1.37579611832441,-4.41649869643002,-10.3178997996561,2.66745010205302,568.606290008149,735.968129193863
0.7,1.48175219988905,-0.00225464088975263,9.56243009963976,0.137909098229869,-0.848124741801141,1.21502225807856,-5.34819233126442,7.92817299998401,0.607882513939871,583.541075158149,735.968129193863
0.71,1.38400085507257,0.0561448998814718,9.56361287798408,-2.75594526960459,1.36200759008515,0.252083202880985,8.71463581482907,4.8076031683051,-1.34724032684798,597.132819117015,735.968129193863
0.72,1.26238501628784,-0.00191773468280748,11.0036820442569,0.116731032477662,-0.0780402342817827,-1.25997195559568,-0.813423270890628,-10.9741964283231,3.0782144692135,610.103870223634,735.968129193863
0.73,1.19595502749048,0.0113868004811664,10.0646088037033,-0.516061865702728,-1.15298685839871,0.317898397864502,-9.86002439202113,2.08388800312371,1.311284197372,621.943930345136,735.968129193863
0.74,1.11737586721542,-0.0144945175873896,9.91093422731161,0.753034380752827,0.391357009692303,1.04669891116796,4.29296141842966,8.96460597553328,-0.370774024648887,633.213473848868,735.968129193863
0.75,1.05382249652005,0.0113768498941874,9.35282558813418,-0.557848000749392,0.964954982304057,-0.423713545938577,8.8224642561115,-3.15446751824019,-1.97375513119354,643.636043190244,735.968129193863
0.76,0.961519835301339,0.0375195121810767,10.4175826860644,-1.83386615692282,-0.374940237585522,-0.886198581420402,-1.96651960936502,-10.3933582026445,2.78034362160956,653.296854998853,735.968129193863
0.77,0.88454834805359,-0.00413864000572778,10.9203217741143,0.224811988990898,-0.857973006673665,0.215232962635335,-10.5238464094202,2.92448710572011,1.32032759962858,662.452584521299,735.968129193863
0.78,0.785940384580206,-0.0183836469379969,12.7856422332124,0.921769199840577,0.0411402980877068,0.785078163281898,1.88660188493289,12.6792365346359,-0.0757412905834855,670.893425173538,735.968129193863
0.79,0.774286053998966,0.00639706647789967,10.4756710385957,-0.277306213774775,0.765548261157205,0.116170890140314,10.2998937470584,1.93100265260799,-1.41193497783828,678.684414467333,735.968129193863
0.8,0.697605708537484,0.0452523978299779,11.5828384318835,-2.23978617207857,0.262048767290418,-0.648098717523048,7.04562691704258,-9.46244839254603,-2.69257770269404,685.998688120739,735.968129193863
0.81,0.645101128423583,-0.011897835065077,11.6727244626007,0.599313408395588,-0.445278478544925,-0.466930509730659,-8.63609809051952,-7.87587980559661,2.36148458388501,692.850964103631,735.968129193863
0.82,0.59724262584084,-0.0191624481007324,11.7055369865018,0.953557530457275,-0.559624227129814,0.209491474642367,-10.4625935694753,5.335072999147,1.18052782235876,699.195725720454,735.968129193863
0.83,0.543128120436341,-0.00820032755484745,12.1812786583344,0.446838081584172,-0.0324386195172206,0.542220560791027,-0.0974072221618653,12.1890822401122,0.0446571026117954,705.074687122749,735.968129193863
0.84,0.51835942792169,0.0074062940072884,11.3306967054346,-0.341380542360509,0.453203729227773,0.251709613483997,9.65585409592796,5.93849393225253,-1.04952927724736,710.557712584756,735.968129193863
0.85,0.467399158016332,0.0449463171104755,11.9191594792702,-2.23633609842705,-0.146163777424941,-0.446226729931146,-0.426838183608019,-12.1196275108775,2.92091943973146,715.690919842236,735.968129193863
0.86,0.431229680025834,0.0263450901798615,11.9043992107452,-1.32094325860505,-0.416380125287945,-0.115241884646873,-10.8287626178051,-5.11835049879087,1.90182524988478,720.45965304684,735.968129193863
0.87,0.405629390133216,-0.0337128579790693,11.4794960206179,1.67509055304944,-0.342315591615067,0.220208525425761,-8.08700213580003,8.31776133967928,0.916230065401582,724.866157200303,735.968129193863
0.88,0.37821951818174,0.0155370087147436,11.2616746149027,-0.791113468180005,0.0299972627787203,0.37734807114813,-0.359634114701739,11.2836979290932,-0.0382718612813523,728.926263410037,735.968129193863
0.89,0.307895859852646,0.0075274440453591,13.2919007269507,-0.348672439928324,0.25724212537982,0.169360597124387,10.7211056799503,7.86473714785281,-0.964116165447377,732.684355514827,735.968129193863
0.9,0.315608428572689,0.0379180815958523,11.5147383396774,-1.87081216227309,0.291274396237316,-0.127301560063571,11.565160542677,-1.52846288795408,-1.86325954610998,736.190304252592,735.968129193863
0.91,0.303087269273378,-0.00106948528087077,10.8364226942422,0.0733705167425374,0.120086395691812,-0.278284556100601,4.19087600115954,-9.99349780526916,-2.73773795518531,739.434538863823,735.968129193863
0.92,0.287120424970185,0.0233458795103823,10.4158736766458,-1.15807747634214,-0.145349126399852,-0.24871027316935,-3.46547939693346,-9.89050152613525,2.69384612578047,742.433368823482,735.968129193863
0.93,0.291781683570635,0.0349004069479237,9.05388630054047,-1.7454846692136,-0.289451232989711,-0.0507205381791352,-8.16596380531146,-4.28212669171725,1.86331094083709,745.175086763568,735.968129193863
0.94,0.214285668318023,0.0287064128196574,11.8428604845203,-1.44684618712481,-0.171911834187121,0.131105785722424,-11.0039128932951,4.61092283407379,1.05242889127728,747.80594763215,735.968129193863
0.95,0.229516069579385,0.0202385645575437,10.0731836968281,-1.02886227315917,-0.0394121066793602,0.227010818107009,-3.58249735818571,9.47065467883641,0.259851700329601,750.200051942913,735.968129193863
0.96,0.153692393653837,-0.0303220546341742,12.9294003194866,1.49453749207831,0.0494449692130147,0.148647145562261,7.67842370961877,10.5092742029282,-0.515909215986982,752.382024942717,735.968129193863
0.97,0.165407371133794,-0.0403031441588076,11.4721008492814,1.9931225969296,0.146585461869772,0.0865831636226352,11.5566867168798,1.42289413182042,-1.27627041935268,754.379200903422,735.968129193863
