t,iq,id,vq,vd,ia,ib,va,vb,theta_e,omega,r
0,0,0,0,0,0,0,0,0,0,0,0
0.01,0.00123625179136426,0.000648337556677645,-0.0578848871611401,-0.0324636783634115,-0.000170412051577652,-0.00138550345063705,0.00995031681726479,0.0656166272356101,-2.78096805049156,-0.00899259900406756,0
0.02,0.00132149013812453,0.000717090759066042,-0.0637838747306227,-0.0359063097574372,-0.000204745739391442,-0.001489508148383,0.0110938840318308,0.0723503385834309,-2.7810217721684,-0.00639630954548972,0
0.03,0.00133923927840748,0.000741812245983313,-0.0654583947178334,-0.0371441668304432,-0.000221669693002438,-0.00151482995756105,0.0116640176497684,0.0743534885585698,-2.781057561466,-0.00425613381834582,0
0.04,0.00128757615939063,0.000727642498899747,-0.063645591659877,-0.036434645978338,-0.000226663117353022,-0.00146148547843213,0.0116409483897575,0.0724067198945625,-2.78107584235722,-0.00252430409719004,0
0.05,0.00130660761304245,0.00074204865585258,-0.064806711696179,-0.0371560179846132,-0.000233448970437018,-0.00148437233884056,0.0119073111908673,0.0737475117786927,-2.78108884187505,-0.00187928531358809,0
0.06,0.00129943112810507,0.000742386867556485,-0.0646899087027824,-0.0371729531509571,-0.00023630865392075,-0.00147777458967561,0.011964944465453,0.0736440957434892,-2.78109678493284,-0.00128739860143254,0
0.07,0.00133532413437975,0.000763207209739078,-0.06637043491854,-0.0382154759526794,-0.000243136181547689,-0.00151870358729976,0.0123479842352906,0.0755842875132854,-2.7811009410054,-0.00139465268918895,0
0.08,0.00129302241553175,0.000742885445220116,-0.0645969356329407,-0.037197908316503,-0.000239046916001546,-0.00147195187548289,0.0120216471721652,0.0735658105070366,-2.78110434888536,-0.000728231446984705,0
0.09,0.0012899777766763,0.000742402674562138,-0.0644967769431345,-0.0371737335443559,-0.000239671093427692,-0.00146893232059579,0.0120344542956207,0.0734635461401492,-2.78110569595462,-0.000608633390638563,0
0.1,0.00128911071982295,0.000742390880760134,-0.0644772467682329,-0.037173129759162,-0.000239966988468073,-0.00146811665484859,0.0120408329197069,0.073445049319221,-2.78110644105304,-0.000551072412965607,0
0.11,0.00128865122852798,0.000742390407265507,-0.0644676174334229,-0.0371731169385591,-0.000240129244944359,-0.00146768642812727,0.0120442486692069,0.0734360292667317,-2.7811068658874,-0.000518619444367457,0
0.12,0.0012883901089618,0.000742390285329397,-0.0644621525545824,-0.0371731179569219,-0.000240221591498766,-0.00146744199053995,0.0120461950693493,0.0734309130745401,-2.78110710865799,-0.000500089380175501,0
0.13,0.00135718869678142,0.000777968535652794,-0.0675494803403968,-0.0389545958612691,-0.000249249842314022,-0.00154436741653126,0.0126243800846183,0.0769481504680363,-2.78110969814423,-0.00105523829014233,0
0.14,0.00142977718945941,0.000822731827152599,-0.0716371293321041,-0.0411959847275213,-0.000265533824407248,-0.00162807931594378,0.0132799686741732,0.0815636554393423,-2.78111070713094,-0.00175299954193746,0
0.15,0.00128960238099939,0.00074429445253323,-0.064626585121439,-0.0372684741554429,-0.000241582310249672,-0.0014692469229253,0.0120777501184672,0.0736183579170942,-2.78111156240342,-0.00022327880227086,0
0.16,0.00128565145236843,0.000742434193280092,-0.0644110262469659,-0.0371753193262053,-0.000241232748685288,-0.00146489417682311,0.0120664924875763,0.0733838158468196,-2.78110988623132,-0.00029070414491916,0
0.17,0.00128653992560329,0.000742390534723354,-0.0644238156203731,-0.0371731379822621,-0.000240876973311119,-0.00146571039770707,0.0120598633226429,0.0733950264198828,-2.78110883876801,-0.000368148497677687,0
0.18,0.00128717788149369,0.000742389773858907,-0.0644367259760568,-0.0371730862825138,-0.000240650353822003,-0.00146630722638273,0.0120552168963596,0.0734070960048303,-2.78110823639387,-0.000414019249108404,0
0.19,0.00128754784938549,0.000742389912991209,-0.0644443094348296,-0.0371730850254612,-0.000240519480966134,-0.00146665354690332,0.0120525155383845,0.0734141957528599,-2.78110789195317,-0.000440303082523894,0
0.2,0.00128775925433026,0.000742390006117,-0.064448613409675,-0.0371731179519181,-0.000240444710905943,-0.00146685144418001,0.0120510137625764,0.0734182370803818,-2.78110769508068,-0.000455328348257885,0
0.21,0.00128788020984933,0.000742390059660722,-0.0644510533289276,-0.0371731175979998,-0.000240401931533342,-0.00146696467132636,0.012050144541835,0.0734205214070554,-2.78110758255657,-0.000463916150548633,0
0.22,0.00128794947696564,0.000742390090269727,-0.0644524283149378,-0.0371731174297179,-0.000240377433360903,-0.00146702951261302,0.0120496546659981,0.0734218087325965,-2.78110751824224,-0.000468824512660932,0
0.23,0.00128798894175963,0.000742390107764787,-0.0644531816435465,-0.0371731173684664,-0.000240363475455077,-0.00146706645584624,0.0120493861893976,0.073422514062953,-2.78110748148212,-0.000471629886660142,0
0.24,0.00128801152633201,0.000742390117764189,-0.0644535872938699,-0.0371731173678613,-0.000240355487769392,-0.00146708759739055,0.012049241561788,0.073422893893383,-2.78110746047083,-0.000473233297860724,0
0.25,0.0012880244484327,0.000742390123480066,-0.0644537935025025,-0.0371731174019551,-0.000240350917507042,-0.00146709969383632,0.0120491679762326,0.0734230870048604,-2.78110744846043,-0.000474149727347028,0
0.26,0.00130332206386335,0.000749697957655924,-0.0651250776498244,-0.0375390352748604,-0.000241793097416625,-0.00148399175466313,0.0121547834952108,0.0741802948662744,-2.78110741665698,-0.000637090597668021,0
0.27,0.00125289916688275,0.000723233426554693,-0.0629290601699278,-0.0362138864884815,-0.000234816250978511,-0.00142747477733861,0.0116894610818278,0.0716579980747959,-2.7811081967569,-5.61072073693066e-05,0
0.28,0.00124776289758412,0.000718061249855717,-0.0618921750561614,-0.0359549036323762,-0.000231788175932673,-0.00142084427318045,0.0118128601557406,0.0705964075809591,-2.78110816968042,-3.85278969933406e-06,0
0.29,0.0012866174113277,0.000741812985252692,-0.0643865138092856,-0.0371442154849946,-0.000240306870511771,-0.00146557957006979,0.0120458398603041,0.0733499396493886,-2.78110723989461,-0.000472908438325294,0
0.3,0.00128170669220771,0.000739075506502984,-0.0640982867164833,-0.0370071382084177,-0.000239473252220339,-0.00146001959255131,0.0120190269664398,0.0730319219872065,-2.78110433612023,-0.000610052050413954,0
0.31,0.00128970687176494,0.000742312363047399,-0.0644791421592621,-0.0371692108682229,-0.000239681873451644,-0.00146864701645747,0.0120364291529695,0.0734454517543891,-2.78110551245923,-0.000617704756967994,0
0.32,0.00128921164647347,0.000742388789174656,-0.0644777296454135,-0.0371730571255447,-0.00023992926678204,-0.00146821038364278,0.0120405863879651,0.0734454768908201,-2.78110632883755,-0.000559422537063735,0
0.33,0.00128871956431753,0.000742390387047786,-0.0644678622034362,-0.0371731155433855,-0.000240105027353796,-0.00146775038002896,0.0120441562896898,0.0734362585890148,-2.78110680138827,-0.00052352273322295,0
0.34,0.00128842957375579,0.000742390301693804,-0.0644618176973347,-0.0371731195756856,-0.00024020763224263,-0.00146747893340584,0.0120463119853706,0.0734306007559774,-2.78110707171931,-0.000502897257320609,0
0.35,0.00128826333267247,0.000742390229201839,-0.0644583141631807,-0.037173117342858,-0.000240266429127859,-0.00146732331466412,0.0120475570386425,0.0734273197600583,-2.78110722623573,-0.000491104350431537,0
0.36,0.00128816845418543,0.000742390187203683,-0.064456292312573,-0.0371731177641013,-0.000240299985751858,-0.00146723449838888,0.0120482770815808,0.073425426947026,-2.78110731454893,-0.000484363933287519,0
0.37,0.00128811408823027,0.000742390163185329,-0.0644551034781187,-0.0371731180398516,-0.000240319213749547,-0.00146718360616333,0.012048700381336,0.0734243140131423,-2.78110736502309,-0.000480511441085696,0
0.38,0.00128808312175475,0.000742390149457751,-0.0644544029706628,-0.0371731182315572,-0.000240330165982025,-0.00146715461825958,0.0120489497676378,0.0734236582503137,-2.78110739387025,-0.000478309549294309,0
0.39,0.00128806531021055,0.000742390141611588,-0.064453970609416,-0.0371731183760265,-0.00024033646546466,-0.00146713794480881,0.0120491036193818,0.0734232535310643,-2.78110741035676,-0.000477051058279301,0
0.4,0.00128805518207758,0.000742390137128105,-0.0644536997774202,-0.0371731184929073,-0.000240340047571421,-0.00146712846380791,0.0120491999506273,0.07342300003429,-2.78110741977833,-0.000476331767881643,0
0.41,0.00128804947772683,0.000742390134566261,-0.0644535228341723,-0.0371731185939009,-0.000240342065158966,-0.00146712312390228,0.0120492628533167,0.0734228344346844,-2.78110742516211,-0.000475920657536471,0
0.42,0.0012880461016825,0.000742390133102139,-0.064453389554275,-0.0371731186865358,-0.000240343259127962,-0.00146711996359488,0.0120493101774255,0.0734227097168621,-2.78110742823792,-0.000475685687463533,0
0.43,0.00128804423903736,0.000742390132266167,-0.0644532903627076,-0.0371731187737355,-0.00024034391793058,-0.00146711821995274,0.012049345375671,0.0734226169103468,-2.78110742999455,-0.000475551390343497,0
0.44,0.00128804307488414,0.000742390131788787,-0.0644532023337469,-0.0371731188584237,-0.000240344329585053,-0.00146711713021513,0.0120493765788579,0.0734225345571663,-2.78110743099745,-0.000475474632843365,0
0.45,0.00128804249280754,0.00074239013151667,-0.0644531298128433,-0.0371731189410197,-0.00024034453548457,-0.00146711658531758,0.0120494022783215,0.0734224667197283,-2.78110743156949,-0.000475430762101102,0
0.46,0.00128804214356157,0.000742390131361483,-0.0644530611827022,-0.0371731190227764,-0.000240344659006086,-0.00146711625838611,0.0120494265865281,0.0734224025256497,-2.78110743189515,-0.00047540568778164,0
0.47,0.00128804202714625,0.000742390131273326,-0.0644529997297206,-0.0371731191036971,-0.000240344700258002,-0.00146711614937773,0.0120494483520376,0.0734223450488241,-2.78110743208016,-0.00047539135656322,0
0.48,0.00128804179431561,0.000742390131223919,-0.0644529299702956,-0.037173119185036,-0.00024034478249092,-0.00146711593146957,0.0120494730419391,0.073422279800564,-2.78110743218457,-0.000475383165554003,0
0.49,0.00128804179431561,0.000742390131196094,-0.0644528703446276,-0.0371731192655388,-0.000240344782550679,-0.0014671159314457,0.0120494941532223,0.0734222240349801,-2.78110743224305,-0.000475378483980304,0
0.5,0.00128804179431561,0.000742390131180537,-0.0644528098707185,-0.0371731193460416,-0.000240344782583443,-0.00146711593143246,0.0120495155617788,0.0734221674759911,-2.78110743227531,-0.00047537580822752,0
0.51,4.15218606032922,0.066426490216822,7.9969652392973,-3.28655675224647,-2.0370399510403,3.6187746263149,-6.87156296322155,5.24733558739557,0.528696512415669,159.442281562734,680.225621539739
0.52,2.94888675059058,0.0231103162294801,9.20388214155056,-1.12156630811522,-2.2748440228601,-1.87657982142582,-6.33330078576468,-6.77190214165008,2.2683896227902,308.338048837318,680.225621539739
0.53,2.08116183822629,-0.0612454760393409,12.0634517221549,3.09207460675509,2.02559132126553,0.481627869250196,12.439731730649,-0.583838415990471,-1.3667795580289,410.908596547907,680.225621539739
0.54,1.46210732424899,0.0835105826830966,13.5366812932327,-4.16169763489814,-1.39934780758395,-0.431923093215205,-11.2336704637649,-8.62357904529259,1.92723387747666,484.879894695485,680.225621539739
0.55,1.05015844104798,0.063332451680955,13.1048388571901,-3.13357000241073,0.644164958243474,0.831802414826639,4.7971060742292,12.5914191315166,-0.598713441177625,537.691691973162,680.225621539739
0.56,0.675588851678865,0.0998216096367044,16.7690047197863,-4.97200151913391,0.137729818461922,-0.668890983172651,10.4172901099757,-14.0499247386983,-2.79182950106337,576.155882340427,680.225621539739
0.57,0.486560083906792,0.0490860551274577,15.2068437190994,-2.44741592138917,-0.484691218780843,0.0649967575814488,-15.2788480622036,-1.94800987715101,1.53803594978172,603.637558258608,680.225621539739
0.58,0.326758220195969,0.0530364767544177,15.5518816275144,-2.65068142945483,0.130778399923511,0.304106580733804,1.20422332606681,15.7301296999622,-0.245225111671755,623.199428703687,680.225621539739
0.59,0.199628656041345,-0.00304134735686679,16.2819846167338,0.167939013804907,0.189535104319893,-0.0627478632071727,15.3219983935599,-5.51067979469504,-1.90573509992484,637.275117114317,680.225621539739
0.6,0.0985675943355086,-0.090700779888379,17.3661351868935,4.51421354689286,0.0530665072495861,-0.122988405688419,-9.99530589149405,-14.9014977573355,2.80507772080272,647.481052339769,680.225621539739
0.61,0.0116330757949147,0.0195681623515136,18.8989779639163,-0.950260402521553,-0.00586511569816373,0.0219964053452508,-18.443593942115,4.23180876358719,1.29501543491304,654.659390829352,680.225621539739
0.62,0.101865885286881,-0.0263127675205521,12.4094733992369,1.31645649807979,-0.00874495278864426,0.104845343819337,3.39174350859899,12.0093365232881,-0.169566991840344,659.735277830006,680.225621539739
0.63,0.0264893232992045,-0.0361567284753575,14.6217260268671,1.77795750557418,0.0275798302222995,0.0353319434478156,14.5606926379404,-2.2231137622302,-1.60130248452046,663.68951101064,680.225621539739
0.64,-0.00837458137122472,0.0308525131944216,15.2819259784422,-1.51673047304226,-0.0316908969606862,0.00420692683349669,3.53097536617896,-14.9455660950624,-3.00851701057287,666.593422439685,680.225621539739
0.65,-0.0171853606089979,-0.0611952237368879,14.8961595396943,3.05856793210372,0.0353310951076649,-0.0528384873549783,-15.1097720055504,-1.71615755908502,1.88640235682426,668.733252042074,680.225621539739
0.66,0.0348532012260323,-0.0647967061777416,11.6763415862522,3.21202743991039,-0.0735638651258836,-0.00131015835977114,-2.91215839394509,11.7547184824714,0.511302536105949,670.287749942886,680.225621539739
0.67,-0.0214332554381522,0.0100724977397501,14.0636724077625,-0.475475347789614,-0.0095385777844289,-0.0216761431819582,10.2891437561037,9.59929576403643,-0.853866030317913,671.492224789538,680.225621539739
0.68,-0.0320132445488066,-0.0638529552971551,14.4332067118522,3.19613248201204,0.012659021455575,0.0702979153496708,9.6356109934431,-11.2110534568642,-2.21369772559092,672.045311198432,680.225621539739
0.69,-0.0845312861393046,-0.0192692300154445,16.8407181673779,0.929436742726037,0.0525377600516531,0.0689682922110445,-7.81842128307484,-14.9447626174571,2.71472733489263,672.629962530957,680.225621539739
0.7,-0.133064800734916,-0.00561888870222434,19.1618885594629,0.307177108790163,0.129049245066166,-0.0329257566765537,-18.6870978287433,4.25025948389221,1.36318657375385,672.981848673406,680.225621539739
0.71,-0.117191626273539,0.0536822486556205,18.358525936686,-2.68534393407095,0.0552384799618815,-0.116466181447069,-2.92964146903237,18.3211284443713,0.0133204048328996,673.157706199423,680.225621539739
0.72,-0.0133908110879292,0.0478400250437112,13.1225531840907,-2.4249430643591,-0.00183673340189484,-0.049644820758926,12.1921302248147,5.42528446404715,-1.33485344921591,673.279203716206,680.225621539739
0.73,-0.0646170666073604,-0.0177003585994953,15.5228516910424,0.913136295476686,-0.0128959850099264,0.0657446694577935,6.08831763275681,-14.3082189988439,-2.68053091144413,673.817938065444,680.225621539739
0.74,-0.0619433821540841,0.0649088483976104,15.3911803317175,-3.23821579778407,0.00669013968016797,0.0894728071765423,-9.8411835444531,-12.2688866650912,2.25818742244698,673.911358892446,680.225621539739
0.75,-0.0549896389173892,-0.0971147186155947,15.0303326548466,4.83777011575412,-0.0156045096270705,-0.110506236201174,-8.96626383684379,12.9969624226717,0.915293202638457,673.902240557627,680.225621539739
0.76,-0.1918917869608,0.0260892988715876,21.8154426088963,-1.32219657801026,-0.0557696637196286,-0.185453104657807,7.83627384981681,20.4023173233735,-0.427248079498921,674.097892004803,680.225621539739
0.77,-0.0145313211913149,-0.0426928612231346,12.9157021999573,2.15841907532063,-0.005877198701246,0.0447135128390631,12.2416729562033,-4.64925579593674,-1.76817343833231,674.413051805469,680.225621539739
0.78,-0.0485405532974303,-0.10107406202329,14.5563141550586,5.04355389334964,0.0992959721254693,0.0520812946072443,-4.52611601466777,-14.7254199083642,-3.10625430727052,674.58788348412,680.225621539739
0.79,-0.101934992707709,0.00955132278623327,17.21246159906,-0.516134566865896,-0.102381410123583,-0.00013178161584217,17.1869374477323,-1.06977117084195,-1.66293651639302,674.527537735907,680.225621539739
0.8,-0.0670214458988563,7.1096247758265e-05,15.4296115737078,0.0207346558764491,-0.00948787038192767,0.0663465114430707,2.14755396022663,-15.2794422420901,-3.0006116845023,674.884582418351,680.225621539739
0.81,-0.0567399181747113,0.0506063929201272,14.9606956333392,-2.54339495822819,0.0342261748386332,0.0678895741242685,-12.9854159230236,-7.85304049735134,1.94631223109415,674.832204020225,680.225621539739
0.82,-0.0802296621419595,-0.0918556023963959,16.1312355436395,4.56237830306768,-0.0293001846033221,-0.118388130998124,-5.50527622076625,15.8342663132128,0.610237489005103,674.785491535061,680.225621539739
0.83,-0.0374247398005043,0.0158236440109639,14.048548478242,-0.763803346353765,-0.0130304968373699,-0.0384864263226979,8.76064094764006,11.0089182067971,-0.726475836393194,674.894573131691,680.225621539739
0.84,0.0106629895263327,-0.0339176236222402,11.7438183430063,1.70080633595877,0.0254354739336896,0.0248423268553335,9.54321480440743,-7.05245082669192,-2.06339553239562,674.826178186862,680.225621539739
0.85,-0.0952517318063017,-0.0381648650960951,17.0528441915757,1.87626062918621,0.0612857795110694,0.0823012914213583,-6.18086935650089,-16.0036465522286,2.8826104161335,674.641873468653,680.225621539739
0.86,-0.0847337241165681,-0.00804937914469447,16.3127860669044,0.430071733878643,0.0845209891842035,-0.0100398652680933,-16.2981602767446,0.813586230474007,1.5472768120032,675.24633367024,680.225621539739
0.87,-0.0340518092127835,0.0820883956099509,13.8400804629161,-4.10072038483484,0.0874434174477724,-0.015864398807841,-6.94314976374107,12.6552916304941,0.2137429514815,675.264001694945,680.225621539739
0.88,-0.111484327665456,-0.035379465799433,17.7402346097709,1.74195458277612,-0.115751826252829,-0.0167921599089246,16.7234448170617,6.17063394059815,-1.11943443278479,675.266254983703,680.225621539739
0.89,-0.0270766187846548,0.0748977161399399,13.5187880265353,-3.7458384319719,-0.0750366605565888,-0.0266891502357008,11.4830899271528,-8.05776526027866,-2.45296960649256,675.350696502183,680.225621539739
0.9,-0.0232587224239166,0.0376227592990203,13.2174327309417,-1.8653910834196,-0.0161783592423264,0.0411667448104784,-6.42809510921937,-11.6987095509676,2.49895095904867,675.709955988714,680.225621539739
0.91,-0.0226071189027956,0.0593937255039227,13.2719973705322,-2.99275318449049,0.0440907446106523,0.0457679221070685,-13.3823653968132,2.45250529313754,1.16775926633922,675.48674233803,680.225621539739
0.92,-0.135792650521514,0.00693694312016886,18.9510635780724,-0.386184159726803,-0.0153299802601576,-0.13510276392707,2.71355090980709,18.7597598706714,-0.164026234691997,675.44093998209,680.225621539739
0.93,-0.117294509969007,0.0366970920393317,18.0089965205717,-1.81596433398655,-0.11419913503407,-0.0454228597787818,17.8211899292037,3.16652359023644,-1.49544532723614,675.622753210676,680.225621539739
0.94,-0.0179456545594167,0.0635233431839118,13.0860885624799,-3.19010576819071,-0.0659579278808922,-0.00261024835714415,7.08609545935308,-11.4546820042394,-2.82670888395413,675.63762691314,680.225621539739
0.95,-0.12258973832224,-0.00404004706755251,18.3138905613993,0.163112396337538,0.106291116245842,0.0612108203623858,-15.6467620195111,-9.51861499660186,2.12623484864795,675.727362560855,680.225621539739
0.96,-0.0910472699024048,0.0633557076909083,16.615027728302,-3.14621695153872,0.109408586835769,-0.0182568392745606,-14.0876585525838,9.35391383455107,0.79751260773003,675.960380666518,680.225621539739
0.97,0.00721789813760345,-0.0148708486877657,11.8193509435403,0.746441533672462,-0.00915359627587324,0.0137641516061674,6.63922312062485,9.80688268739454,-0.532049395975494,675.912028386993,680.225621539739
