t,iq,id,vq,vd,ia,ib,va,vb,theta_e,omega,r
0,0,0,0,0,0,0,0,0,0,0,0
0.01,0.000835565393153412,0.00047745386056899,-0.0410016590784264,-0.0239065585676041,-0.000866159619501355,-0.000419403420054148,0.0428969457342526,0.0203103824779934,2.54086779992715,-0.00142614914168789,0
0.02,0.000923955060384373,0.000528094238600148,-0.0454552237906207,-0.0264421726459261,-0.000957900541035992,-0.000463684194183406,0.0475062149974008,0.022550507770627,2.54085717834865,-0.00152932556276582,0
0.03,0.000956224921829365,0.00054655228392949,-0.0470491878550767,-0.0273663680018004,-0.000991372705054532,-0.000479860041959086,0.0491698440402037,0.0233424637194601,2.54084627215357,-0.00153257338899012,0
0.04,0.000937262836326879,0.000535966226442824,-0.0461486329798654,-0.0268363133352689,-0.000971926449365102,-0.000470191872825778,0.0482237825402279,0.0228987081917706,2.54083604754917,-0.00144920743007576,0
0.05,0.000956030064113289,0.000546745744481052,-0.0470839977890601,-0.0273760733964431,-0.000991431943815646,-0.000479569696059424,0.0491980039940108,0.0233646880016181,2.54082584718771,-0.00143220502110052,0
0.06,0.000956257946552309,0.000547015245807962,-0.0471165497537071,-0.0273895622011173,-0.000991787820882987,-0.000479595514823648,0.0492277632790814,0.0233834279095507,2.54081594626025,-0.00138411736708018,0
0.07,0.000982747265099053,0.00056231431169898,-0.0484260560140657,-0.0281555863356922,-0.00101938660422365,-0.00049278851785582,0.0506001235637318,0.0240301360445405,2.54080648564522,-0.00138429541356773,0
0.08,0.000956458210717547,0.000547403345475066,-0.0471669395831306,-0.0274089902978462,-0.000992230166701451,-0.000479522708298487,0.0492727133029648,0.023413087420286,2.54079718287128,-0.00129257936813022,0
0.09,0.000955534530712218,0.000547024819371937,-0.047141247577869,-0.0273900395912538,-0.00099140002593302,-0.000478965949700316,0.0492427653847501,0.0234021697556198,2.54078829837353,-0.0012474477977559,0
0.1,0.000955282807885786,0.000547013091840153,-0.0471475630368338,-0.0273894517318288,-0.000991252152676944,-0.000478756446953982,0.0492460511452264,0.0234072897423889,2.54077973245116,-0.00120505606297664,0
0.11,0.000955056754854749,0.000547010697510378,-0.0471544655784844,-0.0273893266215497,-0.000991126340283551,-0.000478563147119176,0.0492500434541376,0.0234126473629097,2.54077147154446,-0.00116420315693298,0
0.12,0.000954838938924779,0.000547008613196791,-0.0471611302659476,-0.0273892359581334,-0.00099100529645085,-0.000478376760101112,0.0492539229165122,0.0234178037327641,2.54076350473617,-0.00112480543233619,0
0.13,0.00100054041719951,0.000573227469615042,-0.0494023703685989,-0.0287020291592592,-0.00103847263900373,-0.000501243889151445,0.0516040316393065,0.024523959600045,2.54075550991782,-0.00116589433963754,0
0.14,0.00105616536252327,0.000605512794153216,-0.0522649847339457,-0.0303185717972661,-0.00109655428273328,-0.00052886644996298,0.0545559874505921,0.0259709194746046,2.54074783810486,-0.0012259887471006,0
0.15,0.000956868976494691,0.000548479004463314,-0.0473100412685878,-0.0274628450370966,-0.000993376893424473,-0.000479197041023218,0.0493993675562973,0.0234978796363609,2.54074037230251,-0.00101508318174447,0
0.16,0.000954089503837414,0.000547038041843899,-0.0471896668188244,-0.0273906963564106,-0.000990620227860863,-0.000477712219552757,0.0492719632399024,0.0234390387995424,2.54073350375873,-0.000976565703976959,0
0.17,0.000953841069227306,0.000546999998561808,-0.0471919083261084,-0.0273887870726976,-0.000990451554006107,-0.000477522253866975,0.0492718106816761,0.0234416411738268,2.54072688841257,-0.00094373225101957,0
0.18,0.000953664901539583,0.000546997416984661,-0.0471971545885898,-0.0273886727438098,-0.000990352872465636,-0.000477372084034517,0.0492748319635636,0.0234457188179275,2.54072050880652,-0.000912180512484002,0
0.19,0.000953496911342458,0.000546995787872249,-0.0472023060423619,-0.0273885822533533,-0.000990259489574483,-0.00047722834701773,0.0492778140345543,0.023449715937328,2.54071435632719,-0.000881754999695618,0
0.2,0.000953334771734967,0.000546994238358715,-0.047207266591455,-0.0273885145098928,-0.000990169373869755,-0.000477089608823091,0.0492807018497855,0.0234535534895644,2.54070842288277,-0.000852412744279753,0
0.21,0.000953178655894639,0.000546992744447941,-0.0472120620481338,-0.0273884240506035,-0.000990082607364888,-0.000476956018019844,0.0492834726810537,0.0234572780882256,2.54070270067505,-0.000824115105982167,0
0.22,0.000953027866776508,0.000546991303633756,-0.0472166742150588,-0.0273883563290461,-0.000989998797651609,-0.000476826993522709,0.0492861539033127,0.0234608486580681,2.5406971821842,-0.000796824893379175,0
0.23,0.000952882549176567,0.000546989914019008,-0.0472211263510392,-0.0273882886152048,-0.000989918028639079,-0.000476702648554708,0.0492887400837147,0.0234642968803793,2.54069186015769,-0.000770506241014,0
0.24,0.000952742412056512,0.000546988573787734,-0.0472254192878238,-0.0273882209087701,-0.000989840137757813,-0.000476582737065868,0.0492912318522782,0.0234676230995665,2.54068672760073,-0.000745124560327799,0
0.25,0.000952607222585698,0.000546987281187882,-0.0472295563141253,-0.027388153209052,-0.000989764995268888,-0.000476467061237319,0.0492936312222484,0.0234708296989394,2.54068177776839,-0.000720646494149726,0
0.26,0.000961989661181566,0.000552400925450636,-0.0476963920162603,-0.0276592336847186,-0.000999537339251389,-0.000481140310201917,0.0497812826151465,0.0237023821711144,2.5406770346631,-0.000713892228797996,0
0.27,0.000928066812554174,0.000533026323690182,-0.0460558535766153,-0.0266891250368611,-0.000964379096220046,-0.000464109932111932,0.0480536703301361,0.0228975066700816,2.54067231407111,-0.0006312123613641,0
0.28,0.00092195073526061,0.000529461822193846,-0.0456385982121752,-0.0265106388087612,-0.000957983054657762,-0.000461076399739773,0.0476706361848286,0.0226540517911182,2.54066785465764,-0.000598634612105007,0
0.29,0.000951320800106679,0.000546540398599963,-0.0472061296120916,-0.0273657862793713,-0.000988677670723901,-0.000475640763002269,0.0492623618805248,0.0234632613588571,2.54066367799786,-0.000629748435284902,0
0.3,0.00094744322783191,0.000544434753772932,-0.0470254080170973,-0.0272603587316144,-0.000984750240110163,-0.000473629428649991,0.0490733084635152,0.0233736294527717,2.54066000031463,-0.000604929609782827,0
0.31,0.000951784180522277,0.000546916284433624,-0.0472452651983276,-0.0273845939093777,-0.000989253349839089,-0.000475802856552253,0.0493001821356034,0.0234845291338397,2.5406560172859,-0.000593045115670623,0
0.32,0.000951795184127529,0.000546977923637012,-0.0472541421614804,-0.0273876857951556,-0.00098931224649704,-0.000475773265753335,0.0493078420933422,0.0234899125739028,2.54065216117286,-0.000574180095994546,0
0.33,0.000951696695401745,0.000546978532841702,-0.0472573940362217,-0.0273877193773336,-0.000989258830824691,-0.000475688008114171,0.0493097958357459,0.0234923923520647,2.54064844195267,-0.000555793034090439,0
0.34,0.000951598730450615,0.000546977635626083,-0.0472603838159694,-0.0273876773016105,-0.000989204405222482,-0.00047560416562385,0.0493115358890409,0.0234947052476451,2.54064485513032,-0.000538055505459767,0
0.35,0.000951504257954626,0.000546976732847176,-0.0472632664991483,-0.02738763231352,-0.000989151888451217,-0.000475523333555091,0.0493132100016819,0.023496937741759,2.54064139600239,-0.000520949319022745,0
0.36,0.00095141327791743,0.000546975861225176,-0.0472660520010411,-0.0273875873229885,-0.000989101313021725,-0.000475445486611569,0.0493148262852273,0.0234990961442626,2.54063806002327,-0.000504452127365509,0
0.37,0.000951325324677741,0.000546975020575156,-0.0472687266817326,-0.0273875423310642,-0.000989052417623071,-0.00047537023644772,0.0493163771295306,0.023501168989352,2.54063484280837,-0.000488542253010616,0
0.38,0.000951240747481524,0.000546974209820333,-0.0472713174198876,-0.0273874973363278,-0.000989005400903399,-0.000475297867512251,0.0493178778293164,0.0235031782397988,2.54063174012974,-0.000473198786932955,0
0.39,0.000951158819466105,0.000546973427899345,-0.0472737967896262,-0.0273874750168904,-0.000988959852980068,-0.00047522777682892,0.0493193316761645,0.0235050882517839,2.54062874790989,-0.000458401564406175,0
0.4,0.000951080063034686,0.000546972673787452,-0.0472761996012686,-0.0273874300160487,-0.000988916070306933,-0.000475160391931976,0.0493207210343725,0.0235069531899088,2.54062586221623,-0.000444131138585577,0
0.41,0.000951004158773721,0.000546971946496662,-0.0472785182795857,-0.0273873821024031,-0.0009888738733049,-0.00047509544615185,0.0493220580136054,0.0235087554421474,2.54062307925644,-0.00043036875495407,0
0.42,0.000950930670868025,0.000546971245074278,-0.0472807391114227,-0.0273873597687328,-0.000988833016535789,-0.000475032576929573,0.0493233584451537,0.0235104674074189,2.54062039537302,-0.000417096326676488,0
0.43,0.000950860121714585,0.000546970568600756,-0.0472828959764971,-0.0273873147589547,-0.000988793796338804,-0.0004749722121392,0.0493246017669683,0.0235121441421299,2.5406178070388,-0.00040429641082698,0
0.44,0.000950791872497722,0.000546969916189317,-0.0472849644445308,-0.0273872924152344,-0.000988755852416552,-0.000474913822009732,0.04932581164164,0.0235137396909031,2.54061531085193,-0.000391952185465806,0
0.45,0.0009507260680024,0.000546969286985158,-0.0472869590611455,-0.0273872700658572,-0.000988719267520807,-0.000474857523176664,0.0493269776708392,0.0235152787091963,2.54061290353191,-0.000380047427532706,0
0.46,0.000950662794804849,0.000546968680163324,-0.0472888910526766,-0.0273872250457628,-0.000988684091457384,-0.000474803384365425,0.0493280875823659,0.0235167831168639,2.54061058191537,-0.000368566491525091,0
0.47,0.000950601530506428,0.000546968094928145,-0.047290741015498,-0.0273872026873687,-0.000988650029654549,-0.000474750972125964,0.0493291678647121,0.02351821112689,2.54060834295048,-0.000357494288936428,0
0.48,0.000950542536306565,0.000546967530512258,-0.0472925285896318,-0.0273871803235733,-0.000988617230596795,-0.000474700499399273,0.0493302109964174,0.0235195916105277,2.54060618369546,-0.000346816268426494,0
0.49,0.000950485840572971,0.000546966986175653,-0.0472942614105301,-0.0273871352937601,-0.000988585711085801,-0.00047465198717878,0.0493312026711469,0.0235209435394184,2.54060410131212,-0.000336518396699033,0
0.5,0.000950430979116383,0.000546966461204393,-0.0472959223499493,-0.0273871129212307,-0.000988555209374135,-0.000474605050295341,0.0493321706489915,0.0235222270236358,2.5406020930639,-0.00032658714005707,0
0.51,1.86254006336404,0.0536693479087828,2.63207149455549,-2.68654345824295,-0.0137191037121682,1.86326264190919,-2.77996750747549,2.53319891892841,0.0361699799735674,11.030149455762,190.934345931611
0.52,1.76401763726194,0.0151909368606239,1.90286929448254,-0.758958593717571,-0.266183249926976,1.74388516439363,-1.05256748585838,1.75756404906792,0.160080297714678,22.6773468328234,190.934345931611
0.53,1.67353579444862,0.0167451914772514,1.09407596794306,-0.835925764467803,-0.584727635064105,1.56815051877386,-1.17277052636179,0.721376046059688,0.366913863562711,33.6531231716522,190.934345931611
0.54,1.50811190587087,0.0329144961982058,4.29599478749171,-1.64475069186637,-0.889203351160556,1.21852463453731,-3.91462959556239,2.41587482748959,0.652228120380951,44.0887517672699,190.934345931611
0.55,1.41336319370874,-0.0119353175130141,4.1483826045013,0.601908550178506,-1.20495431528623,0.738798394156213,-3.19917353585431,2.70862711047431,1.01233102315008,54.1242176126119,190.934345931611
0.56,1.31666679738723,-0.0441958152612833,4.26085766481485,2.21797568148016,-1.31177216009794,0.121731365804105,-3.94811289602243,2.73618872223942,1.44470833532584,63.8101576651021,190.934345931611
0.57,1.28769738429242,0.0111695877648084,1.00927472290275,-0.555771791453664,-1.20139580546252,-0.463613450863364,-0.733832062381433,-0.888261366202004,1.94775885110947,73.4039985067426,190.934345931611
0.58,1.16929486806252,-0.0627417176231333,2.60244946156159,3.14399906714394,-0.631145821542058,-0.986327513332994,-4.07175999477977,-0.279721073741748,2.51874778492408,82.1498085102497,190.934345931611
0.59,1.06327406696812,-0.0365258342264643,4.12195649487458,1.83173595140127,0.0450238349854975,-1.06294813247687,-1.79872901276025,-4.13646659359763,-3.13359917528598,89.8266715648869,190.934345931611
0.6,1.02559121338284,-0.0242246040004941,2.61152199361504,1.2171555370596,0.67324429931261,-0.774058319411489,0.729844938935546,-2.78726408681346,-2.44935439333829,96.7750135800463,190.934345931611
0.61,0.937467818602005,0.0161511110143315,3.82258836596776,-0.803205066761475,0.925293734157936,-0.15145387030202,3.89853481008692,0.242376833554455,-1.71581280552006,103.318114475035,190.934345931611
0.62,0.909283494255188,-0.0294585404623317,2.09106518210248,1.48150254818799,0.713991666568817,0.563808636508326,2.56220163864939,0.0502609091757142,-0.934780088901933,109.77512892194,190.934345931611
0.63,0.85622764621638,-0.00257172357522761,1.56407747053954,0.130345782343041,0.0881462411458001,0.851682238912645,0.295301103656282,1.54146865521274,-0.106132992128781,116.217043892259,190.934345931611
0.64,0.837043549435028,0.0651591661110324,-0.232387015403812,-3.26004348268979,-0.533784265204502,0.648044735183587,-2.1866642844677,-2.42907112719859,0.76670441300843,121.774864134685,190.934345931611
0.65,0.741855185768656,-0.0303353962647916,2.10487399444399,1.52391744472488,-0.734386854280804,-0.109294561520391,-2.25541832044451,1.29070024042248,1.67766768827874,126.697788947488,190.934345931611
0.66,0.704810439035278,-0.0347436421256569,1.58994756839199,1.74635724982465,-0.31841973544348,-0.629741016387976,-2.30419726478855,-0.518046213374525,2.624191262471,131.571845248973,190.934345931611
0.67,0.666036802988069,0.0112971166328964,1.09249772960994,-0.564961745045882,0.288664982864736,-0.600337551254698,0.994992109183617,-0.722996379818391,-2.67643191643489,136.480355060955,190.934345931611
0.68,0.559962167479964,0.0135403763919822,4.27345572896536,-0.676343434405102,0.556530700707708,-0.0633604764145868,4.31671122094838,0.29303334900325,-1.65998108554615,140.726003951014,190.934345931611
0.69,0.590320037597336,0.0484849055961426,0.918532969683704,-2.42268232892141,0.379983177814652,0.454358137857644,-1.44981140907534,2.14735636571553,-0.61454172246288,144.454836699123,190.934345931611
0.7,0.587111753711212,0.019546380078497,-0.771467869919928,-0.972129073590041,-0.242157093838653,0.535202965447358,-0.530633486940114,-1.12188489274774,0.458176620335019,148.266550833928,190.934345931611
0.71,0.456387821752625,0.00673738892227971,3.91727699042173,-0.337641389760701,-0.456274329433963,0.0122054312985225,-3.92104145653589,-0.290679589744424,1.55881384906433,151.952791617134,190.934345931611
0.72,0.521224517121584,-0.00519459058733304,-0.906573964053355,0.263473064328424,-0.225366679259064,-0.470012596533051,0.163664174442308,0.929789463228177,2.68452087451147,155.124885532748,190.934345931611
0.73,0.430945590724981,0.0493899381779162,2.18045796920125,-2.46718750235654,0.236457147738504,-0.363650224036632,3.29082258225754,-0.109077309012291,-2.45094368121104,158.052560511995,190.934345931611
0.74,0.39956032557885,0.0252438616068683,2.20125191462307,-1.26511894889503,0.3901130689531,0.0899861086918253,1.74794684368304,1.84139017542277,-1.28099955390291,161.139063320753,190.934345931611
0.75,0.44281327955284,-0.0224341269707485,-1.26931461678089,1.125270509673,0.0174548650471126,0.443037490837365,1.00663584299019,-1.3653122704791,-0.0899972462476737,163.755941934709,190.934345931611
0.76,0.313765901867458,0.0321434144061626,4.04485456247428,-1.60448468888607,-0.268209759474667,0.165969169386747,-4.33942119843111,0.323486029135026,1.11875305343292,166.048506785266,190.934345931611
0.77,0.330921771270242,-0.0416640896903504,1.95148238363514,2.08473754079938,-0.207494437662251,-0.261134397216426,-2.85279424159555,0.126408554994428,2.34491587378548,168.567557468675,190.934345931611
0.78,0.311720677282968,0.0452431401976248,1.77930998262672,-2.26477801148853,0.0940432359898123,-0.300620345527808,2.81158717119932,-0.624612707479169,-2.69427310827353,170.766379462506,190.934345931611
0.79,0.302105561932066,0.00791089002213435,1.27548801996839,-0.391034711768371,0.30040399169098,0.0329817299024359,1.21095502286261,0.559790824768022,-1.43526319426767,172.743116512472,190.934345931611
0.8,0.313153547427496,0.0560211787373315,-0.305736348386696,-2.80683911770513,0.105631219382742,0.300075927433808,-2.81948415118663,0.149431150072297,-0.161447670869353,174.800880318491,190.934345931611
0.81,0.180522914861855,-0.0474768115014846,5.33795579383625,2.37716765542865,-0.183428413710899,0.0345917253699693,-3.80118619666178,4.43798170537848,1.12722873881448,176.731619025247,190.934345931611
0.82,0.241854839209546,-0.0352742722137792,1.41797676266875,1.77129930596062,-0.131419459566131,-0.206075139637544,-2.26736357474484,0.0849808842352879,2.42906662251915,178.410038958507,190.934345931611
0.83,0.178546654249118,0.0368512385920432,3.75470220072014,-1.8479077796348,0.0706162525140848,-0.168078155660362,3.64784464057387,-2.05080015027403,-2.54030867022495,180.055251101439,190.934345931611
0.84,0.22000607386758,0.000791730229102838,0.95753385953955,-0.0388053768409589,0.206511325852213,0.0758707563567403,0.884087393260793,0.369819456645821,-1.21511302211609,181.470893691508,190.934345931611
0.85,0.206085297221598,0.000718908607778748,0.986055436281316,-0.0306888873866632,-0.0239593935802217,0.204689066683516,-0.148521578282449,0.975288917200159,0.120010779436672,182.791635335763,190.934345931611
0.86,0.161375899916592,0.0264603844466166,2.52034094154499,-1.32776613756818,-0.157674111754944,0.04337288901194,-2.64658910012805,-1.0538726264516,1.46487757102821,184.141212673942,190.934345931611
0.87,0.17322641800083,-0.00850061648873329,1.33531525753485,0.426991182539045,-0.0468444303020577,-0.166988777238958,-0.82822267207429,-1.13112135177158,2.819064766303,185.294010356938,190.934345931611
0.88,0.130921335723591,0.00651630977543269,2.89318712167429,-0.321433900647812,0.109591150435349,-0.0719210552411134,2.65752782584111,-1.18802244439567,-2.1018328903446,186.372958264016,190.934345931611
0.89,0.102233483599811,0.0615622915660761,3.78110709109954,-3.08562313448942,0.114106749176757,0.0349463975844721,0.229928239667613,4.87493322693377,-0.731589728798887,187.445168272061,190.934345931611
0.9,0.168954638232899,-0.0563578191144821,-0.0283614135821756,2.82466373154883,-0.146688450085794,0.101016692517513,2.2729508138787,1.6772668731588,0.645768407480781,188.356167355726,190.934345931611
0.91,0.177185613265238,0.0326147011127982,-0.917651264851053,-1.62796761186566,-0.173295252176601,-0.0492667824188255,1.54396489572507,-1.05286978773968,2.0298154891371,189.275799914519,190.934345931611
0.92,0.0914300958309278,0.0182372862434901,2.90126015372427,-0.915335397122307,0.00764757971572039,-0.0929170358850913,1.67894007468665,-2.53698829213388,-2.86258928896595,190.149342215709,190.934345931611
0.93,0.103169441841908,0.0142712188536648,1.91843443184209,-0.71111180132082,0.104096523718932,-0.00339340053249283,1.83345847497509,0.908020200104079,-1.46592771063497,190.903155501329,190.934345931611
0.94,0.117613982744061,0.0225430432882586,0.843107943312685,-1.13206719468295,0.0300200463406183,0.115931163003412,-1.07581956491184,0.913793959876716,-0.0640086097016853,191.576409506187,190.934345931611
0.95,0.0587131520120895,-0.0270267312938238,3.41296990555803,1.35242712116247,-0.0633002612351056,-0.0130673391013885,-3.01931672300351,2.08833647204945,1.34296957719538,192.267585960953,190.934345931611
0.96,0.0105385541733289,0.0552243483851446,5.49464362856133,-2.76139521361901,-0.0551191324895847,0.0110756946609963,0.484262425666483,-6.13040798265297,2.75472792272195,192.892906515403,190.934345931611
0.97,0.0779718911285422,0.0193503270267652,1.80243105923553,-0.972530021765324,0.0568395901793257,-0.0567742190650854,2.04582594989809,-0.0957525417697183,-2.11236302316789,193.475692949695,190.934345931611
