t,iq,id,vq,vd,ia,ib,va,vb,theta_e,omega,r
0,0,0,0,0,0,0,0,0,0,0,0
0.01,0.00108164422199086,0.000599411922503381,-0.0521379936323733,-0.0300175578565577,-0.000574533936204303,0.00109506147405294,0.0270763183390276,-0.0537242696077371,0.989216788173628,-0.00820676975474078,0
0.02,0.00118929091154109,0.000663656190704076,-0.0578729694328591,-0.0332348031688078,-0.000629122375561203,0.00120791450372214,0.030097688831019,-0.0595647702898046,0.989160104573322,-0.00771998475851816,0
0.03,0.00122267556833383,0.000685106737342591,-0.0597036365679691,-0.0343090132671151,-0.000645169666059941,0.0012442117540631,0.0310340551941861,-0.0614696675524395,0.989109469719987,-0.00673265493623474,0
0.04,0.00119380550882383,0.00067295249425014,-0.0585485129360394,-0.0337003518653152,-0.00062767721820217,0.00121821917657111,0.0304009291426759,-0.0603276519527292,0.989069738763287,-0.00547330222537206,0
0.05,0.00121236846256373,0.000685251811737778,-0.0596009348982395,-0.0343162815979989,-0.000636385550832736,0.00123871738713896,0.0309396671542717,-0.0614216217617235,0.989034844377351,-0.00475378361821302,0
0.06,0.00120871356320931,0.000685461296414984,-0.059577742342389,-0.0343267802717614,-0.000633180848797825,0.00123690245350421,0.0309127364212337,-0.0614185473077409,0.989005790067028,-0.00398648811160146,0
0.07,0.0012404286244664,0.000704799322711875,-0.0611905514844889,-0.035295188908586,-0.000649021649201528,0.00127050232449943,0.0317265625958947,-0.0631146510480525,0.988982292563627,-0.00367108571050408,0
0.08,0.00120321112792762,0.000685794822964696,-0.0595426657186769,-0.0343434801309613,-0.00062834638927544,0.00123418490213523,0.0308715663340844,-0.0614145753097102,0.988962032087665,-0.00283090163705425,0
0.09,0.00120016131488644,0.000685455662151793,-0.0594820325100727,-0.0343264781149969,-0.000625964842787917,0.0012322356357935,0.0308292599836324,-0.0613675485918275,0.988945841791973,-0.00239441314772169,0
0.1,0.00119823998118547,0.000685446297001465,-0.0594597794204807,-0.0343260108915931,-0.00062434842313406,0.001231180216343,0.0308101084994641,-0.0613553388607156,0.98893252624466,-0.00204059522947572,0
0.11,0.00119667129177008,0.000685443343026986,-0.0594420510441881,-0.0343258653398799,-0.000623026017287103,0.00123032245319268,0.0307947051805125,-0.0613458115645783,0.988921566695675,-0.00174949081786297,0
0.12,0.00119538027476789,0.000685440994022286,-0.0594274550411397,-0.0343257504879578,-0.000621937657241709,0.00122961656954317,0.0307820210049418,-0.0613379714539007,0.988912546107011,-0.00150989083992161,0
0.13,0.00125371385283467,0.000718160967172848,-0.0622211076089712,-0.0359643203626085,-0.000652676193746624,0.00128901799276682,0.0322147569131155,-0.0642425716192961,0.988903111569389,-0.00178458284616182,0
0.14,0.00133052103381894,0.000763689409686192,-0.0662834501678823,-0.0382442904371947,-0.000691809918228952,0.00136927235163116,0.0343549440430071,-0.0683802554616791,0.988895751104733,-0.00227433966854652,0
0.15,0.00119499853912034,0.000686814565157765,-0.0595281777238089,-0.0343945249828453,-0.000620835288510095,0.00123056868965255,0.0308269439040929,-0.0614514997493703,0.988889351088083,-0.000919650835250725,0
0.16,0.00119164226753868,0.000685458398693679,-0.0593873864027189,-0.0343266263170675,-0.000618772651004488,0.00122759313964086,0.0307464367200758,-0.0613174980497069,0.988885988495414,-0.000805032544830571,0
0.17,0.00119119043580217,0.000685433793556324,-0.0593800358377553,-0.0343254008614646,-0.000618405360937807,0.00122732593440331,0.030740802290806,-0.0613125180930527,0.98888326150084,-0.000732059111347582,0
0.18,0.0011908680598606,0.000685432787184434,-0.0593763019607457,-0.0343253506189119,-0.0006181338437901,0.00122714929527945,0.0307375730167067,-0.0613104928596037,0.988881017834017,-0.000672452432962554,0
0.19,0.00119060377520317,0.000685432298104964,-0.0593732679116286,-0.0343253234276517,-0.00061791106025507,0.00122700477033626,0.0307349400632399,-0.0613088593127288,0.988879171134365,-0.0006234010684626,0
0.2,0.00119038628949974,0.000685431901492554,-0.0593707623153404,-0.0343252931392842,-0.000617727723567473,0.00122688584201987,0.0307327703229145,-0.0613075035805685,0.988877651152575,-0.00058302804133046,0
0.21,0.00119020712632009,0.000685431575125203,-0.059368681921753,-0.0343252939828743,-0.000617576693508689,0.00122678786893114,0.0307309551800126,-0.0613063992896426,0.988876400085352,-0.000549797783184957,0
0.22,0.00119005995547547,0.000685431306480893,-0.0593669739203776,-0.0343252663181154,-0.000617452630148153,0.00122670739096718,0.0307294803777561,-0.0613054690544444,0.988875370356682,-0.000522446596552349,0
0.23,0.00118993841787494,0.000685431085352104,-0.0593655374974197,-0.0343252640087339,-0.000617350178519318,0.00122664092879043,0.0307282296885544,-0.0613047036681058,0.9888745228076,-0.000499934360586749,0
0.24,0.00118983886089649,0.000685430903336441,-0.0593643687476938,-0.0343252361488803,-0.000617266252206064,0.00122658648779267,0.0307272258526765,-0.061304059448679,0.988873825207114,-0.000481404971907936,0
0.25,0.00118975667167959,0.000685430753516546,-0.0593633840706268,-0.0343252365833077,-0.000617196968804629,0.00122654154327146,0.0307263678079547,-0.0613035362450412,0.988873251026245,-0.000466153788266491,0
0.26,0.00120184067904839,0.00069195167546123,-0.0599339582296862,-0.0346517978140719,-0.000623707473063132,0.00123863115051831,0.0310235183248212,-0.0618899648697151,0.988872880844793,-0.000563141267555812,0
0.27,0.00115682010094705,0.000666912125668878,-0.0578203461857848,-0.0333978462573424,-0.000599858254642479,0.00119296881923066,0.0299469413891268,-0.0596807277863573,0.988871837166177,-0.000140498976941262,0
0.28,0.00114707267311744,0.000660514612613325,-0.0569858201183287,-0.033077474164694,-0.0005952309601179,0.00118226704893845,0.0294258343411038,-0.0589544168405085,0.988871403368298,-4.37342559130551e-05,0
0.29,0.00118865136462687,0.00068499112050403,-0.0593182664038066,-0.0343032119170063,-0.00061651351628496,0.00122556761789656,0.0307006962997333,-0.0612603813544085,0.988871858046983,-0.000421178916568055,0
0.3,0.00118472011961308,0.000682933498192479,-0.0591208955391305,-0.0342001932092903,-0.000614363222071417,0.00122168643936792,0.0305925816479362,-0.0610657633458874,0.988874278286209,-0.00044781809054116,0
0.31,0.00118970986892009,0.000685386837945544,-0.0593586582565727,-0.0343230313000122,-0.000617182554195562,0.00122647885616976,0.0307236592795112,-0.0612990827673523,0.988873697322073,-0.00047703166655124,0
0.32,0.00118973944214684,0.000685429950165452,-0.0593628095644879,-0.0343251993807011,-0.000617182889510824,0.00122653146624078,0.0307259019532839,-0.0613031925846585,0.988873147347735,-0.000463376974918136,0
0.33,0.00118967657793847,0.000685430594257434,-0.0593621191873282,-0.0343252375648901,-0.000617129461205552,0.00122649773246901,0.0307252763759091,-0.0613028589865163,0.9888726931418,-0.000451332863316099,0
0.34,0.00118962314330595,0.000685430510140461,-0.0593614615939843,-0.0343252378754085,-0.000617084409225695,0.00122646852353051,0.0307247039274268,-0.0613025092989628,0.988872319261623,-0.000441402389075304,0
0.35,0.00118957902189914,0.000685430430074367,-0.0593609030521852,-0.0343252381458548,-0.000617047216495639,0.00122644439597946,0.0307242183044717,-0.0613022119871685,0.988872011528043,-0.000433228439312404,0
0.36,0.00118954302768591,0.000685430363981707,-0.059360448979872,-0.0343252100210473,-0.000617016872381952,0.00122642471345788,0.0307238389007132,-0.0613019467006066,0.988871758239302,-0.000426500610545166,0
0.37,0.00118951322536363,0.000685430309577879,-0.0593600560494118,-0.0343252102305184,-0.00061699174955632,0.00122640841630447,0.0307234977489963,-0.061301737313277,0.988871549762872,-0.000420963063845035,0
0.38,0.0011894885453155,0.000685430264798685,-0.0593597147220403,-0.0343252104177991,-0.000616970945861599,0.00122639491979599,0.0307232019801679,-0.0613015551368316,0.98887137817074,-0.000416405215604603,0
0.39,0.0011894684054649,0.000685430227941778,-0.0593594321034435,-0.0343252105854134,-0.000616953967957445,0.00122638390661207,0.0307229571289203,-0.0613014042794357,0.988871236937461,-0.000412653738330795,0
0.4,0.00118945164165358,0.000685430197605583,-0.0593591797355837,-0.0343252078280223,-0.000616939837479842,0.00122637473903875,0.030722740688801,-0.0613012668375373,0.988871120691539,-0.000409565969500524,0
0.41,0.00118943802106097,0.000685430172636304,-0.0593589704722867,-0.0343252079673976,-0.00061692835514084,0.00122636729087533,0.03072255992714,-0.0613011548754034,0.988871025012538,-0.000407024486329571,0
0.42,0.0011894267287748,0.000685430152084653,-0.0593587837546202,-0.0343252080966921,-0.000616918836216375,0.00122636111567195,0.0307223990435153,-0.0613010547765696,0.988870946261797,-0.00040493264038745,0
0.43,0.00118941741554909,0.000685430135169402,-0.0593586187456704,-0.0343252082174104,-0.0006169109857005,0.0012263560226671,0.0307222571543513,-0.0613009661743136,0.988870881444621,-0.000403210882205647,0
0.44,0.0011894098485532,0.000685430121246652,-0.0593584774971319,-0.0343252083305639,-0.000616904606414884,0.00122635188487303,0.0307221358219388,-0.0613008902729191,0.988870828095383,-0.000401793736143015,0
0.45,0.00118940344571052,0.00068543010978712,-0.059358342071308,-0.0343252084386724,-0.000616899209892019,0.00122634838317072,0.030722019935269,-0.0613008172776649,0.988870784185364,-0.000400627310460358,0
0.46,0.00118939832343638,0.00068543010035542,-0.0593582276371089,-0.0343252085412294,-0.000616894891577104,0.00122634558221269,0.0307219220644433,-0.061300755576779,0.988870748044588,-0.000399667247903628,0
0.47,0.00118939413248481,0.000685430092592333,-0.059358124283873,-0.0343252086397554,-0.000616891358219824,0.0012263432905896,0.0307218338449468,-0.0613006997665274,0.988870718298651,-0.000398877038865375,0
0.48,0.00118939064002517,0.000685430086203039,-0.0593580266933698,-0.0343252087352566,-0.000616888414086646,0.00122634138078165,0.0307217507639919,-0.0613006469594319,0.988870693816203,-0.000398226632995865,0
0.49,0.00118938772964213,0.000685430080944197,-0.0593579341395371,-0.0343252088282373,-0.000616885960914804,0.00122633978917454,0.0307216721576383,-0.0613005967854663,0.988870673665681,-0.000397691296428581,0
0.5,0.00118938528492038,0.000685430076616022,-0.0593578451002569,-0.0343252089192038,-0.000616883900620746,0.00122633845208813,0.0307215967070684,-0.0613005484319784,0.988870657081149,-0.000397250671189851,0
0.51,2.00977165552862,0.0826961401298363,2.77701637641409,-4.13696242661549,-0.367849080907431,1.97755096334688,-4.65231791210224,1.78387671065941,0.225034359663539,67.3600960905957,516.310978205297
0.52,1.72125601526621,-0.0490657244691638,3.7201570336862,2.46661972435719,-1.4444360116798,0.937408301419585,-1.6604187842124,4.14328259727809,0.966641305100099,133.684145127893,516.310978205297
0.53,1.51980186624588,0.0553698094151907,1.46582172211589,-2.75956819537999,-1.28572949198363,-0.812258088222362,0.347920656314103,-3.10528600339639,2.17065016107144,194.405849426106,516.310978205297
0.54,1.29929355114035,0.0118361128295544,1.42335690034349,-0.586727276873959,0.785186152892161,-1.03527123542974,1.33465219675818,-0.767396427455791,-2.48360543403568,247.585485556497,516.310978205297
0.55,1.04559420280833,0.0605456142476207,5.61586826770025,-3.01806956963833,0.566396040438642,0.880981573999387,0.130083921960558,6.37415080623191,-0.513537363111636,288.778908578764,516.310978205297
0.56,0.942157115240207,-0.0462543576692687,2.8937162367738,2.31901173929923,-0.919444451889612,-0.21076383772022,-3.25555664218382,1.77560132223108,1.74707813419818,327.335305039532,516.310978205297
0.57,0.697080273177667,0.0174224739798554,8.714041309081,-0.859225881565726,0.620716322686351,-0.317703787518757,8.22603848324687,-3.00084586809519,-2.0188780474418,358.24734673129,516.310978205297
0.58,0.692984132877151,-0.00228879955298553,3.13914443147577,0.115784424507813,-0.454597100493412,0.523042754701634,-1.96378831896677,2.4517685928557,0.712198298459379,386.285960672226,516.310978205297
0.59,0.520063377687927,0.067352291234304,7.16436132555763,-3.35759415751327,0.183009840673193,-0.491436309366187,6.31179316305025,-4.77103540089415,-2.6563142364723,408.605379227837,516.310978205297
0.6,0.538835314923948,0.0271067582937267,2.03483979230498,-1.35041591369817,-0.192826921092019,0.503880989378005,-2.0572069608267,1.31609104572716,0.41575361082623,428.580448979015,516.310978205297
0.61,0.422831916062764,0.00932061478198096,4.28212465943835,-0.470882940365125,0.186429981744979,-0.379628193115039,2.38980231167364,-3.58429452662811,-2.66306213176463,445.6221617319,516.310978205297
0.62,0.344725144308293,-0.0231570163043064,5.18534673051344,1.17447982937982,-0.228996832418237,0.258712433533654,-2.23920032612527,4.82215776232456,0.657469934238478,459.866990669295,516.310978205297
0.63,0.333744753793375,-0.0467132989207437,3.12742069192962,2.3468224609107,0.296133940232087,-0.16084894287274,1.11956378276412,-3.74631989873628,-2.2074388181935,472.202842057286,516.310978205297
0.64,0.240281848264568,-0.0660817798678547,5.5461659799664,3.30484150809974,-0.249193559680609,0.00217670614630792,-4.4304161671874,4.6960991318881,1.29367880895926,482.722537828927,516.310978205297
0.65,0.210271893351226,-0.0174468921068702,5.11529300810983,0.866198392786988,0.205148269163548,0.0493239377675659,5.18756250088238,-0.0756142441805389,-1.41762754621457,491.766662937388,516.310978205297
0.66,0.19704563381201,0.0151295768321193,4.1464929542945,-0.744739099157055,-0.166558618707672,-0.10636781671957,-2.86583067826827,-3.08788838355981,2.21576228841614,499.346933980399,516.310978205297
0.67,0.19170645363375,-0.0184822241729345,2.92158266847956,0.931035051355833,0.0541135544897848,0.184836901607035,1.95046432227527,2.36604321244236,-0.380916873045822,506.191742121864,516.310978205297
0.68,0.0727314263931991,0.0127550721393253,7.61157678865026,-0.64489418985484,0.00259799186206437,-0.0737956820468066,2.20864303571176,-7.31258406217869,-2.93279517689582,511.828542184314,516.310978205297
0.69,0.11607336354504,-0.0370423324594617,4.42844836712504,1.84496084507052,-0.110935392749623,0.0503835166913078,-2.04696073408261,4.33877715644164,0.835567814805774,516.308581396507,516.310978205297
0.7,0.0889741202119541,-0.0366061707978479,4.93980721492232,1.84571997788472,0.0915690371419307,0.029521470913086,4.7799841954535,-2.22713462740269,-1.64923814498304,520.020641407312,516.310978205297
0.71,-0.00917193440078506,0.0400263695727827,9.02787388344955,-1.99664603274981,-0.0152393396922336,0.0381313147894746,-6.28666581748641,-6.7798919707333,2.17626293159709,523.600060097224,516.310978205297
0.72,0.120323400945582,-0.00323533431755278,1.8392394499826,0.163785836866268,0.0275867659558587,0.117162957232029,0.627861619632628,1.73649570725717,-0.258126590109312,526.591483615191,516.310978205297
0.73,0.0758686986372145,0.00131246337473156,3.59750508872379,-0.0731013852190855,0.0330273610682308,-0.068315264867255,1.68688130371954,-3.17833575052668,-2.67397096348176,528.478732074859,516.310978205297
0.74,0.00955692209929808,0.00922067223230307,6.39677795599736,-0.474017471049893,-0.00565621627211842,0.0120151060715517,-6.14766398556198,1.83021537033719,1.20747527501107,530.515079910582,516.310978205297
0.75,0.019581484100686,0.0349413368999413,5.51924309936017,-1.73861358688745,0.0313848775546178,-0.0248861609096756,4.44536192914154,3.70453491187268,-1.18121860134306,531.881534348375,516.310978205297
0.76,0.0594299060814706,-0.0710812536980233,3.23074733590635,3.5698977925875,0.0407025082521592,-0.0832331916131905,-4.57642740308553,-1.49606511297967,2.72197908629949,533.027038012925,516.310978205297
0.77,0.0349568326450798,-0.0539710714597543,4.17184594609325,2.70527466393538,-0.0626743828757004,0.0143797925659632,1.11452198847513,4.84568368163573,0.349220486026394,533.964049369928,516.310978205297
0.78,-0.00777473968401941,-0.0443041161263675,6.10223062336251,2.21193602531261,0.0121191714683565,0.0433177442373619,4.54877958409284,-4.6301710396182,-2.01731220933807,534.504669045375,516.310978205297
0.79,0.0355420182943293,0.00391494029003717,3.6693795820247,-0.207560509236552,-0.0348594612962159,-0.00796114188082453,-3.39823236778278,-1.3998016489945,1.90503124524819,535.488899314481,516.310978205297
0.8,0.012850397602597,0.0299104976784778,4.5874174836017,-1.4978029029579,0.0325227877943203,-0.00142788795241984,0.645052176590002,4.78243874967993,-0.449660409091949,536.08161754153,516.310978205297
0.81,0.0434015013995574,-0.0377622116956179,2.94180861289028,1.90273603068779,0.0500588560403753,-0.0283511179287419,-0.814620305050909,-3.40749703975685,-2.80213912897405,536.354662339648,516.310978205297
0.82,0.0430463394877248,0.0535824823284936,2.86907906868747,-2.67734809467423,-0.0159970534363553,0.0668443268881524,-3.7384540032901,-1.19321799673005,1.12890643426176,536.360666549027,516.310978205297
0.83,-0.0478635728827081,0.00193627459183576,7.34144570081367,-0.100853877684295,-0.0443351683952118,-0.0181401105774335,6.86712555536394,2.59799597565258,-1.22285170454084,536.284308093658,516.310978205297
0.84,0.00479589859791271,-0.0900667151009496,4.65969897866149,4.50039321075243,0.079736691785285,-0.0421553531069963,-6.04055351240575,-2.3405227806813,2.70846165428446,536.334445092146,516.310978205297
0.85,-0.0340605028489999,-0.0180745303849121,6.4672073318626,0.891999437113804,-0.00497713395829952,-0.0382365615677323,-1.43344022105138,6.36911946832377,0.358434225552692,536.439431114295,516.310978205297
0.86,-0.035456533103272,0.0936438737050075,6.43384280961529,-4.6793067341524,-0.070614494647431,-0.0709924923345473,7.78398773984788,1.64310062900004,-1.99157439036419,536.671336852917,516.310978205297
0.87,0.019577361442447,-0.059245536615156,3.62931934052301,2.97577560088265,0.00323438682126678,-0.0623124821505003,-4.46127106525747,1.45748405980971,1.94180405911352,536.616422434547,516.310978205297
0.88,0.0424476823220215,0.0363876443236386,2.34475235025742,-1.82058536044072,0.0502011416090101,0.024611212385557,-0.745698970368935,2.87338262058492,-0.406297987054828,536.928454485957,516.310978205297
0.89,0.000649268892498021,-0.0823198445217221,4.38776657608063,4.11540267293019,0.0764627837068381,0.0305028041330066,-2.15244221058059,-5.61747516386519,-2.7541276204385,536.816683891247,516.310978205297
0.9,-0.00375182004228099,-0.0334210163226067,4.56181147822776,1.66129073037602,-0.00921908023728598,-0.0323426814788769,-3.58938734318761,3.26899210067697,1.18132540887795,536.686991908368,516.310978205297
0.91,-0.0155896724847972,-0.00425049918113757,5.11701963244668,0.214381925755354,-0.0160091938906802,-0.00219324928877248,4.79237486833045,1.80637555628115,-1.16846591891359,536.397975266919,516.310978205297
0.92,-0.0754724547843911,-0.00226130245515082,8.04639053364318,0.122708366653336,0.029934745421116,0.0693189435619774,-3.08141758019683,-7.43399782483175,2.76389511284978,536.425455509584,516.310978205297
0.93,-0.0123981125836408,-0.0608049708661142,4.89224220125622,3.05008696033844,-0.0507892685591882,-0.0356568068801496,0.841725880747976,5.70338160770064,0.410960727420172,536.103355000671,516.310978205297
0.94,-0.0584801603214752,0.0305188773849825,7.17277810878565,-1.53274342722217,-0.0655751774130798,-0.00715731341413458,7.23897627904384,-1.18121574786656,-1.94306792854305,535.908951296712,516.310978205297
0.95,0.0113046824459135,0.04664360185218,3.69190366725323,-2.3463213882992,-0.0290907415671672,0.0381726367182033,-2.43827922193074,-3.63182752637966,1.9842081437491,535.603330200621,516.310978205297
0.96,-0.00925995178167488,-0.0633602071979627,4.64268145750825,3.16054171079234,-0.062388021078975,0.0144221145820256,4.63283232429968,3.17496136613867,-0.372297784133109,535.722087742194,516.310978205297
0.97,-0.00247538938044059,0.0121782238964257,4.25115268577201,-0.598771095291502,-0.0121508418014948,-0.00260647911392324,2.25042381564457,-3.6560113008965,-2.72975309228736,535.525924466676,516.310978205297
