t,iq,id,vq,vd,ia,ib,va,vb,theta_e,omega,r
0,0,0,0,0,0,0,0,0,0,0,0
0.01,0.000769646730755632,0.00042601055153489,-0.0372652059340484,-0.0213144850883556,0.000322931700195678,-0.000818264136566318,-0.0151985116209828,0.0401498205773777,-2.26016545717221,-0.00313385675608766,0
0.02,0.000920536447370131,0.000505213666424832,-0.0447646911978245,-0.0252772317265445,0.000388964612098399,-0.000975363896304546,-0.0184638037960011,0.0479781613984612,-2.26018962246412,-0.0034019891994651,0
0.03,0.000974635642994766,0.00053556773021901,-0.0475020265649237,-0.0267959227228385,0.000411377131333602,-0.00103320679733706,-0.0196088019884702,0.0508916386739513,-2.26021369445561,-0.00324503036246181,0
0.04,0.000951857973769678,0.000525364828755907,-0.0465367671522704,-0.026285449556038,0.000400269956708909,-0.00101085397920713,-0.0191876371736426,0.0498841671779764,-2.26023494770328,-0.00279552333401336,0
0.05,0.000971129589511636,0.000538573156483026,-0.0475751887208635,-0.0269462983566455,0.000406718298359811,-0.00103331212626603,-0.0195675383010841,0.0510549999685314,-2.26025413621871,-0.00256527207406054,0
0.06,0.00097064496891482,0.000540545050670804,-0.047654579976882,-0.0270449521141406,0.000405072211303942,-0.00103453231516163,-0.019565159783189,0.0511819592267381,-2.26027134109321,-0.00228052513753569,0
0.07,0.000984353655310449,0.000550709851827452,-0.0484006772795152,-0.0275535160134523,0.000409167741453494,-0.00105110190703695,-0.0198165441709228,0.0520492688031371,-2.26028624157746,-0.00209618913437907,0
0.08,0.000966671084121487,0.000542354266332141,-0.0476341442838438,-0.0271354805488163,0.000400825666509878,-0.00103341178634279,-0.0194903425509283,0.0512393652723832,-2.26029986240761,-0.00179451208638651,0
0.09,0.000961111738857982,0.000541102050501402,-0.047437840824127,-0.0270728231363522,0.000397320773589205,-0.00102891370216453,-0.0193781407120939,0.0510663701193819,-2.26031163804278,-0.00157657849814807,0
0.1,0.000957923092069647,0.000540912568639495,-0.0473464897919566,-0.0270633402452502,0.000394970508538608,-0.00102674308111484,-0.0193131649581909,0.0510011386161891,-2.26032195402956,-0.00139307115838377,0
0.11,0.000955409286479663,0.000540882300085307,-0.0472800040448477,-0.0270618296905679,0.000393040954805188,-0.00102512407789642,-0.0192623672787473,0.0509578513626778,-2.2603310147372,-0.00123315810601872,0
0.12,0.000953249268146824,0.000540876075940255,-0.0472239267611542,-0.0270615090403208,0.000391370218098738,-0.00102374823522794,-0.0192188998332832,0.0509220818455064,-2.26033897691057,-0.00109284834738015,0
0.13,0.000991419893922502,0.00056320444918707,-0.0490988466717023,-0.0281786658160686,0.00040660729079363,-0.00106526201881175,-0.0199543536215401,0.0529769546426702,-2.26034650281885,-0.00113747105144065,0
0.14,0.00101439563000677,0.000577499657847428,-0.0503669617328362,-0.0288938915933133,0.000415231868852086,-0.00109091101565633,-0.0204773535150783,0.0543356770328818,-2.26035335226409,-0.00112623088289669,0
0.15,0.000958763521361395,0.000546348454607366,-0.0476107703959157,-0.0273353262185691,0.00039212204252891,-0.00103148651348823,-0.0193421105930494,0.051379843080477,-2.26035951471786,-0.000779795283859174,0
0.16,0.000948327164412821,0.000541688248869144,-0.0471382120327779,-0.0271021532714717,0.000387030203901695,-0.00102125324527954,-0.0191256277813786,0.0508993920156777,-2.26036417846232,-0.000657187072832294,0
0.17,0.000945694907448466,0.000540990382910616,-0.0470356806772958,-0.027067244507721,0.000385439300828808,-0.00101904170560009,-0.0190685300250387,0.0508073040487437,-2.26036814933982,-0.000580358320044832,0
0.18,0.000944493662102073,0.000540885261464583,-0.0469987582828239,-0.0270619853550328,0.000384575865597269,-0.00101819769564692,-0.0190432135141725,0.0507798222775243,-2.26037161744875,-0.000518095720818744,0
0.19,0.000943627116046644,0.000540868885791096,-0.046975354316769,-0.0270611602471745,0.000383914631578716,-0.00101763492541048,-0.0190255273729305,0.0507643537858123,-2.26037466174661,-0.000464269756456012,0
0.2,0.000942897824451444,0.000540865862544708,-0.0469563272295585,-0.0270609982917949,0.000383351175250233,-0.00101716963435592,-0.0190108149833035,0.0507521744273928,-2.26037733664244,-0.000417116135921793,0
0.21,0.00094226204741717,0.000540864905727361,-0.0469398491253793,-0.0270609575172678,0.000382858883791985,-0.00101676530593437,-0.0189980085770844,0.0507417040290309,-2.26037968740646,-0.000375700363694126,0
0.22,0.000941704385085209,0.000540864318952065,-0.0469254175290405,-0.0270609339868605,0.000382426914509892,-0.00101641084973678,-0.0189867845973404,0.0507325434920249,-2.26038175339096,-0.000339305914365374,0
0.23,0.000941214418262517,0.000540863841142504,-0.0469127383599497,-0.0270609102670939,0.000382047359327075,-0.00101609944938076,-0.0189769254832514,0.0507244929409445,-2.26038356910808,-0.000307320876242855,0
0.24,0.000940783823253594,0.000540863426783163,-0.0469015934429184,-0.0270608863800088,0.000381713794138841,-0.00101582578619142,-0.0189682613471505,0.0507174141752392,-2.26038516487665,-0.000279210491850714,0
0.25,0.000940405498727584,0.00054086306337624,-0.0468918015218597,-0.0270608652546753,0.000381420720750752,-0.00101558534311193,-0.0189606491247115,0.0507111946523325,-2.26038656734056,-0.000254505297140793,0
0.26,0.000947933695208198,0.000545323211530295,-0.0472593434336849,-0.027284009626629,0.000384389997225649,-0.00102381640228004,-0.0191021842363422,0.051117211196326,-2.26038767862516,-0.000269433154135055,0
0.27,0.000928646444849178,0.000534219538496705,-0.0463430676698852,-0.0267284807097865,0.000376572745600187,-0.00100297941260715,-0.018748640604422,0.0501056890741481,-2.2603890959256,-0.000161140124953135,0
0.28,0.000927903256147638,0.000533985081714427,-0.0461920257152438,-0.0267167393001158,0.000376147591479667,-0.00100232604959015,-0.0186395338703141,0.0500005517530108,-2.26039004073422,-0.000142344534019853,0
0.29,0.000937325830778472,0.00053983339600456,-0.0467686697622322,-0.0270093574053636,0.000379695655219857,-0.00101283316389894,-0.0188982138708629,0.0505931949106847,-2.26039069136697,-0.000173189464098213,0
0.3,0.000925561783679768,0.000533816042909568,-0.0462031570196214,-0.0267082875502188,0.000374448280454505,-0.00100070608489245,-0.0186534788989995,0.0500011206615366,-2.26039044128084,-0.00012544460621366,0
0.31,0.000936859668727083,0.000539808044848203,-0.0467482101346209,-0.0270080708760183,0.000379351813367949,-0.00101251714349176,-0.0188832314736504,0.0505791914955868,-2.26039101226463,-0.000165862587602927,0
0.32,0.000938628600629898,0.000540704114082213,-0.0468369450590379,-0.0270529123002086,0.00038014577917533,-0.00101433415375854,-0.0189231280892529,0.0506702546836291,-2.26039167369583,-0.000162795034397736,0
0.33,0.000938795490858813,0.000540838006331352,-0.0468485553159804,-0.0270596166449975,0.000380188732672769,-0.00101454386317102,-0.0189277891333415,0.0506828253621724,-2.26039228214774,-0.000153536584791806,0
0.34,0.000938706459731915,0.000540857916241139,-0.0468474840831044,-0.0270605986162784,0.000380106830501033,-0.0010145027848703,-0.0189263105821526,0.0506829116185717,-2.26039282151062,-0.000144283653431566,0
0.35,0.000938587774509231,0.000540860791947004,-0.0468446053039683,-0.0270607475052667,0.000380012953257897,-0.00101442967330414,-0.0189239708049297,0.0506812039182431,-2.26039329632237,-0.000135961793987208,0
0.36,0.00093847677253112,0.000540861132228237,-0.0468417528367285,-0.027060771235762,0.000379926675036118,-0.00101435947204708,-0.0189217338663284,0.0506794153101952,-2.26039371375106,-0.000128615732870713,0
0.37,0.000938377994134645,0.00054086110416414,-0.0468391847630885,-0.0270607745548546,0.000379850113006921,-0.00101429674431226,-0.0189197318871283,0.0506777909354639,-2.26039408063691,-0.000122154052559458,0
0.38,0.000938290973681772,0.000540861030567469,-0.0468369152590069,-0.0270607749247034,0.000379782696338994,-0.00101424144523909,-0.0189179643844604,0.0506763534012969,-2.26039440308374,-0.00011647417832621,0
0.39,0.00093821474691421,0.000540860958564101,-0.0468349308211303,-0.0270607528905915,0.000379723645651865,-0.00101419299975844,-0.0189164330450871,0.0506750792093752,-2.26039468647148,-0.000111482180290087,0
0.4,0.000938147517066006,0.000540860894185359,-0.046833172397463,-0.0270607531961762,0.000379671566091433,-0.00101415027118163,-0.0189150636031427,0.0506739653988507,-2.26039493553093,-0.000107094863900421,0
0.41,0.000938088436290311,0.000540860837439276,-0.0468316246871138,-0.0270607534744382,0.000379625799312088,-0.00101411272168027,-0.0189138582735452,0.0506729850575951,-2.26039515442027,-0.000103239003089735,0
0.42,0.000938036515056893,0.000540860787541043,-0.0468302620424183,-0.027060753728702,0.000379585578676145,-0.00101407972247782,-0.0189127970815936,0.0506721219397559,-2.26039534679448,-9.98502234834085e-05,0
0.43,0.00093799088025084,0.000540860743682182,-0.0468290617609327,-0.027060753961883,0.000379550227826775,-0.00101405071867576,-0.0189118623475941,0.0506713616645583,-2.26039551586527,-9.68719455691138e-05,0
0.44,0.0009379507169649,0.000540860705134323,-0.0468280015111465,-0.0270607541767323,0.000379519115659039,-0.00101402519232155,-0.0189110366978678,0.0506706900797036,-2.26039566445558,-9.42544430904682e-05,0
0.45,0.000937915501330126,0.000540860671255513,-0.0468270712644898,-0.0270607543749964,0.000379491835897367,-0.00101400281056492,-0.018910312268471,0.050670100853091,-2.2603957950462,-9.19540133229446e-05,0
0.46,0.00093788453485459,0.000540860641479916,-0.0468262503253698,-0.0270607545590091,0.00037946784780109,-0.00101398312939944,-0.0189096729806958,0.0506695808607124,-2.26039590981774,-8.9932247477101e-05,0
0.47,0.000937857235461683,0.000540860615310632,-0.0468255220765001,-0.0270607547307199,0.00037944670066906,-0.00101396577883743,-0.0189091059159164,0.0506691195679739,-2.26039601068632,-8.81553894350617e-05,0
0.48,0.000937833253901537,0.000540860592311038,-0.0468248800331939,-0.0270607519809143,0.000379428123623456,-0.00101395053698007,-0.0189086078367458,0.0506687106365626,-2.26039609933611,-8.65937721445064e-05,0
0.49,0.000937812240935995,0.000540860572097198,-0.046824316395818,-0.027060752131523,0.000379411845968944,-0.00101393718189893,-0.0189081689466461,0.0506683536237807,-2.26039617724748,-8.52213222899631e-05,0
0.5,0.000937793988998347,0.000540860554331745,-0.0468238292703483,-0.0270607299144777,0.000379397706463197,-0.00101392558176818,-0.0189078037947436,0.0506680278548762,-2.26039624572059,-8.40151249626277e-05,0
0.51,1.02252573245008,0.00306861640652397,-3.18310328712574,-0.153283487986347,-0.0212286895993632,1.02230994941217,-0.0776058528334076,-3.18584677845717,0.0237634376375057,7.27706493996936,130.24619632065
0.52,0.904923189073214,-0.0280607479310728,0.0209444614670601,1.40448479756112,-0.123334801445328,0.896918006536455,1.39444445174215,0.168940486716392,0.105653496273103,14.9833413234475,130.24619632065
0.53,0.877725135265653,-0.0467215462991891,-1.12219950380946,2.33860765620901,-0.255972530804503,0.84087001340233,2.53956122579772,-0.528248309466658,0.242321239690898,22.2395193287518,130.24619632065
0.54,0.847807146759728,-0.00213430262393498,-2.01876475805975,0.107954383605362,-0.355906753893811,0.769488073901949,0.940948264001342,-1.78932435902396,0.430702561301009,29.1047958064667,130.24619632065
0.55,0.741993803379571,-0.0163843112440907,1.00104149985389,0.82137160078315,-0.472600671092281,0.572251566701002,0.0244616136356266,1.29465710536078,0.668234695413484,35.6422994934912,130.24619632065
0.56,0.696082821476987,-0.0792867650420322,1.15466262468611,3.9694024025297,-0.613073475718403,0.339055450976312,1.36110957677341,3.90343207063621,0.952205113440794,41.83411088778,130.24619632065
0.57,0.654464808856266,-0.0435360814898058,1.12268706986361,2.18098931963708,-0.639632701018339,0.145222533412484,-0.452921784271224,2.41080951685166,1.28111675903675,47.8799632314483,130.24619632065
0.58,0.576775122126965,-0.037814021991115,2.92653515359501,1.89489286080225,-0.571646996247068,-0.0855520510883527,-3.07370236353005,1.64547280122659,1.65388522038507,53.7975397227983,130.24619632065
0.59,0.546575433265941,0.0206723773317557,2.41281293166296,-1.03456213831275,-0.489874489140267,-0.243300300706679,-1.62397627583793,-2.06268904994083,2.06957073573728,59.5127468742673,130.24619632065
0.6,0.537467892497959,0.0279872977966932,1.02423021658732,-1.40078713720641,-0.33348844786627,-0.422422157851485,0.551114671887799,-1.6454557905831,2.52533272774798,64.710760542446,130.24619632065
0.61,0.49877526716973,0.0338941318810708,1.31534278559287,-1.69601119275112,-0.0955076952649617,-0.490717698337223,1.51973580095923,-1.51558031949188,3.01721760648179,69.3590351867163,130.24619632065
0.62,0.474360920815468,-0.016017707091581,1.08111054920676,0.802392916013074,0.199319415438326,-0.430751228398358,-0.318530586562031,-1.30811799035812,-2.74196114180836,73.5183413717006,130.24619632065
0.63,0.472622418635657,0.0324616450311213,-0.221459575034253,-1.62213747489903,0.366506236100163,-0.30016476791062,0.758851489400138,1.45069595294167,-2.18843307220325,77.4711080931444,130.24619632065
0.64,0.365453997230905,0.0076971089075805,3.84906723213424,-0.382034483822423,0.364935302784569,-0.0209307037415488,3.86038018209216,0.242350477674612,-1.60702946165203,81.1656871203398,130.24619632065
0.65,0.366862510518817,-0.0372171433654868,2.51805383525572,1.86604030747172,0.288362327120785,0.229826860227307,3.12730654189692,-0.206531690943374,-0.998984142469553,84.7357733878638,130.24619632065
0.66,0.373671565210671,-0.0559517181381384,0.915352371099656,2.79865454511752,0.0809609668976856,0.369061451859435,2.94108428475888,-0.1426900701839,-0.364579982074349,88.333470910393,130.24619632065
0.67,0.37213578580865,0.050097246444644,-0.17054247493528,-2.50783023595955,-0.0602930119497527,0.370620466098115,-2.34983809305165,-0.892501072600689,0.295084889708996,91.5600208231083,130.24619632065
0.68,0.333517266199834,0.00915768562319766,0.748436135570451,-0.458073454760969,-0.271280896927195,0.194227456920388,-0.876613722621501,0.0391959219301566,0.976887187920895,94.4053047011663,130.24619632065
0.69,0.344571466681724,-0.0323756443477,-0.747717012385961,1.62227432318858,-0.339068965714818,-0.06935354704128,0.568369895598009,1.69346106304995,1.67887040226345,97.0999885102152,130.24619632065
0.7,0.236860975641288,0.0470810429757118,3.73199687965915,-2.35223097244011,-0.194698132821233,-0.142871912793765,-0.786002294313354,-4.34085148914661,2.40006999851896,99.6611009381317,130.24619632065
0.71,0.267667117778928,-0.00217460782259217,1.29560091834408,0.112839054737292,0.00171042536259263,-0.26767048642751,-0.115085672006797,-1.29540328855024,3.13985848681345,102.183297827116,130.24619632065
0.72,0.22144882559468,-0.00966814381457798,2.7416832483336,0.481835881410405,0.158997439333312,-0.154443742662278,1.53094758288976,-2.32490695496651,-2.3852983225992,104.576421914174,130.24619632065
0.73,0.21388453801486,0.000745157877252947,2.36470737805127,-0.0378617516315949,0.213683768177151,-0.00929505673494313,2.3643306221407,-0.0567027799538155,-1.61078413417853,106.680010395131,130.24619632065
0.74,0.259384868159974,-0.0681179178072525,-0.599240692189956,3.41057146990547,0.143548448427467,0.226526827353472,1.88386835229982,-2.90553389064947,-0.821640330867597,108.624055624733,130.24619632065
0.75,0.189737482682963,0.0292089899786938,2.22558509216811,-1.45764934747331,0.03272307564332,0.189163098279989,-1.41612010861788,2.25223765634055,-0.0185483216004229,110.467400469382,130.24619632065
0.76,0.181705555913719,-0.065249156468381,1.95940197405085,3.26713707673498,-0.175646210506227,0.0801421874205525,0.878108308620866,3.70706980948859,0.797987856900828,112.327061053031,130.24619632065
0.77,0.185122604717953,-0.0798022029754029,1.15196152955007,3.99104586009363,-0.180248491506644,-0.0902732058080707,-1.37863822675026,3.91852256120553,1.62809772638106,114.079992612422,130.24619632065
0.78,0.162870859711109,-0.036059398238906,1.72472141794823,1.80427244151258,-0.0731279104362456,-0.149931670635714,-2.48564028549715,-0.22727820802878,2.46991573133723,115.561242130266,130.24619632065
0.79,0.201170739976939,-0.0679097622900741,-0.688073803824916,3.40109727203781,0.102953663986827,-0.185693148793517,-3.46937887827041,0.0657146283885487,-2.96091660604274,116.961283410731,130.24619632065
0.8,0.108249384744142,0.0300321081977166,3.46503648797896,-1.49857453721587,0.0783974223874272,-0.0804593125951991,3.74826047942973,-0.450274233065266,-2.09854523412613,118.325089850629,130.24619632065
0.81,0.179498452831084,0.0172089062407738,-0.606313969900024,-0.863482121072753,0.174753583274351,0.044463762273688,-0.862450057999249,0.607781129161904,-1.22606608054153,119.723220643791,130.24619632065
0.82,0.134209803072293,-0.0393489443414958,1.20441538595315,1.96755660746007,0.00819886881909807,0.139618728011614,2.25841027126779,0.470614993505953,-0.343853159189993,120.936140698535,130.24619632065
0.83,0.186078244082356,-0.000740164741342558,-1.78303857791226,0.0389676838142759,-0.0973593460614039,0.158577484212334,0.96014682644593,-1.50295147039784,0.546639276308505,122.01537090421,130.24619632065
0.84,0.151714475705146,-0.0447694383603556,-0.44417110261305,2.24449690176072,-0.156134887411138,-0.0253669407438182,0.722460013993285,2.17096887094007,1.44491094035554,123.045363064009,130.24619632065
0.85,0.0763138197348538,0.0261684017638979,2.95208794878054,-1.31098961584059,-0.0726605771527266,-0.0350574508661597,-1.17706057258217,-3.00799691466758,2.35067222728778,124.084302163884,130.24619632065
0.86,0.0831038528564476,-0.00576760735732573,2.25474889682918,0.286265528260784,0.0158618628294012,-0.0817796855080504,-0.0090847829836086,-2.2728303955951,-3.01930424410854,125.031261192699,130.24619632065
0.87,0.0836997562301822,-0.0174690672373492,1.91860210440593,0.874838681711671,0.0810760511654692,-0.0271567934511638,1.21490545220767,-1.72347947369441,-2.09976268285968,125.83926756685,130.24619632065
0.88,0.0823280155191532,-0.00799238986141666,1.70544817268597,0.403711917406074,0.0728618118812214,0.0391527368699087,1.72910213560051,0.285906604742446,-1.17448891336555,126.602369001184,130.24619632065
0.89,0.0772171747450657,0.0177207202404649,1.67881468180228,-0.885037023136625,0.0358228109562685,0.0706628772174066,-0.453963419888023,1.84272257314035,-0.243609312732212,127.359114278991,130.24619632065
0.9,0.0531467126423258,0.0392571638632063,2.59434391914609,-1.96713598219096,-0.00373919817634512,0.0659675403229998,-3.17064350197652,0.739773023713862,0.692823449208476,128.130872084658,130.24619632065
0.91,0.0861486442791267,-0.0613585078845666,0.694428127462785,3.07068975810652,-0.0820657521822382,-0.0667208192374419,-0.888593370412627,3.02022645455775,1.634530420723,128.77444720547,130.24619632065
0.92,0.131565352643931,0.0143255116608045,-1.8015550997675,-0.712842256844623,-0.0821211026592327,-0.103782401199324,1.56200357083276,1.14625028041319,2.58064833513221,129.366142197134,130.24619632065
0.93,0.056832834556633,0.0698902909216404,1.71445936435383,-3.49420256633322,-0.0430672115737616,-0.0791191451932717,3.88353207777629,-0.258845682739295,-2.75200001427075,129.965763370109,130.24619632065
0.94,0.0560322744325687,-0.0178127908491507,1.53643230498989,0.888552404976524,0.0586016938199918,0.00476998714361078,1.29755016411444,-1.21099676953025,-1.79737760358188,130.482328389774,130.24619632065
0.95,0.0830300117576532,-0.0758587341294579,0.0110921057995406,3.79616178769125,0.0111090915661627,0.111915675759808,2.54421609616466,-2.81743355008684,-0.83923376540016,130.965657580229,130.24619632065
0.96,0.0149917990984682,0.000710879453943883,3.23580537027209,-0.0321810879290405,-0.00112521158558889,0.0149664053364369,-0.42709074095463,3.20765732516627,0.12242370929785,131.39870449217,130.24619632065
