t,iq,id,vq,vd,ia,ib,va,vb,theta_e,omega,r
0,0,0,0,0,0,0,0,0,0,0,0
0.01,0.000428584384490057,0.000234305128149548,-0.0206347805072195,-0.0117201224291084,7.4187899115152e-05,0.000482783205311429,-0.00398475944358696,-0.0233939549565942,0.347828162107403,-0.00190969804344434,0
0.02,0.000555777015395525,0.000298123888728766,-0.0268780495186283,-0.014912390475867,9.08400459078892e-05,0.000624110591107195,-0.00485826692975348,-0.0303513785200908,0.347812721636912,-0.00222797258271164,0
0.03,0.000605906013565994,0.000324260795696438,-0.0293874390488952,-0.0162197758178002,9.833669200791e-05,0.00068014487861489,-0.00523259131908738,-0.0331560354915909,0.347796712386666,-0.0021604124450393,0
0.04,0.000598957009742749,0.000321980142330951,-0.0291638133383261,-0.0161056996547937,9.85706178004989e-05,0.000672833222189469,-0.00520203345558774,-0.0329068445422847,0.347782418849044,-0.00184864055827419,0
0.05,0.000609057138835353,0.00033016114823639,-0.0297399012413056,-0.0165149173529999,0.00010282819981735,0.000685115569443142,-0.0053908359827662,-0.0335878416756114,0.34776982240605,-0.00165278546875986,0
0.06,0.000608161450109909,0.000332184257561663,-0.0297801985665819,-0.0166161088739873,0.00010504300480328,0.000684961821938623,-0.00547260760881894,-0.033660152506148,0.34775879055799,-0.00143388345043935,0
0.07,0.000611806921884516,0.000336934162973733,-0.0300238445245986,-0.0168537015141945,0.000108272645602354,0.000690006792762856,-0.00561326107035683,-0.0339701309229571,0.347749491574221,-0.00127076697564835,0
0.08,0.00060290739250811,0.000333857774504156,-0.0296618133125617,-0.0166998209524747,0.000108418828721459,0.000680590695731629,-0.00559224269149123,-0.033577284144395,0.347741236972543,-0.00106695279026931,0
0.09,0.000597959617116535,0.000333095149798132,-0.0294782224706716,-0.0166616727027896,0.000109392619498328,0.000675678427449395,-0.00561917276554569,-0.0333916431868251,0.347734296195892,-0.000907907766104933,0
0.1,0.000594511774017459,0.000332905396692933,-0.0293581556382766,-0.0166521823647721,0.000110393095973933,0.000672371636042119,-0.00565136122236645,-0.0332754954332048,0.347728412994134,-0.000776724748883835,0
0.11,0.000591798882428179,0.000332857585152987,-0.0292664733359087,-0.0166497953619931,0.00011127594867817,0.000669804264306292,-0.00568052498894263,-0.0331884585807732,0.347723412352504,-0.000666280024203973,0
0.12,0.000589554272991423,0.000332845030518078,-0.0291914941841168,-0.016649162451351,0.000112031855551718,0.000667689237957798,-0.00570562063025314,-0.0331177269186222,0.347719157825921,-0.000572622366563072,0
0.13,0.000608972016585591,0.000344632100642339,-0.0301462473334943,-0.0172387663670943,0.000116499513905624,0.000689960915586692,-0.005934735610486,-0.0342162272523594,0.347715248578657,-0.000591028037600818,0
0.14,0.000619389468702629,0.000351420821710257,-0.0307368586322643,-0.0175783444906898,0.000119334696185991,0.000702067758950256,-0.0060528640168691,-0.0348871826149154,0.347711694822517,-0.000572577185165077,0
0.15,0.000593833975020349,0.000337437979573251,-0.0294751423696315,-0.0168789078595617,0.000114898737364732,0.00067327665940454,-0.00582531668168373,-0.033462624430844,0.347708557424245,-0.00038728014764992,0
0.16,0.000585722582428107,0.000333976580480912,-0.0291053102543852,-0.0167057642439693,0.000114409872814147,0.000664470978206441,-0.00578862647067932,-0.0330559139574457,0.347706331640929,-0.000304546572569143,0
0.17,0.000582783383069114,0.000333119516926683,-0.0289785007405381,-0.0166629003421011,0.000114606775899093,0.000661415430011247,-0.00579159516801027,-0.0329220773705129,0.347704566314618,-0.000255921215094912,0
0.18,0.000581434261031341,0.000332907126874142,-0.0289252096849002,-0.0166522666169308,0.000114867763607215,0.000660074504816339,-0.00579980437674159,-0.0328683435540692,0.347703101222544,-0.000220866830876372,0
0.19,0.000580620790256206,0.000332854344608369,-0.0288957231334685,-0.0166496273977829,0.000115096136384605,0.000659291586622903,-0.00580741091593951,-0.0328397150770907,0.347701865035893,-0.000192869750122056,0
0.2,0.000580025774998842,0.000332841100146994,-0.0288752397620246,-0.0166489634715919,0.000115287119925314,0.000658727544277143,-0.00581380061658406,-0.0328202251421805,0.347700815948226,-0.000169573524157398,0
0.21,0.000579547482468662,0.000332837668839218,-0.0288591373286097,-0.0166488033901039,0.000115447453201447,0.000658276601272891,-0.00581916607590238,-0.0328050265638508,0.347699923870194,-0.000149898998054703,0
0.22,0.000579148685911689,0.00033283668921325,-0.0288458230139387,-0.0166487485864443,0.000115582916052169,0.000657901247602215,-0.00582367611395885,-0.0327924858979281,0.347699164786607,-0.000133196941859265,0
0.23,0.000578811705926116,0.000332836335774298,-0.0288346045173806,-0.0166487256354543,0.00011569782967071,0.000657584237598689,-0.00582749825639614,-0.0327819271402717,0.347698518719839,-0.000118993017183214,0
0.24,0.000578525324229907,0.000332836153805463,-0.0288250733706533,-0.0166487221673138,0.00011579560031552,0.00065731486747441,-0.00583076061313948,-0.0327729619549441,0.347697968799456,-0.000106906218027827,0
0.25,0.000578282058589627,0.00033283602831154,-0.0288169820696489,-0.016648709154636,0.000115878678890499,0.000657086061948851,-0.00583352070132013,-0.0327653476762478,0.347697500704513,-9.66188410287209e-05,0
0.26,0.000581622307289793,0.000334894688270423,-0.028978498482979,-0.0167516876923979,0.00011667621856919,0.000660927848247629,-0.00587531315194593,-0.0329522853568341,0.347697187895896,-0.000106779917054509,0
0.27,0.000574023910748983,0.000330385605336924,-0.028620470589418,-0.0165261465147872,0.000115026345337191,0.000652247681639246,-0.00578527830771476,-0.0325388292704307,0.347696642508306,-5.922132513444e-05,0
0.28,0.000573270904170642,0.000330122227216661,-0.0285211964059572,-0.0165129616763783,0.000115035492893355,0.000651449959586995,-0.00580671796045766,-0.0324410014376934,0.347696349612661,-4.98625901943817e-05,0
0.29,0.000576325411467042,0.000332164054752594,-0.0287334061861169,-0.0166150970730428,0.000115914461648106,0.000655017386603722,-0.00583043947482453,-0.0326753126585412,0.347696204471742,-6.18948201017908e-05,0
0.3,0.000567367766374809,0.000327665645175769,-0.0283035639606946,-0.0163900929730902,0.000114737146507563,0.000645063054717052,-0.00576534829429821,-0.0321945281001151,0.347696596437672,-2.59554302082079e-05,0
0.31,0.000574739699514801,0.000331556059032158,-0.0286553862605624,-0.0165846947479066,0.00011588294178939,0.000653319436632293,-0.00582842986272405,-0.0325916042403343,0.347696526712101,-6.04505354001355e-05,0
0.32,0.000576790744104595,0.000332518978897957,-0.0287545939339699,-0.0166328496664368,0.000116089511071508,0.000655575822640868,-0.0058399063036024,-0.0327012821568043,0.347696329621749,-6.65914612739488e-05,0
0.33,0.000577308631497731,0.000332757284410103,-0.0287808174411628,-0.0166447732859102,0.000116137231494378,0.00065614389411972,-0.00584218800528916,-0.0327299980084287,0.347696121818379,-6.50687454098739e-05,0
0.34,0.000577392512160233,0.00033281623711146,-0.028786212686642,-0.0166477238282933,0.000116164199311319,0.000656242820594707,-0.00584312982281054,-0.032736074648276,0.347695933294939,-6.18105484193842e-05,0
0.35,0.000577360207755858,0.00033283080080623,-0.0287858854963402,-0.0166484544035212,0.000116189006205722,0.000656217392562961,-0.00584393352902661,-0.0327360150101208,0.347695769437796,-5.84668053596031e-05,0
0.36,0.000577302524173301,0.000332834381412908,-0.0287841727340699,-0.0166486350686934,0.000116212119379371,0.000656164364452027,-0.00584469157472032,-0.0327344654764927,0.347695628976628,-5.54547808167665e-05,0
0.37,0.000577244665810779,0.000332835247049497,-0.0287822965871595,-0.0166486804211689,0.000116232726059758,0.000656110249331783,-0.00584537740002499,-0.032732716349987,0.347695509127953,-5.28427085906877e-05,0
0.38,0.000577192861004469,0.000332835443735698,-0.028780575374032,-0.0166486908362634,0.000116250629522116,0.000656061599651264,-0.00584597700634563,-0.0327311010854065,0.347695407027573,-5.06052621654911e-05,0
0.39,0.000577148041109017,0.000332835477455163,-0.0287790729881576,-0.0166486939563225,0.000116265989827852,0.000656019463139724,-0.0058464946959992,-0.0327296891564623,0.347695320093873,-4.86966386511376e-05,0
0.4,0.00057710968226054,0.000332835473061661,-0.0287777812652508,-0.0166486941475432,0.000116279104329327,0.000655983389563646,-0.00584693742915483,-0.032728474362069,0.347695246087409,-4.70708026231845e-05,0
0.41,0.00057707712835214,0.000332835461129327,-0.0287766837255044,-0.0166486805637897,0.000116290226588714,0.000655952772272722,-0.00584730068677139,-0.0327274375017553,0.347695183089849,-4.5686519510423e-05,0
0.42,0.000577049246882611,0.000332835448944248,-0.0287757379269874,-0.0166486807253787,0.000116299750410799,0.000655926548826996,-0.00584762485730859,-0.0327265480407947,0.347695129464551,-4.45080943227792e-05,0
0.43,0.000577025498156999,0.000332835438069891,-0.0287749290169226,-0.0166486808748857,0.000116307862072289,0.000655904212197698,-0.00584790211305079,-0.0327257873194656,0.347695083817777,-4.35049698067766e-05,0
0.44,0.000577005300098696,0.00033283542868878,-0.0287742382795909,-0.0166486810140097,0.000116314760856532,0.000655885215063824,-0.00584813887152436,-0.0327251377356351,0.347695044962222,-4.2651084803669e-05,0
0.45,0.000576988128838756,0.000332835420672537,-0.0287736483425888,-0.0166486811442814,0.000116320625804715,0.0006558690647435,-0.00584834108657147,-0.0327245829510788,0.347695011887971,-4.19242409892484e-05,0
0.46,0.000576973460508231,0.000332835413841159,-0.0287731405285115,-0.0166486812672234,0.000116325635811365,0.000655855268554534,-0.0058485151517899,-0.0327241054015286,0.347694983734354,-4.13055385262387e-05,0
0.47,0.000576961004068817,0.000332835408024185,-0.0287727066964798,-0.0166486813836989,0.00011632989036244,0.000655843552731126,-0.00584866386580292,-0.0327236974292702,0.347694959769689,-4.07788883170189e-05,0
0.48,0.000576950352066888,0.000332835403072349,-0.0287723319039798,-0.0166486814948967,0.000116333528559138,0.000655833534078137,-0.0058487923415279,-0.0327233449827027,0.347694939370474,-4.03305946904739e-05,0
0.49,0.000576941388087122,0.000332835398857042,-0.0287720149804162,-0.0166486816011571,0.000116336590294922,0.000655825103041026,-0.00584890099550399,-0.0327230469582952,0.347694922006402,-3.99489995549404e-05,0
0.5,0.000576933646468234,0.000332835395268628,-0.0287717365916393,-0.0166486817038411,0.000116339234428645,0.000655817821733531,-0.00584899643155427,-0.0327227851766648,0.347694907225707,-3.96241793161222e-05,0
0.51,2.6291779527327,-0.0123854370032099,3.26834098764426,0.622255108753777,-0.152830451184684,2.62476150523741,0.446756746333537,3.29691714204211,0.0534500167790399,16.3498587871856,333.507128280221
0.52,2.54993728926849,0.00903417391315103,1.19981014496767,-0.446320189717135,-0.593707538262441,2.47987361664069,-0.717168104230631,1.06038483862734,0.238530304560302,34.0274714598893,333.507128280221
0.53,2.43177263332283,-0.00153141194886408,1.24189052920606,0.0853015533233377,-1.27443853787904,2.07106902313012,-0.577504229606647,1.1027498838438,0.551002300120746,51.170231309539,333.507128280221
0.54,2.28271765606031,0.0165183999537946,2.79499955046544,-0.814908244043651,-1.89748616805404,1.26910164954195,-2.78256952548507,0.856390547095245,0.98853151065375,68.2598887603606,333.507128280221
0.55,2.16268288556268,-0.0156792223144135,2.71162614682767,0.792740672164174,-2.16261094850261,0.0236005706445499,-2.69678168820989,0.841856674023923,1.55263399392687,85.5072938110016,333.507128280221
0.56,2.03980293962409,0.0179245683642681,3.52825328786159,-0.886007171585706,-1.61569297950429,-1.24525239153782,-2.22851584494873,-2.87529078533282,2.23621620399354,100.605022174327,333.507128280221
0.57,1.97235129692606,0.0219453684407684,2.15298437038443,-1.0821475094802,-0.252171031500898,-1.95628755773626,0.823266065708475,-2.26464520763115,3.02452276363417,114.3583193775,333.507128280221
0.58,1.89130897909427,0.0137114629250455,1.27581074673117,-0.674781962005663,1.31013546864955,-1.36410509580625,1.37366751031392,-0.442788130860488,-2.36912344780675,128.537956666039,333.507128280221
0.59,1.79338676576842,0.00177071639748394,1.48356019827065,-0.0749665472361726,1.76024589961172,0.34318158454381,1.44144484645756,0.358897756635936,-1.3772620124999,141.642921344815,333.507128280221
0.6,1.69418715546314,0.0175681021191652,2.27844919710498,-0.858904759285181,0.509760639655211,1.61577314193753,-0.158788924728638,2.42978069106958,-0.295237476332534,153.630088400348,333.507128280221
0.61,1.5863055460198,0.0166723083802868,3.2872875009405,-0.822397517191603,-1.20891483552566,1.0272137906229,-3.05321666242906,1.46985196614765,0.876986766367866,165.892029897558,333.507128280221
0.62,1.51097749867007,0.0471137728352655,3.27755759699901,-2.33634069648486,-1.30389914518982,-0.764931191841005,-1.52951014185954,-3.72309956590555,2.13251199577367,176.627311634984,333.507128280221
0.63,1.39817853105986,-0.0240771777778003,4.97016069640444,1.21583109352161,0.471686848070655,-1.31643246411034,0.444198666208616,-5.09739444628292,-2.81475540842916,187.62079227343,333.507128280221
0.64,1.34656714076632,-0.0217462681860983,4.13259181335191,1.10939720176287,1.32425603019156,0.24507535835513,4.25944614728839,-0.407671148614391,-1.40394832202376,197.328414778011,333.507128280221
0.65,1.30058076898467,0.0347471618626208,2.90982431512975,-1.72402591959214,-0.0686075301568219,1.29923466268263,-1.94957800339618,2.76378156246466,0.0794674068295862,207.042306220408,333.507128280221
0.66,1.17547155350907,-0.0175759457122788,5.96981989364629,0.887096930320681,-1.17240371255586,-0.0866707664783242,-6.01165553134299,0.534498174770131,1.62963666272948,216.07773851612,333.507128280221
0.67,1.15110486677836,0.0430885720826859,4.14072566091311,-2.13604573325547,0.0759980334551765,-1.14940129557779,2.55217549561755,-3.89803804664251,-3.03815419486773,224.459684213929,333.507128280221
0.68,1.1147027440904,-0.0285994344249412,2.94516643912055,1.44141180173251,1.08455618163835,0.259071465434027,3.18000584849184,-0.799522444871622,-1.36196792683501,232.753978083676,333.507128280221
0.69,1.00510214693124,-0.0338885264516896,5.68784687206437,1.70318857369068,-0.39668690453892,0.924131082562525,-0.479327043954119,5.91799788294463,0.37176451255468,240.391215634002,333.507128280221
0.7,1.00546972130846,0.0228742784170204,3.02540174137877,-1.12417730040156,-0.848160802214689,-0.540477424753103,-1.88823274307106,-2.61751932322766,2.16089115328271,247.577820858073,333.507128280221
0.71,0.911635170307426,0.0346577404395298,5.12173205280996,-1.72239467844574,0.668600758745507,-0.620687415788943,5.0063253671554,-2.0335901669942,-2.28105013429075,254.604660079988,333.507128280221
0.72,0.870385367024587,-0.0149396471353728,4.77615017442417,0.75211113042993,0.317790266737004,0.810433974210286,2.51502641810672,4.12939750537459,-0.390860688087453,261.211191568452,333.507128280221
0.73,0.843974393715249,-0.0119824648454795,3.84124771011703,0.619598536806358,-0.844014540082411,0.00870705692363619,-3.82490728816342,0.713561878358306,1.54628374217549,267.333085085069,333.507128280221
0.74,0.777545831437358,0.0247316829162028,4.96167293442155,-1.21897484365705,0.270238053978765,-0.729493365499132,2.99963855450415,-4.13597225812412,-2.75502366666649,273.193388849267,333.507128280221
0.75,0.754425302840609,0.0316731775125589,4.01349980670935,-1.57235889709743,0.527402307779651,0.540377214072342,1.51000464882947,4.03737280421945,-0.731288918922524,278.809417478926,333.507128280221
0.76,0.684140838094302,0.0329428208029517,5.52388822977198,-1.64327767471471,-0.656948731988295,0.193784104946203,-5.75580853437375,-0.290466533114422,1.33207000208797,284.161378469763,333.507128280221
0.77,0.656863043210926,-0.0101630960881706,5.01983989257337,0.509362894048711,0.198476191786522,-0.626242403029638,0.954507822390417,-4.95450884769623,-2.850146231086,289.137174227468,333.507128280221
0.78,0.611750355086086,0.0222133870918962,5.52009153554954,-1.10120599208903,0.417266717104975,0.447906707150589,2.78120936809484,4.89376538553699,-0.713702854825076,293.781688698929,333.507128280221
0.79,0.616166040728225,0.0128395233572701,3.59624129036542,-0.62367335243755,-0.610677637343739,0.0830558026570523,-3.64391482534317,-0.209295520052616,1.45645451951132,298.199333730777,333.507128280221
0.8,0.560808830883681,-0.0180831185245331,4.72995723258469,0.920246646157791,0.292824518805608,-0.478630698095053,1.53707460960308,-4.56691919748515,-2.62477802310007,302.43350656341,333.507128280221
0.81,0.525864584221925,0.0304550389971934,4.91621717464674,-1.5124742919812,0.229376856186028,0.474180691493689,0.484015193936736,5.1207908651139,-0.392699935688193,306.461798896084,333.507128280221
0.82,0.470007389642425,-0.0145684271350095,6.23019616449705,0.734717330073217,-0.445168366987831,-0.151473794502754,-6.17246217550779,-1.12065360176518,1.86778325092638,310.24269466238,333.507128280221
0.83,0.490098155554351,0.0167097570584374,3.82001920528179,-0.833426095560263,0.407108661399223,-0.273382435193743,3.68282683331781,-1.31298602478353,-2.12807129474834,313.822956155787,333.507128280221
0.84,0.453455478337251,-0.0266301806919201,4.32896056580614,1.33124205423009,-0.109396020725882,0.440866814363581,0.51418158633824,4.4997469132748,0.184566030176202,317.176775621616,333.507128280221
0.85,0.3980270823903,-0.0191395578092453,5.84342753548734,0.953734681821268,-0.215872223226295,-0.334949345765303,-4.17374008764999,-4.19942244678287,2.52105007747053,320.330679783761,333.507128280221
0.86,0.437959101364534,0.000579703681500343,2.6578137294,-0.0325070685554845,0.43191719805122,0.0724985831032021,2.61513711460043,0.475487540880471,-1.40316998671943,323.295461223401,333.507128280221
0.87,0.346306874835852,-0.0192926339828326,6.10808113439313,0.960388164381633,-0.297817564962015,0.177778950623144,-4.52507623904861,4.21363092847621,0.976978402410325,326.101782467084,333.507128280221
0.88,0.35257574436429,0.0212801695755942,4.71132280390122,-1.0564309377301,0.0615971784485083,-0.347804957897931,2.12685632505339,-4.33463851564734,-2.90602437625561,328.73132762735,333.507128280221
0.89,0.338280943924917,-9.52464077816351e-05,4.40463643119847,0.0197211173001725,0.158268422233615,0.298973431291634,2.07927997261578,3.88301504104572,-0.487150408484627,331.205787679055,333.507128280221
0.9,0.32654184721034,0.0246482959725436,4.00472586397413,-1.21799491382536,-0.312516790520307,-0.0978282787172385,-3.27063824146083,-2.61232967850189,1.94950725324428,333.556531184939,333.507128280221
0.91,0.282672494152575,0.00885052758851701,5.26741738487972,-0.428540848508595,0.266540751868,-0.0945415167144774,5.14760242397003,-1.19646247334022,-1.88035049311085,335.747621755918,333.507128280221
0.92,0.249340618913527,0.0147399878290384,6.05502212460731,-0.724127835153125,-0.126162009043943,0.215571702584957,-3.96375092832172,4.63425642680207,0.588545863189585,337.795073937172,333.507128280221
0.93,0.263930713951536,0.0448522554145019,4.48337707920611,-2.23060924438562,-0.0630854640943475,-0.26017565374711,1.91364786925499,-4.62755221126517,3.07204242732859,339.753493496416,333.507128280221
0.94,0.211425542683813,0.025695740998901,6.30419311890934,-1.27366163646295,0.157825243837991,0.143011270926827,3.16389669716948,5.59953770719882,-0.713658520400377,341.579499732182,333.507128280221
0.95,0.209894612347645,-0.0297577451687791,5.6264165037551,1.50023749332799,-0.197901441596377,-0.0760019151349087,-5.81948125493162,0.202269952326948,1.79663204880707,343.278893997177,333.507128280221
0.96,0.24645821818683,-0.0144607004248893,3.07711398171875,0.735503958558817,0.233180372796653,-0.0811028908918763,2.56024347830412,-1.85869574200457,-1.96412729267256,344.884964573009,333.507128280221
