t,iq,id,vq,vd,ia,ib,va,vb,theta_e,omega,r
0,0,0,0,0,0,0,0,0,0,0,0
0.01,0.000567127852721199,0.000288596358824333,-0.0261698738479167,-0.0144414243267712,-0.000626352206784296,0.000112270978953882,0.0292278602718918,-0.00625693357232598,1.86415526807574,-0.00613406615026688,0
0.02,0.000645582320349122,0.000332309183048837,-0.0306795152440756,-0.0166288303137949,-0.000714090042823244,0.000131458496213215,0.0341770869003801,-0.00704821851394526,1.86411491452551,-0.00486570252372068,0
0.03,0.000656844139339979,0.000349269345167428,-0.0317441894620696,-0.0174775137534315,-0.00072977041032022,0.000144459153673345,0.035441451477686,-0.00755384463435576,1.864086128722,-0.0033161662736131,0
0.04,0.000621032760491556,0.000341683040974491,-0.0304945882725025,-0.0170979025586401,-0.000693292636295898,0.000147561209507181,0.0341353417140956,-0.0075522600508804,1.86406993270279,-0.00183644011554041,0
0.05,0.000625942473393602,0.000350266277946481,-0.0309121873944782,-0.0175274022578307,-0.000700472450058544,0.000154365773970664,0.0346591934849422,-0.00784305210950989,1.86405973088019,-0.00130052252962423,0
0.06,0.00062039658038763,0.000351183381008498,-0.0307951291173335,-0.017573302466765,-0.000695427451350919,0.000156851343509675,0.0345603512514452,-0.00792105159170069,1.86405336514851,-0.000841947763686494,0
0.07,0.000629294927595335,0.000358758891372666,-0.0312480910278491,-0.0179523713136077,-0.000706135259882109,0.000161533410746473,0.035103527336694,-0.00815310966370303,1.86405019927635,-0.000782005113090258,0
0.08,0.000615042660826302,0.000352090890362895,-0.030677211563875,-0.0176187147751441,-0.000690563499491847,0.000159271852134669,0.0344605480999675,-0.0079988151817913,1.86404746225172,-0.000413667653378912,0
0.09,0.00061138151011833,0.000351376885626626,-0.0305393122439507,-0.0175829737514454,-0.000686852069083306,0.000159647429867247,0.0343181951366719,-0.0080045012860792,1.8640463172038,-0.000292760994664309,0
0.1,0.000610170901801244,0.000351300318442912,-0.030497339892403,-0.0175791512814727,-0.000685670919466898,0.000159924461357398,0.0342769051595764,-0.00801299400792646,1.86404575498658,-0.000241865263197151,0
0.11,0.000609658499183675,0.000351292046922011,-0.0304807393965818,-0.0175787413826686,-0.000685177952917238,0.000160064864019843,0.0342608924744039,-0.00801741040601108,1.86404545771212,-0.000216795427784674,0
0.12,0.000609405521663996,0.000351291120034266,-0.0304728325167881,-0.0175786841722931,-0.000684935481237721,0.000160137214260607,0.0342533053064504,-0.00801964677579667,1.86404529591199,-0.000203522248468395,0
0.13,0.000639251547067904,0.000366720339114066,-0.0318078850758909,-0.0183507700689772,-0.00071796718669662,0.000166281286907414,0.0357545354232061,-0.0083729034269037,1.86404398328552,-0.000555930492401674,0
0.14,0.000656686933396839,0.000377770741958037,-0.0328747472897037,-0.0189037363331541,-0.000737852332119761,0.000171820830981286,0.0369356860591603,-0.00859391366342748,1.86404289614613,-0.00074274804012273,0
0.15,0.000614405976800773,0.000354124438733099,-0.0307566138024599,-0.0177204693941987,-0.000690540951093618,0.000161406373168058,0.0345659306400528,-0.0080734606663723,1.8640420421223,-8.21328601243078e-05,0
0.16,0.000607982002975946,0.000351593704187483,-0.0304547972429302,-0.0175938295603765,-0.000683659838246682,0.000160839902808475,0.0342403999133253,-0.00803943576895311,1.86404305246616,-4.95667283831139e-05,0
0.17,0.000607702244430881,0.000351323046481473,-0.0304257511630265,-0.0175802883275379,-0.000683313921425591,0.000160661089444006,0.0342086863344136,-0.00803483981094059,1.86404389753937,-9.57917855132124e-05,0
0.18,0.000608179486973223,0.000351294212293202,-0.0304363009148087,-0.017578837463908,-0.000683762539572817,0.000160495175761285,0.0342183705262258,-0.00803038345841598,1.86404442025641,-0.000133760746055315,0
0.19,0.000608565235885535,0.000351291203525482,-0.0304472553646786,-0.0175786964399337,-0.000684130999234978,0.000160380584512432,0.0342288189727575,-0.00802707166403043,1.86404472008099,-0.000157157645718661,0
0.2,0.000608802315667213,0.00035129092478512,-0.0304543055168202,-0.0175786811293015,-0.000684357904411503,0.000160311671651323,0.0342355650752691,-0.00802501331678006,1.86404488800084,-0.000170562534390466,0
0.21,0.000608937939514739,0.000351290918981285,-0.0304583846749138,-0.0175786792736317,-0.000684487751735927,0.0001602723983182,0.0342394703057846,-0.00802382920989289,1.86404498129119,-0.000178067235656473,0
0.22,0.000609013842304379,0.000351290931667338,-0.0304606693526037,-0.0175786790846566,-0.000684560426174515,0.00016025043433893,0.0342416578103167,-0.00802316684178813,1.86404503297615,-0.000182236041519595,0
0.23,0.000609056042858435,0.000351290940388859,-0.0304619336527333,-0.0175786790151102,-0.000684600832285418,0.000160238224452776,0.0342428683466836,-0.00802280033227131,1.86404506158315,-0.000184545549223518,0
0.24,0.000609079384130403,0.000351290945396168,-0.0304626238027232,-0.0175786790124,-0.000684623181098316,0.000160231471293336,0.0342435291602591,-0.00802260029028728,1.86404507741146,-0.000185823812649038,0
0.25,0.000609092364438754,0.000351290948185929,-0.0304630001484239,-0.0175786790464104,-0.000684635609484624,0.000160227715831498,0.0342438895197809,-0.00802249123506067,1.86404508616819,-0.000186531073445507,0
0.26,0.00061535928831913,0.000354517558795413,-0.0307343241549745,-0.0177401367046864,-0.000691567722467772,0.000161504917744395,0.0345503036679956,-0.00809862013020128,1.86404526434444,-0.00028751650603274,0
0.27,0.000600249013663956,0.000345867712829133,-0.0300857274992343,-0.0173073067013854,-0.000674602037108568,0.000157592654369351,0.0338042745506567,-0.00787177784987791,1.86404454903634,-2.70389079215325e-05,0
0.28,0.000599967100646058,0.000345680041221025,-0.0298024350066069,-0.0172979139050233,-0.000674277930155537,0.000157494398825392,0.0335303617232903,-0.00794467120112179,1.86404467709455,-3.0588344040231e-05,0
0.29,0.000607575837643555,0.00035069040244853,-0.0303946883214106,-0.0175486275399431,-0.000683010241292997,0.000160091121386106,0.0341698078268841,-0.00801346615174437,1.86404517273709,-0.000169805329665853,0
0.3,0.000600251758094175,0.000347382821868882,-0.0300347762872738,-0.0173831151404935,-0.000675043036348341,0.000159040551754411,0.0337774323796994,-0.00795899117030993,1.86404712415277,-0.000180225584010507,0
0.31,0.000609110044217827,0.000350873046502667,-0.0304327579073434,-0.0175577730851275,-0.000684531983679227,0.000159821475557223,0.0342089076706939,-0.00801116630296379,1.86404664679739,-0.000279601630671685,0
0.32,0.000610055181171067,0.000351246464193814,-0.0304862837074921,-0.0175764543089642,-0.000685544616743324,0.000159906163535271,0.034265543628486,-0.00801359845594502,1.86404603702706,-0.00025696756834857,0
0.33,0.000609814611724191,0.000351286328104683,-0.0304837227749766,-0.0175784544899009,-0.000685325775911661,0.000160014142677066,0.034263666966191,-0.00801626736736571,1.86404563298845,-0.00022946934870559,0
0.34,0.000609534393381618,0.000351290533904146,-0.0304761000137739,-0.0175786549184781,-0.00068505869808291,0.000160099331999558,0.0342564256643919,-0.00801867080584296,1.86404539659946,-0.000211367021131602,0
0.35,0.000609350864658159,0.0003512909497431,-0.030470672459372,-0.0175786774745527,-0.000684883103111184,0.000160152872917878,0.0342512352651051,-0.00802026587433981,1.86404526334424,-0.000200795020896236,0
0.36,0.000609243820772071,0.000351290975153192,-0.0304674285387203,-0.0175786793888901,-0.000684780624412314,0.000160183890583644,0.0342481297863639,-0.00802120794866927,1.86404518914783,-0.00019483893680623,0
0.37,0.000609183517635516,0.000351290967285932,-0.0304655792047083,-0.0175786796825828,-0.000684722886764178,0.000160201342681006,0.0342463591556869,-0.00802174421437782,1.8640451480098,-0.000191523250239988,0
0.38,0.000609149990022914,0.000351290960582772,-0.0304645405601608,-0.0175786798814119,-0.000684690784865121,0.000160211043479743,0.0342453647258383,-0.00802204541928996,1.86404512523431,-0.000189684998911278,0
0.39,0.000609131363571468,0.000351290956622009,-0.0304639535369493,-0.0175786800274346,-0.000684672950416144,0.000160216432550767,0.0342448027038602,-0.00802221567785516,1.86404511263136,-0.000188667301964223,0
0.4,0.000609121119023173,0.000351290954403741,-0.030463623021713,-0.0175786801437559,-0.00068466314145108,0.000160219396529486,0.0342444862760665,-0.00802231156798408,1.86404510565885,-0.000188104161212637,0
0.41,0.000609115414672418,0.000351290953173427,-0.0304634295345184,-0.0175786802439855,-0.000684657679646385,0.000160221046914175,0.0342443010469016,-0.00802236772617836,1.86404510180146,-0.00018779260209901,0
0.42,0.000609112213251076,0.000351290952492801,-0.0304633113990472,-0.0175786803353443,-0.000684654614355629,0.000160221973138733,0.0342441879639434,-0.00802240203540397,1.86404509966752,-0.000187620241576053,0
0.43,0.000609110525228914,0.000351290952115937,-0.0304632413821079,-0.0175786804213411,-0.000684652998097352,0.000160222461532311,0.0342441209514278,-0.00802242239751788,1.86404509848706,-0.000187524890403891,0
0.44,0.000609109535698681,0.000351290951907643,-0.0304631910573304,-0.0175786805048614,-0.000684652050645491,0.000160222747817423,0.0342440727939273,-0.00802243704690882,1.864045097834,-0.000187472141789246,0
0.45,0.000609109011829734,0.000351290951792386,-0.0304631555738749,-0.0175786805867312,-0.000684651549049399,0.000160222899385991,0.034244038846034,-0.00802244739463828,1.86404509747273,-0.000187442961137468,0
0.46,0.00060910872079143,0.0003512909517285,-0.030463127071667,-0.0175786806677763,-0.000684651270385078,0.000160222983590327,0.034244011582414,-0.00802245571802553,1.86404509727285,-0.000187426818349676,0
0.47,0.000609108546168448,0.000351290951693298,-0.0304631018177022,-0.017578680748409,-0.000684651103188899,0.000160223034109478,0.0342439874289667,-0.00802246309900806,1.86404509716233,-0.000187417888131872,0
0.48,0.000609108487960787,0.000351290951673749,-0.030463080932495,-0.0175786808286293,-0.000684651047450678,0.000160223050958388,0.0342439674580505,-0.00802246921505712,1.86404509710114,-0.000187412947922536,0
0.49,0.000609108429753126,0.00035129095166293,-0.0304630592720812,-0.0175786809088496,-0.000684650991719357,0.000160223067796952,0.0342439467452405,-0.00802247555425485,1.86404509706727,-0.000187410214993025,0
0.5,0.000609108371545465,0.000351290951657158,-0.0304630371720021,-0.0175786809890699,-0.000684650935991924,0.000160223084629969,0.0342439256116563,-0.0080224820200248,1.86404509704855,-0.000187408703133074,0
0.51,2.56438785079382,-0.00679321548057188,5.107872651175,0.356275281410553,-0.699333665100216,2.46719752389893,-1.03691153051125,5.01419081952996,0.273558408651253,81.6137262989052,460.538779360564
0.52,2.04328597206328,-0.028178238599992,4.53213671181378,1.42883045719231,-1.89144617222985,0.773461669585648,-3.61189347482285,3.0880487652404,1.16882904077824,161.513347141941,460.538779360564
0.53,1.59970231162179,0.0363219764790312,5.90772603984462,-1.78703002239354,-0.870177505051181,-1.3428171437267,-1.57803377388913,-5.96695170679798,2.58930947182214,222.431697131269,460.538779360564
0.54,1.30041884402204,-0.00728867115831178,4.09957025447398,0.391975119608186,1.24421265498196,-0.37825542137241,3.7994607751957,-1.58877895992771,-1.87153446941716,272.053913369246,460.538779360564
0.55,1.05993128185382,-0.00943251796635489,3.07276922598584,0.497789942126039,-0.292964493858478,1.01868302233114,-0.343361385997233,3.09383394855857,0.271135314302144,310.831109597468,460.538779360564
0.56,0.768458565487683,-0.00610197816694061,7.31845347820148,0.331149366204493,-0.345497532645194,-0.686438093308508,-3.63666594211705,-6.35956618337941,2.66735276511222,341.52491440308,460.538779360564
0.57,0.619145135737675,0.0182835428804731,6.58379730401015,-0.887488680155498,0.536669548062554,0.309290774563712,5.13911659477192,4.20992918266274,-1.01845253898082,365.982575656614,460.538779360564
0.58,0.480825019653825,-0.0123967881614969,6.9383578445559,0.621235253122759,-0.472011598868378,-0.0924739445224408,-6.94472186083562,-0.545509939840433,1.73848389298202,385.452975425281,460.538779360564
0.59,0.378237487136181,-0.03446402663417,6.94041512723447,1.73686286106281,0.379804371212239,-7.35867486901937e-05,6.75371944370136,-2.36078978569769,-1.66185658763995,400.556153288478,460.538779360564
0.6,0.292232997358055,-0.00876408390338865,7.17587176535394,0.459536798530546,-0.285316343690145,0.063808447205881,-6.83909635893963,2.22060141744219,1.32079465709209,412.69225808593,460.538779360564
0.61,0.249094460317005,-0.024081007605103,6.0654284064226,1.20492437153865,0.243489724118867,-0.0577987831741728,5.34944983738822,-3.10236215355866,-1.90023410029091,422.316608180842,460.538779360564
0.62,0.188474690900248,-0.0476925894748468,6.54096967398087,2.40528800874484,-0.193478447028859,0.0190626004537987,-5.33737740563147,4.48130529096198,1.22474504186551,429.940732134149,460.538779360564
0.63,0.1590418733158,-0.00721376565287771,5.96823447774605,0.355486689084258,0.153540685733891,-0.0420905417767474,5.56905020078156,-2.17528697615914,-1.88368273595639,436.036085683135,460.538779360564
0.64,0.0883391331990317,0.033596662958697,7.90117674668278,-1.66573639416251,-0.0778239398513877,0.0536280952703351,-8.0706765071843,0.259716063310845,1.33084853875648,440.792094275523,460.538779360564
0.65,0.0886902790848464,0.0244121564564625,6.67419172144623,-1.22875527023795,0.0845378548848307,-0.0362666524299397,6.77936244188455,0.308090133441638,-1.70744898749672,444.352493726706,460.538779360564
0.66,0.0880250779207045,0.00239295675772996,5.74487913540337,-0.103382016531153,-0.0879976120674441,0.00324974697754782,-5.74561332007485,-0.0474520591068716,1.5610614062178,447.306689831252,460.538779360564
0.67,0.0325479538332343,-0.0158604798372292,7.65970984704629,0.788060271355401,0.0300711030196529,0.0201656361808629,7.69549000042713,0.267633304266785,-1.43350929099965,449.828916717772,460.538779360564
0.68,0.0524136264032821,0.00197086798473513,6.00276279876525,-0.0837218448541738,-0.0506441768717039,-0.0136469741094375,-5.7084314808967,-1.85848879293186,1.8715965399962,451.848612580254,460.538779360564
0.69,0.0230668756793443,0.0107277250388406,7.0215630542718,-0.537520096233006,0.025417945310829,0.00104541584596688,5.99314572009083,3.69776688782921,-1.09437475264627,453.143636476229,460.538779360564
0.7,0.0447480805857988,-0.00786042366578972,5.53540964825405,0.380110385955135,-0.0304878686488767,-0.0336848161872332,-4.60198990587816,-3.09950524853412,2.23208576629663,454.375990838683,460.538779360564
0.71,-0.00178767245573927,-0.00947567043531234,7.57098304592383,0.47923346751434,-0.00831734529838176,0.00487912596631283,5.33628115584848,5.39198965353128,-0.716991154760602,455.248031337875,460.538779360564
0.72,-0.00263833248552091,-0.0140826800779211,7.36842238794835,0.689407289972261,0.0135385462697834,-0.00468939669703511,-4.25126741288873,-6.05769397401319,2.62295292756627,455.944615485762,460.538779360564
0.73,-0.00579818918946338,0.019627757263447,7.33235617229538,-0.971554193689738,0.0168623191525359,-0.0115987088017429,1.35000833999021,7.27219650935198,-0.315285165468127,456.587317044995,460.538779360564
0.74,-0.0197312480311922,0.0188554121483041,7.8519144816231,-0.955892288420491,-0.0166227524222055,0.0216456189114773,0.105437192236137,-7.90918289662577,3.03377894960731,457.133399766146,460.538779360564
0.75,-0.00710974026322081,-0.0143598027134666,7.08287227689901,0.73223702505086,-0.0135504484570888,-0.00855205748296429,-0.00175649002341649,7.12062129778453,0.103262085107837,457.577578679824,460.538779360564
0.76,0.0367029394127432,0.0211932150245676,4.76236161356133,-1.06421246206134,-0.00867193862347192,-0.0414856072044726,2.49816260272591,-4.19187546488094,-2.82400507043108,458.009399707997,460.538779360564
0.77,-0.0238696996594167,0.0108117307258327,7.68461139983747,-0.543731949170444,0.0214634101841576,-0.0150325681899425,-4.38259374503944,6.33575322002064,0.534511884479755,458.279919363554,460.538779360564
0.78,-0.0202992343192787,0.00449555212703732,7.48350313420582,-0.222280040222995,-0.0171568822311195,0.0117435214047316,5.27760086958696,-5.31028781115344,-2.38897562321837,458.382092993982,460.538779360564
0.79,-0.00120832557372037,-0.00662578497774859,6.44277892593178,0.315903979805476,-0.00273570703883517,-0.00615442802063143,-5.14428513452015,3.89172533301652,0.972132095421059,458.639356765287,460.538779360564
0.8,-0.0160270187685657,0.0113405791092061,7.15847691403338,-0.557703362325409,-0.019080605330914,-0.00462650681897414,6.85911468072516,-2.12305689178565,-1.94871822621636,458.772722592788,460.538779360564
0.81,0.0164897057147092,-0.0351093273168908,5.49092303255599,1.74556829798404,-0.0217433784705713,-0.0321216554973087,-5.153115922432,2.57733209392165,1.41482603378871,458.854781000807,460.538779360564
0.82,-0.00653444164527959,-0.0130385772275813,6.59210405135231,0.666103091700666,0.0141728758892885,0.00343991464457909,-2.12927938499472,-6.27420899024453,2.91512260924932,458.994438581876,460.538779360564
0.83,0.0146602603604824,0.0303644409466479,5.52531084078709,-1.52378998466356,0.0304113386406893,0.0145627260470325,-1.50604789970353,5.53017319154463,-0.00320964141901973,459.078219304602,460.538779360564
0.84,-0.0504625445544926,-0.028797676510729,8.76289796630195,1.43521556511034,0.0170609801299197,0.0555400534059631,0.516517644506969,-8.86461696911191,-2.92104927337886,459.054525470819,460.538779360564
0.85,-0.00641279304271938,0.0288829587533762,6.58595114951207,-1.44184084464925,0.0288373528239077,0.00661485472761442,-4.1308934022962,5.32816828412204,0.44396694353218,459.070633755777,460.538779360564
0.86,-0.0347072652936863,-0.0168826993653283,7.99492230103286,0.828082322227773,-0.00823409601590067,0.037707021426086,4.30025684263962,-6.79060336194581,-2.47386345459166,459.047244844514,460.538779360564
0.87,0.000427777243331639,-0.00480258463358016,6.23237896046134,0.251197235410905,-0.0033500460035185,-0.00346770879788405,-4.691040212694,4.11093532918813,0.891492589892359,459.144966804637,460.538779360564
0.88,0.00454493439574322,0.0146653457074853,6.07052567602493,-0.74521227581734,-0.0023720151338743,-0.0151691244831842,5.77913222720953,-2.0020624415175,-2.02643481697236,459.040004477558,460.538779360564
0.89,-0.0352640792471702,0.0145024138542981,8.01717576615582,-0.713112045810073,0.0376511137823055,0.00602236861242477,-7.96685038471506,1.14583201337767,1.33923636500291,459.142735794728,460.538779360564
0.9,0.0204343461795707,0.0297373197636961,5.25943075575024,-1.49138146544713,0.0202018721152451,-0.0298957363775193,5.2708987509948,1.45032993031661,-1.57859310602096,459.146432979567,460.538779360564
0.91,-0.0100458561613543,-0.0159759304795464,6.75126245301674,0.790007430836526,0.0132458141374494,-0.0134423951934939,-6.76322607594945,-0.680021687807097,1.78749297917043,459.193434400607,460.538779360564
0.92,-0.0269281112919148,0.0258286328908848,7.61153683187564,-1.28880342954386,-0.013321806420197,-0.0348535640711914,6.33253243812805,4.41537542492815,-1.12964804327687,459.190182132526,460.538779360564
0.93,0.00147431718074836,-0.0451557755789682,6.18452061901476,2.24446273516719,0.0267230968173131,-0.0364292983157802,-6.25057253326741,-2.05335122736854,2.23633090254866,459.229607156885,460.538779360564
0.94,-0.0300591221277198,0.0272658950945184,7.73250776814804,-1.35408947320339,0.00228523760621905,-0.0405186074227333,3.81178681883003,6.86261728014201,-0.680370506977551,459.324445282025,460.538779360564
0.95,-0.0183036852565588,-0.0185818518313824,7.19312958684312,0.918572580317727,0.0247395804450871,0.00826215897061316,-3.98948473869497,-6.05548514638995,2.68605482060479,459.188320742554,460.538779360564
0.96,0.00585486799610857,0.0198696622543837,5.97571532789949,-0.980391202744695,0.0206824003664442,0.00114946615315364,0.414002078045884,6.04143549745305,-0.231034033069929,459.240931364257,460.538779360564
