t,iq,id,vq,vd,ia,ib,va,vb,theta_e,omega,r
0,0,0,0,0,0,0,0,0,0,0,0
0.01,0.000746771992613861,0.000425368396791917,-0.036536712708164,-0.0212934765953724,-0.00039982090908248,0.000760756151866195,0.0193020604324134,-0.0376267721722186,1.00165745889429,-0.00253353691701455,0
0.02,0.000830074691362811,0.000472677625526259,-0.0407193371172829,-0.0236617174070503,-0.000444480903199607,0.000845508638397663,0.0215483024163322,-0.0418761501202812,1.00163848141126,-0.00270950398039912,0
0.03,0.000862839704868206,0.000491400544595727,-0.0423357188407976,-0.0245989830508792,-0.000461973426744659,0.000878946758630935,0.022403911696607,-0.04353720015797,1.0016190889787,-0.00270556647560048,0
0.04,0.000843624450138668,0.00048079643666427,-0.0414276792387717,-0.0240681387948972,-0.00045148696719097,0.000859666763832085,0.0219243509966854,-0.0426010650751261,1.00160098742536,-0.00252712048268083,0
0.05,0.000862608250277585,0.000491758145579664,-0.0423731191022478,-0.0246168719158638,-0.000461554145620612,0.000879139828384162,0.0224242088175218,-0.0435732310516847,1.00158315419736,-0.00248437941490191,0
0.06,0.000863083484623339,0.000492246492771725,-0.0424194298344831,-0.0246413155311569,-0.000461676120438325,0.000879815248158752,0.022449293400626,-0.0436191664799006,1.00156596541713,-0.00238063452845155,0
0.07,0.000885505728984792,0.000505309919648729,-0.0435295433678547,-0.0252952664663046,-0.000473507088674641,0.000902911705503456,0.0230311633802345,-0.0447687074279372,1.00154971696127,-0.00235967976909556,0
0.08,0.000863381498350713,0.000492848306304544,-0.042477287710317,-0.024671456170532,-0.000461574483753803,0.000880497621046752,0.0224803793619296,-0.0436764612181809,1.00153383489876,-0.00218463660098272,0
0.09,0.000861982883391679,0.000492287037597724,-0.0424296975995405,-0.0246433562355113,-0.000460685768021724,0.000879277909303543,0.0224547857874711,-0.0436274780405372,1.00151882919425,-0.00208770349798419,0
0.1,0.000861571893591838,0.000492259346133807,-0.0424291213995009,-0.0246419618273392,-0.000460341925951418,0.000879039648078997,0.0224544269668132,-0.0436263147082776,1.00150450036486,-0.00199838737597359,0
0.11,0.000861222486087894,0.000492255685871634,-0.0424306671612912,-0.0246417840564821,-0.000460037567823412,0.000878854519819683,0.0224552275199311,-0.0436273056040217,1.00149081071416,-0.00191320762387282,0
0.12,0.000860890715536174,0.000492253210291458,-0.0424322416058098,-0.0246416587321038,-0.000459747967566502,0.000878679607967035,0.0224560505647023,-0.0436283424599058,1.00147773139506,-0.00183183260294652,0
0.13,0.000901563688461361,0.000515605913861227,-0.0444237329355728,-0.0258106673136274,-0.000481405089118368,0.000920280219787245,0.0235026627764157,-0.0456867971904787,1.00146471971162,-0.00189477834276079,0
0.14,0.000941481839574639,0.000538911689859139,-0.0464992193898951,-0.0269773233632549,-0.000502451234062659,0.000961434668141622,0.0246212627413073,-0.0477885634931489,1.00145229071961,-0.00195864816934902,0
0.15,0.000863749203562325,0.000494338050987151,-0.0426215465896087,-0.0247460262392291,-0.000460998716800978,0.000881993751914478,0.0225575957937827,-0.0438191387446983,1.00144029926907,-0.00161230691306725,0
0.16,0.000859844544030693,0.000492338019337678,-0.0424467093359904,-0.0246459044164965,-0.000458778685914429,0.000878209247580169,0.0224638402605697,-0.0436408022234783,1.00142944235725,-0.0015320220801961,0
0.17,0.000859412183708631,0.000492246533804201,-0.0424396951955536,-0.0246413185796913,-0.000458454771761324,0.000877903852251692,0.0224599534973281,-0.0436333908668028,1.00141909759064,-0.00146706375029735,0
0.18,0.000859153459155291,0.000492240684646602,-0.0424404806248945,-0.0246410366376313,-0.000458231343459799,0.000877763973896677,0.0224603358126887,-0.0436337987966942,1.00140921533373,-0.00140555203290926,0
0.19,0.000858913594092143,0.000492238752060217,-0.0424415841334016,-0.0246409467622395,-0.000458022077122811,0.000877637355639668,0.0224609016958328,-0.0436345300891652,1.00139977371042,-0.00134680844721328,0
0.2,0.000858685081707743,0.000492237069316364,-0.0424426684561218,-0.0246408451567988,-0.000457822609362165,0.000877516871811257,0.0224614760999484,-0.0436352317185214,1.00139075301791,-0.00129068498388658,0
0.21,0.000858466462443835,0.000492235468751696,-0.0424436873002001,-0.024640764041076,-0.000457631784515679,0.00087740160339438,0.0224620018479191,-0.04363590628312,1.00138213448732,-0.00123706367936025,0
0.22,0.000858257503472096,0.000492233939701031,-0.0424446540261074,-0.0246407033973826,-0.000457449396234076,0.000877291424524845,0.0224624894205204,-0.0436365613717069,1.00137390018881,-0.0011858329281682,0
0.23,0.000858058092730881,0.000492232478677025,-0.0424455868052015,-0.0246406222951935,-0.000457275336735549,0.000877186280090424,0.0224629754431529,-0.0436371726922425,1.00136603299298,-0.00113688615195032,0
0.24,0.000857867352748995,0.000492231082646099,-0.0424464646749673,-0.0246405587433789,-0.000457108854052519,0.00087708570230184,0.0224634210556128,-0.0436377613205284,1.0013585165336,-0.00109012152623595,0
0.25,0.000857685404300533,0.000492229748722594,-0.0424473153120075,-0.0246404776507508,-0.000456950037530963,0.000876989761330273,0.0224638678056595,-0.043638312974541,1.00135133517377,-0.00104544176620819,0
0.26,0.000866294680726822,0.000497223364017867,-0.0428742955005521,-0.024890455861658,-0.000461502373542668,0.000885840339336223,0.0226883917628684,-0.0440792115047945,1.00134454109185,-0.00103399043079495,0
0.27,0.000838293142847773,0.000481253608953287,-0.041524470738293,-0.0240910288026384,-0.00044652417460684,0.00085729609293863,0.0219823117059066,-0.0426783002347712,1.00133775665744,-0.000894112636909391,0
0.28,0.000835700046405841,0.000479764448530323,-0.0412930204171586,-0.0240164804538355,-0.00044513783958789,0.000854646592108899,0.0218273137146264,-0.0424908607180959,1.00133147679881,-0.000846499866992247,0
0.29,0.000856027399148204,0.000491666357691684,-0.0424014270570287,-0.024612289387415,-0.000455834950153824,0.000875633035921159,0.0224392999556642,-0.043590407463823,1.00132566737467,-0.00088221236068827,0
0.3,0.000850889435007996,0.000488895279661584,-0.0421587143394739,-0.0244735596437694,-0.000452997671998157,0.000870531179365711,0.0223094785910587,-0.0433428134918535,1.0013207491592,-0.000834018244030163,0
0.31,0.000856489201838124,0.000492073831973208,-0.0424378162795326,-0.0246326822228592,-0.000455995083829984,0.00087622993129714,0.0224584985505026,-0.0436274354841629,1.00131529819713,-0.000820242680860686,0
0.32,0.000856624957507045,0.000492215387625065,-0.0424514706098079,-0.0246397767311716,-0.000456028485222643,0.000876424740810288,0.0224659434236524,-0.0436408906919029,1.00131004578965,-0.000788508092865406,0
0.33,0.000856510411844771,0.000492220843859859,-0.0424526630144848,-0.0246400361233678,-0.000455924675718921,0.000876369861872947,0.022466588680405,-0.0436418648804995,1.00130502546158,-0.000757317711604279,0
0.34,0.000856389344273971,0.000492220238696357,-0.0424532353906788,-0.0246400104047875,-0.000455818838605162,0.000876306258531195,0.0224668752545026,-0.043642259613625,1.00130022885267,-0.000727477056101905,0
0.35,0.000856273049707328,0.000492219399649092,-0.0424537493500476,-0.024639970127192,-0.000455717335281615,0.000876244933434611,0.0224671298112773,-0.043642605785961,1.00129564608213,-0.00069896484742917,0
0.36,0.000856162110244709,0.000492218586268258,-0.0424542465420059,-0.0246399298385271,-0.00045562050759988,0.000876186423508732,0.0224673791670254,-0.043642938320673,1.00129126762137,-0.00067172368375352,0
0.37,0.000856056060224828,0.000492217808581002,-0.0424547164115303,-0.0246398895399917,-0.000455527949934799,0.000876130490372374,0.0224676140348167,-0.0436432517316132,1.00128708436182,-0.000645696984664706,0
0.38,0.000855954666817043,0.000492217065500928,-0.0424551593182208,-0.0246398492318335,-0.000455439459100073,0.000876077011632455,0.0224678343379027,-0.0436435464080035,1.00128308760058,-0.000620830610774144,0
0.39,0.000855857695017648,0.000492216355511081,-0.0424555751490056,-0.0246398264083288,-0.000455354830659324,0.000876025863173429,0.0224680301852033,-0.043643837208273,1.00127926902406,-0.000597072832521866,0
0.4,0.000855765265588415,0.000492215677140228,-0.0424559809882803,-0.024639786078229,-0.000455274160092229,0.000875977112579169,0.0224682344861976,-0.0436441040546297,1.00127562068758,-0.000574374226383384,0
0.41,0.000855676910694667,0.000492215028981883,-0.0424563639679065,-0.0246397457392483,-0.000455197047466772,0.000875930509931661,0.0224684266376844,-0.0436443549144348,1.00127213500163,-0.000552687572225658,0
0.42,0.000855592395338649,0.000492214409691982,-0.0424567224978023,-0.0246397257897022,-0.000455123289205844,0.000875885930753661,0.0224685939848764,-0.0436446062714499,1.00126880471506,-0.000531967755092935,0
0.43,0.000855511840270292,0.000492213817985491,-0.0424570722299073,-0.0246396854307643,-0.000455052981583189,0.000875843442294777,0.0224687714070721,-0.0436448323621402,1.00126562290024,-0.000512171671343284,0
0.44,0.000855434659078953,0.000492213252635098,-0.0424573930715029,-0.0246396654584973,-0.000454985625575963,0.000875802730380761,0.0224689196956658,-0.0436450568569281,1.00126258293701,-0.000493258138988687,0
0.45,0.000855360853931747,0.000492212712467838,-0.0424576939498542,-0.0246396454748486,-0.000454921218070121,0.000875763798123325,0.0224690570923572,-0.0436452675332172,1.00125967850235,-0.000475187812020918,0
0.46,0.000855290776240788,0.000492212196363186,-0.0424580008680675,-0.0246396050872861,-0.000454860050287618,0.000875726836875282,0.0224692162286377,-0.0436454613750498,1.00125690355336,-0.000457923098558698,0
0.47,0.000855223373930397,0.000492211703249609,-0.0424582692456494,-0.0246395821728876,-0.000454801231716636,0.000875691281081297,0.0224693388842993,-0.0436456463704348,1.00125425231753,-0.000441428082646343,0
0.48,0.000855159173046417,0.000492211232103735,-0.0424585330446549,-0.0246395621574808,-0.000454745201062669,0.000875657416096604,0.0224694612788836,-0.0436458286833136,1.00125171927983,-0.00042566844953705,0
0.49,0.00085509776612996,0.000492210781947943,-0.042458779301706,-0.0246395421322969,-0.000454691611073379,0.00087562502381199,0.0224695738339426,-0.0436459989919032,1.00124929917014,-0.000410611414307894,0
0.5,0.000855039094973366,0.000492210351847397,-0.0424590120388338,-0.024639522097418,-0.000454640408803819,0.000875594074375397,0.0224696797169713,-0.0436461595781314,1.00124698695439,-0.000396225653656523,0
0.51,3.44078527141308,-0.0193895749853751,3.18440730004812,0.974464709089629,-0.398838306058543,3.41764644824646,0.617232364297547,3.27246933222063,0.110539055544061,33.8015771006707,596.323508458244
0.52,3.21677623690778,0.00811806198926346,5.3159917385849,-0.398813464306692,-1.51318224653769,2.83866073175858,-2.86394232994397,4.49629343735152,0.492269737120272,70.0499637994004,596.323508458244
0.53,3.03179870401141,-0.00547385839175463,5.78225908255795,0.285322217449956,-2.74995835205341,1.27654314723109,-5.11971704514982,2.70267020614741,1.13438741418721,105.017286669879,596.323508458244
0.54,2.89732979531905,-0.00682101124417489,3.68457805022256,0.356162950294843,-2.59259215355809,-1.2934575348062,-3.45914377337747,-1.31806365948253,2.03121342297313,139.817504102781,596.323508458244
0.55,2.68707672136235,0.0717394303204397,5.23309165924988,-3.57890622738339,0.0448674290575314,-2.68765971919064,3.80249953126227,-5.07294938012045,-3.09820873303771,174.252723287578,596.323508458244
0.56,2.55583213524074,-0.0258411363617592,4.17139375872942,1.30956526717104,2.53471861004095,-0.328857470296455,3.94947156859947,-1.87540966409261,-1.70992714775974,203.814450978967,596.323508458244
0.57,2.35549498053356,0.0145659392909155,7.2429047124316,-0.709222690047295,0.28572622048249,2.33814655161626,0.129583687126456,7.27639152090324,-0.115415379949439,231.214593718477,596.323508458244
0.58,2.27029996953127,-0.0339697936422412,4.11994372109129,1.71568566860465,-2.25190582742901,-0.290406685400033,-4.28748875082337,1.23893252034888,1.6840873034765,259.660857215873,596.323508458244
0.59,2.14321197537279,-0.0316597763334573,4.07745068374789,1.60503678769675,1.12574911274089,-1.82401996918398,0.711865057438889,-4.32377095927312,-2.60340733874443,284.245846112258,596.323508458244
0.6,1.97864404677476,0.021733208939433,6.11654535160131,-1.07111378284067,0.84946032500936,1.78715465263726,1.59254279603022,6.00193462283613,-0.432721371346896,308.422717662016,596.323508458244
0.61,1.86588813167932,0.0051879972486921,5.7922164587311,-0.240490731706247,-1.75910691614799,-0.62218027356829,-5.37450520784757,-2.17308560983027,1.91353598174101,330.878105933911,596.323508458244
0.62,1.79026305898542,-0.0110269666085796,4.06772930072673,0.568215100348842,1.71529017940839,-0.512779694201681,3.72395726868198,-1.73246423492257,-1.86744549964009,352.227248240195,596.323508458244
0.63,1.64113692623218,-0.00503365103447451,6.24781041569792,0.272235361570657,-1.16864126340713,1.1522297278528,-4.24379564575085,4.59341328422547,0.789402165043165,371.983942552779,596.323508458244
0.64,1.56089433594086,0.0677243951616901,5.21129314263531,-3.37710953460729,0.609724059165204,-1.43847637914127,5.28909119761178,-3.25391446269856,-2.69732023464065,391.218441089741,596.323508458244
0.65,1.50859268581601,0.00037480246485333,3.28252659225816,0.00472280466847116,-0.349427407263104,1.46756687044504,-0.756513614574294,3.19416503717789,0.233995961780617,408.323333666734,596.323508458244
0.66,1.40784142229749,0.021598637453658,3.73194320597577,-1.06531337267422,0.188709374369649,-1.39530381763309,1.6102365874211,-3.53120812288906,-2.99182179043668,425.412982327228,596.323508458244
0.67,1.30198142515376,-0.0204333821492109,4.88491062633119,1.03427453640694,-0.256945763260428,1.27653908255642,0.128365181255171,4.99155266667041,0.182936242034198,441.091063445775,596.323508458244
0.68,1.19426971221444,0.0212061734085878,6.37058827840276,-1.04031220465742,0.365252005473216,-1.13724263893032,3.04010941924941,-5.69424088137065,-2.81307099293959,455.430443513166,596.323508458244
0.69,1.12129518066033,-0.0624226037891752,6.18080182348914,3.13939246022362,-0.665249980872013,0.904788332476546,-0.750110432255453,6.8916928645999,0.578384524231277,469.506058004188,596.323508458244
0.7,1.04504718975286,0.0212550475730263,6.46477546451454,-1.05560176925357,0.822318152703272,-0.645266039391784,5.80062523260128,-3.0430845884973,-2.21579680979145,482.572153613794,596.323508458244
0.71,1.03950790834355,-0.00570190412572469,3.49291831652265,0.306845157373756,-1.01881516505258,0.206457895655068,-3.35688854007909,1.01288283922121,1.36537356464951,494.474906160428,596.323508458244
0.72,0.954694856076491,-0.000761430755482073,4.55035288360603,0.0565475362305215,0.905617739142034,0.30215783714307,4.3354372974594,1.38307354431839,-1.24955987563738,505.915885842748,596.323508458244
0.73,0.886211385807321,0.0224308561769117,4.95400644949762,-1.1108317346194,-0.548627897021405,-0.696334111079755,-2.07679334370968,-4.63282380971096,2.49959116498319,516.770726397187,596.323508458244
0.74,0.87928394876508,0.0456437965465848,2.47134119708475,-2.2776818281862,0.00909192029018494,0.880420896903597,-2.37834034136592,2.37462819057834,0.0415372166829601,526.93789837935,596.323508458244
0.75,0.760318258582442,-0.02535158071391,5.79824067337996,1.27336040930676,0.56133327600673,-0.513450591806147,3.25532882346609,-4.96425985314412,-2.34500397252139,536.29704345582,596.323508458244
0.76,0.775486430201779,0.033431260405463,2.56318807696343,-1.65464656882905,-0.776198207490249,-0.00363253194346118,-2.48126365548105,-1.77513916570337,1.61855957063999,545.019345540521,596.323508458244
0.77,0.678537406105203,-0.00840030308845685,5.03618321463582,0.436647564458991,0.39742937492111,0.550030425090986,3.3505788327057,3.78515837882011,-0.638085647338142,553.276988256561,596.323508458244
0.78,0.598114434312378,0.00515002770040322,6.76608325214658,-0.246625047950491,0.175230707854207,-0.571892995535917,2.27299927055525,-6.37763128483533,-2.83566015859595,561.186061589165,596.323508458244
0.79,0.638816337293821,0.0492881325637848,2.60331802645614,-2.45960881081339,-0.603471225223786,0.215262893068035,-3.1577111121187,-1.68991147149916,1.30516112970708,568.489300882291,596.323508458244
0.8,0.578743368888314,-0.0206165053808577,3.60698584595549,1.03547644161523,0.394858928229271,0.423621711110213,3.28359007642603,1.81675385345948,-0.785878763616202,575.317628790922,596.323508458244
0.81,0.503363055953225,0.0128258702575841,5.51709123584317,-0.642214928077924,0.14265380593871,-0.482896221457193,2.30837914687769,-5.05194234257715,-2.82887459561095,581.605965385619,596.323508458244
0.82,0.47818210321136,0.0344329199872937,5.02173730266509,-1.72486154298396,-0.47107666521615,0.0890534968393874,-5.18643716304908,-1.13748073969913,1.45584260200716,587.478565893242,596.323508458244
0.83,0.398242522638339,0.0281691914925344,7.34470258279159,-1.40237333553013,0.215844522589073,0.335859721096451,2.29469431233486,7.11657818159889,-0.500583751680458,592.953038650117,596.323508458244
0.84,0.439633053145253,0.00506615783690198,3.72418371044382,-0.239419274778225,0.287163541742063,-0.332926399775085,2.64425070303616,-2.63340162485011,-2.41833820195319,598.015569980286,596.323508458244
0.85,0.410207591411799,0.0101363148079096,3.69746805743224,-0.494148315684773,-0.37983985759585,-0.155224661414734,-3.1889288742553,-1.93550645273186,1.98344946937948,602.817943358006,596.323508458244
0.86,0.392222301972342,-0.0278721823192672,3.17071299576536,1.40717208535165,-0.080879294241133,0.384803498522009,0.963540405753869,3.33243815633358,0.136224857673973,607.3338365157,596.323508458244
0.87,0.337131783568739,-0.0143357397367503,4.61470520636728,0.726807692704166,0.336694338988635,-0.0223668285423959,4.50846120591182,-1.2237365397157,-1.67962658548256,611.425089863691,596.323508458244
0.88,0.306763238362132,0.0388176150643302,4.87132900886263,-1.93663555233252,-0.134656674822818,-0.27834883074187,0.281320533812052,-5.23462150803671,2.81688390392389,615.307236833123,596.323508458244
0.89,0.30588371064406,0.0234077266762381,3.73364525297076,-1.16713355707953,-0.254959393475011,0.170612056386361,-3.82556315444455,0.816929719405817,1.0574363317084,618.895840852606,596.323508458244
0.9,0.22991073836473,-0.00661362278837666,6.42132785175633,0.332533800232523,0.138837888554822,0.183375920784167,4.28093218944587,4.79767127858974,-0.676801551800631,622.192170988385,596.323508458244
0.91,0.290934140104616,-0.0121697865354099,2.3194210451375,0.610244853856464,0.20800492163163,-0.203776176624622,1.14264909968518,-2.10866445914794,-2.38773111825101,625.262357554554,596.323508458244
0.92,0.226383313300051,0.0178384359205387,4.55120405232136,-0.894699024794435,-0.192760720302693,-0.120045487400348,-3.13117940264861,-3.42193807940231,2.20642504656656,628.144747157831,596.323508458244
0.93,0.187700684214303,0.0269204852199667,5.54959828184024,-1.35139707518065,-0.072942164462533,0.175030568823039,-4.00137992070295,4.07593840419679,0.537304215547091,630.779221383187,596.323508458244
0.94,0.160334744199416,-0.0107480645175944,6.0416186179341,0.532760586467573,0.139095705035667,0.0804682293144151,5.6555475554464,2.1908380166378,-1.11326334853983,633.159265860657,596.323508458244
0.95,0.226722398370143,0.00550325723225092,1.8875975763544,-0.280298004950692,0.0821051747469115,-0.211404995311495,0.984613378302955,-1.63466451515447,-2.74687635795049,635.418174108259,596.323508458244
0.96,0.225989069417028,0.039912802374182,1.14305684542221,-2.00358789383229,-0.226063689953002,-0.0394879649281648,-0.391862792064211,-2.27318871904062,1.91853902011363,637.456813914866,596.323508458244
0.97,0.154505331149176,0.0396566379277954,3.98534952064755,-1.99279260059235,-0.0101729506679847,0.159188747592157,-3.12966699370371,3.17165850293231,0.315063081763418,639.339424482826,596.323508458244
