t,iq,id,vq,vd,ia,ib,va,vb,theta_e,omega,r
0,0,0,0,0,0,0,0,0,0,0,0
0.01,0.000827036724613575,0.000451298554112211,-0.0397045505314682,-0.0225783663739323,-0.000201532268013158,-0.000920350408134204,0.010551001460688,0.0444399631997821,-2.85764201322654,-0.00486945672311521,0
0.02,0.0010074587370316,0.000543165015319068,-0.0486633064085466,-0.0271744252148778,-0.000239216703432078,-0.0011192750821344,0.012455254038919,0.054327096583538,-2.85767947927991,-0.00522887517542022,0
0.03,0.00107016819682051,0.00057852487321216,-0.0518799764131703,-0.028943455599224,-0.000255638586363184,-0.0011893695437388,0.0132545428096266,0.0579100394539939,-2.85771598157946,-0.00484103722545524,0
0.04,0.00104379013192808,0.000568589136543086,-0.0508382587530997,-0.028446388020947,-0.000253524504474404,-0.00116125654845786,0.013070895155057,0.0567703905599645,-2.85774702260216,-0.00399099779782409,0
0.05,0.00106119210926663,0.000582841930291929,-0.051842828105887,-0.0291594322832414,-0.000262365259100811,-0.00118194664824312,0.0134756316944799,0.0579340889937196,-2.85777383644315,-0.00351901772803868,0
0.06,0.00105821020295493,0.000585263971376673,-0.051856039308042,-0.0292806157741473,-0.000265552577820405,-0.00117975615202568,0.0135896029321809,0.0579803929356822,-2.85779686787044,-0.00299659502444798,0
0.07,0.001069233390933,0.00059559266705295,-0.0525055280191199,-0.0297973593094748,-0.000272404232485179,-0.00119322529450959,0.0139049323930131,0.05874832720623,-2.85781582656196,-0.00265452297542433,0
0.08,0.00104979030188257,0.000587427663864101,-0.0516961474133803,-0.02938886467328,-0.000270029105532583,-0.00117226926103383,0.0137403547347299,0.0578567167745811,-2.85783252343015,-0.00216299226071617,0
0.09,0.0010420218098777,0.000586034629392282,-0.0514198569332323,-0.0293191792515995,-0.000270882648153244,-0.00116441772145448,0.0137515967311231,0.0575717773424276,-2.85784621661592,-0.00181325678766737,0
0.1,0.00103724741831028,0.000585795087496271,-0.0512700980981749,-0.0293071950634817,-0.000272002522942952,-0.00115976407895691,0.0137826722950833,0.0574244946507306,-2.85785762156797,-0.00153303305612123,0
0.11,0.00103360187059944,0.000585752326052288,-0.0511612873599923,-0.0293050576297172,-0.000272993043182518,-0.00115624971902971,0.0138116277226583,0.0573193044851684,-2.85786715697988,-0.00130100472339936,0
0.12,0.00103062175486533,0.000585743388171795,-0.0510735713602695,-0.0293045921629979,-0.000273827902478744,-0.00115338406362008,0.0138361922880657,0.0572348547329322,-2.85787513672897,-0.00110729061577741,0
0.13,0.00107066603117161,0.000609179629355058,-0.053021383254327,-0.0304771273727279,-0.000285126714324885,-0.00119838571749843,0.0144170520174106,0.0594329116418082,-2.85788262237316,-0.00120518719478825,0
0.14,0.00109356976384598,0.00062364592187626,-0.0543145514585447,-0.0312008630921999,-0.000292611688128576,-0.00122442127727412,0.0147502797699569,0.0608768724931653,-2.85788931036301,-0.00120862566954187,0
0.15,0.00103705893007851,0.000592191205115274,-0.0515127411346471,-0.0296271916407176,-0.000278239241975523,-0.00116136323865376,0.0140241146597844,0.0577464907308677,-2.8578951413678,-0.000712444272546911,0
0.16,0.00102463876213382,0.000586834763467765,-0.050949063797811,-0.0293592113311313,-0.00027657767566185,-0.00114793920649435,0.0139248360700259,0.0571302838456309,-2.85789885869969,-0.000550199451897766,0
0.17,0.0010213295685921,0.000585922143308347,-0.0508114966811935,-0.0293135419584346,-0.00027663108102652,-0.00114450604660249,0.0139196615864345,0.0569853925006311,-2.85790173403613,-0.000465808610849642,0
0.18,0.00101999932615416,0.000585766261854418,-0.0507642441844987,-0.0293057497753508,-0.000276856463106322,-0.00114318469099183,0.013925541195068,0.0569378148504432,-2.85790409294965,-0.000405612807113923,0
0.19,0.0010191784100446,0.000585739309240913,-0.0507384841052148,-0.0293044015600345,-0.000277062605803664,-0.00114238849887258,0.0139315689079703,0.0569126796755289,-2.85790605784464,-0.000357345429280043,0
0.2,0.00101855074496562,0.000585734376025284,-0.050719720925821,-0.0293041526720986,-0.000277235426972372,-0.00114178408526271,0.0139366751902242,0.0568945739000216,-2.85790770068228,-0.000317371910190315,0
0.21,0.00101803740000429,0.000585733247980026,-0.0507045765520384,-0.0293040896334191,-0.000277379595881971,-0.00114129056133181,0.013940931708756,0.0568799980279253,-2.85790907550517,-0.000283997552320277,0
0.22,0.00101760992293076,0.000585732814693318,-0.0506919972920373,-0.0293040825696837,-0.000277500141043764,-0.00114087972949667,0.0139445112282186,0.0568679035248605,-2.8579102262925,-0.000256077555259542,0
0.23,0.00101725280738637,0.000585732538945133,-0.0506814949068395,-0.0293040568127913,-0.000277600929073308,-0.00114053654281316,0.0139474808144302,0.056857800261797,-2.85791118960446,-0.000232709238253172,0
0.24,0.00101695373642108,0.000585732322885839,-0.0506726894305223,-0.0293040550996749,-0.000277685348661715,-0.0011402491408603,0.0139499895935664,0.0568493349982771,-2.85791199599285,-0.000213148267508117,0
0.25,0.00101670372297656,0.000585732144511329,-0.0506653280940592,-0.0293040318746666,-0.000277755923491222,-0.00114000888259424,0.0139520660395104,0.0568422519629481,-2.85791267102309,-0.000196773854998298,0
0.26,0.0010245414949005,0.000590294630772505,-0.0510391998497838,-0.0295322962495203,-0.000279942765106707,-0.00114881028640773,0.014066585260301,0.0572650645873231,-2.85791304222684,-0.000239824708283653,0
0.27,0.00100574424842786,0.000579279019844131,-0.0501551092649597,-0.0289812027107078,-0.000274629720535973,-0.00112768089133213,0.0137850224701025,0.0562620498332397,-2.85791404621787,-9.52106661777077e-05,0
0.28,0.0010049110425159,0.000578993744371013,-0.0499608842009943,-0.0289669350162345,-0.00027458948088552,-0.00112680103673105,0.0138257078395225,0.0560715888584948,-2.85791442672994,-8.14633009527875e-05,0
0.29,0.00101377404509705,0.000584584413216643,-0.050538370720266,-0.0292466336556661,-0.000277476095645698,-0.00113687456081729,0.0139325979220292,0.0567042785898106,-2.85791446721531,-0.000138428056759106,0
0.3,0.000999993793369991,0.00057768098935136,-0.0498768926660134,-0.0289012417212233,-0.000274704110465719,-0.00112171322713504,0.0137860802818593,0.0559725842311013,-2.85791320918462,-7.5956783135781e-05,0
0.31,0.0010131038252729,0.000584361135139962,-0.0504989521917988,-0.0292354500859152,-0.000277448039796602,-0.00113616894969792,0.0139328298672505,0.0566633211706292,-2.85791333304127,-0.000158820639231873,0
0.32,0.00101563384860993,0.000585498458149041,-0.0506213898997509,-0.0292923554977922,-0.000277832217639959,-0.00113891607143739,0.0139532137149184,0.0567967871716126,-2.85791371843907,-0.000166917947622372,0
0.33,0.00101603607811513,0.000585692025931731,-0.0506429562007016,-0.0293020445467182,-0.000277905901955159,-0.00113935629674395,0.0139565009180142,0.056820198076824,-2.85791409829397,-0.000161248248906857,0
0.34,0.00101602420623308,0.00058572491472694,-0.0506445614092667,-0.0293036946722297,-0.000277941174611416,-0.00113935401295606,0.0139576545405469,0.0568221963805254,-2.85791442790088,-0.000153973045636342,0
0.35,0.0010159436939159,0.000585730456150617,-0.0506425699960415,-0.0293039501989045,-0.000277969346085617,-0.00113927819214915,0.0139584730404482,0.0568203521939359,-2.85791470617872,-0.000147369109072049,0
0.36,0.0010158616211847,0.00058573135067046,-0.0506402027836547,-0.0293039971502303,-0.000277993441986307,-0.00113919958513285,0.0139591939336272,0.056818089475745,-2.85791493960606,-0.000141736532038756,0
0.37,0.00101579014219051,0.000585731461942402,-0.0506380835145828,-0.0293040062310193,-0.00027801377764306,-0.0011391309397612,0.0139598069175867,0.0568160547208373,-2.85791513510672,-0.00013700027021667,0
0.38,0.00101572960622333,0.000585731446533494,-0.0506362689455386,-0.0293040065400374,-0.000278030892581497,-0.00113907277343774,0.0139603243894998,0.0568143104768808,-2.85791529878055,-0.000133031218349042,0
0.39,0.00101567884914316,0.000585731415150146,-0.0506347389809828,-0.0293040068121956,-0.000278045224810716,-0.00113902399810124,0.0139607606536596,0.0568128398242219,-2.85791543579695,-0.00012970783463746,0
0.4,0.00101563624113549,0.000585731385730467,-0.0506334452088767,-0.0293040070535393,-0.000278057252666338,-0.00113898305289289,0.0139611295125207,0.0568115962269044,-2.85791555049462,-0.000126925639812771,0
0.41,0.00101560073446244,0.000585731360566572,-0.0506323630037148,-0.02930400726802,-0.000278067275742997,-0.0011389489315824,0.0139614380689072,0.056810555994042,-2.85791564650837,-0.000124596617970816,0
0.42,0.00101557093214014,0.000585731339410228,-0.0506314459389463,-0.0293040074609432,-0.000278075688271462,-0.00113892029210461,0.0139616994951694,0.0568096745136429,-2.85791572688219,-0.000122646977728354,0
0.43,0.00101554601926134,0.000585731321683969,-0.0506306728093761,-0.0293040076353779,-0.000278082720683258,-0.00113889635125265,0.0139619198741022,0.0568089313933428,-2.85791579416325,-0.000121014925092031,0
0.44,0.00101552518091879,0.000585731306842599,-0.050630019232771,-0.029304007794393,-0.000278088602968509,-0.00113887632594356,0.0139621061541683,0.0568083031964901,-2.85791585048467,-0.000119648727419179,0
0.45,0.00101550760220524,0.000585731294418126,-0.050629458207758,-0.0293040079410725,-0.000278093564794435,-0.00113885943321259,0.0139622659971179,0.0568077639768305,-2.85791589763156,-0.000118505078172448,0
0.46,0.00101549305029006,0.000585731284017493,-0.0506289895251312,-0.0293040080762944,-0.000278097672652873,-0.00113884544900932,0.0139623995472707,0.0568073135129074,-2.85791593709834,-0.000117547725094855,0
0.47,0.00101548071026598,0.00058573127531073,-0.0506285820846629,-0.0293040082031413,-0.000278101155734564,-0.00113883359055594,0.0139625155832306,0.0568069219308815,-2.85791597013604,-0.000116746321251294,0
0.48,0.00101547046571769,0.000585731268022257,-0.0506282380929461,-0.0293040083220599,-0.000278104047551538,-0.00113882374572157,0.0139626135473513,0.0568065913346569,-2.85791599779221,-0.00011607546309311,0
0.49,0.0010154618509839,0.000585731261921248,-0.0506279409963709,-0.029304008434811,-0.000278106479213097,-0.00113881546714786,0.0139626981242563,0.0568063058204842,-2.85791602094314,-0.000115513885217725,0
0.5,0.00101545463323396,0.000585731256813998,-0.0506276848022613,-0.0293040085422726,-0.000278108516536027,-0.00113880853105136,0.0139627710337806,0.0568060596251925,-2.85791604032312,-0.000115043786278238,0
0.51,4.71342426611434,0.0136011625065327,4.32951090902647,-0.671820542050772,-0.728619818739532,4.65678713962288,-1.34505315954675,4.16975293633734,0.158091307163447,48.5801516886582,770.389116986079
0.52,4.49069545095241,0.0230804603882158,3.28705340345699,-1.13610005630302,-2.91907900471477,3.41260254132969,-3.00899449932844,1.74395972376689,0.712749916017874,102.374087556328,770.389116986079
0.53,4.21680619028838,0.0381302270869517,2.11246585139368,-1.87963705029662,-4.20463745368966,-0.322385241135862,-1.94410006091594,-2.05329548952382,1.65636253013268,155.265568771452,770.389116986079
0.54,3.83041535398271,-0.0137134659182248,6.41819927669918,0.710589251548429,-0.565656353030609,-3.78844331268796,-1.67293931483732,-6.23694581415533,2.98979645261492,207.198301752915,770.389116986079
0.55,3.67076538127495,0.0113040246718019,1.95840493312552,-0.528367477871784,3.66729647647146,-0.159946300364947,1.97819525257708,0.44862636619402,-1.61130346704874,250.930166487564,770.389116986079
0.56,3.35573222559301,-0.0201276733892986,5.25350411125243,1.03563241369143,-1.28529808160156,3.09989560058897,-1.02397311691279,5.25578909385398,0.387053353844371,294.768663056236,770.389116986079
0.57,3.06897136557843,-0.0260928724812708,8.49998638890004,1.34865306197115,-1.30943453962505,-2.775724638211,-4.90658173950895,-7.07064985178643,2.69230140804679,333.200473366499,770.389116986079
0.58,2.91098808128997,0.00501211134466029,5.50166596717697,-0.218268554080229,2.46535837360198,1.5478646001453,4.53801237499267,3.11807845643867,-1.00843150900873,371.029193122628,770.389116986079
0.59,2.6127085598755,0.00477515812504814,10.8258970499013,-0.199399542302186,-2.52417634754615,-0.67439053038312,-10.402096227683,-3.00602747534922,1.83369858316843,404.766295131702,770.389116986079
0.6,2.51440720692848,0.0077864204008341,6.54598982682224,-0.340578434473534,2.46198095025871,0.5108365992759,6.33509866938664,1.68300366369904,-1.36311254730472,436.227584661084,770.389116986079
0.61,2.3253050812703,-0.0364450143254107,7.27930851637273,1.8646673741317,-2.14858634959088,-0.889914972568942,-7.45454768754471,-0.946063246728059,1.94780018022751,466.194650352511,770.389116986079
0.62,2.18361550610534,-0.0453680926141198,6.25889272040336,2.30364001572787,1.55825886678823,1.53038042538676,6.13526732516677,2.61514631642703,-0.815197647495049,494.031560782232,770.389116986079
0.63,1.98177745371014,0.0364682505571882,8.84822954760829,-1.7977828005033,-0.509560967041255,-1.91549456543226,-0.371421825757276,-9.02137655528828,2.89999326809317,519.812566306706,770.389116986079
0.64,1.83145224323305,-0.00586263775776508,9.40419720253297,0.316390576377134,-0.905142201644901,1.59215868699268,-4.34598483861508,8.34574405331706,0.513734555326859,543.57588129345,770.389116986079
0.65,1.67679940058624,0.0343933606833355,10.6204005628493,-1.70066477944381,1.65728699515885,-0.257369284769583,10.7522816133171,0.271309630004929,-1.70435278446897,565.708717911468,770.389116986079
0.66,1.59984900822592,0.00683247058399516,8.34977990663831,-0.321780373166833,-0.940137611716393,-1.29449017099858,-4.61656892762472,-6.96488753924614,2.51772913902775,586.399721683357,770.389116986079
0.67,1.45628639409662,0.00534096629303066,9.83673552824503,-0.247203679968864,-0.821189704706144,1.20268285779607,-5.78022593849341,7.96313152045074,0.602755115662589,605.468345492744,770.389116986079
0.68,1.36471626905689,0.00755211511227946,9.14331794004005,-0.354268150694196,1.26325827088376,0.516416566847925,8.30829754717925,3.83379195350893,-1.17719537447965,623.094500342584,770.389116986079
0.69,1.29631596458927,-0.0414738571882574,7.64934799475755,2.10569528371133,0.434347799649864,-1.22208721039802,0.324273162681334,-7.92725200108525,-2.83208490980895,639.472430575913,770.389116986079
0.7,1.19445108956593,0.0496432709172836,8.20707343293105,-2.44598908036641,-1.14227498884493,-0.352683582793309,-6.91646687622277,-5.0498913715948,1.91180379760391,654.568849480238,770.389116986079
0.71,1.07165929646545,-0.021728477338169,10.0654056832652,1.12834552955652,-0.514255086808902,0.940461312399094,-3.64828412450405,9.44857545610286,0.480119183738227,668.734943263814,770.389116986079
0.72,1.05841867738889,-0.0372255669936652,6.70319838740976,1.86900078669656,0.771942777814192,0.725079435140837,6.27506286906245,3.00825839165436,-0.851848753888403,682.023334939699,770.389116986079
0.73,0.973920028094158,0.0678469719834047,7.14120481928058,-3.38633506304581,0.8115474412889,-0.542691609726631,7.87995880812018,-0.608539737781251,-2.09066224155835,694.204876804017,770.389116986079
0.74,0.871238389017421,-0.0474339748814557,8.78457127989688,2.39538061373754,-0.0416686386459705,-0.871533153141128,-3.27880535856502,-8.49446739218558,3.03942768722642,705.427038362408,770.389116986079
0.75,0.807986953264407,0.0459930205674375,8.71935853960621,-2.26575129694977,-0.76341414780332,-0.268620761521046,-7.17497259734368,-5.44799141970696,1.96599564205367,715.82289354089,770.389116986079
0.76,0.724511062778145,-0.00320405282663894,9.84597921757756,0.157500841049926,-0.59793690296593,0.40914301425534,-8.01159448409055,5.72559753129667,0.966291549774112,725.54276928228,770.389116986079
0.77,0.715147819472011,0.00616793755442832,7.49892365493557,-0.301658206120425,-0.0181318084326528,0.714944532584318,-0.556249913909169,7.48434631007599,0.0339801940176487,734.360460408747,770.389116986079
0.78,0.598621091654353,0.0328582458521387,10.7248537946526,-1.61783296549837,0.466181152418227,0.37696420098458,6.87271534672253,8.39080783857265,-0.835985445634441,742.480393917598,770.389116986079
0.79,0.571984603146238,-0.0305935777871136,9.58480431866658,1.53336100486867,0.572643136421901,-0.013497834902824,9.43844627581944,-2.26614247055466,-1.6477988713624,750.1799389063,770.389116986079
0.8,0.522124551543466,0.0420486463300373,9.76677849136606,-2.10365518370062,0.319131904100762,-0.415375689909359,8.11276812437363,-5.83080788497344,-2.4061236081308,757.21389194294,770.389116986079
0.81,0.426496624971319,-0.0191812596530762,12.4558013033211,0.982819884267185,0.0304433397189868,-0.425840926756176,-0.653373011056663,-12.4774205964674,-3.11516785345199,763.53795893303,770.389116986079
0.82,0.445351254326247,-0.00920327658709841,9.52981418519448,0.449127972892325,-0.25772896324401,-0.363315594951645,-6.03410094245837,-7.38976996641921,2.5039365531935,769.544068222592,770.389116986079
0.83,0.382553212640609,0.00764662509493461,10.8151725265873,-0.379675579477719,-0.366532781922298,-0.109814166450849,-10.1798766782872,-3.67181442074146,1.88187420881037,774.950161777615,770.389116986079
0.84,0.407319145605164,0.0176946057928401,7.87989505164578,-0.857849437233351,-0.387457992985132,0.126879033424037,-7.81930924846234,1.29886664397259,1.29775062944411,779.928166138817,770.389116986079
0.85,0.362309979558425,-0.00209345564954308,8.49752276648502,0.0926339622422994,-0.248268818565776,0.26388538718947,-5.71904347008642,6.28561977892027,0.749137666620846,784.628925668726,770.389116986079
0.86,0.326199051455509,0.0502812876637079,8.78639852117682,-2.50077394528372,-0.0265595834472101,0.328981181204495,-4.46591994421917,7.96933048318198,0.233497377936107,788.890400452367,770.389116986079
0.87,0.206098356091913,-0.00531966507232147,13.3768731005449,0.252210890522913,0.0462533758407945,0.200911563737882,3.58069077168858,12.8911984655781,-0.252080598531392,792.824196564392,770.389116986079
0.88,0.321379582695347,0.00273864882542764,6.35356143446561,-0.136421135676479,0.211821810718536,0.241710274656964,4.04325991179435,4.9028973998509,-0.711070443661482,796.215351447332,770.389116986079
0.89,0.215378718097482,0.0502581252832473,10.4374383522396,-2.4919872889968,0.216925461629993,0.0430954227606111,8.47906641732193,6.57689536909073,-1.14543953427975,799.497508325962,770.389116986079
0.9,0.20144532960302,-0.0234482660253588,9.98535427689667,1.15914904769934,0.201103246898318,0.0262207186289715,10.0003729678144,-1.02150235169989,-1.55702204497982,802.510978158441,770.389116986079
0.91,0.177116275479739,0.0686733737806521,10.1510910264438,-3.41903792212036,-0.0976785646947577,0.162926686903662,-10.1125838107603,3.53130542581533,0.909954543994127,805.192048947435,770.389116986079
0.92,0.0944214946841889,0.00917238597901101,13.2888259462731,-0.481585573393159,-0.0405408574795652,0.0857670694250763,-7.22744525341178,11.1619377710045,0.53839742269853,807.662835261021,770.389116986079
0.93,0.164822579935319,-0.0321773597143102,8.85651313841574,1.61803290421005,-0.061784463499199,0.156155516728788,-0.0293383193291707,9.00305474342214,0.183959976009353,809.902306238205,770.389116986079
0.94,0.054697322393449,0.0444423892523308,13.5156988622573,-2.24437384525781,0.0523485583381295,0.0471863484430406,-0.132425878522161,13.700138432848,-0.154889521439062,811.872107845052,770.389116986079
0.95,0.127803492359637,0.0661889466591746,9.11923639523995,-3.31418765259697,0.117774741468159,0.0827273811460221,1.27704151542146,9.61839265141454,-0.480585903859835,813.542911193408,770.389116986079
0.96,0.0373563252784715,0.00373083795090086,12.9247293858156,-0.169600090538718,0.0292653036861876,0.0235150205248063,9.10200093939313,9.17774333845541,-0.794376057388369,815.021639946671,770.389116986079
0.97,0.08060120449771,-0.0516311596196402,10.1305544262579,2.57136799891122,0.0482606805423553,0.0826633989365255,10.1905315973679,2.32231180771353,-1.09816007853413,816.375680345905,770.389116986079
