t,iq,id,vq,vd,ia,ib,va,vb,theta_e,omega,r
0,0,0,0,0,0,0,0,0,0,0,0
0.01,0.000504292921812449,0.000258974247023832,-0.0230832377683508,-0.0129525341175278,0.000547774929469648,-0.000146019307819957,-0.025306727715447,0.00775716045161924,-1.35688636046958,-0.00702526140773211,0
0.02,0.0006988789399192,0.000344742941524334,-0.0325699777368975,-0.0172422458368554,0.000756122603927112,-0.000188568492129304,-0.0354873213565346,0.0099372286991194,-1.35694253910269,-0.00789583125980285,0
0.03,0.000774523088577566,0.000382871025370061,-0.0366004886098682,-0.0191492053312559,0.000838124085789911,-0.000209819573983171,-0.0398301357765378,0.0109475163997253,-1.35699660059448,-0.00687553364260379,0
0.04,0.000761283905827277,0.000384785526736605,-0.0365415786610265,-0.0192449594695384,0.000825583593908447,-0.000214533951454808,-0.0397924224639066,0.01105524990573,-1.35703832496593,-0.00489573422718968,0
0.05,0.000757897924229251,0.000395325462912651,-0.0367710790834449,-0.019772109403778,0.000824503777415601,-0.000225577051593275,-0.0401281798629223,0.0115229227249376,-1.35706836114966,-0.00357282789015491,0
0.06,0.000743518303223337,0.000398603589293379,-0.036399229756885,-0.0199360665593353,0.000811141785406253,-0.000231847563268695,-0.0397993209059881,0.0117628539128449,-1.35708930698677,-0.00245021177532113,0
0.07,0.000735000444828068,0.000403642831729276,-0.0361877504298068,-0.0201881020302854,0.000803883311719971,-0.000238589208980663,-0.0396459471288672,0.01205452699239,-1.35710241460272,-0.00175569718308759,0
0.08,0.000719604739439748,0.000401189914309332,-0.0356244373095369,-0.0200654188392124,0.000788315362271324,-0.000239464439896006,-0.0390693167598023,0.012054462026004,-1.35711176188874,-0.00110524324993061,0
0.09,0.000709402682175588,0.000400426042506929,-0.0352429600743721,-0.0200272120893982,0.000778182014471298,-0.000240885726744179,-0.0386883464715873,0.0120982356635975,-1.35711730770848,-0.000701548835334342,0
0.1,0.00070292323865308,0.000400188024987284,-0.0349968282150166,-0.0200153199173797,0.000771798678492184,-0.00024202961525292,-0.0384452514210638,0.0121389315706791,-1.35712052568636,-0.000457988726907067,0
0.11,0.000698940099704301,0.000400113784469996,-0.0348436334487465,-0.0200116065851793,0.000767889936760581,-0.000242803106486288,-0.0382947309184276,0.0121678582304291,-1.35712235498424,-0.00031454241731187,0
0.12,0.000696556219634692,0.000400090587203462,-0.0347509887827939,-0.0200104385185599,0.000765555102778416,-0.000243286723210522,-0.0382039330214731,0.0121864011413432,-1.35712337453861,-0.000231862713241051,0
0.13,0.000719295581451425,0.000412816633265692,-0.0357773347538269,-0.0206469264245191,0.000790475510437417,-0.000250902717392758,-0.0393418862649992,0.0125908394469456,-1.35712496112543,-0.000543524641873734,0
0.14,0.000732073328715321,0.000420107168962974,-0.0365381318661765,-0.021011562553891,0.00080450810838003,-0.000255319594980882,-0.0401626767063205,0.0127859391915399,-1.35712700840255,-0.000669920260189204,0
0.15,0.000707768776760911,0.000406312014405508,-0.0353169599264233,-0.0203216014225238,0.00077783056434144,-0.000246993335100717,-0.038822947169159,0.0123706877707424,-1.35712890197479,-0.000185452555642607,0
0.16,0.000697242146859247,0.000402018953247155,-0.0348471170051921,-0.0201068813117574,0.000766633064910557,-0.000245029781685156,-0.0383182619961582,0.0122604664369847,-1.35712858882324,-2.34091496727331e-05,0
0.17,0.000693174253323205,0.000400683046565612,-0.0346552614062134,-0.0200400749072464,0.000762374631630676,-0.000244586120459184,-0.0381166146672648,0.0122358257477084,-1.35712765422637,4.90127624972958e-06,0
0.18,0.00069195535621178,0.000400267412507329,-0.0345894906838488,-0.0200192793367034,0.000761095547480022,-0.00024443768962983,-0.0380479414017107,0.01222941396883,-1.35712671950067,-1.42197537224729e-05,0
0.19,0.000691873898499562,0.000400138146106556,-0.0345764961251759,-0.0200128246096364,0.000760988712757246,-0.000244328071352113,-0.0380338827061285,0.0122258332823097,-1.35712597786102,-4.413820723285e-05,0
0.2,0.000692163071399556,0.000400097973583348,-0.0345825984264519,-0.0200108100593597,0.000761262920167783,-0.000244227091561086,-0.0380394255125225,0.0122225504635595,-1.35712544949006,-7.12324257069322e-05,0
0.21,0.000692507776309553,0.000400085508011654,-0.0345933751398842,-0.0200101833338972,0.00076159722902318,-0.000244141546473269,-0.0380498285696089,0.0122196393747241,-1.35712509660012,-9.18504904277609e-05,0
0.22,0.000692798523310023,0.000400081651364881,-0.0346033740037252,-0.0200099889111563,0.000761880601372427,-0.00024407595316169,-0.0380595615763116,0.0122173205444251,-1.35712487118483,-0.000106194948433546,0
0.23,0.000693012187311668,0.00040008046491971,-0.0346110489505318,-0.0200099451286111,0.000762089188820686,-0.000244029380312089,-0.0380670544033749,0.0122156449914292,-1.35712473197951,-0.000115624983634901,0
0.24,0.000693157997476186,0.000400080103828403,-0.0346164240612189,-0.0200099257984016,0.000762231626946471,-0.000243998044719785,-0.0380723042010081,0.0122144831274015,-1.35712464834116,-0.000121578593750521,0
0.25,0.000693252468503692,0.000400079996159605,-0.0346199632933816,-0.0200099211925019,0.000762323938744552,-0.000243977869550754,-0.0380757625699951,0.0122137262650914,-1.35712459926172,-0.000125221174212721,0
0.26,0.000696640640383963,0.000402089932022009,-0.0347654039234506,-0.0201104447992283,0.000766061352986571,-0.000245223364972479,-0.0382392160685314,0.0122811096586446,-1.35712424420046,-0.000196599165551075,0
0.27,0.000690746268405836,0.000397982797312813,-0.0345144020531363,-0.0199050178971159,0.000759429918711955,-0.0002424601262861,-0.0379503520271699,0.0121336090090263,-1.35712502643018,-6.54823955654169e-05,0
0.28,0.0006896501916264,0.000397595742229629,-0.0343003951850876,-0.0198856593596636,0.000758276691601581,-0.000242314300079917,-0.0377371068510245,0.0121600709099953,-1.35712503266793,-4.69720253427817e-05,0
0.29,0.000691684941791218,0.00039930684751102,-0.0345509217689493,-0.0199712530246192,0.000760628105411959,-0.000243554721628062,-0.0380000911539568,0.0121905789340946,-1.3571246323317,-9.77307584561025e-05,0
0.3,0.000678979961833622,0.000393603858769817,-0.0339602507066282,-0.0196860157947061,0.000747003275593751,-0.000240673830032024,-0.0373623952393299,0.0120369958007202,-1.35712238357299,1.89583152098093e-05,0
0.31,0.000688573176826095,0.000398064846426078,-0.034380461774027,-0.0199091279617022,0.000757324369253433,-0.000242998850901578,-0.0378203655372128,0.0121659146233388,-1.35712204117812,-0.000155186439190719,0
0.32,0.000692552462754328,0.000399453072461696,-0.0345617148287206,-0.0199785633600709,0.000761507436293438,-0.000243512002242127,-0.0380122155315915,0.0121953514182252,-1.35712245031386,-0.000204181619778225,0
0.33,0.000693964160290026,0.000399885028665368,-0.0346312212711526,-0.0200001567498576,0.000762978490662379,-0.000243635208260836,-0.0380847133924391,0.0122017360472262,-1.35712300859378,-0.000204140491346962,0
0.34,0.000694285708559096,0.000400019400816025,-0.034651610297163,-0.0200068819342854,0.000763321100986355,-0.000243698713430326,-0.0381060588543041,0.0122040034214679,-1.35712349790032,-0.000188860788718321,0
0.35,0.000694201775958681,0.000400061178755567,-0.0346525059141844,-0.0200089745065709,0.000763247846760729,-0.00024375761917649,-0.0381073733584097,0.0122058724661515,-1.35712386466395,-0.000171999866546989,0
0.36,0.000694009225901632,0.000400074153956418,-0.0346471567883783,-0.0200096256004876,0.000763062365269768,-0.000243811322562003,-0.0381022808558866,0.0122076526723729,-1.35712411754721,-0.000158130964836914,0
0.37,0.000693822612416317,0.000400078175124374,-0.0346409629772991,-0.0200098285521115,0.00076288080799439,-0.000243854949723969,-0.0380962689180591,0.0122091707008474,-1.35712428277194,-0.000148057872298711,0
0.38,0.000693676453065217,0.000400079416190628,-0.0346357843522676,-0.0200098916916859,0.000762738210319883,-0.000243887234833225,-0.0380912201818399,0.0122103344863432,-1.35712438660375,-0.000141246253112916,0
0.39,0.000693573018077745,0.000400079796217504,-0.0346319842240637,-0.0200099110375826,0.000762637192708513,-0.000243909587848837,-0.0380875098022966,0.0122111616190979,-1.35712444989331,-0.000136856103038619,0
0.4,0.000693504274838283,0.000400079910854325,-0.0346293952181524,-0.0200099171710661,0.000762570027902376,-0.000243924305539949,-0.0380849805146214,0.0122117180432908,-1.35712448750069,-0.000134125930341256,0
0.41,0.000693460560887018,0.000400079944450083,-0.0346277151848679,-0.0200099188545662,0.000762527309848359,-0.000243933624562797,-0.0380833387772841,0.012212076771183,-1.35712450935255,-0.000132475989160188,0
0.42,0.000693433552532416,0.000400079953736906,-0.0346266549988917,-0.0200099190262779,0.000762500914628654,-0.000243939370234321,-0.0380823025856198,0.0122123022247146,-1.35712452179069,-0.000131502827366385,0
0.43,0.00069341737080272,0.000400079955983549,-0.0346260046984863,-0.0200099191612464,0.000762485099672358,-0.000243942809052428,-0.038081667017608,0.0122124405169172,-1.35712452873225,-0.000130941166824036,0
0.44,0.000693407941161674,0.000400079956335443,-0.0346256138427375,-0.02000991927327,0.000762475883619816,-0.000243944811844038,-0.0380812850277191,0.0122125236518408,-1.35712453253031,-0.000130623502181765,0
0.45,0.000693402527849221,0.000400079956261757,-0.0346253783583077,-0.0200099193716405,0.000762470592899667,-0.000243945961215448,-0.0380810548944552,0.0122125737599004,-1.35712453456658,-0.000130447337696315,0
0.46,0.0006933994428432,0.000400079956144173,-0.0346252334109598,-0.0200099194620961,0.000762467577764661,-0.000243946616089002,-0.0380809132495101,0.0122126046249892,-1.35712453563434,-0.000130351568238114,0
0.47,0.000693397813028698,0.000400079956060136,-0.0346251467682685,-0.0200099195476046,0.000762465984862924,-0.000243946962024684,-0.0380808285886331,0.0122126231018928,-1.3571245361803,-0.00013030058351126,0
0.48,0.000693396881706126,0.000400079956010887,-0.0346250871342867,-0.0200099196307387,0.000762465074643059,-0.00024394715966989,-0.0380807703251106,0.0122126358388247,-1.35712453645146,-0.00013027405797352,0
0.49,0.000693396416044839,0.000400079955984965,-0.034625046556236,-0.0200099197122897,0.000762464619534202,-0.000243947258487001,-0.038080730685554,0.012212644528033,-1.35712453658149,-0.00013026061814226,0
0.5,0.000693396183214196,0.000400079955972033,-0.0346250153733108,-0.0200099197930492,0.000762464391981205,-0.000243947307891131,-0.0380807002281651,0.0122126512215366,-1.35712453664067,-0.000130254023941257,0
0.51,3.8271459060735,-0.0355018594806283,3.54870317043898,1.78604805646039,-0.904121989295796,3.71898771130983,0.933052354025833,3.86169330171577,0.229207174423261,69.4964367859781,692.472079180304
0.52,3.41842220355593,-0.0231220928279505,3.15730989537099,1.17672495790077,-2.89666813199844,1.81533983760771,-2.03233573295468,2.68754513832041,1.00421212598928,141.023734251573,692.472079180304
0.53,2.97943011859987,0.0406965292993431,5.05765480417989,-2.01681525742703,-2.26691435081575,-1.93384574492968,-2.47283548859391,-4.85103087468889,2.29073063098462,209.849284156325,692.472079180304
0.54,2.64464926365012,0.044104091658451,4.50903739379512,-2.18083061542491,2.06014142787444,-1.65889487182931,4.89790380867996,-1.0478447751149,-2.23204510423083,267.906456336211,692.472079180304
0.55,2.35914677701002,0.0292278006711105,3.95783400108778,-1.4335443095739,0.221147331655306,2.3489405351159,-1.10665059000002,4.06138199869587,-0.0814824877725915,319.161283830053,692.472079180304
0.56,2.12038315134029,0.0176981034455448,2.38746375123337,-0.854567100020779,-1.39488089784732,-1.59707395325765,-0.907152993611063,-2.36798258821169,2.43201726786479,364.512366500627,692.472079180304
0.57,1.8358874067695,0.0264990374620874,4.52729996175778,-1.30499076141878,1.58431520621925,0.927970956799677,3.19734834545822,3.4606949286113,-1.02650734158567,405.764052258474,692.472079180304
0.58,1.64281054063774,-0.029151266117013,3.96065871580132,1.47972451362571,-1.423382587428,-0.820766884415706,-4.18197235460844,-0.622502469528097,2.07611278192358,440.850493206106,692.472079180304
0.59,1.43355733827119,0.00965883162393977,5.23728674872991,-0.449927145142337,1.09093126928702,0.930080050765165,3.6682773818835,3.76501633116243,-0.858082651055763,471.817293837541,692.472079180304
0.6,1.28538263736905,0.00860004438124828,4.39130571562098,-0.400680108203589,-0.54820382681766,-1.16265001160093,-1.48264447751264,-4.15281540529516,2.70768432848682,499.791243634893,692.472079180304
0.61,1.09269270634997,-0.0170335458314632,6.68769527398203,0.875896592032527,-0.215449436422289,1.07137716633282,-0.354825856288559,6.73547040148532,0.182861646494157,524.653211289978,692.472079180304
0.62,1.00315013723282,0.00104783711311801,4.71560918421045,-0.0317665872565609,0.826605788738035,-0.568360946773801,3.90646668729216,-2.64149524234901,-2.17209619060534,546.560468576393,692.472079180304
0.63,0.907414620119465,0.0550857245732005,3.84031600028691,-2.73706878568631,-0.874967421278088,-0.24671388603052,-2.72517828511654,-3.84876289656394,1.90626198311481,565.740284253866,692.472079180304
0.64,0.801602800866525,-0.0105599078233511,4.11938380126774,0.545555991301082,0.122193080289666,0.792305126286343,1.21950039356964,3.97237624500438,-0.166191904511116,582.729592852233,692.472079180304
0.65,0.664717875022268,0.0304170673632281,6.54742153577067,-1.50492374522834,0.550488536321828,-0.373814690373921,6.36671538079539,-2.14440189935773,-2.12160239089849,597.712403549837,692.472079180304
0.66,0.61358521377032,0.0149994885034427,5.18540036888035,-0.731542102458684,-0.463650389532134,-0.40216926225115,-3.34022675645962,-4.03316452040893,2.30974509982278,610.916251429073,692.472079180304
0.67,0.544100445178922,-0.00901157925751667,5.18987945813653,0.471562401968253,-0.291675192586688,0.459404054220393,-2.30657836216339,4.67299862488074,0.549125246490756,622.651642526853,692.472079180304
0.68,0.468724066602521,0.030230557266064,5.87700995069233,-1.49049123624868,0.436875359681848,0.172499441471203,4.68058968728128,3.85394476675353,-1.1303328268079,633.070564366114,692.472079180304
0.69,0.386393166002758,-0.0195065750486763,7.26299065036951,0.99532777012771,0.169657995443005,-0.347701523991521,1.93643767230549,-7.07049642518956,-2.73807924007418,642.274325805348,692.472079180304
0.7,0.383408254136714,-0.0337015687314629,5.00301300272424,1.68054715535626,-0.334561265684391,-0.190279911127746,-5.24844694225184,-0.555141910840037,2.00024217912908,650.372881459004,692.472079180304
0.71,0.338079350196861,0.021580220604813,5.10317658869274,-1.08395275193756,-0.146587372870461,0.305410371575395,-3.44213140380871,3.92034389597756,0.511239751334918,657.592090555004,692.472079180304
0.72,0.310491605145597,-0.0313241799511807,4.59207763135224,1.56861104393286,0.229777301684264,0.211160206351012,4.61609497915303,1.49645739095768,-0.928140280228869,663.903939964692,692.472079180304
0.73,0.269182878210464,0.0255009894912382,4.9762177113677,-1.26586724823324,0.178920668709259,-0.20272423805587,4.49590566480577,-2.48032152235282,-2.32403186387677,669.482112613288,692.472079180304
0.74,0.216494065467833,-0.00406113695945595,6.12623590452847,0.218946385105642,-0.107755266135421,-0.187816335381879,-3.33562515013774,-5.14318079939381,2.60195928686584,674.409348573476,692.472079180304
0.75,0.146910613768685,0.0118356925646146,8.30644444387248,-0.58122155313708,-0.137276871021446,0.0536458082140366,-8.12187778005148,1.83573939296326,1.27864892979746,678.74190393594,692.472079180304
0.76,0.157357094619991,-0.0480411182977358,6.62493980463828,2.39220475788704,-0.0457017725876721,0.158052371879977,2.49020858968178,6.58872766159091,-0.0148334344042417,682.546399311552,692.472079180304
0.77,0.150097180469853,0.0098652442740281,5.96381011633816,-0.49773659933328,0.146695517704179,0.0332702827623804,5.57538216979105,2.17483022023083,-1.28213965445655,685.875611542813,692.472079180304
0.78,0.144953183630717,0.0428276589901202,5.30084152201551,-2.13563102821743,0.0486699233454606,-0.143097422690981,4.80309157514144,-3.09679706325972,-2.52646376958304,688.879747415054,692.472079180304
0.79,0.120926724785121,-0.0135210556491005,5.69008823573663,0.690765561160135,-0.0580296417048703,-0.106951635783315,-3.81934548606149,-4.27397487697986,2.5331158177387,691.544140726108,692.472079180304
0.8,0.060315233076546,-0.0438613142022587,7.98775603548274,2.18467687813894,-0.0690939614795724,-0.0280671821116173,-7.22783808560588,4.04170955816112,1.32790162296172,693.871773134745,692.472079180304
0.81,0.0756310868829611,-0.0147626641565563,6.60402205192221,0.727075024953596,-0.025061542370077,0.0728691748967293,-0.191513018502332,6.64116466577439,0.138483444960628,695.842658089071,692.472079180304
0.82,0.109248222818881,0.0030819333911448,4.36649220690088,-0.154105433476263,0.0956383259785003,0.052895964936292,3.6815321729148,2.35293933992065,-1.03738605382291,697.630625629329,692.472079180304
0.83,0.0624335733366006,-0.0283891913278087,6.21286236279865,1.43047653852417,0.0671714436838801,-0.0138525960472016,4.17672970462655,-4.81672615381426,-2.2009367285925,699.184579071289,692.472079180304
0.84,0.0566667078390113,-0.0143011303536075,6.02973654232758,0.728303897295638,0.00208160092524435,-0.0584063784555314,-1.97836989050059,-5.74231677226686,2.9300069861757,700.644780248705,692.472079180304
0.85,0.0418006173905997,-0.017616916002219,6.42452162453478,0.867152748892226,-0.0370584754386305,-0.0261594484236378,-6.46118383649234,-0.528711097931995,1.78660786903197,701.686139780254,692.472079180304
0.86,0.061818289154541,-0.0109265384258223,5.07649568142636,0.542227428834532,-0.0461551806321923,0.0425510213364511,-2.64520012677569,4.36666180021156,0.651060520912436,702.753754897374,692.472079180304
0.87,0.0440364645134365,0.0378386615957617,5.64769008782822,-1.88499655709972,0.053836278589913,0.0217400465912795,0.91929514450742,5.88255996873096,-0.477159079607731,703.70287470354,692.472079180304
0.88,0.0121371765985567,0.0361768082911382,6.96552893826097,-1.79737547126587,0.0111076439112241,-0.0365060647106719,7.01364281396893,1.59936439016291,-1.59912387627612,704.493277571856,692.472079180304
0.89,-0.00276111961211412,0.0128128435195184,7.47668656551828,-0.656838848780195,-0.012808853805228,-0.00277956916883923,3.68735210473885,-6.53725582549332,-2.71565164850134,705.173757368433,692.472079180304
0.9,0.038940560464438,-0.00977845058304442,5.18646221260805,0.482504254792792,-0.0170985979814254,-0.0363266196082045,-3.65852495404385,-3.70774807657462,2.45564109329345,705.737429461053,692.472079180304
0.91,-0.00698111359316637,0.0285149464867418,7.31710172433594,-1.42115341505813,0.0131280319185259,0.0262581967790746,-7.45009486007307,0.23609584774876,1.34728146083956,706.183735515222,692.472079180304
0.92,-0.00801670601989418,0.0196133225952123,7.22655075954267,-0.969212814407018,0.00746625646446467,0.0198293976973612,-7.19668965233703,-1.17049878590394,1.59870585332897,706.556060643627,692.472079180304
0.93,0.0346856440481885,0.0192383785933922,4.92309566798556,-0.977422696765644,0.000394795770784651,0.03966173534075,-3.20434122118885,3.86321413106765,0.496452207973738,706.948214658956,692.472079180304
0.94,-0.018794755044838,-0.0291322506749792,7.48588402918256,1.44836373548217,-0.034652952878698,0.00105057287801874,5.43972299211852,5.3428111493527,-0.603267891937011,707.262872179935,692.472079180304
0.95,0.00978193513039591,-0.0034621188504942,5.95722981224122,0.178307281325857,0.0101490621768803,0.00216080049056808,5.8834698532971,-0.951400550648154,-1.70119360783043,707.476271029291,692.472079180304
0.96,-0.0152135178837034,0.0405427743475335,7.07710407761992,-2.01635753567689,-0.0432984280986866,0.000643274727976638,4.28579943192183,-5.98189126167335,-2.7974619191482,707.776677770843,692.472079180304
