t,iq,id,vq,vd,ia,ib,va,vb,theta_e,omega,r
0,0,0,0,0,0,0,0,0,0,0,0
0.01,0.00103812325841388,0.000564918811380621,-0.0506830557692345,-0.0282664111733546,0.000958950987206776,-0.000690830056704754,-0.0467315564540374,0.0344081934154003,-1.69672535385733,-0.00391488261372244,0
0.02,0.00122138202319622,0.00065990351010271,-0.0598811559278429,-0.0330191072324921,0.0011288053079231,-0.000808112161792784,-0.0552587249288317,0.0402801141622657,-1.69675449873617,-0.00398364536494156,0
0.03,0.00128192756919937,0.00069640086650348,-0.0629966216212665,-0.0348452757027319,0.00118426297348244,-0.000851958725044085,-0.0581189376400183,0.0424847815351343,-1.69678176540508,-0.00357701388396343,0
0.04,0.00124379451082249,0.000682046273186352,-0.0613022563079133,-0.0341270225174466,0.00114821719718556,-0.000832952082659556,-0.0565273216367276,0.0415605847279047,-1.6968041410196,-0.00287039808831786,0
0.05,0.00126503218579451,0.000699222532149576,-0.0624591722848405,-0.034986471019464,0.0011671116414996,-0.000852683409500741,-0.0575662441631211,0.0425597097012551,-1.69682317321442,-0.00249729258129918,0
0.06,0.00126043056563304,0.000701416795349363,-0.0623449687989874,-0.0350962766283889,0.00116225701498736,-0.000854300510764718,-0.0574384606879562,0.0426552107194563,-1.69683920593397,-0.0020874727576806,0
0.07,0.00127737573304548,0.000715537752408694,-0.06325241002521,-0.0358028392549085,0.00117728140242126,-0.000870454788032443,-0.0582493214460963,0.0434709929007775,-1.69685209428784,-0.00184569643935974,0
0.08,0.00125048157693513,0.000703497962398568,-0.0620265389591717,-0.0352004105041291,0.00115210470697065,-0.00085514226975935,-0.0571084361429965,0.0427198660603487,-1.69686332079785,-0.0014582047212591,0
0.09,0.0012419196301989,0.000701952872820446,-0.0616727690004161,-0.0351230822789857,0.00114379733247254,-0.000852543175307234,-0.0567668144628757,0.0425991798124393,-1.69687228695063,-0.00120358470629428,0
0.1,0.00123699739105034,0.000701752431170422,-0.0614840497410461,-0.0351130573969314,0.00113893312917804,-0.000851733730328716,-0.056580541971442,0.0425659187911823,-1.69687960875111,-0.00100445040274682,0
0.11,0.00123328496390898,0.000701724657305877,-0.0613449745390383,-0.035111676186363,0.00113524855219177,-0.000851246158065639,-0.0564424889436554,0.0425473988353766,-1.69688561354809,-0.000842512674814461,0
0.12,0.00123028849227926,0.000701719371123534,-0.0612332690169864,-0.0351113963643568,0.00113227233980846,-0.000850869671894269,-0.0563314957757873,0.0425333513001745,-1.69689054227772,-0.000709809345085963,0
0.13,0.00128232801958364,0.000731622570288151,-0.063784373493474,-0.0366076514696335,0.00118013386661285,-0.000887085560719905,-0.0586739664640257,0.0443388329509871,-1.69689528163729,-0.000815431787664539,0
0.14,0.00131454949289856,0.00075173756530874,-0.0655072513370893,-0.0376141274439592,0.00120956596547878,-0.000911098189841008,-0.0602563965355548,0.0455542450015471,-1.69689942460809,-0.000851412650686778,0
0.15,0.00123671806191761,0.000708120302101916,-0.0616287499210136,-0.0354316701940583,0.00113783519302182,-0.000858042539996217,-0.0566830247521859,0.0429015241513682,-1.69690299700954,-0.000433930925810975,0
0.16,0.00122371722477169,0.000702533397661247,-0.0610128603746694,-0.0351521346894005,0.00112563858101028,-0.00085086709066313,-0.0561070991873771,0.0425468579932583,-1.69690498723006,-0.000330275076555535,0
0.17,0.00122097802598028,0.00070181734050883,-0.0608902988551199,-0.0351163061325663,0.00112300993286394,-0.000849813867887858,-0.0559899540843053,0.0424959820771248,-1.69690647418395,-0.000282446557716062,0
0.18,0.00121996612340409,0.000701725210097497,-0.0608493927209997,-0.0351116942519277,0.00112201663630614,-0.000849596539889508,-0.0559499019737737,0.0424863288232864,-1.69690767200442,-0.00024899095863457,0
0.19,0.0012193282686801,0.000701713064710071,-0.0608251166433247,-0.0351110766961815,0.00112138454238631,-0.000849505362010308,-0.0559258547350902,0.0424827175871411,-1.69690865179275,-0.000222430976749232,0
0.2,0.00121883431836238,0.00070171122529091,-0.060806614135329,-0.0351109999067445,0.00112089406340873,-0.000849442309949428,-0.0559074746795376,0.0424803591323222,-1.69690945559968,-0.000200767555534505,0
0.21,0.00121843383527117,0.000701710756593726,-0.0607916614158239,-0.0351109606788951,0.00112049625936488,-0.000849392211879914,-0.055892617617029,0.0424784763545925,-1.69691011540365,-0.000183004834028084,0
0.22,0.0012181055440644,0.000701710505154003,-0.0607794027227604,-0.0351109618991488,0.00112017014695354,-0.000849351276797765,-0.0558804331187536,0.0424769659377819,-1.69691065706055,-0.000168425841817073,0
0.23,0.0012178361590063,0.000701710315785527,-0.0607693387300269,-0.0351109600043504,0.00111990254746765,-0.000849317703594185,-0.0558704304034838,0.0424757230502474,-1.69691110173499,-0.000156457657387322,0
0.24,0.00121761530477203,0.000701710162489331,-0.0607610852325227,-0.0351109318223075,0.00111968315648433,-0.000849290181057791,-0.0558622304937335,0.0424746773540377,-1.69691146679336,-0.000146632381327346,0
0.25,0.00121743369687043,0.000701710036905991,-0.0607542883138326,-0.0351109325373712,0.00111950275218227,-0.000849267549142514,-0.0558554747368204,0.0424738398792545,-1.69691176649013,-0.000138566269569103,0
0.26,0.00122825399817161,0.000707832455826328,-0.0612787489845045,-0.0354172759104001,0.00112946694143569,-0.000856702455785898,-0.0563372333022987,0.0428437236227395,-1.69691187230704,-0.000181940201600874,0
0.27,0.0012010396478641,0.000692047014262982,-0.0599655867541265,-0.0346274449281854,0.00110445372027404,-0.000837620012574116,-0.0551338201346959,0.0418950285162355,-1.69691249851875,-5.11282936459837e-05,0
0.28,0.00120035382402111,0.000691744271441744,-0.0598036859414749,-0.0346123003367592,0.001103811302042,-0.000837233569202122,-0.0549751040295502,0.0418596479169226,-1.69691264293524,-4.47006282732153e-05,0
0.29,0.00121439400349489,0.000700433400678061,-0.0606121473718325,-0.035047069704887,0.00111664713348816,-0.000847619563119241,-0.0557224632428585,0.042392647877577,-1.69691252590857,-0.000107172012296313,0
0.3,0.0011998526589964,0.000693186867826173,-0.0599006286395258,-0.0346844867758522,0.00110313370593104,-0.000838600300421029,-0.0550622491210423,0.0419433863206933,-1.69691140082686,-7.28085004472261e-05,0
0.31,0.00121482580084847,0.000700618527023848,-0.0606260081118686,-0.0350563108311984,0.00111705309368113,-0.000847856375050405,-0.0557350954322802,0.0424035013392595,-1.69691149057873,-0.00013420735990366,0
0.32,0.00121701016814256,0.000701570232978154,-0.0607334781660052,-0.0351039357874906,0.00111910018463153,-0.000849075566673,-0.0558357105632444,0.0424642803284183,-1.69691175144785,-0.000137133895881796,0
0.33,0.00121722798973966,0.000701692035002529,-0.0607456350333099,-0.035110034675065,0.00111930074920832,-0.000849224071616758,-0.0558469934188738,0.0424718734759443,-1.69691199478942,-0.000132135219235408,0
0.34,0.0012171611684399,0.000701707562310014,-0.0607437488437815,-0.0351108178058324,0.00111923233204048,-0.00084923129939745,-0.0558450150280728,0.0424724245494072,-1.69691219911074,-0.000126877792021821,0
0.35,0.00121706791990572,0.000701709491371073,-0.0607403402697995,-0.035110917155314,0.00111913943840242,-0.000849221672683998,-0.0558416138745344,0.0424721037796076,-1.69691236755864,-0.000122381825046235,0
0.36,0.00121698549787435,0.000701709689490083,-0.0607372524496639,-0.0351109291638527,0.00111905752852441,-0.000849211656899261,-0.0558385431896388,0.0424717350286297,-1.6969125059579,-0.000118662796211828,0
0.37,0.00121691692925403,0.000701709674677836,-0.0607346675832997,-0.0351109323938828,0.00111898940984614,-0.000849203144656041,-0.0558359736199783,0.0424714194480337,-1.69691261959455,-0.000115605264884316,0
0.38,0.00121686046782308,0.000701709639787567,-0.0607325309480163,-0.0351109326713238,0.00111893332200279,-0.000849196112587196,-0.0558338499569275,0.0424711561814522,-1.69691271288831,-0.000113094483260601,0
0.39,0.00121681401810979,0.000701709608232876,-0.0607307657064222,-0.0351109329137879,0.00111888718012868,-0.000849190324425878,-0.0558320954517603,0.0424709386619885,-1.69691278947868,-0.000111033134441919,0
0.4,0.00121677628517603,0.00070170958195411,-0.0607293302133232,-0.0351109041162829,0.00111884969678612,-0.000849185622567051,-0.0558306723113232,0.0424707330439129,-1.69691285235617,-0.000109340840070806,0
0.41,0.00121674496945454,0.000701709560332116,-0.0607281284750665,-0.0351109043061621,0.00111881858866411,-0.000849181719901033,-0.055829477901256,0.042470584956577,-1.69691290397583,-0.00010795153733856,0
0.42,0.0012167193580838,0.000701709542575189,-0.0607271404588417,-0.0351109044763598,0.00111879314695028,-0.000849178528234211,-0.0558284959108072,0.0424704632161333,-1.6969129463535,-0.000106810979756139,0
0.43,0.0012166982869106,0.000701709527996418,-0.0607263207049329,-0.0351109046305761,0.00111877221541872,-0.000849175902307188,-0.0558276811705765,0.0424703622006244,-1.69691298114353,-0.000105874631475795,0
0.44,0.00121668094102769,0.000701709516027761,-0.060725639060934,-0.0351109047716777,0.00111875498455185,-0.000849173740576287,-0.055827003709563,0.0424702781961349,-1.69691300970466,-0.000105105930209764,0
0.45,0.00121666662193904,0.000701709506201574,-0.0607250691543471,-0.0351109019917428,0.00111874076051293,-0.000849171955967196,-0.0558264376831225,0.0424702050629197,-1.69691303315211,-0.000104474859867458,0
0.46,0.00121665498040689,0.000701709498134852,-0.060724600672057,-0.0351109021127642,0.00111872919610851,-0.000849170505196662,-0.055825972088854,0.0424701473306532,-1.69691305240152,-0.000103956778535251,0
0.47,0.00121664543435052,0.000701709491512563,-0.0607242102798275,-0.0351109022264032,0.00111871971328229,-0.000849169315577506,-0.0558255841117464,0.0424700992210177,-1.69691306820438,-0.000103531456270881,0
0.48,0.00121663763452398,0.000701709486075928,-0.0607238853160492,-0.0351109023338996,0.00111871196507041,-0.000849168343614715,-0.0558252611643762,0.0424700591771017,-1.69691308117803,-0.000103182285172683,0
0.49,0.00121663111526597,0.000701709481612426,-0.0607236063973832,-0.0351109024368891,0.00111870548910681,-0.000849167531091716,-0.0558249839956469,0.0424700247907019,-1.69691309182865,-0.000102895630870663,0
0.5,0.0012166258765765,0.000701709477948333,-0.0607233767622478,-0.0351109025353649,0.00111870028505996,-0.000849166878301794,-0.0558247558005832,0.0424699964923832,-1.69691310057238,-0.000102660300144815,0
0.51,3.6170150300707,0.00350195616582298,2.14651174496904,-0.169916772311318,-0.333799818298775,3.60158127393483,-0.369338538420663,2.12131407972512,0.0933856373229871,28.4771941382451,616.898787983858
0.52,3.40677875454552,0.00387543262832896,5.93835259612689,-0.182611158976484,-1.37343813615366,3.11766325756319,-2.56724743859585,5.35785581929308,0.416092132224025,59.4115967936186,616.898787983858
0.53,3.31623640341249,0.030269078946729,3.74951482912484,-1.49626537947204,-2.70584061876798,1.91748967305793,-3.93284566642263,0.91126094162672,0.963416893259735,89.9611232891233,616.898787983858
0.54,3.16357010261271,0.042505370308352,4.18739741313693,-2.11353107255537,-3.12629391275766,-0.486074965107672,-3.77592989868836,-2.78274398577991,1.73847603127193,121.678134459375,616.898787983858
0.55,3.03388864178316,-0.0340815509450239,4.07386455511019,1.72469464185001,-1.15911985680233,-2.80394061998863,-3.18491652561181,-3.07038283376749,2.7383639359985,150.338997452135,616.898787983858
0.56,2.91729355804297,0.0123256833445881,4.10521433719845,-0.584781657314127,2.07288977739122,-2.05277412226867,3.33884493255484,-2.45903819763412,-2.34709377577237,176.437138570151,616.898787983858
0.57,2.81194998713865,0.012097450965317,3.08234469437152,-0.585933532398356,2.29947811618805,1.61852076652145,2.17360416796339,2.26265592618967,-0.953179385745786,203.731232793929,616.898787983858
0.58,2.66469202816016,0.0574150601507117,4.9926767031063,-2.83568248879656,-1.52162161333923,2.18827506495215,-5.23069125859924,2.36807618040919,0.629143006463596,227.695210753024,616.898787983858
0.59,2.46634089785593,-0.00664268598802764,9.16758390615666,0.354046134456584,-1.67993854617177,-1.80573753098289,-6.52106103954758,-6.45334845334117,2.38957577144128,252.378850558648,616.898787983858
0.6,2.35347841195188,0.0747804936731624,9.72700367989574,-3.69903551206401,2.14656648414766,-0.967835258136159,10.4024037100303,-0.295738671405028,-1.96261470822962,274.637052894736,616.898787983858
0.61,2.31390591495097,0.0438839335740225,6.53304388669398,-2.15842896055368,-0.264647083785089,2.29914077514081,-3.00920248000941,6.18742098434652,0.133565612784273,296.481803523582,616.898787983858
0.62,2.22954695749434,-0.016861083518307,5.75830638652986,0.867973336397833,-1.51866761775177,-1.63242537305748,-4.5849628261375,-3.59020696294592,2.38471744962251,317.656153079869,616.898787983858
0.63,1.99124108529604,-0.0275584129169344,13.0578504053519,1.39557509336539,1.98411109130236,0.170598075207185,13.1243829875463,-0.453495585398561,-1.4988640934982,337.466274095648,616.898787983858
0.64,1.97756065372433,0.0348498232565616,9.287344052633,-1.69497587315676,-1.69187736650629,1.02445674678991,-8.88021150717303,3.20461329187046,1.04395251493038,356.168433441035,616.898787983858
0.65,1.87672259593642,0.0303720487389352,9.96677965156945,-1.47182672645224,1.00557392676424,-1.5848757810172,6.70497903628217,-7.51972251207813,-2.56002226746351,374.238952107748,616.898787983858
0.66,1.7974204697535,-0.0493380537460887,9.73136807047292,2.51355879817921,-0.490406230616764,1.72992957012955,0.0399664417498684,10.0506668952094,0.248793407137247,391.577487951678,616.898787983858
0.67,1.73058073313077,0.105234059363392,9.0443896152318,-5.22421096110768,-0.0364429095042277,-1.73339429890617,5.57917574480904,-8.82984494126623,-3.1018798334556,408.086031608208,616.898787983858
0.68,1.56845814922919,0.0198290659602355,13.273188042265,-0.953347369695423,0.100329039978218,1.56537159852776,-0.270632051399041,13.3046289052114,-0.0513635275163513,423.893187956379,616.898787983858
0.69,1.62008407570382,0.0645401488766626,6.99586226626502,-3.18696103072925,-0.112584118870676,-1.61745561278949,2.97797106196482,-7.08734772774962,3.11191552317032,438.857846176867,616.898787983858
0.7,1.49756220042013,0.00275853111913749,9.57532506522045,-0.0931883171270746,-0.145585051327441,1.49047145106879,-1.04114353490168,9.51901015373029,0.0992103201020452,453.134003091955,616.898787983858
0.71,1.44880424624435,0.00387077159676108,8.59635967217989,-0.144193915349874,0.466416748280669,-1.37167931519423,2.92556239596237,-8.08450840595986,-2.81115253508082,466.776972820222,616.898787983858
0.72,1.2826098139099,0.0280362701163097,13.6179555088711,-1.3539955512984,-0.763650064676754,1.03087950115385,-9.41334773223125,9.93332274048444,0.65942639580438,479.792236080561,616.898787983858
0.73,1.23203335019624,-0.0314149891751722,12.9716317565696,1.57798346124247,1.10200046603894,-0.551804358799939,10.7047246437821,-7.49413987945271,-2.06052048781266,492.276517620563,616.898787983858
0.74,1.16231043729193,0.0745060881207288,13.3763035983654,-3.72314979654922,-1.16360563058346,0.0503849806915761,-13.2962125219981,-3.99975935939247,1.5915367508234,504.144349674879,616.898787983858
0.75,1.22073562029613,0.0138007916955732,7.55912091195381,-0.669543538309096,1.0049169693874,0.693201126043832,5.78701169847754,4.90908271603901,-0.955637688874788,515.19101224612,616.898787983858
0.76,1.12929470622598,-0.00424237892068707,9.35811235151025,0.251939353516197,-0.309546025526558,-1.08605054641561,-2.84091255534183,-8.92003117002626,2.8601784405296,525.734620873118,616.898787983858
0.77,1.02471053046853,0.038106695782996,11.9196721893757,-1.85946892410853,-0.428914722663358,0.931405364059714,-7.04361042935034,9.79406768924174,0.468724238711576,535.897384331338,616.898787983858
0.78,0.984929461479682,0.0148094105496447,11.2793952619499,-0.741546797796091,0.942700120125729,-0.285695373162429,11.0469088516487,-2.39592444621802,-1.85002386820007,545.666803160614,616.898787983858
0.79,0.875063166706634,0.0650040558991613,14.3106967626836,-3.23357962227573,-0.753484321139353,-0.449691506265298,-9.85317190735156,-10.8704683602528,2.18302016538791,554.667430263041,616.898787983858
0.8,0.87359575228159,0.00349092853325716,12.0550121307301,-0.130117544736137,0.00567063952107716,0.873584322680921,-0.100038498265703,12.0552992640732,-0.00249511757628127,563.198805562879,616.898787983858
0.81,0.779307308190437,0.029732987056172,14.5014078098076,-1.49535680997991,0.646273007285676,-0.436503300299362,13.1069761011354,-6.38232700037902,-2.1266973075913,571.420315970387,616.898787983858
0.82,0.759259801466273,0.0472080768829525,13.3351470722124,-2.34344346855828,-0.68250142581864,-0.33599978035873,-10.4118062266175,-8.65518144392319,2.09036659739017,579.122254455608,616.898787983858
0.83,0.728897046495184,0.000396696257738388,12.7974293164772,0.0233657720383723,-0.0574127524920227,0.726632532721054,-0.991660964267662,12.7589714162812,0.079392519591496,586.421151854514,616.898787983858
0.84,0.650301826585922,-0.0733746897509262,14.7136129074386,3.66634056091535,0.641881680285558,-0.127531248213212,12.905886946071,-7.96056154010451,-1.87928217450496,593.397491200857,616.898787983858
0.85,0.594673078268784,0.0220144880120446,15.5935292639745,-1.06933833144422,-0.376080927567568,-0.461176586157647,-8.54789065501983,-13.0856870176292,2.49448544556145,599.901740264553,616.898787983858
0.86,0.614866801696741,0.0290116338690961,12.7546737274924,-1.46506023597589,-0.339737694116566,0.513304157322822,-8.7153219670233,9.42715579594099,0.631819150779851,606.140189027589,616.898787983858
0.87,0.605629537704298,0.00991215031423265,11.4721223606394,-0.475745898296643,0.565250381052853,0.21766348886154,10.4587078825153,4.73828608733584,-1.18685740485281,611.92526883171,616.898787983858
0.88,0.517977110489815,-0.00631704538786595,14.1671054994465,0.31891985728408,0.097856922074978,-0.508688720983493,2.19252825755261,-14.0000502837544,-2.96373838709989,617.507752989037,616.898787983858
0.89,0.549652411417213,0.0837029028410476,10.9445317812847,-4.17869726142956,-0.55057503897553,0.0774020398818326,-10.8959537395902,-4.3037749498481,1.58224994772579,622.755362680621,616.898787983858
0.9,0.414914438339658,-0.043815446866216,16.1540204992324,2.22709059360466,0.00524780066795927,0.417188500698365,4.1100362919437,15.7803647765395,-0.117789531304394,627.653236512241,616.898787983858
0.91,0.533959566061294,0.0110309688828486,8.70604564256759,-0.546136318751281,0.519674439019092,-0.123178642195196,8.62594756864154,-1.29866244735745,-1.78287568715378,632.319285058725,616.898787983858
0.92,0.332979022066502,0.0276697579352054,17.3477669144064,-1.35169714815428,-0.11648792919041,-0.313163227396651,-3.37921187633041,-17.0690664417176,2.8683864922156,636.66869625786,616.898787983858
0.93,0.380087174984832,0.0509058956033311,13.62013415327,-2.54525684947633,-0.117158778524052,-0.365145849503838,0.10260837404406,-13.8555352947641,2.96425440305685,640.783244192901,616.898787983858
0.94,0.380777384780882,0.0118010964448166,12.2907474357308,-0.567232038772125,-0.372648754597056,0.079142835020808,-12.1965201376252,1.62145652030387,1.39250873933731,644.637057605814,616.898787983858
0.95,0.345360674232325,-0.0341118082425022,12.82538618667,1.71332772371384,0.0185597819165362,0.346544579041413,3.63500993789627,12.4182416419342,-0.151957791409391,648.169905418604,616.898787983858
0.96,0.284398910828353,-0.0167825379212612,14.6973889664938,0.817902184014018,0.284646999027925,-0.0118524260735329,14.5410359879691,-2.28920921097603,-1.67135352367152,651.545973145439,616.898787983858
0.97,0.321409948769827,-0.067555415730218,11.7052604719867,3.39520093310248,0.0594267465202743,-0.323011688891781,-3.68937164162519,-11.6158963917197,3.11636619421179,654.681749532617,616.898787983858
