t,iq,id,vq,vd,ia,ib,va,vb,theta_e,omega,r
0,0,0,0,0,0,0,0,0,0,0,0
0.01,0.000583193994186795,0.000329820505282572,-0.0289761663698206,-0.0165029485421558,0.000467005241638944,-0.000480419509223086,-0.0231707741883334,0.0239808413444947,-1.85565516401137,-0.000859732387664797,0
0.02,0.00068441789621741,0.000385451918377626,-0.0340240194420717,-0.0192865275855364,0.000548512534598555,-0.000562258870478649,-0.0272327703530774,0.0280709861636295,-1.85566187055019,-0.000961685738879948,0
0.03,0.000722562825664409,0.000406826305026207,-0.0359246138200981,-0.0203560201732503,0.000579109253800746,-0.000593495704833451,-0.0287560052956707,0.0296316991556731,-1.85566884363091,-0.000964797505234023,0
0.04,0.000707021480319235,0.000398459715407341,-0.0351616324979548,-0.0199373800665171,0.000566541766084108,-0.000581102353908157,-0.0281412367107577,0.0290156909314097,-1.85567538820123,-0.000888990149361907,0
0.05,0.000723948722182956,0.000408496279444717,-0.0360089273310506,-0.020439575967455,0.00057996232365533,-0.00059549531132564,-0.0288130566416951,0.0297359526537274,-1.85568169034627,-0.00086489540108735,0
0.06,0.000725463104822813,0.000409786108053676,-0.036091337234675,-0.0205041131783515,0.000581049569898657,-0.000597162262817671,-0.0288738274019984,0.029821223512413,-1.85568770963058,-0.000819412981872082,0
0.07,0.00073892359394493,0.000418019809070725,-0.0367658102129748,-0.0209161046376443,0.000591649975036551,-0.000608850511622735,-0.0294051518801064,0.0304063361281368,-1.85569331521343,-0.000795534409632767,0
0.08,0.000726048454774053,0.000411008215842502,-0.0361337146827911,-0.0205652587915753,0.000581261248683781,-0.000598506034178769,-0.0288969819190656,0.0298921334452898,-1.85569873659112,-0.000732735401528849,0
0.09,0.000723622694888776,0.000410104018934308,-0.0360195004215959,-0.0205200142104599,0.000579184396087138,-0.000596959417576558,-0.0287999377942216,0.0298167566456814,-1.85570378606642,-0.000688913294440635,0
0.1,0.000722663185147125,0.000409986035236145,-0.0359776522813583,-0.0205141180866282,0.000578293895438923,-0.000596579247672693,-0.0287612923806506,0.0297994725648824,-1.85570853398065,-0.000649734739414444,0
0.11,0.000721940641695178,0.000409969341581572,-0.0359472221509238,-0.0205132868146325,0.000577602506435329,-0.000596362721611352,-0.0287321894699691,0.0297902501595579,-1.85571300453631,-0.000613122174048923,0
0.12,0.000721284979245782,0.000409965772584956,-0.0359197937960578,-0.0205131059999728,0.000576971770083214,-0.000596177433742515,-0.0287057923186989,0.0297824880000506,-1.85571721478332,-0.000578679354670263,0
0.13,0.000751438380492688,0.000427419303975753,-0.0374204975316601,-0.0213864087199539,0.000601001082938622,-0.000621405342264769,-0.0299003966046566,0.0310425256114598,-1.85572132696531,-0.000592257899886695,0
0.14,0.000771107811254597,0.000439139927316601,-0.0384203081286712,-0.02197287254791,0.000616580493054787,-0.000638184634667586,-0.0306949258978135,0.0318864975943811,-1.85572525379221,-0.000591232596122327,0
0.15,0.000726438909473172,0.000413716491250482,-0.0361896974389024,-0.0207007710906334,0.000580856576276497,-0.000601232452654984,-0.0289117115808903,0.0300387925511249,-1.85572899047822,-0.000493060815949341,0
0.16,0.000719902714700351,0.0004104429923383,-0.0358694811145914,-0.0205369740991433,0.000575502098983528,-0.000596255568240756,-0.0286503496640459,0.0297916841535825,-1.85573230309089,-0.000456729714844045,0
0.17,0.000718601235532683,0.000410020598649059,-0.0358086601866642,-0.0205158493271788,0.000574369988083734,-0.000595486140740759,-0.0285978271574533,0.0297544030330289,-1.85573539469786,-0.0004301809913831,0
0.18,0.000718038777244394,0.000409965247061876,-0.0357842747932623,-0.0205130856929436,0.000573844037110037,-0.000595276583193379,-0.0285751153742247,0.0297449792145751,-1.85573830253168,-0.000406224880275186,0
0.19,0.000717599858813041,0.000409957196452503,-0.0357658116056747,-0.0205126691811324,0.000573423450242476,-0.000595147046538675,-0.0285574323130546,0.0297394676554994,-1.85574104061673,-0.000383806021972214,0
0.2,0.000717198696420321,0.000409955287865179,-0.0357490277896677,-0.0205125738594832,0.000573037465960864,-0.000595033924075579,-0.0285412753869629,0.0297347317716628,-1.85574361928633,-0.000362711386511826,0
0.21,0.000716822484131248,0.000409954220405117,-0.0357332994619606,-0.020512533450201,0.000572675279111591,-0.000594928534597662,-0.0285261204374396,0.0297303409293008,-1.85574604787989,-0.00034284702862444,0
0.22,0.000716468586400027,0.000409953308845982,-0.0357185066268761,-0.0205124817564163,0.000572334547747108,-0.000594829484967697,-0.0285118706519079,0.0297261981321254,-1.85574833513983,-0.000324139045703457,0
0.23,0.000716135294180847,0.000409952462238047,-0.0357045743797994,-0.0205124315116946,0.000572013652328682,-0.000594736212464087,-0.0284984503187669,0.0297222947901632,-1.85575048929183,-0.000306519827202906,0
0.24,0.000715821305884526,0.000409951666281237,-0.0356914475410033,-0.0205123968706328,0.000571711343093374,-0.000594648342151361,-0.0284858022710407,0.0297186292067065,-1.85575251808261,-0.000289925969231497,0
0.25,0.000715525594794691,0.000409950916690713,-0.0356790840733002,-0.0205123636625886,0.000571426631529357,-0.000594565585684931,-0.0284738899307381,0.0297151761823504,-1.85575442880753,-0.000274297794865315,0
0.26,0.000721496320319158,0.000413521230197671,-0.0359773875111147,-0.0206910083971404,0.000576151841860582,-0.000599671412674424,-0.0287098907407473,0.0299705257589819,-1.85575619583102,-0.000269419835451518,0
0.27,0.000705352102984346,0.000404323820407405,-0.0351787174700567,-0.0202308069594028,0.000563243194099306,-0.000586307466466265,-0.0280727478072923,0.0293044116749485,-1.85575797887193,-0.000230503544768322,0
0.28,0.000704795896666611,0.000404146851402487,-0.0351344592420003,-0.0202219501978384,0.00056275823263499,-0.000585982171280132,-0.0280327174875452,0.029283514923846,-1.85575957488657,-0.00021697519519964,0
0.29,0.00071314729420241,0.000409201511187518,-0.0355690647862488,-0.0204748603483396,0.00056935099570899,-0.000593181577319752,-0.0283786545055528,0.0296484442173083,-1.85576102838995,-0.00021823761681211,0
0.3,0.000705171440602539,0.000404956777861414,-0.0351748136565902,-0.0202624757634458,0.000562889417380948,-0.000586866472357977,-0.0280599755802162,0.0293338236559393,-1.85576217506453,-0.000196900741558448,0
0.31,0.000712874077717533,0.000409304929879883,-0.0355584675358459,-0.0204800310712254,0.000569058269343612,-0.000593205413324299,-0.0283669582955145,0.0296504968463718,-1.85576348089563,-0.00019834110225627,0
0.32,0.000713757900507544,0.000409864174621945,-0.0356038326197229,-0.0205080225407115,0.00056974847763069,-0.000593991291529578,-0.0284025871040573,0.0296901487288295,-1.85576474777601,-0.000189635006301006,0
0.33,0.000713719916440098,0.000409935751721744,-0.035603388926038,-0.020511609882158,0.000569691191375707,-0.000594049986223263,-0.0284011172260714,0.0296935006910185,-1.85576594599073,-0.000180060818782706,0
0.34,0.000713565475924135,0.000409944581841442,-0.0355970848349841,-0.0205120405875271,0.000569539826271506,-0.000594015685737855,-0.0283949127666539,0.0296921738306162,-1.85576707516654,-0.000170855987067408,0
0.35,0.000713403621510716,0.000409945357671203,-0.0355903332966596,-0.0205120838361535,0.000569383649635326,-0.000593971533820209,-0.0283883897828614,0.0296903474719485,-1.85576813872427,-0.000162161173110745,0
0.36,0.000713248926570401,0.000409945117742794,-0.0355838617937579,-0.0205120732321111,0.000569234666134662,-0.000593928384307016,-0.0283821525212196,0.0296885463891208,-1.85576914040075,-0.000153968849974355,0
0.37,0.000713103020981093,0.000409944766811817,-0.0355777555828982,-0.0205120582416862,0.000569094183413484,-0.000593887565767878,-0.0283762687862953,0.029686842125674,-1.85577008378634,-0.000146252801712578,0
0.38,0.00071296549729289,0.000409944420189661,-0.0355719985076226,-0.0205120417754579,0.000568961776009628,-0.000593849076293552,-0.028370722153751,0.0296852330309044,-1.85577097227166,-0.000138985724909757,0
0.39,0.000712836006259783,0.00040994409163994,-0.0355665771821723,-0.0205120238338247,0.000568837102983617,-0.00059381283276812,-0.0283654996822313,0.0296837154344289,-1.85577180905138,-0.000132141548078022,0
0.4,0.000712714082224349,0.000409943781917495,-0.0355614721235609,-0.0205120073280991,0.000568719715448431,-0.000593778706753593,-0.0283605817662719,0.029682286739761,-1.85577259713466,-0.000125695668191442,0
0.41,0.000712599259523375,0.000409943490161666,-0.0355566636797841,-0.0205119908042076,0.000568609165071345,-0.000593746568155184,-0.0283559498707339,0.0296809401083861,-1.85577333935521,-0.000119624907338698,0
0.42,0.000712491130701257,0.000409943215359326,-0.0355521348727999,-0.0205119728078565,0.000568505059521616,-0.00059371630299784,-0.0283515880316051,0.029679669448465,-1.85577403838197,-0.000113907435540884,0
0.43,0.000712389288308313,0.000409942956530342,-0.0355478685277673,-0.0205119562502694,0.000568407006558061,-0.000593687797247818,-0.0283474788733555,0.0296784727977209,-1.8557746967289,-0.000108522693094483,0
0.44,0.000712293245668031,0.000409942712747643,-0.0355438433465388,-0.0205119566592808,0.000568314537981383,-0.000593660914561673,-0.028343597520846,0.0296773591381005,-1.85577531676314,-0.000103451316754265,0
0.45,0.000712202870184108,0.000409942483137438,-0.035540055527358,-0.0205119400693052,0.000568227525459214,-0.000593635618110864,-0.0283399498082181,0.0296762948691735,-1.85577590071421,-9.86750701211771e-05,0
0.46,0.000712117849802799,0.00040994226687659,-0.035536492150488,-0.0205119220099333,0.000568145668503025,-0.000593611820587268,-0.0283365189083355,0.0296752913222571,-1.85577645068219,-9.41767780667812e-05,0
0.47,0.000712037581438593,0.000409942063189604,-0.0355331255773998,-0.0205119223687241,0.000568068387390669,-0.000593589352836146,-0.0283332726473556,0.0296743598692616,-1.85577696864475,-8.99402649709399e-05,0
0.48,0.000711962165323165,0.000409941871346334,-0.0355299632019407,-0.0205119057368498,0.000567995777406709,-0.000593568243408231,-0.0283302280202559,0.0296734686615667,-1.85577745646433,-8.59502965580679e-05,0
0.49,0.000711891035561703,0.00040994169065833,-0.035526978950096,-0.0205119060655819,0.000567927294629014,-0.000593548333557001,-0.02832735040742,0.0296726430009034,-1.85577791589524,-8.21925251137572e-05,0
0.5,0.000711824117764592,0.000409941520477639,-0.0355241712301064,-0.020511889409105,0.000567862866866761,-0.00059352960269621,-0.0283246477756497,0.0296718499103554,-1.85577834858928,-7.86534378909977e-05,0
0.51,0.745398326270964,0.0105375344418251,-0.889703355666642,-0.527155957657379,0.00572925813993532,0.745450789818371,-0.521406120379505,-0.89308517085939,0.00645036386098831,2.01127332239619,174.351441450065
0.52,0.673204354937879,0.0371401254692324,2.81876385155907,-1.85823878956546,0.0172266272450073,0.67400796415247,-1.94073854119319,2.76261017239659,0.0295603712356021,4.28952960457692,174.351441450065
0.53,0.649482092733893,0.0156087392662274,4.09405681170042,-0.780652930402634,-0.0294678075427647,0.649000978305966,-1.06268001797957,4.03006592434463,0.0694016786402776,6.57808704657373,174.351441450065
0.54,0.754671672847402,0.024098523629939,-1.08271427703642,-1.20522146227378,-0.0709313534333672,0.751717244540492,-1.0596031271312,-1.22558973225041,0.126002141790464,8.86330035801009,174.351441450065
0.55,0.720448356767275,-0.0178193590668736,0.703218124441697,0.892593832313056,-0.160136457853661,0.702651890477997,0.735659068379706,0.8660515083627,0.199347148306582,11.1458345129304,174.351441450065
0.56,0.748691621956555,-0.0246223821659038,-0.644066492375936,1.23332904739992,-0.237308318335274,0.710514017131503,1.36586209092815,-0.265222424254105,0.289470809824689,13.443227279517,174.351441450065
0.57,0.763903977227967,-0.00740344464354689,-1.35621155373713,0.372044588034145,-0.301885923999635,0.701761345692525,0.867007067786727,-1.10726044740316,0.396561352173074,15.7828423749339,174.351441450065
0.58,0.715674720262789,-0.00913805078253249,1.08695178576279,0.459103795920998,-0.364126446194503,0.616186449361788,-0.14279016861803,1.17126062332344,0.520960016406382,18.1643668375858,174.351441450065
0.59,0.73364409900659,0.0384038564923662,0.200204595763768,-1.9196664980773,-0.421312880613881,0.601833844868757,-1.63614774154753,-1.02382709078937,0.663057491805091,20.6095721937786,174.351441450065
0.6,0.744142721094646,0.0189294483718581,-0.339132882749479,-0.944851998215542,-0.532915027132843,0.519719431260568,-0.393536399608947,-0.923518008961764,0.823365731075478,23.1403165232371,174.351441450065
0.61,0.726292340416413,-0.0197381436097906,0.51017160306029,0.988643730634297,-0.62279882992023,0.374181474034597,0.101976077101673,1.10783228441428,1.00261425921916,25.7667848953401,174.351441450065
0.62,0.713867413067545,0.0155063879975778,1.08682347799753,-0.775402243684943,-0.660008381685938,0.272462965580259,-1.29360288378407,-0.330190082988317,1.20100775291945,28.336404073836,174.351441450065
0.63,0.732415704087942,-0.0532875154932079,0.13708596040029,2.66740665354519,-0.731976461689149,0.0590151034491033,0.271245964036995,2.65711807093882,1.41771815876716,30.7644412668493,174.351441450065
0.64,0.728170464895518,0.019239514216553,0.339482984871138,-0.961380318518264,-0.727338373610881,-0.0397652502383874,-0.260550237249514,-0.985705020642848,1.65182980708851,33.0917902228455,174.351441450065
0.65,0.667275205468371,-0.0463600315901291,3.37862295064479,2.32192454000635,-0.615721401105581,-0.261328545288254,-3.95094114032427,1.09384218139572,1.90281604193748,35.3721239231211,174.351441450065
0.66,0.702061840012487,0.000538672620277819,1.63473112274882,-0.0239314268400203,-0.579933909851798,-0.395686463723384,-1.33614891499317,-0.942138330520939,2.17030845827151,37.6164496523364,174.351441450065
0.67,0.702472226405831,-0.0129047160621739,1.58746770523529,0.649594552626349,-0.435595460756506,-0.551262510185971,-1.50911469451156,-0.815229806113654,2.45450118572089,39.9372205461253,174.351441450065
0.68,0.726461685623415,-0.0436669000938926,0.328054017621904,2.18927382263923,-0.232668823978985,-0.689578564915456,-2.15198615574846,0.51912897668906,2.75614326095367,42.3839937622673,174.351441450065
0.69,0.656512596501569,-0.0471015037847548,3.73012860604205,2.3576111761519,0.00416281066041774,-0.658186912686224,-2.5959825949536,-3.56834194581006,3.07629494116492,44.940130000769,174.351441450065
0.7,0.718018703898615,-0.0378996857903575,0.590540543251355,1.89800259780939,0.230009106713767,-0.681236417229723,-1.66861759932809,-1.08021632172791,-2.86871057109593,47.2975122375019,174.351441450065
0.71,0.721504020242064,-0.0317543901596211,0.369694093306399,1.59191209638738,0.449518978761791,-0.565251342548451,-1.07115178686934,-1.23429805749533,-2.51373468396418,49.5414776324917,174.351441450065
0.72,0.652148250761001,-0.0198471816955879,3.78461666512137,0.997430172012604,0.5592386671092,-0.336070475944877,2.64359541517915,-2.88610352045787,-2.14233295963054,51.7888243820986,174.351441450065
0.73,0.72068073276685,0.00985056710924803,0.278626662977107,-0.487472465717417,0.70680068801117,-0.141104711759298,0.362847646679372,0.428490148607431,-1.7541768096077,54.1425721463114,174.351441450065
0.74,0.681823831904888,-0.0114934948841656,2.09814894786563,0.57605977897605,0.662438340787059,0.161837210904679,2.17357074629503,-0.0983060895063568,-1.34803989181041,56.6504443011131,174.351441450065
0.75,0.664782956241477,0.00602838542684879,2.8536812429374,-0.299978738819437,0.534202297349057,0.395727969503044,2.09681180217236,1.95879150148942,-0.92415230306063,58.9634207026128,174.351441450065
0.76,0.735015728188621,-0.040232896544605,-0.732182078786814,2.01747579417991,0.306305953173109,0.669360493082562,1.44529105615551,-1.58664203259441,-0.483847120989797,61.1579216855289,174.351441450065
0.77,0.706051489068709,0.0428015746205993,0.632093371173513,-2.13581656669787,0.0621589825063224,0.704611198392364,-2.11766820532383,0.690460577167971,-0.0274426951267993,63.3794851886123,174.351441450065
0.78,0.658780760840379,-0.063578326599622,2.86483959964193,3.18255923105108,-0.341495646580219,0.566934756240429,1.63570880416463,3.95732812624924,0.445937763870099,65.8022169231644,174.351441450065
0.79,0.695831572553339,0.0277397739139272,0.881168993485316,-1.38630894695781,-0.544263203144278,0.434429094469947,-1.53101587756734,-0.595232453863122,0.937000468648785,68.130517150772,174.351441450065
0.8,0.713380454284968,0.0544805219273463,-0.0940741598455711,-2.72153096056274,-0.700816493362725,0.14400014741686,-0.249851155033942,-2.71167017116396,1.44436366177965,70.287280813979,174.351441450065
0.81,0.684582872999289,-0.0241045881765596,1.23356701843269,1.21304330371777,-0.622073716154224,-0.286808355605613,-1.60653223985738,0.642040347609304,1.9676069459284,72.5047661963498,174.351441450065
0.82,0.672929800728833,-0.0247250938982426,1.65600274292747,1.23822529627469,-0.378551326819502,-0.556906401418064,-1.97839846138013,-0.601237471326076,2.50786815436768,74.8956438090216,174.351441450065
0.83,0.677373702807083,0.0280818290040552,1.29837573376087,-1.4021175413962,-0.0797328205456958,-0.673250621761777,1.29886165952449,-1.40166741252242,3.06514529030591,77.1135925509432,174.351441450065
0.84,0.690811616699529,0.020836676740477,0.506584852524613,-1.03596118200035,0.310812056867197,-0.6172930601996,1.15218147805783,0.0481832443844873,-2.64498904216337,79.2373711014883,174.351441450065
0.85,0.653449345108915,0.0295901113113002,2.217325982902,-1.4788683647704,0.564271201683257,-0.330861953481535,2.65109338011123,0.274390314518233,-2.05586858856039,81.5350781477886,174.351441450065
0.86,0.692898251497187,-0.0106396382626457,0.0795935941863843,0.535011629726586,0.686542834177603,0.0942344187099567,0.143617783124215,-0.521484914977116,-1.44974342417857,83.7798814125573,174.351441450065
0.87,0.684860245027675,0.00742452488376261,0.349322177454011,-0.364714237399329,0.509469357396772,0.457744090800566,0.0106218375964327,0.504905570566478,-0.827985405787098,85.8563086950402,174.351441450065
0.88,0.651180826669932,-0.0567268908588098,1.86458661410832,2.84218172480349,0.0676450400739567,0.650137337585249,3.14391389887086,1.29247266694715,-0.190568779616558,88.1015697279176,174.351441450065
0.89,0.651527914283838,0.0451378065792416,1.66583510359947,-2.25619473243976,-0.250974284374062,0.602941086057967,-2.76296577861011,0.481083536719557,0.463605522936854,90.320447062661,174.351441450065
0.9,0.637398317679102,-0.01792444349876,2.22636743834931,0.904278445540887,-0.584924170239776,0.25389292255634,-1.63331596895228,1.76258628815085,1.13316196258955,92.3585060497713,174.351441450065
0.91,0.686084553031297,0.0161451576078604,-0.389522033945783,-0.806635351019774,-0.669162260873062,-0.152297566118403,0.575132546667907,-0.686739075783038,1.81810672808496,94.5582456044226,174.351441450065
0.92,0.629322189157014,0.011764560162022,2.26742020334745,-0.585031621954115,-0.376444224765857,-0.50445472371821,-0.846545171747875,-2.18330429611285,2.51919421850932,96.6689040639964,174.351441450065
0.93,0.634469625325352,0.00245125437890908,1.8453451883985,-0.114059622814148,0.0568865175199476,-0.631919012400304,0.286111654306273,-1.82659480541584,-3.04794935581431,98.7107756454599,174.351441450065
0.94,0.617807129335699,0.00314140637750879,2.46921551662491,-0.156287248255368,0.451823658012293,-0.421367890984157,1.92034870677784,-1.56003583801307,-2.31624522034147,100.919129397444,174.351441450065
0.95,0.63199009795639,0.00368177151669685,1.58222934348758,-0.177807699316039,0.631995633325775,-0.00256101807505727,1.58191153803842,0.18061328619494,-1.56902296318772,102.919767726837,174.351441450065
0.96,0.653921893424299,0.024447133251594,0.293949479984858,-1.21751292145327,0.489218418838455,0.434599636094007,-0.629728843571583,1.08267520257141,-0.807084298133328,105.014141114752,174.351441450065
