t,iq,id,vq,vd,ia,ib,va,vb,theta_e,omega,r
0,0,0,0,0,0,0,0,0,0,0,0
0.01,0.000766557794879726,0.000413716538609987,-0.0374761517565001,-0.0207147933850836,0.000842520014836021,0.000221206355720192,-0.0415235406495102,-0.0104575421295543,-0.819131878103959,-0.00383798905418676,0
0.02,0.000835135378193326,0.000457610398106796,-0.041135176791177,-0.0229125538349387,0.000922598710974481,0.000235944897960937,-0.0456976926398677,-0.0113493955906264,-0.819157073950689,-0.00324539493200568,0
0.03,0.000855163089336245,0.000473754700533948,-0.0422606878064211,-0.0237208893546494,0.000948259091951388,0.000237806896814727,-0.0470721518008492,-0.0115264413625854,-0.819177234584238,-0.00255160234537557,0
0.04,0.00082770965185123,0.000464484206795619,-0.0410492484477779,-0.0232567216242008,0.00092187503040694,0.000225821333010068,-0.0458703001127365,-0.0110377292230082,-0.819190918554961,-0.00182197942941895,0
0.05,0.000840118146369573,0.000473928460898894,-0.0417334845659581,-0.023729593858134,0.000937391721683188,0.000227383917701475,-0.0466932029239136,-0.0111589497442763,-0.81920177763638,-0.0014585000725457,0
0.06,0.00083573176252436,0.0004741751337927,-0.0415867827491226,-0.0237419557228016,0.000934357255172561,0.00022420115099124,-0.0465945519060858,-0.011049375260044,-0.81920980898587,-0.00110418330807084,0
0.07,0.000856699563267878,0.000487407458730983,-0.0426405701357623,-0.0244044899757088,0.000958712760009173,0.00022884496132876,-0.0478168964193131,-0.0112845810423788,-0.81921539433738,-0.00100915794763832,0
0.08,0.000830262354231741,0.000474527608947805,-0.0414043148817097,-0.0237595904719736,0.000930604159459862,0.000220199743197301,-0.0464733906857993,-0.0109114338372519,-0.819219890688163,-0.000659640787159946,0
0.09,0.00082750462206327,0.000474186841415635,-0.0412955695943087,-0.0237425367471759,0.000928357303979971,0.000218562980064903,-0.0463823282366052,-0.0108495044431167,-0.819222881696243,-0.000520602111392826,0
0.1,0.000826112398030162,0.00047417717454139,-0.0412457690732453,-0.0237420480378198,0.000927333990331832,0.00021761745658481,-0.0463456327399779,-0.0108157587530747,-0.81922502842125,-0.000424509921896031,0
0.11,0.000825130603005942,0.000474176431941789,-0.0412109105585415,-0.0237420176120123,0.000926616502861163,0.000216946208197661,-0.0463201604402811,-0.0107919083641322,-0.81922657539964,-0.000355399431463871,0
0.12,0.000824423839188422,0.000474176060706326,-0.041185823919153,-0.023741996771901,0.000926100116404968,0.000216462878027276,-0.0463018294755653,-0.0107747431445999,-0.819227690415212,-0.000305591612231934,0
0.13,0.00086632593628349,0.000496905489692527,-0.043216321783362,-0.0248800480595784,0.000972234300500419,0.000228464786114835,-0.0485624141307334,-0.0113295716479118,-0.819229435988684,-0.000498692942099083,0
0.14,0.000911962182991796,0.000524458313230043,-0.0455898651156703,-0.0262596374481647,0.00102438995642027,0.000239492719531382,-0.0512385475924882,-0.0119421773888346,-0.819230551011732,-0.000740980608446714,0
0.15,0.000825271504343895,0.000475501519498522,-0.0412571444535908,-0.0238083647384112,0.000927625264391933,0.000216069710485377,-0.0463992937646704,-0.0107747732283098,-0.819231502466173,-0.000155880775174265,0
0.16,0.000822270021822947,0.000474209890277749,-0.0411108675623222,-0.0237436894790305,0.000924550366297749,0.000214964250527017,-0.0462482591626687,-0.0107221614530863,-0.819231276309848,-0.000146161406687301,0
0.17,0.000822279624433944,0.000474175873311873,-0.041109739450979,-0.0237419841452586,0.000924534113752191,0.000214995842049925,-0.0462462684625315,-0.010722646229945,-0.819231079986877,-0.000154206972853693,0
0.18,0.000822365946351253,0.000474175020889439,-0.0411127333666618,-0.0237419389077611,0.000924596569648205,0.000215055535963306,-0.0462484234622574,-0.0107247300774335,-0.819230937264265,-0.000160555871477772,0
0.19,0.000822431022514668,0.000474175030916399,-0.0411150239565717,-0.023741937375112,0.000924644100365061,0.000215100056715887,-0.0462500948648412,-0.0107262999336394,-0.819230834348217,-0.000165152103966915,0
0.2,0.000822478054304631,0.000474175054618488,-0.0411166766392247,-0.0237419373413218,0.000924678462997067,0.000215132220516962,-0.0462513015304362,-0.0107274318135558,-0.819230760166857,-0.000168465701076047,0
0.21,0.000822511931163242,0.000474175072136708,-0.0411178622945986,-0.0237419373394088,0.000924703214592436,0.000215155387718164,-0.0462521672200094,-0.0107282438338377,-0.819230706698249,-0.000170854095842374,0
0.22,0.000822536378380797,0.000474175084774644,-0.0411187139414682,-0.0237419373603444,0.000924721076574121,0.00021517210627876,-0.0462527890517273,-0.0107288270914962,-0.819230668158977,-0.000172575599269432,0
0.23,0.000822553957094373,0.000474175093883961,-0.0411193212467205,-0.0237419373979207,0.000924733920189365,0.000215184127766625,-0.0462532324891654,-0.0107292430068945,-0.819230640380439,-0.000173816421137096,0
0.24,0.000822566704572098,0.000474175100449884,-0.0411197584091013,-0.0237419374471999,0.000924743233935447,0.000215192845252509,-0.0462535517078858,-0.0107295423842561,-0.819230620358256,-0.000174710778266274,0
0.25,0.00082257584317485,0.000474175105182441,-0.0411200666073291,-0.0237419375052226,0.00092474991091361,0.000215199094828174,-0.0462537767686652,-0.0107297534420679,-0.819230605926369,-0.000175355411226261,0
0.26,0.000831728706822038,0.000478886951206849,-0.041560077216473,-0.0239778786403574,0.000934654341192103,0.00021800600055688,-0.0467363537397976,-0.0108578046325864,-0.819230548832879,-0.000235368051158095,0
0.27,0.000801178590289907,0.000462175567511538,-0.0400924972311973,-0.0231411259943751,0.000900923605575505,0.000209356264917881,-0.045092791969625,-0.0104670988772069,-0.81923088181121,-2.92702992870542e-05,0
0.28,0.000797474752434883,0.000459237489691938,-0.0397577040751087,-0.0229940160105513,0.000896211434790668,0.000208973962158167,-0.0447477409026676,-0.0103459890646151,-0.819230887437111,-5.69614795868187e-06,0
0.29,0.000821710515544397,0.000473781005931449,-0.0410777852464742,-0.0237222238355993,0.000923848584769809,0.000214896266501945,-0.0462094241950456,-0.0107152909444432,-0.819230534417454,-0.000172810726647175,0
0.3,0.000818055631826463,0.000471900726953841,-0.0408919923662342,-0.0236280788326401,0.000919894163032295,0.000213775680753614,-0.0460093862264845,-0.0106572758275176,-0.819229297078898,-0.000200102501655792,0
0.31,0.000823020844256845,0.0004741154161365,-0.0411333223080929,-0.0237389531775908,0.000925034065421768,0.000215547479012893,-0.0462614131550373,-0.0107410313735805,-0.819229595460882,-0.00021926017122989,0
0.32,0.000823038251155937,0.000474173764432604,-0.0411363069812541,-0.0237418794449617,0.000925086680668049,0.000215516484271111,-0.0462655947228616,-0.0107409187956612,-0.819229865127781,-0.00020840093746496,0
0.33,0.000822920555339723,0.000474175241905885,-0.0411322016177217,-0.0237419569283806,0.000925001740824984,0.000215434862331731,-0.0462626502743082,-0.0107380500234929,-0.819230061492024,-0.000199672705042521,0
0.34,0.000822831031958738,0.000474175236162458,-0.0411290130788225,-0.0237419586784615,0.000924936359798533,0.000215373610423011,-0.046260323378126,-0.0107358651108766,-0.819230203099589,-0.000193348667546176,0
0.35,0.000822766305039877,0.000474175203770571,-0.0411267007504398,-0.0237419589139588,0.00092488906885054,0.000215329345191534,-0.0462586352001855,-0.0107342813967444,-0.819230305169682,-0.000188789237745264,0
0.36,0.000822719622495878,0.00047417517967698,-0.0411250282224311,-0.0237419591061667,0.000924854961015073,0.000215297420670254,-0.0462574141377887,-0.0107331358781931,-0.819230378739525,-0.000185502857031144,0
0.37,0.000822686036675569,0.000474175162290732,-0.0411238213655762,-0.023741959266952,0.000924830422068552,0.000215274452480786,-0.0462565330622423,-0.0107323092856622,-0.819230431766765,-0.000183134104444416,0
0.38,0.000822661822288657,0.000474175149758133,-0.0411229467370215,-0.0237419594052445,0.000924812730208962,0.000215257893102406,-0.046255894545202,-0.0107317102345962,-0.819230469987421,-0.000181426759587,0
0.39,0.000822644301782743,0.000474175140725015,-0.041122308530174,-0.023741959527462,0.000924799929128015,0.000215245911510587,-0.0462554286371943,-0.010731273113843,-0.81923049753579,-0.000180196142940056,0
0.4,0.000822631728928,0.00047417513421397,-0.0411218468707037,-0.0237419596378026,0.000924790742968923,0.000215237313365722,-0.0462550916276682,-0.0107309569012587,-0.819230517391792,-0.000179309141510219,0
0.41,0.000822622648532908,0.000474175129521155,-0.0411215087790199,-0.0237419597397656,0.000924784108520832,0.000215231103614304,-0.046254844834093,-0.0107307253213209,-0.819230531703404,-0.000178669810375434,0
0.42,0.000822616129274893,0.000474175126138691,-0.0411212619379688,-0.0237419598355837,0.000924779345326827,0.000215226645303818,-0.0462546646630314,-0.0107305562351643,-0.819230542018659,-0.00017820899454942,0
0.43,0.000822611414454364,0.000474175123700716,-0.0411210788001217,-0.023741959927075,0.000924775900517025,0.000215223421007391,-0.0462545310009823,-0.0107304307809065,-0.819230549453508,-0.00017787684863032,0
0.44,0.000822607980202374,0.000474175121943554,-0.0411209405695747,-0.0237419600153325,0.000924773391335021,0.00021522107248487,-0.0462544301246462,-0.0107303360870182,-0.819230554812065,-0.000177637445151434,0
0.45,0.000822605535480619,0.000474175120677136,-0.0411208380325487,-0.0237419601000542,0.000924771605137231,0.00021521940062281,-0.0462543553082611,-0.0107302658358872,-0.819230558674051,-0.000177464888386932,0
0.46,0.00082260401568411,0.000474175119764409,-0.0411207718125377,-0.0237419405701248,0.000924770494718341,0.000215218361023427,-0.0462542936217043,-0.0107302347621706,-0.819230561457596,-0.000177340513262657,0
0.47,0.000822602735115571,0.000474175119106593,-0.0411207103912225,-0.0237419406511996,0.000924769559091064,0.000215217485297753,-0.0462542488229026,-0.0107301926726827,-0.819230563463632,-0.000177250866408644,0
0.48,0.000822601861999248,0.000474175118632487,-0.0411206641858885,-0.0237419392758938,0.000924768921161677,0.000215216888157579,-0.0462542141408077,-0.0107301620623895,-0.819230564909486,-0.000177186250926034,0
0.49,0.000822601163507318,0.000474175118290836,-0.0411206229872359,-0.0237419393552229,0.000924768410819962,0.00021521641052495,-0.0462541841055631,-0.0107301338264789,-0.819230565951291,-0.000177139677507809,0
0.5,0.000822600697846031,0.000474175118044675,-0.0411205907475038,-0.0237419394338946,0.000924768070591679,0.000215216092064701,-0.0462541606123187,-0.0107301117215173,-0.819230566701989,-0.00017710610841107,0
0.51,0.944543036792005,-0.0694607719978407,3.49255706970044,3.4793417955577,-0.1346447009017,0.937473813883828,3.22936362717429,3.72491406329232,0.0692426137296464,20.8081472014392,260.371095502802
0.52,0.911541147299806,0.0578257186204504,1.28261001140028,-2.89231847332396,-0.215462435520304,0.887596200889953,-3.14272483019813,0.365889647477783,0.301494357699185,42.2854989106751,260.371095502802
0.53,0.834322557675707,0.021268431583353,1.53152365416932,-1.05929365295182,-0.511721612929659,0.659308324905136,-1.78955575657842,0.514934889632839,0.68551396095548,62.2855882777845,260.371095502802
0.54,0.749571400053139,-0.00720724014948593,2.24523074128769,0.368253495789494,-0.704739029385941,0.25544496187703,-1.97457699880925,1.13036162114515,1.2134432530325,81.7378863534273,260.371095502802
0.55,0.656361007448075,0.035004566197868,3.59653918588262,-1.75379750992672,-0.635876355874107,-0.166422209434975,-2.89214035971342,-2.76521680183148,1.88005654995032,99.596509372911,260.371095502802
0.56,0.615368314452562,0.00395596472499499,2.92640449041354,-0.194211265439517,-0.285263491728796,-0.545269247597724,-1.16719544958539,-2.69057912717751,2.6660170765086,114.476805026466,260.371095502802
0.57,0.517549944263294,-0.0549851029574179,5.37584648458999,2.7632250878419,0.258363492598273,-0.451807051789366,-0.369537339892114,-6.03312360774938,-2.72797697518226,128.084342421266,260.371095502802
0.58,0.4916294061538,-0.0311896672274307,4.20004497283697,1.55882095993147,0.489908270179744,-0.0515960768507294,3.87961747157161,-2.24028320380506,-1.73908385088012,141.48585435967,260.371095502802
0.59,0.423759389478106,-0.0164381880561869,5.56301016032126,0.829756201036465,0.246954995106993,0.344754208950569,4.06770743018756,3.88449915167875,-0.660368367795344,152.601599663694,260.371095502802
0.6,0.405316844924574,-0.0455171753064602,4.53588426669136,2.27606116640781,-0.233434048793328,0.334457923947758,-0.164585135998387,5.07223937201866,0.497515386749318,163.363836671614,260.371095502802
0.61,0.384192950150395,0.00793161492483696,3.826648524282,-0.393540151297689,-0.38053461755045,-0.0534840004703539,-3.71479717220879,-0.999197051848424,1.7310732352798,172.858371928825,260.371095502802
0.62,0.288051687459753,-0.0104382492940096,7.06889193016476,0.528868935480182,-0.0217092258110836,-0.287422061107735,-1.31289520546378,-6.9660061477675,3.02998340121025,181.499182661497,260.371095502802
0.63,0.314862320301403,0.0407080251660251,4.23933612823682,-2.03535673698531,0.285865688616701,-0.138116733708123,4.6652779645783,0.591463750525383,-1.89230025412405,189.506795154235,260.371095502802
0.64,0.249642194037804,0.0273368435415834,6.22145410771146,-1.37117091610358,0.138977393591339,0.209174119167223,1.64052700604671,6.15591358272349,-0.477369196750056,196.557886565489,260.371095502802
0.65,0.260163023152471,-0.0347101525229859,4.48698606834789,1.74365372947014,-0.23635022615777,0.11414098255742,-2.78769828714581,3.92455227582555,0.988262803176879,203.108344723506,260.371095502802
0.66,0.246699526795997,0.00278187490823338,4.09760211477186,-0.1471023690945,-0.150227815547819,-0.195703854803896,-2.34058004521443,-3.36655123975858,2.49818046001103,208.887563795624,260.371095502802
0.67,0.19881579264023,0.0015701542779681,5.51403497800262,-0.068220459861312,0.155710017464983,-0.12363080218406,4.38732813341582,-3.34074656619117,-2.23395901415024,214.163786147871,260.371095502802
0.68,0.220711836759686,-0.00503852252311812,3.50914116904449,0.247125361979377,0.128812377233255,0.179294375445991,2.3093445623888,2.65368995569973,-0.645819905839529,219.121829558695,260.371095502802
0.69,0.155279771708813,-0.019349801381622,5.9982365181273,0.981646063755399,-0.139444735644206,0.071002732458454,-4.41746174830725,4.1747457436501,0.975856781881887,223.357863937084,260.371095502802
0.7,0.114518606726303,-0.0272139748740762,7.29035311215552,1.3653238962472,-0.0325606267851763,-0.113114620179431,-4.77097200417153,-5.679012588205,2.62800437306108,227.326868169944,260.371095502802
0.71,0.147203321867888,0.00340706296570432,5.0104489312197,-0.180511499670414,0.13395078897975,-0.0611360137619038,4.67619054150025,-1.80843161702551,-1.97582397571466,230.871808015228,260.371095502802
0.72,0.115190952321777,0.0104040404322823,5.97519989903008,-0.508700243168013,0.0408179973993515,0.108217792633287,1.10708860512677,5.89373774367054,-0.270608312828993,234.266907739697,260.371095502802
0.73,0.105543684516616,0.00172204842454824,5.89650222301061,-0.0877097686570838,-0.104673168829818,0.0136368075165625,-5.86864984144574,0.579120460686603,1.45756063763037,237.275503101231,260.371095502802
0.74,0.127348917693346,-0.0101293009482785,4.27807667779833,0.496385134234071,0.0184950830266038,-0.126405227262192,-0.213533744337414,-4.30148132654785,-3.07568040493352,240.114780356032,260.371095502802
0.75,0.0736219785666395,0.0342013775329945,6.4986555740867,-1.70130481833824,0.0800015254486795,-0.013772649676276,5.8281978748506,3.34051970314441,-1.3063892255834,242.520876877611,260.371095502802
0.76,0.100218423343297,-0.0365345233751117,4.720713654253,1.82713675493384,-0.0786996057752435,0.0720060818714929,-0.560306321554552,5.03086701799072,0.480206738760059,244.970605377878,260.371095502802
0.77,0.0704445477264501,-0.0114597742320237,5.74132939795217,0.561953494643339,-0.0457308194795788,-0.0547946427998143,-4.70682218804472,-3.33533804524543,2.28485052734813,247.370223588398,260.371095502802
0.78,0.056208581424716,-0.0129883989846153,6.12607490322308,0.662371611396109,0.0535579385731429,-0.0214394577766775,4.65044514299738,-4.04238665189949,-2.17865391222566,249.047101133902,260.371095502802
0.79,0.0317316813397444,-0.00810388632584163,7.02981750374044,0.404539456626324,0.00315397120712379,0.0325979299933888,2.7678563003098,6.47463958909671,-0.346496628541685,250.697924930218,260.371095502802
0.8,0.00802090639127057,-0.0323425348406298,7.95273135047611,1.60680038549172,-0.0103941511082513,-0.0316596923862775,-7.81189295069477,2.19136303212117,1.49666897221133,252.071048081521,260.371095502802
0.81,0.00116324149846699,-0.0262066493390003,8.04761058076845,1.32458887036744,0.0258814134922587,0.00427715279173077,0.366940949991041,-8.14763315782058,-2.93345514863285,253.415024880908,260.371095502802
0.82,0.0237207021393048,-0.0148235169978835,6.71995957671281,0.744879448140529,0.013743046212612,0.0243626157660907,6.25789914177906,2.55957036165004,-1.07214805909315,254.436284771497,260.371095502802
0.83,0.0145967456940639,-0.0475148077530853,6.9777524838516,2.36822101051594,-0.0436497643521328,-0.0237785620396421,-3.33497982087274,6.57079980481204,0.796862725446729,255.475586338108,260.371095502802
0.84,0.0760822487573583,-0.0238773316248871,3.69332583689953,1.20863892862222,-0.0130112272592255,-0.0786723808379419,-2.74475167536114,-2.7509638379835,2.67358997635967,256.527842669053,260.371095502802
0.85,0.0185789883811214,0.00630784325752345,6.40604965539153,-0.308294023731901,0.0173795687122492,-0.00910594790252706,6.37662851085466,-0.686386354006444,-1.72611276174558,257.362143816862,260.371095502802
0.86,0.00855484276791994,-0.0279602130410732,6.76638621896268,1.39310886554215,-0.0289769501518818,0.00391090884340029,0.278224502399457,6.90270424556092,0.162764590162058,258.076324177148,260.371095502802
0.87,0.0124448520996537,-0.0451967699143396,6.43144563950591,2.25009773804078,0.0101364758608886,-0.0457697958439147,-6.73709279162911,-1.01882950567549,2.05743494519548,258.743056006462,260.371095502802
0.88,0.0576555033989701,0.000989076884181025,4.04270856068658,-0.0372050277616933,0.0412694735239516,-0.0402736377836338,2.96684999806009,-2.74639360066072,-2.3268294532372,259.380366567367,260.371095502802
0.89,0.0428722919199089,-0.00889326273438631,4.6697384936129,0.445178968388167,0.00950796902205358,0.0427401691808114,2.32461434024372,4.07440916965374,-0.42343068427592,259.949090941645,260.371095502802
0.9,-0.0143028997606221,-0.0429854998038528,7.4121560684596,2.13943078541658,0.010535528719484,-0.0440605125883751,-7.19959556452841,2.77183069035854,1.48428986293338,260.515685374461,260.371095502802
0.91,-0.0250199026007563,-0.00578620064780124,7.85060900051405,0.301680668119805,-0.000689481643117727,0.0256710003535458,1.68160508563577,-7.67432584924782,-2.88747225287929,260.943131656132,260.371095502802
0.92,0.0440330557575642,-0.0404379258067997,4.32053025310347,2.03187191400382,0.0136567794566218,0.058203335108722,4.71508810525304,0.750619279396126,-0.973333242662837,261.35463814822,260.371095502802
0.93,0.0394486722430716,-0.0169928362623191,4.4949745610964,0.84381296832318,-0.0419099151349622,0.0094081474988194,-3.14304463681595,3.32236166625439,0.943234410476488,261.557426030693,260.371095502802
0.94,-0.00846017369079148,0.0205707344769705,6.84366028296152,-1.04365780581595,-0.0174349232535221,0.0138113397954065,-0.88661914369292,-6.86577120054716,2.86183327448686,261.823331198556,260.371095502802
0.95,0.00163539628042141,-0.0202656330456089,6.25791446769302,1.02649266932764,0.000213885529199119,0.0203303875200078,6.31438666352957,-0.586260819588809,-1.50079290394624,262.183614924175,260.371095502802
0.96,-0.0166285240298829,0.0320397029566387,7.12439326335338,-1.60454214449323,0.0360388788729344,-0.0020614525325608,-4.37944041043217,5.84397438014949,0.421591272961254,262.401699359215,260.371095502802
