t,iq,id,vq,vd,ia,ib,va,vb,theta_e,omega,r
0,0,0,0,0,0,0,0,0,0,0,0
0.01,0.00149637082414394,0.000843995165892065,-0.0728243706436955,-0.042301710768233,0.00129946291425147,-0.00112376581985904,-0.0629983142072455,0.0558930773943854,-1.77026627531475,-0.00512395506755891,0
0.02,0.00169041866056938,0.000957342448139863,-0.0828451592804133,-0.0479827882086788,0.00146715757207775,-0.00127336894484926,-0.0716924212349774,0.0634497054204551,-1.77030224787182,-0.0051732086620524,0
0.03,0.00172063789411701,0.000975923212096038,-0.0844932738839103,-0.0489140778154356,0.00149305146692187,-0.0012976202047216,-0.0731211085752026,0.0646916054901206,-1.77033577026473,-0.00463360280319935,0
0.04,0.00170086328394868,0.000967144921913701,-0.0837344266543542,-0.0484740881450169,0.00147537404223009,-0.00128513682002416,-0.072462776354205,0.0641119136484379,-1.7703631587724,-0.00401987828284379,0
0.05,0.00171424974556179,0.00097592073777794,-0.0845319335139692,-0.0489139552298678,0.00148672230678447,-0.00129642981263668,-0.0731556188626075,0.0647030001519908,-1.77038842094946,-0.00357674660002932,0
0.06,0.00171161923671103,0.000975930084535885,-0.0845490356460455,-0.0489144024770685,0.0014841138190441,-0.00129594988850024,-0.0731708773577933,0.064708429938113,-1.77041029537011,-0.003137750876734,0
0.07,0.00175134559116014,0.000999087908463556,-0.0865514365096802,-0.050075121727502,0.00151843445561198,-0.00132655374279541,-0.0749021137495775,0.0662445645601109,-1.77042905991798,-0.00292437863003225,0
0.08,0.00170741852592446,0.000975965061684222,-0.084578123919971,-0.0489161598371168,0.00147994392436218,-0.00129520338365904,-0.0731967579851039,0.064718500905865,-1.77044554994667,-0.002430383415853,0
0.09,0.00170559383580925,0.000975907532979447,-0.0845827329701732,-0.0489132788955516,0.0014781486878373,-0.001294805893685,-0.0732009371105713,0.0647176202834424,-1.77045960706147,-0.00214775111554609,0
0.1,0.00170411105962508,0.000975901827290999,-0.0845910660247093,-0.0489129875598226,0.00147668079467042,-0.00129452412518963,-0.0732083771589155,0.0647198757491242,-1.77047174005137,-0.00190416328996732,0
0.11,0.00170283131093576,0.000975896997633066,-0.0845982547206498,-0.0489127482581084,0.00147541387682332,-0.00129428100332564,-0.0732147926850744,0.0647218338431677,-1.77048221267588,-0.00169391064846787,0
0.12,0.00170172665004812,0.000975892827736526,-0.0846044485657865,-0.0489125434480535,0.00147432029620655,-0.00129407112127001,-0.0732203190145663,0.0647235235991033,-1.77049125215216,-0.00151243044240109,0
0.13,0.00177511687043171,0.00101735166689241,-0.0881395137453359,-0.0509905062485614,0.00153801534116305,-0.00134927874368758,-0.0762723012762598,0.0674621498973484,-1.77050051523511,-0.00161616750541864,0
0.14,0.00195364421951812,0.00112076466974268,-0.0973182692202862,-0.0561736219894214,0.00169246839026973,-0.00148606525069991,-0.0842398522465313,0.0743637588138543,-1.77050799336077,-0.00216361314726871,0
0.15,0.00169952515524552,0.000976202042857438,-0.0846511199556503,-0.04892805462135,0.0014720710360457,-0.00129397181059971,-0.0732614759496656,0.0647496932846193,-1.77051457309985,-0.00104674931293938,0
0.16,0.00169831487933441,0.000975880640132925,-0.0846236384731283,-0.0489119313156802,0.00147094261395238,-0.00129342347265458,-0.0732374408414057,0.0647287762317667,-1.77051918686318,-0.00095160666501718,0
0.17,0.00169782675146427,0.000975878097038882,-0.0846262429884676,-0.0489118174335682,0.00147045954682384,-0.00129332998860406,-0.0732397585762921,0.0647294728132735,-1.77052316652457,-0.000871702838308622,0
0.18,0.0016974068430165,0.000975876508851831,-0.0846285493565637,-0.0489117324263866,0.00147004385854613,-0.0012932501711575,-0.0732418136106084,0.0647300986726861,-1.7705266015733,-0.000802739276810189,0
0.19,0.00169704479299126,0.0009758751391965,-0.084630550829266,-0.0489116530444942,0.00146968544353645,-0.00129318135378515,-0.0732435991199106,0.0647306351364776,-1.77052956654442,-0.000743213186488483,0
0.2,0.00169673186941889,0.000975873956867512,-0.0846322483791467,-0.0489116139463485,0.00146937566622967,-0.00129312186892268,-0.0732451050179683,0.0647311210736614,-1.77053212576737,-0.000691833063360024,0
0.21,0.00169646225315664,0.000975872936254923,-0.0846337288396861,-0.0489115342399162,0.00146910875631083,-0.00129307061919717,-0.0732464288684261,0.0647314984921144,-1.77053433476701,-0.000647484156244424,0
0.22,0.0016962293068993,0.000975872055249039,-0.0846349863927105,-0.0489114890240294,0.00146887815073988,-0.00129302633696265,-0.0732475469666193,0.0647318433509732,-1.77053624147065,-0.000609204264320437,0
0.23,0.0016960282584493,0.000975871294761276,-0.0846360638471344,-0.0489114495064916,0.00146867912241711,-0.00129298811780067,-0.0732485043056944,0.0647321389523084,-1.77053788724635,-0.00057616286104944,0
0.24,0.0016958543339591,0.000975870638310595,-0.0846369653490986,-0.0489114503147512,0.00146850694945099,-0.00129295505108984,-0.0732492957676333,0.0647324226716617,-1.77053930780133,-0.000547643074952972,0
0.25,0.00169570462466548,0.000975870071668253,-0.0846377551864591,-0.0489114105946578,0.00146835874384046,-0.00129292659121737,-0.0732499984100977,0.0647326302747144,-1.77054053395656,-0.000523026136263376,0
0.26,0.00170647726842245,0.000981762344681718,-0.0851546537591639,-0.0492067188333809,0.00147774668831146,-0.00130084076437587,-0.0736979562335361,0.0651247071562728,-1.77054159018983,-0.000544199958356506,0
0.27,0.00164398373474002,0.000946985346775436,-0.0822028172524194,-0.0474636950119603,0.00142339469149852,-0.00125435693457284,-0.0711505880740054,0.0628307195975523,-1.77054274831747,-0.000278554702771337,0
0.28,0.00159248758720813,0.000916410137458877,-0.0791721468367539,-0.0459312245479805,0.00137898797303334,-0.00121417314485157,-0.0684841891926264,0.0607274406989631,-1.77054376154202,-5.85005018052345e-05,0
0.29,0.00169502509883758,0.000975737175335384,-0.0846274197585167,-0.048904749883806,0.00146771468766603,-0.00129266651408251,-0.0732409692654679,0.0647243011336283,-1.77054394568579,-0.000453508555006378,0
0.3,0.00169390163657823,0.000975105870493335,-0.0845673590297513,-0.0488731195596787,0.00146674021385123,-0.00129182326892831,-0.0731884482679952,0.064681303858878,-1.77054287314054,-0.000470164695555139,0
0.31,0.00169532546143322,0.000975866966925472,-0.0846394583575024,-0.0489112445263131,0.00146798376501876,-0.00129285282339539,-0.0732515018714353,0.0647330304075383,-1.77054360499423,-0.000461353568269701,0
0.32,0.00169525130502223,0.000975868353717372,-0.0846400150127386,-0.0489113322307967,0.0014679099829923,-0.00129284040499908,-0.0732519887520625,0.0647332735601692,-1.77054424305935,-0.000448558377515143,0
0.33,0.00169518425060569,0.000975868102868467,-0.0846403430858519,-0.0489112921814781,0.00146784359957633,-0.0012928276624827,-0.0732522825959391,0.064733339748829,-1.77054479382229,-0.000437500917232879,0
0.34,0.00169512615936031,0.000975867883146207,-0.0846406066050241,-0.048911292510154,0.00146778609239091,-0.00129281661827489,-0.0732525100364897,0.0647334271828262,-1.77054526921399,-0.000427956603473555,0
0.35,0.00169507575151617,0.000975867693483006,-0.0846408117289462,-0.0489112869851458,0.00146773619398519,-0.00129280703255661,-0.0732526856157184,0.0647334925271527,-1.77054567954861,-0.000419718400421236,0
0.36,0.00169503244501661,0.000975867529773039,-0.0846409899196698,-0.0489112872504836,0.0014676933231774,-0.00129279879889517,-0.073252837283366,0.0647335540891868,-1.77054603372889,-0.00041260757082239,0
0.37,0.00169499495928312,0.000975867388465272,-0.0846411294377389,-0.0489112874908719,0.00146765621561849,-0.00129279167100567,-0.0732529541898345,0.0647336044027582,-1.77054633943975,-0.000406469836986891,0
0.38,0.00169496329512386,0.000975867266494357,-0.0846412754291088,-0.0489112472961586,0.00146762486413217,-0.00129278565578882,-0.0732530881724362,0.0647336133050946,-1.77054660331376,-0.000401172033672024,0
0.39,0.00169493512261608,0.000975867161214225,-0.0846413503635579,-0.0489112474972845,0.00146759697824549,-0.00129278029674752,-0.0732531468331034,0.0647336450553727,-1.77054683107616,-0.000396599218896581,0
0.4,0.00169491114105987,0.000975867070341398,-0.0846414228309628,-0.0489112476803714,0.00146757323741694,-0.00129277573766031,-0.0732532050970776,0.0647336740151983,-1.77054702766889,-0.000392652180148136,0
0.41,0.00169489041913266,0.000975866991904523,-0.0846414751725509,-0.0489112478494357,0.00146755272371828,-0.00129277179806164,-0.0732532453797982,0.0647336969970166,-1.77054719735742,-0.000389245281849791,0
0.42,0.00169487249117317,0.000975866924201335,-0.084641509271454,-0.0489112480064664,0.00146753497632499,-0.00129276838929041,-0.0732532692882334,0.0647337146461197,-1.77054734382343,-0.000386304607391528,0
0.43,0.0016948568915201,0.000975866865763592,-0.0846415234089283,-0.0489112481534541,0.00146751953501752,-0.00129276542217465,-0.0732532749317029,0.0647337268562013,-1.77054747024485,-0.000383766355438862,0
0.44,0.00169484362017346,0.00097586681532317,-0.0846415363070266,-0.0489112482904018,0.00146750639650087,-0.00129276289949885,-0.073253280482416,0.0647337375431353,-1.77054757936486,-0.000381575455676323,0
0.45,0.00169483221147197,0.000975866771785573,-0.0846415406989917,-0.0489112484193164,0.00146749510152947,-0.00129276073126669,-0.0732532786644619,0.0647337454403949,-1.77054767355081,-0.000379684373996704,0
0.46,0.00169482219975433,0.000975866734206323,-0.0846415272263803,-0.0489112485422239,0.00146748519124601,-0.00129275882715388,-0.0732532601727627,0.064733748842739,-1.77054775484674,-0.000378052081188941,0
0.47,0.00169481358502054,0.000975866701770275,-0.0846415079605681,-0.0489112486591183,0.00146747666353197,-0.00129275718895052,-0.0732532367244918,0.0647337502746333,-1.77054782501642,-0.000376643162768355,0
0.48,0.00169480613443997,0.00097586667377345,-0.0846414814805859,-0.0489112487709954,0.00146746928835763,-0.00129275577200188,-0.0732532068281774,0.0647337495666274,-1.77054788558241,-0.000375427050625422,0
0.49,0.00169479961518197,0.000975866649608411,-0.0846414452376428,-0.0489112488788539,0.00146746283594347,-0.00129275453144194,-0.0732531679004372,0.0647337463102239,-1.7705479378589,-0.000374377359788422,0
0.5,0.00169479426007719,0.000975866628750449,-0.0846414185240273,-0.048911248981687,0.00146745753312777,-0.00129275351462137,-0.0732531387767016,0.0647337444156402,-1.77054798298053,-0.000373471316001231,0
0.51,4.377867615159,0.0104560882880319,10.3478356519924,-0.50588834843905,-1.3651627852099,4.15958708954605,-3.730543889116,9.66522984688469,0.319508881852813,97.0756661582494,703.924177002233
0.52,3.58959467919455,-0.0110319335801241,15.7486822888461,0.588660327293389,-3.53902261131555,0.600525287608783,-15.4182996042708,3.26244572811348,1.39963732576512,196.240318516641,703.924177002233
0.53,3.02568948132918,0.0806889831607287,12.9729660010705,-4.01731739700356,0.0285507214836016,-3.02663053670783,4.48285230273892,-12.8195444991243,-3.10549811657633,284.606423832066,703.924177002233
0.54,2.45257132904773,0.0471903161602889,17.7779262577144,-2.31746118808417,1.72744467201057,1.74162796117557,10.5977847907825,14.4607138797248,-0.762070904759807,354.037113664185,703.924177002233
0.55,2.16804685414487,-0.0402426790117367,10.9749265495995,2.0627599559181,-1.88922697184077,-1.06436275951899,-10.6391587297223,-3.39297700089727,2.06529847877346,413.945195197884,703.924177002233
0.56,1.70704393664286,-0.0291458168331139,16.323440369021,1.49287969737964,1.41100079343599,0.961210300189826,14.4648229924085,7.71053117950521,-0.989854053724673,464.731310004584,703.924177002233
0.57,1.53159496234338,0.0823401366182909,10.3798620551469,-4.10161962560471,-0.890945326784228,-1.24851089360697,-2.10531119697263,-10.960496549013,2.57550248263338,507.065529184511,703.924177002233
0.58,1.30769752891601,-0.00822453751155861,9.2886477067271,0.434656083113757,-0.192167896761666,1.29352694970167,-0.876810449210117,9.25738113974089,0.141193253465588,542.30716675049,703.924177002233
0.59,1.14678666552439,0.0351140526409093,6.88450642604798,-1.73462332033742,0.998784550465266,-0.564607894621846,6.90108435795262,-1.66744759383198,-2.05469649020832,572.134487127969,703.924177002233
0.6,0.930706920786212,0.00651239517079,8.93287684277432,-0.294765873576726,-0.737406380420452,-0.56788168997197,-6.85762494815343,-5.73202893213762,2.2340392500488,597.152012173539,703.924177002233
0.61,0.706644760329174,0.024413513989888,12.8254613612685,-1.18533671348676,-0.257739607315917,0.65841714117013,-6.17291620301429,11.3045383720121,0.407651707925284,618.050983195883,703.924177002233
0.62,0.508649395623843,-0.0124183778046124,16.5280174420431,0.653498046878758,0.483462776658104,0.158562818346026,16.0144029083629,4.1402076941108,-1.27828722040549,635.603038788766,703.924177002233
0.63,0.489284986778415,0.0589427309836955,12.271594329272,-2.96668077089401,0.0857789646416199,-0.485299920716645,6.40459364828078,-10.8800001093297,-2.84675574643287,650.443050930381,703.924177002233
0.64,0.47528510829076,0.000128302217845436,8.55018853197777,-0.000553001930352706,-0.438444944656952,-0.183472017291958,-7.88634358743245,-3.30322706745061,1.96738513934575,662.760809082676,703.924177002233
0.65,0.349430450405163,0.0877044499512085,11.2264463316491,-4.36738942069606,-0.118481687173239,0.340229040524441,-9.81264801590571,6.98706852015544,0.581019522630553,672.869056951456,703.924177002233
0.66,0.274177152568668,-0.0573227734185016,11.9113614056167,2.87606109696557,0.141792798956128,0.241565340037097,10.1341967895649,6.88841878801418,-0.736890441612948,681.545885696518,703.924177002233
0.67,0.140382533836418,-0.104031962437144,16.0129827834639,5.19898170653357,0.170846173227674,0.0366263581088248,12.4269838564546,-11.3584814407472,-1.99736614997059,688.647949101289,703.924177002233
0.68,0.135288391399319,0.126839939483257,14.064297454256,-6.34112694236582,-0.135785192322192,-0.126307959533661,5.36558480666553,-14.4646069239184,3.07322955355138,694.710403011925,703.924177002233
0.69,0.153254944477288,0.110696427016805,11.3489951277153,-5.51925779418888,-0.180874421750363,0.0550020046679698,-8.94518522463949,-8.90199743341412,1.90112975868829,699.647869787071,703.924177002233
0.7,0.0429938740103974,0.0332837472919319,15.2396525414944,-1.68793956201752,-0.00565430766819046,0.0540768882334085,-11.7516194424739,9.84863391693336,0.762961337276772,703.924482165382,703.924177002233
0.71,0.0900551887214998,-0.0181434942718854,11.6197275599314,0.925789288614319,0.0136046734012506,0.09085172679539,4.82700920037787,10.6101430976877,-0.347450853294802,707.22969521748,703.924177002233
0.72,0.0483826340732344,0.107409844785472,12.6657826180403,-5.37679121631753,0.0623582081535793,-0.0999460249963877,11.8297282743914,7.02776366032511,-1.43620192473715,709.975587127226,703.924177002233
0.73,0.0378764974128457,0.0273563806713145,12.3238729504979,-1.38714574456365,0.000433616101030505,-0.0467205800132672,8.42504399890631,-9.10058522476262,-2.50680717790538,712.195521520385,703.924177002233
0.74,0.00133495985592138,0.102535851682708,13.3638972362716,-5.11987377926499,-0.0941343634457351,0.0406706849804803,-0.786443331224676,-14.2894493856133,2.72074766764855,714.177886538866,703.924177002233
0.75,0.00461138238163647,-0.126922565893395,12.5462014324492,6.33357472506497,0.00904050383439851,-0.126684142144363,-13.1536137888157,4.95012964236788,1.67835438413436,715.713933550763,703.924177002233
0.76,-0.000463239526573902,-0.0094417520772717,12.2892096855275,0.464671699328389,-0.00725827210262862,-0.00605629913658895,-7.03049855255751,10.0902271820562,0.646343635108193,716.932583791739,703.924177002233
0.77,-0.053174745707382,0.143137092973334,14.4000798252503,-7.15069021871656,0.113526273471734,-0.102115455233391,-1.34998361687229,16.0209929096734,-0.376837387510113,718.189593631976,703.924177002233
0.78,-0.0422286364237812,0.00571879587220434,13.4936086129702,-0.316520270030912,-0.0405530974166126,-0.0130923126436308,13.2252410120464,2.69641589052041,-1.39312164489896,718.862530423509,703.924177002233
0.79,0.0216604564260015,0.040073364504955,9.95583283716163,-2.00507276044392,-0.01508003395551,-0.042984212115966,8.18085521939639,-6.01768494817192,-2.40374375353699,719.595365406137,703.924177002233
0.8,0.0379027529641968,0.0684644232485035,8.81921118598812,-3.40371699771183,-0.0760610282652234,-0.0184042362583195,0.944893111285232,-9.40589986932756,2.87338398591852,720.234313277307,703.924177002233
0.81,-0.148834322003376,-0.0649915155865931,17.9654770109284,3.23034559640066,0.16139305181512,-0.0181062235225665,-18.117721998987,-2.22298143712566,1.87079008863599,720.414164632438,703.924177002233
0.82,-0.044846996546987,-0.00399159454587085,12.6415241035393,0.213691549614864,0.0316847957780802,-0.0319884298271334,-9.51950116873622,8.32063057929936,0.869400377267182,720.632997190593,703.924177002233
0.83,-0.0078500987046624,0.00709533200569368,10.6521239217516,-0.374220959238822,0.00600897155048594,-0.00870976732464272,1.02059870089119,10.6097202443055,-0.131016281936061,720.67749981129,703.924177002233
0.84,-0.0638791680641343,-0.0212616999421476,13.3122982764654,1.05181653883737,-0.0668498218245328,-0.00798181176325633,12.4916485696589,4.72041517719514,-1.13065105504629,720.888385019067,703.924177002233
0.85,-0.0610624058625121,-0.0269456190611303,13.0138663871649,1.37283474480104,-0.0375180329384362,0.05520037138223,10.310816954713,-8.05806721899958,-2.12906296696888,721.060298059569,703.924177002233
0.86,-0.0247866045095157,-0.0139725874129489,11.0599199244712,0.670329065566617,0.0135927279011766,0.0249969340185595,-0.501481526702742,-11.0688611008646,-3.12633250329052,721.145658230486,703.924177002233
0.87,-0.115741977964841,0.0904943223499588,15.4834277391767,-4.53792988847881,-0.145896495579424,0.0173101247377116,14.1859337949328,-7.68691255269886,-2.35247414858536,721.255591492362,703.924177002233
0.88,-0.0506346569972588,0.0309623069574534,12.1179608364704,-1.52642920564489,-0.0199024933728731,0.0559144319375629,-0.994989576362335,-12.1731243605332,2.93473312451273,721.30840299696,703.924177002233
0.89,-0.115096409306894,0.0380336512090615,15.2962262392355,-1.93349178267357,0.0937280209357886,0.0768687202384233,-13.5784576742584,-7.30331533099296,1.93853523901248,721.092589469831,703.924177002233
0.9,0.0632249012158489,0.00952023597415089,6.32962099216508,-0.461245294812905,-0.0455111487782997,0.0449083328975462,-5.3886738088833,3.35246830080451,0.941519457794107,721.129735575562,703.924177002233
0.91,-0.012301299826721,-0.0144283450229023,9.99071757265138,0.710340725560561,-0.01509381868444,-0.0114750056665801,1.26805014317299,9.93534450320038,-0.055963275726855,721.133120356223,703.924177002233
0.92,-0.0271991870394259,0.0245553751424599,10.856276789552,-1.24451155673569,-0.0115470854634186,-0.0347768175843207,8.82966101488382,6.43775124623925,-1.05493956863543,720.609265932491,703.924177002233
0.93,-0.0916005242571007,0.0905451331304842,14.0381419852949,-4.51756102134452,-0.123276392491438,-0.0373096265337751,14.5234849662949,-2.55854888846712,-2.05651393366349,720.495343864268,703.924177002233
0.94,-0.0591253906748999,-0.121562104386274,12.443494229348,6.06192768655719,0.11632215178841,0.0688644614339869,-5.0244629771008,-12.8973752253941,-3.059757603925,720.076683319116,703.924177002233
0.95,-0.0374847580267611,-0.125744210482971,11.406851830293,6.30127644534178,0.105716697303879,-0.0777218982364077,-12.8996280345336,-1.84985136958449,2.21792152319137,719.820001979132,703.924177002233
0.96,-0.116570823241135,0.079525236219949,15.3079145337325,-3.96230493571857,0.137115220820513,0.0333532044382044,-15.7223320733585,1.68534327385268,1.21072839677464,719.724318611732,703.924177002233
0.97,-0.106727809213329,-0.00608382883372094,14.8329671795066,0.276980393230753,0.0154813258410899,-0.105774130972354,-2.70854079852221,14.5862071913604,0.202271831174288,719.368098578405,703.924177002233
