t,iq,id,vq,vd,ia,ib,va,vb,theta_e,omega,r
0,0,0,0,0,0,0,0,0,0,0,0
0.01,0.001168462070058,0.000657289891802274,-0.0578700870744574,-0.0329076827244153,0.00120532150842114,-0.000586969907548135,-0.0597165852797704,0.0294243437109474,-1.5115664746835,-0.00244029241842101,0
0.02,0.0012916531924162,0.000727611060337988,-0.0640725728189957,-0.0364283770748476,0.0013324477696446,-0.000649899042755307,-0.0661160257311445,0.032572878065523,-1.5115841912717,-0.0024803457390942,0
0.03,0.00133749414369138,0.000754438349545972,-0.0663720580156701,-0.0377715061974793,0.00137978436488675,-0.000673990292280575,-0.0684903831570119,0.0337787533912577,-1.51160138999694,-0.00235310621959363,0
0.04,0.00130681178597514,0.000739026466779728,-0.0648929842778471,-0.0369998998781066,0.00134823402226588,-0.000660440901042048,-0.0669677527528768,0.033097010298581,-1.51161645985129,-0.00208202847353795,0
0.05,0.00133304634019702,0.000754791807386869,-0.0662187657827767,-0.0377892115230649,0.00137534552536335,-0.00067464650260267,-0.0683374178163947,0.0338074958480612,-1.51163064632868,-0.00195099568975229,0
0.06,0.00133177629858673,0.000755295271085432,-0.0661853491177564,-0.0378143876316592,0.00137409873285893,-0.000675241977632365,-0.0683051101863866,0.0338354883550137,-1.51164359531174,-0.00177459218074736,0
0.07,0.00136648496016573,0.000776074110220831,-0.0679230103488549,-0.0388547182372232,0.00140996708267789,-0.000693948842984109,-0.0701008331648574,0.0347720815272465,-1.5116551442695,-0.00169799592349003,0
0.08,0.00132916699550081,0.000755972208065879,-0.0661069257825686,-0.0378483035741592,0.00137151893041282,-0.00067610258453576,-0.0682280733760538,0.0338755032915464,-1.5116659036564,-0.00146973925780681,0
0.09,0.00132620091939478,0.000755315667413363,-0.0659822290543035,-0.0378154321747359,0.00136851277540843,-0.000675635567142206,-0.0681013281635335,0.0338507099467551,-1.51167547071782,-0.00133484050696577,0
0.1,0.00132462113710547,0.000755289556448299,-0.0659238061010414,-0.0378141246130191,0.00136692837167295,-0.000675714656983247,-0.0680426375021601,0.0338534446230554,-1.51168411160912,-0.0012154769450557,0
0.11,0.00132323297553158,0.000755284331398471,-0.0658729546658559,-0.0378138414527029,0.00136553704853213,-0.000675802114436136,-0.0679915937629507,0.0338566971128896,-1.51169192086637,-0.00110769006789753,0
0.12,0.0013219794837154,0.00075528020237944,-0.0658270470697915,-0.0378136534241783,0.00136428073137915,-0.000675881665277542,-0.0679455162473298,0.0338597007236665,-1.51169897870411,-0.00101027778817915,0
0.13,0.00138515667979151,0.000791423833570332,-0.0689582016239718,-0.039623191649871,0.00142947749230745,-0.000708240644767451,-0.0711778361209854,0.0354816365584918,-1.51170588859187,-0.00105997920029663,0
0.14,0.00145398247150404,0.000832127783695122,-0.0724597639087971,-0.0416610902525749,0.00150058235741849,-0.000744818276120235,-0.0747934059698089,0.037309653579029,-1.51171208817174,-0.0011319245966193,0
0.15,0.00132344472659322,0.000757758916086378,-0.0659417232967101,-0.0379377370304749,0.00136587704943042,-0.000678295219720036,-0.0680666814795532,0.0339780757944647,-1.51171780131983,-0.000761316959585608,0
0.16,0.00131799414545711,0.000755347216646809,-0.0656832572934201,-0.0378170002689029,0.00136029047766787,-0.000676215795084246,-0.0678013821618078,0.0338731217185591,-1.51172239024129,-0.000687539159682888,0
0.17,0.001317095458815,0.000755266771809188,-0.0656482266418498,-0.0378129697303329,0.00135938581871298,-0.00067619415859071,-0.0677660348744217,0.0338714460636893,-1.51172651705232,-0.000630207280420227,0
0.18,0.0013164271524092,0.000755262069232007,-0.0656236585620845,-0.0378127472889555,0.00135871587863041,-0.000676233984637275,-0.0677413702009139,0.0338729270054153,-1.51173024604258,-0.000578726433095252,0
0.19,0.00131582846255685,0.000755260021581668,-0.0656017132510116,-0.0378126498021319,0.00135811583281806,-0.000676271859331125,-0.0677193432437845,0.0338743533836015,-1.5117336162004,-0.000532211082128225,0
0.2,0.00131528763112114,0.000755258241946752,-0.0655818888364183,-0.0378125550746946,0.00135757377943895,-0.000676306142208243,-0.0676994446245894,0.0338756352287494,-1.51173666207804,-0.000490171900499167,0
0.21,0.00131479895375154,0.000755256635556737,-0.0655639744923877,-0.0378124631178636,0.0013570839974518,-0.000676337118749866,-0.067681462830915,0.0338767871461526,-1.51173941487885,-0.000452177774927586,0
0.22,0.00131435706395158,0.000755255183560549,-0.065547769027083,-0.0378123994575708,0.00135664110957996,-0.000676365125987547,-0.0676651975747418,0.0338778484313552,-1.51174190280318,-0.000417839472467451,0
0.23,0.00131395778216298,0.00075525387107586,-0.0655331241368945,-0.0378123385683633,0.00135624092547512,-0.000676390430999823,-0.0676504984424447,0.0338788041057967,-1.51174415133738,-0.000386805226677926,0
0.24,0.00131359691742429,0.000755252684713867,-0.0655198851188586,-0.037812274641136,0.00135587924514369,-0.000676413299560772,-0.0676372098787593,0.03387965907948,-1.51174618351595,-0.000358757118831765,0
0.25,0.00131327086086546,0.000755251612368563,-0.0655079210474895,-0.0378122105968204,0.00135555245123695,-0.000676433961247597,-0.0676252006545231,0.0338804254196713,-1.51174802015666,-0.000333407820574889,0
0.26,0.00132662251413531,0.000762858341288175,-0.0661699615775322,-0.0381930649169508,0.00136932864012559,-0.000683241698972941,-0.0683085080906732,0.0342216560871759,-1.51174962722192,-0.000341945081423906,0
0.27,0.00128075389032102,0.000736938243338541,-0.0639117657575639,-0.0368953427648859,0.00132200921535393,-0.00066007585669119,-0.0659776093814815,0.0330595701770725,-1.51175134135516,-0.000215651778544494,0
0.28,0.0012748104492921,0.000733289980073707,-0.0635345414246046,-0.0367126995944991,0.00131585994121491,-0.000656786488599401,-0.0655902192401973,0.0328995958269031,-1.51175271765288,-0.000183819059784949,0
0.29,0.0013109050618535,0.000754536913420506,-0.065404080239112,-0.0377764410347173,0.00135314471974019,-0.000675867888234472,-0.0675192356646269,0.0338512337210661,-1.51175375868166,-0.000251171377828728,0
0.3,0.00130429038443168,0.000751098365070267,-0.0650786279947993,-0.0376042966689776,0.00134633844201122,-0.000672826099742699,-0.0671841813809012,0.0336986160225035,-1.51175409106079,-0.00023181715618375,0
0.31,0.00131172492155443,0.000755113031318487,-0.0654475836653012,-0.0378052930318413,0.00135399621779364,-0.000676396482911085,-0.0675643192751171,0.033877561153956,-1.51175513177977,-0.000234616063758854,0
0.32,0.00131182459616323,0.000755242535006206,-0.0654546670385892,-0.0378117744464886,0.00135410270115246,-0.000676521198864485,-0.0675717397389211,0.0338836791476401,-1.51175610615598,-0.000221781966794297,0
0.33,0.00131167780820006,0.000755246233472683,-0.0654493869570078,-0.0378119534543856,0.00135395579059101,-0.000676534746206181,-0.0675664495395961,0.0338842289819023,-1.51175698798628,-0.000209632927723945,0
0.34,0.00131153672421903,0.000755245904307334,-0.0654441966336767,-0.0378119287282717,0.00135381439377969,-0.000676543821302889,-0.0675612397937182,0.0338845644020245,-1.51175778500948,-0.000198633199767657,0
0.35,0.00131140902798909,0.000755245487849562,-0.0654394934095515,-0.0378118981270342,0.00135368640811476,-0.000676551915298291,-0.0675565185498528,0.0338848600276191,-1.51175850534399,-0.000188691169517395,0
0.36,0.00131129319474436,0.000755245107593414,-0.0654352183644098,-0.037811898739009,0.00135357031378572,-0.00067655925148111,-0.0675522289289028,0.033885156859371,-1.51175915636729,-0.000179705743581761,0
0.37,0.0013111887815784,0.000755244763786809,-0.0654313651962579,-0.0378118680389398,0.00135346566416306,-0.000676565865305138,-0.0675483607247812,0.0338853933050084,-1.51175974474856,-0.00017158490108955,0
0.38,0.00131109425233748,0.000755244453046536,-0.0654278714542135,-0.0378118685552853,0.00135337092149391,-0.00067657185222611,-0.0675448550805897,0.0338856358773654,-1.51176027651533,-0.000164245452051195,0
0.39,0.00131100916410917,0.000755244172196518,-0.0654247279780438,-0.0378118348623754,0.00135328563976642,-0.000676577242609461,-0.067541698807294,0.0338858201743052,-1.51176075711488,-0.00015761221024009,0
0.4,0.00131093186433581,0.000755243918362448,-0.0654218638448408,-0.0378118353010483,0.00135320816580264,-0.00067658213777744,-0.0675388249709754,0.0338860189356383,-1.51176119147076,-0.000151617223876624,0
0.41,0.00131086201514301,0.000755243688946288,-0.0654192727462765,-0.0378118357051146,0.00135313815915414,-0.000676586561113167,-0.0675362251076967,0.0338861987281668,-1.5117615840326,-0.000146199079547892,0
0.42,0.00131079927866149,0.000755243481599831,-0.0654169473788911,-0.0378118048259068,0.001353075279682,-0.000676590535665397,-0.0675338899468235,0.0338863290607793,-1.51176193882163,-0.000141302273084667,0
0.43,0.00131074211873872,0.000755243294200543,-0.0654148195768032,-0.0378118051723917,0.00135301799132609,-0.000676594154880516,-0.0675317550061316,0.0338864766013293,-1.51176225947259,-0.000136876640970465,0
0.44,0.00131069054675138,0.000755243124829295,-0.0654128977501461,-0.0378118054927924,0.00135296630310835,-0.000676597420626671,-0.0675298267259579,0.033886609878504,-1.51176254927006,-0.000132876846461576,0
0.45,0.00131064434124519,0.00075524297175228,-0.065411177867768,-0.0378117745416253,0.00135291999184982,-0.000676600348265009,-0.0675280991381304,0.0338866981399239,-1.51176281118292,-0.000129261915147637,0
0.46,0.00131060219889887,0.000755242833402546,-0.0654096011418197,-0.0378117748190402,0.00135287775459217,-0.000676603016763965,-0.0675265171537712,0.0338868074267729,-1.51176304789429,-0.000125994815206921,0
0.47,0.00131056424750413,0.000755242708363174,-0.0654081797348161,-0.0378117750768224,0.00135283971718061,-0.000676605420456037,-0.0675250909884236,0.033886905991656,-1.51176326182901,-0.000123042078046533,0
0.48,0.00131052978856902,0.000755242595353317,-0.065406883979901,-0.037811775318228,0.00135280518078175,-0.000676607602242849,-0.0675237909528445,0.0338869957363137,-1.51176345517876,-0.000120373455446076,0
0.49,0.00131049870567277,0.000755242493216776,-0.0654057127199082,-0.0378117726334271,0.00135277402776965,-0.000676609570522155,-0.0675226156531052,0.033887073958136,-1.51176362992402,-0.000117961609692462,0
0.5,0.00131047064958033,0.000755242400906689,-0.0654046527800588,-0.0378117728448248,0.00135274590824469,-0.000676611347278519,-0.0675215522202291,0.0338871473676902,-1.51176378785511,-0.000115781833527631,0
0.51,1.92811619786796,0.061156808533292,2.03115622060356,-3.06036827167583,-0.0230665382275324,1.92894794189086,-3.14611409349833,1.89563067644196,0.0436653170274985,13.3558410000443,461.147564672846
0.52,1.88964044382409,-0.034431774809471,2.81107779428166,1.72773050480861,-0.401173069498717,1.84688568199583,1.14820871750019,3.09335219524163,0.19567393718002,28.0690625471404,461.147564672846
0.53,1.8833873434244,0.0279306870053261,1.9185445605682,-1.3919271615749,-0.803061789346737,1.70382504123488,-2.09375051163141,1.11107301697909,0.455277637834546,42.7709533014727,461.147564672846
0.54,1.82733799125111,-0.0163160036618925,3.38651785263221,0.826265444451503,-1.35177318381486,1.22969085780296,-1.92318935349115,2.90732875016046,0.823726248951471,57.8596301263115,461.147564672846
0.55,1.83648367322653,0.058638586931875,1.33942180233686,-2.93060962665049,-1.75699315079067,0.537667028912547,-2.06033717881357,-2.47740474246547,1.30574893163282,73.7681322686156,461.147564672846
0.56,1.80185676459414,0.0192551850574172,1.58539369265169,-0.956743350155479,-1.71016298818986,-0.567803765477826,-1.18804679828382,-1.42034355134737,1.90204791450386,88.6312826275113,461.147564672846
0.57,1.73136826294591,-0.0184770773809424,3.8575287488649,0.938375754712832,-0.874024594924817,-1.49467671146352,-2.78760617317355,-2.82671698771504,2.60178413995553,102.208294746805,461.147564672846
0.58,1.71588516326609,-0.0184095580951318,3.25249144777423,0.939678583325208,0.45921513802047,-1.65339718832433,-0.0713221271536659,-3.38476138183814,-2.88140902373912,116.312913164196,461.147564672846
0.59,1.67463132864798,-0.015033896086861,3.78328776101982,0.76284083127194,1.54525034547294,-0.64561402922846,3.17722884173543,-2.19098363841051,-1.97553458075941,130.499435457442,461.147564672846
0.6,1.61344677863883,0.0346686855845335,5.55331168836312,-1.71544564556844,1.35196757615691,0.881246899728208,3.61863866967892,4.54834900258484,-0.971654856284276,143.385757544063,461.147564672846
0.61,1.54168622963755,0.0857816873578486,7.61005037858588,-4.28617295622793,-0.114978751040953,1.53978401581165,-5.23735173617645,6.9895845489474,0.130117828238442,157.227508452211,461.147564672846
0.62,1.52223031222274,0.0186201093896808,7.25315096501032,-0.909786661361808,-1.47332132173386,0.383218103496976,-7.25962342487198,0.856608673474696,1.32856152123192,169.676113896738,461.147564672846
0.63,1.54241865674612,-0.0186640153030699,4.72236941439029,0.945641418701573,-0.7512316598558,-1.3472396414061,-3.16987364977608,-3.62586701675449,2.62082721029133,182.858870038883,461.147564672846
0.64,1.55378258969528,0.0506387431401108,2.82838861632939,-2.50747039020707,1.14812025711256,-1.04815289607707,3.77922807920657,0.068007706059547,-2.27812997678135,194.848675691455,461.147564672846
0.65,1.46345428141878,0.00078536827222897,5.85772104114968,-0.0207854328643406,1.05323717033289,1.01606619549882,4.19913532302302,4.08418784693939,-0.802822615916634,207.249887823914,461.147564672846
0.66,1.42940669636393,-0.0381594573007101,6.13105668285264,1.92004801372607,-1.01202278349582,1.01018292080044,-2.82989522304541,5.76785345253762,0.759618320669934,219.281614222805,461.147564672846
0.67,1.41024293794548,0.0825714676367215,5.72715442622646,-4.10355859349312,-1.00475870792829,-0.993007114846137,-0.780979481985471,-7.00211125310033,2.40879665468918,230.618766113598,461.147564672846
0.68,1.38530557572423,0.0881839474373415,5.53693289237639,-4.39080805199248,1.1186764364743,-0.821833910954904,7.03099304947236,0.708489902816531,-2.14082893070528,242.028660125175,461.147564672846
0.69,1.38147328038179,0.0682082131301718,4.27951627811143,-3.39983514567427,0.506011777637903,1.28727342302984,-1.85434006894694,5.14145519294689,-0.325200150897735,253.35007444983,461.147564672846
0.7,1.30249870359904,0.0305861749812575,6.82824653107727,-1.52229978487529,-1.30250595747201,0.0302756953197035,-6.82788346393955,-1.52392740216226,1.57103469846826,264.270017369607,461.147564672846
0.71,1.32422090612394,0.0333595677055072,4.36301633156689,-1.6479337029812,0.490844155867477,-1.23034380708156,3.23301196967437,-3.36143281992709,-2.73680631466426,274.813862761108,461.147564672846
0.72,1.21720560782729,0.0105254560410993,8.32213274840323,-0.492831378168831,0.777507292207705,0.936580315570917,4.87821100817524,6.76046105003728,-0.684212881279867,285.073363003087,461.147564672846
0.73,1.16431675383047,0.100073620356605,9.56466217688778,-4.97774400565698,-1.14216503279487,0.247198848302918,-10.1196073053625,-3.72212921982769,1.44339348332137,295.160076737676,461.147564672846
0.74,1.23646095510331,0.0200484426621241,4.58690590566619,-0.970697401063091,0.577630063853135,-1.09342633171201,3.058857059755,-3.55321723510581,-2.63936859743186,304.979499487901,461.147564672846
0.75,1.11017359257806,-0.0185874160551961,9.5280260714746,0.9605632680626,0.381831824489269,1.04260987694366,4.32223722983398,8.54542146062369,-0.367798361794759,314.577317489412,461.147564672846
0.76,1.13120523557766,0.0453173810581214,7.11364042876624,-2.23808172141565,-1.0586294067433,-0.401226531030305,-5.66933379619521,-4.84474398176325,1.97311390844724,323.921336896022,461.147564672846
0.77,1.08196881830828,0.0173791394246706,8.2322804748475,-0.838473690866103,1.01766387137456,-0.367857041766921,8.05829103897132,-1.88080447629851,-1.90159331953624,333.041262379276,461.147564672846
0.78,1.02037659327643,0.0456840847512597,9.95782941546993,-2.25405111424022,-0.514885353507523,0.882127258647757,-7.29328819272248,7.14472255802145,0.573079465475294,341.972982825195,461.147564672846
0.79,1.01636410016742,0.0217733818021723,8.82700501138107,-1.05376687474467,-0.0516820843214383,-1.01528273225955,0.793474651332378,-8.8541990080949,3.11215196368293,350.617158596783,461.147564672846
0.8,0.939975670451755,0.0257123152144433,11.3137205865172,-1.25137809052309,0.528356458741554,0.777852708872957,5.04473376925621,10.2037680213022,-0.569316213889093,359.104040593878,461.147564672846
0.81,0.872744074677968,-0.0513719710921754,13.3643249300352,2.57452108130043,-0.730652898793268,-0.480070453979822,-12.8659200154617,-4.43863062096429,2.09331210243784,367.305709382888,461.147564672846
0.82,0.929170803484222,-0.0192912569209363,9.24430026099679,0.969666720433293,0.9223412965147,0.114092363393374,9.29499456552979,-0.0204179076523857,-1.46848169257972,375.254385071208,461.147564672846
0.83,0.909842856911449,-0.0406820588843659,8.91304507686866,2.04855174509203,-0.889628962111207,0.195011189322037,-8.08480291686631,4.27491503892677,1.31032085048067,382.9749393904,461.147564672846
0.84,0.845590457106643,-0.00663948343020776,10.8790094524786,0.356592575737803,0.716495014241682,-0.449112679020369,8.98043238038177,-6.15075923716583,-2.13855433736996,390.356644538435,461.147564672846
0.85,0.738633922146276,0.0603381969881115,14.9870903012321,-2.98755643685388,-0.45906650948713,0.581789230588079,-12.3976554774107,8.93512774525922,0.749542338902833,397.569917606,461.147564672846
0.86,0.774430627680141,-0.0536343762869361,11.9544266394085,2.68501451952934,0.449586700021873,-0.632843774222507,3.94246283833499,-11.6006295525472,-2.59305177941251,404.677051842883,461.147564672846
0.87,0.75970767980115,0.0162955593836592,11.4433621955655,-0.811195990243794,-0.279788766524506,0.706498089262221,-5.18826675652734,10.2318358732242,0.398518832583137,411.556637371139,461.147564672846
0.88,0.802923736223096,0.0785011689507288,8.07059985303595,-3.90373517600626,0.160710996086346,-0.790582655674928,6.10133629997678,-6.5686700074519,-2.84358419865782,418.16362071181,461.147564672846
0.89,0.659721168292974,0.0096035428062437,14.0451831797655,-0.446664560032637,-0.150986441758941,0.642282914558103,-3.84604306446785,13.5157179805076,0.245441612879372,424.541323371857,461.147564672846
0.9,0.692270895727761,0.0270250308583728,11.2287479988698,-1.35392896385047,0.137512194221052,-0.679013800894447,3.97187528850146,-10.5897172745011,-2.9027591554857,430.799236512231,461.147564672846
0.91,0.778749565725027,0.039791648087324,5.73733284588673,-1.96610620304339,-0.174660978489242,0.759952501125961,-3.45995857674636,4.98108908104801,0.276960739974657,436.782702915639,461.147564672846
0.92,0.697095138176503,0.0074764362726728,8.67129026500274,-0.342255463363356,0.237710016301658,-0.655355992509813,3.36447324909175,-7.99929580764953,-2.78290746841791,442.629225461963,461.147564672846
0.93,0.557297694176981,-0.053028979630468,14.5048756397252,2.65587264798689,-0.30556724045023,0.469064445656734,-4.37778215103084,14.0811966921968,0.482518560383618,448.297576504765,461.147564672846
0.94,0.613149746464414,-0.0641210394474139,10.5997884295586,3.2423797475901,0.420668167819019,-0.450668849459314,3.80016761479879,-10.4128414603518,-2.49480925664675,453.682984729911,461.147564672846
0.95,0.62852514202635,0.020115834525274,8.72607000654953,-1.01313309525189,-0.459049085208779,0.429793483346217,-7.22584751118096,4.99578464038012,0.850294452393769,458.965644888838,461.147564672846
0.96,0.655360326256426,0.0411321926860584,6.31593276028506,-2.03498926665292,0.562439806884514,-0.338895969491823,6.5423499502806,-1.1089838032623,-2.05040543408273,463.884980345914,461.147564672846
0.97,0.498835913910378,-0.0762080144224461,13.0839879746981,3.80585909663738,-0.503956776522752,0.0259325638109936,-12.0479522558467,6.36570115747984,1.36778420503826,468.719039099409,461.147564672846
