t,iq,id,vq,vd,ia,ib,va,vb,theta_e,omega,r
0,0,0,0,0,0,0,0,0,0,0,0
0.01,0.00142791966278289,0.00079982834838331,-0.0670652216952069,-0.0401056198026468,0.00125667090081794,0.00104855052204317,-0.0613949960056489,-0.0483410712153554,-0.36484483762613,-0.00831895976002813,0
0.02,0.00162779761167871,0.000918348494245918,-0.0781427700091804,-0.0460485508422955,0.00143877361805561,0.00119290380897113,-0.0709024217123805,-0.0565650787562689,-0.364900454993039,-0.00792382414603078,0
0.03,0.00164543396231071,0.000931513455800331,-0.0796337006566811,-0.0467086586967971,0.00145742257047523,0.00120461184359608,-0.0720538533808791,-0.0577188642516339,-0.364947886643297,-0.00647623610428124,0
0.04,0.00162894846221202,0.00092599299948043,-0.0794624057955308,-0.0464318769808007,0.00144642257570076,0.00119113301529797,-0.0717361289529325,-0.0576551900319656,-0.364981956383487,-0.00522458550123201,0
0.05,0.0016350814173774,0.000931498089732923,-0.0801812474201472,-0.0467079063148904,0.00145378916945843,0.0011948543774847,-0.0722522632692946,-0.0582260371538025,-0.365011308425133,-0.00429403152958751,0
0.06,0.00163135278198382,0.000931494585831593,-0.0803788472207701,-0.0467077270420523,0.00145248217677393,0.00119133940960332,-0.072323967191481,-0.058409028545768,-0.365034184491283,-0.00350695493329574,0
0.07,0.00166307007075254,0.000949907051000658,-0.0820068370880782,-0.0476309674390553,0.0014810255199833,0.0012143676852304,-0.0737685971534433,-0.0595988629286159,-0.365051946644735,-0.00314736257126226,0
0.08,0.00162618971312681,0.000931497748147834,-0.0806536489667883,-0.0467078758953849,0.00145067973345493,0.00118646927850117,-0.0724240703844572,-0.0586633683934343,-0.365065976841149,-0.0024132374989231,0
0.09,0.00162440894269288,0.000931480409254757,-0.0807442945793029,-0.0467070307106405,0.00145004044737537,0.00118479655084806,-0.0724562703433438,-0.0587475677185552,-0.365076666102273,-0.00204518432038222,0
0.1,0.00162305145916903,0.00093147762095364,-0.0808158366285948,-0.0467068742886585,0.00144956302333093,0.00118351748565024,-0.0724821547555418,-0.0588138486905079,-0.365084972231589,-0.00175937428788961,0
0.11,0.00162199667569775,0.000931475461434281,-0.0808714159363902,-0.0467067587342082,0.00144919205078946,0.00118252363661679,-0.072502270168947,-0.0588653382506308,-0.365091426697682,-0.00153727916939389,0
0.12,0.00162117672214626,0.000931473782853998,-0.080914571640357,-0.0467066812162264,0.00144890365817035,0.00118175105750484,-0.0725179012895098,-0.0589053135679759,-0.365096442286411,-0.00136469501649143,0
0.13,0.00168609769524756,0.00096735072612866,-0.0837833770858819,-0.0485056450253714,0.00150560334290929,0.00122957368184309,-0.0752229707269132,-0.0609422394588546,-0.365103006049596,-0.00161843024963779,0
0.14,0.00188461584939668,0.0010816108004376,-0.0942598314998423,-0.0542349491979,0.00168321779602764,0.001374204014896,-0.0843154895450492,-0.0686821939927384,-0.365107072570316,-0.00292601181974032,0
0.15,0.00161917670960977,0.000931581461421446,-0.0810441352662466,-0.0467120790113718,0.00144830642946843,0.00117982444565589,-0.0725700167300652,-0.0590234094103041,-0.365110235015473,-0.000891939694157157,0
0.16,0.00161878764200234,0.000931468972535648,-0.0810403205177514,-0.0467064518811736,0.00144806341008235,0.00117949999452174,-0.0725634470994076,-0.0590217954826837,-0.365111059261584,-0.000861729982051712,0
0.17,0.00161868331364861,0.000931468674587375,-0.0810457560193041,-0.0467064108119088,0.00144802663457196,0.00117940172426201,-0.0725653872135367,-0.0590268409981496,-0.365111698190135,-0.000839742460979852,0
0.18,0.00161860205575417,0.000931468508213248,-0.0810499511275813,-0.0467064111687069,0.00144799805126059,0.00117932516306156,-0.0725669147335888,-0.0590307234251087,-0.365112194679323,-0.000822657976487023,0
0.19,0.00161853895864988,0.000931468378975464,-0.0810531953855936,-0.0467064114637218,0.00144797585642822,0.00117926571259389,-0.0725680961602486,-0.0590337257312344,-0.365112580483774,-0.000809382083964828,0
0.2,0.00161848994779555,0.000931468278547753,-0.0810556994270094,-0.0467064088004184,0.00144795861660058,0.00117921953412759,-0.0725690054503607,-0.0590360439103012,-0.36511288027877,-0.000799065744568421,0
0.21,0.00161845176357008,0.000931468200508172,-0.0810576223537635,-0.0467064090106483,0.00144794518454737,0.00117918355742739,-0.0725697059902009,-0.0590378231035928,-0.365113113237236,-0.000791049194391903,0
0.22,0.0016184221940784,0.000931468139866373,-0.0810591037196989,-0.0467064091915828,0.00144793478342285,0.0011791556966007,-0.0725702457756647,-0.0590391936214587,-0.365113294259506,-0.00078481974863031,0
0.23,0.00161839914384473,0.000931468092744127,-0.0810602333053552,-0.0467064093503574,0.00144792667506428,0.00117913397891633,-0.0725706575531474,-0.0590402384838135,-0.365113434923365,-0.000779979013691396,0
0.24,0.00161838121588521,0.000931468056127559,-0.081061092291085,-0.046706409491708,0.0014479203684698,0.00117911708752203,-0.0725709708438887,-0.0590410328653417,-0.365113544225982,-0.000776217408627975,0
0.25,0.00161836736246195,0.000931468027675131,-0.0810617457516015,-0.0467064096192029,0.00144791549559779,0.00117910403445619,-0.0725712092990939,-0.0590416370426935,-0.365113629158186,-0.000773294366394161,0
0.26,0.00162620844318816,0.000935513634198398,-0.0813982078650209,-0.0469092718339078,0.00145449430875149,0.00118498352996026,-0.0728808440960267,-0.0592834765468023,-0.36511378071234,-0.00082524179707661,0
0.27,0.00157039148094951,0.000905181363984022,-0.0790239841144433,-0.0453882937872329,0.00140623203554829,0.00114367572648041,-0.0706124117771777,-0.0576088064556648,-0.365114083875349,-0.000409530025103907,0
0.28,0.00150156648974124,0.000864214014071393,-0.0744072282968888,-0.0433340862014806,0.00134339132175637,0.00109401441574638,-0.0670451992172965,-0.0540298057710344,-0.365114594958924,0.000107617885801452,0
0.29,0.00161823930217589,0.000931417692959927,-0.0810574844727357,-0.0467038871404564,0.00144782286897148,0.00117900224679544,-0.0725673373302432,-0.0590385502521443,-0.36511372653421,-0.000769125120636056,0
0.3,0.00161811217929876,0.000931158840206679,-0.081010338548592,-0.0466909026277639,0.00144753251555382,0.00117897982463843,-0.072538216192576,-0.0589993434840755,-0.365111034800978,-0.000857622913552289,0
0.31,0.00161868645684646,0.000931468450413518,-0.0810447148817614,-0.046706400279655,0.00144802752001883,0.00117940477401189,-0.0725650042599846,-0.0590258739376028,-0.365111674918943,-0.00084052681278829,0
0.32,0.0016186049661372,0.000931468514123189,-0.0810489792729534,-0.0467064122784388,0.00144799907452504,0.00117932790579274,-0.0725665676933384,-0.0590298165533255,-0.365112176516344,-0.000823271290054874,0
0.33,0.00161854117054099,0.000931468383727762,-0.0810522552821996,-0.0467064125758299,0.00144797663389976,0.0011792677975341,-0.0725677606933045,-0.059032848228709,-0.36511256629439,-0.000809858677115159,0
0.34,0.00161849169402537,0.000931468282265981,-0.0810547878746632,-0.0467064099141114,0.00144795923048153,0.00117922117999974,-0.0725686803611468,-0.0590351928523433,-0.365112869176689,-0.000799436092294204,0
0.35,0.00161845316055393,0.000931468203422739,-0.0810567335364617,-0.0467064101255298,0.00144794567580813,0.00117918487388667,-0.0725693891612111,-0.0590369931075749,-0.365113104534873,-0.000791336981649314,0
0.36,0.00161842312540097,0.000931468142156361,-0.0810582229752478,-0.0467064103080475,0.00144793511003235,0.00117915657561686,-0.0725699319405149,-0.0590383710303537,-0.365113287421539,-0.000785043380360201,0
0.37,0.00161839995875198,0.000931468094548595,-0.0810593710048728,-0.0467064104672174,0.001447926961362,0.00117913474726657,-0.0725703503892881,-0.0590394330156868,-0.365113429534061,-0.000780152791888683,0
0.38,0.00161838179796182,0.000931468057555282,-0.0810602372271502,-0.0467064106093604,0.00144792057260984,0.00117911763689343,-0.0725706663309942,-0.0590402340748031,-0.365113539962503,-0.000776352446983881,0
0.39,0.00161836782812323,0.000931468028809427,-0.0810608995175285,-0.0467064107372508,0.00144791565892852,0.00117910447392417,-0.0725709079908936,-0.0590408464363858,-0.365113625769442,-0.00077339930105919,0
0.4,0.00161835688508301,0.000931468006473191,-0.0810613917845526,-0.0467064108548492,0.00144791180940858,0.00117909416365017,-0.0725710878039251,-0.0590413013740864,-0.365113692444283,-0.000771104490707826,0
0.41,0.00161834838676453,0.000931467989117506,-0.0810617565873067,-0.0467064109641306,0.00144790881991085,0.00117908615669863,-0.0725712212196171,-0.0590416383314642,-0.365113744251552,-0.000769321255233398,0
0.42,0.00161834186750653,0.000931467975631741,-0.0810620263735311,-0.0467064110666869,0.0014479065270401,0.00117908001369996,-0.072571320020782,-0.059041887376291,-0.365113784506054,-0.000767935550859635,0
0.43,0.00161833674523238,0.000931467965154099,-0.0810622151992487,-0.0467064111639693,0.00144790472519427,0.00117907518752528,-0.0725713893795765,-0.0590420614506722,-0.36511381578288,-0.000766858757219355,0
0.44,0.00161833323255067,0.000931467957013118,-0.0810623672896061,-0.0467063726705615,0.00144790349201951,0.00117907187411023,-0.0725714091630178,-0.0590422154964583,-0.365113840083607,-0.000766022009812628,0
0.45,0.00161833008933699,0.000931467950688073,-0.0810624467969178,-0.0467063727572302,0.00144790238606986,0.00117906891300963,-0.0725714387472157,-0.0590422883618139,-0.365113858963441,-0.000765371795878073,0
0.46,0.00161832764461524,0.000931467945774444,-0.0810624904923472,-0.0467063728407426,0.00144790152587222,0.00117906660995385,-0.0725714552929191,-0.0590423280827254,-0.365113873630814,-0.000764866532098582,0
0.47,0.00161832578197009,0.000931467941957321,-0.0810625083511394,-0.0467063729217299,0.00144790087067252,0.00117906485495458,-0.0725714624178567,-0.0590423439085531,-0.365113885024431,-0.000764473905191076,0
0.48,0.00161832438498623,0.000931467938992474,-0.0810625067802274,-0.046706373000746,0.00144790037953724,0.00117906353829972,-0.0725714624533078,-0.0590423417706934,-0.3651138938748,-0.000764168805368934,0
0.49,0.00161832322083302,0.000931467936689906,-0.0810624836156938,-0.0467063730786857,0.00144789996982287,0.00117906244175431,-0.0725714546608917,-0.0590423196064666,-0.365113900748007,-0.000763931720497699,0
0.5,0.00161832240592577,0.0009314679349015,-0.0810624521558805,-0.0467063731552269,0.00144789968347861,0.00117906167347326,-0.0725714438146349,-0.0590422898056893,-0.365113906085753,-0.000763747488211827,0
0.51,0.846849913556442,-0.112695734650199,4.63872594696456,5.65251415879964,-0.265178470421462,0.812117900014422,4.71222078212911,5.59139249444565,0.183313377527898,51.6391611558287,140.604770509166
0.52,0.532718496465797,-0.088604891549142,1.88149996235458,4.44597711000494,-0.412677824889753,0.348334374025127,2.16713275556073,4.313964556044,0.704930261291341,87.771860106902,140.604770509166
0.53,0.366324412344169,0.0807140479299915,-1.07415417228972,-4.04260544701024,-0.352178345316207,0.129146218306555,0.521901721295129,-4.15019090878401,1.43618580451759,110.00145555516,140.604770509166
0.54,0.224155570202848,-0.00790218262750617,-0.98985900398947,0.401240757263511,-0.162412051991974,-0.15469482703374,0.474039497471533,0.957131938608966,2.29662441564085,123.618921525331,140.604770509166
0.55,0.152884365481871,0.0358903131267345,-1.38482084608153,-1.80372171260444,-0.0217230298111785,-0.155530877194697,1.66916804514554,1.54435061735595,-3.04978570507254,131.251072088525,140.604770509166
0.56,-0.0313991835310278,-0.0133267493441615,5.45645854243039,0.66509132469321,-0.0212241021812988,0.0267029672713551,4.47655363408409,-3.18994574508914,-2.06862950918531,135.805248096551,140.604770509166
0.57,0.0432043922698732,-0.0055418698348446,0.398508394108558,0.278616326671695,0.0350655229325912,0.0258406837010819,0.483687432275658,-0.0498243466750082,-1.06328978601963,138.546378936019,140.604770509166
0.58,-0.0220019948488915,-0.0680592703175258,2.96134791059529,3.41657697417734,-0.068948380176546,-0.0190334685361124,3.54163667229841,2.81058523256224,-0.0433269515236932,139.657576962638,140.604770509166
0.59,0.0878875924035533,-0.0244343694807964,-2.8213135119429,1.23037419147395,-0.0866854415821884,0.0284060121826032,3.03005483929908,-0.540738619442864,0.982962478868073,140.323899516854,140.604770509166
0.6,-0.0338006770091213,-0.129247520578609,3.33180373945988,6.47571663335793,0.0856246236034104,-0.102546726787193,-5.77236255771556,4.44023113994203,2.01071621512344,140.238909889181,140.604770509166
0.61,0.110421816173987,-0.000943907775141278,-4.25593870644781,0.0445737085107545,-0.0100750856988945,-0.10996527223269,0.38016729252517,4.23915957687667,3.04167912954433,140.961568002401,140.604770509166
0.62,0.0456363679067457,0.0970025919069509,-1.21579264462159,-4.86330006881031,-0.020885118513619,-0.105147480887839,1.90978727678355,4.63492738577877,-2.20661330624739,141.464942806988,140.604770509166
0.63,0.0416243636441055,0.0136288518989079,-1.0878795318867,-0.679185955681854,0.0436395507865378,0.00373133488289162,-1.26683624068594,0.199753291783199,-1.16907672636629,141.469337139219,140.604770509166
0.64,0.0107785770695824,-0.00473172267816554,0.342084735167804,0.241881638301273,-0.00328126107505965,0.0113048772176124,0.284547512253491,0.307508384036084,-0.131173430635059,141.504917316698,140.604770509166
0.65,-0.0334489422245248,0.114355210079427,2.83836500227962,-5.73961503162622,0.0970651190038878,0.0690963709684566,-5.78239612364499,-2.75016211643802,0.903200945135074,141.071501845096,140.604770509166
0.66,0.0221074067159713,0.0596604984833571,-0.134419304902032,-2.99446193315795,-0.0421041790995739,0.0477006353557165,1.20348466919179,-2.74526783204894,1.93909029154798,141.534374889712,140.604770509166
0.67,-0.0488288669422706,0.0341532262067795,3.14394044972493,-1.71186250221897,-0.0257079963353941,0.0537568603214211,1.17465881935428,-3.38156937471837,2.97731582838781,141.894233767453,140.604770509166
0.68,-0.024516493293842,0.0403998535346408,2.10442244640042,-2.02176980706478,-0.0447195259272069,-0.0152764724296318,2.91126158407544,0.201749782550672,-2.26697679440592,141.565528290953,140.604770509166
0.69,0.00594517859249265,-0.00418627691240474,0.672693860905766,0.213008236657169,0.00419819316768625,0.00593676991391432,0.705177699949109,0.024778032177466,-1.22901268735124,141.253045117212,140.604770509166
0.7,-0.058815903445961,0.0495230497719315,4.21819243950392,-2.48870225903344,0.0371240837799568,-0.0673323500286197,-1.61980866425624,4.62201322823795,-0.195948306103586,140.729454515764,140.604770509166
0.71,0.0857090007995787,0.0387676387758583,-3.06076937343935,-1.94632914828452,-0.0376204284682895,0.0862187102442384,0.966846608992367,-3.49595679972253,0.836213094605137,140.993214354373,140.604770509166
0.72,-0.00184318577174322,0.00580285338236852,0.978222137144904,-0.289777343358846,3.83133115804456e-05,0.00608842945730491,-0.848180880676184,-0.566990874688321,1.87205919996599,141.647623915072,140.604770509166
0.73,0.0178165617529107,-0.0249936077031624,-0.0584583519553584,1.25761109857411,0.0202371269173767,-0.023077456377271,-1.21062059040151,0.345544266724275,2.91000847658151,141.524423321121,140.604770509166
0.74,-0.0251460206953404,0.040661343810116,2.17669520279656,-2.03823857190128,-0.0462964872572535,-0.0119290613584602,2.98179405313121,-0.0363690331886402,-2.33555365932956,141.515757233237,140.604770509166
0.75,0.0141279048472478,0.000499458567180002,0.394375773750424,-0.030143285265168,0.013745850465426,0.00330132537253828,0.371907572158376,0.134631446323233,-1.29975376819166,141.150639963621,140.604770509166
0.76,0.0234647140999456,0.0761497095938608,-0.0782142710323446,-3.82079080003904,0.0796350889906151,0.00276110131620219,-3.7085952635003,0.922432101240635,-0.264249129491026,141.226146844197,140.604770509166
0.77,0.0449180957594394,0.0543763201504803,-1.12210404124912,-2.72486081269367,0.00773495740722303,0.0701041364947186,-1.17378611129765,-2.70300020215796,0.770475215431139,141.022184745512,140.604770509166
0.78,-0.0273358762413044,0.100015717638974,2.36936378388152,-5.0109563991187,0.00332187397087085,0.103630878882892,-1.13879861902253,-5.42463883401931,1.80555218636052,141.351138353918,140.604770509166
0.79,-0.0699686336638968,-0.0991186818226617,4.65873411879636,4.96845108937667,0.11541282707029,0.0374166023403786,-6.12678834832896,-2.97519316212342,2.84041913626683,140.874942803713,140.604770509166
0.8,-0.041406156746576,-0.0620449072977952,3.21567436544079,3.10591952851951,0.0184824243243094,0.0722664536919461,-0.161399524771099,-4.46780124172904,-2.40966398256953,141.150824377023,140.604770509166
0.81,-0.0320440628253231,-0.0323586777047761,2.62087330826539,1.62033947291005,-0.0377413167786161,0.0254852701176774,2.88663102838408,-1.07788599184639,-1.37444259601738,141.279981536863,140.604770509166
0.82,-0.0438037486872837,0.0147742939009915,3.11949910548047,-0.739164607937507,-0.00062375285401532,-0.0462240099051206,0.33962084970302,3.18783573371776,-0.338795044351655,141.407574147628,140.604770509166
0.83,0.0510483664582097,0.0171148987450582,-1.34277526265089,-0.853592816876956,-0.0195626128512801,0.0501613362614693,0.204827851337723,-1.57788201533812,0.695341746368372,140.777648499083,140.604770509166
0.84,-0.011455367118842,-0.00236997749292363,1.97164279515855,0.115371607994281,0.0116843366346256,-0.000564363848202377,-1.96567424711045,-0.191861079634621,1.72654268386503,140.387008832319,140.604770509166
0.85,0.000344264204855261,0.0156782393941838,1.29929643437894,-0.790943059688772,-0.0146598637644961,0.0055690306832064,0.245083353645055,-1.5012315936676,2.75659346150388,140.54221012023,140.604770509166
0.86,-0.00810355432686991,-0.0220650585583099,1.64273396120166,1.10474722351371,0.01272264661395,0.0197653399931983,0.108577863354166,-1.97667704563391,-2.49468448935385,140.742179672111,140.604770509166
0.87,0.0918050701993231,-0.0226145750010832,-3.57566695741479,1.13657733236379,0.0887365773393489,0.0326406151731245,-3.42783331375518,-1.52550352208747,-1.45984405830336,141.181348381642,140.604770509166
0.88,0.0682836656321069,0.0360598666223385,-2.37942504823471,-1.80344010498909,0.0610024694062476,0.0473462955184252,-2.62396262368071,-1.42438756031372,-0.424910437971617,141.177246859875,140.604770509166
0.89,-0.008764437005526,0.0550315714457732,1.76655845927264,-2.76469935759186,0.0502013637830324,0.0241890943637565,-3.27848316908602,-0.125854828736332,0.606951050047161,140.584992049264,140.604770509166
0.9,0.0913324277350182,-0.00204917441661976,-3.47957634329098,0.0984112318085862,-0.0909812948715416,-0.00825926481350839,3.46481471390253,0.334955665216831,1.63889531787056,141.050666951327,140.604770509166
0.91,-0.0435536917491624,0.0297850364579133,3.36831951773789,-1.49514145539528,-0.00686745877329034,0.0523154897881826,-0.189846864657567,-3.6803508682183,2.67229861596158,141.00319698061,140.604770509166
0.92,-0.020329512915265,0.0275588678660949,2.12847045867641,-1.37961783129473,-0.0341579776653318,0.00245211240515231,2.30366254228515,-1.06154168319331,-2.577690195213,140.919072398449,140.604770509166
0.93,-0.054903247712903,-0.00485605119183212,3.80374024877585,0.247690150105154,-0.0550125956364581,0.0034003182118193,3.80896579009224,-0.146866948369811,-1.54430973796186,141.19414205073,140.604770509166
0.94,0.0154257798255142,0.00455741531386148,0.460171738856614,-0.233885262863709,0.0115194757324122,0.011226147888685,0.0210514615009025,0.515768534708955,-0.511024018596482,140.675498252708,140.604770509166
0.95,-0.131776868687451,-0.0377354429820279,7.74774757080959,1.88697775947649,0.032774644725745,-0.133097443406028,-2.214729342439,7.66049942402482,0.520337161691226,140.789242179101,140.604770509166
0.96,0.0115926393678827,-0.0258601562548445,0.519606126451154,1.29547509192404,-0.0120562506167869,-0.0256472959608607,-0.496203056259604,1.30461824584811,1.55279509747058,141.12881087665,140.604770509166
