t,iq,id,vq,vd,ia,ib,va,vb,theta_e,omega,r
0,0,0,0,0,0,0,0,0,0,0,0
0.01,0.000565998184704821,0.000319880633990543,-0.0272062917806414,-0.0160025496344759,-0.000649889233541072,-1.79317935171665e-05,0.0315619736645657,0.000325154816239926,2.11279069361071,-0.00250927031281827,0
0.02,0.00069800230040374,0.000391806121495794,-0.0336514001198452,-0.0196007307010444,-0.000800077668409287,-2.43920627099958e-05,0.0389394965943102,0.000566550105893772,2.11277041405446,-0.00296128319552879,0
0.03,0.000749083132380601,0.000419850131870582,-0.0361496890344369,-0.0210036813732164,-0.000858304684495037,-2.66972100181515e-05,0.0418034565950256,0.000652430242935667,2.11274862195918,-0.00302986767538554,0
0.04,0.000738000233532035,0.000413762766333966,-0.035684706010092,-0.0206991642970526,-0.000845670553525054,-2.61779754431636e-05,0.0412480453342757,0.000672608150863684,2.11272776738539,-0.00281991819233985,0
0.05,0.000755389173133223,0.000424118214898773,-0.0365733294530024,-0.0212172021323648,-0.000865909684023028,-2.62579932774036e-05,0.0422765549123787,0.000686293191068887,2.11270768034852,-0.00274666628395899,0
0.06,0.000758061671724864,0.000426131186344217,-0.036758611722609,-0.0213179055303312,-0.000869238016947005,-2.58950962049519e-05,0.0424872443847613,0.000694763674366237,2.11268842010261,-0.00261208786957475,0
0.07,0.000769151598128088,0.000433134163607047,-0.0373409641164995,-0.0216682487868028,-0.000882351440074161,-2.55992340827317e-05,0.0431668705081763,0.000694188135036852,2.11267041313585,-0.00252574987209617,0
0.08,0.000759224625864663,0.000427881342542829,-0.0369206826505171,-0.0214054516675518,-0.000871137901730851,-2.49646146287443e-05,0.0426712736250915,0.000701837363399276,2.11265298888256,-0.00234726685879072,0
0.09,0.000756411094672847,0.000426856857407519,-0.0368357759855884,-0.0213542127101597,-0.000868199443683304,-2.43771788359193e-05,0.0425721157085576,0.000701253897232329,2.11263669021436,-0.00221005924777098,0
0.1,0.000755107380187044,0.000426655456841168,-0.0368199179889665,-0.0213441398016288,-0.000866978973351451,-2.38640782715694e-05,0.0425533452261316,0.000701052531097587,2.11262133873145,-0.00208701228427601,0
0.11,0.000754155827717166,0.000426614365944509,-0.0368182094836361,-0.0213420807745034,-0.000866142861043552,-2.3396024732605e-05,0.0425508297510682,0.00070131937228957,2.11260685740637,-0.00197221789520297,0
0.12,0.000753315336665028,0.000426604581809601,-0.0368193303657923,-0.0213415815785857,-0.000865418016388055,-2.29591503905106e-05,0.0425515422604146,0.000701743629063341,2.1125931923759,-0.00186415790675978,0
0.13,0.000781503972957715,0.000443042793536767,-0.0382017762149303,-0.0221639329832414,-0.000898046681861066,-2.33994412729102e-05,0.0441600756050131,0.000709474327062649,2.11257990336245,-0.00189237427677336,0
0.14,0.000797870494939164,0.000452871415828579,-0.0391204340106554,-0.0226556250989501,-0.000917137934696647,-2.34062963626842e-05,0.0452007308364634,0.000761339382802526,2.11256712617359,-0.0018701627392715,0
0.15,0.000760513546001445,0.00043171000510973,-0.0372772976485929,-0.0215970044081342,-0.000874218921332148,-2.22634172666713e-05,0.0430756640386065,0.0007174169079831,2.11255494430976,-0.0016055954973552,0
0.16,0.000752306214989093,0.000427589916287375,-0.0369192464517745,-0.0213908750174554,-0.000865062591556472,-2.15520372925836e-05,0.042662603064406,0.000708937478338917,2.11254404604034,-0.00148477596706328,0
0.17,0.000750136302941243,0.000426786688414699,-0.0368464976828932,-0.0213507053134574,-0.000862789434593953,-2.11126017200467e-05,0.0425795655741042,0.000705410800958737,2.11253388441881,-0.0013973217187378,0
0.18,0.000749238352304869,0.000426629101541643,-0.0368325249279029,-0.0213428126228967,-0.000861939000811417,-2.07763742496353e-05,0.0425635305891718,0.00070456156956054,2.11252432012001,-0.00132026624771803,0
0.19,0.000748627809552882,0.00042659724708606,-0.0368306013644259,-0.0213412227238957,-0.00086139963627547,-2.04810908361737e-05,0.0425610690212866,0.000704548068944731,2.11251529935032,-0.00124867663575949,0
0.2,0.00074810050525717,0.000426589930363119,-0.0368311088120816,-0.021340857788169,-0.000860944228965378,-2.02081484667635e-05,0.0425613216505147,0.000704760117825685,2.11250678735935,-0.00118134893941019,0
0.21,0.000747613015296975,0.000426587451973511,-0.0368320682541645,-0.021340728529693,-0.000860525416342028,-1.99520087226143e-05,0.0425620827460229,0.000705023672073219,2.1124987546552,-0.00111785850744912,0
0.22,0.000747154891343234,0.000426585974305372,-0.0368330633615973,-0.0213406650899598,-0.000860132268568398,-1.9710547926541e-05,0.0425629080243957,0.000705268451089151,2.11249117408633,-0.00105795127886788,0
0.23,0.000746723222599474,0.000426584747148235,-0.0368340332680972,-0.0213405925497594,-0.000859761905911655,-1.94828851052925e-05,0.0425637067227073,0.000705526182010741,2.11248402016948,-0.00100141773331602,0
0.24,0.000746315681113198,0.000426583621380724,-0.0368349382836512,-0.0213405392512547,-0.000859412257840309,-1.92679261876235e-05,0.0425644594619178,0.00070575109599302,2.11247726888506,-0.000948066377153947,0
0.25,0.000745931306274377,0.000426582565043882,-0.036835802082072,-0.0213404859251356,-0.000859082485723834,-1.90651829829933e-05,0.0425651766068582,0.000705970946613885,2.11247089757033,-0.000897717779553373,0
0.26,0.000750952212943503,0.000429679909556701,-0.0370926804026909,-0.0214954308213537,-0.000864981647083342,-1.89947627094521e-05,0.0428651712513636,0.00070539297065015,2.11246499212187,-0.000875763119828207,0
0.27,0.000738217978289058,0.000422441987588016,-0.036504086947243,-0.0211333564390421,-0.000850338804086375,-1.86261808068925e-05,0.0421741660071595,0.000711926844579394,2.11245905641161,-0.000771980821604491,0
0.28,0.000737414308443843,0.000422193970689786,-0.0363844295185435,-0.0211209406947901,-0.000849522408259293,-1.84198004834313e-05,0.0420652396877407,0.00066064910173514,2.11245369682423,-0.000727419916070765,0
0.29,0.000743054265116011,0.000425725292122004,-0.0367653312748112,-0.0212976063922112,-0.000856175722481891,-1.82974722864474e-05,0.042482702089926,0.000705439524528555,2.1124487742931,-0.000715805173254194,0
0.3,0.000733070002981969,0.00042041483914328,-0.0363018362698638,-0.021031940001105,-0.000844882880972633,-1.76969964467911e-05,0.0419485904856777,0.000693954637560903,2.11244478889169,-0.000639531556877353,0
0.31,0.000741765982784536,0.000425377919470368,-0.0367290747287419,-0.0212802262412054,-0.000854892908269972,-1.79238103916653e-05,0.0424426808521155,0.000701285528054544,2.11244042986714,-0.000646257706251183,0
0.32,0.000743355886236641,0.000426343330425777,-0.0368175980232695,-0.0213285229116024,-0.000856753026035323,-1.79126039570523e-05,0.0425434352539103,0.000705358483433467,2.11243616988394,-0.000621081909800685,0
0.33,0.000743492223563827,0.0004265306966203,-0.0368362657929941,-0.0213378951020512,-0.000856966515927859,-1.78188730773813e-05,0.0425642656207849,0.00070677940088882,2.11243211949799,-0.000590824143125191,0
0.34,0.000743339780348044,0.000426566659968413,-0.0368405129049084,-0.0213396893221753,-0.000856854500722551,-1.77061863763506e-05,0.0425688325262165,0.000707268561874287,2.11242829085439,-0.000560929498949556,0
0.35,0.000743137771071221,0.000426573183697862,-0.0368417536091165,-0.0213400290101846,-0.000856684832145986,-1.75933570939853e-05,0.0425700733249977,0.000707463253241992,2.11242467640913,-0.000532441139742338,0
0.36,0.000742935266360656,0.000426574004239277,-0.036842358731798,-0.0213400629048993,-0.000856511794531224,-1.7485334541051e-05,0.0425706117245669,0.000707600949490014,2.11242126512478,-0.000505499190876442,0
0.37,0.000742741841951868,0.000426573739979246,-0.0368428182707882,-0.0213400414895982,-0.000856345974282855,-1.7383088203273e-05,0.0425709967291166,0.000707719154496383,2.11241804577653,-0.00048006182414271,0
0.38,0.000742558458531822,0.000426573288392151,-0.036843209210395,-0.0213400261118085,-0.000856188657558188,-1.72863349370943e-05,0.0425713259379842,0.000707804531998077,2.11241500760556,-0.000456053679626167,0
0.39,0.00074238543607272,0.000426572822821672,-0.0368435786695179,-0.0213400092426985,-0.000856040208172745,-1.71950822764874e-05,0.0425716358517854,0.000707887391039254,2.11241214042397,-0.000433396240492129,0
0.4,0.00074222227962137,0.000426572375745883,-0.036843932113678,-0.0213399731885093,-0.000855900219012465,-1.71090388463018e-05,0.0425719220390241,0.000707985301305242,2.11240943461006,-0.000412013883686734,0
0.41,0.000742068232859167,0.000426571952296513,-0.0368442602584168,-0.0213399562558701,-0.000855768044886376,-1.70278024458539e-05,0.0425721962981953,0.000708060266027422,2.11240688108185,-0.00039183492785977,0
0.42,0.000741922742620338,0.000426571552348963,-0.0368445625673536,-0.0213399378372801,-0.000855643211951343,-1.69510805637057e-05,0.0425724475520251,0.000708129302234347,2.11240447126935,-0.000372791661138507,0
0.43,0.000741785459664084,0.000426571174818649,-0.0368448471088655,-0.0213399208440535,-0.000855525420591472,-1.68786870639957e-05,0.0425726842205912,0.000708193730533054,2.11240219708367,-0.000354820169182596,0
0.44,0.000741655976531587,0.000426570818492947,-0.0368451175856364,-0.0213399023671229,-0.000855414321223601,-1.68104063107052e-05,0.0425729079823141,0.000708257627649811,2.11240005089148,-0.00033786013206455,0
0.45,0.000741533769359121,0.000426570482191254,-0.0368453705613914,-0.0213398853187277,-0.000855309464521243,-1.67459630123046e-05,0.0425731173990296,0.000708316420212202,2.11239802548968,-0.000321854624161179,0
0.46,0.000741418488898117,0.000426570164791312,-0.0368456099894275,-0.0213398682445515,-0.00085521055079946,-1.66851721998478e-05,0.0425733151132803,0.000708373103071942,2.11239611407949,-0.000306749923565746,0
0.47,0.000741309611276969,0.00042656986523205,-0.0368458299552199,-0.0213398496914271,-0.000855117130760864,-1.66277591697527e-05,0.042573495312362,0.000708425599461378,2.11239431024547,-0.000292495331873748,0
0.48,0.000741206903670337,0.000426569582512489,-0.0368460379594088,-0.0213398325703326,-0.000855029004521117,-1.65735995207624e-05,0.0425736659283221,0.00070847502401478,2.11239260793332,-0.000279043004037193,0
0.49,0.00074110981328967,0.000426569315686546,-0.036846224368319,-0.021339831641515,-0.000854945698041866,-1.65224041605328e-05,0.0425738263191312,0.000708503519513525,2.11239100142932,-0.00026634778777876,0
0.5,0.000741018397969039,0.00042656906386201,-0.036846409101428,-0.0213398144755668,-0.000854867260537969,-1.64741990099879e-05,0.0425739768398344,0.000708548913379421,2.11238948534084,-0.000254367072041043,0
0.51,1.14158096510914,0.00973209587725056,1.32362779545724,-0.486625826813352,-0.0198051263715205,1.14145064306745,-0.520706664808485,1.31059521037306,0.0258739951591381,7.93650783924166,139.769226681543
0.52,1.12286272618341,0.0263422859377804,-1.15653723351664,-1.3173134306816,-0.103072178404096,1.11843227060001,-1.1754434630096,-1.30047134241107,0.115353782772239,16.3772465533427,139.769226681543
0.53,1.04680931337525,-0.0302883220925867,-0.571704921474419,1.51631930985465,-0.303222833042079,1.0023886644143,1.61309584554077,-0.154895318764819,0.264823157044169,24.3243546688154,139.769226681543
0.54,0.972879184382158,0.0118003079919743,0.0715792478999264,-0.589192627890684,-0.430974056547838,0.872292678666684,-0.557515064437406,-0.203589033142762,0.471021414450426,31.8628787826475,139.769226681543
0.55,0.924490354983015,-0.00608642280714081,-0.39862066171654,0.30601407445571,-0.621648246795033,0.68430469694126,0.493942928962761,-0.0925387953239394,0.730873905183719,39.0051290188015,139.769226681543
0.56,0.89905883500601,0.039118717591468,-1.8846096923498,-1.95536128670525,-0.756446847399583,0.487468183502879,0.640304555304344,-2.63916682506069,1.04183830905557,45.7841992801119,139.769226681543
0.57,0.793547357068147,-0.03810205485031,0.745057280929181,1.90842204718938,-0.788612528421284,0.0962260594155551,-0.41265546183039,2.00671386397903,1.40139910597212,52.2868520509411,139.769226681543
0.58,0.761177121291336,0.0327084311710867,-0.192274613740809,-1.63421066468803,-0.747573971800526,-0.146947637386335,0.570647653453599,-1.54336492096885,1.80783224420297,58.5759075888302,139.769226681543
0.59,0.698663078783242,-0.0630609497348918,0.407810775545367,3.15702417186039,-0.499121175094433,-0.492934918228256,-2.32222917362471,2.17723745042381,2.25994323762489,64.7517323616641,139.769226681543
0.6,0.679467098837384,0.0502075118567585,-1.02405411065768,-2.51132314007875,-0.301950874848725,-0.610755271632941,2.71208534152532,0.00488218530931972,2.75620210200139,70.539843133697,139.769226681543
0.61,0.607190209885948,-0.0116521524168589,0.460285606886828,0.583504601772883,0.102874557289415,-0.598525311995904,-0.507609997741181,-0.542837499064411,-2.99056375705746,75.7126592863928,139.769226681543
0.62,0.561268997480014,0.0319407130650435,0.902022061739052,-1.5972919481185,0.347308257882677,-0.44206342383172,1.79458392897042,0.380070900318933,-2.41881486933881,80.2176552188468,139.769226681543
0.63,0.552211233488851,0.0302122364986862,-0.356267801861963,-1.51028778488971,0.528494252920762,-0.162922835278719,0.0197336587777715,1.55161416677661,-1.81517277788327,84.3968026764705,139.769226681543
0.64,0.483183067970939,0.00914249826307126,1.50981855364527,-0.45571161736369,0.45061817855459,0.17462164700988,1.22456406677717,0.993814866808651,-1.18217919490349,88.2837311722681,139.769226681543
0.65,0.516245787370664,0.00813064211098846,-1.64970061417712,-0.404414123655153,0.264153250259498,0.443620198702039,-1.1722831867778,-1.22915215893973,-0.521318280237429,91.9929126511494,139.769226681543
0.66,0.457869372309485,-0.0418012044065452,-0.224371401383627,2.09394749395668,-0.117069177335594,0.444619512062715,2.10218607359295,0.125587997826818,0.166415757092911,95.6531712042272,139.769226681543
0.67,0.401353727424731,0.0321730810078493,1.10625492510582,-1.60941588152765,-0.289070286119925,0.280282520578447,-1.87763398324087,-0.537131328460124,0.8808219633294,99.2705285747419,139.769226681543
0.68,0.341481750791433,-0.0518670328309222,2.70343057147818,2.59468647235932,-0.338432217150932,-0.0690189076454487,-2.83081860432335,2.45507653120307,1.62123870230742,102.635257683495,139.769226681543
0.69,0.395599593436803,-0.00672242867377598,-1.18898358212561,0.336722661488983,-0.266866313513896,-0.292107172260698,0.572053311685889,1.09536255089978,2.38432819477562,105.510108545418,139.769226681543
0.7,0.34320813406135,0.0431192106507329,0.334631153583884,-2.1562369195117,-0.0341571928266423,-0.344215594927394,2.16422783192548,-0.278304785322353,-3.1155199134406,108.179053640681,139.769226681543
0.71,0.308856876375725,0.0254182052020572,1.02349387959219,-1.26984036525547,0.210352188206847,-0.22757550869295,1.61269302784707,0.243424470274187,-2.31339073707635,110.669004407881,139.769226681543
0.72,0.324594305361891,-0.0184766103432864,-0.767031955371208,0.926926449890965,0.322184035081804,0.0435923816916771,-0.692841533360338,-0.983616426112812,-1.4931710976045,113.113733937202,139.769226681543
0.73,0.296376705539134,-0.0384146088645629,-0.378991764521707,1.92145929539081,0.15003932954104,0.258462827794101,1.29315158835469,-1.470849941685,-0.654858178113634,115.595617697265,139.769226681543
0.74,0.24511570538407,0.0586391005017933,1.26000454469043,-2.93458230979865,0.00860312932939436,0.25188536936339,-3.12684986251704,0.649765129028101,0.200675394710821,117.785129945524,139.769226681543
0.75,0.275373073151337,0.0215692106989745,-1.06178985115058,-1.07893745863481,-0.231392987893342,0.150840463473102,0.415225119539217,-1.45571007682002,1.07126825304015,119.731667849163,139.769226681543
0.76,0.181142604845763,-0.00250796398730599,2.909087783491,0.126546872034958,-0.166959935374988,-0.0703086989870362,-2.74392916197229,-0.974504282677336,1.95552415961788,121.489076681244,139.769226681543
0.77,0.251685590291153,-0.0144380024543656,-1.32507726976554,0.724630076490392,-0.0579224483550059,-0.245355012689042,-0.316742604209803,1.4766829860475,2.85245874773494,123.22187591955,139.769226681543
0.78,0.180367069898499,0.0222477116724304,1.50802705526893,-1.11198229623453,0.0867878206211862,-0.159671897246367,1.78158115718605,-0.580188595994183,-2.52099687529804,124.967189847097,139.769226681543
0.79,0.171911848541274,0.0149927305748309,1.23837207314478,-0.751249596857744,0.171424542744171,-0.0198013076315517,1.25892538397406,0.716273848405477,-1.59880537454644,126.610503242256,139.769226681543
0.8,0.143376823369286,-0.0628962621432891,2.06571648121606,3.14646771720492,0.0390522193238108,0.151617206928995,3.75052204267061,-0.317849152307015,-0.66549045060442,128.023910609185,139.769226681543
0.81,0.138121152003385,-0.0227310008425844,1.79109966948813,1.13825671304755,-0.05973446697568,0.126593619448925,0.603480900309781,2.03457051335155,0.277772447142352,129.309601300878,139.769226681543
0.82,0.126001686911299,0.0440017120479399,1.88115337804944,-2.19952959851845,-0.104064051805392,0.0835658356596009,-2.50785686459301,-1.44475687685481,1.23019030752231,130.529514728227,139.769226681543
0.83,0.174238909241683,-0.00821787379737077,-1.04833524037769,0.412325267536468,-0.136956141905026,-0.108026599215061,0.612956956472327,0.945146904972423,2.19152128727053,131.774765198797,139.769226681543
0.84,0.168387018724035,0.0065368525324753,-1.2818432402632,-0.327977161533183,-0.00307769712051962,-0.16848574508318,0.301585737056269,1.28830786472025,-3.12105650930822,132.992981075868,139.769226681543
0.85,0.148023755355879,-0.0222906346448541,-0.708776205531455,1.1152936082724,0.13655927235295,-0.0613145144069516,-1.19939180916597,-0.554709681082294,-2.14227987078751,134.024653184829,139.769226681543
0.86,0.149235121363166,-0.0111849577047204,-1.15509594377852,0.561070896574931,0.132102869189287,0.0703210969702081,-0.831455564469924,-0.978636211586812,-1.15643638081804,134.932156699186,139.769226681543
0.87,0.0851585481466877,-0.0066291346594687,1.66977631612965,0.33380676251684,0.00736837865795005,0.0850977716790408,0.602040346455812,1.59283625079568,-0.164059734019478,135.814592308448,139.769226681543
0.88,0.0984790541210138,0.00463816325050261,0.594003751894294,-0.233111536369723,-0.0698896564850516,0.0695346861308036,-0.596793822943837,0.225872925666691,0.835007317891939,136.783357752996,139.769226681543
0.89,0.0435034327992009,0.00915564555424197,3.01981043680781,-0.459274827033563,-0.0443705122347154,-0.00276263549142246,-2.78838467514673,-1.24703622417592,1.84040973841928,137.502331384353,139.769226681543
0.9,0.0480080309718528,-0.00664124931091152,2.49572870455537,0.332337839594276,-0.0073967863193917,-0.0478974402484028,-1.03368831764216,-2.29577844495891,2.85090957335143,138.19508899941,139.769226681543
0.91,0.0562963973723438,-0.0365927189497009,1.79038596356627,1.83232225844853,0.0647181885595783,-0.0178848401391655,-0.184734958347641,-2.55514378313733,-2.41679271741425,138.868310863893,139.769226681543
0.92,0.0608561754201622,0.0154325552964393,1.27985878672115,-0.770022867555893,0.0626105860445683,-0.00464245246641485,1.12688839283047,0.980355180845341,-1.39645372466901,139.510386599192,139.769226681543
0.93,0.105280789110036,0.0401584268974994,-1.2168924275297,-2.01060932081547,0.0756239427208582,0.0835330060147846,-2.31513698792367,-0.404373278391233,-0.371339797289215,140.148707992266,139.769226681543
0.94,0.0970092652241852,0.00909102371053623,-1.05400478825598,-0.455481087359453,-0.0521352480015702,0.0823125759969679,0.28422577073118,-1.11247688778731,0.65804368818678,140.69831621914,139.769226681543
0.95,0.0266755464875935,0.0111624609425957,2.23274692786268,-0.557865784945377,-0.027824096539423,0.00787432323895875,-2.14947955589931,-0.82225951904729,1.69131662753626,141.205067521766,139.769226681543
0.96,-0.0106146583567458,-0.0351605419161961,3.9177037807069,1.76081032612681,0.0364613760925077,-0.00441618990892893,-3.18725216415336,-2.87928455697933,2.72786915643963,141.610209963696,139.769226681543
