t,iq,id,vq,vd,ia,ib,va,vb,theta_e,omega,r
0,0,0,0,0,0,0,0,0,0,0,0
0.01,0.00128383000744207,0.000728128063099745,-0.0634384597224019,-0.0364653830550326,0.00145452132894692,0.000250514805791156,-0.0721809833850831,-0.0120028317851839,-0.884320805243928,-0.00207846752119129,0
0.02,0.00142048427304003,0.000806853581235335,-0.0703353574356018,-0.0404080244412716,0.00161012290718533,0.000276210961519263,-0.0800147351316832,-0.0133234044690859,-0.884335949767774,-0.00216207701014326,0
0.03,0.00146440167405308,0.000832212235109298,-0.0725353906863927,-0.0416779934614186,0.00166016943573754,0.000284406244442659,-0.0825215651001718,-0.0137342394917149,-0.884350970040937,-0.00208760471675916,0
0.04,0.00143732619574081,0.000817954103575494,-0.0712453510570568,-0.0409639502931844,0.00163019351025935,0.000278252812433305,-0.0810713411907534,-0.0134678472072633,-0.88436442768247,-0.00190676437509182,0
0.05,0.00146195887240647,0.000832371843774084,-0.0724927589641044,-0.0416860114330208,0.0016583885671946,0.000282690627920509,-0.0824940339411855,-0.0136988326339223,-0.884377460453194,-0.00181899890638023,0
0.06,0.00146111867841191,0.00083258970103741,-0.0724870094223332,-0.0416969063178684,0.0016578801636124,0.000281969441213523,-0.0824966579987186,-0.0136857572138692,-0.884389631970425,-0.00169606743145492,0
0.07,0.00150142325210581,0.000856068542602833,-0.0744984154851218,-0.0428727452679266,0.00170394012082598,0.000289332328365972,-0.0847978964574661,-0.0140500161206748,-0.884400818867658,-0.00165365055011802,0
0.08,0.00145953581990118,0.000832946908289828,-0.0724728216883537,-0.041714808534212,0.00165688828109941,0.000280653853634056,-0.0824973269765579,-0.0136611191430559,-0.884411433401875,-0.00147574084308909,0
0.09,0.00145783531857873,0.000832583629874023,-0.072417724395445,-0.0416966091518825,0.00165534537053677,0.000279841063949238,-0.0824433059352162,-0.0136394768173792,-0.884421169633889,-0.00137563870931146,0
0.1,0.0014568776272,0.000832573697116267,-0.0723970508723506,-0.04169612326484,0.00165460077825269,0.000279226872580944,-0.0824271291622821,-0.0136260063259531,-0.884430205070585,-0.00128380807340616,0
0.11,0.00145599933126862,0.000832569552600873,-0.0723783822545754,-0.0416959139515987,0.00165392107953798,0.000278659604594232,-0.082412669508438,-0.0136136461883486,-0.884438591925518,-0.0011985870352217,0
0.12,0.00145518436526293,0.000832565783310588,-0.0723610657311715,-0.0416957076532691,0.00165329043156825,0.000278133186315684,-0.0823992493076371,-0.0136021904116826,-0.884446376785408,-0.00111948332679406,0
0.13,0.00152445646038004,0.000872188138900582,-0.0757845804376596,-0.0436800487852539,0.00173198849109392,0.000291368350977789,-0.086305180186443,-0.0142360516639922,-0.884454091022721,-0.00116149499263684,0
0.14,0.00162297773247436,0.000929679636572448,-0.0807980721908727,-0.0465592796240903,0.00184463673848072,0.000309315776856454,-0.0920081728274707,-0.015185227091683,-0.884461153068486,-0.00126026638999064,0
0.15,0.00145576934457554,0.00083406189876149,-0.0724522414825785,-0.0417706368921102,0.00165469700756383,0.000277311104593431,-0.0825175550142377,-0.0136002395822515,-0.884467801962392,-0.000906636325851991,0
0.16,0.00145239178431647,0.00083257601657518,-0.0723030119921046,-0.041696223578111,0.00165114417030307,0.000276310780463501,-0.0823550358328006,-0.0135627680354848,-0.88447349824503,-0.000843976866974082,0
0.17,0.0014517925541707,0.00083255045298548,-0.0722889734537274,-0.0416949315095624,0.00165066587426161,0.000275942111066726,-0.0823434286615129,-0.0135544366480919,-0.884478777717418,-0.000790251146832038,0
0.18,0.00145127849289396,0.00083254772126849,-0.072278009635543,-0.0416948118076982,0.00165026782382119,0.000275610380403941,-0.0823349377516505,-0.0135471780820526,-0.8844836781053,-0.000740455868915345,0
0.19,0.00145080203377979,0.000832545510987134,-0.07226786512044,-0.041694706616694,0.00164989909245406,0.000275302658548109,-0.0823270850106676,-0.0135404565124152,-0.884488226748928,-0.000694236052686041,0
0.2,0.00145036003360136,0.000832543464112755,-0.0722584595715212,-0.0416946042979605,0.00164955702929268,0.000275017188219424,-0.0823198012710602,-0.0135342279390377,-0.884492448898036,-0.000651333840366216,0
0.21,0.00144994969838751,0.000832541563983451,-0.0722497239408569,-0.0416945019424629,0.00164923946936761,0.000274752172501106,-0.082313031603288,-0.013528448914646,-0.884496367988234,-0.000611511079440404,0
0.22,0.001449568651426,0.000832539800024668,-0.0722416048946547,-0.0416944311996573,0.00164894457380445,0.000274506077060193,-0.082306755108347,-0.0135230593562609,-0.884500005772334,-0.000574546731575637,0
0.23,0.00144921524329952,0.000832538162490637,-0.0722340808154042,-0.0416943287629863,0.00164867106638488,0.000274277830457214,-0.0823009152287145,-0.0135180928669051,-0.88450338244189,-0.000540235624537326,0
0.24,0.00144888704889062,0.000832536642333477,-0.0722270870177408,-0.0416942579246819,0.00164841707079096,0.000274065871636426,-0.0822955022913536,-0.0135134579428069,-0.884506516739796,-0.000508387313025484,0
0.25,0.00144858237037922,0.000832535231150203,-0.0722205909432583,-0.0416941899486959,0.00164818127332511,0.00027386910220068,-0.0822904731411124,-0.0135091547434783,-0.884509426062695,-0.000478825021587393,0
0.26,0.00146218368659732,0.000840314153564167,-0.0728961319154556,-0.0420837617707104,0.00166363330902621,0.000276465591222676,-0.0830599704789117,-0.0136356282235812,-0.884512093371243,-0.000475568839419619,0
0.27,0.00140803246921147,0.000809669589437809,-0.070245213550212,-0.0405490469721575,0.00160232386580489,0.000265854297475511,-0.0800367412229852,-0.0131428798773336,-0.884514757530296,-0.00035594450210529,0
0.28,0.00139338859657704,0.000800975611843797,-0.0693897864766426,-0.0401136660983755,0.00158548680879912,0.00026329696345277,-0.0790991213519736,-0.0129374524722517,-0.884517124073443,-0.000307165349604201,0
0.29,0.00144665937688688,0.000832041049576484,-0.072154346373142,-0.0416694365371041,0.00164638313565885,0.000273016907046462,-0.0822236712783866,-0.0134855301474921,-0.884519116750605,-0.00037879492792026,0
0.3,0.00144226970563885,0.000829755883933073,-0.0719427440426054,-0.0415549899341913,0.00164153958376386,0.000272000966287809,-0.0819874711397187,-0.0134398729504548,-0.884520458482763,-0.000357861277130346,0
0.31,0.00144714262892017,0.00083248593063221,-0.072187488539483,-0.0416917253818503,0.00164703977172155,0.000272973631521416,-0.0822634776321251,-0.0134890220113415,-0.884522352364857,-0.000347329827251352,0
0.32,0.00144704174828076,0.000832527431943904,-0.0721876794983089,-0.0416938128932423,0.00164698851054155,0.000272874682502217,-0.0822649720362471,-0.0134873822813306,-0.884524124785194,-0.000329465385972759,0
0.33,0.00144687118025828,0.000832527290459501,-0.0721840785977884,-0.0416937766137268,0.00164685691597756,0.000272764000408241,-0.0822621855309437,-0.0134849932517466,-0.884525770225606,-0.000312748115114788,0
0.34,0.00144671127400231,0.000832526559356106,-0.0721806560866341,-0.0416937427891393,0.00164673316334573,0.000272660725254081,-0.0822595369860293,-0.0134827250846383,-0.884527297563051,-0.000297228526072834,0
0.35,0.00144656277644754,0.00083252587139376,-0.0721774736430697,-0.0416937089298146,0.00164661823381715,0.000272564826792513,-0.0822570726547408,-0.0134806180901626,-0.88452871527066,-0.000282822870256138,0
0.36,0.001446425105513,0.000832525232639386,-0.0721745258351299,-0.0416936721267165,0.00164651168313452,0.000272475918460853,-0.082254786598899,-0.0134786704279595,-0.884530031217379,-0.000269451228411685,0
0.37,0.00144629681582871,0.000832524639707059,-0.0721717624365237,-0.0416936726862418,0.00164641239303177,0.00027239307492489,-0.0822526656024068,-0.0134768184880606,-0.884531252707592,-0.000257039381314909,0
0.38,0.0014461782370109,0.000832524089313106,-0.0721692203303217,-0.0416936387313808,0.00164632061831688,0.000272316496370127,-0.0822506927459425,-0.0134751406880219,-0.884532386521106,-0.000245518436465705,0
0.39,0.00144606804009592,0.000832523578406966,-0.0721668520356634,-0.041693604750427,0.00164623533069903,0.000272245332648033,-0.082248853236717,-0.0134735797421158,-0.884533438951198,-0.000234824446348221,0
0.4,0.0014459658758378,0.000832523104157253,-0.0721646577126127,-0.0416935707441701,0.00164615625982446,0.000272179354991825,-0.0822471472784872,-0.0134721352698267,-0.884534415839477,-0.000224898053492837,0
0.41,0.00144587076452014,0.000832522663934908,-0.0721626047110971,-0.0416935711865317,0.00164608264760367,0.000272117935677549,-0.0822455715305422,-0.0134707594660028,-0.884535322608072,-0.000215684161013671,0
0.42,0.00144578268651114,0.000832522255299087,-0.0721607072112203,-0.0416935342231386,0.00164601447869688,0.000272061055838347,-0.0822440915007597,-0.0134695164892495,-0.884536164290418,-0.000207131626791363,0
0.43,0.00144570073012482,0.000832521875984529,-0.0721589337206388,-0.0416935346173602,0.00164595104766164,0.000272008131822912,-0.0822427302631055,-0.0134683281612319,-0.884536945557881,-0.000199192979601764,0
0.44,0.00144562499214401,0.000832521523887946,-0.0721573021444144,-0.0416935005228685,0.0016458924292366,0.000271959219423994,-0.0822414562028407,-0.013467261052158,-0.884537670747279,-0.000191824155630242,0
0.45,0.00144555421162855,0.000832521197056806,-0.0721557615446601,-0.0416935008759632,0.00164583764780406,0.00027191351451654,-0.0822402736491639,-0.013466229223299,-0.884538343883683,-0.000184984253891091,0
0.46,0.00144548906744168,0.000832520893678476,-0.0721543571646638,-0.0416934667457063,0.00164578722842878,0.000271871442496862,-0.0822391739760219,-0.0134653143618258,-0.884538968703169,-0.000178635309204933,0
0.47,0.00144542818222854,0.000832520612070862,-0.0721530305489954,-0.0416934670620801,0.0016457401054467,0.000271832126187547,-0.0822381556851693,-0.0134644258163088,-0.884539548674153,-0.000172742081469276,0
0.48,0.00144537211843642,0.000832520350671827,-0.0721518195480532,-0.0416934329009,0.00164569671387537,0.000271795917879483,-0.0822372044285782,-0.0134636406268483,-0.88454008701572,-0.000167271860060667,0
0.49,0.00144531961512644,0.000832520108031304,-0.072150670114569,-0.0416934331860028,0.00164565607812485,0.000271762014778436,-0.0822363221077149,-0.013462870979594,-0.884540586715725,-0.000162194282273068,0
0.5,0.00144527095352206,0.000832519882803651,-0.0721496046594937,-0.0416934334561297,0.00164561841566482,0.000271730591547561,-0.0822355042614934,-0.0134621575068726,-0.884541050548045,-0.000157481164782488,0
0.51,2.40156716175849,-0.0684132881218663,3.48221917211264,3.42805793703353,-0.191804343938966,2.39487292023492,3.24447802479262,3.65387382498701,0.0514397529355169,15.6402613129071,367.815546761153
0.52,2.29545612011004,-0.0506306635606019,4.27897173131213,2.53954824996131,-0.568591324140499,2.22449683514169,1.50573502854663,4.7425379719152,0.228193126885708,32.4872777313317,367.815546761153
0.53,2.21863461957292,0.0824532166980151,3.73287609104643,-4.12306439336303,-1.04373127612833,1.95953135502927,-5.4405688597966,1.15509063918624,0.526566810744944,48.8275003450588,367.815546761153
0.54,2.11352971244622,-0.084028286980986,4.61634752058798,4.21763666312697,-1.76070941747593,1.17216506756408,-1.26314262236013,6.12401781256136,0.943702924829588,65.0051895647913,367.815546761153
0.55,2.05229395592512,-0.00920781718330888,3.14229940553048,0.47119375924542,-2.04473717537275,0.176196336717635,-3.08689674077643,0.753085403213279,1.48035144481955,81.4328355907968,367.815546761153
0.56,1.9496655048636,-0.0979009956523071,3.76629418714205,4.90803052209035,-1.59246593154333,-1.1290847809968,-5.81216173766643,2.11955453930225,2.13737599084651,97.4607865302355,367.815546761153
0.57,1.82498345903094,0.0492401679610963,6.12742981232523,-2.45779316081724,-0.477269706904368,-1.76215857593713,0.947025209582259,-6.5337038943273,2.90406914327094,111.469667884187,367.815546761153
0.58,1.79998106028497,0.0438300756397364,3.79926594050889,-2.180352232509,1.0218686641525,-1.48244302627061,3.99627871316036,-1.79391025172924,-2.51372910644378,124.604815765553,367.815546761153
0.59,1.67759875863886,-0.00221345564744583,6.1671397272933,0.119410440413583,1.67723050617421,0.0352182272571199,6.16829534673484,0.00194542755692792,-1.55112098461428,138.217104927193,367.815546761153
0.6,1.68202219032873,-0.0560640857781448,2.25882649212036,2.81609425844387,0.740514017507774,1.51128449351765,3.54707586925053,0.671518258669062,-0.488926468379724,151.206737955862,367.815546761153
0.61,1.60829520503897,-0.0116886052637294,2.73723857468626,0.603535514777568,-0.998023354604102,1.26122935016163,-1.20690590328554,2.52984352736742,0.662152063045893,162.805907134289,367.815546761153
0.62,1.4724851942412,-0.0839623777034841,6.1204939032504,4.20926750212765,-1.36646428446463,-0.555011429982967,-7.15192968152109,2.00705763613577,1.89964776942654,174.930409187383,367.815546761153
0.63,1.45129325559927,0.0235675668686849,4.06740659791056,-1.16616912274407,0.0942930535623054,-1.44841857348141,1.49242157668428,-3.95934649822609,-3.06034611112559,185.9024595841,367.815546761153
0.64,1.33011730395861,-0.0778811760288846,7.14855421902905,3.91358941457195,1.33180322544287,-0.0397201280174567,6.77557930538499,-4.52874536761411,-1.65909714646907,196.556107131212,367.815546761153
0.65,1.28991310244858,-0.0152226012913835,6.2590537738726,0.773505476868636,0.216144679887471,1.27176610145692,1.88245754956654,6.01917090977275,-0.180148411951018,206.664546334448,367.815546761153
0.66,1.18051047000807,0.0309484613441084,9.02676438072531,-1.53079305831792,-1.15045395376795,0.266492921703268,-9.15052733622936,0.306026210388574,1.36937960157021,216.299553437315,367.815546761153
0.67,1.14503104418055,-0.016493906562057,8.12286594002935,0.837297251854195,-0.15678121440648,-1.13436669199166,-2.05554736760282,-7.90295785052613,2.9898486197686,225.554122611563,367.815546761153
0.68,1.07893167386429,0.0349682923403969,8.9346144748649,-1.74593205009161,1.07687062487538,-0.0752728079541836,8.99363124300179,1.41074859663393,-1.60818363330973,234.383909249964,367.815546761153
0.69,1.0452951713531,-0.0927964522941614,8.15847504660628,4.66264912043772,-0.239591411565222,1.02168935215978,3.46285486456812,8.7355393704884,0.141799714514415,242.795592859105,367.815546761153
0.7,1.0153843776774,0.077978178192767,7.27658133962338,-3.9052280149545,-0.971614962456313,-0.305041629022337,-5.30356752349088,-6.33021432217847,1.95165082597524,251.071217537105,367.815546761153
0.71,0.936172013175148,0.0269688260244641,9.0593508379568,-1.32968944656893,0.566538217926536,-0.745774633155467,6.72080012611127,-6.21858161435291,-2.46313556563762,258.603306750736,367.815546761153
0.72,0.919231902756686,-0.0155209763375147,7.68137426448364,0.782658978414966,0.458591705983744,0.796819828414847,4.61508005525592,6.19008091636484,-0.539113721913152,266.162931297598,367.815546761153
0.73,0.908279334334331,-0.0776729912474952,6.21625157197752,3.8969323016697,-0.910529055220659,0.0440599857821492,-5.64148930444455,4.69057175595336,1.43713552816258,273.160404614727,367.815546761153
0.74,0.810525605436256,-0.0212345364520238,9.11569849349672,1.08116532434352,0.277404474812726,-0.761872312110118,1.86814644275925,-8.98748609741941,-2.81859686637648,279.815471659184,367.815546761153
0.75,0.852131401144558,0.0733452814491598,5.07159577794748,-3.67078943599987,0.630479325369088,0.577930164820616,0.727585474257262,6.21823111471364,-0.742995883410578,286.453633217175,367.815546761153
0.76,0.803673327009536,0.0106818621398652,5.70071162948103,-0.527482868298297,-0.786869573969725,0.163832818098375,-5.69662262008407,0.569949105793623,1.37881123796105,292.554528015024,367.815546761153
0.77,0.732011585479624,-0.0162316648751645,7.52346612922113,0.832254740950735,0.302394575443856,-0.666829775102419,2.18913240408863,-7.24588779023949,-2.73801819239331,298.374561307688,367.815546761153
0.78,0.680413168199493,-0.0468669958785111,8.37025142798226,2.35134878617054,0.303194559481271,0.610926880946408,6.25684431865476,6.03670847846593,-0.529443706992867,304.114409461291,367.815546761153
0.79,0.718973095464934,-0.0761544136561827,4.81265769529767,3.8095756835011,-0.699777577173718,-0.181750238532518,-5.3235903927688,3.05514751042409,1.71937984457178,309.551679833628,367.815546761153
0.8,0.709994534637209,0.0412581486672114,3.73693064402515,-2.0424541466877,0.513789949580388,-0.491746237155237,4.16929257059338,-0.867910732950592,-2.2762304165859,314.57520062263,367.815546761153
0.81,0.661736191238553,0.102090810375645,4.6349778669775,-5.09789819468262,0.0701443821186091,0.665880684518827,-5.31493170995498,4.38441407137084,0.0481166894297109,319.430855830369,367.815546761153
0.82,0.58047610721333,-0.0195371356418144,7.23883653472808,0.978944143889818,-0.374509871874277,-0.443933065431424,-5.57775450714216,-4.71675107159849,2.40717103894068,324.17609830902,367.815546761153
0.83,0.590133566348485,0.00966326325013972,5.37453483008099,-0.49069121266365,0.588727062412375,0.0418503377658784,5.31124612702712,0.95763619609875,-1.48345631572745,328.656522391023,367.815546761153
0.84,0.573898786122424,-0.0237675962098606,4.89647816628885,1.21337450253588,-0.477757399970117,0.318861383858535,-3.24198536929008,3.86488123771698,0.940886764609036,332.780042442771,367.815546761153
0.85,0.445129792315518,0.0849561509918577,10.0617059666436,-4.23805188583346,0.0295704765301584,-0.452198702470481,6.62939009859882,-8.67468717976665,-2.88770397728681,336.803711202752,367.815546761153
0.86,0.537397177001203,0.0628196373477819,4.21581870835836,-3.13903031332792,0.269144186253597,0.469364932319467,-1.22766072803636,5.1107228281891,-0.404279595945372,340.66719121461,367.815546761153
0.87,0.447519603514412,-0.00459215202615953,7.5427805453657,0.224881893781049,-0.382528977077465,-0.232306833920132,-6.60163316570068,-3.65548215249626,2.10629945306166,344.349610907804,367.815546761153
0.88,0.493805081265293,-0.0199058437647781,4.1193660672025,0.988348091196571,0.493995586645522,-0.0144243292446297,4.04081139244287,-1.27194812618095,-1.64027666269969,347.806168339566,367.815546761153
0.89,0.443485029331505,0.0118996267553993,5.5665722828898,-0.574071677786016,-0.345976399670505,0.27770650555779,-4.78020540884186,2.90962566684309,0.921252237304146,351.053623916471,367.815546761153
0.9,0.441570728689013,0.0245949322239576,4.6396840248095,-1.21156713922656,0.134512469314657,-0.421302758980903,2.78667057269233,-3.90243896841664,-2.77690403697946,354.173217579261,367.815546761153
0.91,0.252871258826297,0.015602300332014,13.0986996613631,-0.772322639841131,0.0580741565979405,0.246606361741712,1.45040614890303,13.0410404907672,-0.169656983966814,357.107716505342,367.815546761153
0.92,0.395212450875958,-0.00154632105584188,5.06863222158263,0.0791116144320386,-0.248366270995147,-0.307423922081797,-3.26203844883178,-3.88025725996961,2.45814353775342,359.85457700233,367.815546761153
0.93,0.31688163252691,-0.0674173674792829,8.08026023475583,3.36839316467042,0.266818607981037,0.183757723390931,8.75422802844047,-0.0130230273780758,-1.1773222186243,362.562217082048,367.815546761153
0.94,0.275777553319921,0.00940438780520636,9.28650656403562,-0.483829912317373,-0.274098998754259,0.0318031493255838,-9.29509145068815,0.273075944150515,1.48937301384129,365.042470912763,367.815546761153
0.95,0.304984832047926,0.00250493343243434,7.01925163981472,-0.12098048251778,0.260541374493585,-0.158556660685687,6.08798991593986,-3.49584162164226,-2.1092775486245,367.373529316792,367.815546761153
0.96,0.342932569491153,0.000698944523383177,4.31405064428473,-0.0132126771091355,-0.190912322886181,0.284878431460603,-2.41990920295041,3.57144886366385,0.592450927776406,369.710132386544,367.815546761153
0.97,0.294506056429055,-0.013488333780816,5.9525532998092,0.693405109123097,0.0629162142750425,-0.288023093523546,0.319441342820542,-5.98428430649183,-2.97229719467665,371.937299803198,367.815546761153
