t,iq,id,vq,vd,ia,ib,va,vb,theta_e,omega,r
0,0,0,0,0,0,0,0,0,0,0,0
0.01,0.000527318864012534,0.000289300867491116,-0.0257302773765598,-0.0144722417204291,0.000588468540732844,0.000124358163553256,-0.0289460748870021,-0.00579807751977334,-0.860747609930913,-0.00292064205571481,0
0.02,0.00066259926152358,0.000358115002176684,-0.0324282262518939,-0.0179146634666825,0.000735917373955689,0.000160342617122719,-0.0362695201332613,-0.00755294209374471,-0.860770771444413,-0.00330312018541228,0
0.03,0.000713063805381448,0.000385244764817278,-0.0349613146267356,-0.0192718337215175,0.000791875604774086,0.000172645723746251,-0.0390753437112056,-0.00817402038598865,-0.860794309978761,-0.00316635822500523,0
0.04,0.000700506668657367,0.000380368108455564,-0.0344300558312313,-0.0190278792276281,0.00077917749034901,0.000168142586208622,-0.0385136065966762,-0.00801193106306855,-0.860815122233167,-0.00270016948620251,0
0.05,0.000712818013379513,0.000389897112135257,-0.0350950809089893,-0.0195045617690144,0.000794728396921338,0.000168926177298161,-0.0393288042412737,-0.00808317949580347,-0.860833535896741,-0.00242913927152808,0
0.06,0.00071190594428042,0.000391889369236587,-0.0351110782402395,-0.0196042163336766,0.000795337964979367,0.000166807891554705,-0.0394060217760178,-0.00801739116158245,-0.860849747759523,-0.00211955550954346,0
0.07,0.000718161403203025,0.000398071501056933,-0.0354652571869789,-0.0199134811702268,0.000804113840930541,0.000166185594526693,-0.039876316819904,-0.0080131489774106,-0.860863495369213,-0.00189947531950708,0
0.08,0.000706949783603045,0.000393596848745707,-0.0349676195966888,-0.019689644830122,0.000792696381503367,0.000162261895189265,-0.0393531097255875,-0.00785807156501855,-0.86087580753289,-0.00160084197628112,0
0.09,0.000701743849865183,0.000392658998586667,-0.0347540084677812,-0.019642720077602,0.000788138527017221,0.000159571871662324,-0.0391606006110634,-0.00775402581930316,-0.86088622741038,-0.00137396617137345,0
0.1,0.000698350153403873,0.000392461561228762,-0.0346226191682482,-0.019632854802879,0.000785437398793582,0.000157502718635907,-0.0390545908274309,-0.00767552480827403,-0.86089513835181,-0.00118633690691718,0
0.11,0.000695698331996641,0.000392419247153975,-0.0345224756854453,-0.01963072283509,0.000783399800040208,0.00015580047489261,-0.0389773080287207,-0.00761157443072816,-0.860902781739934,-0.00102696083606027,0
0.12,0.000693484790320487,0.000392409537446712,-0.0344395547175495,-0.0196302444538101,0.000781715665387035,0.000154360027123274,-0.0389141559799403,-0.00755763791328369,-0.860909343474304,-0.000890520174032862,0
0.13,0.000718261768007536,0.000407186957111032,-0.0356629269000198,-0.0203694863378559,0.000810139531033724,0.000159295717704872,-0.0403238518751449,-0.00779405534337739,-0.860915436613632,-0.000925853790753349,0
0.14,0.000731881956540936,0.000415897946609548,-0.0364011072388453,-0.0208052513384729,0.000826147844509682,0.000161561255616044,-0.0411677679554856,-0.00794443031527334,-0.860920970710879,-0.000904300738553373,0
0.15,0.000698262303069057,0.000397321281593031,-0.0347324426186945,-0.0198759496742424,0.000788542862381822,0.000153735483479627,-0.0392965554941024,-0.00756152577280902,-0.860925876509257,-0.0006092693986133,0
0.16,0.000689296880375021,0.000393432872967234,-0.0343110128736968,-0.0196814305797085,0.000779209387820746,0.000150838803886816,-0.0388501748375582,-0.00743426049947341,-0.860929398494375,-0.000489071077090322,0
0.17,0.000686446365483042,0.000392618685799417,-0.0341834583915455,-0.019640708831123,0.000776517213532797,0.000149596330874122,-0.0387269127015895,-0.00738190379231135,-0.860932254771033,-0.000418285530124603,0
0.18,0.000685179654491027,0.000392447966529861,-0.034131009745163,-0.0196321737693378,0.000775445572127996,0.000148898388268481,-0.0386815881768445,-0.00735410152573985,-0.860934666671212,-0.00036539807077032,0
0.19,0.000684379542797267,0.000392411965668031,-0.0340998717420789,-0.0196303742565565,0.000774815568881536,0.000148402640197628,-0.0386568138202367,-0.00733509315184628,-0.860936727964153,-0.000321904308610029,0
0.2,0.000683762495610073,0.000392404198659511,-0.0340765152890574,-0.0196299842123423,0.00077434276701904,0.000148005015772525,-0.0386388577770833,-0.00732009864035295,-0.860938495719184,-0.00028502176732468,0
0.21,0.000683249756849851,0.000392402373540132,-0.0340572846122747,-0.0196298892936185,0.000773952912594915,0.000147671060405068,-0.0386242214113786,-0.00730757888811341,-0.860940013230934,-0.00025346215241608,0
0.22,0.000682813619435052,0.000392401820129664,-0.0340409697480836,-0.0196298567644784,0.000773621953143777,0.000147386230500266,-0.0386118356207368,-0.00729692044502886,-0.860941316288069,-0.00022638735277023,0
0.23,0.000682439926247934,0.000392401557034146,-0.0340269971849999,-0.0196298534565477,0.000773338516349429,0.000147142019935066,-0.0386012440403326,-0.00728777350719812,-0.860942435286013,-0.000203142960037155,0
0.24,0.000682119389263939,0.000392401375456581,-0.034015013964311,-0.0196298366571598,0.000773095425654325,0.000146932513428387,-0.0385921513286406,-0.00727993942326084,-0.86094339624531,-0.000183182900633615,0
0.25,0.000681844067026666,0.000392401228776357,-0.0340047177017223,-0.0196298360085748,0.000772886630886964,0.000146752553234542,-0.0385843476281566,-0.00727319777037141,-0.860944221491336,-0.000166042097022862,0
0.26,0.000686359451465055,0.000395130188388595,-0.0342256981996971,-0.019766341156474,0.0007780899696896,0.000147625070566811,-0.0388409197386998,-0.00731365940024189,-0.860944805329846,-0.000182357239418289,0
0.27,0.000675688548021754,0.000388873722659254,-0.0337119674321892,-0.0194533703310861,0.000765919193989619,0.000145415179334568,-0.0382473131556341,-0.00721619025263483,-0.860945729947979,-0.000100578187231306,0
0.28,0.000674930147028143,0.000388622463601384,-0.0336213509798677,-0.01944080554792,0.000765180302857152,0.000145111084009725,-0.038170399285537,-0.00716664359698219,-0.860946252225321,-8.6202642496551e-05,0
0.29,0.000679551948464105,0.000391610024968472,-0.0339021701813123,-0.0195902440099996,0.000770632848074638,0.00014585703886183,-0.0384807834254532,-0.00723630501964602,-0.860946539396203,-0.000108724744170626,0
0.3,0.000669612477953465,0.000386591054690141,-0.0334184847964966,-0.01933918191294,0.000759823120494112,0.000143186381195994,-0.0379503015678436,-0.0071115184078497,-0.860946005788389,-5.87133910508737e-05,0
0.31,0.000678345967269258,0.000391184910434546,-0.0338424820602831,-0.0195689914017453,0.000769441056529806,0.000145393761862208,-0.038421659271439,-0.00721353694879338,-0.860946211099163,-0.000107600740840682,0
0.32,0.000680367932277202,0.000392146321658523,-0.0339418160486933,-0.0196170723581875,0.000771601259750319,0.000145982042776454,-0.0385283380648682,-0.00724179332409648,-0.860946577579159,-0.000112935873196833,0
0.33,0.000680769750575006,0.000392347490027801,-0.0339626120301064,-0.0196271385415772,0.000772037180937289,0.000146091058862189,-0.0385506739288636,-0.00724769776330607,-0.860946938624388,-0.000108590561335764,0
0.34,0.000680789718066041,0.000392389550613863,-0.033964754727069,-0.0196292454158435,0.000772079784126169,0.000146071922692476,-0.0385536744989371,-0.00724748383201893,-0.860947259964313,-0.000102684418897331,0
0.35,0.000680727727380877,0.000392398316806875,-0.0339627672025646,-0.0196296865290215,0.000772038520450914,0.000146024658184724,-0.0385524565420464,-0.00724584321227489,-0.860947538671605,-9.70826915539122e-05,0
0.36,0.000680655200735522,0.000392400119850492,-0.0339601253481974,-0.0196297799242229,0.000771984721974688,0.000145975838359155,-0.0385505154061665,-0.00724404137602918,-0.860947778688015,-9.21430440351781e-05,0
0.37,0.000680588203738228,0.000392400470010992,-0.0339576261488502,-0.019629799099103,0.000771934165702183,0.000145931750329219,-0.0385486338525746,-0.00724239010523194,-0.860947984971243,-8.78695686736508e-05,0
0.38,0.000680529530419238,0.000392400519930285,-0.0339554223094852,-0.0196298022467633,0.000771889722678522,0.000145893337193519,-0.0385469656613938,-0.00724094460425219,-0.860948162161925,-8.41919581796332e-05,0
0.39,0.000680479076984122,0.000392400510309287,-0.0339535242472965,-0.0196297876940516,0.000771851471650161,0.000145860345589993,-0.0385455176729962,-0.0072397127737246,-0.860948314338486,-8.10318524154028e-05,0
0.4,0.000680435537653823,0.00039240049106035,-0.0339518811960525,-0.0196297878922091,0.000771818455282444,0.000145831883935144,-0.0385442725579539,-0.00723863677926624,-0.860948445026342,-7.83175774611063e-05,0
0.41,0.000680398051920249,0.000392400472229707,-0.0339504628331387,-0.0196297880739718,0.000771790027906625,0.000145807381455324,-0.0385431977157297,-0.00723770794240452,-0.860948557258573,-7.59865145751241e-05,0
0.42,0.000680365921291472,0.000392400455576635,-0.0339492452360204,-0.0196297882412229,0.000771765661272825,0.000145786379582125,-0.0385422750221958,-0.00723691057041119,-0.860948653640905,-7.39846284341859e-05,0
0.43,0.00068033833086024,0.000392400441174216,-0.0339481971207974,-0.019629788396176,0.00077174473768141,0.000145768345440525,-0.0385414807674424,-0.00723622418696603,-0.860948736411623,-7.22654515326888e-05,0
0.44,0.000680314582134622,0.000392400428784393,-0.0339472916831841,-0.0196297885407215,0.000771726727479835,0.000145752822505928,-0.0385407946366548,-0.00723563124764007,-0.860948807493155,-7.07890633038161e-05,0
0.45,0.000680294209453332,0.000392400418139637,-0.0339465126138197,-0.0196297886761161,0.000771711277549308,0.000145739506226389,-0.0385402042726153,-0.00723512105871657,-0.860948868536015,-6.95211771954907e-05,0
0.46,0.000680276747155084,0.000392400408997034,-0.0339458426154348,-0.0196297888036271,0.000771698034752899,0.000145728092210991,-0.0385396965671299,-0.00723468229160239,-0.860948920958326,-6.84323478506124e-05,0
0.47,0.00068026172957859,0.000392400401145251,-0.0339452635580676,-0.0196297889245146,0.000771686645944723,0.000145718276200316,-0.0385392577789715,-0.00723430308278946,-0.860948965977122,-6.74972880983967e-05,0
0.48,0.000680248807477886,0.000392400394402167,-0.0339447624132788,-0.0196297890397259,0.000771676846269363,0.00014570982991491,-0.0385388780347725,-0.00723397490035875,-0.860949004638446,-6.66942818894666e-05,0
0.49,0.000680237748022329,0.000392400388611615,-0.0339443313116457,-0.0196297891498918,0.00077166845916302,0.000145702601040636,-0.0385385513727925,-0.00723369258059885,-0.860949037839448,-6.60046800045843e-05,0
0.5,0.000680228201965953,0.000392400383638513,-0.0339439560605162,-0.0196297892559573,0.000771661219760763,0.000145696361474188,-0.0385382670346608,-0.00723344684342985,-0.860949066352001,-6.54124669504773e-05,0
0.51,2.16409945482977,0.0159271533429521,2.31622419612241,-0.79532247622277,-0.115259620529823,2.16108661198098,-0.934237660203664,2.26376508545944,0.0606432024107509,18.5664610037463,520.318928771575
0.52,2.11710754354826,-0.0475584308835274,1.55779398108744,2.38278125856212,-0.613603785643951,2.02679464908028,1.87770520730915,2.13976441883475,0.271513974449071,38.8696344448782,520.318928771575
0.53,2.07467405184524,0.0272989050762691,0.618149649615824,-1.36038582070342,-1.19920736963134,1.69319796132649,-1.46359007307786,-0.301102421908272,0.629398816323838,58.7070878468897,520.318928771575
0.54,1.98184471276718,-0.00973756870696674,2.18716176356188,0.494666955684577,-1.79825524474116,0.83311545450103,-1.7698420660722,1.37696442880513,1.1320313999616,78.4361713938123,520.318928771575
0.55,1.92579963711268,-0.0153328821289377,1.7922241412509,0.776504960035779,-1.88055219825793,-0.415286370117042,-1.91448203885867,0.387021767256376,1.78017856068773,98.5495807567967,520.318928771575
0.56,1.86040112059264,-0.0154123643322674,1.72469143563612,0.77637087389534,-0.981028733784517,-1.58079489307304,-1.57779429475193,-1.04301363626649,2.57788514452784,118.879566105677,520.318928771575
0.57,1.80576551742934,-0.0177561361100029,1.50510525798436,0.895524880924192,0.678977144943574,-1.6733482664857,-0.280926774282445,-1.72869511408395,-2.7659636824787,137.061856556084,520.318928771575
0.58,1.70210466298089,0.0389783141225196,4.03793546773224,-1.93915138906902,1.68302427423074,-0.257116481508281,4.25342369776323,1.40485508099748,-1.69949864783325,153.796158043737,520.318928771575
0.59,1.64907065173021,0.0704646945295559,4.01599160296885,-3.51112850329929,0.868110535719315,1.40384592649841,-1.09795183385993,5.22022161333412,-0.511120881481498,170.606796378294,520.318928771575
0.6,1.60987577857113,-0.023362951424843,3.06805354201655,1.17551779132467,-1.17602413881113,1.09964224858034,-1.39511369639087,2.97463483280616,0.804438942026866,188.097258282279,520.318928771575
0.61,1.54882039732062,0.00843480251335815,3.63160681177999,-0.409689487806629,-1.21986781933417,-0.95437847440245,-2.59382258158905,-2.57458694299199,2.24013550417079,203.383082311538,520.318928771575
0.62,1.48665101061878,-0.00921207663046975,4.29612849144628,0.477925664233937,0.900278759818901,-1.18309519665521,2.19822589892863,-3.72195323087614,-2.49731542712423,218.545896075205,520.318928771575
0.63,1.46521731399433,0.0312175732051105,2.78471421871253,-1.55329491918964,1.10962293007262,0.957378330213628,1.02966521558853,3.01780515104722,-0.837617678848827,233.908107278655,520.318928771575
0.64,1.41816896735116,0.0213444433021827,2.90147425429813,-1.05036986473679,-1.12175179566344,0.86794683831648,-2.95142548437146,0.900509473189917,0.927322048400714,247.599447526811,520.318928771575
0.65,1.36772581834245,-0.0279969838112718,2.99358375948869,1.40747045124717,-0.43789658284697,-1.29603407671018,-2.33999450251755,-2.33814938025695,2.79529395232172,262.064780692093,520.318928771575
0.66,1.33610718140262,0.00305721090968492,2.42660500354549,-0.135893286717712,1.3344784450842,0.0660229228363613,2.41633426275926,0.261165769622675,-1.51907378924387,274.926900619824,520.318928771575
0.67,1.26688948487165,-0.0297160412022277,3.63599332371807,1.49273540408161,-0.681735969153438,1.06823596566747,-0.60683731662861,3.88335613971576,0.544575451729185,288.284625296661,520.318928771575
0.68,1.18391064223503,0.00871042081890405,5.73924968776511,-0.418615611765395,-0.510893199301891,-1.06803952133584,-2.05948108992518,-5.37333822210795,2.70277443674395,300.341722194123,520.318928771575
0.69,1.16096534567216,0.00157459844997948,4.7786280041533,-0.0730960809583189,1.12886652795869,0.271115059091983,4.62781842107888,1.19328341170595,-1.33373836071155,312.713482988776,520.318928771575
0.7,1.12173007054369,-0.00982870286754145,4.84485898148302,0.511410709345953,-0.949055596477386,0.598053868273555,-3.7996853869663,3.04903106316829,0.99973545074222,323.855008512327,520.318928771575
0.71,1.11447937111301,0.028120049088468,3.20407469428783,-1.39847640826101,0.275533507605787,-1.08024825479315,2.21589421880213,-2.70400512612635,-2.86662644978122,335.386909727511,520.318928771575
0.72,1.02387600807333,-0.0183935885405804,5.93740342031102,0.940462866391752,0.353063430975384,0.961252629497297,3.02367548610825,5.19563435330959,-0.36996141633939,345.925232227341,520.318928771575
0.73,1.00138673735281,0.00444499196103626,5.22367917871592,-0.207868116198131,-0.80913082550239,-0.590002087217885,-4.08382646121724,-3.26380066035656,2.20527780660564,356.335699476611,520.318928771575
0.74,0.982373732983082,0.00587933365476767,4.38215256037768,-0.290208199761762,0.973313612823102,0.13324161854533,4.29694387041966,0.907609627591352,-1.4287623841211,366.574843936201,520.318928771575
0.75,0.935393724972398,0.000223233186610716,5.08548798063124,0.00983842671673553,-0.899421234565223,0.256910321637656,-4.88754822232273,1.40504703489063,1.292804369816,375.950290927834,520.318928771575
0.76,0.942752701074382,-0.0152623345433825,3.03284573507303,0.776813974942856,0.771717324274463,-0.541726836748394,1.99721705644053,-2.41095774203536,-2.19903476183742,385.320491774122,520.318928771575
0.77,0.869428779871838,0.0219308418829784,5.07329754751358,-1.09461884620371,-0.514822000204444,0.70096053612213,-3.97090713125523,3.34192085169862,0.658695104606602,394.478786732421,520.318928771575
0.78,0.852557684458088,-0.00982147518417165,4.40921491392254,0.512501939216272,0.371629829720712,-0.767360629929035,1.41221013589488,-4.20826531090106,-2.702106335653,402.8992103937,520.318928771575
0.79,0.774347721943205,0.0039377360660653,6.80438982071938,-0.181696529371224,-0.212147189755481,0.744730468104273,-2.07190987573409,6.48382016468151,0.282598915053955,411.17800487054,520.318928771575
0.8,0.765262279717098,0.0119599851011395,5.76171454478984,-0.593361974957082,0.129135930557206,-0.75438273405517,1.64400095189796,-5.55397999628432,-2.95642763374901,419.355839507188,520.318928771575
0.81,0.730784515685806,0.0347576912154499,6.0796617803581,-1.73929920170043,-0.0714193786158445,0.728116321629239,-2.60124950058386,5.76376180218224,0.145301443373375,427.075514892078,520.318928771575
0.82,0.697402259884553,0.0282554270098984,6.38955394979967,-1.39346801543503,0.0841403245624557,-0.692884324422279,2.40177241359901,-6.08273310779914,-2.98025635430439,434.365683670337,520.318928771575
0.83,0.667674839598937,0.0233264746356521,6.52755557821375,-1.15243355232349,-0.130111565423984,0.655289856777376,-2.61588185012229,6.09050466426151,0.230929142043749,441.530233735375,520.318928771575
0.84,0.672930435235881,0.0312696991786254,4.95545773199473,-1.55866906759697,0.202386307270099,-0.642536339348248,3.16988293371872,-4.11556226807331,-2.79001517516489,448.479265299728,520.318928771575
0.85,0.629135924873201,-0.036072010011885,5.89554808882089,1.80333846790064,-0.344608369870595,0.527596695675292,-1.37237272579016,6.01049997911298,0.521324762790014,455.095594234564,520.318928771575
0.86,0.65615544959497,0.0149881517708201,3.3571112253013,-0.743510961223145,0.430639554586078,-0.495292027749878,2.80979963213961,-1.98192592084847,-2.40306718329869,461.366245032239,520.318928771575
0.87,0.604064809216691,-0.0131400384007582,4.79649183680781,0.677155828915857,-0.515749796293367,0.314752445529055,-3.67372167690845,3.15731579000448,1.00110207312504,467.341464994586,520.318928771575
0.88,0.591865202236424,-0.00158630112026581,4.2585651169761,0.094558461310271,0.571866386088392,-0.1525639879913,4.08707995288263,-1.20003983970365,-1.83418709671017,473.212009947603,520.318928771575
0.89,0.570416864227632,-0.00119220192597194,4.2136877206335,0.0675403862845533,-0.568260688196078,-0.0495642067588761,-4.20423488574701,-0.290060228685093,1.65570699960177,478.892614404754,520.318928771575
0.9,0.528426986144831,-0.0375862103949563,5.22967580677893,1.88103647059824,0.453088446947777,0.274515322232503,5.5118987684482,0.71188427016531,-1.0970764819077,484.353283625403,520.318928771575
0.91,0.502648738674236,-0.0343588327871209,5.49174583618801,1.7149152505389,-0.285063292233859,-0.415421717417478,-4.75336675581017,-3.24125147598546,2.47193772535721,489.499800819049,520.318928771575
0.92,0.501628171323864,0.0164833343311105,4.53704786392146,-0.829168892784166,0.118260732488818,0.487767282346411,0.111858128949294,4.6108363808818,-0.205015418770438,494.501441970883,520.318928771575
0.93,0.492943549825029,-0.00964617948206992,4.01166080602732,0.501441250597042,0.152768840387368,-0.46877294450448,0.688447864092327,-3.98383047943092,-2.84612120055238,499.183454551892,520.318928771575
0.94,0.422960664154679,0.0190309399105,6.56397722339784,-0.934530029444278,-0.299320548800941,0.299441328412675,-5.47505738788071,3.73937026311003,0.83016070643261,503.748229959097,520.318928771575
0.95,0.382981227655718,0.0367946950414718,7.64243930497619,-1.82661905942451,0.370921957262729,-0.102202602414333,7.84283106627168,0.483132056917869,-1.74388097383765,508.130601793818,520.318928771575
0.96,0.383809147962296,-0.0311028762860205,6.72810434820348,1.56631216233264,-0.336744436574723,-0.186761975275427,-6.77469156881725,-1.35065763892341,1.9963116658287,512.266883848131,520.318928771575
