t,iq,id,vq,vd,ia,ib,va,vb,theta_e,omega,r
0,0,0,0,0,0,0,0,0,0,0,0
0.01,0.000536749008395958,0.00029529503688761,-0.0263404081439076,-0.0147786002742932,0.000503372325178037,0.000349163226971793,-0.02495973944077,-0.0170069260686299,-0.461384113844088,-0.00179494358233611,0
0.02,0.000607704494540939,0.000333940647582125,-0.0299248413317211,-0.016712703450568,0.000569570726324377,0.000395487416370166,-0.0282876061804892,-0.0193551523355632,-0.461397160382163,-0.00177742947130199,0
0.03,0.000632597419661348,0.00034924222107868,-0.0311990781071604,-0.0174784968657197,0.000594359541583233,0.000410957856324872,-0.0295408558630724,-0.0201548545591093,-0.461409293352693,-0.00160741889590191,0
0.04,0.000614092415156049,0.000341406772020788,-0.0303486348409333,-0.0170863514207813,0.000579108849955498,0.000397870604891922,-0.0288112888642618,-0.0195676435873819,-0.461419333012552,-0.00132046517886519,0
0.05,0.000626253456980305,0.00034982516137687,-0.0309857560217569,-0.0175076707148318,0.000592064755617482,0.000405006618548076,-0.029472381642517,-0.0199502964994672,-0.461428139071328,-0.00117497891110651,0
0.06,0.00062459473078693,0.000350486199826728,-0.0309434110172603,-0.017540752940798,0.00059192120507631,0.000403222570024035,-0.0294833016111691,-0.0198974276030359,-0.461435713687762,-0.0010045026300103,0
0.07,0.000636685451621924,0.000358797752422703,-0.0315641344566302,-0.0179567146611814,0.000604749257884571,0.000410344399911413,-0.0301322537921993,-0.0202678431714331,-0.461441974644,-0.000913948919178944,0
0.08,0.000621212738406317,0.000351189713776718,-0.0308386208380295,-0.0175759532476319,0.000591050089507543,0.000399874071570006,-0.0294683981889721,-0.0197875763025914,-0.46144753348204,-0.000735514219896492,0
0.09,0.000618094851938641,0.00035058914861439,-0.0307099085775634,-0.0175459095636115,0.000589125929670818,0.000397346997105437,-0.0293842782244054,-0.0196855688383005,-0.461452098796632,-0.000624842989446788,0
0.1,0.000616392072187169,0.000350540773460572,-0.0306464415861887,-0.0175434896759846,0.000588325973196715,0.000395841596823359,-0.0293539281958014,-0.0196297048215909,-0.461455937707887,-0.000535218552938148,0
0.11,0.000615042556406719,0.000350536061438981,-0.030597124368405,-0.0175432446982465,0.00058772215641505,0.000394633429171058,-0.0293318136322797,-0.019585560068566,-0.461459174377422,-0.000459975960695473,0
0.12,0.000613912374534282,0.000350534929130232,-0.0305559164119008,-0.017543185823741,0.000587218997735642,0.000393620361319134,-0.029313466223899,-0.0195486085069426,-0.461461904086951,-0.000396548654610744,0
0.13,0.000641922260166954,0.000366533398636705,-0.0319337977777527,-0.0183438564469256,0.000614016772207619,0.000411575416979392,-0.0306439549681321,-0.0204257811054292,-0.461464553992616,-0.000443858033219637,0
0.14,0.000662903811290385,0.000379387347921388,-0.0330323520462887,-0.0189871640872508,0.00063486943174271,0.00042463752474885,-0.0317091640464254,-0.0211229164005122,-0.461466842123053,-0.000472722249715592,0
0.15,0.000615801910370882,0.000352805662097013,-0.0306831767121563,-0.0176568341267462,0.000590096285756535,0.000394297098087827,-0.0294720269903612,-0.0196117502943582,-0.461468847626145,-0.000253032048094375,0
0.16,0.000610963175338786,0.000350711417897055,-0.0304538427489294,-0.0175520292177758,0.000586067079438406,0.000390896250508945,-0.0292760951216107,-0.0194530337548819,-0.461470106970221,-0.000207620041508152,0
0.17,0.000610137542652393,0.000350546164099378,-0.0304187949142355,-0.0175437591706795,0.000585551884843299,0.000390229963323101,-0.0292531044084321,-0.0194253044337146,-0.461471128781895,-0.000182371554265696,0
0.18,0.000609745040459088,0.000350532906453008,-0.0304040145990353,-0.0175430952455014,0.000585365580684923,0.000389883918391424,-0.0292459454179554,-0.0194123406919686,-0.461471986816239,-0.000162294874783202,0
0.19,0.000609442353265036,0.000350531659502703,-0.030392925171892,-0.017543029153703,0.000585229969482763,0.000389613024790173,-0.0292409625220173,-0.0194024195186548,-0.461472710131923,-0.000145475834292493,0
0.2,0.000609189724706103,0.000350531390352179,-0.0303836987509987,-0.0175430109688274,0.000585117478792792,0.000389386584669909,-0.0292368498469288,-0.0193941484647298,-0.461473320144094,-0.000131301247383381,0
0.21,0.000608976801081294,0.000350531224961052,-0.0303759210925752,-0.0175430101248088,0.000585022722902798,0.000389195706059686,-0.0292333959247121,-0.0193871697050014,-0.461473834625715,-0.000119347379591741,0
0.22,0.00060879733955475,0.000350531090300664,-0.0303693643937015,-0.0175429946828226,0.000584942862614724,0.000389034822853181,-0.0292304710179336,-0.0193812930473875,-0.461474268539631,-0.000109265570786686,0
0.23,0.000608645941428906,0.000350530977092374,-0.030363829531949,-0.0175429951440616,0.000584875490732714,0.000388899097786791,-0.0292280140215547,-0.0193763262468825,-0.461474634503001,-0.000100762574227488,0
0.24,0.000608518175613363,0.000350530881629762,-0.0303591546685625,-0.0175429955457738,0.00058481863510201,0.000388784558676623,-0.0292259387889036,-0.0193721311893141,-0.461474943156604,-9.35911413000378e-05,0
0.25,0.000608410600549283,0.000350530801109786,-0.0303552180893121,-0.0175429813913816,0.000584770764319357,0.000388688119942921,-0.0292241783194263,-0.0193686050840641,-0.461475203475241,-8.75427494178465e-05,0
0.26,0.000614499703279666,0.000353948114791078,-0.030652663560463,-0.0177140088308855,0.000590541972105211,0.000392618558497996,-0.029509762341956,-0.0195587785593298,-0.461475369229146,-0.000106725963678244,0
0.27,0.000597355129255751,0.000344183248790121,-0.0298193461984073,-0.0172253139773673,0.000574164727667078,0.00038161515260648,-0.0287011427751461,-0.0190302194606377,-0.461475738462065,-3.45849077306827e-05,0
0.28,0.000596837936036072,0.000343826588174036,-0.0297332597764624,-0.0172074659432642,0.000573615141665561,0.00038131078384855,-0.0286468328579175,-0.018961080885164,-0.461475888536729,-2.93955519638939e-05,0
0.29,0.000607070866144755,0.000350002495357763,-0.0302933946639725,-0.0175165521893729,0.000583701446565827,0.000387723360858441,-0.0291729989881568,-0.0193249965305876,-0.461475895388903,-6.75258061407521e-05,0
0.3,0.000601576503326312,0.000347218709679312,-0.0300234284165355,-0.0173772251588506,0.000578762204213469,0.000384043529667726,-0.0289280294348186,-0.0191453211287376,-0.461475438521508,-5.68805925386449e-05,0
0.31,0.00060763514481008,0.000350269794814065,-0.0303191568023712,-0.0175299245269108,0.000584191911123714,0.000388109790323662,-0.029196437120802,-0.019342119392068,-0.46147555835588,-7.69456099482367e-05,0
0.32,0.000608139642840358,0.000350510090887062,-0.0303445170993201,-0.0175419524454549,0.000584631770529952,0.000388454427049903,-0.029218502111641,-0.0193594666233748,-0.461475716463942,-7.54041572388713e-05,0
0.33,0.00060813545285215,0.000350528980606487,-0.0303449986918758,-0.017542899791238,0.000584646872506118,0.000388442183251932,-0.0292195674849086,-0.0193594719631047,-0.461475855134687,-7.23811508174253e-05,0
0.34,0.000608091964499407,0.00035053043564024,-0.0303434583276537,-0.0175429611481081,0.00058462885689485,0.000388402527392273,-0.0292189388191843,-0.0193580619744553,-0.461475972586516,-6.96707732861421e-05,0
0.35,0.000608051393765778,0.000350530522454199,-0.030341966679161,-0.0175429671524066,0.000584610908179273,0.000388366103915267,-0.0292182819271799,-0.0193567207887484,-0.461476071691612,-6.73698368785699e-05,0
0.36,0.000608016876622902,0.000350530505842241,-0.0303406911864979,-0.0175429673208199,0.000584595556308634,0.000388335155926534,-0.0292177157569543,-0.0193555762001448,-0.46147615528138,-6.54278255072728e-05,0
0.37,0.000607987714584823,0.000350530484755032,-0.0303396100352668,-0.0175429674755246,0.000584582579812506,0.000388309012525371,-0.0292172358554032,-0.0193546060127587,-0.4614762257813,-6.37898010240176e-05,0
0.38,0.00060796315095195,0.000350530466412423,-0.0303386968522835,-0.0175429676184282,0.000584571649017459,0.000388286991751904,-0.0292168305207793,-0.0193537865513712,-0.461476285241063,-6.24082777470896e-05,0
0.39,0.00060794231260937,0.000350530450897693,-0.0303379176760282,-0.0175429677517623,0.000584562375898434,0.000388268310774066,-0.0292164846665285,-0.0193530873554413,-0.461476335389422,-6.12430988329956e-05,0
0.4,0.000607924850311119,0.00035053043780899,-0.030337263238516,-0.0175429678764296,0.000584554605153828,0.00038825265620445,-0.0292161941949548,-0.0193525000834296,-0.461476377684517,-6.02603859487807e-05,0
0.41,0.000607910065565267,0.000350530426769475,-0.0303367055092634,-0.0175429679942254,0.000584548025906601,0.000388239402064568,-0.029215946650347,-0.0193519996002032,-0.46147641335632,-5.94315651495111e-05,0
0.42,0.000607897609125847,0.0003505304174587,-0.0303362328427178,-0.0175429681060466,0.000584542482763957,0.000388228235177248,-0.0292157368681718,-0.0193515754476762,-0.46147644344178,-5.87325370602865e-05,0
0.43,0.000607887131746897,0.000350530409605762,-0.0303358326917721,-0.017542968212787,0.000584537820314455,0.000388218842437971,-0.0292155592793187,-0.0193512163652484,-0.461476468815948,-5.81429762402938e-05,0
0.44,0.00060787828418245,0.000350530402982587,-0.0303354917285083,-0.017542968315343,0.000584533883131493,0.00038821091080359,-0.0292154079643419,-0.0193509103972033,-0.461476490216363,-5.76457401977651e-05,0
0.45,0.000607870833601863,0.000350530397396645,-0.0303352018127877,-0.0175429684143138,0.000584530567611904,0.000388204231520188,-0.0292152793112675,-0.0193506502364338,-0.461476508265607,-5.7226370943595e-05,0
0.46,0.000607864547174492,0.00035053039268535,-0.0303349542336626,-0.0175429685102982,0.000584527770141254,0.000388198595877792,-0.0292151694520593,-0.0193504280675954,-0.46147652348832,-5.68726745974475e-05,0
0.47,0.000607859192069695,0.00035053038871188,-0.0303347398364019,-0.0175429686038935,0.000584525387096288,0.000388193795202935,-0.0292150743194868,-0.0193502356803798,-0.461476536327109,-5.65743668326622e-05,0
0.48,0.000607854768287472,0.000350530385360659,-0.0303345607306388,-0.0175429686950987,0.000584523418518504,0.000388189829328835,-0.0292149948601334,-0.0193500749528369,-0.46147654715529,-5.63227738372745e-05,0
0.49,0.000607850926581856,0.000350530382534119,-0.0303344012163071,-0.0175429687848112,0.000584521708933845,0.000388186385401388,-0.0292149240901188,-0.0193499318175892,-0.461476556287782,-5.61105801144996e-05,0
0.5,0.00060784772516051,0.000350530380150454,-0.0303342656918461,-0.0175429688728825,0.000584520284290291,0.000388183515420768,-0.0292148639729432,-0.019349810205293,-0.461476563990007,-5.59316157685882e-05,0
0.51,3.10273315409456,0.025551273442668,4.6914089759935,-1.27251701499867,-0.244515838275412,3.09318895283243,-1.67589246867639,4.56289405607091,0.0871206151285497,26.6909915192866,613.497207879402
0.52,3.02622606191439,0.0201344902235554,3.58177464565175,-0.993456202608285,-1.13468348769545,2.80552008694604,-2.28350210156647,2.93286259324847,0.390987131570999,56.1680422407546,613.497207879402
0.53,2.91295627265374,0.00949170049405068,4.02333825765264,-0.452816676907439,-2.29791036879196,1.79025480749793,-3.45899471406602,2.10419800552139,0.912201041867417,86.3552812917412,613.497207879402
0.54,2.77658792849037,-0.00873737187990931,5.39763575710562,0.457088315708972,-2.76532932096198,-0.249941218957068,-5.41693792925798,-0.0136001951864368,1.65778850119229,116.241592960582,613.497207879402
0.55,2.67542125984885,0.00717886483488606,5.89961065651714,-0.326014153846654,-1.37003301623768,-2.29802958818423,-2.72698808059395,-5.24168170869784,2.60667198081706,142.545855155415,613.497207879402
0.56,2.571624423666,0.017240163087051,6.08458253818154,-0.836604443982061,1.46268461971808,-2.11520757914181,4.17907534593367,-4.50082002668887,-2.52988435751658,169.994034766013,613.497207879402
0.57,2.45666917256019,-0.0196449927013114,7.4437153813152,1.0264208499805,2.27685647263787,0.922785973101472,7.29871651168204,1.78638621843182,-1.19373481381134,194.838702039758,613.497207879402
0.58,2.38674248046126,-0.00290747345793435,6.41945950607036,0.189673561549333,-0.769770446151497,2.25920374948166,-1.8833818235389,6.13989489460456,0.327171350168021,219.274805556539,613.497207879402
0.59,2.25991611328593,0.0290412084850208,8.33675793341649,-1.41455954324318,-2.04510455207254,-0.962087107268261,-6.87892737514818,-4.9176081288773,2.02336264920362,243.09038830694,613.497207879402
0.6,2.18740960018804,0.0485026281958518,7.74142587022853,-2.39124466914945,1.44998496366112,-1.63849225481641,7.01277823309963,-4.05816054701427,-2.39498462736087,265.783983408024,613.497207879402
0.61,2.08966543622805,0.0514241497463724,8.55083826344328,-2.53795090931675,0.799091980715868,1.93152739688022,0.705156385370055,8.8916131437349,-0.367665261320433,287.480319597085,613.497207879402
0.62,2.02397901189407,0.0455586826224155,7.89216236779713,-2.24100984634594,-1.97477011925307,-0.445925565823728,-7.11457660273319,-4.08548060023959,1.8153885814349,308.256592517683,613.497207879402
0.63,1.92986385292564,0.0276860014536431,8.79189306076368,-1.33936010457695,1.61578485556492,-1.05564212971657,8.1449053070937,-3.57096438236421,-2.13516444073658,328.110717166777,613.497207879402
0.64,1.86975580611363,0.0469177133865172,8.10506684047245,-2.29053061111252,-0.581125480665094,1.77777423258602,-4.8693725096364,6.87225220225268,0.341022426584752,347.21835740418,613.497207879402
0.65,1.72389156801491,0.0245680861957914,11.8071158246656,-1.17255707586531,-0.343813392846066,-1.68943720807608,-1.03724263361648,-11.8197716522883,2.95507720313703,365.727235510834,613.497207879402
0.66,1.71357697817359,0.0386087324226024,8.77003518832684,-1.8995660232091,0.97378362725168,1.41052548422294,3.2315586889556,8.37131391842744,-0.581705922580271,383.482097437025,613.497207879402
0.67,1.64197885298079,0.0658476046552399,8.99388679605056,-3.23888691510509,-1.27762132447446,-1.03349611122783,-4.6239860572218,-8.36654893559047,2.29103505234577,400.195330627749,613.497207879402
0.68,1.53441400553433,0.0102616801204529,11.1057110962609,-0.488137077456979,1.29537607340775,0.822515939603317,9.07097502428302,6.42592474814593,-0.998377044278976,416.516116592938,613.497207879402
0.69,1.51489861204398,0.00273019514994666,8.89267451927545,-0.0843512318058111,-1.30012344322348,-0.777563046394988,-7.58023636436507,-4.6504614713419,2.11159671953588,431.881219819989,613.497207879402
0.7,1.35478934652794,-0.00179315878706982,13.8411279118849,0.110901757889699,1.10164739918533,0.788562233911963,11.3299924989242,7.95112514348656,-0.950866609533309,446.797304475368,613.497207879402
0.71,1.35556805707136,0.0531871343224727,10.8359527048616,-2.60252723535644,-0.977526844648471,-0.940656630551905,-5.63074052895816,-9.61695274649499,2.3761913679291,460.813650644463,613.497207879402
0.72,1.26738184206589,0.0392476782350119,12.3352697892124,-1.93352703512877,0.618246861489421,1.1070537169007,3.96171326875307,11.8407024937043,-0.478358701583666,474.484153382253,613.497207879402
0.73,1.20875165079944,0.0116061982132333,12.5223792857083,-0.563092800323032,-0.125541956799021,-1.20227054951471,-0.620299685394715,-12.5196759054383,3.04715050354138,487.411340458624,613.497207879402
0.74,1.15987096149024,0.0185916340435396,12.2789245766043,-0.870337961288553,-0.415414248334161,1.0830869302349,-5.38789557799645,11.0679744382341,0.382270077839202,499.65303249289,613.497207879402
0.75,1.1050527505839,-0.00442206114590527,12.385727023439,0.266706433403079,0.899939392205083,-0.641303536989596,9.9021904771066,-7.44472900620735,-2.193935316104,511.533793252484,613.497207879402
0.76,1.04715998447818,-0.0074657409592821,12.7592808672642,0.401177953660054,-1.0465850414972,-0.035489735061115,-12.765447391543,0.0595390122887315,1.5975639804024,522.844145752304,613.497207879402
0.77,1.00590632890724,0.00764702155604174,12.3924273173916,-0.367352294232419,0.736234127236446,0.685467234349468,8.7530794875167,8.780136787666,-0.813489572290361,533.609069568729,613.497207879402
0.78,0.958176675955312,-0.0296527962710086,12.4350225235394,1.49346383018756,0.0238152550413942,-0.958339534976396,-1.56918740435478,-12.425693954988,3.13550084685875,543.83024515963,613.497207879402
0.79,0.84208936515542,-0.00940345989649494,15.9774895557167,0.474962783378167,-0.652056581973362,0.532940088444376,-11.9527706389045,10.6130597003114,0.874415810343689,553.541582153127,613.497207879402
0.8,0.847112885308282,0.00329941238728226,13.5368696773248,-0.159835409833263,0.820831148589162,0.209397593308091,13.0635432857499,3.55193255009873,-1.3171245017278,562.797610427691,613.497207879402
0.81,0.771112726312549,-0.0196700230876498,15.209891008978,0.986778412428445,-0.209605498839083,-0.742339060905365,-5.44746139679486,-14.2351564961771,2.84089547015186,571.623395552239,613.497207879402
0.82,0.747339234228004,-0.00187259640709003,14.3585327335045,0.0941906488017022,-0.526213106297406,0.530678060969773,-10.0174043475114,10.2872709829139,0.778667897590053,579.972755768523,613.497207879402
0.83,0.722706193532067,-0.0389850560071228,13.6173377860856,1.95023301182226,0.66640300208453,0.282366987401527,13.4692357268491,2.79552966632944,-1.22390292369413,587.903644915741,613.497207879402
0.84,0.690707226746021,0.00457067972182335,13.3122518260777,-0.228947329231341,0.285746467790509,-0.628845227649496,5.7950597507595,-11.9868990170769,-2.7084694799618,595.456312163827,613.497207879402
0.85,0.641738191581893,0.0396910260215854,13.9195043374088,-1.98169768508608,-0.642158868306767,-0.0321756419736653,-13.611390555686,-3.52275089309465,1.68263044864046,602.574901686505,613.497207879402
0.86,0.592627468695608,0.00109487542924001,14.5967357553916,-0.0390516126587621,0.0945647398199458,0.585035063383004,2.26398836515886,14.4201448128514,-0.158405878233512,609.371983057992,613.497207879402
0.87,0.569387582452568,-0.00370133228658676,14.0528343812284,0.216863840757637,0.530112184032014,-0.207838858861099,12.9691277753601,-5.41580177056428,-1.95094467956716,615.762848160526,613.497207879402
0.88,0.514418186109316,0.0199503424462544,15.1616417578964,-0.955347506644068,-0.288593437009983,-0.426307300522155,-7.19521343512842,-13.3797224663364,2.58525990753007,621.803234624006,613.497207879402
0.89,0.525420935320489,0.02427466021126,13.0380493693417,-1.18844080836918,-0.389976013412279,0.352952018501801,-10.8161884460262,7.37652969982757,0.881359782322736,627.52229425534,613.497207879402
0.9,0.469453729200193,0.00478405812658911,14.3111096679486,-0.250957599319553,0.334223160761059,0.329703760795982,9.9071336940381,10.3305150700806,-0.782014793932176,632.902298252563,613.497207879402
0.91,0.450744710173693,0.0127679183038102,13.7720303913643,-0.631356731863193,0.292627839902099,-0.343078359564708,9.69901913647937,-9.79777833050625,-2.40707118061795,637.975052366589,613.497207879402
0.92,0.448891239852526,0.0029437622467065,12.4700809796327,-0.112540659356063,-0.340539203050113,-0.292480874825171,-9.33251842743267,-8.27161923931676,2.28697848283307,642.697089745885,613.497207879402
0.93,0.340960185164593,-0.00551893385342975,16.4963671749466,0.310685736063377,-0.231946089708193,0.249970634210162,-10.7922526839,12.4801417301288,0.731828773350124,647.227172331998,613.497207879402
0.94,0.352402645492061,-0.0149333711652728,14.6151833259555,0.732209398449463,0.240170092322674,0.258319486059185,10.9105391309769,9.75191520296849,-0.791356005064571,651.432969591413,613.497207879402
0.95,0.31966999975641,0.0442773730717472,14.9997526180634,-2.20233149263671,0.212602152785341,-0.242795632459558,12.7785189827221,-8.1579590103635,-2.28476500477325,655.3573078355,613.497207879402
0.96,0.298311581634319,0.0327435736294091,14.8608174400481,-1.60174052635162,-0.19742853606852,-0.226017509270929,-7.18285831020372,-13.1078607787744,2.5329325699715,659.036000172314,613.497207879402
0.97,0.258204408393569,-0.00366832420885173,15.7051786962239,0.160086967349304,-0.231041165415526,0.115338428114006,-13.8769711050785,7.35580985794612,1.09357354352577,662.497655047983,613.497207879402
