t,iq,id,vq,vd,ia,ib,va,vb,theta_e,omega,r
0,0,0,0,0,0,0,0,0,0,0,0
0.01,0.00109336387182406,0.00044245431002634,-0.0492398779857698,-0.0221390911197038,0.00101213310851958,-0.000605637633663467,-0.0452406407394611,0.029461659239477,-1.72549401749008,-0.00974764454445719,0
0.02,0.00100130690596735,0.000515268863215674,-0.0501443219468393,-0.0257825228369971,0.000909936387786547,-0.00066342542272621,-0.0455719121656998,0.0332022940308391,-1.72552373653648,-0.000334347200931111,0
0.03,0.000934166755316547,0.000543301598869902,-0.0472025146770945,-0.0271852027752515,0.000839281599899184,-0.000680772025089092,-0.0424492525975985,0.034134639234627,-1.72551870607691,0.00015964277843751,0
0.04,0.000898511117858927,0.000531966902659957,-0.0453023965516904,-0.0266180555364253,0.000805802464556642,-0.000664073341247914,-0.0406594252403828,0.0332812132138922,-1.72551293869643,-0.000316637296928586,0
0.05,0.000958402535138432,0.000545367465572072,-0.0478039745079763,-0.0272885779801277,0.000862911154789215,-0.000686546015067178,-0.0430276793476652,0.0343293646444449,-1.72551630389621,-0.00102503143957036,0
0.06,0.000954863507701712,0.000547023715263769,-0.0478828982675917,-0.0273714309701695,0.000859157876565553,-0.000687638718032053,-0.043092827748303,0.0344234713025049,-1.72551818235492,-0.000487556075738909,0
0.07,0.000973972462900335,0.000558199582475336,-0.0484502477722853,-0.0279306571317914,0.000876317031577277,-0.000701624965726972,-0.0435672565821223,0.0350634035843221,-1.72551714574645,-0.00121706285031847,0
0.08,0.000954062540683298,0.000548610317824467,-0.047907786873383,-0.0274508326084703,0.00085812163349379,-0.000689083358156676,-0.0431051657970357,0.0345057811911831,-1.72551867608582,-0.000349551068376133,0
0.09,0.000945659123790682,0.000547425085215434,-0.0474927658203194,-0.0273915237082077,0.000850001978470933,-0.000686616369545021,-0.0427042786598348,0.0343831784520305,-1.72551761805535,-0.000389931482635113,0
0.1,0.00094827450246534,0.000547278577500336,-0.0475676066422104,-0.0273841890605191,0.000852608807896945,-0.000686874511183251,-0.0427793615421046,0.0343874575713328,-1.72551745037541,-0.000495930060618481,0
0.11,0.000949257745291166,0.000547260387027021,-0.0476171692291007,-0.0273832814348029,0.000853583016943888,-0.00068700817417932,-0.0428284673582157,0.034394204326844,-1.72551758389809,-0.000488885476467268,0
0.12,0.000948916648275709,0.000547258131728179,-0.0476069313326238,-0.0273831689450418,0.000853246329661033,-0.000686953396554234,-0.0428183684733947,0.0343925162449399,-1.72551760192768,-0.000475975133509139,0
0.13,0.00100780684687605,0.00057072926125933,-0.0500281334179913,-0.0285576039869762,0.000907813917942368,-0.000719222094111405,-0.0450295559174198,0.0359261739216029,-1.72552055948633,-0.00125636467811312,0
0.14,0.00101442035934229,0.000586707099205206,-0.0512168232327371,-0.0293570815846602,0.000911886293421477,-0.000736028038580031,-0.0460808488643568,0.0368992762688123,-1.72552032258281,-0.00147976939298577,0
0.15,0.000948402418429031,0.00055213509811918,-0.0478280736767109,-0.0276272103676776,0.000851985160917322,-0.00069169472994508,-0.0429991851451137,0.0346678159274713,-1.72551979672461,6.06372217508011e-05,0
0.16,0.000940790630033766,0.000547861202080032,-0.0472738229712828,-0.0274133565683764,0.000845124716979395,-0.00068629666985525,-0.0424846008364943,0.0343709928344946,-1.72551720505926,-0.00036561834344749,0
0.17,0.000949066595240761,0.000547332564585378,-0.0475812926533269,-0.0273868880516052,0.00085338320834017,-0.000687049807641728,-0.0427924726075298,0.0343922278406984,-1.72551732049816,-0.000546898944475699,0
0.18,0.000949841452076654,0.000547267032206033,-0.0476434332233781,-0.0273836150750716,0.000854158690350174,-0.000687104737519661,-0.0428543643652063,0.0343985836735223,-1.72551763726837,-0.00049088116424286,0
0.19,0.000948807683578795,0.000547258947156658,-0.0476043158716025,-0.0273832105412594,0.00085313853067957,-0.000686937423009605,-0.0428157773315277,0.0343921549288103,-1.72551761686146,-0.000469661941311026,0
0.2,0.000948732479227388,0.000547257966722744,-0.0475973695797777,-0.0273831613536273,0.000853064402280561,-0.000686924832018881,-0.0428089229238104,0.034391034220215,-1.72551757826801,-0.000476972746922131,0
0.21,0.000948861234566831,0.000547257842800458,-0.0476022623035486,-0.0273831552650203,0.000853191636428382,-0.000686944554166463,-0.0428137580275612,0.0343917823359228,-1.72551758153613,-0.000479441746989888,0
0.22,0.000948867986655487,0.000547257825143195,-0.0476029624297733,-0.0273831553272204,0.000853198307360959,-0.000686945581248247,-0.0428144496196392,0.0343918904908187,-1.7255175862239,-0.000478493498710259,0
0.23,0.000948851921341099,0.000547257823335066,-0.0476022822887207,-0.0273831554511515,0.000853182434571765,-0.000686943103300649,-0.0428137776010552,0.0343917857792288,-1.7255175857308,-0.000478208123126978,0
0.24,0.000948851455679812,0.000547257823390689,-0.0476021520141967,-0.0273831555328207,0.000853181974853528,-0.000686943031111784,-0.0428136488896158,0.0343917657597577,-1.72551758516441,-0.00047833043355066,0
0.25,0.00094885343474028,0.000547257823345501,-0.0476021779344099,-0.0273831556078657,0.000853183930230244,-0.000686943336111616,-0.0428136744861368,0.0343917698314426,-1.72551758523705,-0.000478363169608584,0
0.26,0.000963899562042842,0.000552086144949727,-0.0481470088879542,-0.0276247525412509,0.000867306201966261,-0.000694032729186955,-0.043314763182446,0.0347144452392762,-1.72551766506256,-0.000838983512364852,0
0.27,0.000935723488060537,0.00053954011883503,-0.0472876352238746,-0.0269969981661858,0.000841399209571921,-0.000677295619410346,-0.042562350079522,0.033961812536428,-1.72551899071311,0.000188274762994889,0
0.28,0.000936563677869747,0.000539298809869753,-0.0462532632654,-0.0269849151535293,0.000842267321025379,-0.000677185712315736,-0.0415422349529442,0.03379042354952,-1.7255178520104,-0.000104599543376118,0
0.29,0.000946117477011295,0.000546273887071231,-0.0474452873114537,-0.027333929466484,0.000850632655643738,-0.000685549068378487,-0.0426662625796113,0.0343189310094701,-1.72551704314813,-0.000538659458566916,0
0.3,0.000935152118275201,0.00054072178469964,-0.0467423896489045,-0.0270561138081824,0.000840655824875036,-0.000678371076083755,-0.0420146709230414,0.0339359943381636,-1.72551418277229,-0.000944393600774417,0
0.31,0.00095918362091427,0.000546449473973689,-0.0479703003483478,-0.0273427067513547,0.000863515287034904,-0.000687736574055327,-0.0431836328206182,0.0344085335987353,-1.72551758642357,-0.000738741539744342,0
0.32,0.000950337491842251,0.000547157645496748,-0.0477006124882714,-0.0273781525872707,0.00085466540966073,-0.000687073413076086,-0.0429116897721342,0.0344020137746067,-1.72551800408681,-0.000415881967052013,0
0.33,0.000947552551053488,0.000547245450217182,-0.0475546863532452,-0.0273825370090529,0.000851900498676012,-0.000686730631431962,-0.0427668458289255,0.0343838395914796,-1.72551757693502,-0.000447513931522304,0
0.34,0.000948695924724923,0.000547256319528254,-0.0475906767951997,-0.0273830781813599,0.000853028568770392,-0.000686917533416366,-0.0428023244314619,0.0343899187520922,-1.72551753387981,-0.000486638290773261,0
0.35,0.000949016474388798,0.000547257634983958,-0.0476078807931571,-0.0273831472361418,0.000853345049899809,-0.000686968276939387,-0.0428193104405438,0.0343926404855459,-1.72551758730443,-0.000481979008271058,0
0.36,0.000948869383636193,0.000547257796841252,-0.047603050208735,-0.0273831535350374,0.000853199688349789,-0.000686945773118586,-0.0428145364426982,0.0343919024756648,-1.72551759156018,-0.000477254052305487,0
0.37,0.000948832829228347,0.000547257820400259,-0.0476009682550644,-0.0273831566247711,0.000853163571545416,-0.000686940157509067,-0.0428124791118209,0.0343915844045646,-1.72551758490137,-0.000477920042013949,0
0.38,0.000948851572095134,0.000547257823344002,-0.0476015396588971,-0.0273831566543976,0.000853182090335768,-0.000686943048446457,-0.0428130436988983,0.0343916724730429,-1.72551758450881,-0.000478488642692607,0
0.39,0.000948855763046713,0.00054725782327103,-0.0476017276047522,-0.0273831567234488,0.000853186230666707,-0.000686943694926333,-0.042813229360524,0.0343917015400686,-1.72551758533708,-0.000478395536347923,0
0.4,0.000948853318324959,0.000547257823266114,-0.0476015907564071,-0.0273831568104778,0.000853183815126339,-0.000686943318206617,-0.0428130941323476,0.0343916805385026,-1.72551758537018,-0.000478327364591082,0
0.41,0.000948852852663672,0.00054725782331902,-0.0476015103664731,-0.0273831568921459,0.000853183355089286,-0.000686943246411557,-0.0428130146936208,0.0343916682263762,-1.72551758526851,-0.000478340159528978,0
0.42,0.000948853201909637,0.000547257823323378,-0.0476014706454811,-0.0273831569716062,0.000853183700163477,-0.000686943300235303,-0.0428129754349101,0.0343916621836457,-1.72551758526733,-0.000478348300976856,0
0.43,0.000948853318324959,0.000547257823317082,-0.0476014245291291,-0.0273831570516972,0.000853183815179843,-0.000686943318180768,-0.0428129298566323,0.0343916551566127,-1.72551758528086,-0.000478346566668507,0
0.44,0.000948853201909637,0.000547257823316164,-0.0476013666725772,-0.027383157132419,0.000853183700154688,-0.000686943300240472,-0.0428128726787343,0.0343916463204421,-1.72551758528175,-0.000478345598402873,0
0.45,0.000948853201909637,0.00054725782331664,-0.0476013139694113,-0.0273831572128254,0.000853183700155149,-0.000686943300240279,-0.0428128205927685,0.0343916382780495,-1.72551758528097,-0.000478345830832394,0
0.46,0.000948853201909637,0.000547257823315828,-0.0476012612812327,-0.0273831572932318,0.000853183700154663,-0.000686943300240235,-0.0428127685215537,0.0343916302380379,-1.72551758528186,-0.00047834594548413,0
0.47,0.000948853201909637,0.000547257823315496,-0.0476012086535394,-0.0273831573736382,0.000853183700154017,-0.000686943300240774,-0.0428127165100972,0.0343916222073527,-1.72551758528287,-0.000478345914627911,0
0.48,0.000948853201909637,0.000547257823314941,-0.0476011560408146,-0.0273831574540446,0.000853183700153491,-0.000686943300240984,-0.0428126645134349,0.0343916141789689,-1.72551758528376,-0.000478345901110807,0
0.49,0.000948853201909637,0.000547257823314342,-0.0476011033975784,-0.027383157534451,0.00085318370015306,-0.000686943300241042,-0.04281261248663,0.0343916061458776,-1.72551758528452,-0.000478345905171907,0
0.5,0.000948853201909637,0.000547257823314473,-0.0476010507465771,-0.0273831576148574,0.00085318370015243,-0.00068694330024193,-0.0428125604521483,0.0343915981115952,-1.72551758528541,-0.000478345906755519,0
0.51,4.16274813313806,0.131138956828202,11.4011852186857,-6.47273365045841,-2.63463175649179,3.22558288587154,-12.3683856723152,4.34814226554523,0.716389261464305,219.507553024256,662.063475488704
0.52,2.32087390471907,0.0567355067498478,17.1376060169201,-2.79509326810941,-0.283650893136728,-2.30417377169233,1.10408745475446,-17.3289087152325,3.04354671120972,397.542662932996,662.063475488704
0.53,1.28794759590961,0.0736117814552056,19.6249748491773,-3.59696909757024,-0.0224877028927525,1.28985348291849,-5.04817813494814,19.3026869123847,0.0745247594602081,497.617486504939,662.063475488704
0.54,0.720172305306215,0.0584209412593636,19.5584656868536,-2.85144412091035,0.485241521692363,-0.535352053637023,16.2147426829535,-11.302496773904,-2.32431094985647,556.526651616894,662.063475488704
0.55,0.323650266051497,-0.0170730118139737,22.8921542539586,0.824355215809375,-0.301735111875428,-0.118308514947689,-21.9831235691268,-6.43991972413997,1.89176605425979,590.677120554331,662.063475488704
0.56,0.1485608579576,0.0519254759652804,22.2323216608216,-2.60884619985463,0.0496087053171643,0.149350460086582,-2.95429850025082,22.1890586843189,0.0155531113154277,610.160585728036,662.063475488704
0.57,0.0768119586559213,0.0494282913300225,20.2949678085903,-2.42951901027763,0.0668317400956417,-0.0622635647241076,20.404192350696,-1.20715180852091,-1.74903283813243,621.765900925679,662.063475488704
0.58,-0.0519855816758754,-0.00573865403689328,23.5240275255386,0.238219893676611,0.0211263995155473,0.0478446245240126,-7.31081164538071,-22.3604260430298,2.8357215326676,628.454878621669,662.063475488704
0.59,-0.116162313327829,0.0153876593253415,24.9078080377167,-0.756345336764253,0.11313880082229,-0.0304971284825249,-23.2808945904252,8.88655763396043,1.17579919253305,632.681956727379,662.063475488704
0.6,-0.0758791055737322,0.0190314566631184,21.8513144565739,-1.00388605880606,-0.0167009299059309,-0.0764258722270602,8.81905666637615,20.0177913420634,-0.460886118180022,635.029519419331,662.063475488704
0.61,-0.123723103180542,-0.0121075246475152,23.7009272634441,0.599187304202634,-0.101833961289683,0.0713010711123228,20.3524389497912,-12.1602305639164,-2.08408703784703,636.398926841223,662.063475488704
0.62,-0.176731850860301,0.053116731795184,25.8644145395558,-2.62810093131794,0.0482492637705918,0.178122269384558,-11.4302701461699,-23.3500273739616,2.585102220784,637.622995835615,662.063475488704
0.63,-0.134367179500196,-0.0344612669561193,23.691805355107,1.70026709348275,0.0921156180086323,-0.103715142413953,-18.6893012983783,14.6595554554663,0.977294454409294,637.932764521869,662.063475488704
0.64,-0.0609292478620275,-0.0229417438431235,19.861831500772,1.19021382827296,-0.0543424841825291,-0.0358551428454476,12.6240549814752,15.3799283271009,-0.627450865696188,638.672218605464,662.063475488704
0.65,-0.135507002094271,0.0606159010710962,23.5550412509874,-3.07150628429106,-0.144280513066923,0.0349223227804664,20.5142131957481,-11.9766930389633,-2.22890226909271,638.832744194839,662.063475488704
0.66,-0.157146363666312,0.0434174227614449,24.5612150927414,-2.13884637568041,0.0660167653055249,0.149069912830813,-13.9125949901931,-20.3535660582986,2.45513219127347,639.248550996738,662.063475488704
0.67,-0.100961973304159,0.00367047694658378,21.8101004194131,-0.230539799283342,0.0787609591386655,-0.0632732468745092,-16.6462718409571,14.0938022797575,0.857672133283919,639.28435442426,662.063475488704
0.68,-0.126440071156545,-0.0481265571551351,23.1429808239828,2.43605724729217,-0.120687816002487,-0.0611367987895064,17.3763290905221,15.4788605416935,-0.738211586335698,639.531700418789,662.063475488704
0.69,-0.0969501203210395,-0.00933869420482017,21.5268664957081,0.41434846222653,-0.0637471345035344,0.0736399340188696,15.2990327276997,-15.1498271729074,-2.33204873506569,639.937934661158,662.063475488704
0.7,-0.0683277314607337,-0.00675387548089711,20.1965938014141,0.358271519645296,-0.0513384256766884,0.0455923213888122,16.1367853759085,-12.1505109930806,-2.19845801294448,640.182208226485,662.063475488704
0.71,-0.116128917785818,-0.0300298867185819,22.4247435967746,1.44684916506831,0.093882909756632,0.074657343229345,-14.6537563472476,-17.0361357943357,2.49566214090458,640.429520344932,662.063475488704
0.72,-0.129297751204188,-0.0126221900434001,23.1532106691785,0.637234479204787,0.0941897262457355,-0.0894735917335681,-17.8646381738252,14.7421821651734,0.908383439104045,640.750644533836,662.063475488704
0.73,-0.0858656128968541,0.000252022151160332,20.9316137142637,-0.0642904409744745,-0.0536466469535362,-0.0670447929667898,13.0753152691581,16.3454188247373,-0.677774340447588,641.027675195098,662.063475488704
0.74,-0.101674107718202,-0.0116111088048382,21.7668666384318,0.576237079941866,-0.0709712915077915,0.0737259642845478,16.4104170884036,-14.3117694018667,-2.26152300648037,641.140407681017,662.063475488704
0.75,-0.141677828415451,0.0342327929215849,23.5781775180302,-1.70532034582727,0.0652882083064189,0.130314776721091,-13.9144445174783,-19.1109080455026,2.44006210442096,641.72002670904,662.063475488704
0.76,-0.118848841192401,-0.0359631539518819,22.5134046518735,1.78269816156088,0.0667355423213463,-0.104712763720662,-15.9184928146159,16.0197686707785,0.861246163677253,641.835316674894,662.063475488704
0.77,-0.106799851971181,0.0378369561476816,21.9028999425498,-1.85467996178773,-0.0416501136303887,-0.105371303807837,12.9932474777125,17.7299854381475,-0.716903981944131,642.070660310181,662.063475488704
0.78,-0.0617854511389165,-0.0201976409683777,19.7602252967831,0.98641622354834,-0.0329351079164473,0.0560416393377183,14.1567439193378,-13.821220002156,-2.29432475303037,642.076956932981,662.063475488704
0.79,-0.143348058120684,0.0679275656162807,23.7773498321874,-3.36148811667972,0.044742664807904,0.152187101567159,-13.3207955432604,-19.9804497821109,2.41313005226013,642.320050170208,662.063475488704
0.8,-0.0394682522707084,-0.0204758494543264,18.6437913379311,0.992390420479951,0.0156325097011856,-0.0416248482114092,-13.1919186763286,13.2117022308296,0.837827705565121,642.577227171479,662.063475488704
0.81,-0.129770611847245,-0.043320810918154,23.0793448016586,2.20459616384665,-0.119117213233797,-0.067291855890805,17.1023769280333,15.6532777440051,-0.734375477412864,642.904310722812,662.063475488704
0.82,-0.123438341036245,-0.0281453502223287,22.7553346249178,1.36462998576597,-0.0728154881741944,0.103571663397242,15.9841876899603,-16.2534061901546,-2.30464743181636,642.98744266879,662.063475488704
0.83,-0.171262447576445,0.0115225717312201,25.116764105763,-0.545608659817444,0.105882750043967,0.13510158715686,-16.3796037342954,-19.0488348583756,2.40967443038815,643.3155339999,662.063475488704
0.84,-0.14446460778128,0.000446192616258112,23.9132463533855,-0.073033370053598,0.107927734430285,-0.0960303396328253,-17.8647424202391,15.8965299134546,0.840576102044009,643.141379818752,662.063475488704
0.85,-0.107337941071742,0.0620042197260775,22.047004732936,-3.07350883703512,-0.0249757096681909,-0.121417341364118,12.3510999400681,18.5193737619792,-0.726698301942841,643.517051206307,662.063475488704
0.86,-0.0496113024822684,-0.0140192719715223,19.2485495334196,0.651661058475052,-0.0278945205364802,0.0433557037151806,13.9928423750803,-13.2337327894211,-2.2944783636424,643.31784377333,662.063475488704
0.87,-0.151630448454254,-0.00378470882695982,24.4383655201542,0.210189129597721,-0.126016326538119,0.0844156523707611,20.5242697855168,-13.2677141414106,-2.13606444375612,643.4887015039,662.063475488704
0.88,-0.056715695409156,-0.0550730846458413,19.676970954183,2.70324290414702,0.0768026027000202,0.0187369948672407,-12.7546896595125,-15.2252618966016,2.58079044721337,643.634146362799,662.063475488704
0.89,-0.0455927319553062,-0.0512028794813051,19.112854861191,2.581901745363,0.0118456927725782,-0.0675285986605908,-14.8975598890789,12.2486793948968,1.01694274977171,643.998251898798,662.063475488704
0.9,-0.200231460825253,-0.00815535265149941,26.7349907144465,0.347197117646509,-0.110756124330638,-0.167009666200317,14.1539004994239,22.6836367232516,-0.544872146485058,644.247288652578,662.063475488704
0.91,-0.0989051505772907,0.00815495361899685,21.6524413801322,-0.397882906820953,-0.0893057306881997,0.04328069483605,18.8453012063464,-10.6696368715003,-2.10434283741311,644.614784741458,662.063475488704
0.92,-0.20155681416283,0.00815932472188688,26.6968001885165,-0.468589601502351,0.0931276087230476,0.178938459837213,-12.8661534670565,-23.3965982886906,2.6212637999111,644.755021297253,662.063475488704
0.93,-0.0733912536491725,0.0293511758224988,20.4552719105417,-1.46353382693711,0.0784186174584369,-0.0099140340057791,-18.5996384271587,8.63791239685537,1.06459518115098,644.768806839081,662.063475488704
0.94,-0.085282845173879,-0.00286882656614435,20.8923415285406,0.0911328806500374,-0.0427085014981671,-0.0738740668069621,9.92307198645809,18.3856161740282,-0.490553918977271,645.17510220138,662.063475488704
0.95,-0.0989927523928147,0.0427090558091691,21.6825324837327,-2.13945748273714,-0.107579579077248,0.00708961493862267,20.2756404687856,-7.97545589976574,-2.04391179670896,645.365154613543,662.063475488704
0.96,-0.100939503017677,-0.035518052923538,21.6728867675241,1.75324329613764,0.0762332727354421,0.0750919668205499,-11.0917357597338,-18.7019058047466,2.68699647534306,645.499167759308,662.063475488704
