t,iq,id,vq,vd,ia,ib,va,vb,theta_e,omega,r
0,0,0,0,0,0,0,0,0,0,0,0
0.01,0.000642465260996684,0.000355175868258846,-0.0306181365445324,-0.0177708056086093,0.00040405056305955,-0.000612906723304797,-0.0188639593002745,0.0299570168233788,-2.05373607331724,-0.00403560823677736,0
0.02,0.000764288817386448,0.00041913489740057,-0.0366725994134908,-0.0209709342085431,0.000482217532240663,-0.000726138905582594,-0.0227388025003971,0.0356034617722679,-2.0537670144853,-0.00433939075276093,0
0.03,0.000807638474087433,0.000443647901368489,-0.0388892473667192,-0.0221974056848717,0.000509201192327632,-0.000767995775344539,-0.0241311664656431,0.0377198248258932,-2.05379760413809,-0.00411374567953647,0
0.04,0.000788006067811601,0.00043495192898435,-0.038127427006017,-0.0217623144198001,0.000495833241888025,-0.000751189816007858,-0.0236575763017313,0.036981320994972,-2.05382442019251,-0.00352270519293303,0
0.05,0.000803852554182501,0.000445896752883169,-0.0390146513688265,-0.0223099234995925,0.000504764785448665,-0.000768254745815766,-0.024188038251536,0.0378789455176748,-2.05384852879112,-0.00321988224552334,0
0.06,0.000803199040187311,0.000447454604781347,-0.0391119980009108,-0.0223878660196172,0.000503445898391859,-0.000769341633404994,-0.024237226244157,0.0379937073279922,-2.05387004017883,-0.00284875231696938,0
0.07,0.000814799093598678,0.000456055586629387,-0.0397666445485725,-0.022818199297397,0.000509708895263986,-0.000782356122947771,-0.0246163546848539,0.0386793397029695,-2.05388856539794,-0.00261212735867566,0
0.08,0.000799668354393769,0.000448898618654825,-0.0391568999646268,-0.0224601268319566,0.000499621254169959,-0.00076899808142198,-0.024242076825537,0.0380794146926148,-2.05390543822327,-0.0022212885330852,0
0.09,0.000795039237769172,0.000447876289102086,-0.0390259191307138,-0.0224089759670523,0.000495985718596907,-0.000765949558966092,-0.0241492968444839,0.0379736228164491,-2.05391993813792,-0.00194254708785854,0
0.1,0.000792393520546099,0.000447728907057933,-0.0389769458262453,-0.0224015854878623,0.000493701611549745,-0.000764596223095509,-0.0241088823096824,0.037944632454274,-2.05393257615968,-0.00170907389254049,0
0.11,0.000790308211690943,0.000447706481193938,-0.0389447894627844,-0.0224004743023566,0.000491856966680686,-0.000763613048013763,-0.0240805037907769,0.0379289758951322,-2.05394362077598,-0.00150658667461297,0
0.12,0.000788522090958523,0.000447702047875274,-0.0389184157710083,-0.0224002518488522,0.000490269983829886,-0.000762784081216145,-0.0240568860932473,0.0379167588344995,-2.05395327769252,-0.00132979367357196,0
0.13,0.000820514840060055,0.00046637740844921,-0.0404742916744896,-0.0233346479893058,0.000509917211808159,-0.000794189478004067,-0.0250002056133969,0.039467249747409,-2.05396241022997,-0.00139240797437669,0
0.14,0.000840023421671749,0.000478510306479997,-0.0415977666569139,-0.023941710853105,0.000521549116022622,-0.000814001217407391,-0.0257127069348913,0.0405269837453657,-2.05397068475775,-0.00138447091622535,0
0.15,0.000792867850512087,0.000452091075596105,-0.0392700700318493,-0.0226198559646763,0.000492060171938502,-0.000768701864314867,-0.0242653142494184,0.0382751983475726,-2.05397810208878,-0.000936301431175669,0
0.16,0.000784388897848862,0.000448323338965564,-0.0389049276846795,-0.0224313282775545,0.000486298166369596,-0.000761428823144588,-0.0240293534693321,0.0379387408632845,-2.05398361864215,-0.000784416889982028,0
0.17,0.000782313378845075,0.000447785510191141,-0.0388352628777042,-0.0224044175380915,0.000484706586998621,-0.000759990533083989,-0.0239799900648995,0.0378826562491182,-2.05398828458235,-0.000690723200637326,0
0.18,0.000781368587003218,0.000447708301278447,-0.0388150276126391,-0.0224005674910604,0.000483902750937346,-0.000759485167349769,-0.0239637066286799,0.0378699426604537,-2.05399233897748,-0.000615169145236132,0
0.19,0.000780684549815023,0.0004476968363585,-0.0388039768371757,-0.022399983649003,0.000483299664473757,-0.000759158914802986,-0.0239540581814277,0.0378643761667408,-2.05399588016461,-0.000550139936093152,0
0.2,0.000780109322435834,0.000447694802792864,-0.0387953819982658,-0.0223998866890696,0.000482788888567083,-0.000758891349585168,-0.0239463751770116,0.0378603711544978,-2.0539989760888,-0.00049344424253729,0
0.21,0.000779610114335099,0.000447694163956031,-0.0387880409957432,-0.0223998564752013,0.000482345077094445,-0.000758660148825961,-0.0239397861891369,0.0378569984496325,-2.05400168322356,-0.000443894027412554,0
0.22,0.0007791741779728,0.000447693767684918,-0.0387816464312421,-0.022399836291497,0.000481957439655245,-0.000758458394115634,-0.0239340435048547,0.0378540661925699,-2.05400405047252,-0.000400569097422165,0
0.23,0.000778793131436105,0.000447693444234143,-0.0387760592606026,-0.022399817427075,0.000481618600080356,-0.000758282062057993,-0.0239290264247736,0.0378515030997521,-2.05400612052249,-0.000362684131374965,0
0.24,0.000778459989805752,0.000447693164618676,-0.0387711736918212,-0.0223997998981912,0.000481322358035266,-0.000758127900179137,-0.0239246398448278,0.037849260933546,-2.05400793068722,-0.00032955555466751,0
0.25,0.000778168485838705,0.000447692920520697,-0.0387668890224882,-0.0223997993615704,0.000481063142726945,-0.000757993005341427,-0.0239207860794446,0.0378473075563108,-2.05400951359433,-0.000300586126095877,0
0.26,0.000784558198149662,0.000451454360958775,-0.0390740872901882,-0.02258798951066,0.000484972668046223,-0.000764293214388737,-0.0241053270044883,0.0381567134027765,-2.05401074425493,-0.000323204829403854,0
0.27,0.000768115032136093,0.000441986976334247,-0.0383120759026103,-0.0221143119556078,0.000474809730119137,-0.000748270612831156,-0.0236505838656087,0.0373832560921747,-2.05401238466827,-0.000183054136826467,0
0.28,0.000767536007499924,0.000441796766781892,-0.0381385531413701,-0.0221047852610529,0.000474384594328157,-0.000747833646349218,-0.0235013158676469,0.0372942209952623,-2.05401343222718,-0.000161246467210818,0
0.29,0.000775706097790705,0.000446851576774648,-0.0386786061312223,-0.0223577016003097,0.000479270114027377,-0.000756106103411325,-0.0238619969756953,0.0377691208983559,-2.05401411458192,-0.000205359169194377,0
0.3,0.000766165053235966,0.000441980877071897,-0.0382280590113089,-0.0221139983900873,0.000473084898673077,-0.000747359794974816,-0.0235762847497905,0.0373439716415608,-2.05401365424322,-0.000148108306910165,0
0.31,0.000775458658561382,0.000446877807577157,-0.0386679520897678,-0.0223590163867374,0.000479038692369178,-0.000756014442491684,-0.0238519456160995,0.037765338909185,-2.0540142805616,-0.000200842294946055,0
0.32,0.00077685496555277,0.000447575949574703,-0.0387379086112496,-0.0223939337883648,0.000479950184182049,-0.000757281776385322,-0.0238976404549445,0.0378287802443773,-2.05401502747544,-0.000197636556877468,0
0.33,0.000776978662706748,0.000447675406916539,-0.0387477703161478,-0.0223989155679171,0.000480012988163435,-0.000757427648989569,-0.0239040323989419,0.0378377900803147,-2.05401571309184,-0.000186794393352556,0
0.34,0.000776907999443811,0.000447689510104269,-0.0387480289795896,-0.022399625916807,0.0004799434046811,-0.000757407595261824,-0.0239039085092737,0.0378385537381687,-2.05401631792532,-0.00017600309436745,0
0.35,0.000776817079196009,0.000447691452606999,-0.038746890108808,-0.0223997266627436,0.000479861590716958,-0.000757367325029654,-0.0239028331802297,0.0378381264550424,-2.0540168476878,-0.000166353011958526,0
0.36,0.000776732852727971,0.000447691669726046,-0.0387456704990024,-0.0223997415414732,0.000479786556091601,-0.000757328605192481,-0.0239017287650439,0.0378375840347179,-2.05401731108161,-0.000157879637071677,0
0.37,0.000776658618773938,0.000447691648337144,-0.0387445743075168,-0.0223997247788074,0.000479720524759046,-0.000757294289052529,-0.0239007505396651,0.0378370695492887,-2.05401771632169,-0.000150464378078246,0
0.38,0.000776593309778508,0.000447691599509151,-0.0387435933046121,-0.0223997250528274,0.00047966244780108,-0.000757264071003818,-0.0238998683234979,0.0378366224538463,-2.05401807068941,-0.000143979143208676,0
0.39,0.000776536266270914,0.000447691552514123,-0.0387427357025425,-0.0223997253023094,0.000479611722810677,-0.000757237673632956,-0.0238990970740611,0.0378362316091413,-2.05401838056879,-0.000138307946686307,0
0.4,0.00077648644051326,0.000447691510804835,-0.0387419854942313,-0.0223997255303414,0.000479567416173375,-0.000757214615873506,-0.023898422404212,0.0378358897141288,-2.05401865154446,-0.000133348716213506,0
0.41,0.000776442784767652,0.000447691474243478,-0.0387413220881826,-0.0223997257400446,0.000479528596475415,-0.000757194413139957,-0.0238978258938152,0.0378355873209128,-2.05401888850042,-0.000129012088546131,0
0.42,0.00077640460054216,0.000447691442258711,-0.0387407383850316,-0.0223997259334925,0.00047949464222827,-0.000757176742438051,-0.0238973010937555,0.0378353212348915,-2.05401909570756,-0.000125219902343603,0
0.43,0.000776371189344855,0.000447691414286981,-0.0387402238156769,-0.0223997261127543,0.000479464932346505,-0.000757161280521517,-0.0238968385027444,0.0378350866364661,-2.05401927690101,-0.000121903806221436,0
0.44,0.00077634208551445,0.000447691389826069,-0.0387397763813451,-0.02239972627921,0.000479439052244437,-0.000757147812153135,-0.0238964362266291,0.0378348826762658,-2.0540194353465,-0.000119004029516456,0
0.45,0.000776316532349624,0.000447691368435766,-0.0387393768293685,-0.0223997249799179,0.000479416329901956,-0.000757135986725352,-0.0238960777841427,0.0378346991905311,-2.05401957389996,-0.000116468305404981,0
0.46,0.000776294180607873,0.000447691349730471,-0.0387390240160936,-0.0223997251263017,0.000479396454351394,-0.000757125642825847,-0.0238957607153324,0.0378345382856581,-2.0540196950584,-0.000114250928890563,0
0.47,0.000776274894683751,0.000447691333373149,-0.0387387253758069,-0.0223997067560541,0.0004793793040156,-0.000757116718198202,-0.0238955007958183,0.0378343857914523,-2.05401980100618,-0.000112311933011949,0
0.48,0.000776257839839134,0.000447691319069527,-0.0387384516046659,-0.022399706887092,0.000479364138422577,-0.000757108825649465,-0.0238952548048786,0.0378342609173829,-2.05401989365293,-0.000110616368457126,0
0.49,0.000776242938677967,0.000447691306561206,-0.0387382097255509,-0.022399707011675,0.000479350887893563,-0.000757101929791186,-0.0238950374974785,0.0378341505778014,-2.05401997466802,-0.000109133673630982,0
0.5,0.000776229841954285,0.000447691295623168,-0.038737991769186,-0.0223997071308524,0.000479339242168924,-0.000757095868852847,-0.0238948417610554,0.0378340511057381,-2.05402004551205,-0.000107837123794691,0
0.51,4.73605125360615,-0.0178859072688857,3.1981832784873,0.902793047131271,-0.866889253034414,4.65607177838107,0.314643824184072,3.30823379352898,0.180300476727105,55.6001454638858,779.171893174263
0.52,4.72938676317284,-0.00337104137343858,3.53233107825236,0.186191448807696,-3.45476171230636,3.22981919475014,-2.45135397332268,2.55007721441365,0.818323636974546,118.649083082134,779.171893174263
0.53,4.362074581538,-0.0102304475237986,5.9335958594882,0.538245180195367,-4.0917700901587,-1.51169337044227,-5.75604677553489,-1.53791846844801,1.92234469034775,182.432449582258,779.171893174263
0.54,3.95327983550624,0.021775013619111,4.55331977424136,-1.06676082674183,1.3371794916944,-3.72032883170699,2.56557813868212,-3.91005223012234,-2.79103809187254,244.703422681307,779.171893174263
0.55,3.57036593496626,-0.0210540979235441,5.67320882831149,1.08413243568537,2.55607879321129,2.49287331958573,4.83710347089367,3.1564333605519,-0.803812876136223,295.930751173625,779.171893174263
0.56,3.2443825184092,0.00130440653034135,5.59640705124113,-0.028555149024709,-3.24264596394224,0.10614508827397,-5.59440703809839,0.152306177788407,1.53847596457118,343.513145818358,779.171893174263
0.57,2.91699384097139,0.0449749203606951,6.42729566936113,-2.2195865874416,2.55582265644371,-1.40664365087092,6.71803478555105,-1.05104845781014,-2.05850520013931,387.352679098075,779.171893174263
0.58,2.62220002524366,0.0393762261524977,7.67460772089022,-1.94424411140478,-2.06709033109539,1.61388383183728,-7.29281597999438,3.08131853533818,0.92291833814495,426.526706166651,779.171893174263
0.59,2.38013337182034,-0.0154195980131541,7.3307632337032,0.806980963454615,2.06266307928611,-1.18772625339583,5.92178558099871,-4.39588027551576,-2.09972631940981,461.65488803347,779.171893174263
0.6,2.15287301298251,0.0306208568867614,7.17353180563595,-1.50979448927785,-2.11887480265241,0.38232109226355,-7.32386893707838,-0.316198922867657,1.40650348960286,494.643228478851,779.171893174263
0.61,1.91308490054753,0.0400479381516038,9.22927120661732,-1.97527287158721,1.75960793313686,0.751849450152734,7.5952743856737,5.60294181023263,-1.14606344060496,523.357033722171,779.171893174263
0.62,1.76166108239755,-0.0203222367239955,7.5355631820416,1.05188943782432,-0.587680630531924,-1.66087152996166,-3.58296191596745,-6.71219545072059,2.78996682824969,549.521598650097,779.171893174263
0.63,1.65096059856639,0.00876418295874321,4.54252730179276,-0.41272792559537,-0.961417086873365,1.34217170808714,-2.99906278217822,3.43664386526336,0.626900083336404,573.769837152299,779.171893174263
0.64,1.44787341984585,0.0325549464927225,7.02522374881073,-1.61411505573063,1.4251920215468,0.257342118893532,6.5611649924453,2.98500420031545,-1.36967372110196,595.719345468241,779.171893174263
0.65,1.32802585519766,-0.0248992033144294,6.17631435199362,1.25558036205087,-0.0720981700552712,-1.32630105793287,-1.7030329620983,-6.06819740534344,3.0685389308458,615.342347917936,779.171893174263
0.66,1.15844988513143,0.0171382082345096,8.48301717964479,-0.837471978936357,-1.12946049208865,0.258106279182407,-8.47135482161421,0.948202126113366,1.36092538617867,632.958103398397,779.171893174263
0.67,1.07327579693537,0.0103355214544191,7.08405667292766,-0.486440597251944,0.246568715595325,1.04462032709528,1.08642651777325,7.01713337634285,-0.222164574072091,648.946493415587,779.171893174263
0.68,0.966141451501182,0.0482417144468263,7.30329073331964,-2.38590051583963,0.953063086920698,-0.16561195509615,7.53960077309949,1.4781735314752,-1.69295552721533,663.472899530855,779.171893174263
0.69,0.846796411307022,0.0384238953554364,8.5981267775853,-1.89895633422152,0.0288575957856545,-0.847176367176403,2.57490232044349,-8.42043331918757,-3.06219805426496,676.703813396539,779.171893174263
0.7,0.78002929594983,0.0119906883770843,7.71269091151756,-0.579815222005917,-0.73080562907742,-0.272969983068651,-6.97158907664008,-3.34943764455291,1.94363907825141,688.685435912344,779.171893174263
0.71,0.712334936218867,0.0138362653794184,7.25104437965577,-0.675560241384398,-0.47534806552534,0.530713406839232,-5.43613317291539,4.84587271415642,0.749843226879025,699.53406621541,779.171893174263
0.72,0.610616426228991,0.00391381719204298,8.88728118643852,-0.182670732908248,0.223763118015567,0.568152976725133,3.03326009597997,8.35562497205451,-0.368777915791702,709.295625178187,779.171893174263
0.73,0.604560246693985,-0.0317156870388871,6.06347060519311,1.59906432313914,0.592878851852006,0.122448534959337,6.23518828706172,-0.667165282719096,-1.4195405385219,718.125939780268,779.171893174263
0.74,0.532847154261175,0.0334627049705833,6.81723641416015,-1.66422540443751,0.331643008372328,-0.418400235929585,5.79806368890018,-3.95307677420811,-2.40863490328331,726.091294826769,779.171893174263
0.75,0.511809674571561,0.0107310286933025,5.30740998341491,-0.527017741441829,-0.112587747783267,-0.499387922371932,-0.542047821634536,-5.3058960214942,2.94081228743699,733.313946396958,779.171893174263
0.76,0.463435677949137,-0.015102315834492,5.4097315392866,0.76536423820924,-0.402562799179644,-0.2300954155484,-5.13956381851677,-1.85360769842895,2.05747771167104,739.79028309827,779.171893174263
0.77,0.411223976040784,0.00754556963148298,5.90821735729082,-0.367794718608938,-0.38350687732958,0.148608778787693,-5.67388239759034,1.68800587509155,1.21945933865541,745.710285689115,779.171893174263
0.78,0.360252028077137,0.0185135164415166,6.53423117634289,-0.916121395512255,-0.130922463547543,0.336130305928167,-3.51636064555198,5.58306934289911,0.422766548020178,751.061929774038,779.171893174263
0.79,0.29678429486038,-0.0230151566767975,7.98067122780998,1.16251936694866,0.0763496343358788,0.287717480263901,3.73441372534294,7.14819688123481,-0.336778615712666,755.883325154088,779.171893174263
0.8,0.314183303365921,0.0264810683755649,5.54067725518707,-1.31175219501786,0.287383277878075,0.129704459030084,4.2027446266556,3.84144970947154,-1.06275093658275,760.234029415641,779.171893174263
0.81,0.242130445808081,-0.0368916252815246,7.69489870850781,1.85982419337231,0.244766515764239,-0.00880327006099837,7.21449555649044,-3.25905907123941,-1.75794657916697,764.224336291902,779.171893174263
0.82,0.177822564297862,0.0491830764292608,9.61925465392999,-2.44687755639533,0.0796114331346585,-0.166438754786136,8.15979934397024,-5.65110117935326,-2.4255975001491,767.788228645469,779.171893174263
0.83,0.205914480719631,0.0178231430144152,7.04148675743818,-0.875718401449051,-0.00271924033363379,-0.206666503161387,1.38823851962875,-6.95860706509807,-3.06840866584258,771.01743360835,779.171893174263
0.84,0.201096352033897,0.00414636032675547,6.23977128770324,-0.191014146977274,-0.108240690913032,-0.169531377437835,-3.08564949129359,-5.42678536005164,2.59398151619034,773.835438643968,779.171893174263
0.85,0.187140247681852,-0.0171029551322044,5.98175614027469,0.871209208006442,-0.163683935805564,-0.0923122556103961,-5.81321684566442,-1.6573840566123,1.99316116781732,776.452393925457,779.171893174263
0.86,0.127921620530682,0.0270152012529221,8.07781751195502,-1.35934434945361,-0.121967251604661,0.0470930104573603,-8.19122887456422,-0.0521760610242965,1.41044688323952,778.783431835456,779.171893174263
0.87,0.0952574347827859,-0.0393377639858268,8.90994252429486,1.9520844754589,-0.0973251691256108,0.0339005901345769,-5.36123588347072,7.37935358871978,0.84398541735593,780.917951178715,779.171893174263
0.88,0.11874400249214,-0.0258172786750993,7.02493327992403,1.27628038176195,-0.0589390447459377,0.106267864429833,-0.802134898856494,7.09472753559227,0.292301053316679,782.801779871134,779.171893174263
0.89,0.12822512934916,0.0271488109825596,5.89862998589675,-1.37210349129832,0.0575646248369477,0.117749971132723,0.106033923840558,6.05518459738003,-0.246059037167476,784.514273761431,779.171893174263
0.9,0.121407934527702,-0.00229419300135312,5.65177375367258,0.104250348107959,0.0830914575328915,0.0885491929543681,4.01921381689255,3.97483773151595,-0.77250573792748,786.056151730657,779.171893174263
0.91,0.0569556211838113,-0.039445666076733,8.36353782974678,1.96600541303675,0.0437191047126058,0.0537451694554883,8.58019758842964,0.440626437247454,-1.28861051788989,787.40463045542,779.171893174263
0.92,0.039480774352685,0.013756618292229,8.7444256693555,-0.691713391916615,0.0354309893810966,-0.0221950688623022,8.67917501486117,-1.27097158302216,-1.79514101657553,788.654056768675,779.171893174263
0.93,0.0355671685995157,-0.0216896156193474,8.49293983480672,1.08701125089415,0.0410260754564222,-0.00723353582595439,5.6545902454747,-6.42940352233391,-2.29292792098884,789.795439346313,779.171893174263
0.94,0.069691009632186,-0.00419567154058645,6.40217839654876,0.217205061255201,0.0283878616312369,-0.0637853415389122,2.04355006367194,-6.07115881830948,-2.78299154594005,790.752842629278,779.171893174263
0.95,0.0855603089186091,0.00552022411913253,5.22783184830512,-0.264760469739019,-0.0160986692510753,-0.0842132542116605,-0.386251289592635,-5.22026185950262,3.01713526790787,791.709721212559,779.171893174263
0.96,0.0790443486140579,0.00108810832228734,5.23545352749779,-0.0407972241488221,-0.0456214773269383,-0.0645590724379572,-2.92864733372225,-4.3398920316949,2.54017410168396,792.448177176148,779.171893174263
0.97,-0.00265698011557664,0.0220393385407788,9.05791861144686,-1.09077820635197,-0.00818164805224546,0.0206361968831182,-7.43968119149903,-5.28079827638809,2.06823378086826,793.045470615375,779.171893174263
