t,iq,id,vq,vd,ia,ib,va,vb,theta_e,omega,r
0,0,0,0,0,0,0,0,0,0,0,0
0.01,0.000668482930772015,0.00037241827733908,-0.0323945840830035,-0.0186298218361265,0.000147926315523667,-0.000750787990850508,-0.00672403723941552,0.0367595791972589,-2.43877106917455,-0.00194315403422747,0
0.02,0.000842511575042144,0.000463820340147875,-0.0409534545491927,-0.0232021183184523,0.000190657234680405,-0.000942658411556862,-0.00876677546621645,0.0462457282557124,-2.43878676683591,-0.00227872502694915,0
0.03,0.000910276883639851,0.000500121969689171,-0.0443204512506854,-0.0250180700951776,0.000206741930993185,-0.00101783287597919,-0.00955661390885382,0.0499887723488855,-2.43880335195037,-0.00227521663097853,0
0.04,0.00089830252517852,0.000494361435480306,-0.0438458634954787,-0.0247299098907815,0.000203382388470066,-0.00100497575079823,-0.00946898243599436,0.0494405356008322,-2.43881873990858,-0.0020411354529785,0
0.05,0.000917313053362479,0.000506764654847807,-0.044853586023187,-0.0253503509081468,0.000206190630247037,-0.00102750137579983,-0.00964615969493587,0.0506106320198178,-2.4388330056545,-0.00191698659291952,0
0.06,0.000919056257269019,0.000509462078237855,-0.0450238910243759,-0.0254852932515945,0.00020524544152859,-0.00103057766418621,-0.00965259382009426,0.0508279290119017,-2.43884616990035,-0.00175370006805571,0
0.07,0.000929353917546764,0.000517316427731677,-0.045596412544559,-0.0258782070718279,0.000205895264950564,-0.00104351431726235,-0.00972219558997094,0.0515188640315018,-2.43885795673204,-0.00163444239723873,0
0.08,0.000917072468232507,0.000511753948715851,-0.045078201699137,-0.0255999411743541,0.000202190949369195,-0.00103054977366914,-0.00959905057291057,0.0509436893506661,-2.43886895415827,-0.00145566547593761,0
0.09,0.000912024038614263,0.000510540280258093,-0.0449001542547922,-0.0255392232788792,0.000199844190543791,-0.00102591496932357,-0.00952981195307947,0.0507686759915159,-2.43887879727088,-0.00131398436168076,0
0.1,0.000908916045156951,0.000510273777019027,-0.0448090521701567,-0.0255258933220149,0.00019802980385361,-0.00102337280667542,-0.00948065547256048,0.0506906259389773,-2.43888767457002,-0.00119066180815636,0
0.11,0.000906455901077536,0.000510213724985443,-0.044743480874173,-0.0255228974105192,0.000196477482325903,-0.00102145824422767,-0.00944015769461612,0.0506387282192805,-2.43889569719432,-0.00108028762441408,0
0.12,0.00090431549373252,0.000510198817502639,-0.0446882323475636,-0.0255221449628364,0.000195098161956026,-0.00101981667606838,-0.00940465894323331,0.0505961498932016,-2.43890295137893,-0.000980744448790041,0
0.13,0.000936181629070278,0.000529155060800394,-0.0462653510958626,-0.0264704198535588,0.000201219488305813,-0.00105638621654454,-0.00969991306961033,0.0524125703022578,-2.4389098111693,-0.000991129090456633,0
0.14,0.000953877733299857,0.000540253646116666,-0.0472497537819008,-0.0270256161864772,0.000204179547216221,-0.0010770642713999,-0.00991208092403915,0.0535226476780094,-2.43891621861277,-0.000963609229945257,0
0.15,0.000911587290820388,0.000516734997153805,-0.0451637443544282,-0.0258491138724531,0.000194790191094587,-0.00102959371964,-0.00946147649900712,0.0511705086408366,-2.43892211571347,-0.000757633112092559,0
0.16,0.000900407022864919,0.000511612702164862,-0.0446582336668027,-0.0255928711613197,0.000191468815064098,-0.00101775245354597,-0.00933008320630139,0.0506191903914133,-2.43892698933576,-0.000660711818492358,0
0.17,0.000896808064120176,0.000510496259158365,-0.0445134281654379,-0.0255370306769505,0.000189990596819502,-0.00101428531863861,-0.00927889827055395,0.0504726388226316,-2.43893128640974,-0.000594558074804283,0
0.18,0.000895120174762914,0.000510252179156195,-0.0444576285000452,-0.0255248228593579,0.000189082151105385,-0.00101284024097317,-0.00925195916411599,0.0504222031001736,-2.43893514604792,-0.000539902392220704,0
0.19,0.00089397083464028,0.000510198146210509,-0.0444252545605993,-0.0255221146439316,0.000188377100599003,-0.00101192888562092,-0.00923292869404283,0.0503957796487241,-2.4389386302808,-0.000491716853016994,0
0.2,0.000893021837354503,0.000510185579545792,-0.0444003130331747,-0.0255214962130398,0.000187770220689035,-0.00101119714783561,-0.00921712362713308,0.0503763753999655,-2.43894177986145,-0.000448437612679387,0
0.21,0.000892185774117321,0.000510182118226095,-0.0443788206786341,-0.0255213072653956,0.000187229684022427,-0.00101055741782239,-0.00920323510751809,0.0503598780073666,-2.43894462795442,-0.00040936816418811,0
0.22,0.000891434567189189,0.000510180708548659,-0.0443596174561886,-0.0255212383314626,0.000186742697842395,-0.00100998371658039,-0.00919074813384091,0.0503452025079948,-2.43894720366502,-0.000374051305148176,0
0.23,0.000890756342104297,0.000510179808055818,-0.044342304510124,-0.0255212108168026,0.000186302738199904,-0.00100946599114884,-0.00917946358886075,0.0503319939903539,-2.43894953310242,-0.000342115100789492,0
0.24,0.000890143553028244,0.000510179074960579,-0.0443266746069138,-0.0255211677008774,0.000185905164992972,-0.00100899826717112,-0.00916928985985154,0.0503200576906421,-2.43895163982782,-0.000313233174174776,0
0.25,0.000889589437273402,0.000510178429476778,-0.0443125420321345,-0.0255211244311473,0.000185545646723367,-0.00100857533669717,-0.00916009405584732,0.0503092620743718,-2.43895354513761,-0.00028711275757233,0
0.26,0.000895088344684523,0.000513636988812069,-0.0445876711592618,-0.0256941410604991,0.000186458201755173,-0.00101500711330721,-0.00920577309071293,0.0506310482416234,-2.43895518336277,-0.000283082115755978,0
0.27,0.000881382962507219,0.000505788919196611,-0.0439403259420156,-0.0253015584674809,0.000183588751401973,-0.000999476626909675,-0.00908694507909586,0.0498833492650946,-2.43895694778487,-0.000218209392866724,0
0.28,0.000880248070823999,0.000505444043335335,-0.04380626871483,-0.0252843086921329,0.000183117127223098,-0.000998387933045118,-0.00901340679332143,0.0497699100133109,-2.43895836076574,-0.000196606399208028,0
0.29,0.000885936872369037,0.00050914586928346,-0.0441762356900036,-0.0254694853407761,0.000183967203545285,-0.00100512174688003,-0.00911111564313964,0.0501719249680545,-2.43895953355855,-0.000199124098321945,0
0.3,0.000873109107423467,0.000502527996649248,-0.0435630712620447,-0.0251384239124073,0.000180727370789746,-0.000991055759445217,-0.00896749115342461,0.0494900559405132,-2.43896007741474,-0.000152595458453583,0
0.31,0.000883909578605061,0.000508510536713132,-0.0440884574533302,-0.0254377092879824,0.000183140474542362,-0.0010031643313448,-0.00907856645814154,0.0500844163937159,-2.4389610108624,-0.000173944475605928,0
0.32,0.000886291543868325,0.000509812960029973,-0.0442093367975082,-0.0255028546387884,0.000183684855697865,-0.0010058239551404,-0.00910691811438806,0.0502187723591538,-2.43896198050565,-0.000168867184251678,0
0.33,0.00088666876139853,0.000510096324889262,-0.0442334212528999,-0.025517024238237,0.000183711462785823,-0.00100629511155855,-0.00911162311602443,0.0502463173367243,-2.43896288762735,-0.000158408024109583,0
0.34,0.000886582396485885,0.000510157814756135,-0.0442346955497359,-0.0255200939296456,0.000183607892907916,-0.00100626909093807,-0.00911006239071472,0.0502492810674247,-2.43896371528516,-0.000147537099421297,0
0.35,0.00088640108064616,0.000510171012142261,-0.04423089563332,-0.025520766910238,0.000183479895450724,-0.00100613938664895,-0.00910705550381972,0.050246822907152,-2.43896446556178,-0.000137365823360474,0
0.36,0.000886212673257438,0.000510173712276638,-0.0442262868056342,-0.0255208920794716,0.000183355398134885,-0.00100599747361264,-0.00910394752531625,0.0502433927656417,-2.43896514452816,-0.000128085248829501,0
0.37,0.000886036013056127,0.000510174143233044,-0.0442218162410867,-0.025520924846344,0.000183240289241533,-0.00100586304696745,-0.00910100267325478,0.050240007832549,-2.43896575868304,-0.000119672283156914,0
0.38,0.000885875079470834,0.000510174095074161,-0.044217716642616,-0.0255209102429842,0.000183135768097463,-0.00100574030154685,-0.0090983366515953,0.0502368748519588,-2.43896631414557,-0.000112058911155295,0
0.39,0.000885728978242376,0.000510173956152649,-0.0442139807752485,-0.0255209108861988,0.000183040954775033,-0.00100562880692121,-0.00909589671711005,0.0502340288187899,-2.43896681650871,-0.000105172280324751,0
0.4,0.000885596730437173,0.000510173809736508,-0.0442105953214164,-0.0255209114761665,0.000182955147983579,-0.00100552787078647,-0.00909368568403463,0.0502314497295107,-2.43896727084465,-9.89437747749395e-05,0
0.41,0.000885477415320212,0.00051017367278605,-0.0442075468094386,-0.0255208909057999,0.000182877735135211,-0.00100543680230932,-0.00909171072318794,0.0502291137057017,-2.43896768174386,-9.33106821705352e-05,0
0.42,0.00088536926548656,0.000510173547934825,-0.0442047764553085,-0.0255208914054715,0.000182807567883686,-0.00100535425517828,-0.00908990140976354,0.0502270032149485,-2.43896805335902,-8.82161278598867e-05,0
0.43,0.000885271476612006,0.000510173434797923,-0.0442022708149061,-0.0255208889545976,0.000182744122955459,-0.00100527961602807,-0.00908826719801804,0.050225092509269,-2.43896838944586,-8.36086367080844e-05,0
0.44,0.000885183127970344,0.000510173332424713,-0.0442000080667309,-0.0255208682740041,0.000182686802651876,-0.00100521218222698,-0.00908680547570394,0.0502233550930726,-2.43896869340098,-7.94416457377467e-05,0
0.45,0.000885103150644493,0.000510173239823479,-0.0441979566838615,-0.0255208686663397,0.000182634913871055,-0.0010051511379629,-0.00908546572103395,0.0502217923330597,-2.43896896829627,-7.56730414442047e-05,0
0.46,0.000885030856729858,0.000510173156069471,-0.0441961020597824,-0.0255208690286644,0.000182588009976488,-0.00100509595818046,-0.00908425445984163,0.0502203794705475,-2.43896921691014,-7.22647360719518e-05,0
0.47,0.000884965431319191,0.000510173080318714,-0.0441944213866152,-0.0255208693641856,0.00018254556246743,-0.00100504602090417,-0.00908315682432782,0.0502190991247972,-2.43896944175515,-6.91822831330783e-05,0
0.48,0.000884906175920561,0.000510173011807027,-0.0441928959283493,-0.0255208696756316,0.000182507118255636,-0.00100500079300696,-0.00908216059050106,0.0502179370199816,-2.43896964510367,-6.63945293810779e-05,0
0.49,0.000884852741288005,0.000510172949842921,-0.04419152288484,-0.0255208699643511,0.000182472450107268,-0.00100496000789493,-0.00908126384446,0.0502168910388323,-2.438969829011,-6.38732999797967e-05,0
0.5,0.000884804555932068,0.000510172893801568,-0.0441902869309751,-0.0255208491381287,0.000182441187317758,-0.00100492322937531,-0.00908047268585125,0.0502159358727341,-2.43896999533585,-6.15931137593524e-05,0
0.51,4.74292161624274,-0.0702810394347445,2.85452578598529,3.52149784202152,-0.373923020537476,4.72868125982697,3.33143333674391,3.07421802041567,0.0640943310393994,19.7705528614798,493.865851131513
0.52,4.72804452378478,-0.00731810043433501,3.59903349855758,0.377708386736005,-1.36276945535373,4.52739638037583,-0.67016980755352,3.55620277517945,0.290830854691029,42.1175050143978,493.865851131513
0.53,4.54851886615077,-0.0375149113804334,3.57687175838438,1.89480192280423,-2.895373985108,3.50816771700915,-0.782697297027354,3.97135629776736,0.681745091943959,64.4844485474834,493.865851131513
0.54,4.3369826917307,0.00221765388992545,2.95121247657333,-0.0874958679924011,-4.09678668081455,1.42329289967349,-2.81693113240139,0.884426143951929,1.2369359028537,87.1362201546005,493.865851131513
0.55,4.1182582538934,0.0701920908520268,2.69825402770188,-3.49045114617208,-3.8386686985864,-1.4931847165948,-1.17704307689315,-4.25186942379012,1.95881360782912,109.328432684769,493.865851131513
0.56,3.90293651285966,0.033566489411222,3.86582897748371,-1.65173045323623,-1.22211594014369,-3.70681436835879,0.39423023302831,-4.18538286141987,2.83172081088995,128.486217899217,493.865851131513
0.57,3.7111858508324,0.0016441743436082,4.33791067263586,-0.047866720660966,2.38726210751457,-2.84145785693769,2.82851616415731,-3.28926382885529,-2.44239952871915,146.977917667206,493.865851131513
0.58,3.53603796368008,0.053032628308755,3.62960110329811,-2.62553986891527,3.41621276420668,0.914257780893039,2.77501909891321,3.51663657107091,-1.29430449196333,165.783534916095,493.865851131513
0.59,3.29642847962291,0.00230484799166408,7.47002213020754,-0.0779905043249767,0.0637913080066724,3.29581199442809,0.0613581702471438,7.47017726158484,-0.0186536511679015,182.145727097736,493.865851131513
0.6,3.16414359758163,-0.0189924683671174,5.63401097325399,0.978560689581046,-3.10977121924241,0.58437007447598,-5.3442601153671,2.03434129123805,1.3790459719688,199.067482115596,493.865851131513
0.61,2.99659086151632,0.00534550617653451,6.59707265207224,-0.226678639854216,-0.742113471278638,-2.90324869095057,-1.40265806724272,-6.45021713811904,2.89312031022767,213.956816768279,493.865851131513
0.62,2.85896606279105,0.0573760863660964,5.8812417243028,-2.83895357893031,2.79421755385973,-0.607722983916022,6.31837547331626,1.65130040307538,-1.76488806162488,229.081915203618,493.865851131513
0.63,2.71851181098888,0.0240068161395311,6.09995615871291,-1.16606318789712,0.121366192191812,2.71590740657705,-0.946819668794935,6.13780913772752,-0.0358268135173801,242.902900377588,493.865851131513
0.64,2.57829489527102,0.0290723301136282,6.4424810036883,-1.41472377810411,-2.52041881916028,-0.544002521484532,-5.96768668792614,-2.80957655990488,1.79464878106584,256.068779566416,493.865851131513
0.65,2.44203043204365,0.0625734945758682,6.81115708095028,-3.10097324538528,1.28143815935981,-2.07974621456255,6.31783021799043,-4.01159783460674,-2.56376388232042,268.965940735913,493.865851131513
0.66,2.32253388707184,-0.0108041502563441,6.88091420417292,0.565793540218135,1.2031094367893,1.98665751184454,4.07432192464134,5.57377820421015,-0.549175010636192,280.931642232278,493.865851131513
0.67,2.19923298441199,-0.054756213949718,7.41784791942356,2.78211128629511,-2.19987706818737,-0.0128392972982715,-7.36348719767804,2.92295522624941,1.55173990509066,292.111208215437,493.865851131513
0.68,2.11909714981915,0.058111920289287,5.93362341609556,-2.86990101521444,1.13552123218802,-1.79012325187445,5.69491307008618,-3.3184610597878,-2.54889919677836,303.011479164214,493.865851131513
0.69,2.02270735725508,0.00625539551744661,5.52654099538839,-0.283382019371885,0.582562055251881,1.93700945657155,1.30369706754528,5.37804190190869,-0.289055209045657,313.46205481929,493.865851131513
0.7,1.93260901265293,0.0036974810503061,5.09556664308789,-0.161643193244018,-1.72143736122414,-0.878433081421188,-4.46059102349741,-2.46861411669918,2.04455558624549,323.376604288542,493.865851131513
0.71,1.80509179085436,-0.0498032853063254,6.84562133217512,2.51144152072784,1.75558800330621,-0.422785410444159,5.95349684939708,-4.21019538736457,-1.83470248497017,332.674729586546,493.865851131513
0.72,1.71721272153747,0.057860457812639,6.83976626293476,-2.86807448682473,-0.973534256750467,1.41576778269663,-6.37023871696847,3.79846185743537,0.636062004092821,341.467973075137,493.865851131513
0.73,1.57965889805584,-0.0014479586862266,9.50721885129263,0.111191143838741,0.046686877039312,-1.57896949505165,0.16112966481731,-9.50650361531294,-3.11294995186584,349.828229830956,493.865851131513
0.74,1.52651443600038,-0.0198737449489434,8.13712208753081,1.03296829889811,0.739260642588785,1.33571516101865,4.92985217901808,6.55563397902452,-0.518511611317225,357.840244393675,493.865851131513
0.75,1.45924597998009,-0.051096845877182,7.66638315526264,2.59394158029686,-1.20717185878297,-0.821429133345729,-7.86856041310392,-1.8941279340693,2.13328413056428,365.471162056598,493.865851131513
0.76,1.39345573416639,0.0967425744468381,7.3083135889517,-4.80377302166371,1.39446658542155,0.0808761456460338,6.63960196974917,5.69239566803144,-1.44354817077311,372.7314940494,493.865851131513
0.77,1.36988509413978,0.0127794019024926,5.03479324157422,-0.603085210960999,-1.32191687583647,0.359561201519427,-5.02325069185001,0.692681199333225,1.31455000094604,379.619273380603,493.865851131513
0.78,1.22774043976011,0.0306786071437795,8.8366527445546,-1.50090207612352,1.00280353748353,-0.708994238036639,8.17618471503453,-3.67275676782331,-2.1612302519808,386.167144353325,493.865851131513
0.79,1.19730490121994,-0.0112523331828057,7.25378516708983,0.597262659673774,-0.773312640281897,0.914140690412362,-4.17300670875816,5.96323208869086,0.692737369570327,392.364828462649,493.865851131513
0.8,1.13731223453541,0.0563063405243093,7.28139309980643,-2.78302726659212,0.443457007370426,-1.04880665778838,5.67040228947079,-5.3488750327586,-2.69210160579776,398.282696046899,493.865851131513
0.81,1.09161280822276,0.0922560184995791,6.75246586643759,-4.58203422845813,-0.178978566426626,1.08078507057844,-6.10164627153343,5.41855568627368,0.248424307538632,403.880981054157,493.865851131513
0.82,0.974617950875431,0.00034404408033134,9.91162479112588,0.0099897809036357,0.0847012097039688,-0.970930467958256,0.854924286298379,-9.87469038808209,-3.05422279250824,409.243771565687,493.865851131513
0.83,0.992682709989607,0.00510151654622852,6.44203665457856,-0.249413858661346,0.0403446897310462,0.991875644520969,-0.0205243564017542,6.44683040591424,-0.0355136636921889,414.355418366748,493.865851131513
0.84,0.90019117791793,0.0341225507025286,8.61279281876986,-1.70393513047614,-0.143502691799172,-0.889334291880229,0.642300097987091,-8.75620041182534,3.01949969151272,419.205364823834,493.865851131513
0.85,0.90033977412309,0.0492700873577439,6.28302248112537,-2.45952650539467,0.204510954122909,0.878188203074941,-1.33378402079834,6.6141259675734,-0.174130975497599,423.785900720172,493.865851131513
0.86,0.841109348163317,-0.0263532589241507,7.03848631491571,1.32771406463547,-0.135762080684045,-0.830498697935152,-2.65545886533584,-6.65219155295425,2.94823400892441,428.134349177075,493.865851131513
0.87,0.801325904909343,0.0414317613199973,6.94329764969084,-2.05740619780227,0.185395137830647,0.780684596744172,-0.770305910447216,7.20062020379409,-0.181500628479353,432.263365989633,493.865851131513
0.88,0.713163027103842,0.00187702932076433,9.36978451380692,-0.0730419961754168,-0.101347581250624,-0.705927541778641,-1.23479218321175,-9.28835212686623,3.00163242160822,436.176506540638,493.865851131513
0.89,0.708290407773865,-0.0103884463758276,7.7166249335037,0.545893028679495,0.0393335736286732,0.7072737034191,1.085976163739,7.65930514700404,-0.0702215972051166,439.936825373497,493.865851131513
0.9,0.643816424040978,0.0473071066221816,9.14511694183333,-2.34725275241182,-0.0303583701294042,-0.644837901774516,2.58695741296995,-9.08022085122337,-3.11528961952196,443.498610288063,493.865851131513
0.91,0.663411584409555,0.0161317948429445,6.43473880350061,-0.809850742213181,-0.0820256696870485,0.658518758006211,-1.75132859397868,6.24456322330492,0.148234226680952,446.910439371409,493.865851131513
0.92,0.585322612263736,0.0543692692323876,8.69662822151531,-2.71964642443612,0.11777792804824,-0.575922683637979,5.12567547067001,-7.53360936514341,-2.84724911782212,450.115979686233,493.865851131513
0.93,0.558582758789725,0.0489710184809578,8.48548390979555,-2.44000643608786,-0.2058776767662,0.521562308145014,-5.97564779830671,6.49990015170553,0.463403874377681,453.159149722982,493.865851131513
0.94,0.571203145243448,0.0247680634925887,6.39845148992708,-1.21862038717266,0.32795607333972,-0.468328201227273,4.86081113188207,-4.33563516190584,-2.48735159881764,456.021725238915,493.865851131513
0.95,0.474585541998077,0.0174426799195891,9.84917017805633,-0.850991352588478,-0.35009827420704,0.320884530873082,-8.05185303805865,5.73567800107365,0.865646384546444,458.753630694683,493.865851131513
0.96,0.506245163266165,0.0120672011456594,6.92344254676357,-0.610954164554289,0.444866847096073,-0.241915834596817,6.43838795705781,-2.6181066066788,-2.04503005825742,461.389797208586,493.865851131513
0.97,0.431962307639965,0.0185151393447408,9.35120958835459,-0.929023753372228,-0.416992592511081,0.114242826459635,-9.32328157210315,1.17670158789159,1.34622600313772,463.891402461415,493.865851131513
