t,iq,id,vq,vd,ia,ib,va,vb,theta_e,omega,r
0,0,0,0,0,0,0,0,0,0,0,0
0.01,0.000736603139728624,0.000422149339857719,-0.036332229123922,-0.0211332187198517,8.76858886216414e-05,0.000844455703715125,-0.00460948360523891,-0.0417779423555935,0.41694096568083,-0.00087573352366202,0
0.02,0.000817407349004067,0.000468371100886798,-0.0403779851201223,-0.023447133859302,9.72312124122161e-05,0.000937055149756202,-0.00508708604340119,-0.0464141284973,0.416934354613849,-0.000952989353160236,0
0.03,0.000849115104363766,0.000486513005812808,-0.0419421309614334,-0.0243553269694394,0.000100985336986157,0.000973392688999406,-0.00528439505242456,-0.0482120261999456,0.416927468449426,-0.000970004771535961,0
0.04,0.00083088344935315,0.0004761725405554,-0.0410550174500766,-0.0238376812734146,9.89198911196862e-05,0.000952534749984924,-0.00517064188808502,-0.0471912488580688,0.416920891216124,-0.000927570179112331,0
0.05,0.000849449389707919,0.000486826034991083,-0.0419738800413592,-0.0243710139667291,0.000101149030996397,0.000973823766165514,-0.00528651799735897,-0.0482473383199169,0.416914273499835,-0.000929521082303536,0
0.06,0.000850108594774543,0.000487256449493692,-0.0420138045650897,-0.0243925482743451,0.000101281989844648,0.00097460013801346,-0.00529035538929671,-0.0482925286685709,0.416907756392419,-0.000910123230497531,0
0.07,0.000872814773031763,0.000500358988116122,-0.0431354821632335,-0.0250484790075691,0.000104074024367229,0.00100066644915431,-0.00543620902771279,-0.0495837045152365,0.416901446254735,-0.000918035299572448,0
0.08,0.000850863089760351,0.000487802090130421,-0.0420654503265238,-0.0244198710821803,0.000101487663008388,0.000975509677506704,-0.00529503387430199,-0.0483507479891836,0.416895157285504,-0.000871994196688279,0
0.09,0.000849849103435982,0.000487291245509034,-0.0420227590297653,-0.0243942990200378,0.000101437092222439,0.000974375067867679,-0.00528923288182809,-0.0483013262413624,0.416889067847537,-0.000851897915258204,0
0.1,0.000849705911481984,0.000487269001323548,-0.0420226409111465,-0.0243931836188334,0.000101480530247924,0.000974234529073404,-0.00528854819830847,-0.0483007351306733,0.416883118486389,-0.000833288877029218,0
0.11,0.000849601020519378,0.000487266608263006,-0.0420242452119896,-0.0243930620372155,0.000101526478147176,0.000974137062137938,-0.00528806829198443,-0.0483021220540897,0.41687730375542,-0.000815143474082036,0
0.12,0.000849500087690121,0.00048726505396291,-0.0420258904493543,-0.0243929797587988,0.000101571461111358,0.000974043566831949,-0.00528760141245998,-0.0483035630246595,0.416871620516119,-0.000797410165856384,0
0.13,0.000889881721963684,0.000510464775241069,-0.0440143732830403,-0.0255543769270158,0.000106439607687949,0.00102035992461592,-0.00554468610293897,-0.0505919726008651,0.416865886721014,-0.000828488605614468,0
0.14,0.000931388366956133,0.000534508129099598,-0.046135092660504,-0.0267580271705448,0.000111624022596743,0.00106804649138232,-0.00578688318746687,-0.0530184003514583,0.416860287218915,-0.000861344341872312,0
0.15,0.000852605170565317,0.000489176759418831,-0.0421978379461975,-0.0244886860557671,0.000102078664877425,0.000977655064430735,-0.00530630663122479,-0.0484994472340344,0.416854773321477,-0.000748960361159927,0
0.16,0.000849249794480051,0.00048733687663461,-0.0420391782012485,-0.024396589307341,0.000101759930760125,0.000973841548325024,-0.00528658602350305,-0.0483170578769392,0.416849590624184,-0.000728841673454655,0
0.17,0.000849024644229281,0.000487260957523537,-0.0420339958382731,-0.0243927749730448,0.000101786595380244,0.000973604424926422,-0.00528544086348209,-0.0483107482026122,0.416844533687098,-0.000712898970909577,0
0.18,0.000848931162057596,0.000487256610773048,-0.042035141425649,-0.0243925631545712,0.000101825280982946,0.000973516684401065,-0.00528502212812216,-0.0483116838148839,0.416839591456631,-0.000697471097231021,0
0.19,0.000848845014142982,0.000487255195473699,-0.0420365165209922,-0.0243924968468505,0.000101863567956025,0.00097343684801572,-0.00528463813302229,-0.0483128887921874,0.416834760998645,-0.00068239849097148,0
0.2,0.000848761194536994,0.000487253927032936,-0.042037878476302,-0.0243924363677683,0.000101900939475316,0.000973359210823492,-0.00528425952178964,-0.048314084696394,0.416830039771638,-0.000667666983997184,0
0.21,0.000848679353797344,0.000487252691882705,-0.0420392129969906,-0.0243923556633386,0.000101937435633012,0.000973283407094452,-0.00528386837736738,-0.048315247895295,0.416825425304729,-0.000653268608689614,0
0.22,0.00084859925947762,0.000487251484801415,-0.0420405113197452,-0.0243922952026285,0.000101973148160453,0.000973209221946337,-0.00528350536755498,-0.0483163867472394,0.416820915184134,-0.000639195821460847,0
0.23,0.000848520678748909,0.000487250304974911,-0.0420417645483557,-0.0243922549800775,0.000102008172915976,0.00097313644193453,-0.00528317420225108,-0.0483174931024072,0.416816507049803,-0.000625441259419159,0
0.24,0.000848444193302511,0.000487249151781798,-0.0420430045808394,-0.0243921959879008,0.000102042276119517,0.000973065598479968,-0.00528282641015931,-0.048318580322861,0.416812198595862,-0.00061199772658644,0
0.25,0.000848369454083023,0.000487248024621598,-0.0420442165735805,-0.0243921355479062,0.000102075600774217,0.000972996371958991,-0.00528248394777848,-0.0483196418365765,0.416807987568234,-0.000598858189722609,0
0.26,0.000856930452162851,0.00049219004845596,-0.0424691124999309,-0.0246395318796947,0.000103132673223778,0.000982824753125818,-0.00533688294772054,-0.0488082956902268,0.416803894646525,-0.000596530635917554,0
0.27,0.000828831530670018,0.000476072675267817,-0.0410948333584087,-0.0238326754817477,9.97746144730963e-05,0.000950606082810439,-0.00515566038002846,-0.0472250030748489,0.416799794685031,-0.000549836624549875,0
0.28,0.000825856560631345,0.000474351224002605,-0.0408810197870237,-0.0237465098792058,9.94086451269461e-05,0.000947188504852455,-0.00516361610328291,-0.0469945909547914,0.416795855441438,-0.000534031410165163,0
0.29,0.000847162083001644,0.000486720825175834,-0.0420033969576299,-0.0243657347092314,0.000102097798061985,0.000971677310719162,-0.00527563720774884,-0.0482715447852365,0.416792072499593,-0.000548080335756072,0
0.3,0.00084254527124415,0.000484148870278159,-0.0417808524679015,-0.0242369862521571,0.000101618405929734,0.000966414177391762,-0.00524817022725414,-0.0480159124124239,0.416788592360298,-0.000531711783993286,0
0.31,0.000847732420112135,0.000487116366435995,-0.0420396655707574,-0.0243855511322546,0.000102235534349714,0.000972358219009441,-0.00527941969435398,-0.0483126930838656,0.416784929517456,-0.000526636013321137,0
0.32,0.000847886559528381,0.000487235800282099,-0.0420513899188472,-0.0243915186591486,0.00010228584009079,0.000972547145295452,-0.00528030376334017,-0.0483258105857871,0.41678133571676,-0.000515685873468534,0
0.33,0.000847833124754639,0.000487239742715202,-0.0420528325647424,-0.0243917229095252,0.000102314492967477,0.000972499521254998,-0.005280076296737,-0.0483271938717111,0.416777822610298,-0.000504734964372199,0
0.34,0.000847772355568722,0.000487239021385095,-0.0420538224743165,-0.02439169145867,0.000102341772804187,0.000972443310618229,-0.00527981275027063,-0.0483280681823551,0.416774388921573,-0.000494021385100394,0
0.35,0.000847712866743576,0.000487238130801547,-0.0420547848535894,-0.0243916325242982,0.000102368303687735,0.000972388210001383,-0.00527953147100947,-0.0483289066059715,0.416771032876843,-0.000483549642713821,0
0.36,0.000847654658683554,0.000487237252804835,-0.0420557214224433,-0.0243915923486696,0.00010239425345907,0.000972334293217767,-0.00527927413096886,-0.0483297294252297,0.416767752722021,-0.000473314678088524,0
0.37,0.000847597614775984,0.000487236394331467,-0.0420566284151248,-0.024391552175172,0.00010241967735892,0.000972281456279385,-0.00527902518604015,-0.0483305255945678,0.416764546740702,-0.00046331115399927,0
0.38,0.000847541967851509,0.000487235555233851,-0.0420575194243824,-0.024391512002971,0.000102444482655078,0.000972229911866108,-0.00527877921373247,-0.0483313075338962,0.416761413255497,-0.000453533837632035,0
0.39,0.000847487485079486,0.000487234735086608,-0.0420583847598104,-0.0243914718327132,0.000102468764824823,0.00097217944674661,-0.0052785402162107,-0.0483320663737455,0.416758350627323,-0.000443977613825976,0
0.4,0.000847434282875235,0.000487233933462991,-0.0420592321251223,-0.024391431663892,0.000102492477931822,0.000972130167044248,-0.00527830515165252,-0.0483328091496374,0.416755357253796,-0.000434637483059811,0
0.41,0.000847382361236973,0.000487233149945223,-0.0420600633584384,-0.024391390041006,0.000102515623137974,0.00097208207243716,-0.00527807202047022,-0.0483335369448075,0.416752431568818,-0.000425508558865063,0
0.42,0.00084733160375292,0.000487232384124671,-0.0420608745222695,-0.0243913498746516,0.000102538248699834,0.000972035056164065,-0.00527784515169363,-0.0483342473287886,0.41674957204185,-0.000416586065269806,0
0.43,0.000847282010421318,0.000487231635601956,-0.0420616673635388,-0.0243913097095015,0.000102560355725568,0.000971989117916653,-0.00527762257943992,-0.0483349413018656,0.416746777176861,-0.000407865334299296,0
0.44,0.000847233464826845,0.000487230903986935,-0.0420624377175955,-0.0243912695456691,0.000102581992420683,0.000971944150943576,-0.00527740606000222,-0.0483356150480568,0.41674404551168,-0.000399341803535923,0
0.45,0.000847185850757345,0.00048723018889817,-0.0420631815892601,-0.0243912495811657,0.000102603206882583,0.000971900048685359,-0.00527721574866903,-0.0483362730822701,0.416741375617071,-0.000391011013729688,0
0.46,0.000847139517052837,0.000487229489962478,-0.0420639179632227,-0.0243912094182255,0.000102623858938717,0.000971857129838608,-0.00527700708778623,-0.048336916404503,0.416738766096453,-0.000382868606467878,0
0.47,0.000847094231085459,0.00048722880681555,-0.0420646368869916,-0.0243911692562678,0.000102644043762591,0.000971815181405,-0.00527680264232392,-0.0483375440832105,0.416736215584373,-0.000374910321892638,0
0.48,0.000847050109270532,0.000487228139101307,-0.0420653457469733,-0.0243911290946774,0.000102663715217971,0.000971774309562146,-0.00527659948614673,-0.0483381628652602,0.416733722746489,-0.000367131996474442,0
0.49,0.000847006686151276,0.000487227486471349,-0.0420660227904776,-0.0243911091282898,0.00010268306267308,0.000971734088420403,-0.00527642495352483,-0.0483387610270158,0.416731286278857,-0.000359529560831687,0
0.5,0.000846964426980348,0.000487226848584766,-0.0420666928001842,-0.0243910689677468,0.000102701898745567,0.000971694943151423,-0.00527623214176179,-0.0483393448747569,0.416728904906521,-0.000352099037603925,0
0.51,4.68408420769382,0.0215001941175874,5.79694934891867,-1.07283147129795,-0.222258362681016,4.67885758955454,-1.37301387955081,5.73327323666828,0.0520570376488578,16.0856178880815,561.199536751052
0.52,4.66453242079466,0.00237614967296884,6.77584699636323,-0.11132674934955,-1.09076870499666,4.53520583688675,-1.69606746955833,6.56108613736715,0.236537880060772,34.2480336938156,561.199536751052
0.53,4.62834040532872,0.0315941614136339,8.58678946113704,-1.56978720458774,-2.41037346945062,3.95128242933892,-5.85621499527698,6.47317009251839,0.554582966750277,52.5704128696191,561.199536751052
0.54,4.62876747028829,0.0403884925909026,8.5668320659102,-2.0053390248363,-3.89491343778446,2.50135340096094,-8.3173382328356,2.86947398849506,1.00864201637075,71.4414628954278,561.199536751052
0.55,4.63025940259937,0.00154543396491791,8.49363775949852,-0.0571894208586877,-4.62756032007783,-0.158082281635839,-8.4866173060766,-0.349971026855667,1.60527785785553,91.6126167516022,561.199536751052
0.56,4.61112506994228,-0.0201206924572368,9.45176413873691,1.02910223259093,-3.25936346336241,-3.26181376945609,-7.43478254448229,-5.92612059071516,2.3522067533867,111.860804613641,561.199536751052
0.57,4.63037445704074,0.0250825343748153,7.2889284708073,-1.22818366954507,0.433152195472806,-4.61013838420313,1.9432968383814,-7.13165554248235,-3.04249433094676,130.357962082128,561.199536751052
0.58,4.45904932314044,-0.0127472142969921,7.6216805318637,0.67126175241827,4.01982235558304,-1.92984755543706,6.56919568057638,-3.92253420384659,-2.02124231299023,148.334972391056,561.199536751052
0.59,4.26202423640716,0.0675515649291949,8.58646693535289,-3.35259658633324,3.28559976408636,2.71555666408972,4.35443568312184,8.12442048297335,-0.864254567697523,167.354366446562,561.199536751052
0.6,4.09410753247188,0.0670333942686339,9.11154449812928,-3.32110699509906,-1.62856193520421,3.75685985719378,-6.7853885023478,6.92881647083339,0.425411566475119,184.162757187332,561.199536751052
0.61,3.97707320891386,0.047045203575582,7.35261320074228,-2.31534093999468,-3.85117761043058,-0.993858930209949,-6.49210224257267,-4.15624025053028,1.8351807699908,200.774721739103,561.199536751052
0.62,3.77240561042879,0.033806259231659,9.80969937866449,-1.65660465653203,0.817340849351606,-3.68295274049764,3.82502280104745,-9.18388487837697,-2.91424533712319,217.135216012042,561.199536751052
0.63,3.65550049118327,-0.00549950483488759,8.71135515030273,0.318101491970571,3.48750834544698,1.09544494431816,8.40979356821549,2.29439954103491,-1.26795406988686,232.256722066436,561.199536751052
0.64,3.54925625403177,0.00321629129570988,6.82126966893917,-0.122389501662147,-1.67381017279272,3.12979069695865,-3.33019489822004,5.95436823066695,0.492004216397489,247.402766846881,561.199536751052
0.65,3.36022366001412,-0.00549540530124877,9.68620688969006,0.312084815638391,-2.37083618561695,-2.3812326693894,-7.0661975314061,-6.63240931254861,2.35674684027234,261.690445164266,561.199536751052
0.66,3.26069126322568,0.0420587303398547,8.18449649998693,-2.06307699462464,3.00504691079997,-1.26632125259179,8.35911608199483,-1.16937931048187,-1.95671423530394,275.299515701639,561.199536751052
0.67,3.17502395429475,0.00728609294497606,6.07473386811349,-0.328864511119626,-0.344118100835747,3.15632902755291,-0.999096254301723,6.00102908755817,0.110890682301824,288.91087186208,561.199536751052
0.68,3.00356875963274,0.0135678814779521,8.86386231977165,-0.633339813647041,-2.29990301365011,-1.9318528694113,-6.35183830796563,-6.2147666611771,2.27395663511844,301.311503874557,561.199536751052
0.69,2.89500481887982,0.0288235868169928,8.39666538507557,-1.40110502935584,2.84155340402544,-0.554488911129684,8.5114689688579,-0.148259517001309,-1.7535544766389,313.666839333871,561.199536751052
0.7,2.85161839136571,0.067297387322252,4.88087347752697,-3.33324559701572,-1.52984099396063,2.40745569461062,-5.4845543806546,2.20297874690005,0.589680877863407,325.72268856654,561.199536751052
0.71,2.65818061085867,-0.0135061303678843,9.29355723234036,0.711028574020066,-0.314712482149405,-2.63951939357942,-1.85275103329182,-9.13471845611538,3.01784097623077,336.975401624484,561.199536751052
0.72,2.59429966701838,-0.00820029582171566,7.33880877247344,0.455953601853526,1.77168739631449,1.89514690113553,5.36076997414519,5.03270833351981,-0.754902522110665,347.745976008663,561.199536751052
0.73,2.50440652947713,0.0139422065921768,6.74672768605229,-0.657279213566332,-2.42159661413474,-0.638839798715987,-6.34266397857026,-2.39185369311715,1.83429620753862,358.368450940898,561.199536751052
0.74,2.4165328508089,0.0298294373801551,6.27231241724952,-1.45852182464565,2.35530358696916,-0.541355546367847,6.43894318772271,0.0959145339843914,-1.78437454522874,368.60010513893,561.199536751052
0.75,2.30835057410482,0.0539297570508447,7.04088599084757,-2.66969686341195,-1.85012873428787,1.38145374813201,-7.28540806802943,1.90372953985509,0.952782184331895,378.384114991397,561.199536751052
0.76,2.2219284390329,-0.00842962008002734,6.94814080305554,0.451095109316175,1.29514314389168,-1.80544766844909,3.66100135423072,-5.92260217312078,-2.52310894205023,387.689857370028,561.199536751052
0.77,2.14233797318937,0.0506008118548782,6.64601558168176,-2.4899586382412,-0.690519952993783,2.02863368503211,-4.6270592938985,5.38142540809182,0.351700151570472,396.599065508063,561.199536751052
0.78,2.07423391725297,0.0441721137853728,5.88628777376099,-2.1686236861416,0.266002144202855,-2.05758119606453,3.0231298465327,-5.49654422147459,-2.99173427269651,405.224852775801,561.199536751052
0.79,1.96102917933688,0.0443188486363419,7.51714284646197,-2.17876597004149,0.0242817319944484,1.96137961650632,-2.25545095585462,7.49449122436338,0.0102166517540701,413.577084825782,561.199536751052
0.8,1.8770366533194,-0.0418513369711757,7.8283828887948,2.13259113657183,-0.0885234337867729,-1.87541508311663,-2.67076976716747,-7.66149544541692,3.07213281358878,421.619111010062,561.199536751052
0.81,1.81421665128733,0.0365151050640574,7.22087325802629,-1.79304067682129,0.202055275976944,1.80329949707638,-1.12606311666505,7.35445357144238,-0.0914576519432027,429.358584826786,561.199536751052
0.82,1.73699918665755,0.0195250324140302,7.48128539678269,-0.944733175997441,-0.120345312408316,-1.73293519991981,0.508762855243417,-7.52351728376221,3.08349822771136,436.780699390026,561.199536751052
0.83,1.7505035856912,-0.00268496949213337,3.34130183060619,0.167167355520987,-0.052531900803624,1.74971723772068,0.0719513543866551,3.34470713973078,0.0284802385013855,443.910722957498,561.199536751052
0.84,1.59097653927225,0.0641900784283818,7.97397563653766,-3.18400965723441,0.200007257168658,-1.57965939739021,4.45982011934192,-7.33704364526825,-2.97532417554567,450.759133019959,561.199536751052
0.85,1.59936357090825,0.00166649063787903,4.34290195031839,-0.0529941759450573,-0.551663529904948,1.50121083093357,-1.5519524052822,4.05648240036884,0.353202683336817,457.334505252946,561.199536751052
0.86,1.49247961736309,0.0210671770599038,6.5846637937074,-1.02545165590823,0.809733399670071,-1.25390233098607,4.50332711633338,-4.91216787763433,-2.55408170233811,463.664588036654,561.199536751052
0.87,1.4552292730384,0.0456801277422844,5.46814169122858,-2.25697590956371,-1.08010662655864,0.976293289151648,-5.62978568001116,1.81659764638303,0.867218418060934,469.71957683387,561.199536751052
0.88,1.4107993900595,0.0311305495880757,4.83288088756993,-1.52764815047434,1.29843413367893,-0.552623588536853,5.05464050408117,-0.375574119966232,-1.95111929059835,475.521285248825,561.199536751052
0.89,1.34129460186662,0.0433201959410718,5.54350070370233,-2.13738439339072,-1.34047875189395,0.0637539339471398,-5.57542672320259,-2.05266386708999,1.55555764709551,481.123709976501,561.199536751052
0.9,1.22305910795564,0.0609858883456094,8.79738131471776,-3.02266115319313,1.15437853705574,0.408660070615672,6.98720559949839,6.1407944399651,-1.18073259849243,486.481507517861,561.199536751052
0.91,1.26049886348996,-0.0113628627475298,4.37335021350714,0.601256210516758,-0.83870634669195,-0.941040999918677,-3.38435078595435,-2.83440838241035,2.40461645525379,491.641410983939,561.199536751052
0.92,1.15874037376999,0.0769486825489557,6.97728193980717,-3.82587054259047,0.367984659902394,1.10144797590588,-1.93349903574091,7.71889436091788,-0.25612313360168,496.621326927999,561.199536751052
0.93,1.13166476740629,0.019626565917514,5.93449688654789,-0.972274699589365,0.272264281556794,-1.09860024980282,2.4667489143673,-5.48440709478936,-2.88131759001952,501.410210378214,561.199536751052
0.94,1.0356101730731,0.0226231576845823,8.41594104797262,-1.12410362225572,-0.735106056919102,0.729807730102228,-6.87489724511101,4.98271618153031,0.810856736582305,505.986488459835,561.199536751052
0.95,1.07474650606557,0.0532452078194788,4.24393155206234,-2.65317141720531,1.04867010100555,-0.241259453105758,4.64409118591264,1.8661968397235,-1.74742224632033,510.35470673214,561.199536751052
0.96,0.990412839166571,0.00792844234320363,6.33278071367352,-0.381324544729865,-0.900220415079785,-0.413017743514195,-5.57279226763485,-3.03207953683243,2.00894610448616,514.53744138278,561.199536751052
0.97,0.986300843989428,0.0203142720046748,4.5094711411685,-0.995665295552906,0.480236583069449,0.861727827555266,1.23412595453557,4.45012499623793,-0.487833183396808,518.525239172175,561.199536751052
