t,iq,id,vq,vd,ia,ib,va,vb,theta_e,omega,r
0,0,0,0,0,0,0,0,0,0,0,0
0.01,0.00139775433937286,0.000787617825154393,-0.0674768633982005,-0.0394322613809232,0.000382756554120666,-0.00155806176129647,-0.0174499530466722,0.0761808996425074,-2.38756128467257,-0.00450210789828763,0
0.02,0.0015458655668725,0.000872034286642471,-0.0750868464018847,-0.0436585900249886,0.000422560271071894,-0.00172382915778616,-0.0195761207664997,0.0846219976205105,-2.38759411113532,-0.00461016083512404,0
0.03,0.0016014060593875,0.000904361097322638,-0.0779141429640649,-0.0452770233648479,0.000436958774815455,-0.0017864594567203,-0.0203289836726944,0.0877915425393645,-2.38762622498004,-0.00440743213941266,0
0.04,0.00156501074831337,0.000885799038332839,-0.0763533275641156,-0.0443477103001706,0.000425526608064845,-0.00174723372348309,-0.01993555624919,0.0860181587574181,-2.38765463617678,-0.00393284184687838,0
0.05,0.00159687984800278,0.000904801350817163,-0.078025846915053,-0.0452990435298706,0.000433440773123158,-0.00178348530400235,-0.0203845322205012,0.087889174405519,-2.38768157383053,-0.00371198154524272,0
0.06,0.0015956991986314,0.000905424830583068,-0.0781160840110102,-0.045330278570744,0.000432133886987526,-0.0017830620740923,-0.0204213468748486,0.087976845410219,-2.38770636816871,-0.00340336814744904,0
0.07,0.0016374035613971,0.000930281727780313,-0.0802283440553737,-0.0465747622960331,0.000442517190056139,-0.00183048983947539,-0.0209578525912663,0.0903690438566335,-2.38772868453338,-0.00327322023201906,0
0.08,0.00159309116485597,0.000906257798463817,-0.0782473861753264,-0.0453719955548859,0.000429664411151115,-0.00178174946347931,-0.0204769960159127,0.0881020093872299,-2.3877496259519,-0.00286304857772915,0
0.09,0.00158970538982735,0.000905454257876895,-0.078197515848017,-0.045331762909694,0.000427899423662339,-0.00177873908226669,-0.0204705394975534,0.0880384985445611,-2.38776842641695,-0.00262044307055207,0
0.1,0.0015879662262583,0.000905422339976922,-0.0782159791712135,-0.0453301371530362,0.000426701910129764,-0.00177745656187653,-0.020482853505601,0.0880511978583646,-2.38778555490639,-0.00240405672279415,0
0.11,0.00158642946037029,0.000905416506805332,-0.0782351173165249,-0.045329870555201,0.000425626634098064,-0.00177633877733745,-0.0204947713087227,0.0880652888207655,-2.38780116935819,-0.00220696653103551,0
0.12,0.00158503029742106,0.000905411959750185,-0.0782526455015061,-0.0453296447508152,0.000424647080064502,-0.00177532158157165,-0.020505678619023,0.088078205962615,-2.38781540393871,-0.00202729962812486,0
0.13,0.00166067236651134,0.000948723909838006,-0.0819273601336212,-0.0474980608362745,0.000444811257248709,-0.00186012169263667,-0.0214383464276748,0.0922418312053566,-2.38782935372114,-0.00211706016832705,0
0.14,0.00174252598746918,0.000997060623059959,-0.0862982578739524,-0.0499180208535513,0.000465562976031282,-0.00195288960732834,-0.022664069434283,0.0970852103808441,-2.38784199373815,-0.00224434828949571,0
0.15,0.00158709280724931,0.0009084436115913,-0.07857664310686,-0.0454813949886993,0.000423780090286685,-0.00177891647059106,-0.0206133914391492,0.0884190829257878,-2.38785372082895,-0.00156378569189012,0
0.16,0.00158053038460502,0.00090549780860273,-0.0783217770448772,-0.0453339157114664,0.000421419788848896,-0.00177211961774892,-0.0205456523789428,0.0881325186382724,-2.38786335144848,-0.00142284496153133,0
0.17,0.0015794665912576,0.000905397304393556,-0.0783228050914215,-0.0453289113899471,0.000420749567498002,-0.00177127885810006,-0.0205492344544825,0.0881300230824955,-2.38787209241642,-0.00131181222680987,0
0.18,0.00157867634685263,0.000905391525286721,-0.0783322581848387,-0.0453285977283523,0.000420198865180125,-0.0017707020460468,-0.0205552302482022,0.0881368648965823,-2.38788005953533,-0.00121122679652886,0
0.19,0.00157796227162969,0.000905389107142728,-0.078341172156252,-0.0453284816256739,0.000419699093784276,-0.00177018276929138,-0.0205607749997528,0.0881434344277219,-2.38788732254482,-0.00111955327600741,0
0.2,0.00157731152634247,0.000905386996927054,-0.0783493052610041,-0.045328368304846,0.00041924358049424,-0.0017697096048651,-0.0205658398279522,0.0881494233686913,-2.38789394371633,-0.00103598183284396,0
0.21,0.00157671820715728,0.00090538507597363,-0.078356711589382,-0.0453282924539343,0.000418828269442359,-0.0017692781921713,-0.0205704314778584,0.0881548960450055,-2.38789997977153,-0.000959795671358783,0
0.22,0.00157617715844999,0.000905383324578707,-0.0783634515033553,-0.0453282164645865,0.000418449553856346,-0.00176888478147168,-0.0205746141402854,0.0881598717805187,-2.38790548241712,-0.000890342121000218,0
0.23,0.00157568450516616,0.000905381727708417,-0.0783696210295528,-0.0453281056885924,0.000418104708263506,-0.00176852655779236,-0.0205784746536468,0.0881643978404046,-2.38791049879106,-0.000827026216462554,0
0.24,0.00157523507531326,0.00090538027174723,-0.0783752258241974,-0.0453280294599549,0.000417790126230212,-0.00176819975947029,-0.0205819625563325,0.0881685266693632,-2.3879150718651,-0.000769305570847578,0
0.25,0.00157482502719672,0.000905378944276503,-0.0783803146487913,-0.0453279935760234,0.000417503117730011,-0.00176790159389885,-0.0205851035462652,0.0881722985866938,-2.38791924081425,-0.00071668572829306,0
0.26,0.00159078365780431,0.000914508667695174,-0.0791600370894886,-0.045785058963761,0.000421760138579864,-0.0017857875390796,-0.0207850722278068,0.0890537133914647,-2.38792294152075,-0.000726316715370505,0
0.27,0.00153604874951521,0.00088354949525448,-0.0765832558885361,-0.0442351041087,0.000406872217607728,-0.00172469141297528,-0.0201515988530199,0.0861141833942789,-2.38792680144064,-0.000489974282769976,0
0.28,0.0015290759766475,0.000879315335407135,-0.0758889725482027,-0.0440230964342715,0.000405182634126869,-0.00171671076027521,-0.0198308090461704,0.0854629053253946,-2.38792999765184,-0.000426646728999788,0
0.29,0.00157189132408671,0.00090450927714454,-0.078319312852774,-0.045284438634753,0.000416106187970245,-0.00176517279820206,-0.0205739463926955,0.0880982853296583,-2.38793254049795,-0.000543203633839374,0
0.3,0.00156384366111567,0.000900318538693855,-0.0779441673361587,-0.0450746476948005,0.000413652813393808,-0.00175643725122729,-0.0204701021041254,0.0876811952837333,-2.38793373666717,-0.000500733869715049,0
0.31,0.00157281126069069,0.000905205648033171,-0.0783845052944022,-0.0453193230542846,0.000416221478674785,-0.00176632166030889,-0.0205927992186547,0.088169769948021,-2.38793619052802,-0.000501548066766693,0
0.32,0.00157292043805259,0.000905367236879683,-0.0784032244447675,-0.0453274134156956,0.000416174297071609,-0.00176651280564723,-0.0205995066290275,0.0881890034921283,-2.38793849081771,-0.000473671173872511,0
0.33,0.00157272622437452,0.000905371958509863,-0.0784063479275556,-0.0453276445307823,0.000416034243957168,-0.0017663752907993,-0.02060129038382,0.0881914825171195,-2.38794059013267,-0.000447216046129205,0
0.34,0.00157253876236342,0.000905371527665587,-0.0784086982413501,-0.0453276166184876,0.00041590289630553,-0.0017662390956741,-0.0206027502807817,0.0881932166840707,-2.38794250401344,-0.000423060852912977,0
0.35,0.00157236736565204,0.00090537097761466,-0.0784108129108295,-0.0453275799181063,0.000415782928342423,-0.00176611446293083,-0.0206040702433245,0.0881947695273227,-2.38794424876688,-0.000401038886334063,0
0.36,0.0015722111029321,0.000905370470924546,-0.0784127361889831,-0.0453275431628657,0.000415673557715222,-0.00176600083103646,-0.0206052728695018,0.0881961795986532,-2.3879458393352,-0.000380962962053069,0
0.37,0.00157206837774318,0.000905370008816772,-0.0784144720276805,-0.0453275409271803,0.000415573666905169,-0.00176589704245178,-0.020606334451475,0.0881974737186902,-2.38794728934455,-0.000362661155721175,0
0.38,0.00157193865771616,0.000905369587522078,-0.0784160701849142,-0.0453275040715424,0.000415482872341758,-0.00176580271163656,-0.0206073383607878,0.088198641113597,-2.3879486112152,-0.000345976689385169,0
0.39,0.00157182003050364,0.000905369203443366,-0.078417504680919,-0.0453275046486504,0.00041539984795936,-0.00176571644641813,-0.0206082132807192,0.0881997123772621,-2.38794981627171,-0.000330766637941695,0
0.4,0.00157171231297202,0.000905368853294049,-0.0784188298152725,-0.0453274677093302,0.000415324452551543,-0.00176563811534969,-0.0206090501117569,0.0882006760293148,-2.38795091483633,-0.000316900706584519,0
0.41,0.00157161370919478,0.000905368534077378,-0.07842001367957,-0.0453274682049117,0.000415255442686933,-0.00176556641074338,-0.0206097715349242,0.0882015602846653,-2.38795191632027,-0.000304260114732541,0
0.42,0.00157152415244802,0.000905368243061481,-0.0784211056770015,-0.0453274282857925,0.000415192759511993,-0.00176550128567512,-0.0206104673686888,0.0882023480722101,-2.38795282930223,-0.000292736578506317,0
0.43,0.00157144219606175,0.000905367977756701,-0.0784220815775047,-0.0453274287132331,0.000415135401047319,-0.00176544168680473,-0.0206110614517191,0.0882030771489039,-2.38795366160334,-0.000282231383118911,0
0.44,0.00157136757384073,0.000905367735890651,-0.0784229719247065,-0.0453274291095872,0.000415083174178211,-0.00176538742145287,-0.0206116034998863,0.0882037423035521,-2.38795442035349,-0.000272654537262049,0
0.45,0.00157129978676364,0.000905367515394046,-0.0784237917342265,-0.0453273920160869,0.000415035727436554,-0.00176533812703557,-0.0206121305303816,0.0882043289864611,-2.38795511205265,-0.000263924002217162,0
0.46,0.00157123785381265,0.000905367314378668,-0.0784245283538427,-0.0453273923601284,0.000414992380414438,-0.00176529308937552,-0.020612578725621,0.0882048793660066,-2.38795574262539,-0.000255964989057281,0
0.47,0.00157118115955113,0.00090536713112453,-0.0784251842395288,-0.0453273926818711,0.000414952703672439,-0.00176525186077342,-0.0206129766057515,0.0882053697106436,-2.38795631747442,-0.000248709317994671,0
0.48,0.00157112958756374,0.000905366964061277,-0.0784257838667858,-0.0453273929817711,0.000414916609988406,-0.00176521435731966,-0.020613340484777,0.0882058179696916,-2.38795684152342,-0.00024209483432708,0
0.49,0.0015710825557739,0.00090536681175973,-0.0784263257458535,-0.0453273932623197,0.000414883694157086,-0.00176518015545598,-0.0206136689456066,0.0882062231509356,-2.38795731926157,-0.000236064875993952,0
0.5,0.00157104014723653,0.000905366672915099,-0.0784268391666741,-0.0453273560683492,0.000414854006729313,-0.00176514931656077,-0.0206140089827849,0.0882065810667206,-2.38795775478206,-0.000230567788189841,0
0.51,4.65517330547067,-0.0409399900571477,7.24246546328897,2.05671633922803,-0.783655717279863,4.58892125706327,0.874007505968688,7.47793413761391,0.160345338876388,49.1658969618083,701.609613952349
0.52,4.62085607456555,-0.0791282903340523,8.95959012945615,3.97741403718055,-3.11770680082093,3.41152113466932,-2.94849843184882,9.34881996341752,0.72330615367449,104.506246022971,701.609613952349
0.53,4.66793118993001,0.0404817855352619,6.6072867193827,-2.00036271611544,-4.63606664554585,-0.545991233390047,-6.30380263734827,-2.81420701042349,1.69669878755502,161.586323765384,701.609613952349
0.54,4.55556545320016,-0.00559024002032649,12.2271794233257,0.303468782105137,-0.1581896944651,-4.5528215284304,-0.742849753510118,-12.2083653367526,3.10563408334213,223.31765654883,701.609613952349
0.55,4.2557555426551,0.0792814762127254,9.00265119591807,-3.9361216666665,4.15163720384817,0.938961830392364,7.80271482822732,5.97146746114621,-1.3297446572102,278.910943190262,701.609613952349
0.56,3.81422573311161,-0.0125544623537243,7.08068094653374,0.674052009741189,-2.9813535993526,2.37907676910248,-5.0977896151365,4.96013405244743,0.893993509494108,327.703820759445,701.609613952349
0.57,3.39064073006247,0.021262731664651,5.31249105309035,-1.03238046980599,1.07669448753407,-3.21521782226806,2.69537310887213,-4.69290255892564,-2.81218475878931,373.334685237346,701.609613952349
0.58,2.95176879896533,0.0373155888488075,8.37827967608046,-1.8222299801455,-0.154391074294651,2.94796453369007,-2.36230137508164,8.2423069977071,0.0649653883444534,411.6666694251,701.609613952349
0.59,2.60127115546784,0.00993998552853516,8.34438607364502,-0.4620252977405,0.185557489234464,-2.59466353228512,1.08774780629194,-8.28607573171403,-3.06637796634399,446.510532854257,701.609613952349
0.6,2.28059485133772,-0.0520516629608307,8.93256960787811,2.62479503720241,-0.769276684139712,2.1475650478633,-0.329032278717477,9.30441220854236,0.321149215991373,477.695909725501,701.609613952349
0.61,2.05043936380645,-0.016737996551951,7.40328449208213,0.881349631159508,1.45215942257566,-1.44769290825103,4.57280699119833,-5.88853416940892,-2.36281718112712,503.937076781322,701.609613952349
0.62,1.65897553721162,-0.00537052397153637,14.9162908539303,0.300595925881293,-1.64185613708381,0.237775315612306,-14.711244215667,2.48301920586713,1.4237379410528,527.945215372956,701.609613952349
0.63,1.59574225463547,-0.0356164181832757,7.45698142721192,1.80131373518724,1.23754844932498,1.00803556884003,6.99149604675418,3.15757600171055,-0.909566762139142,549.279962661361,701.609613952349
0.64,1.34989612922654,0.125960867744964,10.4911320461219,-6.30078568652155,-0.0671527098129099,-1.35409608723629,6.75094791616985,-10.2072745681598,-3.09810222632345,567.981269742125,701.609613952349
0.65,1.25680412468426,0.00626599489100731,7.02985609174137,-0.29240090064617,-1.13168361215132,0.546706568922929,-6.47096835087519,2.76241625380094,1.12575252027965,584.291756601508,701.609613952349
0.66,1.09151029948154,0.0821739318249521,8.02035891079535,-4.08038091978987,0.853793768483913,0.684969699945839,3.07637523325548,8.4564520298274,-0.8195323480199,598.777622803126,701.609613952349
0.67,0.953265259025794,0.104015211527463,8.41423004694596,-5.18052973146528,0.346150149649705,-0.894267237570573,8.47046577162967,-5.08806104456051,-2.66359163547097,611.772622988274,701.609613952349
0.68,0.784359486481312,0.0160955619478874,11.1576736726607,-0.788743976176491,-0.755490716792124,-0.211453654469648,-10.4526569687327,-3.98218045039939,1.86422000018139,623.162260562473,701.609613952349
0.69,0.835950869384524,-0.0241867696406216,3.43104205614251,1.22172385041054,-0.1797079471605,0.816764292545744,0.560219996495505,3.59872370615016,0.187648257582305,633.491638345596,701.609613952349
0.7,0.698692278528283,0.0351180690852732,5.82026044426098,-1.75661965348376,0.695940388236497,0.0712120416260865,5.48667662910311,2.61868742191354,-1.41860600446567,642.461900257894,701.609613952349
0.71,0.642458332364677,-0.00431391464619951,4.67801935104587,0.211907187790903,0.118297785382604,-0.631487887974067,0.621923895017689,-4.64133390027082,-2.96312176003034,650.368202318036,701.609613952349
0.72,0.442796594420169,-0.0717928469174607,11.2536847681089,3.58365779276946,-0.409693019025919,-0.182687347837888,-11.7959936746963,0.585283915862551,1.82950979247613,657.172709968408,701.609613952349
0.73,0.468909401309702,0.0227972647466953,6.93066252135992,-1.15292423532099,-0.155278715528271,0.443039797783951,-3.67551068956166,5.98781583286356,0.385686029294783,663.220061208472,701.609613952349
0.74,0.354609134511811,0.0390507122285338,9.94092783408226,-1.96861768717215,0.321966846200736,0.153655284166615,7.41175827994548,6.91110273403153,-1.01584107082174,668.608734624969,701.609613952349
0.75,0.239079542776645,-0.0130613790899947,13.2945830950153,0.64599850553452,0.174459505775461,-0.163992403002712,8.70817911302804,-10.0663235729258,-2.37985561763363,673.443232630007,701.609613952349
0.76,0.327514599532685,0.021644558778856,6.71337088416687,-1.07147642107208,-0.19465633024699,-0.264278665288292,-2.71351058779254,-6.23331939172306,2.57274200050687,677.691941459876,701.609613952349
0.77,0.253187296218511,-0.0305719459311871,8.5165611360409,1.55162572808537,-0.250953100947929,0.0453981494014659,-7.68110537687664,3.99248997159611,1.27166236216349,681.516669174771,701.609613952349
0.78,0.267674923879027,-0.0269671240294207,6.14309349327229,1.3719876685429,-0.0260215159383066,0.267768503301515,1.39367679321261,6.1382092523617,-0.00353205235153872,684.759101924188,701.609613952349
0.79,0.138002762877698,-0.0248291119373631,11.1547461690606,1.26258372782914,0.123561614059086,0.0662855556859081,10.9984724761789,2.24857353819853,-1.25642286494811,687.660397208465,701.609613952349
0.8,0.240046139517054,0.010511731168614,4.77946989151341,-0.50480614146076,0.137350382204616,-0.197148467144556,3.3022389369819,-3.49190201572443,-2.4893324774727,690.19950244974,701.609613952349
0.81,0.160346781594332,0.0438169785217196,7.55814653000683,-2.17414060015383,-0.122584319119683,-0.112267994906817,-2.19196380044683,-7.5529968235014,2.57904726164668,692.531368760805,701.609613952349
0.82,0.162104136080797,-0.0018013443198984,6.45536744280485,0.10967508335463,-0.159502936393214,0.0289794592393055,-6.31737172045206,1.33214563436818,1.3799589200567,694.552259772038,701.609613952349
0.83,0.0903031288227706,0.0395573109650657,9.13679247695079,-1.96289963565365,0.0213434092053573,0.0962491288763773,-3.69311286315079,8.58457157501432,0.194651689900325,696.342121839898,701.609613952349
0.84,0.0508478345902916,0.0808547489937188,10.2662046698485,-4.0317752087318,0.0873365244740116,-0.038669422159625,6.26396683910301,9.07815449833177,-0.978203427009437,697.959133215511,701.609613952349
0.85,0.0920838597139818,0.0345477272623723,7.54258153344992,-1.71277625506097,0.0589326647899549,-0.07873959423044,7.27605058844987,-2.62359038780042,-2.14015849829204,699.254257982354,701.609613952349
0.86,0.171347936483859,0.0296059166427451,2.93384044876244,-1.46404049855459,-0.055100756447088,-0.164925838716959,1.00498599813684,-3.12103148073701,2.99025073433392,700.517184003758,701.609613952349
0.87,0.131395708290826,-0.00206443261039098,4.36069205831951,0.120526584636725,-0.125883516554161,-0.0377151733286364,-4.2291591937341,-1.069754363931,1.84617927197412,701.604421953078,701.609613952349
0.88,0.0500528232203303,0.0611203083059666,8.01023398637818,-3.04499272589258,0.0138048206378934,0.0777843437132283,-7.5263570145676,4.09753331975907,0.708976371625706,702.367619871697,701.609613952349
0.89,0.105747630870281,0.0304426353846073,4.81057710108039,-1.50813956087447,0.0711375548786676,0.0839569161518091,0.597663115400393,5.00589010876223,-0.422629606160857,703.190222861418,701.609613952349
0.9,0.00723254373550749,0.0427240455006809,9.32156401388275,-2.12525648981372,0.00818937432788713,-0.0425510035245706,9.27153016523447,2.33388071836511,-1.54835622382644,703.955996042042,701.609613952349
0.91,0.00305185028463512,-0.0728526289942301,9.22635845670632,3.66127798179273,0.0662620420745681,0.0304328953870467,0.938043512406168,-9.88183794647682,-2.66918126593423,704.537074693053,701.609613952349
0.92,0.0688390556080191,-0.0243168623912944,5.62725591741609,1.23250381341794,-0.0218918189882533,-0.0696482134368617,-4.36461765908289,-3.75967917516986,2.49749035804953,705.101151131523,701.609613952349
0.93,-0.0298857931071151,-0.103515318061688,10.2772511531566,5.19572087906897,0.0102642272370335,-0.107253099453024,-9.1415579775775,7.00352228959408,1.38514067699216,705.643725085602,701.609613952349
0.94,-0.0593599139948777,-0.0195976563627693,11.5188392471447,0.99363616943809,-0.00268012311049871,-0.0624538586838719,-2.18290521399933,11.3536732058603,0.27599519393971,706.070176507783,701.609613952349
0.95,0.018491611256918,0.0580441436166438,7.420491225576,-2.89211313686934,0.0528156596991656,-0.0303573448379215,3.52457638575879,7.1418043746839,-0.830081234539287,706.406459146211,701.609613952349
0.96,-0.0145295858995771,0.107639130919971,8.85007829608886,-5.37606503402989,-0.0517904575833418,-0.0954727179613523,10.1820511830102,1.8846205993733,-1.93366164533322,706.799042240933,701.609613952349
0.97,-0.0296192152179401,0.0255767462483802,9.47607377125798,-1.26757569484677,-0.0285799721986748,0.0267329954906602,2.26756786301624,-9.28767238047864,-3.03510570444919,707.042280518501,701.609613952349
