t,iq,id,vq,vd,ia,ib,va,vb,theta_e,omega,r
0,0,0,0,0,0,0,0,0,0,0,0
0.01,0.000993701602301144,0.000558391424249432,-0.0488575051267197,-0.0279483275982607,-0.000479008442842152,-0.0010343088362656,0.0240437794255402,0.0508926467545471,-3.06334603938075,-0.00304455283864273,0
0.02,0.0011151895120052,0.000626014225455723,-0.0549572701753396,-0.0313329410639206,-0.000536954249303607,-0.00116069875175005,0.026942531451773,0.0572377038306972,-3.0633686389949,-0.00316697452631095,0
0.03,0.00116187901058735,0.000653008136728246,-0.0572935736882576,-0.0326840389852826,-0.000560244065003367,-0.00120934240374893,0.0281082596788106,0.0596718168668579,-3.06339093746991,-0.00304856839372768,0
0.04,0.00113310874326846,0.000638411081753543,-0.0559362686616432,-0.0319534422897437,-0.000547962708304241,-0.00117950879762935,0.02748709177976,0.0582610368208682,-3.06341085671246,-0.00271242962104592,0
0.05,0.00115857417984653,0.000653786512298752,-0.0572266737671506,-0.0327229976872144,-0.000561324898714257,-0.00120608676800397,0.0281546315457827,0.0596070758434814,-3.06342962166162,-0.00256759577094407,0
0.06,0.0011583071662747,0.000654759803614662,-0.0572559881872562,-0.0327717102838664,-0.000562336967810572,-0.00120588682159913,0.0282019400985277,0.0596396156334693,-3.06344695328732,-0.00235607322824786,0
0.07,0.00118502030092566,0.000671102242576862,-0.0585995162830484,-0.0335896725083131,-0.000576563373679749,-0.00123378523646892,0.0289134735333604,0.0610424479854687,-3.06346254242902,-0.00225391726311398,0
0.08,0.00115658669957801,0.000655853138519866,-0.0572457844199357,-0.032826419492973,-0.000563597720741241,-0.00120423990222978,0.0282590836081803,0.0596328587626676,-3.06347721648737,-0.0019826284617438,0
0.09,0.00115305719743821,0.000654879995289496,-0.0571054813428088,-0.0327777339676589,-0.000562918790624537,-0.00120063780714928,0.0282222789493772,0.0594888125142202,-3.06349039049574,-0.00181097415631335,0
0.1,0.00115139933727719,0.000654815002995264,-0.0570537745128177,-0.0327744878284762,-0.000562997735004204,-0.00119897317418288,0.0282237902539897,0.0594366713593315,-3.06350239032891,-0.00165970862831847,0
0.11,0.00114999631249891,0.000654808034616354,-0.0570119345531179,-0.0327741284788325,-0.000563113343561916,-0.00119756771969761,0.0282273459019404,0.059394621998698,-3.06351333285189,-0.00152212624787519,0
0.12,0.00114872429176817,0.000654805004256235,-0.0569741393315025,-0.0327739799439547,-0.000563221478177537,-0.00119629371753629,0.0282307381820504,0.0593566486219423,-3.06352331207658,-0.00139668033936926,0
0.13,0.00120166980471938,0.000685258937251337,-0.0595853019186206,-0.0342982451919359,-0.000589465565053378,-0.00125144735337666,0.0295473180162701,0.0620784489660037,-3.06353300984374,-0.00145187266542667,0
0.14,0.00124617491637942,0.000711834025934442,-0.0618952824569514,-0.0356283561346443,-0.000612500749648124,-0.00129788382930514,0.0306938190968561,0.0644848448903486,-3.06354190589426,-0.00148922016555557,0
0.15,0.001152260439813,0.000658424497874654,-0.0572124865658223,-0.0329551353404889,-0.000566586374347563,-0.00120008617230731,0.0283943530134037,0.0596076360989475,-3.06355015284787,-0.00108201323835848,0
0.16,0.00114492419782668,0.000655026256115078,-0.0568705256844304,-0.0327850367919788,-0.000563778533987946,-0.00119250349248277,0.0282518350931235,0.0592532627198352,-3.06355694549713,-0.000975474950382183,0
0.17,0.00114369053895301,0.000654808554808936,-0.0568252193066179,-0.0327741443342278,-0.000563664985994865,-0.0011912531535761,0.0282448714785411,0.0592070715476345,-3.06356308946239,-0.000896768348855736,0
0.18,0.00114294571933211,0.000654793254952585,-0.0568024710439975,-0.0327733750994166,-0.000563714458051046,-0.00119050625107776,0.0282462092287388,0.0591841743738776,-3.06356868906157,-0.000826275868367355,0
0.19,0.00114229278880814,0.000654790954233305,-0.0567830064054867,-0.0327732760749449,-0.000563769132804017,-0.00118985224881338,0.0282479297943668,0.0591646169890638,-3.06357379550297,-0.000762078170545866,0
0.2,0.00114169954272093,0.00065478959672636,-0.0567653589761259,-0.0327731933646051,-0.000563819555159008,-0.001189258075882,0.0282494982144299,0.0591468852403502,-3.0635784524273,-0.000703537790571166,0
0.21,0.00114115825453916,0.000654788405548839,-0.0567492471049176,-0.0327731377822022,-0.000563865601419778,-0.0011887159465068,0.0282509496090675,0.0591306980616002,-3.06358269941919,-0.000650150928077407,0
0.22,0.00114066492947249,0.000654787321979919,-0.0567345647334048,-0.0327730850099851,-0.00056390756855126,-0.00118822185322637,0.0282522701719954,0.059115946805318,-3.06358657256465,-0.000601463534201731,0
0.23,0.00114021491090074,0.000654786333781915,-0.0567211642948396,-0.0327730292353961,-0.000563945847410972,-0.00118777113415669,0.0282534675853385,0.0591024829734804,-3.06359010477235,-0.000557061904781812,0
0.24,0.00113980439380139,0.00065478543241551,-0.0567089332750816,-0.0327730034596249,-0.000563980762526352,-0.00118735997832701,0.0282545853177455,0.0590901961198682,-3.0635933260532,-0.00051656877866029,0
0.25,0.0011394302780177,0.000654784610253541,-0.0566977876509251,-0.0327729475093129,-0.000564012581101623,-0.0011869852790357,0.0282555715654154,0.0590789970164462,-3.06359626377737,-0.000479640105337335,0
0.26,0.00115071958443796,0.000661325236281106,-0.0572558008264217,-0.0331003268992987,-0.000569656795327912,-0.00119874841634434,0.0285386313243032,0.0596607483296246,-3.06359885439744,-0.000485054486305441,0
0.27,0.00111633517465685,0.000641809141842219,-0.0555820342912699,-0.0321235009648529,-0.000552882266551208,-0.00116294642871526,0.0276953446102189,0.0579158850153913,-3.06360159272487,-0.000339381617403765,0
0.28,0.00111449185691001,0.000640757202113131,-0.0553902307109304,-0.0320708531099925,-0.000551979733186692,-0.00116102552311726,0.0276579294636646,0.0577205008224614,-3.06360382532691,-0.00030622132755515,0
0.29,0.00113656377226096,0.000653890063752992,-0.0565804633571094,-0.0327281709885572,-0.000563355219411425,-0.00118405249911178,0.0282206262129262,0.0589582756371974,-3.06360565079606,-0.000356179729244251,0
0.3,0.00112777631537989,0.000649308182062854,-0.0561531844095699,-0.0324988532300612,-0.000559472926019111,-0.00117493428662084,0.0280253461307863,0.0585144046782828,-3.06360654357214,-0.000316606249962181,0
0.31,0.00113718403328182,0.000654433175346091,-0.0566170451589507,-0.0327553636743231,-0.000563851420490946,-0.00118471172955914,0.0282450387926424,0.0589967917396357,-3.06360823667597,-0.000326778584942513,0
0.32,0.00113764828324484,0.000654758668649993,-0.0566436455236148,-0.0327716494647037,-0.000564141676448362,-0.00118519901258661,0.0282592983675357,0.0590245342431174,-3.06360985622143,-0.000308611968461906,0
0.33,0.00113750633772231,0.000654778981603838,-0.0566402844059396,-0.0327726618467694,-0.000564174742306109,-0.00118505824466666,0.0282606570004251,0.0590212203195829,-3.06361133846396,-0.000290132162697128,0
0.34,0.00113733706993371,0.00065477992100922,-0.0566352691274642,-0.0327727265383059,-0.000564190467335222,-0.00118488880160558,0.0282611919948771,0.0590161871093311,-3.06361269059704,-0.000273145807398452,0
0.35,0.00113718033823664,0.000654779659374754,-0.0566305757491881,-0.0327727029612438,-0.000564203876980201,-0.00118473183007946,0.0282616068772807,0.0590114713067255,-3.06361392373257,-0.000257645409562618,0
0.36,0.0011370369145605,0.000654779349632417,-0.0566262666814076,-0.0327727035427243,-0.000564216073019577,-0.00118458818359997,0.0282620094910043,0.0590071435955306,-3.06361504832167,-0.000243508804601358,0
0.37,0.0011369063763065,0.000654779062615419,-0.0566223454515941,-0.0327726769744013,-0.000564227170397665,-0.00118445744098762,0.0282623489752066,0.0590032032258568,-3.06361607391756,-0.0002306165450657,0
0.38,0.00113678705060192,0.000654778800561919,-0.0566187509071275,-0.0327726774744909,-0.000564237312055676,-0.00118433792971673,0.0282626846634178,0.0589995932083142,-3.06361700923423,-0.00021885913800069,0
0.39,0.00113667863125876,0.000654778561545723,-0.0566154884270219,-0.0327726508367257,-0.00056424652939865,-0.00118422933990074,0.0282629625658053,0.0589963144586175,-3.06361786221853,-0.000208136689667523,0
0.4,0.00113657944540481,0.000654778343558287,-0.0566124929814241,-0.0327726512682346,-0.000564254959369111,-0.00118412999950892,0.0282632422194959,0.0589933061623369,-3.06361864011785,-0.000198358096865073,0
0.41,0.00113648918685156,0.000654778144751509,-0.0566097665048571,-0.0327726245731646,-0.000564262631844744,-0.00118403959941312,0.0282634698338205,0.0589905658398083,-3.06361934954175,-0.00018944027566562,0
0.42,0.00113640653196912,0.000654777963437936,-0.0566072583724794,-0.0327726220376382,-0.00056426965541954,-0.00118395681647547,0.0282637008391172,0.0589880468446567,-3.06361999651781,-0.000181307455684853,0
0.43,0.00113633132767142,0.000654777798078949,-0.0566049752544836,-0.0327726223859283,-0.000564276047021761,-0.00118388149485584,0.0282639138298733,0.0589857540142435,-3.06362058654289,-0.000173890536309137,0
0.44,0.00113626307161366,0.000654777647271376,-0.0566029049445248,-0.0327725956199235,-0.000564281850342233,-0.00118381313079958,0.0282640801463937,0.0589836727010464,-3.06362112463029,-0.00016712649958587,0
0.45,0.00113620044017068,0.000654777509734592,-0.0566009931224408,-0.0327725959248544,-0.000564287172637946,-0.00118375040202509,0.0282642583107152,0.0589817528414131,-3.06362161535191,-0.000160957874786662,0
0.46,0.00113614339666313,0.000654777384301906,-0.0565992487435755,-0.0327725962097163,-0.000564292020555581,-0.00118369326952204,0.028264420863031,0.0589800011354671,-3.06362206287744,-0.000155332250107318,0
0.47,0.00113609135901441,0.000654777269907612,-0.0565976525807626,-0.0327725964765808,-0.000564296442886182,-0.00118364115075511,0.0282645695277095,0.0589783983072003,-3.06362247100869,-0.000150201827352886,0
0.48,0.0011360441741296,0.000654777165580712,-0.0565962059664901,-0.0327725696416902,-0.000564300454703425,-0.00118359389106282,0.028264677404393,0.0589769434774845,-3.06362284321372,-0.000145523015820152,0
0.49,0.00113600086763,0.000654777070435785,-0.0565948684612915,-0.0327725698781901,-0.000564304134772612,-0.00118355051717411,0.028264801838312,0.0589756004599588,-3.06362318265478,-0.00014125606192395,0
0.5,0.00113596128642068,0.000654776983664283,-0.0565936397106769,-0.0327725701012227,-0.000564307497634135,-0.00118351087476919,0.0282649160248543,0.0589743667100325,-3.06362349221624,-0.000137364711432878,0
0.51,2.29426727196349,-0.0621797695501828,1.37886908353312,3.1139793741757,-0.20141875768273,2.2862543872014,3.02447728095444,1.56546627855908,0.0607774112568248,18.5191799996161,452.261093529187
0.52,2.22768218614778,-0.058411654391666,1.70091955808496,2.92719897769918,-0.652069935914376,2.13091169280323,2.36566378149874,2.42182907551796,0.270742139613592,38.677163000219,452.261093529187
0.53,2.15952206907093,0.0116293000789398,2.10132592148501,-0.576503864501448,-1.25758913014652,1.75560257096019,-1.69971490571667,1.36341357385589,0.626986276233887,58.4396999046373,452.261093529187
0.54,2.06945304323839,0.0892324492051558,3.54175213045198,-4.45865882433852,-1.83107130284567,0.968388461339175,-5.11203021327483,-2.50814548301692,1.12741687661369,78.0453973305477,452.261093529187
0.55,2.03001377549074,0.0273062091327847,2.25132262953167,-1.35675284149145,-1.99424522660064,-0.380378145954719,-1.93347755964242,-1.78070109268673,1.77272079854349,98.1100758034692,452.261093529187
0.56,1.94535516547162,-0.00452700425285968,3.00724547639376,0.231452972801001,-1.0537908015659,-1.63522235800815,-1.82914738495677,-2.39819008379548,2.56681404021473,118.3909990068,452.261093529187
0.57,1.85992507321587,-0.0471566507291294,4.17193923403294,2.36694593243667,0.702343571464693,-1.72286346972338,-0.737284649232921,-4.73961194250619,-2.77984842608003,136.732870236227,452.261093529187
0.58,1.80685743887748,0.043898914683676,4.07893816574586,-2.18624099264683,1.78155810474792,-0.304485859350293,4.35200252904149,1.57399498891326,-1.71577971351887,153.445386295852,452.261093529187
0.59,1.81142793787372,0.0559769426871078,1.08553699861023,-2.786151671899,0.96487350406014,1.53408725742206,-1.85385363545653,2.34611560083511,-0.53054680079783,170.089831247124,452.261093529187
0.6,1.72145700575218,-0.0260536957317431,2.48031395597634,1.31019538124552,-1.22987334180099,1.20478403908826,-0.814446518054391,2.6842589529472,0.780569342130184,187.547720267448,452.261093529187
0.61,1.68470599695078,-0.0025522585787553,1.59867257273701,0.139638416715532,-1.34741125176035,-1.01129804153641,-1.36370645423312,-0.845906371253528,2.21313368646896,203.032692818442,452.261093529187
0.62,1.5647130126362,0.0931595590986981,5.01369102185354,-4.64484666745667,0.825489646968074,-1.33250604430638,6.68520743317801,-1.4211614272065,-2.52748941386521,217.940278672196,452.261093529187
0.63,1.51624385701137,0.033188865729201,4.56118724737584,-1.65473576578549,1.18217786542799,0.950027593928321,2.42748394177633,4.20117855757307,-0.871963595980244,233.508942308687,452.261093529187
0.64,1.48342899365754,0.000475347325571973,3.73372996698042,-0.00686943311471045,-1.15295566208281,0.93341043836572,-2.90701537075106,2.34308520751081,0.89056128511611,247.201817539035,452.261093529187
0.65,1.39247094515449,0.00135087109595589,5.65452261138767,-0.0625398907418106,-0.527577843179986,-1.28865774251262,-2.07940032870431,-5.25867202567462,2.75397840407129,261.410160265714,452.261093529187
0.66,1.34081256153557,-0.0389831277800657,5.7707350314608,1.96568602912202,1.34051046036839,0.0482671219984702,5.78420875147747,-1.92567741009386,-1.5638714191714,274.432989477986,452.261093529187
0.67,1.36812602342296,0.0467746155054542,1.97515200555652,-2.3343236428231,-0.607776038488451,1.22660709587956,-2.99189446562975,0.631553498154293,0.494211551505581,287.403414982127,452.261093529187
0.68,1.21872056011042,0.036777835066598,7.05739750861197,-1.82704775812375,-0.61089800308587,-1.0551947889436,-1.74208435855659,-7.07884914323649,2.6469681521962,299.570010372511,452.261093529187
0.69,1.18178541379546,0.0747111555978557,6.60648682263493,-3.73605501004196,1.17694584083889,0.130372576727321,5.86254966241941,4.82019570467576,-1.39733928559755,311.518885192221,452.261093529187
0.7,1.2015669172885,-0.0427859965374321,3.38143316938625,2.15879306453319,-0.987490792690282,0.685897683750141,-1.41296587340954,3.75473104430692,0.928119430708649,322.668763475659,452.261093529187
0.71,1.13109718219981,0.0178256251165341,4.64453790572273,-0.888976627888154,0.198841574726749,-1.1136249892362,1.76089757457302,-4.38876423774273,-2.9491429454137,333.876382575384,452.261093529187
0.72,1.08015703988748,0.0104957051204684,5.11867814103327,-0.504359543121858,0.49263246109534,0.961333786423637,1.838948464336,4.80348966957838,-0.463838900022361,344.063896657465,452.261093529187
0.73,1.08326230909857,-0.0121136779499326,2.79818406777716,0.613582415090725,-0.930725543911546,-0.554395105874499,-2.72796380335648,-0.874374602128485,2.09683572475795,354.396893786571,452.261093529187
0.74,0.894523906922268,-0.00246363891396983,10.2467443853135,0.140187654758281,0.894351318220055,0.017742862515024,10.2476440150712,0.0348599609363328,-1.5537142499143,364.010982996467,452.261093529187
0.75,0.937906991328152,0.00121414069187674,6.06009414622379,-0.0447795696827678,-0.855528749735584,0.384371639036642,-5.54932830534958,2.4355084952434,1.14983614418519,373.277199998134,452.261093529187
0.76,0.959020694716328,0.0105076536825093,3.03273912217348,-0.523060504259432,0.665417162636298,-0.690688861463075,2.50063216597719,-1.79386109962782,-2.36387161117848,382.365386427144,452.261093529187
0.77,0.821831435526134,0.0145622722517962,8.05958539223911,-0.707306885807448,-0.358846536963662,0.73949180597304,-4.27728563989277,6.86746148735264,0.469504479963955,390.750524755594,452.261093529187
0.78,0.813964490608335,0.0763222680513321,6.6033489610472,-3.8053460414946,0.105629946493245,-0.810682178770213,5.17182991958579,-5.59795063212949,-2.91853227000065,398.89668194262,452.261093529187
0.79,0.777414664654634,0.0361829013860717,6.63175872603496,-1.80974352795276,0.00942187758806374,0.778199197760771,-2.03677576671794,6.56558755279512,0.0344023475728563,406.793432506104,452.261093529187
0.8,0.723150246349407,-0.0520257113720806,7.65514996217062,2.61430870158949,-0.0194381313992171,-0.724758658097084,-3.35543014386112,-7.36050402351602,3.0429595187963,414.152940599021,452.261093529187
0.81,0.753081977281475,0.0118015682895808,4.47663237759973,-0.57124712008465,0.144901674784397,0.739104354042747,0.230081027151409,4.50706372678756,-0.177925216023168,421.188816769464,452.261093529187
0.82,0.630433332891484,-0.00137267760056092,8.94782021930076,0.0744662581012716,-0.127821976353063,-0.617340759893316,-1.90614935986827,-8.74274708077484,2.93524773510754,428.086750833998,452.261093529187
0.83,0.596886958597287,0.0182140701402788,9.03385802304456,-0.915711849662684,0.128414273042911,0.583194279956049,0.772762624584797,9.04720713249034,-0.186227069290648,434.612708576154,452.261093529187
0.84,0.585051862456576,0.0327615354432404,8.10112141604005,-1.61957734201487,-0.102261177839009,-0.576976300618566,0.642447292598343,-8.23641065273119,3.02211714893801,440.77267010021,452.261093529187
0.85,0.666377341206283,0.0329379032620939,2.52598730907003,-1.63005172659098,0.0382712499529467,0.666092319255745,-1.6097787744605,2.53895506345456,-0.00800516269576142,446.64810308281,452.261093529187
0.86,0.570257453821674,0.0349023677545139,5.85754862393694,-1.74050076208094,0.0481993342420625,-0.56928776826195,2.57189423961653,-5.54306583082117,-2.9959997377268,452.298129779949,452.261093529187
0.87,0.507526602783768,-0.0509137056357233,7.58848461997646,2.54439547691656,-0.216697966190621,0.46175475027729,-0.122304069900254,8.00275508091173,0.338798290902816,457.644251064202,452.261093529187
0.88,0.540165705052068,-0.00449765592119669,4.59222595956365,0.219925414215605,0.295332587675452,-0.452302863665603,2.29344387950634,-3.98459805037636,-2.57147043793451,462.705627489966,452.261093529187
0.89,0.506334313894595,-0.0136694951675766,4.95207520468994,0.704650465429335,-0.385559976287055,0.328488656137122,-3.21016557136545,3.83593771009836,0.838164574044918,467.471545716946,452.261093529187
0.9,0.480285583452549,0.058492891203396,4.94743048558704,-2.91337192828954,0.41214158411061,-0.253446196737069,5.71163135564282,0.584868925058713,-2.0009446318436,472.077591308957,452.261093529187
0.91,0.42041149961398,0.045140468813184,6.68190985204152,-2.25554261741758,-0.414237505279195,0.0847984678659847,-6.86566669336733,-1.61183517314364,1.47583857869751,476.418288386577,452.261093529187
0.92,0.330534441225479,-0.0162869038863701,9.96649532947534,0.808989447098506,0.314133128465004,0.104108874142566,9.81971438285254,1.88645236281476,-1.30000662541529,480.521329914277,452.261093529187
0.93,0.406318708917144,0.00801413380218751,5.02953670919367,-0.409822803779827,-0.324625937348772,-0.244493599828554,-3.70412520921922,-3.42690103067645,2.23603469085098,484.284424314897,452.261093529187
0.94,0.303651874952022,-0.0153959296803227,9.0584833598804,0.78759456718987,0.127762974822201,0.275895121517546,4.91486878116677,7.64986868171012,-0.484341408950958,487.792107582337,452.261093529187
0.95,0.355965999568814,0.00142824376651841,5.3674073501906,-0.0535887406399512,-0.0149084332052574,-0.355656535647309,-0.149725207106861,-5.36558624740673,3.10371139846088,491.134829899004,452.261093529187
0.96,0.358770204352801,0.0426787074106093,4.17869683852821,-2.12397937569324,-0.111650497022034,0.343615625535749,-3.68007258731069,2.90342236142458,0.43256912014586,494.305466512866,452.261093529187
0.97,0.28258067093248,-0.0572846374996435,6.97833229071219,2.87035655530415,0.260181886061609,-0.124252772377682,3.84719178983855,-6.49116196426902,-2.21634146958179,497.233386268129,452.261093529187
