t,iq,id,vq,vd,ia,ib,va,vb,theta_e,omega,r
0,0,0,0,0,0,0,0,0,0,0,0
0.01,0.000409082781365658,0.000223771476903965,-0.0192261841777807,-0.0111933462948311,-0.000432430210070144,-0.000174431961819891,0.0208465584951028,0.00776905130786324,2.45475268630494,-0.00529747330626349,0
0.02,0.000528156597044479,0.000283642158971538,-0.0250099150180545,-0.0141881480000359,-0.000554239524317111,-0.000228518741096616,0.0268301869911329,0.0103412020047031,2.45470997624139,-0.00615141814274152,0
0.03,0.000574690271644526,0.000308016553256449,-0.0273462228395643,-0.0154073971903523,-0.000602605838415495,-0.000249016684000088,0.0292549674596038,0.0113732436318717,2.45466583660407,-0.00595223925808355,0
0.04,0.000567545932605119,0.00030558755803145,-0.0271825770494467,-0.0152858934508628,-0.000596206697639843,-0.000245009622116423,0.0290576880510138,0.0113226233166261,2.45462650342219,-0.00508762176810369,0
0.05,0.000577146518149797,0.000313326796479642,-0.0277726771170122,-0.0156730203479658,-0.000608287689639391,-0.000247503275610245,0.0297316422705875,0.0115323288613955,2.45459184158689,-0.00455038895229699,0
0.06,0.000576310466041263,0.000315199189547846,-0.0278624804294436,-0.015766669537796,-0.000609212550746644,-0.000245650870898282,0.0298613529238397,0.0115414594204147,2.45456147719486,-0.00394906210404947,0
0.07,0.000579984387529131,0.00031976337259683,-0.0281404380677721,-0.0159949812380572,-0.000615077721300052,-0.00024558074230765,0.0302144585214358,0.0116107784281827,2.45453587476289,-0.00350393769108214,0
0.08,0.000571480944498705,0.000316754692546068,-0.0278438249168901,-0.0158444852947968,-0.000607363710312251,-0.000240901076317278,0.0299102375532921,0.0114762358709246,2.45451312747388,-0.00294211427138561,0
0.09,0.000566864965594666,0.000316024466163839,-0.0277115078638038,-0.0158079546834756,-0.000603875888322159,-0.000237784069979266,0.0297982874102848,0.0113965418778918,2.45449399327671,-0.00250538583051916,0
0.1,0.000563678990668389,0.000315846359397623,-0.0276329667724644,-0.0157990525280412,-0.000601721163162017,-0.000235424232118563,0.029741770956898,0.0113409864553022,2.45447776242596,-0.00214523960127587,0
0.11,0.000561177079234628,0.000315802171045859,-0.0275757732989814,-0.0157968363355191,-0.000600103240260544,-0.000233509799632438,0.0297039352986387,0.0112977669927414,2.4544639552989,-0.00184181570160078,0
0.12,0.000559105930249206,0.000315790574278954,-0.027529803711843,-0.0157962536810231,-0.000598783230224049,-0.000231908971895689,0.0296744578398612,0.0112622499829359,2.45445219881675,-0.00158429349589905,0
0.13,0.000577745355983849,0.000327070360098001,-0.0284365616524716,-0.0163604871297023,-0.000619329334659983,-0.000239156626596804,0.0306859544331039,0.0116049893694671,2.45444138107094,-0.00163774705450138,0
0.14,0.000587770588114879,0.000333580832745886,-0.029046660480672,-0.0166861497854332,-0.000630724063881476,-0.000242770656112277,0.0313248352589294,0.0118697420250937,2.45443154913801,-0.00158857546935915,0
0.15,0.00056316437259234,0.000320094851017667,-0.0278412816354076,-0.0160115696804889,-0.000604691909973757,-0.000232298338818072,0.0300388236063704,0.0113655797511874,2.45442286690712,-0.00107219956930103,0
0.16,0.000555533928667319,0.000316827676622785,-0.0275148237478842,-0.0158481348326527,-0.000597327259919448,-0.00022846852547312,0.029705461125856,0.0112167055257474,2.45441670771517,-0.000844762629743891,0
0.17,0.000552820243059071,0.000316035895524942,-0.0274101482254318,-0.0158085292554158,-0.000594994847287116,-0.000226870095204114,0.0296084974376582,0.0111607662122126,2.45441181217747,-0.00071135929678608,0
0.18,0.000551584025596589,0.000315843790566918,-0.027370234133512,-0.0157989146621014,-0.000594063055671876,-0.000226033898384316,0.0295757904082926,0.0111358898498671,2.45440774155458,-0.00061485616621894,0
0.19,0.000550836379129592,0.000315796992931325,-0.0273502187733454,-0.0157965792091294,-0.000593553375330666,-0.000225483586876386,0.0295613262589596,0.0111217971331751,2.45440430220532,-0.000537515489432935,0
0.2,0.000550286291965036,0.000315785432528597,-0.0273371407063131,-0.0157960036109806,-0.000593196139670305,-0.000225063951805147,0.0295526174870281,0.0111119661509688,2.45440138033164,-0.000473013154306598,0
0.21,0.000549842317975825,0.000315782440927484,-0.027327123981897,-0.0157958539637645,-0.000592912742817564,-0.000224721169540614,0.0295461751253642,0.0111042443699629,2.45439889352145,-0.000418457466038362,0
0.22,0.000549471103711207,0.000315781553238857,-0.0273189074296081,-0.0157958073751825,-0.000592677044587252,-0.000224433517993365,0.0295409502770346,0.011097859726593,2.45439677569717,-0.000372093926957836,0
0.23,0.000549156932991992,0.000315781199278816,-0.0273119985075366,-0.015795786783884,-0.000592477874283649,-0.000224189810998331,0.0295365715429609,0.0110924787169127,2.45439497174158,-0.000332629264186783,0
0.24,0.000548889701617173,0.000315780995141861,-0.0273061267430008,-0.0157957849392661,-0.000592308536198552,-0.000223982453287088,0.0295328622646359,0.01108789547256,2.45439343503297,-0.000299018952954166,0
0.25,0.000548662376738314,0.000315780844802475,-0.0273011362054908,-0.0157957713218999,-0.000592164503834986,-0.000223806045472783,0.0295297003777433,0.0110840076400742,2.45439212595063,-0.000270389424817123,0
0.26,0.000551896017975114,0.000317766610726037,-0.0274542043035718,-0.0158951058626943,-0.00059575109142347,-0.000225045485661997,0.0297036009175822,0.0111392915779026,2.45439124684551,-0.000299032159061469,0
0.27,0.000544509756037422,0.000313390525390479,-0.0271194118382315,-0.0156762031405803,-0.000587682939412446,-0.000222110914968177,0.0293220161474729,0.0110193108860622,2.45438972432999,-0.000165064409625245,0
0.28,0.000543809557872614,0.000313146757458014,-0.0269880404792267,-0.0156640145058323,-0.000587050492740364,-0.000221723805472871,0.0292292639652664,0.010925466003612,2.45438890534115,-0.000139268113891806,0
0.29,0.000546812582044045,0.000315142472112804,-0.0272309262854187,-0.0157638445260635,-0.00059049836960724,-0.000222778933255002,0.0294605208051981,0.0110498802930303,2.45438849712494,-0.000173791555810222,0
0.3,0.000538377975048337,0.00031090195810595,-0.0268367147794448,-0.0155517231067063,-0.000581869387065872,-0.000218949510085883,0.0290464551188272,0.0108797424956151,2.45438957741676,-7.55386579163184e-05,0
0.31,0.000545387676072227,0.000314598782074271,-0.0271613893618438,-0.015736644674446,-0.000589173962210943,-0.000222022866269981,0.0293953724022596,0.0110134072388124,2.45438936680094,-0.000170533842885435,0
0.32,0.0005472923558708,0.000315494221903261,-0.0272517031027447,-0.0157814381227273,-0.000591074568573469,-0.000222926851757796,0.0294872979595719,0.0110547894717648,2.45438881001067,-0.000186648375217081,0
0.33,0.00054775989601576,0.000315711079356722,-0.0272757335447151,-0.0157922891992235,-0.000591538931368188,-0.000223150357354777,0.0295109369128271,0.0110664647056476,2.45438822850051,-0.000181967158468388,0
0.34,0.000547830132620473,0.00031576356806279,-0.0272811752826587,-0.015794905116478,-0.000591624180267843,-0.000223171043025549,0.0295164170182676,0.0110689962889784,2.45438770267505,-0.000172750376401931,0
0.35,0.000547796722379185,0.000315776247121528,-0.0272815359714253,-0.0157955411509843,-0.000591612888586951,-0.000223136902715212,0.0295171425543573,0.0110688581451909,2.45438724608467,-0.000163413506646214,0
0.36,0.000547741774579323,0.00031577928814637,-0.0272806259878497,-0.0157956956661035,-0.000591580468936876,-0.000223092266145557,0.029516689055346,0.0110680451334063,2.45438685466608,-0.000155037704655741,0
0.37,0.000547687408678874,0.000315779998980554,-0.0272795004285929,-0.0157957323250322,-0.000591546604334331,-0.000223049591530809,0.02951600705955,0.0110671419335916,2.4543865205253,-0.000147782663344072,0
0.38,0.000547638979918256,0.000315780149179837,-0.0272784407123875,-0.0157957413170215,-0.00059151606173162,-0.00022301189128713,0.0295153449000556,0.0110663086385778,2.45438623567791,-0.000141568173148426,0
0.39,0.000547597070406892,0.000315780166828633,-0.0272775037279797,-0.015795744464696,-0.000591489542931942,-0.000222979339587085,0.0295147556147161,0.0110655751693033,2.45438599296473,-0.000136264480685248,0
0.4,0.000547561272695532,0.000315780155142786,-0.0272766973914019,-0.0157957446792414,-0.000591466870635712,-0.000222951552312045,0.0295142465444889,0.0110649456150954,2.45438578618519,-0.000131743604028971,0
0.41,0.000547530864334767,0.000315780138714575,-0.027276010968075,-0.0157957318198419,-0.00059144760673516,-0.000222927952246963,0.0295138030993926,0.0110644179541988,2.45438561002877,-0.000127891561697361,0
0.42,0.000547504787302752,0.000315780123151227,-0.0272754135539074,-0.0157957319985326,-0.000591431085390932,-0.000222907715277287,0.0295134259098669,0.0110639515982734,2.45438545996233,-0.00012460984705664,0
0.43,0.000547482551976347,0.000315780109512761,-0.027274899535459,-0.0157957321626994,-0.000591416997679003,-0.000222890459954613,0.0295131013677145,0.0110635503742753,2.45438533212291,-0.000121814144054699,0
0.44,0.000547463692694265,0.000315780097801974,-0.0272744617321382,-0.0157957323140938,-0.00059140504893086,-0.000222875824362698,0.029512824955529,0.0110632086331534,2.45438522321863,-0.000119432511629483,0
0.45,0.000547447569172238,0.00031578008780332,-0.0272740818082858,-0.0157957324551463,-0.000591394833422486,-0.000222863312025231,0.0295125850744641,0.0110629121167146,2.45438513044461,-0.000117403632084988,0
0.46,0.000547433832164302,0.000315780079279948,-0.0272737540114031,-0.0157957325871743,-0.000591386129949296,-0.000222852651704523,0.0295123781027146,0.0110626563068036,2.45438505141208,-0.000115675260699147,0
0.47,0.000547422132424492,0.000315780072017622,-0.0272734708081895,-0.0157957327114804,-0.00059137871724509,-0.000222843572357796,0.0295121992848405,0.0110624353191129,2.45438498408562,-0.000114202888425647,0
0.48,0.000547412178914504,0.00031578006583067,-0.0272732261245999,-0.0157957328291794,-0.000591372410924204,-0.000222835848098195,0.029512044787643,0.0110622444063818,2.45438492673101,-0.000112948597983217,0
0.49,0.000547403680596035,0.000315780060559778,-0.0272730126577372,-0.0157957329413792,-0.000591367026563718,-0.000222829253174734,0.0295119099955016,0.011062077879037,2.45438487787177,-0.000111880088037955,0
0.5,0.000547396462846102,0.000315780056069673,-0.0272728278272153,-0.0157957330487391,-0.000591362453562339,-0.00022282365194144,0.0295117932859096,0.011061933704814,2.45438483624911,-0.000110969841543665,0
0.51,3.15616400791309,0.0161465193646851,1.46326201009415,-0.802538875453429,-0.579539797280019,3.10254179315964,-1.06416739798975,1.28559406729129,0.189782786842999,57.8357963096419,728.117877996827
0.52,2.8724679710497,0.00602321263994354,2.81488586568326,-0.291043740233114,-2.13199907089797,1.92501648966627,-2.28779935941444,1.66561189555526,0.838469275728797,118.427909229507,728.117877996827
0.53,2.66923511186427,-0.00178049901001487,0.67813463212647,0.104117622679518,-2.50742687995356,-0.915221117693499,-0.67281548106292,-0.134262381491646,1.92010776472969,176.456570177555,728.117877996827
0.54,2.40529468762325,-0.00345881496131528,1.64229909422583,0.18618286242626,0.676093625730208,-2.30832231435659,0.280607650150054,-1.62882464367208,-2.8581058589622,233.337705308399,728.117877996827
0.55,2.18075355182998,0.0481266766712888,2.59752549098394,-2.3909536239175,1.8237137498961,1.19669143444181,0.784246105292598,3.44220219545119,-0.96802099370646,280.8295546542,728.117877996827
0.56,1.99391889844912,-0.0132282911901028,2.81114349834885,0.683117462623594,-1.89538395328251,0.619198862175582,-2.44987784482165,1.53859539239604,1.248404385236,323.944064080161,728.117877996827
0.57,1.80355589316688,0.0167886917732005,3.25986897053222,-0.82393069053162,1.06419780781562,-1.45622070641399,2.6085078247044,-2.1216254184692,-2.50118852409453,365.735341236132,728.117877996827
0.58,1.68896793117218,0.00450753117403602,1.40222566068906,-0.202602028796509,-0.512109392819438,1.60946480550257,-0.621629589404156,1.27313040932363,0.310725506587804,401.383669472082,728.117877996827
0.59,1.54883195050713,0.0290465425744185,0.91114572325389,-1.43593443972561,0.344597465131117,-1.51029026997212,1.61302518291613,-0.538742984615437,-2.89851481638534,435.85794275172,728.117877996827
0.6,1.33567951405826,-0.0119096523365825,5.08032294767666,0.608555484174423,-0.539528932126023,1.22192067479548,-1.45165152812227,4.90639672987307,0.406881465952098,466.408056637626,728.117877996827
0.61,1.24141302042848,0.00918539874424362,3.80395027270902,-0.439339447382482,0.873799917184446,-0.881852801530906,3.00713770828448,-2.37069180423836,-2.35338227714369,493.78367974767,728.117877996827
0.62,1.13969179331152,0.0123334103588466,3.22536845724805,-0.603842151383401,-1.11288337809956,0.246048945338963,-3.28063400026772,0.071186972722469,1.36402652894272,519.86953806627,728.117877996827
0.63,1.05512896019478,0.0248432263155021,2.50632155742131,-1.23320968613258,0.914510548478867,0.526863137120412,1.50105035427292,2.35569559007592,-1.02458373271206,543.018141691017,728.117877996827
0.64,0.95214575284939,-0.0160397501452516,3.11778737160564,0.822630286028514,-0.0867765996506116,-0.948318844064026,-1.15419294373033,-3.01083997095131,3.033496753873,563.720540352213,728.117877996827
0.65,0.90761593844206,-0.0149308734572712,1.09840011999809,0.763452230592412,-0.750317137633511,0.510895112199865,-0.457613169258044,1.25695358678432,0.956551531738773,583.085713138701,728.117877996827
0.66,0.76192795401196,-0.0155739933313939,4.49059982666458,0.788546997332436,0.62672180510653,0.43358567247679,4.17969410452688,1.82138693385706,-0.986011269997048,600.897473820932,728.117877996827
0.67,0.708712831052215,-0.0197653429284123,3.64742876842925,0.994105125468238,0.25213587616125,-0.66264020828163,0.262972888448731,-3.77131633268657,-2.80588896705038,616.988936798692,728.117877996827
0.68,0.659675471433658,-0.0397329681973707,2.9407156153281,1.99193652591692,-0.638815642848608,-0.169307444682484,-3.27635234700593,1.37154465905607,1.76971480492107,631.467909208168,728.117877996827
0.69,0.613919672869202,-0.0062022491300921,2.34151678490673,0.327189638018765,-0.106416276626222,0.60465809239529,-0.0597448702569428,2.36351104581823,0.164107734587232,644.516435656843,728.117877996827
0.7,0.537298968680797,0.0422295226747402,3.48331880643291,-2.09731553978162,0.533395267581858,0.0772204820760794,2.9354623295597,2.81341488095777,-1.34858890761516,656.566912902956,728.117877996827
0.71,0.485199478219898,-0.012122247886342,3.64503005926042,0.619226852086041,0.18423595832011,-0.449024046372296,0.720400305765532,-3.62639068864751,-2.77721482199917,667.503724670849,728.117877996827
0.72,0.43687825950024,0.00581222994801406,3.81377336750798,-0.28103662636615,-0.367854394062573,-0.235753134464391,-3.02850208284183,-2.33495696283575,2.15404180805959,677.58109629977,728.117877996827
0.73,0.380957867671473,-0.0140845990424522,4.59486338905794,0.711084059491034,-0.300568339296096,0.23449082345322,-3.05807657241094,3.50236745374306,0.871317037831201,686.549475233689,728.117877996827
0.74,0.364151260536547,-0.0256078414045768,3.57337652680057,1.28525293712234,0.100246884277226,0.35101633050966,2.42794097107976,2.91993108747847,-0.348391507834252,694.834970923036,728.117877996827
0.75,0.330838633872174,0.00901520107791029,3.5275248733168,-0.449188119032038,0.330780982973005,0.010927800158045,3.49406569530934,0.660837812939544,-1.5105291761057,702.370321737536,728.117877996827
0.76,0.294352818110071,-0.0271489978101768,3.82006584186706,1.35804017474586,0.170124218234291,-0.241740356543149,0.724624741237033,-3.988996758185,-2.62032851821065,709.105129318825,728.117877996827
0.77,0.317543782860869,0.0215219358161562,1.26179097073761,-1.07736372765805,-0.182128263492166,-0.261010619309241,0.272775401174217,-1.63658871926408,2.60003025555421,715.203840751994,728.117877996827
0.78,0.240592027177355,-0.0200864185701589,3.84201377311053,1.00198619369734,-0.240401241392708,-0.0222537837036742,-3.8508875138148,0.967321829111896,1.57980830515898,720.683093459896,728.117877996827
0.79,0.190733713948245,-0.0165358593936618,5.15652838047042,0.822866195089499,-0.121034463546147,0.14833557535694,-2.22259082503215,4.72514377962204,0.59791155753457,725.731269489488,728.117877996827
0.8,0.196966533502257,-0.0105623843326865,3.7819299981001,0.523819773035542,0.0573988515285935,0.188713410031947,1.78496974033551,3.37509476774194,-0.348841821191706,730.261389142009,728.117877996827
0.81,0.169826871788118,-0.0290432493188081,4.16904787860102,1.4476281983604,0.153135619524948,0.0789566890455946,4.41155569940099,-0.121506896258823,-1.26412517091756,734.333803842176,728.117877996827
0.82,0.181867554266705,-0.0432526830752573,2.65940172167481,2.15863562288757,0.175846516663099,-0.063439770378021,1.04241081399674,-3.26274500451825,-2.15051908943806,738.13197187154,728.117877996827
0.83,0.141157362768049,0.00389923985606024,3.86301797165843,-0.201218507930677,0.0146123341996968,-0.140453141026899,0.705170396216014,-3.80343679447817,-3.01031218220185,741.527066905948,728.117877996827
0.84,0.1427911016518,-0.00982877544740909,3.04635270947956,0.485581765873618,-0.0850581334808382,-0.115113063839367,-2.3441450809478,-2.00525268267384,2.43650250197488,744.516766736901,728.117877996827
0.85,0.13780547343059,-0.006903739423933,2.61102916807514,0.339142053253357,-0.137283750639686,-0.0138268555992715,-2.62478321448219,0.207373397031984,1.6211193092912,747.24302525479,728.117877996827
0.86,0.0851024591612265,-0.0257820947438013,4.64465360889829,1.28252945188274,-0.0799821116397679,0.0388588057241891,-2.53888531462512,4.09533274603901,0.82437345789586,749.653123605656,728.117877996827
0.87,0.0952045732206134,-0.010518993516811,3.58508796145173,0.519228164239675,-0.0147384931340403,0.0946432079277943,0.359431951236442,3.60461679659797,0.0444440805405076,751.772418479611,728.117877996827
0.88,0.109769958027611,0.00385705271183506,2.3441780036303,-0.199492195540358,0.075351451388023,0.0799154510387307,1.39741867579156,1.89266708465451,-0.720888933645127,753.711457250654,728.117877996827
0.89,0.10227376908126,-0.02966996234295,2.24860957390482,1.47789564603281,0.0988715556058038,0.039555606424468,2.38269071615374,-1.25028217118134,-1.4725818012306,755.49871926395,728.117877996827
0.9,0.0843399008053998,-0.0403342344426017,2.71498067238557,2.01135489510975,0.091716956961185,-0.0181126790319813,0.973074510609956,-3.23570619221065,-2.21185592300715,757.043059850777,728.117877996827
0.91,0.0847020387116028,-0.0147785276069342,2.29247772286563,0.733299337010045,0.0314139532246848,-0.080037514847277,-0.260179332703183,-2.39279935270985,-2.94031463698674,758.480301931652,728.117877996827
0.92,0.0635419382022338,-0.0127323249828503,3.01161195170164,0.630917632333298,-0.0203744574202278,-0.0615188710461817,-2.03835682594214,-2.30498699704712,2.62401424638943,759.641433617121,728.117877996827
0.93,0.035634393883509,-0.0182716312108705,4.10026050045605,0.908001697923821,-0.0274316219803189,-0.0291747947735713,-4.16711489475526,-0.521302895581322,1.91318174399738,760.629390523979,728.117877996827
0.94,0.0657851922837066,-0.00784837635899149,2.3074469222074,0.387824783040548,-0.0643090547352436,0.0159258913199881,-2.02114094376956,1.17885904439977,1.20929240671298,761.549084013359,728.117877996827
0.95,0.0462956355390766,-0.00561024165987522,3.01565744634516,0.276159596984265,-0.0275593266059878,0.0376197315045403,-1.23575376468522,2.76466391985895,0.511661497758793,762.353199340404,728.117877996827
0.96,0.0189403154600048,0.0216815049194978,4.1530817717353,-1.08897264191455,0.0247323750763022,0.0147354276620602,-0.324867605676104,4.28116930946916,-0.180697678784926,763.028552176084,728.117877996827
0.97,0.0176873733880622,0.0136861397317714,3.984886019004,-0.688169507662194,0.0223424173594976,0.000984877992607434,2.59642576416702,3.10023662111447,-0.868196205308682,763.657449179316,728.117877996827
