t,iq,id,vq,vd,ia,ib,va,vb,theta_e,omega,r
0,0,0,0,0,0,0,0,0,0,0,0
0.01,0.000530395609420336,0.000293554546510053,-0.025979087610415,-0.0146885509071293,0.000503380925853653,-0.000337789013669497,-0.0246294051674127,0.0168540476420465,-1.65632254788431,-0.00234621976262877,0
0.02,0.000622029945546534,0.000342101410746131,-0.0305552748508963,-0.017117679259584,0.000590526346528656,-0.000393996525932189,-0.0289810149630859,0.0196657198230118,-1.65634033865445,-0.00248207081615909,0
0.03,0.000654578923559426,0.0003607771299017,-0.0321980517013872,-0.0180521611277805,0.000621353421392859,-0.00041539575148491,-0.0305375817078758,0.0207376748499769,-1.65635775475595,-0.00233991465251046,0
0.04,0.000637830092588834,0.000353265869188908,-0.0314344254819798,-0.0176763136990923,0.000605301582346603,-0.000406489847049559,-0.0298085597567147,0.0202983973899722,-1.65637292895468,-0.00199890872960035,0
0.05,0.000650948261767094,0.000362162650041705,-0.032118970070073,-0.0181214862306474,0.000617605631430376,-0.000416483743510257,-0.0304522653622019,0.0208008662290739,-1.65638658523836,-0.00182772823229748,0
0.06,0.000650329593125872,0.000363269024465987,-0.0321300591549903,-0.0181768467755335,0.000616889565421384,-0.000417540690120075,-0.0304583274150104,0.0208573428577187,-1.65639875847308,-0.0016158666545255,0
0.07,0.000660709343680238,0.000370663997673861,-0.0326705439797877,-0.0185468624511186,0.000626594594287343,-0.000425802595586051,-0.030964974794768,0.0212725383223379,-1.65640923242828,-0.00148610940607414,0
0.08,0.000647637396341954,0.000364324438994463,-0.0320667522812204,-0.0182296490262497,0.000614108616240101,-0.000418374355630079,-0.0303903194110859,0.0209051474899742,-1.65641877560624,-0.00125942734207793,0
0.09,0.000644115383687106,0.000363532487234564,-0.0319230805493182,-0.0181900197485795,0.000610663814254618,-0.000417289111692766,-0.0302503922125514,0.0208536246537329,-1.65642696606164,-0.00110193030242578,0
0.1,0.00064216203937964,0.000363432249300545,-0.0318521803487343,-0.0181850027550766,0.000608723222953749,-0.000417026524922184,-0.0301800320831876,0.0208427776850449,-1.65643410502904,-0.000970027210958147,0
0.11,0.000640614465762702,0.000363418421616272,-0.03179797568266,-0.0181843133159314,0.00060717990275724,-0.000416884166888361,-0.0301259550375128,0.0208376424137845,-1.65644034337943,-0.000855531973282476,0
0.12,0.000639284183046904,0.000363415530924033,-0.0317516874185507,-0.0181841758173007,0.000605852470171666,-0.000416770799358154,-0.0300797345723797,0.0208337099945027,-1.65644579699834,-0.000755548614866746,0
0.13,0.000666075701526115,0.000378979222623095,-0.0330728596587211,-0.0189629231017467,0.000631212136081074,-0.000434572583819411,-0.0313293335402281,0.0217227843172407,-1.65645097647704,-0.000795646583948166,0
0.14,0.000683172274085066,0.000389544548277562,-0.033980027192439,-0.0194915762822421,0.00064734008107861,-0.000446564811198183,-0.0321878447208141,0.0223272579192815,-1.65645564867597,-0.000797778083364779,0
0.15,0.000642460927634912,0.000366669078001452,-0.0319537379166775,-0.0183469685075483,0.000608733345245458,-0.000420292720239384,-0.0302668233369216,0.0210136152376563,-1.65645983640723,-0.000529935123965236,0
0.16,0.00063605628388666,0.000363817040979292,-0.0316525515852898,-0.0182042537827191,0.000602594912339678,-0.000416905033791835,-0.0299788873646809,0.0208457475284732,-1.65646293301901,-0.000445967495432262,0
0.17,0.000634612942913418,0.000363460976713922,-0.0315911919266071,-0.0181864414091809,0.000601186235906315,-0.000416428359581649,-0.0299192220808406,0.0208228290237095,-1.65646555992452,-0.000393943471740091,0
0.18,0.000633942851223507,0.000363416102605872,-0.0315663017125659,-0.0181841943630789,0.000600521489926008,-0.000416327686309329,-0.0298945678411834,0.020818528815261,-1.65646784512566,-0.000351505242397669,0
0.19,0.000633441157857757,0.000363410079530365,-0.0315486274085868,-0.0181839029891432,0.000600021320918411,-0.000416279954857026,-0.0298769417347574,0.0208167858196773,-1.65646984139967,-0.000314835995343081,0
0.2,0.000633014667898223,0.000363408953046829,-0.0315337622032527,-0.0181838378481349,0.00059959576522879,-0.000416243384630424,-0.0298621003005999,0.0208155010320546,-1.65647158646851,-0.000282838575192813,0
0.21,0.000632643418238397,0.000363408484036694,-0.0315208419710063,-0.0181838182081597,0.000599225282410933,-0.000416212063532221,-0.0298491973834552,0.020814421412859,-1.65647311211289,-0.000254872685556963,0
0.22,0.000632319083958583,0.000363408138201692,-0.0315095552555611,-0.0181838027993954,0.000598901612265606,-0.000416184763867083,-0.0298379256246557,0.0208134800326153,-1.65647444594742,-0.000230423939852354,0
0.23,0.000632035611456493,0.00036340784378073,-0.0314996891997874,-0.0181837872729142,0.000598618719467978,-0.000416160910914349,-0.029828072816949,0.0208126550756165,-1.65647561209056,-0.000209049086618283,0
0.24,0.000631787820252221,0.000363407587311362,-0.0314910630808663,-0.0181837730979686,0.00059837143489594,-0.000416140060839006,-0.0298194583351152,0.020811933178872,-1.65647663162527,-0.000190361520984547,0
0.25,0.000631571170144419,0.000363407363162334,-0.0314835183110741,-0.0181837573767592,0.00059815522779683,-0.000416121830738924,-0.0298119240369423,0.0208112984408989,-1.65647752298317,-0.000174023373423307,0
0.26,0.00063705332105546,0.000366605498185693,-0.0317526089359133,-0.0183437906600586,0.000603343291817027,-0.000419777795252637,-0.0300663178896867,0.0209937933345406,-1.65647821703877,-0.000188505676233156,0
0.27,0.000622600737676461,0.000358309689907863,-0.0310524722717965,-0.0179286915925015,0.000589653276873887,-0.000410276157617074,-0.0294042535424008,0.0205203287016543,-1.65647914631265,-0.000102984646934787,0
0.28,0.000622172376862218,0.000358149924223782,-0.0309765865648469,-0.0179207048647235,0.000589239918601468,-0.000410080666550398,-0.0293293176443864,0.0205058943860702,-1.65647973483639,-9.08240473210014e-05,0
0.29,0.000629680597157601,0.000362751447904005,-0.031400200113196,-0.0181509399658356,0.000596326646622543,-0.000415308075916081,-0.0297316661420603,0.0207715482622069,-1.65648011000822,-0.000120530534692346,0
0.3,0.000622440945436087,0.000359048884577856,-0.031046957485511,-0.0179656722140029,0.000589430532386791,-0.000410999366863498,-0.0293955802726642,0.0205567217143561,-1.65647982669048,-9.05400650454078e-05,0
0.31,0.000629701384812322,0.000362863483663218,-0.0314014748871533,-0.0181565463698969,0.000596337735030782,-0.0004154215300019,-0.0297324546945728,0.0207772457030742,-1.6564801944501,-0.000119182030871617,0
0.32,0.000630644322627104,0.000363338873678929,-0.0314487802798461,-0.0181803392041887,0.000597236352898149,-0.00041597612619595,-0.029777541508908,0.0208050122892215,-1.65648062052767,-0.00011641036894267,0
0.33,0.000630699273439497,0.000363398046434759,-0.0314527454953549,-0.0181832894589331,0.000597285876968029,-0.000416040015917029,-0.0297812316350392,0.0208083025987959,-1.65648100792556,-0.000110026931910986,0
0.34,0.000630637632025982,0.000363405348640671,-0.0314508794555457,-0.0181836593303086,0.000597223694982902,-0.000416042219611129,-0.0297793336957755,0.020808521566984,-1.65648134873915,-0.00010388213167481,0
0.35,0.000630568073934246,0.000363406194473862,-0.0314484840601447,-0.018183706207055,0.000597154195602849,-0.000416037287657048,-0.029776936870206,0.0208083721548186,-1.65648164700724,-9.8429567946113e-05,0
0.36,0.000630505093253144,0.000363406243615026,-0.0314462819909577,-0.0181837123200592,0.000597091333269693,-0.000416032102428118,-0.0297747369296498,0.02080819755682,-1.65648190781979,-9.36510717880574e-05,0
0.37,0.000630449679560081,0.000363406200523338,-0.0314443370997354,-0.0181837125872025,0.000597036031697842,-0.000416027453289697,-0.0297727944060738,0.0208080381667625,-1.65648213584892,-8.94717037783792e-05,0
0.38,0.000630401366008615,0.000363406152120392,-0.0314426408911895,-0.0181836978009732,0.00059698781660146,-0.000416023389359178,-0.029771101537669,0.020807884206791,-1.65648233521092,-8.58175371892853e-05,0
0.39,0.000630358990831568,0.000363406108463798,-0.0314411485836255,-0.0181836980251492,0.000596945528115263,-0.000416019823390887,-0.0297696110591481,0.0208077619054639,-1.6564825095089,-8.26227421022809e-05,0
0.4,0.000630321912551652,0.000363406070127858,-0.0314398397846447,-0.0181836982313126,0.00059690852575477,-0.000416016702945703,-0.0297683038734871,0.0208076546383129,-1.6564826618941,-7.98295943003032e-05,0
0.41,0.000630289490884598,0.000363406036589492,-0.0314386927295893,-0.0181836984216533,0.000596876170483122,-0.000416013974355011,-0.0297671582383564,0.0208075606270369,-1.65648279512135,-7.73876024226033e-05,0
0.42,0.00063026114375182,0.000363406007264336,-0.031437687229514,-0.0181836971429436,0.000596847881404977,-0.000416011588662562,-0.029766154113123,0.0208074767677596,-1.65648291159925,-7.52526194618389e-05,0
0.43,0.000630236405495989,0.000363405981625077,-0.0314368078328313,-0.0181836973071502,0.000596823193740427,-0.000416009506750587,-0.02976527580986,0.020807404702158,-1.65648301343327,-7.33860481142334e-05,0
0.44,0.000630214752246179,0.000363405959208484,-0.0314360351733346,-0.0181836974608672,0.00059680158481406,-0.000416007684424671,-0.0297645041194809,0.0208073413796401,-1.65648310246461,-7.17541434859602e-05,0
0.45,0.000630195776548765,0.000363405939610155,-0.0314353548446702,-0.0181836976054791,0.000596782648032003,-0.000416006087373431,-0.0297638246548717,0.0208072856166269,-1.6564831803029,-7.03274031054809e-05,0
0.46,0.000630179245573104,0.000363405922475227,-0.0314347604297477,-0.0181836977417756,0.000596766150862712,-0.000416004696158181,-0.0297632309931349,0.0208072369066433,-1.65648324835531,-6.90800335735264e-05,0
0.47,0.000630164810073231,0.000363405907494128,-0.0314342390350328,-0.0181836978709356,0.000596751744856216,-0.000416003481316351,-0.0297627102623408,0.0208071941840557,-1.65648330785201,-6.79894842550971e-05,0
0.48,0.000630152120803181,0.000363405894396445,-0.0314337771966005,-0.0181836979941567,0.000596739081623443,-0.000416002413331987,-0.0297622490254731,0.020807156329829,-1.6564833598688,-6.70360395983222e-05,0
0.49,0.000630141061347633,0.000363405882945325,-0.0314333725844232,-0.0181836981118349,0.000596728044805338,-0.00041600148256754,-0.0297618449414572,0.0208071231729467,-1.65648340534574,-6.62024627043987e-05,0
0.5,0.00063013157230576,0.000363405872933748,-0.0314330252515416,-0.0181836832008417,0.000596718574894492,-0.000416000684224384,-0.029761499331736,0.0208070797744351,-1.65648344510543,-6.54736837098372e-05,0
0.51,2.81236274986943,0.019184255355649,3.55891226940873,-0.955751200316599,-0.214504446375427,2.80423610186301,-1.24808597876017,3.46721765798989,0.0831656308773882,25.4850536512631,653.031749885607
0.52,2.71529256701705,-0.0156464729680325,4.26650751916605,0.792171085017024,-1.00435957785287,2.52276046722426,-0.817580053290436,4.26171142799452,0.373121726290247,53.5404085120642,653.031749885607
0.53,2.6649405287067,0.0244215908183888,2.54316689357914,-1.20736152018854,-2.01827691897114,1.74042026935738,-2.72116891494459,0.721567339455055,0.868351377175538,81.7118046818873,653.031749885607
0.54,2.53174091908008,0.0279771658880543,4.54919166794745,-1.38694864469192,-2.53183875494616,0.0169505784042898,-4.54310803827396,-1.40674828142984,1.57515157377987,111.220224891757,653.031749885607
0.55,2.44766760237767,0.00550974156774631,4.59774909786487,-0.257359791689798,-1.48957430300464,-1.94223465235528,-2.58525275893737,-3.81077406857223,2.48958983516889,137.619891610242,653.031749885607
0.56,2.39689280937075,0.0179541855664639,3.33569297714777,-0.871768467390098,1.02082255499574,-2.16871823979154,2.22913320904657,-2.63016977300979,-2.69416550811344,162.547644773783,653.031749885607
0.57,2.30233036108337,0.0324297635327867,3.90957242477803,-1.60130352134664,2.27642475956026,0.345929321090448,3.59369476366672,2.22132560820252,-1.4059037300438,188.342827931087,653.031749885607
0.58,2.22046818649389,0.0112316735150781,4.38424759135701,-0.529550280211221,-0.120418315902918,2.21722902446196,-0.788518938267496,4.34514537450533,0.0593151728614439,211.654549200335,653.031749885607
0.59,2.16542565196572,-0.0122451997684147,3.31343804122788,0.641765679296366,-2.14586502871465,-0.290656975914898,-3.36846002040832,0.210266333704503,1.6997719621647,235.127129021824,653.031749885607
0.6,2.0609121906607,0.0347080814558192,4.90722206876955,-1.71383118049732,0.700023042838416,-1.938693232058,3.34600411213637,-3.97772576091292,-2.77824191890877,257.792496255039,653.031749885607
0.61,1.99743264213543,0.0417160512198983,4.70225327845246,-2.04878378969642,1.47771538779441,1.3445574072806,2.00100300081985,4.72278391442481,-0.811662517586751,278.847806495759,653.031749885607
0.62,1.91520768248545,0.044959190142192,5.39875135293175,-2.21115300815869,-1.83915339136884,0.536243040836907,-5.78591950141825,-0.747562251173531,1.31056129079874,299.518459582159,653.031749885607
0.63,1.86750534588669,0.0158417865741642,4.43244547837952,-0.756513559182566,0.781914473057803,-1.69600617214088,2.57415631151416,-3.68681501677613,-2.70111916465556,319.720030873092,653.031749885607
0.64,1.78086009807738,0.0428149404852505,5.53655524945969,-2.10913731429654,0.543047081833212,1.69658353020574,-0.463038422139019,5.90656411634553,-0.2857408948904,339.103631369196,653.031749885607
0.65,1.70712316017947,0.026183154428601,6.09695639984309,-1.27807151492182,-1.32491876579138,-1.07682185418519,-3.85063140484702,-4.89683386718888,2.26859716928538,357.744493416202,653.031749885607
0.66,1.66397421876633,-0.0110239935451196,5.23067621596154,0.584964064393381,1.61192550294106,0.413071303918485,5.216895000544,0.69725403272865,-1.32656005646041,375.643332585589,653.031749885607
0.67,1.60112405185604,0.0347214281774233,5.45108129733586,-1.70151630151974,-1.5931527562905,0.163303711319045,-5.57020813827955,-1.25786578407496,1.49033185390347,392.800722950968,653.031749885607
0.68,1.5053226027439,0.0356100174060235,7.40253967184957,-1.74227490679588,1.43626065115052,-0.452127806740527,7.59524072633897,-0.381357775742515,-1.85211907186448,409.347288090639,653.031749885607
0.69,1.45822462321464,0.0414726112782202,7.00187866378839,-2.03072437643778,-1.34861810272523,0.556208811722282,-7.26682859010264,0.585959518687532,1.20805449838974,425.294719630576,653.031749885607
0.7,1.38528172042435,-0.0139690438965741,7.95446704609819,0.734120879264924,1.31542598051657,-0.434574583830263,7.29011241914067,-3.26599760703002,-1.89995922503623,440.805885987766,653.031749885607
0.71,1.35142114798841,0.0291000492579663,7.00112652110727,-1.43438645430099,-1.32301328220608,0.277167435322786,-7.14550913365344,-0.122214097832839,1.3858154449307,455.684117008702,653.031749885607
0.72,1.31464576047368,0.0415814558229282,6.31630551921036,-2.04737583898582,1.31456052663809,0.0441940584780109,6.16942891796808,2.45471180878924,-1.50557124124996,469.735345932673,653.031749885607
0.73,1.28571232055899,0.0222443286960745,5.32946906776611,-1.06705140867754,-1.1843596942375,-0.500842386447045,-4.43942996771974,-3.13580943533697,1.9881696478144,483.340556876531,653.031749885607
0.74,1.1645898224759,-0.0095193877479689,8.98646619254546,0.493468628608003,0.74570468068765,0.894586274519162,6.18666170539784,6.5364595049726,-0.703054678169881,496.590255109195,653.031749885607
0.75,1.15967145349309,0.0507851037018356,6.92633059520927,-2.50666537647817,-0.233335178521118,-1.13708913514698,1.38107441507668,-7.23533415149481,2.98296304506812,509.053562351414,653.031749885607
0.76,1.0553047145824,-0.0102705046420742,9.92826105549738,0.545139621921553,-0.492569674130717,0.933353437885243,-4.06361125744553,9.07494398560436,0.475862038631355,521.150015586016,653.031749885607
0.77,1.0519184795229,0.0426369874311921,7.89223407442814,-2.10779383139482,0.963845961540909,-0.423498952395702,8.11721364006446,-0.917058472935129,-1.94427697546504,532.776754025335,653.031749885607
0.78,0.97588786647248,-0.001369641152203,9.63049409082054,0.110210185918534,-0.886129243663137,-0.408820213993989,-8.79639006100984,-3.92200007814595,2.00164941956223,543.797870776529,653.031749885607
0.79,0.98689428492179,0.0180375231991493,7.00975216830391,-0.877742773924694,0.267062947315042,0.950243686654036,0.923750063266696,7.00383778073373,-0.255704113959385,554.52462872636,653.031749885607
0.8,0.916167780458915,0.0172766384221023,8.59137759842974,-0.837891654290245,0.580546169027689,-0.708962643454123,6.2056220150606,-6.00034056277849,-2.43659753233664,564.740154581868,653.031749885607
0.81,0.942269669094042,-0.00756782291504154,5.34296794562398,0.410357413196439,-0.927654935872951,-0.16548631722538,-5.33611443919646,-0.491510291173745,1.73930008553676,574.534808233211,653.031749885607
0.82,0.830859919491958,0.0307515406698151,9.0593192124132,-1.53086515214675,0.273131170363992,0.785285442910631,1.19403385792032,9.10983511665256,-0.297728851821321,583.997914334612,653.031749885607
0.83,0.789744741700545,0.00768476007873259,9.32873893032705,-0.346513915052512,0.600826503579181,-0.512604452943928,7.37774117097471,-5.71964834038153,-2.26739488551042,592.843335320488,653.031749885607
0.84,0.765247795464711,0.0157402541637524,8.79362732967501,-0.768982025256772,-0.664625460906351,-0.379637907458884,-7.14937037984174,-5.1774238903355,2.1103404105479,601.505393046612,653.031749885607
0.85,0.749609283998143,-0.0128577504529279,7.90192027629849,0.648293407911838,-0.209823638684714,0.719759293828169,-1.45567180827593,7.79369283345898,0.26650725840273,609.740882969095,653.031749885607
0.86,0.746380538507577,-0.00181768773069624,6.43878040999463,0.129393144027826,0.745268886384833,0.0407614921004785,6.43676052708345,0.206759935268845,-1.51859242549371,617.469900964853,653.031749885607
0.87,0.659128130349137,-0.00924227117076992,9.21135341453119,0.483799915124426,-0.0605987808601915,-0.65640162976047,-1.45638705384815,-9.10834951210445,3.03551288421608,624.995353991839,653.031749885607
0.88,0.637003006901765,0.00153099229383888,8.79014977477916,-0.0722232257623875,-0.622579429826463,0.134796247337417,-8.61064989681484,1.7688011792941,1.35997834043102,632.1523448212,653.031749885607
0.89,0.602973970167839,0.0232902587857209,9.01856983184787,-1.15805879090905,-0.589216734110262,0.130167911171337,-9.08074511061034,0.464510722421589,1.39197811054826,638.996618750181,653.031749885607
0.9,0.611067813671048,0.0100550692041274,7.17008444772501,-0.468642942255665,0.121151360176188,0.599021973928231,0.844733661578384,7.13555619666964,-0.183103314120211,645.484591987705,653.031749885607
0.91,0.593283790010642,0.0596358660703369,6.67127045942394,-2.96072670176003,0.579035214707071,-0.142338723264217,7.02086464032009,1.99479619199566,-1.71165571201766,651.677174169525,653.031749885607
0.92,0.531972404577299,0.0155358685807559,8.39972055839647,-0.769612475728669,-0.0444340078212112,-0.530341042531366,0.311816596890327,-8.42913870047523,3.08720001791207,657.579820358401,653.031749885607
0.93,0.460748349802209,-0.0236839286903622,10.6678134442935,1.18093157155905,-0.457726625657296,-0.0577607694551813,-10.7259931141917,0.387188291746646,1.64496539771277,663.209740209011,653.031749885607
0.94,0.418602750829365,-0.0243725637993508,11.5367326607415,1.21235445938933,-0.124227709903388,0.400486904854858,-1.59484503355137,11.4901032693174,0.242622592179356,668.496488878564,653.031749885607
0.95,0.399615226804983,0.0474476212204863,11.2758417652523,-2.34583290452258,0.380589094994386,0.130749940823066,9.13929755766705,7.00862181055377,-1.1217025283634,673.54005664086,653.031749885607
0.96,0.444912001175038,0.0427784722709547,7.85063023003487,-2.1116122257167,0.250772129221327,-0.369986520950718,6.63293236177558,-4.70058607884631,-2.45007493528328,678.30933681619,653.031749885607
0.97,0.394707375435748,-0.00371788572962681,9.22142648903791,0.207641497359537,-0.220555483909184,-0.327357623120741,-5.39544797569255,-7.481107045468,2.5392867565156,682.889506191824,653.031749885607
