t,iq,id,vq,vd,ia,ib,va,vb,theta_e,omega,r
0,0,0,0,0,0,0,0,0,0,0,0
0.01,0.000768867803827518,0.00042763097471393,-0.0379979255906851,-0.0214126384450264,0.000875188368095565,-8.98402507095671e-05,-0.04336229861715,0.00469622114148934,-1.16551288162981,-0.00218960269719685,0
0.02,0.000846373808483893,0.000473002772175952,-0.0419400827572773,-0.0236845262682382,0.000964303268376357,-0.000100992340166675,-0.0478807820596825,0.00523049095126984,-1.16552827169534,-0.00211248094312162,0
0.03,0.000872567407591207,0.000489231512841488,-0.0432788777807596,-0.0244971455275878,0.000994772033748322,-0.000105593346475225,-0.0494314406805728,0.00545014432879994,-1.16554241447588,-0.00189668790379532,0
0.04,0.000851718148604436,0.000479942238809978,-0.0422983566999886,-0.0240320136389906,0.000971947985244321,-0.000105287564487011,-0.0483468978636001,0.00540981755983686,-1.16555395610809,-0.00158469166615604,0
0.05,0.000866441007519367,0.00048938669282463,-0.0430598713402348,-0.0245049160346662,0.000989200668625114,-0.000108172971747249,-0.0492331153481718,0.00554470764037419,-1.16556431930402,-0.00141218028699942,0
0.06,0.000864290477527134,0.000489603154388277,-0.0429875380138143,-0.0245157516236381,0.000987308670990171,-0.000109228505980147,-0.0491708622217139,0.00558361984148896,-1.16557322833629,-0.00121622087946608,0
0.07,0.000886775399595467,0.000503345998965672,-0.0441192238373172,-0.0252038865534295,0.00101338955437183,-0.000113001836677609,-0.0504821340523188,0.00577026437255293,-1.16558067771115,-0.00113051760998077,0
0.08,0.00086082131851429,0.000489922865352623,-0.0428695959109065,-0.0245317606156861,0.000984244943606859,-0.000110903775356552,-0.0490687035527198,0.00564551717073285,-1.16558727495281,-0.000907005487748085,0
0.09,0.000858549118814137,0.000489610623614215,-0.0427784583291681,-0.0245161355454636,0.000982033047273428,-0.0001115179188978,-0.0489787557056026,0.00566735287720921,-1.16559274734905,-0.000783576323858671,0
0.1,0.000857156736099204,0.000489602212067376,-0.0427274383345482,-0.0245157154295844,0.000980749579968685,-0.000112063632337868,-0.0489316751541996,0.00568730659107352,-1.1655973952304,-0.000680473026259256,0
0.11,0.000855987870998387,0.000489601012960944,-0.0426847890051949,-0.0245156443905296,0.000979674447658269,-0.000112527169137943,-0.0488924288584462,0.00570424689355983,-1.1656013458533,-0.000592884027989565,0
0.12,0.000854994733850371,0.00048960013096187,-0.0426485549005992,-0.0245156052563729,0.000978761002369872,-0.000112921137922311,-0.0488590941605605,0.00571865840955739,-1.1656047039002,-0.000518434269649286,0
0.13,0.000896474236961029,0.000513060225668283,-0.044697572364463,-0.0256903199685073,0.00102612923210683,-0.000118134041298402,-0.0512052426393363,0.00599071294650199,-1.16560806927285,-0.000580518337252351,0
0.14,0.000946570247804363,0.00054282574533753,-0.0472531019566465,-0.0271807554137499,0.00108390185247464,-0.000125744972192569,-0.0541413461439781,0.00635324697342006,-1.16561085048972,-0.000682727350499707,0
0.15,0.000854992338353494,0.00049083052177427,-0.0426805296676126,-0.0245772033184911,0.000979242833087981,-0.000114061271228239,-0.0489127118793054,0.0057630853089701,-1.16561330930703,-0.000335830957785494,0
0.16,0.00085205211163626,0.000489626010407524,-0.0425420548525206,-0.0245168912250639,0.00097606569299209,-0.000114114828025408,-0.048761665999157,0.00576231857876212,-1.16561488722866,-0.00029288697738284,0
0.17,0.000851592037290376,0.000489597777837237,-0.0425244102031166,-0.0245154952142592,0.000975631589913929,-0.00011427153101955,-0.0487448920781543,0.00576805556599322,-1.16561621452795,-0.000263243290966222,0
0.18,0.000851256762120298,0.000489596836415621,-0.0425121482863853,-0.0245154435833453,0.000975322961378713,-0.000114403926030431,-0.0487335961285546,0.00577289653386632,-1.16561734235959,-0.000238232749267647,0
0.19,0.000850973175373553,0.000489596570101102,-0.042501792330343,-0.0245154209760989,0.000975062121365941,-0.00011451640117233,-0.048724064225506,0.00577700461101742,-1.16561830101165,-0.000216978743935021,0
0.2,0.000850732079242211,0.000489596356063635,-0.0424929855750546,-0.0245154214966853,0.000974840368486865,-0.000114612034668958,-0.0487159660284077,0.00578051625384502,-1.16561911587073,-0.000198912867938849,0
0.21,0.00085052736387787,0.000489596174392388,-0.0424855088654834,-0.0245154016729563,0.000974652077350159,-0.000114693237820373,-0.0487090828689094,0.00578347895432951,-1.16561980850492,-0.000183556783700819,0
0.22,0.000850353148348876,0.00048959601995987,-0.0424791415003147,-0.0245154020754598,0.000974491839119606,-0.000114762342066895,-0.0487032278034625,0.0057860178922344,-1.16562039724757,-0.0001705040328025,0
0.23,0.000850205243661363,0.000489595888678735,-0.0424737363731856,-0.024515382159136,0.00097435580061286,-0.000114821010152628,-0.0486982495657094,0.00578815455419441,-1.16562089768172,-0.000159409127052545,0
0.24,0.000850079456906218,0.000489595777079779,-0.0424691368429549,-0.0245153824749846,0.000974240105548317,-0.000114870904625702,-0.0486940201060525,0.00578998860031403,-1.16562132305337,-0.000149978399799406,0
0.25,0.000849972413017873,0.000489595682213395,-0.0424652191814721,-0.0245153827556864,0.000974141649693314,-0.000114913364175864,-0.0486904176608001,0.00579155072542063,-1.16562168462129,-0.000141962232873041,0
0.26,0.000858719400568841,0.000494403597701202,-0.0428956646405976,-0.0247561296288791,0.000984075574036047,-0.000115884386000988,-0.049180907327718,0.00584314586356491,-1.16562195618533,-0.000164350575119583,0
0.27,0.000827472056308735,0.000476908899966511,-0.0413631884241659,-0.0238801295235322,0.000948462119641917,-0.000112123639092905,-0.0474272067018885,0.00564216333776954,-1.16562240110923,-5.43471520649487e-05,0
0.28,0.000822103774802415,0.000473408838871902,-0.0410211104582318,-0.0237048559303963,0.000942148810718519,-0.000111023257599939,-0.0470437349901156,0.00561593234352688,-1.16562264671765,-3.18583120558295e-05,0
0.29,0.00084893461535233,0.000489220575782219,-0.0424178393559369,-0.0244965908979633,0.000973039908132793,-0.000114978650596618,-0.0486394610327137,0.00579300368508181,-1.16562265426193,-0.000118047648489716,0
0.3,0.000845504021138721,0.000487444282799939,-0.0422474021211211,-0.0244076606988069,0.000969186961227299,-0.000114697919698166,-0.0484477721860335,0.00577843032163484,-1.16562211422439,-0.000118466167228979,0
0.31,0.000849662455351131,0.000489545692272585,-0.0424523688188867,-0.0245128868401384,0.000973837008676971,-0.000114990231702728,-0.0486776201531243,0.00579435378626108,-1.16562233265,-0.000127214520833807,0
0.32,0.000849715659960142,0.000489594303464396,-0.0424557511454857,-0.024515305333464,0.000973905042915899,-0.000115014138910254,-0.0486816807302617,0.00579525341958753,-1.16562254211609,-0.000122940567656811,0
0.33,0.000849665892452092,0.000489595383590139,-0.042453962849369,-0.0245153608022568,0.00097385971009455,-0.000115034922887549,-0.0486800580543739,0.0057960180040455,-1.16562272081166,-0.000118988859260192,0
0.34,0.00084962101434556,0.000489595369823464,-0.0424523146158429,-0.0245153609673884,0.000973818442685612,-0.000115052748144153,-0.0486785424562799,0.0057966752484515,-1.16562287272106,-0.000115621206142711,0
0.35,0.000849582830120029,0.000489595336540114,-0.0424509099900039,-0.0245153611198691,0.000973783322104952,-0.000115067894683226,-0.0486772508688619,0.00579723534686047,-1.16562300184549,-0.000112758447239804,0
0.36,0.000849550292037602,0.00048959530774886,-0.0424497101847585,-0.0245153612616339,0.000973753394518266,-0.000115080800896714,-0.0486761476264856,0.00579771375655869,-1.16562311160171,-0.000110325080934632,0
0.37,0.000849522759814009,0.000489595283264155,-0.0424486948065672,-0.0245153613939011,0.000973728071076399,-0.000115091721832431,-0.0486752139704807,0.00579811865889136,-1.16562320489506,-0.000108256706818201,0
0.38,0.000849499302126678,0.000489595262451253,-0.0424478271674129,-0.0245153615184358,0.000973706495328722,-0.000115101026420629,-0.0486744161697226,0.00579846463736831,-1.16562328419484,-0.00010649857812109,0
0.39,0.000849479336898999,0.000489595244759871,-0.0424470865675364,-0.0245153616363443,0.000973688131869155,-0.000115108945642797,-0.0486737351887169,0.00579875995462288,-1.16562335160006,-0.000105004159638981,0
0.4,0.000849462398469686,0.000489595229722318,-0.0424464568501293,-0.0245153617485,0.000973672552349882,-0.000115115664360623,-0.0486731561688235,0.00579901106698627,-1.1656234088946,-0.00010373389620151,0
0.41,0.000849447962969789,0.000489595216939966,-0.0424459178985186,-0.024515361855904,0.000973659274986041,-0.000115121390183031,-0.0486726606137436,0.00579922597878574,-1.16562345759533,-0.000102654165711531,0
0.42,0.000849435739361006,0.000489595206074758,-0.0424454603197273,-0.0245153619591061,0.000973648032022107,-0.000115126238775709,-0.0486722398837622,0.00579940845578532,-1.16562349899112,-0.000101736389213488,0
0.43,0.00084942532018971,0.00048959519683943,-0.042445068112306,-0.0245153620588781,0.000973638448755077,-0.000115130371550859,-0.0486718792669572,0.00579956485944562,-1.16562353417747,-0.000100956274444527,0
0.44,0.000849416414417597,0.0004895951889894,-0.0424447304632535,-0.0245153621557723,0.00097363025750723,-0.000115133903912001,-0.0486715688206288,0.00579969949787936,-1.16562356408615,-0.000100293172857425,0
0.45,0.000849408905629345,0.000489595182316728,-0.04244444471439,-0.0245153622500145,0.000973623351115912,-0.000115136882327142,-0.0486713060973216,0.00579981345761816,-1.16562358950857,-9.97295330799816e-05,0
0.46,0.000849402502786649,0.000489595176644766,-0.0424441990054153,-0.0245153623421572,0.000973617461959885,-0.000115139422010166,-0.0486710801933298,0.00579991144699816,-1.16562361111779,-9.92504363543298e-05,0
0.47,0.000849397089474188,0.000489595171823633,-0.0424439897999694,-0.0245153624324202,0.000973612482924619,-0.000115141569268411,-0.0486708878553897,0.00579999488800683,-1.16562362948554,-9.8843201659644e-05,0
0.48,0.000849392491068979,0.000489595167725836,-0.0424438103235225,-0.0245153625211353,0.000973608253419382,-0.000115143393290782,-0.0486707228547873,0.00580006647499177,-1.16562364509819,-9.84970500654149e-05,0
0.49,0.00084938853294804,0.000489595164242353,-0.0424436534925256,-0.0245153626086364,0.000973604612869137,-0.000115144963211852,-0.0486705786792342,0.00580012902054654,-1.1656236583689,-9.82028194196224e-05,0
0.5,0.00084938521511137,0.000489595161281698,-0.0424435207071703,-0.0245153626949178,0.000973601561197375,-0.000115146279289757,-0.0486704566135145,0.00580018198984871,-1.16562366964912,-9.79527218496008e-05,0
0.51,1.95243889983227,0.00959220778359782,4.41808666154433,-0.478317925575368,-0.130013537308257,1.94812888386395,-0.792946095064879,4.37258668034883,0.0715517261624692,21.7387102834108,543.205258665936
0.52,1.86805827032791,-0.059206169588505,5.40868065194169,2.96938136288386,-0.638938399179368,1.75638970445398,1.13415362894609,6.06504308466797,0.317213975289418,45.1699368449621,543.205258665936
0.53,1.8225909712922,0.0170578744572488,4.49690429771972,-0.846004806882016,-1.20638086616253,1.36629939086343,-3.63671625822346,2.77707890656544,0.732676620320962,68.1519558056188,543.205258665936
0.54,1.7453711444648,0.0185497839123783,5.1114587721468,-0.917203399432129,-1.68455195289435,0.457109663443455,-5.17779318383973,0.39841009107344,1.31645064741402,91.2415288953619,543.205258665936
0.55,1.65916608695411,0.0180815806770552,5.98060447557238,-0.903003233966782,-1.46339260560187,-0.782074887416897,-4.8093041941207,-3.6679201057553,2.07250143090985,114.87192297429,543.205258665936
0.56,1.57727374388428,0.0232709047635387,7.03125808024129,-1.15910743759902,-0.25590653322505,-1.55654933889292,0.108209528469286,-7.1253358475797,2.99339685279291,135.911697840868,543.205258665936
0.57,1.53073975831025,-0.017382317305459,6.65857630423966,0.886389751449726,1.22739671783296,-0.914857174470145,4.75543151694262,-4.74428037520189,-2.22267872038906,155.159723658906,543.205258665936
0.58,1.4930468023142,0.0358909034624895,5.65003576649323,-1.79434130876303,1.28522515680576,0.760705729678445,3.84082636845481,4.51559715899995,-1.01233089809017,175.347178322824,543.205258665936
0.59,1.43028273955356,-0.0105416070697651,6.05515380305009,0.537780291251752,-0.491342756563999,1.34328036392874,-1.53169119534452,5.88285791961312,0.343291287815477,193.976990927072,543.205258665936
0.6,1.35474793836769,0.0313313738902461,7.36174609231551,-1.54552944955436,-1.31799187162325,-0.314993742535308,-6.72470290821335,-3.37080666954209,1.8285139891768,211.389320952563,543.205258665936
0.61,1.28686635899075,0.0473065048690037,8.12234719896803,-2.36263499677918,0.339480372509999,-1.24218195445977,4.6822812771121,-7.04491378162962,-2.8380691020857,229.160887159914,543.205258665936
0.62,1.27493824901091,-0.000996799735953124,6.42258613318075,0.0761417077553597,1.13558987495917,0.579572401250213,5.75744874179962,2.84731350281903,-1.0996680410223,245.202779184878,543.205258665936
0.63,1.18031869559264,0.046894245137195,8.73887012323264,-2.33991467147414,-0.778071384707009,0.88879480966791,-7.71067678495742,4.7316503694194,0.758778773634729,261.395455244957,543.205258665936
0.64,1.10655140805705,-0.0117845269156021,10.2778567375765,0.609136846342662,-0.43320169860694,-1.01829817935206,-4.68187001064484,-9.16981352150323,2.72871919653237,276.317510076732,543.205258665936
0.65,1.07277909475546,-0.0315562589572742,9.80880377424278,1.59881239024984,1.06476867546535,0.134604796985458,9.91711260895414,-0.647850323870075,-1.47445338708509,290.755383539242,543.205258665936
0.66,1.05499251916759,0.0212008791520189,8.57977824992478,-1.06188352936042,-0.670625978147941,0.814689812265695,-6.39090867052272,5.82206817315349,0.708801608526034,305.029007778751,543.205258665936
0.67,0.981050687122993,0.0165967870851597,10.3555337360349,-0.801528652178332,-0.162099753679805,-0.967708413677898,-0.745165386026161,-10.3597420665714,2.99254038210463,318.060477682497,543.205258665936
0.68,0.985477530152658,0.0135566044551736,8.18731023873879,-0.65870201679883,0.786617955878198,0.593786102439374,6.06205806044365,5.5423270711951,-0.910436818982406,330.927671643545,543.205258665936
0.69,0.870376981908885,0.00583566254227497,12.0605379242198,-0.291476836680465,-0.870280621946034,0.0142050927258652,-12.0627831802029,-0.175487080089241,1.56118000056403,343.447568663622,543.205258665936
0.7,0.86219657808259,-0.0209746766922114,10.7049167233615,1.0449573068336,0.727543330941224,-0.463145309727541,8.30550664329484,-6.8341595844255,-2.16200740552489,355.256829014098,543.205258665936
0.71,0.816733872799805,-0.00343744145919156,11.300357376595,0.203092803436182,-0.382460675263885,0.721657721401944,-5.06977395756361,10.101322465142,0.483130455530943,366.237466066554,543.205258665936
0.72,0.815952919514323,0.0273213825055167,9.67563896161571,-1.34498843961972,0.0274015395475764,-0.815950231592824,1.99014828415017,-9.56380118077225,-3.074551390357,377.082594114719,543.205258665936
0.73,0.806921286473766,0.0245921818536536,8.50900261125165,-1.22147973726934,0.239975170506332,0.770803902113409,1.10392229852701,8.52505095267247,-0.27135241684117,387.592684797326,543.205258665936
0.74,0.699500419152636,-0.0166505362556878,12.3250359984066,0.830571324942443,-0.34231792190457,-0.610242998399205,-6.99845431526897,-10.1792926220307,2.60657981428454,397.671889595281,543.205258665936
0.75,0.650655548926425,0.0320199515076314,13.2937839681809,-1.61353098676171,0.456431353136633,0.464810004751577,7.6313226722708,11.0041396169619,-0.727131293590149,407.193677882006,543.205258665936
0.76,0.67449917485666,0.00160435807986636,10.691254067806,-0.0900705010719669,-0.508260774635834,-0.443421577974895,-7.98012875445169,-7.11537569632939,2.29054707017462,416.262867486116,543.205258665936
0.77,0.620045939780151,0.00747145057457033,12.0549193209791,-0.3447575768603,0.493922836449981,0.374904016575902,9.30189323734722,7.67559247375157,-0.909489503504045,424.904387419043,543.205258665936
0.78,0.622431783369518,0.0431681066173708,10.6156590334165,-2.12887166716768,-0.516278773954629,-0.350344170697034,-7.03622974811527,-8.22895997199916,2.23625465506791,433.237140170313,543.205258665936
0.79,0.531645824457201,-0.0105400924773253,13.8647421212259,0.558547342341749,0.389191108104807,0.362337767261929,10.7053746298226,8.82825029419099,-0.840937389531424,441.265773300816,543.205258665936
0.8,0.548918865725423,-0.0122963266949594,11.7800779476031,0.645811465570597,-0.352383499101209,-0.421056991820184,-8.24670125969521,-8.43677824966431,2.42235464210041,448.914051209987,543.205258665936
0.81,0.512595464818081,0.059351715663582,12.4023816222313,-2.94361648678184,0.315498097102165,0.408335263514171,3.88288291556279,12.1411353747804,-0.542563584930286,456.262534266192,543.205258665936
0.82,0.499675466025495,0.0142978750622681,11.9104417948299,-0.688121512593003,-0.167658983387375,-0.47092511705005,-3.01757350119533,-11.5423734616849,2.82817100056463,463.262271790248,543.205258665936
0.83,0.502983101724994,0.0297122688806545,10.6566025887603,-1.45939170204735,0.0468776650852137,0.501674500108477,-1.09449262985973,10.7002377897858,-0.0341683099371938,469.942928893823,543.205258665936
0.84,0.433063682805148,-0.000762114111849399,13.0982607055484,0.0663401996550959,0.125814009815233,-0.414385773304164,3.71973642698719,-12.5591558413115,-2.84858186835187,476.300278986148,543.205258665936
0.85,0.394447699236409,0.0305492540858333,14.0159212507004,-1.50063361113712,-0.219602491926848,0.329085080028882,-9.83703274836581,10.096075299258,0.665743263433819,482.394462457667,543.205258665936
0.86,0.360217681212039,0.0156854176414059,14.7740299112326,-0.755228225711145,0.310584829296412,-0.183138947237561,13.3956661251679,-6.27681914300044,-2.06006020602523,488.108576542058,543.205258665936
0.87,0.354526578533968,0.0362876130023694,14.1149652953842,-1.78602072306206,-0.353192033284884,0.0475528481639224,-14.1646586158272,-1.33587484824703,1.53896366425116,493.723217256604,543.205258665936
0.88,0.310975429479952,-0.0481164417462954,15.379262881858,2.43862049193271,0.256249961785696,0.182638623492937,14.8364851994011,4.72729347734209,-1.10508377807606,499.06521697242,543.205258665936
0.89,0.300121997592059,0.0214132565091876,15.047749085834,-1.08355013306947,-0.17987481349256,-0.241198657674525,-7.2020434377943,-13.2566739328241,2.57204246818115,504.142306115871,543.205258665936
0.9,0.351793505553016,0.0265600539517276,11.6315968989683,-1.35079701709449,0.0258289369300761,0.351847940213185,-1.37496564217796,11.6287647015627,0.00207809464022114,508.945309560299,543.205258665936
0.91,0.342990854884861,-0.0101340187831931,11.260481697584,0.488479538182472,0.204299886954619,-0.275693636237175,6.03329609761234,-9.52031504307409,-2.53338838235283,513.581045029754,543.205258665936
0.92,0.270998036882799,-0.0429696768707328,14.0821998994676,2.13784611286431,-0.270605857557487,0.0453739901296232,-12.6729116545434,6.50200355328967,1.24741446653071,517.9814793744,543.205258665936
0.93,0.265131807165938,-0.0314415224936608,13.6186867153064,1.57139719810062,0.23859027624679,0.1198253920848,13.340150994168,3.15884289838245,-1.2234093475584,522.207408957459,543.205258665936
0.94,0.254031832955158,0.0336580223977537,13.4447512735563,-1.67531224411533,-0.155896553722879,-0.203374775140907,-5.25504855424465,-12.488093233781,2.61931262969092,526.227270720338,543.205258665936
0.95,0.263752930866416,0.0532494316171296,12.2747730716886,-2.6433927854521,-0.00222065743153823,0.269065380881197,-5.1150827932281,11.4670618467877,0.207466527795031,529.97497380447,543.205258665936
0.96,0.18889376359865,-0.014112923713317,15.3497241896715,0.735760990098171,0.163250372670095,-0.0960694767617456,12.1928739760287,-9.35356622568192,-2.17727670174704,533.587821182201,543.205258665936
0.97,0.221573911091322,0.0182299770476237,13.0688444335977,-0.903723983758501,-0.221341704382916,-0.020860969304607,-12.7085290608769,-3.17878923133393,1.74685658259651,537.068200319755,543.205258665936
