t,iq,id,vq,vd,ia,ib,va,vb,theta_e,omega,r
0,0,0,0,0,0,0,0,0,0,0,0
0.01,0.000500440712543201,0.000239725135814053,-0.0204216722713053,-0.011989655535325,-0.000514478285075627,-0.000207896949706953,0.0226243290372718,0.00699544664947203,2.40155568222629,-0.00871293082695146,0
0.02,0.000701802628630282,0.000320674090701247,-0.0305395250113193,-0.0160382545982273,-0.000710055876733154,-0.000301959358053626,0.0324373884890806,0.0117347358931942,2.40148962466406,-0.00870092769879849,0
0.03,0.000760501205548619,0.000357011968030908,-0.0346921855034005,-0.0178556582059576,-0.000776489366972819,-0.000320755190038066,0.0365804998755901,0.0135734775876445,2.40143529308655,-0.0062056235523539,0
0.04,0.000720944980733688,0.000359339899840421,-0.0344424516566942,-0.0179720939547381,-0.000751540511582374,-0.000289954631473486,0.0364984709430597,0.0133094047973708,2.4014036765216,-0.00304002342450864,0
0.05,0.000695946914151424,0.000369310117102442,-0.0340869745080382,-0.0184707316856023,-0.00074204643999711,-0.000264762442198143,0.0366270788499424,0.0127101083800754,2.40138898663916,-0.00141533315919735,0
0.06,0.000671868212987806,0.000372482240789172,-0.033414732186609,-0.0186293949965689,-0.000728150222177707,-0.000244841110251745,0.0362909033617022,0.0121065692180974,2.40138366685529,-0.000477686543976389,0
0.07,0.000661584973582054,0.000377150168740758,-0.0330314195292841,-0.0188628530342192,-0.000724661160756116,-0.000234100681635803,0.0362047461149833,0.0116661158686055,2.40138396884328,-0.000260101640125991,0
0.08,0.000651727424972277,0.000374977327206861,-0.0326654723819387,-0.0187541777189012,-0.000716408489250672,-0.000228288214566076,0.0358776950994926,0.0114692311074097,2.40138421981242,-4.87865849057855e-05,0
0.09,0.000647392982878745,0.00037428619541957,-0.032470017976821,-0.0187196116101637,-0.000712974644880141,-0.000225554840604969,0.0357203396055315,0.0113482714417638,2.40138525465127,-2.154634618641e-05,0
0.1,0.000646276419792835,0.000374066456877117,-0.0323947137773727,-0.0187086240890034,-0.000712059139537799,-0.000224879315948654,0.0356614284029284,0.0113001159411905,2.40138618886686,-6.19606400516793e-05,0
0.11,0.000646559011689586,0.000373996630465009,-0.0323830009463776,-0.0187051237738799,-0.000712198043943497,-0.000225135473435998,0.0356509377854341,0.0112938496850441,2.40138677557402,-0.00011020786673077,0
0.12,0.000647190151573324,0.000373974447846543,-0.0323954161371596,-0.0187040263280676,-0.000712607269035238,-0.000225616621847259,0.0356584976645232,0.011303766270141,2.4013870537534,-0.000144645745594918,0
0.13,0.000671289300986339,0.000385725578871023,-0.0333129319268699,-0.0192917511224624,-0.000737537193572367,-0.000235483408994159,0.036711255789013,0.0115847655707381,2.40138582524746,-0.000617572131147768,0
0.14,0.000684395853406461,0.000392466288830474,-0.0342390931973428,-0.0196288791865965,-0.000751354141411626,-0.000240612606095195,0.0375848327649232,0.012041127319777,2.40138377160979,-0.000776350419270823,0
0.15,0.000662085236164897,0.000379850202720321,-0.0331220091716093,-0.0189978903932872,-0.00072699252156999,-0.000232647609133435,0.0363655680579124,0.0116418551264333,2.40138202389711,-0.000133558274422394,0
0.16,0.000650297636591312,0.000375836299149547,-0.0326529728851869,-0.0187971380166199,-0.000716078622109953,-0.000226652480400689,0.0359009957554902,0.0114309903167171,2.40138316577608,5.93324811189957e-05,0
0.17,0.000645833100499776,0.000374559467636517,-0.0324289435578139,-0.0187332855275287,-0.000712124453955485,-0.000224218533078574,0.0357027378708536,0.0113087079481658,2.40138483955385,4.42020788450786e-05,0
0.18,0.00064520220523443,0.000374153414547264,-0.0323583904141344,-0.018712975456759,-0.000711398865404822,-0.000224027492860767,0.0356401440143504,0.0112703600330769,2.4013861168765,-3.18753188842753e-05,0
0.19,0.000646001850448498,0.000374024318617258,-0.0323604013920136,-0.0187065091092373,-0.000711842701369576,-0.000224705474358887,0.0356367178867777,0.0112762316207337,2.40138683685533,-0.000101609537279927,0
0.2,0.000646985436017099,0.000373983274929207,-0.0323847578036119,-0.0187044672742983,-0.000712475699339291,-0.000225459579960576,0.0356516338883084,0.0112956024676826,2.4013871366568,-0.000145774971312673,0
0.21,0.0006476953354828,0.000373970214215689,-0.0324079831661005,-0.0187038138222965,-0.000712944825867377,-0.000225992575089627,0.0356668147942462,0.0113131934848795,2.40138720176386,-0.000166902980054444,0
0.22,0.0006480785161433,0.00037396604688198,-0.0324229966513847,-0.0187036055873829,-0.000713200188325816,-0.000226278277081689,0.0356767870931582,0.0113244177127808,2.40138717035111,-0.000173578874477099,0
0.23,0.000648228517167697,0.000373964709916322,-0.0324303246102437,-0.0187035395244266,-0.000713300379489313,-0.000226389892337603,0.0356816811657872,0.011329870884113,2.4013871188983,-0.000173410509168655,0
0.24,0.000648253779253373,0.000373964277439876,-0.0324327288895954,-0.0187035176674346,-0.000713317107087319,-0.000226408806926734,0.0356832870277307,0.0113316593338585,2.4013870784609,-0.00017112560020442,0
0.25,0.000648230961839971,0.000373964136387667,-0.0324327541483459,-0.0187035120301459,-0.000713301619245272,-0.000226392038672346,0.03568330016487,0.0113316809544148,2.40138705517981,-0.000168940362619688,0
0.26,0.000651188657311958,0.000375798747546247,-0.0325253651530329,-0.0187952632321389,-0.000716650867517461,-0.000227338734393305,0.0358134990061295,0.0113381915331096,2.40138743937444,-0.000264986393455456,0
0.27,0.000646596673924768,0.000372076888523121,-0.0323991028131582,-0.0186091164813706,-0.000710806133593188,-0.000226457744733808,0.0355909170723894,0.011370474979574,2.40138637254688,-8.24524416781921e-05,0
0.28,0.000645081553743151,0.00037171052092396,-0.0319756379366688,-0.0185907926190866,-0.000709513765325952,-0.000225586212252054,0.0352917857725113,0.0110701783477047,2.40138641810108,-5.04683298463405e-05,0
0.29,0.000646203233777534,0.000373247041382728,-0.0323612413280591,-0.0186676484850488,-0.000711404597716235,-0.000225378507390799,0.0356085905276644,0.0113030668797171,2.40138700406872,-0.000118172832068215,0
0.3,0.000632769181654758,0.000367898125840674,-0.0317697729730678,-0.0184001176522645,-0.000698394255539044,-0.000219069240376591,0.0350121235249273,0.0110469004998088,2.40138983011395,-6.65465045098113e-06,0
0.31,0.000643435112334583,0.000372034502668014,-0.0321528334721628,-0.0186069946294339,-0.000708641763252732,-0.000224154559031292,0.0354232169930893,0.0111902031835405,2.40138990268164,-0.000259748059006004,0
0.32,0.000648418972323737,0.000373350413685905,-0.0323682471307929,-0.0186728062050541,-0.000712974858563485,-0.000226946130447703,0.0356171014918753,0.0113048306139033,2.40138896133519,-0.000308724438922141,0
0.33,0.000649914771879727,0.000373768941026919,-0.0324576421000263,-0.0186937521832876,-0.000714292910213801,-0.000227767579787294,0.0356928686898224,0.0113566731957322,2.40138801598065,-0.000276339893151432,0
0.34,0.000649797964716352,0.000373902010796266,-0.0324768314879133,-0.0187004009046299,-0.000714312523153066,-0.000227591141949122,0.0357107268460764,0.0113663347484191,2.40138738867016,-0.000229057657024025,0
0.35,0.000649208383110045,0.00037394431051606,-0.0324672314847305,-0.0187025205556753,-0.000713946188613978,-0.000227127082998186,0.0357058207983562,0.0113578059736116,2.40138707424495,-0.000193015384338658,0
0.36,0.000648667809768324,0.000373957761052831,-0.0324517250043748,-0.0187031952347984,-0.000713591560100518,-0.000226718812264422,0.0356958619831548,0.0113458981588113,2.4013869653821,-0.000172716578077135,0
0.37,0.000648325432688376,0.00037396204548798,-0.0324395760311276,-0.0187034092670625,-0.000713363812243838,-0.000226463130590967,0.0356878263358427,0.0113367836141156,2.40138695856677,-0.000164273585579751,0
0.38,0.000648161636451002,0.000373963416071793,-0.0324325900703299,-0.018703477006684,-0.000713254347172661,-0.000226341290458077,0.035683164423988,0.0113315809797334,2.40138698645864,-0.000162447272405339,0
0.39,0.000648109889879716,0.000373963857888327,-0.0324295974076965,-0.0187034991425092,-0.000713219766759014,-0.00022630280747449,0.0356811620626913,0.011329357530552,2.40138701595027,-0.000163338987023266,0
0.4,0.000648111170461271,0.000373964001741079,-0.0324288753717614,-0.0187035064917603,-0.000713220732110292,-0.000226303670237449,0.0356806802921203,0.0113288201881773,2.40138703598802,-0.000164792619680302,0
0.41,0.000648128865595325,0.000373964048904499,-0.0324291120405786,-0.0187035094028241,-0.000713232698910488,-0.00022631671059776,0.0356808419439876,0.011328993330835,2.40138704625491,-0.00016593368988628,0
0.42,0.000648145804024583,0.000373964064235726,-0.0324295669623245,-0.0187035094071501,-0.000713244133343164,-0.000226329209042787,0.0356811487226086,0.0113293293421246,2.40138704995092,-0.000166590079822995,0
0.43,0.000648156747064791,0.000373964068989695,-0.0324299292047927,-0.0187035094383849,-0.000713251517192665,-0.000226337285667434,0.0356813930522992,0.0113295967883659,2.40138705031132,-0.000166870845981122,0
0.44,0.000648162160377235,0.000373964070277426,-0.0324301365525791,-0.0187035094943819,-0.000713255169282179,-0.000226341281024021,0.0356815329465271,0.0113297498123862,2.40138704949058,-0.0001669374959458,0
0.45,0.000648163906607055,0.000373964070506187,-0.0324302139127539,-0.0187035095667959,-0.000713256347385872,-0.000226342569507903,0.0356815851851807,0.0113298068480841,2.40138704857151,-0.00016691364002512,0
0.46,0.000648163906607055,0.000373964070473268,-0.032430217619797,-0.0187035096470243,-0.000713256347506504,-0.000226342569073375,0.0356815877518479,0.0113298095081472,2.40138704793117,-0.000166869101656076,0
0.47,0.00064816344094577,0.000373964070416529,-0.0324301944910046,-0.018703509729336,-0.000713256033480123,-0.000226342225060552,0.0356815722174479,0.0113297923639756,2.40138704759547,-0.000166833039476326,0
0.48,0.000648162917076823,0.000373964070386565,-0.0324301606377872,-0.0187035098119087,-0.000713255680168517,-0.000226341838202686,0.035681549447888,0.0113297673089419,2.40138704746934,-0.000166811849840501,0
0.49,0.000648162509623199,0.000373964070379697,-0.0324301260698938,-0.0187035098939609,-0.000713255405364467,-0.000226341537359725,0.0356815261947058,0.0113297417304729,2.40138704745196,-0.000166802540350406,0
0.5,0.000648162393207877,0.0003739640703844,-0.0324301021340946,-0.0187035099747114,-0.000713255326847666,-0.000226341451419887,0.0356815101108143,0.011329724004308,2.40138704747474,-0.000166800147954841,0
0.51,2.67460956377919,0.0133096710818092,2.76846138039914,-0.653168666102211,-0.628377889807117,2.59977973944043,-1.2979175018974,2.53109025508923,0.242132079372665,71.6235612832995,320.070401167258
0.52,1.99195206159544,-0.0158289587955635,2.50449126962733,0.811869808284408,-1.69577971584994,1.04520559075369,-1.69007091455427,2.01872965228655,1.01049011605472,135.942559492741,320.070401167258
0.53,1.44776363827146,-0.0230744185335695,2.81631076601133,1.16911666085049,-1.15552497367949,-0.87253310326583,-2.96384974989123,-0.716962172990486,2.20161473232185,185.186797989925,320.070401167258
0.54,1.07028509583461,-0.0130938873787317,3.18041108904135,0.668818559965371,0.568257093100278,-0.907064227270378,1.08430291822704,-3.06375915224674,-2.59416358339096,219.836076741232,320.070401167258
0.55,0.810670116993525,0.0387150666091961,2.14995611918517,-1.92021600691571,0.650294132361626,0.485594930353366,0.438345299996224,2.84910410929616,-0.881669910179571,245.483237288313,320.070401167258
0.56,0.619718151091357,0.0163315480543253,1.25365574769519,-0.807776179963901,-0.510171413813724,0.35219658541963,-1.49133768061356,0.00818614857029154,0.99292369646492,264.743835026335,320.070401167258
0.57,0.460467272920493,-0.0360952602668727,1.60022967362053,1.80815131672654,-0.0351471072781272,-0.460540615032539,-2.03273355908805,-1.30312718883186,2.9871948785986,278.92897032773,320.070401167258
0.58,0.286880001923498,-0.0314192301768278,4.62323096357046,1.56957727169937,0.257538819073175,0.130234635174078,4.87993007335394,0.155305613316675,-1.21169330882682,289.489384628939,320.070401167258
0.59,0.263482933102523,-0.0104519831281334,1.70548710846142,0.525629283089683,-0.218825214817187,0.147132679401387,-1.06613148289323,1.43120092284534,0.939204215433692,297.012956110788,320.070401167258
0.6,0.175405520076393,0.0286791869675448,3.03821679716441,-1.42444829331853,-0.0292315257598282,-0.175314318126449,1.41487164710173,-3.04268836214583,3.13844291254022,302.663334791269,320.070401167258
0.61,0.0957957555890399,0.00334454056445688,4.76821642017173,-0.158741567265155,0.0776820641839553,0.0561561184964044,3.66700313363417,3.0519132904934,-0.909969002616076,306.821769201081,320.070401167258
0.62,0.0751076706019147,-0.026854058960751,4.12970616985787,1.35057954402447,-0.0791546361017337,-0.00984104920805356,-3.73613286053209,2.21807335373559,1.35111165540236,309.960093583562,320.070401167258
0.63,0.0835024930077222,0.0334252636595065,2.4860421302393,-1.66598139489147,0.00982560542137972,-0.0894056601525629,2.64025135133318,-1.40889044401351,-2.65137590345433,312.22914211808,320.070401167258
0.64,0.0426782032035443,-0.0205978449896214,3.61302731945646,1.03399634769567,-0.00441623220387209,0.0471825936126976,2.22940119923223,3.02537355562063,-0.35632965372078,313.919384661661,320.070401167258
0.65,0.0766596133731866,0.0296437798378587,1.29520851941178,-1.48022485365233,-0.0821879751289846,-0.0007659959525287,-0.656916226481924,-1.85393953448101,1.94909905910214,315.060773782312,320.070401167258
0.66,0.0288423306451929,-0.0308896267587738,3.17262205957986,1.54521336839107,0.0394093926406081,0.015262661957908,2.18421415439925,-2.77171853089544,-2.02095855706876,316.031394494972,320.070401167258
0.67,0.0458943171495934,-0.0319948316229896,1.92845168583201,1.5992647979221,-0.0440730526444743,0.0344604647067958,0.961668833804817,2.31338860820002,0.29838850670146,316.769597839896,320.070401167258
0.68,0.0056128086440558,-0.0275244491054753,3.64708819945012,1.37337895288715,0.0211140365903371,-0.0185282589116353,-3.00177459945773,-2.48531111470015,2.62249270197106,317.304273638441,320.070401167258
0.69,0.0136301817140122,-0.0179979132665366,3.04974830258312,0.895694537060589,0.00900944983776227,0.0207011243445281,3.17489985920729,-0.152460804255774,-1.33311812087335,317.674487486494,320.070401167258
0.7,-0.0148682691688027,-0.0442791736250475,4.35884517208567,2.20869293791888,-0.0115733740929728,-0.0452522668724692,-2.45953070055717,4.22238847824831,0.996455885128812,317.907005000388,320.070401167258
0.71,0.0170041212545745,0.0279886010353122,2.63102743493647,-1.40660225620117,-0.0243575167168898,-0.0218909412072799,1.86929570259141,-2.32520296894957,-2.95542041409157,318.147701435121,320.070401167258
0.72,-0.0283607427606763,0.00183508948451887,4.89040696464517,-0.0998885896201818,-0.0150577439943263,-0.0241031871161217,2.77235653693601,4.02990040103902,-0.62301316264798,318.178668383902,320.070401167258
0.73,0.0202924142506498,0.00290659571367414,2.38782380435783,-0.152860432096923,-0.0204994253220876,6.27393567051299e-05,-2.34351405435265,-0.482711828537856,1.71000369693204,318.29505684498,320.070401167258
0.74,0.02293607144336,0.0179627641347744,2.20301441581148,-0.906003138710858,0.00685943233933227,-0.0283138209466433,2.29022637960179,-0.654963612579526,-2.23951561613182,318.444661602536,320.070401167258
0.75,0.00569136821376397,0.00662357493351278,2.95587457890546,-0.338817435521541,0.00604996434735597,0.00629772565615742,-0.619467726958876,2.91002603357587,0.0956158174629791,318.597153453962,320.070401167258
0.76,0.0105488208928631,-0.0275206999140603,2.65565580218152,1.37617831081985,0.0139892736401978,-0.0259416030539582,-2.7749153719323,-1.11634186584809,2.43138840389085,318.722893406675,320.070401167258
0.77,0.0235843970811715,-0.00594430360815853,2.00670948722745,0.304710472227035,0.0232183988848979,0.00724323714164522,2.02052098506447,-0.192941408017029,-1.5153039075644,318.724906953626,320.070401167258
0.78,0.0186210868934025,-0.0045316412368801,2.2326520332676,0.234331020645276,-0.0167193109702884,0.00936724559677129,-1.47487580685009,1.69245014203046,0.821386013894365,318.847919494059,320.070401167258
0.79,0.0220227835283074,-0.0122514453357392,1.9701351552067,0.620576923227961,0.0126385461477836,-0.0218029369218837,-0.585679465715646,-1.9807896937493,-3.12392765040416,318.990372968828,320.070401167258
0.8,-0.0210963137161133,0.0268704351185399,4.11783432185385,-1.33751786221354,0.00407092140477654,-0.0339190556293135,1.96734513947416,3.85682079388779,-0.785751924698677,319.020505248899,320.070401167258
0.81,-0.0146727480056533,-0.0283801871623498,3.8075506003534,1.42585166575928,0.0141520678575217,-0.0286433854975893,-3.78087912048262,1.49514133890365,1.552534907733,318.991932927985,320.070401167258
0.82,0.0253619197088697,0.00492294222626032,1.867072552741,-0.240143385797922,0.0136557011804955,-0.0219313510015061,1.44673766204816,-1.20439980909692,-2.39295677417295,318.868339907229,320.070401167258
0.83,-0.0075459618498471,-0.0553205165928883,3.57323744970419,2.77171996785117,-0.055657137343114,-0.00442539931679852,2.96813220576729,3.41183948351038,-0.056222858717088,318.760910469639,320.070401167258
0.84,0.0376011676297429,-0.0310795517829112,1.30629426101027,1.55883224165619,-0.00827569492899494,-0.0480759734128067,-2.00661170895526,0.331469611667285,2.28039896212457,318.804229725628,320.070401167258
0.85,0.0320919676674802,0.00591774102176906,1.61973654341348,-0.293254860816125,0.0313830301221983,-0.00894536013363995,1.64029493989306,0.137758461164975,-1.66611972400334,318.736083113895,320.070401167258
0.86,0.00379075604711289,0.013771951262596,3.05965878730344,-0.688057829855863,0.00843797775720904,0.0115254936708537,-2.43979346821789,1.97036628685897,0.670240326542088,318.70647951234,320.070401167258
0.87,0.000966288190410024,-0.0106330655222018,3.1535573195056,0.531276002068693,0.0104069791748913,-0.00238549360085936,-0.949967751721555,-3.05364359879645,3.00689152567125,318.792380024509,320.070401167258
0.88,-0.000727637301207082,0.0267592496603818,3.22102175656504,-1.34062666443051,0.0152076267088899,-0.0220298658260056,1.80872341069287,2.98341760959792,-0.93941223105639,318.786035405109,320.070401167258
0.89,0.0153484535543107,-0.00956581941975523,2.44821075094783,0.475450475832927,-0.0167687743453838,-0.00677407813903832,-2.32945654795474,0.890741953214898,1.39738523323379,318.827277136376,320.070401167258
0.9,0.0088876376922849,0.0160542279446441,2.74305401266832,-0.807557214928559,-0.00834488296313081,-0.0163429271239752,2.20280845393061,-1.82321937437347,-2.54850061987297,318.84913327724,320.070401167258
0.91,-0.00333291800882657,-0.0392259111979775,3.37318009782265,1.95637338702478,-0.0390525605513882,0.00496769223536825,2.62029231862681,2.88787274074724,-0.211289427583786,318.821809441125,320.070401167258
0.92,-0.0224776880654307,0.0210429236659441,4.3226761121428,-1.05981835611862,0.00800986037499049,0.0297303419750045,-3.11479110316887,-3.17912253649903,2.12598162917593,318.817710664,320.070401167258
0.93,-0.0374028972887837,-0.0186289000375915,5.05241245712504,0.923648929706321,-0.0316529699197866,0.027278235600254,4.66853496077376,-2.14121000891857,-1.82000112327361,318.83522800566,320.070401167258
0.94,0.0331832486025689,0.0120747378180126,1.54787995314961,-0.611332213124816,-0.00590130811756483,0.0348152530321869,-1.29640183536438,1.04355244498319,0.51689421790202,318.777408107715,320.070401167258
0.95,0.0450305627166771,0.0135525583522205,0.93946191153326,-0.6851876173406,-0.0257658465520471,-0.0393388429917213,0.390650622307291,-1.09519991118952,2.85407056822295,318.86612466926,320.070401167258
0.96,0.0295878577116344,0.0107540491454031,1.68732766408174,-0.545376752444082,0.0312136567397221,0.00409860097112018,1.2458456418184,1.26189503717389,-1.09161872215937,318.9388560987,320.070401167258
