t,iq,id,vq,vd,ia,ib,va,vb,theta_e,omega,r
0,0,0,0,0,0,0,0,0,0,0,0
0.01,0.000534276910207888,0.000302022676928455,-0.0256211116780548,-0.0151119735988007,0.00052947028617379,-0.000310371922408202,-0.0253807449545154,0.0155122820766013,-1.58649380465821,-0.00289851201290981,0
0.02,0.000627674871357854,0.000353297635917632,-0.0302146835838441,-0.0176775593349637,0.000622043676247242,-0.000363120680380369,-0.0299330689912451,0.0181503330238964,-1.5865164138346,-0.00324069956147329,0
0.03,0.000662829811126718,0.000372990299264454,-0.0319365965286616,-0.0186629021671093,0.000656875712091454,-0.000383378951858358,-0.0316388301426527,0.0191633645881401,-1.58653989660292,-0.00324664183671131,0
0.04,0.000648594678946026,0.000365351336861381,-0.0313131506939029,-0.0182806894008843,0.000642754341190994,-0.000375530975797773,-0.0310210656924222,0.0187720668722734,-1.58656189896515,-0.00298567412923858,0
0.05,0.000664077707068132,0.000374553122900822,-0.0320968061371222,-0.0187410962319796,0.00065808223896601,-0.000384989622791459,-0.0317969585165004,0.0192454431302653,-1.58658304484202,-0.00289964289319662,0
0.06,0.000665449084981166,0.000375747661232081,-0.0322090180584212,-0.0188008780767501,0.00065942680322642,-0.000386218954493736,-0.0319078235164366,0.0193076321486728,-1.58660320399218,-0.00274197787245985,0
0.07,0.000677694431106055,0.000383264034557902,-0.0328334394093673,-0.0191769695706439,0.000671544434230561,-0.000393940522149874,-0.0325258533342039,0.0196941557382857,-1.58662193786817,-0.00265744559872164,0
0.08,0.000665928945281973,0.000376876419342012,-0.0323178857974852,-0.0188573574047113,0.000659874498984533,-0.000387379453779274,-0.0320150718423904,0.0193670040438602,-1.5866400248534,-0.00244255806897311,0
0.09,0.0006636643291116,0.000376043631792888,-0.0322498404274496,-0.0188156770155748,0.000657616863595114,-0.000386521946935049,-0.0319473705118639,0.0193247878779582,-1.58665683482666,-0.0022918290328215,0
0.1,0.000662751371429302,0.000375933479696597,-0.0322434559534005,-0.0188101641290605,0.000656699672914108,-0.000386407687659959,-0.0319407695443092,0.019319678240033,-1.58667260807085,-0.00215724433806258,0
0.11,0.000662061231278153,0.000375917430396743,-0.0322454053605546,-0.0188093681077362,0.000656004147740387,-0.000386390406952662,-0.031942445005486,0.0193193867022303,-1.58668742951124,-0.00203172916606612,0
0.12,0.000661435876731093,0.000375913723834421,-0.032248337369786,-0.0188091832550526,0.000655373548766846,-0.000386385893079499,-0.0319451104621132,0.0193196934603289,-1.58670135948871,-0.00191389445622883,0
0.13,0.00068901798044972,0.000391885540252363,-0.0335879417355956,-0.0196083464592269,0.000682692669317898,-0.000402803641122446,-0.0332715615577311,0.0201405132111609,-1.58671494682576,-0.00195824597624769,0
0.14,0.000706933995744595,0.000402573674579331,-0.0345843913345365,-0.0201431298925651,0.000700430921177901,-0.000413784681279529,-0.0342591042064447,0.0206915341340625,-1.58672790138159,-0.00195317519073941,0
0.15,0.000666155855898631,0.000379376390007244,-0.0325629948580401,-0.0189824390237962,0.00066002271152005,-0.00038994882987475,-0.0322562151647984,0.0194991848203744,-1.58674020669213,-0.00162180441658511,0
0.16,0.000660109803880919,0.000376357847337929,-0.0323017196683711,-0.0188313994782453,0.000654021348649524,-0.000386841386026888,-0.0319971709852795,0.0193443466879105,-1.58675107572883,-0.00149845816310266,0
0.17,0.000658889535447534,0.00037596404605031,-0.0322675101623032,-0.0188117013823465,0.000652803607814905,-0.000386434772592517,-0.0319630845485784,0.0193244287655119,-1.58676119510181,-0.00140853028386093,0
0.18,0.000658359629004252,0.000375911717707427,-0.0322645785968673,-0.0188090851629605,0.000652270934565443,-0.000386380186517747,-0.0319600116077147,0.0193220696286829,-1.5867706928566,-0.00132760299238394,0
0.19,0.000657946838947386,0.000375903871263475,-0.0322658576706094,-0.0188086919944202,0.000651854874181101,-0.000386371565100313,-0.0319611243516612,0.0193219821948639,-1.58677961783252,-0.00125203742400811,0
0.2,0.000657570720057289,0.000375901872865625,-0.0322676175625352,-0.0188085854315141,0.000651475594349291,-0.000386369020326144,-0.0319627236445653,0.0193221718840751,-1.5867880060463,-0.00118108302734299,0
0.21,0.000657218636210618,0.000375900693661569,-0.0322693345449648,-0.0188085338160812,0.000651120528302245,-0.000386367344506751,-0.0319642888972293,0.0193223997365749,-1.58679588998426,-0.00111440341078963,0
0.22,0.000656888089202681,0.000375899676053796,-0.0322709622280941,-0.0188084865439839,0.000650787176926478,-0.000386365860994166,-0.0319657739485264,0.0193226153787216,-1.58680329998958,-0.00105173342065345,0
0.23,0.000656577449213365,0.000375898731224471,-0.0322724896787418,-0.0188084392508977,0.000650473901010792,-0.000386364474370379,-0.0319671673862241,0.0193228151784447,-1.58681026455613,-0.000992830894921456,0
0.24,0.000656285435676165,0.000375897844531697,-0.0322739188336878,-0.0188083933923373,0.000650179410031671,-0.000386363167725779,-0.0319684706064122,0.0193230014741847,-1.58681681046158,-0.000937469203588222,0
0.25,0.000656011117264476,0.000375897011165152,-0.0322752650454572,-0.0188083460572626,0.000649902763127183,-0.00038636193841673,-0.0319696985202343,0.019323172402315,-1.58682296287256,-0.000885435474820001,0
0.26,0.000661464023778376,0.000379159305392607,-0.0325470531520082,-0.0189715850857859,0.000655300477256271,-0.000389714919045432,-0.032238725095921,0.0194909290116324,-1.58682863560453,-0.000869698496303722,0
0.27,0.000646746257222099,0.000370774441696775,-0.0318625534979924,-0.0185520331616186,0.000640716840322818,-0.000381098856431102,-0.0315609302357794,0.0190606383023888,-1.58683436850698,-0.000739499819149761,0
0.28,0.000646234604497251,0.000370612874603126,-0.0317382503176061,-0.0185439535298779,0.000640205898898101,-0.000380932374428041,-0.0314366753160077,0.0190507267792387,-1.58683947602471,-0.000694699904331616,0
0.29,0.000653818134503502,0.000375207122135569,-0.0322205757827175,-0.0187738311114575,0.000647712963090757,-0.000385650690328809,-0.031915161538592,0.0192884603412753,-1.58684410941454,-0.000699528743984397,0
0.3,0.00064646004588514,0.000371294704675418,-0.0318800939170343,-0.0185780630209686,0.000640417229053819,-0.000381623009496088,-0.0315777962109674,0.0190873675562823,-1.58684771454737,-0.000628372786613237,0
0.31,0.000653554182919146,0.000375294902596059,-0.0322261308205913,-0.0187782292457231,0.000647444646044735,-0.000385739243834104,-0.0319204956941957,0.0192931945490535,-1.58685186296065,-0.000634416625450712,0
0.32,0.00065438101412911,0.000375814740994567,-0.0322747033947858,-0.0188042359462983,0.000648261469978997,-0.000386274899187257,-0.031968566709709,0.0193201063990947,-1.58685588804031,-0.000606060355065108,0
0.33,0.000654350644530323,0.000375881912637422,-0.0322821037529693,-0.0188075908431494,0.000648228557282991,-0.00038634403809044,-0.0319758387974072,0.0193237012304326,-1.58685968858395,-0.000574703416141534,0
0.34,0.000654210311318672,0.000375890231958258,-0.0322837596946333,-0.0188080167606932,0.000648086727536896,-0.000386352418793806,-0.0319774186098601,0.0193242679949622,-1.58686326307401,-0.000544580983870017,0
0.35,0.000654063230174624,0.00037589092134508,-0.0322845934361776,-0.0188080429855993,0.000647938356178177,-0.000386352922092274,-0.0319781868935794,0.0193244150567809,-1.58686662302349,-0.000516179383685865,0
0.36,0.000653922605237724,0.000375890641863469,-0.0322852593312778,-0.0188080338615237,0.000647796533785543,-0.000386352428615195,-0.0319787918222858,0.0193245176242769,-1.58686978104231,-0.000489472659611236,0
0.37,0.000653790425166272,0.000375890258515887,-0.0322858813965108,-0.0188080047579951,0.000647663230188337,-0.000386351843205444,-0.031979356916075,0.0193245934436049,-1.58687274922912,-0.000464369639510834,0
0.38,0.00065366598194689,0.00037588988248627,-0.032286451643336,-0.0188079883085401,0.000647537731269613,-0.000386351273185861,-0.0319798734425464,0.0193246753796893,-1.58687553899015,-0.000440775400701859,0
0.39,0.000653548931102662,0.000375889526988442,-0.0322869790788746,-0.0188079732896578,0.000647419688239629,-0.000386350733304246,-0.0319803503808371,0.0193247526975913,-1.58687816105003,-0.00041859945047096,0
0.4,0.000653438981592901,0.000375889192566813,-0.0322874739732496,-0.0188079582467443,0.000647308806190379,-0.000386350226067081,-0.031980797828354,0.0193248244299009,-1.5868806254899,-0.000397756559483633,0
0.41,0.000653335667753884,0.000375888878188939,-0.0322879362287469,-0.0188079417260995,0.000647204615873012,-0.000386349749188762,-0.0319812155277103,0.0193248894241111,-1.58688294178495,-0.000378166597412063,0
0.42,0.000653238582136846,0.000375888582682692,-0.032288367544617,-0.0188079266392877,0.00064710670646871,-0.000386349300797321,-0.0319816049590435,0.0193249509031405,-1.58688511884049,-0.000359754247435944,0
0.43,0.000653147317285737,0.0003758883049203,-0.0322887680285272,-0.0188079115324736,0.000647014667357733,-0.000386348878705987,-0.0319819660916746,0.0193250076823883,-1.5868871650262,-0.000342448719788994,0
0.44,0.000653061582159775,0.00037588804383784,-0.0322891425633419,-0.0188078949512989,0.000646928204513747,-0.000386348482328954,-0.0319823036792294,0.0193250586375427,-1.58688908820935,-0.000326183480027099,0
0.45,0.000652980848134381,0.000375887798434566,-0.0322894827661202,-0.018807895375453,0.00064684678653915,-0.000386348107004882,-0.0319826088995736,0.0193251223472058,-1.58689089578442,-0.000310895993286336,0
0.46,0.000652905124728386,0.000375887567769965,-0.0322898063201047,-0.0188078802125398,0.000646770420281215,-0.000386347756496488,-0.0319828998238906,0.0193251667297879,-1.58689259470062,-0.000296527483860785,0
0.47,0.000652833941519784,0.000375887350959473,-0.0322901056838976,-0.0188078650337043,0.00064669863286912,-0.000386347426621167,-0.0319831685349819,0.0193252074417393,-1.58689419148939,-0.000283022709232481,0
0.48,0.000652767065675409,0.000375887147171596,-0.032290384354684,-0.0188078483843711,0.000646631189140654,-0.000386347116813143,-0.031983418434358,0.0193252432811461,-1.5868956922905,-0.000270329747677841,0
0.49,0.000652704026778876,0.000375886955624812,-0.0322906329957053,-0.018807848737631,0.000646567616523399,-0.00038634682248661,-0.0319836397775683,0.0193252927527552,-1.58689710287374,-0.000258399798642577,0
0.5,0.000652644950763401,0.000375886775584335,-0.0322908712921059,-0.0188078335142266,0.000646508038850432,-0.000386346548474188,-0.0319838526669146,0.0193253237717591,-1.58689842866233,-0.000247186995124894,0
0.51,4.70190881433244,0.0309524159667162,4.90534812629132,-1.54192589353645,-0.694408800895932,4.65045169500658,-2.27984567203933,4.6089347373283,0.154808401925689,48.0193056500712,779.230593157415
0.52,4.66805810393152,-0.0116780296661152,6.59876984183126,0.59952354020618,-3.03994325907179,3.54254820993047,-3.82876403725226,5.407749795226,0.706689527120795,102.679370055061,779.230593157415
0.53,4.57921326057993,0.0305058102500018,5.37256741549683,-1.5028070155352,-4.56203281023465,-0.397468651182197,-5.20865749866838,-1.99819834390027,1.66436391556944,158.94923643933,779.230593157415
0.54,4.20222128648606,0.0520372068152279,5.87489023073093,-2.57902541880351,-0.473666025817728,-4.17576485299109,1.97617148541431,-6.10413413959816,3.04102590620582,216.287610026317,779.230593157415
0.55,3.92626866768487,0.0294795149069116,3.87776766000402,-1.4444598971339,3.90985147640719,0.35988348820087,3.71547520877847,1.82175475636917,-1.47150151397987,265.270493633652,779.230593157415
0.56,3.640640989042,0.00166850721705442,4.15065929113673,-0.0463279224373198,-2.16050407383782,2.93027161572767,-2.50197590248482,3.31213457016503,0.635785013837617,309.809882326236,779.230593157415
0.57,3.34330713330109,-0.0152855417147717,4.71078517644651,0.797998058565421,-0.211257198773152,-3.33666100036159,-1.11531821380895,-4.6458974549648,3.07379114803621,353.85754827049,779.230593157415
0.58,3.07663861304652,0.0026737649660995,5.9667307417082,-0.0935561572582148,1.41275879822455,2.73309803745622,2.65210216879129,5.34574434339121,-0.476212863328071,391.971388790816,779.230593157415
0.59,2.84369946681332,-4.40023751517374e-05,5.53045902531433,0.0381859728267635,-1.61312862787725,-2.34188870132921,-3.16874853950195,-4.53282118471551,2.53839727482252,428.931690970941,779.230593157415
0.6,2.62858315190019,-0.00488114628999292,5.39330267661103,0.274961570474529,1.20385077139985,2.33671062227282,2.72314011363208,4.66345639502562,-0.47758285874725,462.953383583225,779.230593157415
0.61,2.47998390515393,0.0252167199936129,3.01909182973388,-1.22056221595179,-0.305242571023381,-2.46125639168795,0.871651906079698,-3.13766004436469,3.02837142507543,493.13746402913,779.230593157415
0.62,2.24621382455616,0.0406877239198056,5.18306572530773,-2.00023885425415,-0.981702253575962,2.02074063695192,-4.13197314020552,3.71374793915094,0.47034573665674,522.09717812845,779.230593157415
0.63,2.10737002259137,0.0251381122602999,3.3245134796357,-1.22788499577835,1.9954320606494,-0.678152805890562,3.5414468108029,0.13507747921475,-1.88647461594347,549.013088278678,779.230593157415
0.64,1.92761793126706,0.0399729477805199,4.31412920092736,-1.97477595795603,-1.55210120847439,-1.14380529993041,-2.21490107708491,-4.19591039765429,2.22662043197536,573.498254477003,779.230593157415
0.65,1.81051620187102,0.0240341865785713,2.84672481232197,-1.17375022502961,-0.38748934433871,1.76872795177379,-1.78918669792357,2.50606119394958,0.228944669809968,595.807417335989,779.230593157415
0.66,1.62932879803026,0.0482926546969286,5.00660335490267,-2.38123736732875,1.62626269211199,-0.110969224711492,5.09454652939496,2.18677026976206,-1.60929552331513,616.474471325757,779.230593157415
0.67,1.49853167120675,-0.00742438879960033,5.12896539600293,0.405022276944971,-0.230152774051603,-1.48077074246998,-1.21272873108629,-4.99996181015565,2.98244432411545,635.629060024212,779.230593157415
0.68,1.41329823477421,0.0233455377825973,3.43306033101659,-1.13645120914081,-1.39511330455627,0.227191069367459,-3.56118782921413,-0.628781227625719,1.42588260999337,653.337406806773,779.230593157415
0.69,1.24064408767401,0.0321245927163379,6.5484751996445,-1.57939182453212,0.0399102718773437,1.24041803918532,-1.53826233302224,6.55825853184845,-0.00627606501333902,669.644556811477,779.230593157415
0.7,1.20603279466213,-0.00169660839974317,3.18438996396564,0.11258029579292,1.16906648907811,0.296313220081721,3.11538579184433,0.668868547309842,-1.32396931236601,684.654436062416,779.230593157415
0.71,1.1346639451974,-0.0148629180562151,2.01006516657245,0.770507338502758,0.658000798985131,-0.92450966647137,0.510459861962484,-2.09128531336109,-2.53613605716874,698.504884284304,779.230593157415
0.72,0.98828073565673,-0.00468590181103251,4.94987464584897,0.259001873485861,-0.477854856241201,-0.865086993609713,-2.63997720530022,-4.19509968124512,2.63218427157877,711.239539845474,779.230593157415
0.73,0.925341699603332,0.0559020982698138,4.04014140903829,-2.77306394679356,-0.926751329685525,0.0226777102429301,-3.93808293907313,-2.91618398305273,1.60667014555117,722.890754999598,779.230593157415
0.74,0.87340862481815,0.00447149072116881,2.8536147542491,-0.199363190072943,-0.534376330858338,0.690872316100726,-1.9145020791667,2.12545163108705,0.663479654549249,733.701116299871,779.230593157415
0.75,0.787818651774455,0.0145264004552788,3.63287760349287,-0.703744662726234,0.173795651039325,0.768546886060782,0.0466708343589239,3.70011865559687,-0.203958188720308,743.623755551826,779.230593157415
0.76,0.68138423881884,-0.0235600042203081,5.71415982719431,1.19730479258368,0.561426919277721,0.386832481857352,5.45944354454179,2.06872846962238,-1.00204276170565,752.719651861214,779.230593157415
0.77,0.606418878947728,-0.0108711850234605,6.4415418333739,0.546600303081587,0.599913193643097,-0.0892535685615633,6.26328477852682,-1.60109239755522,-1.73641537220876,761.088772945486,779.230593157415
0.78,0.558461979293563,0.0311494412233116,6.04626002938535,-1.55713391778208,0.348761328706579,-0.437282066410035,5.18884536475563,-3.47243576780108,-2.41261813539065,768.701283636105,779.230593157415
0.79,0.54388507446223,0.0270214151494495,4.17218090703096,-1.34873598011527,0.0308141946753874,-0.543683378912738,1.78362105106359,-4.00560584821497,-3.03533509800686,775.696135635437,779.230593157415
0.8,0.463280035533934,0.0253564663993136,5.81917272833981,-1.26338847961536,-0.231360056436361,-0.402173925060224,-1.49382519696702,-5.76432198732731,2.67423068030383,782.023643015887,779.230593157415
0.81,0.461841516536883,0.0361185468976662,3.71234468195622,-1.79707785046945,-0.407422133047763,-0.220475262398977,-2.14134553437025,-3.5250008710253,2.14486385056963,787.752950554648,779.230593157415
0.82,0.425188834158628,-0.0108510107953548,3.52441714693016,0.556847220411945,-0.422730497202011,-0.0469277728407715,-3.55897901000482,0.255467138397429,1.65583983183784,792.99707138322,779.230593157415
0.83,0.382261300102908,-0.00727762407729471,3.78616012561643,0.3791150308878,-0.359406894672715,0.130396891950274,-3.39786539741663,1.71267260283208,1.20371814989668,797.816129803447,779.230593157415
0.84,0.350166251722385,0.0105047271752825,3.65792199595729,-0.527605608101436,-0.240106808745359,0.255098948513026,-2.9590060020379,2.21428193464877,0.785123102859613,802.154338048327,779.230593157415
0.85,0.338598694884458,0.0134134596897961,2.61953859396849,-0.674682421346257,-0.118412242440686,0.317502028211595,-1.634126631681,2.15564583514894,0.396565735500248,806.120305496673,779.230593157415
0.86,0.289554116328287,0.0264776594353644,3.56472293152585,-1.32548333199482,0.0160937843309812,0.290316452922906,-1.4522612159256,3.51498122365691,0.0358106306476498,809.71098669895,779.230593157415
0.87,0.241960246459598,-0.00121430022645276,4.56846785661746,0.0653232737172167,0.0703198762904122,0.231519654436358,1.41202606775274,4.34526731870696,-0.299895469711399,812.922883684799,779.230593157415
0.88,0.217819621332239,-0.0279249150927616,4.50468305801382,1.40687495323752,0.102505227608833,0.194210881860722,3.74279872622275,2.87453027157293,-0.613148888930917,815.83201742436,779.230593157415
0.89,0.16773932454258,0.0387812901218348,5.82655908776901,-1.9308641705003,0.155942999729895,0.0729537545076121,3.39466440202231,5.11402784953582,-0.906012310681007,818.460863237072,779.230593157415
0.9,0.164856619580479,0.014845988266905,4.86786977966605,-0.751451881540394,0.158113547006803,0.0489715697119382,4.216221969625,2.54643052622844,-1.18063074218227,820.847058742249,779.230593157415
0.91,0.131355966577144,-0.0271410142780862,5.54316835402165,1.35156606260299,0.126647629151274,0.0441746832679129,5.67274429351635,-0.611079702645137,-1.43894556869311,822.916991950511,779.230593157415
0.92,0.163803110501995,-0.0148966921382194,2.98554974023359,0.746236211798346,0.164441102114413,-0.00353473933791697,2.88324075743154,-1.07577807650724,-1.68298168085904,824.789194513959,779.230593157415
0.93,0.157809551058183,0.00755381182646138,2.42475625123097,-0.370768135257384,0.14606334814613,-0.0602197044715204,2.40810519166517,-0.466841808197555,-1.91401789579243,826.441473337434,779.230593157415
0.94,0.127854701530222,-0.00258391922540394,3.13560026818332,0.138312192728082,0.109502272495205,-0.0660511442772292,2.57787405093775,-1.79044259388296,-2.13376831105128,827.867618595123,779.230593157415
0.95,0.10020493038737,0.0134092384376582,3.79678255524944,-0.681296647545066,0.0623645614514475,-0.0795707058180601,3.19353396474229,-2.16357660133401,-2.34380328927217,829.120274695238,779.230593157415
0.96,0.071863566387931,-0.0298088687532876,4.54949636837111,1.48355649978498,0.06502472418147,-0.0427168125621171,1.32770705497957,-4.59739611846028,-2.5452270188003,830.181906711431,779.230593157415
0.97,0.0489272479302348,0.0404516119000555,5.08269349344306,-2.0258887116851,0.0611322430871216,-0.0171189179119606,3.82343386700213,3.91399433891807,-1.15298100868829,831.0893955471,779.230593157415
