t,iq,id,vq,vd,ia,ib,va,vb,theta_e,omega,r
0,0,0,0,0,0,0,0,0,0,0,0
0.01,0.000609050431711111,0.000332024677788528,-0.0289823044415287,-0.0166201816358277,0.000467506952983547,0.000512464695310912,-0.0230436465343716,-0.0241907991341398,-0.240440698112897,-0.00465254134689174,0
0.02,0.000674210322055687,0.000369563225202962,-0.0324872298208539,-0.0184992610825932,0.000519500516887529,0.000566794273738222,-0.0257041781561934,-0.0271466017643018,-0.240473010628938,-0.00428827251751254,0
0.03,0.000696104829489169,0.000384492796426294,-0.0337344564948925,-0.019246589362007,0.000539231407451354,0.000584487924049666,-0.0267278385230018,-0.0281792016381561,-0.240501189609611,-0.00365807393483717,0
0.04,0.000674216080266329,0.000376098774375214,-0.0328973741034544,-0.0188264152824603,0.00052587749629017,0.000565217188231049,-0.0261209657093561,-0.0274657292949037,-0.240522753998616,-0.00283005056294216,0
0.05,0.000686199353257036,0.000384804331246712,-0.033602106919458,-0.0192621927895164,0.000537197398673851,0.000574772024906094,-0.0267125812351172,-0.0280458849788065,-0.240540860989972,-0.00240644386926163,0
0.06,0.000683270279237905,0.00038522686694392,-0.0335871203077665,-0.0192833399272874,0.000536918367922664,0.000571818747237738,-0.0267299603132538,-0.0280259000028826,-0.240555526311683,-0.00195030829740834,0
0.07,0.000698350648740374,0.000395319984042613,-0.0343793914975402,-0.0197885651327267,0.000550320252324591,0.000584054054228674,-0.0274097149242426,-0.0286746821695561,-0.24056684451775,-0.00175343149166721,0
0.08,0.000678782217831409,0.000385736597769395,-0.0335515028328817,-0.0193088555542458,0.000536356061559947,0.000567327240074665,-0.0267468419411208,-0.0279846688623663,-0.240576476464499,-0.0012959775177842,0
0.09,0.000675759108801701,0.000385266755697654,-0.0334715880068728,-0.019285335508755,0.000535183586142862,0.000564499225240859,-0.0267051627196193,-0.0279124641245758,-0.240583791255856,-0.00105448895481258,0
0.1,0.000674131774963536,0.000385242628523423,-0.0334437122815876,-0.0192841261847901,0.000534775661608217,0.000562921419559264,-0.0266975073814621,-0.0278855251609379,-0.240589568261127,-0.000870569980581875,0
0.11,0.000672889476680276,0.00038524052558256,-0.0334237973798971,-0.0192840219632302,0.000534480181127254,0.000561712957265862,-0.0266927884700994,-0.027866086522174,-0.240594145020561,-0.000725282486512352,0
0.12,0.000671908065191672,0.000385239690040791,-0.0334081500708834,-0.0192839709886928,0.000534247552955126,0.000560758075299679,-0.0266891115360591,-0.0278508052606601,-0.240597771780281,-0.000610178221024698,0
0.13,0.000704512742051312,0.000403447589398161,-0.0349515879186796,-0.0201954147714852,0.000559702412529437,0.000588082792226208,-0.0279421900374947,-0.0291324954601909,-0.240601646015801,-0.000788325162704229,0
0.14,0.000733425070873185,0.000421031325895296,-0.036548475952044,-0.0210756054181428,0.000583670954096872,0.00061197052977585,-0.0291776376907677,-0.0304735573398427,-0.240604712654158,-0.000957110298739641,0
0.15,0.000673221917925505,0.000386986973203433,-0.0335477627971747,-0.0193714401305431,0.000536262946536069,0.000561612607031665,-0.0268075959890879,-0.0279652977583389,-0.240607334568911,-0.000341591239181917,0
0.16,0.000669300257748506,0.00038532291464887,-0.0333738457570353,-0.0192881365474588,0.000533712858736425,0.000558199935502603,-0.0266852757373486,-0.0278162156108532,-0.240608296916377,-0.000278290541469349,0
0.17,0.000668887094699645,0.000385241445778147,-0.0333603762902966,-0.0192840665583677,0.000533535669784033,0.000557817717600537,-0.0266781326011025,-0.027804085494325,-0.240608990882903,-0.000254250169262622,0
0.18,0.000668725509984895,0.000385237353502234,-0.0333573487953799,-0.0192838677936548,0.000533493495026645,0.000557661471685303,-0.0266772332992553,-0.0278011780188699,-0.240609536589475,-0.000236807050942894,0
0.19,0.000668607823376389,0.000385237065882809,-0.0333554216416122,-0.0192838421142909,0.000533465412565873,0.000557547013269761,-0.0266767611435859,-0.0277993009708283,-0.240609968772049,-0.000223083256236384,0
0.2,0.00066851509857091,0.000385236982391341,-0.0333539120625258,-0.0192838410302027,0.000533443426525301,0.000557456796815866,-0.026676409885265,-0.0277978260010773,-0.240610311237218,-0.000212213980639774,0
0.21,0.000668441640502982,0.000385236923283642,-0.0333527099442603,-0.0192838413407986,0.000533426015666134,0.000557385324196752,-0.0266761312712294,-0.0277966511990777,-0.2406105826213,-0.000203601043146042,0
0.22,0.000668383432842183,0.000385236876786451,-0.0333517507518412,-0.0192838416035377,0.000533412219732532,0.000557328689710204,-0.0266759089326621,-0.0277957138390002,-0.240610797678068,-0.000196775779758275,0
0.23,0.000668337215959509,0.000385236839954881,-0.0333509793517933,-0.0192838418286377,0.000533401265642375,0.000557283722089603,-0.026675730066672,-0.0277949600612361,-0.24061096809896,-0.000191367129630667,0
0.24,0.000668300661548527,0.000385236810767712,-0.0333503647825647,-0.0192838420234105,0.00053339260178042,0.000557248155638572,-0.0266755875600182,-0.0277943595472496,-0.240611103147824,-0.00018708106745231,0
0.25,0.00066827191625826,0.000385236787637936,-0.0333498820996375,-0.0192838262609806,0.000533385789057474,0.000557220186856703,-0.0266754602046428,-0.0277938916705438,-0.24061121016671,-0.000183684595333621,0
0.26,0.000675507248142619,0.000389140604090577,-0.0336851224418483,-0.0194792548383554,0.000538901287496447,0.000563316833034363,-0.0269451449271026,-0.0280729052261668,-0.240611189794988,-0.000249019674761667,0
0.27,0.000653654627900924,0.000376870331954998,-0.0326762709758233,-0.0188650308058968,0.000521777378127176,0.000545017419316939,-0.0261082238445607,-0.0272394698897607,-0.240611711961009,-3.81894080982635e-05,0
0.28,0.000652405136532213,0.000375860779448089,-0.0324009988627843,-0.0188144964755747,0.000520499182723687,0.000544044472892534,-0.0259935500276821,-0.026984168727125,-0.24061175617085,-2.57134511030035e-05,0
0.29,0.000667244230987088,0.00038477850284543,-0.0333039422325959,-0.0192608888014924,0.00053269593667319,0.000556331195502637,-0.0266422424001002,-0.0277547351914919,-0.240611432952926,-0.00016795838435145,0
0.3,0.000662685312164415,0.000382488329254457,-0.0330806675056883,-0.0191462488750305,0.000529384562456643,0.000552450115401293,-0.0264776594401857,-0.0275652491223289,-0.240609983856709,-0.000169650149683731,0
0.31,0.000668177660317885,0.000385102662218446,-0.0333371506322092,-0.019277117518898,0.0005332325106039,0.000557161139914369,-0.0266658831375146,-0.0277831522439126,-0.24061021222911,-0.000212096643067689,0
0.32,0.000668442280374398,0.000385230375894935,-0.0333517352939348,-0.0192835133663522,0.000533419761828348,0.000557387551345799,-0.0266755781191589,-0.0277957850559331,-0.240610497329589,-0.00020610665966887,0
0.33,0.000668400429459042,0.000385236570585487,-0.0333516767612349,-0.0192838264232408,0.000533415934668822,0.000557345305944964,-0.0266758746675224,-0.0277956474116041,-0.240610729664124,-0.000198921265610098,0
0.34,0.000668351767872882,0.000385236835925753,-0.0333509083378837,-0.0192838412069215,0.000533404699338582,0.000557297884525331,-0.0266757110416054,-0.0277948926797794,-0.240610914170809,-0.000193077152624223,0
0.35,0.000668312244873026,0.000385236819238479,-0.0333502482159736,-0.019283842866148,0.000533395346451059,0.000557259426056266,-0.0266755594131454,-0.0277942472779726,-0.240611060406567,-0.000188436773715338,0
0.36,0.000668280870943855,0.000385236794921545,-0.033349715868743,-0.019283843044653,0.00053338791112328,0.000557228899913174,-0.0266754359511014,-0.0277937271324914,-0.240611176291601,-0.000184758956390694,0
0.37,0.000668256258397505,0.000385236775109354,-0.033349299728501,-0.0192838272695597,0.000533382077974265,0.000557204952131568,-0.0266753240181332,-0.0277933242896782,-0.240611268124426,-0.000181844450391324,0
0.38,0.000668236526000495,0.00038523675938227,-0.0333489517724193,-0.0192838274119894,0.000533377401090053,0.000557185753108408,-0.0266752432623577,-0.0277929843821887,-0.240611340896568,-0.000179534860096617,0
0.39,0.000668220926347401,0.000385236746918111,-0.0333486711049059,-0.0192838275413491,0.000533373703774583,0.000557170575054364,-0.0266751781086775,-0.0277927102308863,-0.240611398564383,-0.000177704634752678,0
0.4,0.000668208528115652,0.000385236737040666,-0.0333484401164091,-0.0192838276605863,0.000533370765188355,0.000557158511964606,-0.0266751244508172,-0.0277924846491696,-0.240611444262985,-0.000176254280295577,0
0.41,0.000668198749228638,0.000385236729213171,-0.0333482525804568,-0.0192838277715398,0.000533368447488059,0.000557148997333528,-0.0266750808758673,-0.0277923015232329,-0.240611480476398,-0.000175104952945061,0
0.42,0.00066819094940025,0.000385236723010428,-0.0333480946633049,-0.0192838264210406,0.000533366598780187,0.000557141408371228,-0.0266750427307129,-0.0277921477116147,-0.240611509173371,-0.000174194173273284,0
0.43,0.000668184837595867,0.000385236718095015,-0.0333479661948328,-0.0192838265203928,0.000533365150254019,0.000557135461675292,-0.0266750128456165,-0.0277920223137236,-0.240611531914033,-0.000173472429715592,0
0.44,0.000668179889944699,0.00038523671419998,-0.0333478524118992,-0.019283826616063,0.000533363977502588,0.00055713064787061,-0.0266749863252705,-0.027791911305105,-0.240611549934545,-0.000172900487040391,0
0.45,0.000668176048239086,0.000385236711113238,-0.0333477594113474,-0.0192838267082281,0.000533363066995242,0.000557126909954253,-0.0266749646499372,-0.0277918205807874,-0.240611564214727,-0.000172447253447082,0
0.46,0.000668173021440725,0.000385236708667224,-0.0333476798122297,-0.019283826797818,0.000533362349648416,0.000557123964897853,-0.0266749460832432,-0.027791742951519,-0.240611575530945,-0.000172088090374507,0
0.47,0.000668170576718971,0.000385236706728954,-0.0333476076601877,-0.0192838268855653,0.000533361770192861,0.000557121586281729,-0.0266749292240882,-0.027791672617893,-0.24061158449816,-0.000171803473093484,0
0.48,0.000668168655866165,0.000385236705193051,-0.033347544514524,-0.0192838269716552,0.000533361314927152,0.000557119717340156,-0.026674914457777,-0.0277916110812449,-0.240611591603836,-0.000171577929314584,0
0.49,0.000668167084259323,0.000385236703975827,-0.0333474852204019,-0.0192838270566402,0.000533360942373496,0.000557118188294208,-0.026674900567218,-0.0277915533247849,-0.240611597234849,-0.000171399198086131,0
0.5,0.000668165920106108,0.000385236703011372,-0.033347435526203,-0.0192838271403363,0.000533360666508868,0.000557117055527409,-0.0266748889305475,-0.0277915049231881,-0.240611601696844,-0.000171257563269716,0
0.51,1.15869365147969,0.00552909878895776,1.26407944892375,-0.275080027672699,-0.109776295755258,1.15349499947031,-0.399477999132769,1.23044024764499,0.0996544583588067,29.7224470625365,220.734826800955
0.52,1.00594873596009,-0.010527357900615,0.819706197856365,0.530562127097161,-0.425057356817314,0.911794893635377,0.144647028564847,0.965656076789953,0.425759857474852,58.5441900414702,220.734826800955
0.53,0.866516398873894,-0.0244143055160471,0.648392848833953,1.22762929932377,-0.719115274607319,0.484066059187847,0.186462401509676,1.37576115507032,0.950157009739445,84.007058622346,220.734826800955
0.54,0.725552452087591,-0.00720962113129053,1.17522847254961,0.364443561606677,-0.722577137730532,-0.0660349861537429,-1.20091613222598,0.26792072642339,1.65199491732551,107.211032770931,220.734826800955
0.55,0.592840422435329,-0.0202588785432053,2.24861637527063,1.0150981650218,-0.332676312938825,-0.491117765350182,-2.1444345604926,-1.21987716739463,2.51204634789069,126.587077742391,220.734826800955
0.56,0.530200373061748,0.0337641522387591,1.09086665702132,-1.68577101802329,0.152855123450064,-0.508810146131427,1.96002194070938,-0.43603667339571,-2.78615750806252,141.687052264867,220.734826800955
0.57,0.45692806880661,0.0144169815442736,1.03022154268734,-0.714479702186331,0.451366875657571,-0.072519328315348,1.11286061039206,0.577389758907416,-1.69855942822218,154.948189802464,220.734826800955
0.58,0.342215197858271,-0.041846767428235,3.31065077593169,2.0939600486974,0.132664891327991,0.318217567394229,3.4560495677662,1.84412543794097,-0.51666783183414,166.945789448219,220.734826800955
0.59,0.300743032724802,-0.0302322754954031,2.71595496437183,1.51823152555317,-0.22564605627481,0.201107482460913,-0.718184983339337,3.02748223172084,0.742646794248369,176.289196150499,220.734826800955
0.6,0.241294075110733,-0.010133396938187,3.35232303870198,0.504929634424283,-0.207533261592849,-0.123513002350704,-3.18994293019811,-1.14773158604747,2.06566914804897,184.549571716258,220.734826800955
0.61,0.229022721232526,-0.00548162239209097,1.95647243706679,0.275639937174286,0.0736964290644724,-0.2169107912667,0.321845169638495,-1.94940438563882,-2.83800444803201,191.505262064619,220.734826800955
0.62,0.190646250991351,0.0193835707495871,2.2354936483235,-0.963666963860295,0.191322546501871,0.0108350833915002,2.0561559121799,1.30319174864564,-1.41289942330269,197.292359748438,220.734826800955
0.63,0.19374720993687,0.023238628319282,0.575207708394546,-1.16465464112483,0.012945988154509,0.194705974729043,-1.19348103438776,0.512725425005263,0.0529805541078467,202.42108355503,220.734826800955
0.64,0.132798360423506,-0.0153370221220687,2.4138137313921,0.773889208727217,-0.133058199704867,-0.0128896962743148,-2.39915790292556,0.818194716477276,1.55238597257057,206.631448759868,220.734826800955
0.65,0.11914703968139,-0.00817036270445799,2.06021495934468,0.405699199951811,0.000843482551213053,-0.119423868756404,-0.531360117752048,-2.03143642401422,3.08018887275208,210.156237387085,220.734826800955
0.66,0.079720532267985,0.0253004344368765,3.16763964487071,-1.2614681720863,0.0774240317138792,-0.0316384980830911,3.25894217578922,1.00226681268293,-1.6514180176945,213.073770939285,220.734826800955
0.67,0.083393226435308,0.00427179241499063,2.24916599512945,-0.218153541945699,0.010926263672125,0.0827846313508403,-0.0376109847680004,2.25940789928133,-0.0800457756796668,215.552816001236,220.734826800955
0.68,0.0762436865189235,-0.00471771026231825,1.97328684983008,0.240774372881688,-0.0763894873677709,5.23813347961602e-05,-1.95440136610975,0.363522475917584,1.50831266846053,217.695238831018,220.734826800955
0.69,0.0930315796225318,-0.0010792558725968,0.555835792613733,0.0494919592029558,-0.0017346684773901,-0.0930216669683765,-0.0662787272863959,-0.55408484249759,3.11134636792076,219.621764455299,220.734826800955
0.7,0.0665023941467853,-0.0230041955580652,1.40340668203223,1.15582759304693,0.0661552146058138,0.0239843495010144,1.42033242452742,-1.1349641156695,-1.55601939666994,221.158959931082,220.734826800955
0.71,0.0294578227357462,0.0149383460910331,2.91642940579774,-0.75316284916737,0.0128581143216212,0.0304234514866122,-0.953732198090998,2.85713311742596,0.0694506114710812,222.300442602036,220.734826800955
0.72,0.0472497496358446,0.0239851294676949,1.68001646685397,-1.19673193565288,-0.0500000331983921,0.0175448555534598,-1.50753221960857,-1.40782430066896,1.70305130053754,223.377216197591,220.734826800955
0.73,0.0322287359479305,-0.0417409032232055,2.16562634511871,2.08423408738334,0.0473573023057763,-0.0232008694020235,-1.60746861946448,-2.53968774362516,-2.93963213474165,224.187392546737,220.734826800955
0.74,0.0593187886175773,0.0241750963427126,0.56202112084329,-1.20608143583415,0.0636713722291131,-0.00700787590486449,0.210279597162036,1.31388076367496,-1.29342429571166,224.989956396096,220.734826800955
0.75,0.00750312301796705,-0.0253165614355728,2.9108732584802,1.2617769053225,-0.0263394810509111,-0.001859267574228,0.15991337071537,3.16854726958693,0.358596876804603,225.703843142712,220.734826800955
0.76,0.0221770130338996,-0.0255402902917357,1.97333090825542,1.2824509491019,-0.00903110780903505,-0.0325970156154435,-2.33311572624554,0.308684820284851,2.01555341275087,226.346486215433,220.734826800955
0.77,-0.0015284057199916,-0.0400097944950628,3.03168591988304,1.99727821968765,0.0336538661084594,0.0216918642706419,-0.174846965977919,-3.62624714300392,-2.6072349248599,226.639151014514,220.734826800955
0.78,0.00534868299500713,0.0480016919282208,2.53339646695939,-2.39897716910458,0.0324774810702085,-0.0357489029354349,0.645658409807806,3.42874821684705,-0.944280194309202,227.061423496719,220.734826800955
0.79,0.0462325453769486,0.00981587132240891,0.398253758115768,-0.496419552428339,-0.0231470844336278,0.0412069419403116,-0.635784926985736,-0.0285649173677713,0.721011216388662,227.275742846471,220.734826800955
0.8,-0.0121654130599791,-0.00626250166924323,3.22270839341343,0.317516295494451,0.0128916894335149,0.00458481685860885,-2.43696141316348,-2.13257709301074,2.38788886077139,227.520509803659,220.734826800955
0.81,0.00114040312160459,-0.0396263715298439,2.47445403160102,1.97829884335504,0.0250788696218837,0.0307017937324441,0.753685295577158,-3.07710050914123,-2.22695872979296,227.683876044241,220.734826800955
0.82,0.0160498623961998,0.0220767395738241,1.64228483109943,-1.10057287385035,0.0272248966893376,0.00194563958694662,-0.065489705445519,1.97587226702415,-0.557275880571255,227.864800362606,220.734826800955
0.83,0.0461434211865778,0.0212782143884807,0.112297361894222,-1.06994001150575,-0.0320046040718313,0.0394674935176961,-0.573225508021576,-0.910381701629999,1.1134311103188,227.866322338729,220.734826800955
0.84,-0.0216677558633868,0.00804848166174289,3.43151059925138,-0.398448832233973,3.75430320053126e-05,0.0231142443470578,-0.826801143302218,-3.35416551978541,2.78431395585729,228.008440283697,220.734826800955
0.85,-0.0106239597581485,0.00820929880274974,2.90184214535507,-0.416092289591879,-0.0123630370704725,-0.00523606934347801,2.91221187689315,-0.335920547301297,-1.82805597481597,227.855755192274,220.734826800955
0.86,-0.00662072668067571,0.0519161502924934,2.64956882753186,-2.59412116047424,0.0502331745637769,-0.0146883918867279,-2.14603218647773,3.02394203344746,-0.157631059271343,227.90596658161,220.734826800955
0.87,-0.000964203214551485,0.00792642402642183,2.38187432343479,-0.401640658986527,0.0014257180486288,0.00785653955195306,-2.40127348086439,-0.261775059328613,1.51233032844304,227.71053674545,220.734826800955
0.88,0.0135131632881826,0.008732592565537,1.62257263537375,-0.431997761204469,-0.00818075603886753,-0.01385420461814,0.49705523752453,-1.6038391794687,-3.10127005064784,227.80734183051,220.734826800955
0.89,-0.016725105049645,-0.0184682331262195,3.09733806677645,0.919674630883461,-0.0191298173743982,0.0159641742958484,3.19510472790887,-0.480219016999023,-1.4313454840083,227.802832643769,220.734826800955
0.9,-0.00324581100110836,0.0227316081990739,2.36924005220171,-1.13284215105356,0.0228542416566481,0.00222372180603815,-1.66115752888774,2.03400723410218,0.238824584776758,227.908459066197,220.734826800955
0.91,0.026146742504698,0.0269262758856063,0.954943515656236,-1.35212054965574,-0.0335845583431069,0.0167557129831355,-0.453648567977129,-1.59196421934274,1.90810516955077,227.622106499868,220.734826800955
0.92,-0.00755041011735883,0.0140581128085142,2.63365750833432,-0.698531455323396,-0.0159304831229767,0.000926788080296147,1.74283069995857,-2.09443052321243,-2.70683007719886,227.551696424887,220.734826800955
0.93,-0.0230896531313127,0.016507012468531,3.39189791357793,-0.830766445488342,-0.0115317302738189,-0.0259351641454699,2.50231705106285,2.43588869184201,-1.0390474195636,227.520020442389,220.734826800955
0.94,-0.00228833910279401,0.0431978610218974,2.33850462101943,-2.15714540533231,0.0362852242370918,0.0235515221329854,-3.11990788733964,0.622940556386767,0.628642642810766,227.481350951147,220.734826800955
0.95,-0.00607713376532597,-0.00502200596434059,2.49460105899543,0.247390362946522,0.00787891903748914,0.000273374300600219,-2.03081689483737,-1.46970036907631,2.29609840630325,227.474263423677,220.734826800955
