t,iq,id,vq,vd,ia,ib,va,vb,theta_e,omega,r
0,0,0,0,0,0,0,0,0,0,0,0
0.01,0.000528511034487888,0.000284106468481692,-0.0259196426399191,-0.0142124559810975,0.000549985388102573,-0.000239909299282579,-0.0269956403181551,0.0120439687565413,-1.48888144650333,-0.00238064168045835,0
0.02,0.00066528684209029,0.000351203552891986,-0.0327281680489198,-0.0175690001190752,0.000691787204083994,-0.000295602743708637,-0.0340557049297247,0.0148327917386419,-1.48889994160689,-0.00258054491742801,0
0.03,0.000713002674854639,0.000377614668959797,-0.0351476551477579,-0.0188902151698273,0.000741497977994628,-0.000318035220051751,-0.0365748791760992,0.0159523071936893,-1.48891783525113,-0.00234306791145447,0
0.04,0.000696047137303006,0.000372740564393503,-0.034398818168353,-0.0186463913023224,0.000724195948587763,-0.000314574909586202,-0.035808375808421,0.0157710754846214,-1.48893264040132,-0.00185918822006746,0
0.05,0.000704323991493398,0.000382076119915955,-0.034866374064776,-0.019113405664446,0.000733204517709931,-0.000323211357493777,-0.0363123564470639,0.0161987371662096,-1.48894487983275,-0.00157269457137368,0
0.06,0.000700282942609284,0.000384010317253219,-0.0347221471656327,-0.0192101532123151,0.000729331862296957,-0.000325476816539809,-0.0361763583677188,0.0163073169308398,-1.48895494496479,-0.00128185452563131,0
0.07,0.000703962348594343,0.000390100021729555,-0.0349426515856759,-0.0195147989562227,0.000733494182121709,-0.000331251113183741,-0.0364208990766016,0.0165932030841465,-1.48896280713455,-0.00108948363844664,0
0.08,0.000691306151391514,0.000385671611048706,-0.0343606520298015,-0.0192932596459626,0.000720516168005267,-0.000327876864331195,-0.0358226287540394,0.0164202175634156,-1.48896946428975,-0.000846280190208548,0
0.09,0.00068490604407806,0.000384752171646562,-0.0340757746554047,-0.0192472695547555,0.000714060631864518,-0.000327487307880242,-0.0355348607992693,0.0163978496046247,-1.4889746320159,-0.00067492894017259,0
0.1,0.000680776520297388,0.000384560683997794,-0.0338958292407676,-0.0192376962702658,0.000709927938769787,-0.000327636859982439,-0.0353546681624047,0.0164031593552133,-1.48897870478356,-0.000544541365471291,0
0.11,0.000677746021486881,0.000384520333410025,-0.0337650145221271,-0.0192356726330731,0.000706903222177762,-0.000327846596629812,-0.0352240727125013,0.0164119471383084,-1.48898193094899,-0.000442482266012653,0
0.12,0.000675404286399169,0.000384511457749964,-0.0336642786052647,-0.0192352295482445,0.000704567754979386,-0.000328030928222753,-0.0351235955079371,0.0164198279035245,-1.48898449079581,-0.0003618225836959,0
0.13,0.000700205279049351,0.000399035289296391,-0.0348857188293187,-0.0199617865228372,0.000730471870273952,-0.000340481191332074,-0.0364002839193558,0.0170442257087816,-1.48898690268436,-0.000423357285662753,0
0.14,0.000713724036022718,0.000407611155570151,-0.0356024062980088,-0.020390791194107,0.000744645464050421,-0.000347925260093206,-0.0371495941749115,0.0174133096328513,-1.48898906903174,-0.000434031106646087,0
0.15,0.00068067619331163,0.000389299103798375,-0.0339548801682904,-0.0194747384901513,0.000710211141973182,-0.000332376302068271,-0.0354326909916725,0.0166350153468938,-1.48899091782479,-0.000216096001829279,0
0.16,0.000671666291070975,0.000385501089717607,-0.0335204687327086,-0.0192847375733639,0.000700920720220318,-0.000329327862016461,-0.0349841915912834,0.0164811791458737,-1.48899182490451,-0.000145857522331395,0
0.17,0.000669010130203282,0.000384713285471316,-0.0333939990226113,-0.0192453192257456,0.000698208879137216,-0.000328760136614369,-0.034854914367051,0.0164522468765989,-1.4889923987695,-0.000116921923081515,0
0.18,0.000668075016207921,0.000384549815462736,-0.0333505951561152,-0.0192371473452331,0.000697263397438484,-0.000328673915068083,-0.0348109810331381,0.0164476635045773,-1.48899281625403,-0.000100950449939536,0
0.19,0.000667639039183612,0.000384515848336607,-0.033331017061193,-0.019235451944058,0.000696825997120866,-0.000328675910283289,-0.0347913245842853,0.0164475847314007,-1.48899313780642,-9.00962536268783e-05,0
0.2,0.000667372855209239,0.000384508753144731,-0.0333193542649028,-0.0192351005575474,0.000696560040432466,-0.000328690765291282,-0.034779667918868,0.0164481963005773,-1.48899339055208,-8.19541813604396e-05,0
0.21,0.000667182466719877,0.000384507241574808,-0.0333111096618857,-0.0192350124421553,0.000696370099337294,-0.000328704955044572,-0.0347714403954439,0.0164487891159847,-1.48899359058236,-7.56130378714884e-05,0
0.22,0.000667036598306135,0.000384506896289739,-0.0333048180541637,-0.0192349968739178,0.000696224638333052,-0.000328716640516112,-0.0347651659446041,0.0164492932129231,-1.48899374925267,-7.06099467562643e-05,0
0.23,0.000666922220249728,0.000384506799435136,-0.0332998899310631,-0.0192349943238271,0.000696110593433462,-0.000328725977653718,-0.0347602520206512,0.0164496977333746,-1.48899387520968,-6.66453873455724e-05,0
0.24,0.000666831707335692,0.00038450675930012,-0.0332959889767328,-0.0192349931702103,0.000696020347033575,-0.000328733403187105,-0.0347563623714641,0.0164500188115463,-1.48899397522234,-6.3499270369048e-05,0
0.25,0.000666759995497532,0.000384506735055018,-0.0332928965805997,-0.0192349934256985,0.000695948846906799,-0.000328739293951354,-0.0347532790305536,0.0164502745094925,-1.48899405464123,-6.10014562472887e-05,0
0.26,0.000671409056662417,0.000387196090596725,-0.0335192900907359,-0.019369528033169,0.00070080212421694,-0.000331039750837763,-0.034989909072015,0.016565859094739,-1.48899401776554,-8.56665650609281e-05,0
0.27,0.000661169386178388,0.000381016077887932,-0.0330218324470314,-0.0190603759334814,0.000690091616504623,-0.000325717315564655,-0.0344688486129188,0.0162983994362985,-1.48899433221946,-2.50785783351594e-05,0
0.28,0.000660486365581552,0.000380772986055901,-0.0329437217547904,-0.0190482167407321,0.000689391005657385,-0.000325530870038088,-0.0343900050291505,0.0162926645504645,-1.48899436597491,-2.0694036717432e-05,0
0.29,0.000665012272556662,0.000383732325602052,-0.0332087219718842,-0.0191962570196746,0.000694143623765637,-0.00032811042340719,-0.0346662173680496,0.0164185526756302,-1.48899425779231,-4.66466318308814e-05,0
0.3,0.000654984191299761,0.000378830664343022,-0.0327161286855246,-0.018951040295769,0.000683748792489649,-0.000324044058529275,-0.03415524620548,0.0162143813049623,-1.48899352999247,-1.51214750292428e-05,0
0.31,0.000664079358645166,0.00038332965424438,-0.0331591721192777,-0.0191761032573866,0.00069318118109993,-0.000327784790023268,-0.0346151991491882,0.0164024882147764,-1.48899348204294,-6.27251014447776e-05,0
0.32,0.000666330527418632,0.000384262699457468,-0.0332695318478366,-0.0192227802568023,0.000695501021984986,-0.000328530854536027,-0.034729001855565,0.0164399957509631,-1.48899360582076,-7.08652975923426e-05,0
0.33,0.000666820412569741,0.000384456180217532,-0.0332941325360881,-0.0192324607512011,0.000696005032383199,-0.000328683756861208,-0.0347543089759413,0.0164476385989569,-1.48899374636565,-6.95864435301083e-05,0
0.34,0.000666870705954277,0.000384496282485787,-0.0332972132766671,-0.0192344686171199,0.000696058394086304,-0.000328719700850651,-0.0347575414627923,0.0164493922816953,-1.48899386900417,-6.65496177662554e-05,0
0.35,0.00066682221938015,0.000384504579352521,-0.0332953621324703,-0.0192348849476172,0.000696010714635041,-0.000328732001659935,-0.0347557288782131,0.0164499619642281,-1.48899396927277,-6.36103866292294e-05,0
0.36,0.000666760577551352,0.000384506283952389,-0.0332927654620969,-0.0192349710238797,0.000695949391795111,-0.000328738793323063,-0.0347531466021393,0.0164502627229445,-1.48899404964966,-6.11385541948259e-05,0
0.37,0.000666705629538031,0.00038450662463664,-0.0332904094147678,-0.0192349901535647,0.000695894634314582,-0.000328743667284007,-0.0347507989431596,0.0164504765287419,-1.48899411367461,-5.91396705129289e-05,0
0.38,0.000666660460396065,0.00038450668508708,-0.033288461225812,-0.0192349932540005,0.00069584960442326,-0.000328747453763739,-0.0347488566849104,0.0164506405758375,-1.4889941645694,-5.75429327777742e-05,0
0.39,0.000666624138815699,0.00038450668951701,-0.0332868893709063,-0.019234993422762,0.000695813391370444,-0.000328750454181685,-0.0347472894348688,0.0164507705866353,-1.48899420499916,-5.62724822978173e-05,0
0.4,0.000666595209609684,0.000384506683997206,-0.0332856342515801,-0.0192349950287145,0.000695784547894435,-0.00032875283485385,-0.0347460381155628,0.016450875859859,-1.48899423710886,-5.52629532788025e-05,0
0.41,0.000666572159374565,0.000384506677738878,-0.0332846309924676,-0.0192349937099121,0.000695761565843058,-0.000328754729813391,-0.0347450376840187,0.0164509574086499,-1.48899426260859,-5.44610996598447e-05,0
0.42,0.000666553940376721,0.000384506672380225,-0.0332838358187612,-0.0192349938344728,0.000695743400672903,-0.00032875622725167,-0.0347442448463534,0.0164510232107034,-1.48899428285882,-5.38242884887192e-05,0
0.43,0.00066653938846151,0.000384506668044034,-0.0332831974143721,-0.0192349939500463,0.000695728891777081,-0.000328757423167301,-0.0347436083216318,0.0164510760491654,-1.48899429893987,-5.33185729456989e-05,0
0.44,0.000666527863344663,0.000384506664583744,-0.0332826892370246,-0.0192349940582126,0.000695717400718194,-0.00032875837033,-0.0347431016423401,0.0164511181242446,-1.48899431171026,-5.29169714047445e-05,0
0.45,0.000666518724741911,0.000384506661832419,-0.0332822836124614,-0.0192349941605424,0.000695708289115406,-0.000328759121365794,-0.0347426972156817,0.0164511517224746,-1.48899432185135,-5.25980510156914e-05,0
0.46,0.000666511448784305,0.000384506659646743,-0.0332819577990997,-0.0192349942583132,0.000695701034661784,-0.000328759719314536,-0.0347423723673144,0.0164511787221847,-1.48899432990475,-5.23447899141928e-05,0
0.47,0.000666505686225882,0.000384506657910967,-0.0332816970941769,-0.0192349943523839,0.000695695289128554,-0.00032876019289694,-0.0347421124366448,0.0164512003405318,-1.48899433629998,-5.21436702823499e-05,0
0.48,0.000666501087820675,0.00038450665653243,-0.0332814862020387,-0.019234994443607,0.000695690704317679,-0.000328760570795621,-0.0347419021736138,0.0164512178400608,-1.48899434137879,-5.19839572464761e-05,0
0.49,0.000666497420738042,0.000384506655437634,-0.033281315195574,-0.0192349945325491,0.000695687048082141,-0.000328760872150345,-0.0347417316799014,0.016451232041889,-1.48899434541172,-5.18571260071109e-05,0
0.5,0.000666494568562661,0.000384506654568187,-0.0332811796446566,-0.0192349946194972,0.000695684204320187,-0.000328761106565444,-0.034741596536669,0.0164512433157892,-1.48899434861456,-5.17564068467911e-05,0
0.51,2.34381743880628,0.0132031310326803,0.35922874895406,-0.658183756301847,-0.114510558563478,2.34105571080634,-0.676777445715902,0.322836553235483,0.0545082279106007,16.6896039509949,565.860653483583
0.52,2.28011287358923,0.0242618889441053,1.35035648867762,-1.20869665242125,-0.528501951627665,2.21814991438546,-1.49967308044561,1.01754159417434,0.244541717815425,35.0977310273208,565.860653483583
0.53,2.1893656558593,-0.013682524156504,3.66518502745397,0.692959388759572,-1.19098615937409,1.83713395121392,-1.39070778472714,3.46117116846915,0.56891910904483,53.4004656653865,565.860653483583
0.54,2.1871014950697,0.00234829373927525,1.42844702039022,-0.105500694631188,-1.87211162127892,1.1307592766332,-1.27795950439755,0.646846807017951,1.02851303087018,72.1282770815162,565.860653483583
0.55,2.09151014292281,0.025302402392837,3.61457606041702,-1.25879470285757,-2.08943745359549,-0.0964676994036756,-3.53518636914072,-1.46703153883063,1.62902986613851,91.6014778932535,565.860653483583
0.56,2.05831574206525,0.0227011199011314,2.99682626823417,-1.12486020260878,-1.4572686342867,-1.45380437556177,-1.29494225062752,-2.92735421924494,2.36603299391016,109.137677404847,565.860653483583
0.57,1.99781487199665,0.00695731913468067,3.96278334076016,-0.329936053865351,0.162071079501195,-1.9912422334437,0.663981701233179,-3.92066804331532,-3.05689727769352,125.555859604205,565.860653483583
0.58,1.93216239974818,-0.027338668786756,4.93372443030237,1.37755541820118,1.70652165675688,-0.906522353189068,3.66054185748646,-3.58325675802997,-2.07324784747043,143.084118514317,565.860653483583
0.59,1.90167733044639,0.0432679561587114,4.29132390224303,-2.14758388717508,1.58639430684717,1.04957224066129,2.29872324208588,4.21229733550595,-0.963554989207387,159.285088736049,565.860653483583
0.6,1.87202559435676,-0.00476288870731378,3.7074005986442,0.262868806617817,-0.488081087066898,1.80728508085559,-0.703543274762611,3.64951312764543,0.261226447171944,175.189004747939,565.860653483583
0.61,1.83330632718092,-0.0255960714968904,3.46479881417361,1.29927858314799,-1.83133758266467,-0.088712493356811,-3.50748573062438,1.17919443214096,1.60523906322106,190.985495002104,565.860653483583
0.62,1.77564167299434,0.0107219969248062,4.34097817813782,-0.51906657429235,-0.156120152926362,-1.76879756047504,0.16177415074534,-4.36890727479618,3.05959565951604,206.136508103449,565.860653483583
0.63,1.70254877603581,-0.0110742856995448,5.96748377146911,0.578726383771927,1.69714663140653,-0.135971637080169,5.89522815261745,-1.09182041499855,-1.65724779401048,220.775938285385,565.860653483583
0.64,1.67372673375923,0.0254086581331656,5.36016164644826,-1.25794537229743,0.000533401183553831,1.67391950066054,-1.33746125996779,5.34087603430606,0.0148610679832376,235.577351038046,565.860653483583
0.65,1.65581735611141,-0.00419828133968059,4.38387103102939,0.24310082732918,-1.61464509964351,-0.366974037996122,-4.33057740579994,-0.72354858946853,1.79174290276587,249.295933391268,565.860653483583
0.66,1.55766307463618,0.0440585590976278,7.32728450715094,-2.17721348685108,0.749159769946801,-1.36638759135468,5.58164385261608,-5.22250981029366,-2.61179525182618,263.066423900597,565.860653483583
0.67,1.52787728459058,0.0533110425971696,6.88208261988689,-2.65034887826039,0.947459983948744,1.19982108784874,1.9381241742705,7.11555233615449,-0.633530863807907,276.639778183009,565.860653483583
0.68,1.48417638954523,0.0131784492149831,7.22839102514805,-0.647906128439644,-1.47000861361877,0.205007079618863,-7.25147970563624,0.292337548830618,1.44110932648854,289.673751778556,565.860653483583
0.69,1.44275465926455,-0.0210307097228583,7.51914492477091,1.08760127103228,0.670141170402262,-1.27784745150307,2.42430291417407,-7.20022029557334,-2.6731685653237,302.099157887189,565.860653483583
0.7,1.37507325169056,0.032853676506736,9.11139425676606,-1.60818017709055,0.581604847397426,1.2464516087914,2.18120031938348,8.99144671067665,-0.412691583897506,314.332991991438,565.860653483583
0.71,1.36534894018246,-0.00660151489301902,7.82308669702785,0.363417777664311,-1.2725252726246,-0.494874467908715,-7.43485177246169,-2.46084072460202,1.93685502324527,326.348390238401,565.860653483583
0.72,1.36086302904744,0.0317723273526663,6.30425725916893,-1.55932549017339,1.27268141284649,-0.482948947621419,6.46379630349887,-0.628086714525176,-1.91014029413744,338.065269887147,565.860653483583
0.73,1.30658524229131,0.0312081490829167,7.31534044283431,-1.53404121319862,-0.723116055564908,1.08868825387568,-5.4490135067108,5.11622322050577,0.610179640294456,349.427311626981,565.860653483583
0.74,1.24843430883836,-0.0142976726902215,8.55659374054835,0.741001979327377,0.102665640279948,-1.24428791412397,-0.133234180858908,-8.5875857507922,-3.07072155817404,360.451819459531,565.860653483583
0.75,1.25245208768974,0.0301134737384694,6.72259509493264,-1.47959534011849,0.502731524345046,1.14752083540504,1.17974585507066,6.78164337740907,-0.388876890184741,371.170544974595,565.860653483583
0.76,1.19290107891917,0.00888575172492921,8.09997330646649,-0.415845828753437,-0.837802399552086,-0.849222632750095,-5.34733691160447,-6.09823607878161,2.37041255879334,381.559998100907,565.860653483583
0.77,1.13128359731133,0.00476447180235051,9.61378395617531,-0.206451532707295,0.999080470053478,0.530719786794256,8.37354210250612,4.72771158690209,-1.07828340007386,391.640228463249,565.860653483583
0.78,1.15167652780351,0.0548069314691104,7.05508912340186,-2.70439128615346,-1.12739031755529,-0.241565097464848,-6.12877810876477,-4.41883397077688,1.82942688307052,401.47296600303,565.860653483583
0.79,1.08956375195397,0.0411882805931586,8.65505214816963,-2.02070774408083,1.08851853820301,0.0630320237547109,8.42257153748915,2.83786472024332,-1.47517012055369,411.019942829249,565.860653483583
0.8,1.03373490285146,0.0282021040418026,9.95253090356473,-1.39175493678402,-1.03378082416671,0.0264653666308057,-9.95017867894665,-1.40847344579483,1.57247634980977,420.379800141285,565.860653483583
0.81,0.985610254841998,-0.0249310290192208,10.8766783611936,1.25159308328213,0.985925486484029,0.00025643497388465,10.8419480277891,-1.52341077247606,-1.59582585615301,429.463607350074,565.860653483583
0.82,0.999356887133184,-0.0165436259372986,8.75408318167046,0.841329756931667,-0.999045943675025,-0.0299179184797126,-8.76455971488971,0.724086400671047,1.58418110854754,438.176511453344,565.860653483583
0.83,0.948752355882189,0.0167089787571876,9.89061097998227,-0.807791729592051,0.944415768615831,0.0921361967572,9.7328593591698,1.93601697574272,-1.45593544214399,446.601293652846,565.860653483583
0.84,0.902174101435908,0.0188338988173267,10.8582134038331,-0.903393397774041,-0.872817374731507,-0.229047277681159,-10.195291924134,-3.84355831697808,1.84830563043459,454.793115957328,565.860653483583
0.85,0.887771818045355,0.00799593193653078,10.2241284253482,-0.398914391912517,0.783129881969287,0.418222815984326,8.78381856163813,5.24752000723288,-1.07128235730831,462.858126582782,565.860653483583
0.86,0.884691840119167,-0.0132201997205196,9.04857276674663,0.674008253871941,-0.620219248296264,-0.631017043903654,-6.91214762522258,-5.87819457389138,2.34988180745675,470.562946190586,565.860653483583
0.87,0.847585093221474,0.0410471751163894,9.62161268340601,-2.01958925348068,0.410378830253377,0.742747989910549,2.42737580520174,9.52691020649272,-0.456380892828374,477.989409474299,565.860653483583
0.88,0.789884778293102,0.00617362457711484,11.2538107380692,-0.304355689672833,-0.059171361779312,-0.787689549609961,-0.451609219486049,-11.2488638371612,3.07442901858609,485.247702141638,565.860653483583
0.89,0.798485068805048,0.0211447949871337,9.57164549109643,-1.04852789395929,-0.272102164651783,0.750989959620942,-4.47371060042491,8.52653045589371,0.37408693645258,492.281231859052,565.860653483583
0.9,0.772653482113018,0.0300534787488054,9.66606590442864,-1.46808204988684,0.569046862633613,-0.52352868415505,8.31375097818187,-5.14486536721203,-2.2756803594235,498.995784178272,565.860653483583
0.91,0.718491803745504,0.0358742198651357,11.1805621195379,-1.79891873704496,-0.702990399560523,0.152715191864256,-11.3242433388699,0.0508992475178551,1.40677190688852,505.658632609359,565.860653483583
0.92,0.711844343001865,0.0395401098112707,10.3403202460413,-1.95841308055746,0.664962567200238,0.257119764254156,8.61626450973321,6.04297861018075,-1.14634661211158,511.998700715757,565.860653483583
0.93,0.665557389929451,0.0275451733733556,11.5301870390372,-1.34238117678164,-0.350163054798687,-0.566666754733258,-4.48014055150132,-10.7086666311802,2.62945315757036,518.139431992909,565.860653483583
0.94,0.665069070804109,0.0317131870568793,10.4215025191603,-1.57980445946027,-0.0790434077487669,0.661116279382839,-3.28656965953373,10.0150864579407,0.166643623329708,524.133113036232,565.860653483583
0.95,0.58320897779148,0.0335219074598221,13.4390063026498,-1.64212741286771,0.431381522641191,-0.393911680431154,11.4635847873896,-7.20345033057655,-2.25340858565782,529.818126859755,565.860653483583
0.96,0.63508101110436,0.0195286308709773,9.76968625400506,-0.976760343610826,-0.634599877007463,-0.0315000665260227,-9.6597904493815,-1.75763441721652,1.65113344105193,535.429277429069,565.860653483583
0.97,0.567439347993328,-0.0101763375616022,12.1139336063295,0.543279873359996,-0.414700221487121,0.3874463805429,-8.32410954128667,8.81769475452726,0.801429366524259,540.747111784326,565.860653483583
