t,iq,id,vq,vd,ia,ib,va,vb,theta_e,omega,r
0,0,0,0,0,0,0,0,0,0,0,0
0.01,0.000797954242785493,0.000430789752775221,-0.036804422607709,-0.0215645011226943,0.000872508696741145,0.000247061447390267,-0.0414242479793166,-0.0101796321891123,-0.799826910562239,-0.00783098640634957,0
0.02,0.00087946722932432,0.000479047541789459,-0.0415202686370778,-0.0239801932922713,0.000964614545201094,0.000269198688585971,-0.0464905732047919,-0.011730685449695,-0.799880118681269,-0.00692641135031712,0
0.03,0.000905043962990475,0.000498192527175992,-0.0431951938945289,-0.024938547164944,0.00099631226562506,0.000273243917488689,-0.0483602677503774,-0.0122082109006966,-0.799924562554757,-0.00566643391628462,0
0.04,0.000874214533470644,0.000487379405269171,-0.0422370345973912,-0.0243972688293992,0.000966672383963908,0.000259488414564817,-0.047296218361882,-0.011927344489884,-0.799956688126027,-0.00417051390408512,0
0.05,0.000888670079660101,0.000498569980106406,-0.043193797343213,-0.0249574512130038,0.000984845401703235,0.000261507304468512,-0.0483731455395466,-0.0121908691480903,-0.799982627219732,-0.00342954487732953,0
0.06,0.000884010869297163,0.000499088247639806,-0.0432371313765823,-0.0249834000214066,0.000981869405306483,0.000257869670358481,-0.0484225547586345,-0.0122014751957499,-0.800002687808384,-0.00266856660689097,0
0.07,0.00090349121445323,0.000512256838291994,-0.0442743399273177,-0.0256425815547338,0.00100502223234957,0.000261980448610538,-0.0496260413391119,-0.0124505094594402,-0.800017292473902,-0.00238594199475357,0
0.08,0.000877538525075775,0.00049972167672987,-0.0432826087603424,-0.0250150989543784,0.000977674483216565,0.00025287985695405,-0.0484775891338561,-0.012209125626647,-0.800029388850653,-0.00165247311793328,0
0.09,0.000873578062333248,0.000499134990606676,-0.0432144305380205,-0.0249857395020322,0.000974426751134409,0.000250533184451639,-0.0484083297587862,-0.012182273808835,-0.800037957909208,-0.00130403745221139,0
0.1,0.000871561419821995,0.000499106331481989,-0.0432051054054271,-0.0249842891367117,0.000972961679576719,0.000249142546994267,-0.0484007077702536,-0.0121765070565985,-0.800044374978949,-0.00105436594778236,0
0.11,0.000870102863073827,0.000499104029550834,-0.0432006575897159,-0.0249841825660785,0.000971914924253229,0.000248123365802158,-0.0483975014970457,-0.0121732511484187,-0.800049203311878,-0.000867208785751597,0
0.12,0.00086900880277888,0.000499103195436023,-0.0431974621913022,-0.0249841389542045,0.000971130373823156,0.000247358234226654,-0.048395222999466,-0.0121708804071004,-0.800052837666692,-0.000726376316217426,0
0.13,0.000911988725958973,0.000522742705895774,-0.0451427497477181,-0.0261674911614379,0.00101843393685361,0.000260337644431943,-0.0506152196214558,-0.0126769472327065,-0.800057299909515,-0.00107938105668049,0
0.14,0.000950069386082731,0.000545977340534221,-0.0473605628253088,-0.0273305660641101,0.00106194051946319,0.000270195166260785,-0.0530165886577989,-0.0133874597890883,-0.800060624054201,-0.0014142863616131,0
0.15,0.000870981637677986,0.000501288527379001,-0.0434152631654647,-0.0250935394128607,0.000974070744520779,0.000247154578195042,-0.0486278175669521,-0.0122436168947975,-0.800063439516841,-0.000376831840430282,0
0.16,0.000866065857693222,0.000499202969151834,-0.0432019543292847,-0.0249891444212873,0.000969091293519081,0.000245225894018997,-0.0484020647081693,-0.0121698943612404,-0.800063677956678,-0.00031011515500547,0
0.17,0.000865746989449888,0.00049910562895025,-0.0431886454236832,-0.0249842710198347,0.000968794739619217,0.000245073521779695,-0.0483891225511168,-0.0121641156956922,-0.800063740989526,-0.000304114048859301,0
0.18,0.000865716197286381,0.000499101078275572,-0.0431877231406361,-0.024984044210331,0.000968769488888637,0.000245055295756448,-0.0483883033848989,-0.0121636339433162,-0.800063781226789,-0.000302334512616049,0
0.19,0.000865706069137459,0.000499100859924157,-0.0431875816394643,-0.0249840326843266,0.00096876207814503,0.000245048367606451,-0.0483881942051476,-0.0121635421897495,-0.800063811068509,-0.000301164484648756,0
0.2,0.000865699258841148,0.000499100845235399,-0.0431874944220206,-0.0249840327878438,0.000968757187699185,0.00024504361194279,-0.048388131980309,-0.012163480268916,-0.800063833503443,-0.000300294251336017,0
0.21,0.000865694136567,0.000499100841163796,-0.0431874124817806,-0.0249840328853028,0.000968753514277964,0.000245040030017519,-0.048388073469618,-0.0121634222973718,-0.800063850389099,-0.000299639841068814,0
0.22,0.000865690591350801,0.000499100838425026,-0.0431873501226907,-0.0249840123367719,0.000968750972144343,0.000245037549855637,-0.0483880145724138,-0.0121633929807316,-0.800063863099438,-0.000299147280075035,0
0.23,0.000865687680967762,0.000499100836378597,-0.0431872749104511,-0.0249840124241475,0.000968748885152441,0.00024503551450567,-0.0483879607923471,-0.0121633400576944,-0.80006387266644,-0.000298776511879589,0
0.24,0.000865685527284313,0.000499100834838878,-0.0431872039440151,-0.0249840125084332,0.000968747340790585,0.000245034008246924,-0.0483879100272951,-0.0121632902092278,-0.800063879867819,-0.000298497419737538,0
0.25,0.000865683897469812,0.000499100833679953,-0.0431871338699213,-0.0249840125905906,0.000968746172081464,0.000245032868399443,-0.0483878598792626,-0.0121632410701317,-0.800063885288108,-0.00029828733574114,0
0.26,0.000875253229391713,0.000504163204064999,-0.043605965821466,-0.0252374434290815,0.000979137932679337,0.00024806785499565,-0.0488648835806451,-0.0122732212034555,-0.800063727037389,-0.000417401468438689,0
0.27,0.000846460873138106,0.000488106274340722,-0.0423491882386056,-0.0244336538578609,0.000947296230821251,0.000239527860334361,-0.0474033111457564,-0.0119742756663284,-0.800064500176959,-4.85669926906044e-05,0
0.28,0.000844857445530446,0.000486693089865312,-0.0418061664455267,-0.0243629112194485,0.00094516141426591,0.000239424660329172,-0.0469644628532799,-0.0116467259288054,-0.800064474170193,-3.04562304843978e-05,0
0.29,0.000864419989369476,0.000498521805293637,-0.0431306771669987,-0.0249550494432256,0.000967436045232899,0.00024456779583355,-0.0483271797193838,-0.0121446904434851,-0.800063836239113,-0.000285017679756584,0
0.3,0.000858624807837589,0.000495640458351129,-0.042844932882679,-0.0248108082883532,0.00096127065057489,0.000242600001920818,-0.0480216693175623,-0.0120492222818478,-0.800061336808208,-0.000304179391166899,0
0.31,0.000865831897651017,0.000498939768461445,-0.0431673551603664,-0.0249759693265552,0.000968739624042964,0.000245253559304281,-0.0483680416384527,-0.0121553339486475,-0.800061782882407,-0.000374003537409731,0
0.32,0.000866132439738376,0.000499093635970279,-0.0431868493693052,-0.0249836568364746,0.000969062552067209,0.000245352054839922,-0.0483873885969352,-0.0121633750307623,-0.800062295145491,-0.00035954686266608,0
0.33,0.000866041054201311,0.00049910073705948,-0.0431876718803909,-0.0249840151831617,0.000969002036450067,0.000245282911453401,-0.0483882331357297,-0.0121636717780048,-0.800062691672929,-0.000344515574482545,0
0.34,0.000865952811411492,0.00049910100846948,-0.0431874287654502,-0.024984033026763,0.000968938993534207,0.000245220951502184,-0.048388074794895,-0.0121634751324145,-0.800062990831739,-0.000332944026246804,0
0.35,0.000865885115902009,0.000499100975976596,-0.0431871738391122,-0.0249840333386998,0.000968890461361345,0.000245173595732545,-0.0483878948676019,-0.0121632864128438,-0.800063216061978,-0.000324217746800389,0
0.36,0.000865834125991168,0.000499100940465341,-0.0431869645685859,-0.0249840335934695,0.000968853898014573,0.000245137934245694,-0.0483877469765567,-0.0121631322355975,-0.800063385604596,-0.000317648136737432,0
0.37,0.000865795650727395,0.000499100913218117,-0.043186786218779,-0.0249840338053837,0.000968826308150029,0.000245111025925022,-0.0483876207282524,-0.0121630016588781,-0.800063513225975,-0.000312702863149939,0
0.38,0.000865766721519989,0.000499100892683285,-0.0431866373876228,-0.0249840339846122,0.000968805563565719,0.000245090793733324,-0.0483875152500242,-0.0121628931970544,-0.800063609291278,-0.000308980350863058,0
0.39,0.000865744951854858,0.000499100877224489,-0.0431865094977011,-0.0249840341393272,0.000968789952951463,0.000245075568690002,-0.0483874244890424,-0.0121628004911415,-0.800063681603243,-0.000306178264267315,0
0.4,0.00086572859550218,0.000499100865588046,-0.0431863985289849,-0.0249840342755063,0.00096877822412925,0.000245064129472042,-0.0483873456369465,-0.0121627204520478,-0.800063736035224,-0.000304069019734774,0
0.41,0.000865716197270434,0.000499100856828865,-0.0431862944687835,-0.0249840343981403,0.000968769333570142,0.00024505545869813,-0.048387271567881,-0.0121626458868155,-0.800063777008233,-0.000302481305609803,0
0.42,0.000865706942252371,0.000499100850235266,-0.0431862038113473,-0.0249840345100064,0.000968762696979534,0.000245048985940477,-0.0483872069832347,-0.012162581156729,-0.800063807849803,-0.000301286168628307,0
0.43,0.000865699957333077,0.0004991008452721,-0.0431861184298645,-0.0249840346141012,0.000968757688225775,0.000245044100890571,-0.0483871460853888,-0.0121625204767817,-0.800063831065183,-0.000300386540424813,0
0.44,0.000865694718643607,0.000499100841536095,-0.0431860389052049,-0.0249840347121019,0.000968753931666343,0.000245040437051671,-0.0483870893151647,-0.0121624641591931,-0.800063848540101,-0.000299709353698924,0
0.45,0.000865690998804426,0.000499100838724049,-0.0431859739822036,-0.0249840141643258,0.000968751264315731,0.000245037834859692,-0.0483870285845169,-0.0121624330343869,-0.800063861693951,-0.000299199607712791,0
0.46,0.000865688030213727,0.000499100836607153,-0.0431859004691877,-0.024984014251985,0.000968749135598372,0.000245035758685728,-0.0483869760277247,-0.0121623812787779,-0.800063871594935,-0.000298815901180771,0
0.47,0.000865685701907296,0.000499100835013902,-0.0431858242443063,-0.0249840143369224,0.000968747465986159,0.000245034130568984,-0.0483869214937638,-0.0121623277543404,-0.800063879047562,-0.000298527069672092,0
0.48,0.000865684072092794,0.000499100833814714,-0.0431857567674932,-0.0249840144191124,0.000968746297295337,0.000245032990567147,-0.0483868732113401,-0.0121622804154977,-0.800063884657002,-0.000298309654452304,0
0.49,0.000865682791524257,0.000499100832912051,-0.0431856871018464,-0.0249840145001817,0.000968745379020452,0.000245032095002377,-0.0483868233409938,-0.0121622316197039,-0.800063888879305,-0.000298145997175598,0
0.5,0.000865681801994024,0.000499100832232478,-0.0431856171212245,-0.0249840145837884,0.000968744669436155,0.000245031403044197,-0.048386773233751,-0.0121621826531881,-0.800063892057342,-0.000298022805688221,0
0.51,3.73352982858694,-0.0657482345994195,7.80873496732689,3.31071959060797,-1.70938825093781,3.31987343416238,-0.482182498026098,8.46786313282084,0.457884573390876,135.866905251622,634.216217574913
0.52,2.82260502982386,-0.0107891536141802,8.02891303517003,0.571934393878274,-2.64386420946278,-0.988533055666033,-7.72937439801903,-2.24662522296713,1.9247772943927,261.11552763357,634.216217574913
0.53,2.13599275187318,0.0158100164221137,6.53526004987557,-0.765405700289601,1.87409383569772,-1.02493282105405,6.11913349833073,-2.41902357060491,-2.06385106442332,357.423205823677,634.216217574913
0.54,1.57509260422021,-0.0139059705427057,8.52298044605664,0.709850773908402,-1.16606150928376,1.05896678156249,-5.77674635908631,6.30668576257492,0.824664457081723,429.280519392919,634.216217574913
0.55,1.2275408746078,-0.00497954889568208,6.46188992040032,0.28080583297661,1.05599918529013,-0.625897048568428,5.40126734491222,-3.55825579856055,-2.10989182786334,482.075784386594,634.216217574913
0.56,0.867038458826522,0.0119238298751256,9.44963939923421,-0.570567365115963,-0.867120026961776,0.000851847973355467,-9.44158358660381,-0.691181069523967,1.58356543821274,522.6904688719,634.216217574913
0.57,0.661007928580041,0.00558570567878278,8.40099035679202,-0.258350717369095,0.453353986324575,0.481074676986041,5.52025802857578,6.33799142994232,-0.747290852136638,553.525581082132,634.216217574913
0.58,0.487617614932615,0.00645333917028285,8.42154589677934,-0.30614622821484,0.118992116108499,-0.472920141549332,2.45868307349985,-8.06046142281547,-2.88186426718922,576.974354757067,634.216217574913
0.59,0.335585941150932,-0.00243221116609112,9.51490175821288,0.135708706944321,-0.331929267862615,0.049465146168806,-9.3795900469372,1.6047002439645,1.41561433889073,594.548679201917,634.216217574913
0.6,0.331185144833149,-0.0384457962979633,4.85529542025583,1.93971868768218,0.111953446780161,0.314051118713467,3.88662186745352,3.4972235651632,-0.458005603026408,607.755720150525,634.216217574913
0.61,0.243227150596107,0.0108419168737291,5.61176162794428,-0.527621787603449,0.18273557570682,-0.160887237901877,4.70354767359558,-3.10594471970049,-2.24815185240736,617.501382687123,634.216217574913
0.62,0.135909747282381,0.0410003282673142,8.17873895742373,-2.03766808203574,-0.128236227056812,-0.0608929913423704,-4.69158665409282,-7.00234795003547,2.30711352182684,624.944124168063,634.216217574913
0.63,0.102685427601533,0.0462114586408059,7.69422020367533,-2.29760266494696,-0.0228334280938529,0.110265273376995,-6.37525615097503,4.88222403808675,0.62706959403763,630.672663296453,634.216217574913
0.64,0.0517930940287993,-0.0637863127907585,8.57330991559093,3.20838330151121,0.0104636190348022,0.081496815675283,8.97833345304508,1.78462733480057,-1.01648854137666,634.967505188849,634.216217574913
0.65,0.0448846299919349,-0.0158027273302642,7.67597050967266,0.797270360117593,0.0356683500028631,-0.031498015948006,3.04352656061693,-7.09176348782908,-2.63270607907948,638.178413099293,634.216217574913
0.66,0.0868952848256868,-0.0299865928770481,4.61616535760062,1.48789718055361,-0.0629487623674772,-0.0669883541648394,-4.77815633908761,-0.831890995172026,2.05498036395394,640.653734615822,634.216217574913
0.67,-0.00206126811180076,0.0293999826560386,8.28349729630025,-1.48731394790901,0.0270834122222108,0.0116231058158265,-5.11359460482114,6.68427860393344,0.475385227226977,642.535031534617,634.216217574913
0.68,-0.0200357197913289,-0.00687318180912369,8.71828744700537,0.330140036591189,-0.0209545646757725,-0.0030946591067167,7.89635432991012,3.71013702562068,-1.09370523336805,643.588240084037,634.216217574913
0.69,0.0346929844778286,0.0334806207351781,5.63614890585699,-1.68494564802736,-0.0134349391951682,-0.0463039690049765,4.11918942495689,-4.19970175216319,-2.6563687373862,644.423421951773,634.216217574913
0.7,-0.0179578622090953,0.0509783197167956,7.87276372139414,-2.55704803460066,-0.00869691516520381,0.0533445176459393,-5.6812678557513,-6.02014109596792,2.07109838416804,645.273205890271,634.216217574913
0.71,-0.0353734552404638,0.03695027254806,8.5721349744171,-1.84953383185104,0.0496349341338901,-0.0123683988676548,-5.8603782356889,6.52366770685404,0.519385712011131,645.536129879384,634.216217574913
0.72,-0.0504419058164606,-0.00572149792697193,9.26334985611904,0.291703202737152,-0.0462290899892629,-0.0209760015181554,8.10016803288019,4.50355627859292,-1.03189156570812,645.545534929865,634.216217574913
0.73,-0.0283407381696151,0.0312812388347515,8.0988846218005,-1.55587986307326,-0.0415458461351843,0.00746029570104538,5.61084966977467,-6.04409300464039,-2.58314789363223,645.562430962792,634.216217574913
0.74,-0.0326979810104816,0.0254900114925174,8.19933377787958,-1.26329675475175,0.0134377446929028,0.0392214949437021,-6.17406986791704,-5.54128634503959,2.14936273769116,645.71064645063,634.216217574913
0.75,-0.0372190671385508,0.00605096346493218,8.28119566698629,-0.289881081427677,0.026012173596362,-0.0272990831771073,-4.91580707049797,6.6706126826495,0.600096402387763,645.894937937253,634.216217574913
0.76,-0.0443147868714449,-0.044732018550013,8.50597719912111,2.2340307300536,-0.062090562214104,0.0104649846133079,8.21112945171009,3.14958640809411,-0.947687268249142,646.033681465241,634.216217574913
0.77,-0.0385836184845986,0.0203249944180338,8.19113920434231,-1.03431260062259,-0.0394613634186525,0.0185634536280079,5.75842517346237,-5.91651109543075,-2.4953416440287,645.975868947356,634.216217574913
0.78,-0.0254144198278124,0.0679680860084338,7.52347024311787,-3.41807577545168,-0.022206863122837,0.0690826221352211,-3.78299298250436,-7.34675510685721,2.23963817911932,645.832183859335,634.216217574913
0.79,0.0115243268912431,-0.0384109967063734,5.65393740954682,1.91148431020333,-0.0369472398464553,-0.0155921854145517,-2.12928141521143,5.57556644243988,0.690818566552114,645.724556245136,634.216217574913
0.8,0.0207407679029957,0.0163612126159779,5.15716698023147,-0.825506849331219,0.0263913794791938,0.00116782732300528,3.36443481840093,3.99479801404452,-0.858673979541916,645.682929830415,634.216217574913
0.81,-0.00356947614963955,-0.0366081774629086,6.33439724218415,1.83117323083892,0.024826678271222,0.0271391942245139,2.87553803848991,-5.93372267740318,-2.40892080064102,645.684801398836,634.216217574913
0.82,0.0201301836169552,0.0144456946090053,5.10200529385769,-0.718504311299392,-0.0245658336217239,-0.0032283437950061,-3.23082609419092,-4.01353574956082,2.32391320804688,645.614025973912,634.216217574913
0.83,0.0244035843958838,-0.0109769386037131,4.84220631616009,0.559216093429003,-0.0248963460206319,0.00980816329888915,-2.98022562454939,3.85719326378519,0.772813081154353,645.580519582107,634.216217574913
0.84,-0.0185360791701966,-0.00548524315897226,7.00514706857318,0.286796533557008,-0.0169282672665302,-0.00933316081880993,5.1267168512784,4.78237514534544,-0.77921628404428,645.345007631639,634.216217574913
0.85,-0.042831746777683,-0.0147700141632813,8.18203938759633,0.752582864978414,-0.0208193885057069,0.0402400908629631,5.40428946945092,-6.18916834794617,-2.33206971739453,645.271180855348,634.216217574913
0.86,0.0313100934356948,0.0227530521930274,4.5252719751141,-1.12795966785533,-0.0379530176786598,-0.00758892509739714,-2.23894548535391,-4.09114929752933,2.39657110529869,645.028075898119,634.216217574913
0.87,-0.052606597920377,-0.0219984742079014,8.76111150886643,1.08479196992719,0.0245273420338817,-0.0514761741486768,-5.80467170449252,6.65128821296102,0.840725736345163,644.800637289855,634.216217574913
0.88,-0.00324285618386669,-0.0182359332778745,6.30659971011308,0.897240713635459,-0.0158784911377931,0.00953618885778581,4.81984143435083,4.16501732883771,-0.716828652943535,644.512809260027,634.216217574913
0.89,-0.00901058454179934,-0.00898003217718811,6.6576666958574,0.435853149773829,-0.00104157885715547,0.0126785931858615,4.78751390016085,-4.64695647247348,-2.27592424204333,644.208434625191,634.216217574913
0.9,0.00629513145144845,0.0418927845950518,5.88436454195091,-2.10671336780859,-0.0362051866691046,0.0219958755082337,-2.15073459032702,-5.86841784458498,2.44650025929144,644.150381773961,634.216217574913
0.91,0.0275346972127079,-0.00303838437910949,4.87186621185907,0.148117318599089,-0.0232347898658918,0.0150842921649832,-3.67684205790101,3.1996642960744,0.885072793376157,643.927452435936,634.216217574913
0.92,0.0154483180558106,-0.00553832332276565,5.43827437157032,0.278377757517722,-0.00737394657225275,0.0146611209643238,-0.384317755022001,5.43181573504974,0.121779361639644,643.858590650958,634.216217574913
0.93,-0.0143095484365451,0.0434536783703978,6.98644279472934,-2.16966524466911,-0.00864879512339587,-0.0449241993060459,6.65254570890432,3.04326564546859,-1.44286768322979,643.586624139429,634.216217574913
0.94,-0.0449611616409038,-0.0216913467994439,8.5344843747944,1.09522173037202,0.0155617574267603,0.0474326078543432,0.0418045154977251,-8.60437020151811,-3.00910275881248,643.435110964646,634.216217574913
0.95,0.017371238035965,-0.00437848659891087,5.40882398263591,0.232813307179573,-0.0166191725900881,-0.00668835990507854,-5.39059358280609,-0.501078572827682,1.70650091761652,643.292863040853,634.216217574913
0.96,-0.0348253317892042,-0.000675867161336908,8.03667260445589,0.0470256068565915,0.0041087530650728,-0.0345887073898142,-1.05609509750799,7.96711874543938,0.137639713836439,643.104799203724,634.216217574913
