t,iq,id,vq,vd,ia,ib,va,vb,theta_e,omega,r
0,0,0,0,0,0,0,0,0,0,0,0
0.01,0.000474038042156483,0.000267635205785434,-0.0227617033010351,-0.0133884248088672,-1.55175317247849e-06,-0.000544369599490507,0.000543304516447197,0.0264017021464422,-2.63047058965147,-0.00316534939246778,0
0.02,0.000591161379256647,0.000331231527673436,-0.0284586357026693,-0.0165698343644879,2.53938652320989e-07,-0.000677632670969058,0.00053227567351065,0.0329267374565291,-2.63049633603096,-0.00377195484768941,0
0.03,0.000637063909568685,0.000356298644791696,-0.0306884685679204,-0.0178238065563703,8.22352677642122e-07,-0.000729930457572097,0.000536301737686824,0.0354849625003226,-2.63052415150114,-0.00386847421161592,0
0.04,0.000628853931942057,0.00035177566144232,-0.0303412851372741,-0.0175975452791709,7.32610241420796e-07,-0.00072055731693211,0.000509697386811146,0.0350714612214507,-2.63055081386066,-0.00359915163037506,0
0.05,0.000643593998891251,0.000360587758672703,-0.0310845396778539,-0.0180383785285826,2.36648957093984e-07,-0.000737724007411109,0.000531612924091911,0.0359353460345583,-2.63057643563673,-0.00349717709328036,0
0.06,0.000646005801800359,0.000362427312390091,-0.0312392946682703,-0.0181304036141686,-2.06530884790058e-07,-0.000740727352047312,0.000537081889606173,0.0361153237508337,-2.63060095016326,-0.00331858121629979,0
0.07,0.000654918499219564,0.000368148256728543,-0.0317006680288234,-0.0184165843380579,-8.55171584341642e-07,-0.000751299306690637,0.000561912843052889,0.0366577029573769,-2.63062381453736,-0.0031981866108604,0
0.08,0.000646948269133996,0.000364003304545247,-0.0313573473137022,-0.0182092354890769,-1.15365054229798e-06,-0.000742320104635298,0.000549739983958521,0.0362568238211628,-2.63064587876767,-0.0029671591592407,0
0.09,0.000644463166122694,0.000363134956235228,-0.031272646199841,-0.0181658047054661,-1.62665937135365e-06,-0.000739727735662343,0.000554019730386096,0.0361616913746565,-2.63066646706938,-0.00278590643128574,0
0.1,0.000643237642989187,0.00036295160091448,-0.0312458412768275,-0.0181566315886094,-2.08026405837923e-06,-0.000738569023494836,0.000559824003333986,0.0361338133169816,-2.63068580336872,-0.00262335761889418,0
0.11,0.000642331394495429,0.000362911531372633,-0.0312323546147412,-0.0181546196957428,-2.5018569945204e-06,-0.000737758863497587,0.000565320565380218,0.0361210548535941,-2.63070399182288,-0.00247216624229597,0
0.12,0.00064153329858593,0.000362901513273751,-0.0312222602843422,-0.0181541189039745,-2.89596392425426e-06,-0.000737057728352313,0.000570437425048328,0.0361119948436383,-2.63072110680201,-0.00233027738022692,0
0.13,0.000664904716129544,0.00037657245157264,-0.0323614884731561,-0.0188380046974626,-3.40689270430632e-06,-0.000764129233766671,0.00061061350354992,0.0374401323225375,-2.63073770174046,-0.00236004011451315,0
0.14,0.00067826370176621,0.000384632565132607,-0.033106879391817,-0.019241219972889,-3.91885144759938e-06,-0.000779723349591009,0.000598520131071843,0.0382874885930394,-2.6307536353647,-0.00232568032935118,0
0.15,0.000647833947301947,0.000367437064667086,-0.031599773463864,-0.0183810059896951,-3.80729967112731e-06,-0.000744771323452508,0.000585517826189163,0.0365522124232713,-2.63076879137385,-0.00199403293952847,0
0.16,0.00064061759975886,0.000363841558746792,-0.0312783510320175,-0.0182011496975143,-4.20878696231526e-06,-0.000736718314625342,0.000586252689419069,0.0361838831716219,-2.6307823026489,-0.00183637345707665,0
0.17,0.000638580218260997,0.000363088817670231,-0.0312018170092878,-0.0181634959478299,-4.55739591150104e-06,-0.000734572947238009,0.000591274757847302,0.0360987030776543,-2.6307948510734,-0.00172227814069261,0
0.18,0.000637717912234364,0.000362930346044633,-0.0311799352826078,-0.0181555673058018,-4.84934860134898e-06,-0.000733743180876508,0.000595480250614615,0.0360757313397004,-2.63080662319513,-0.00162251120793474,0
0.19,0.000637140482611831,0.000362896155846689,-0.0311704635222209,-0.0181538492715128,-5.10992349971588e-06,-0.000733222683223159,0.000599011170131454,0.0360666220372933,-2.63081769355863,-0.00153031000126279,0
0.2,0.000636649028938661,0.00036288800557974,-0.0311640143667967,-0.0181534470115028,-5.35069529556764e-06,-0.000732789915802637,0.000602188565644628,0.0360607930970016,-2.63082810990131,-0.00144391534068503,0
0.21,0.000636198088175887,0.000362885357013239,-0.0311584897248937,-0.0181533153239604,-5.57600374590818e-06,-0.000732395178790457,0.000605127805032286,0.0360559032549043,-2.63083791217256,-0.00136269365515601,0
0.22,0.000635776251323228,0.000362883913787519,-0.03115340603936,-0.0181532403555807,-5.78770638661195e-06,-0.000732026419664718,0.000607880055279932,0.0360514261174105,-2.63084713686497,-0.0012862754979352,0
0.23,0.000635379851233288,0.000362882774643498,-0.0311486447385427,-0.0181531770071175,-5.98683585497175e-06,-0.000731679999236445,0.000610465180999066,0.0360472361875702,-2.63085581807562,-0.00121436351946507,0
0.24,0.000635006910309648,0.000362881748158011,-0.0311441639832044,-0.0181531302335165,-6.17421640540674e-06,-0.000731354099146917,0.000612909125309841,0.0360432993757765,-2.63086398783856,-0.00114668905790017,0
0.25,0.000634655971885144,0.000362880791453816,-0.0311399436093363,-0.0181530863336777,-6.35054569337999e-06,-0.000731047428027088,0.000615210890063242,0.0360395913821362,-2.63087167628875,-0.00108300175808788,0
0.26,0.000638708304231795,0.000365405705802299,-0.0313443049687393,-0.0182793928384069,-6.57767829587434e-06,-0.00073581679912582,0.000625764081083521,0.0362796096427313,-2.63087877385005,-0.00105453968244565,0
0.27,0.000628504416940961,0.000359612537422396,-0.0308702947547953,-0.0179895897180549,-6.51657382811017e-06,-0.000724083222738391,0.000604892377337842,0.035724425001443,-2.63088591322372,-0.000926940211774093,0
0.28,0.000627759213361998,0.000359379886120493,-0.0307641398047586,-0.0179779458416244,-6.68250067893336e-06,-0.000723319346273504,0.000646850734142609,0.0356261198945219,-2.6308923290521,-0.000870658965312355,0
0.29,0.000632124033245471,0.000362146267055434,-0.0310624551094665,-0.0181163407638808,-6.9666999322477e-06,-0.000728479359515945,0.000621984744344302,0.0359540130594413,-2.63089819728095,-0.000854157397597017,0
0.3,0.000623375475080976,0.000357506439479838,-0.0306537260261082,-0.017884232176211,-7.19840591214513e-06,-0.000718579167631728,0.000619438200461548,0.0354839819655592,-2.63090288387953,-0.000756185936138616,0
0.31,0.000630809254635368,0.000361753726973924,-0.0310158207214787,-0.0180967050293623,-7.27403856287532e-06,-0.000727140401212956,0.000628001621884337,0.0359037251815124,-2.630908031637,-0.000766693366153376,0
0.32,0.00063228111122777,0.000362641012228077,-0.0310940143755176,-0.0181410926427871,-7.33238125500969e-06,-0.00072885810933978,0.000628688098040741,0.0359936344863152,-2.63091307000027,-0.000736753038915137,0
0.33,0.000632440439288224,0.000362826010796559,-0.03110933141445,-0.0181503462417377,-7.41938987709143e-06,-0.00072908749544309,0.000629446840426696,0.0360115171358293,-2.63091785456071,-0.000699737713299854,0
0.34,0.000632318320170695,0.000362864242984285,-0.031110809506549,-0.0181522577051885,-7.51572130296266e-06,-0.000728999609597525,0.000630554490709957,0.0360137380590047,-2.63092236679326,-0.00066294155003641,0
0.35,0.000632143054680139,0.000362871823368152,-0.0311093274871509,-0.0181526329409164,-7.61109422739317e-06,-0.00072885037766302,0.00063175920802612,0.0360126258372466,-2.63092661531144,-0.00062787787634334,0
0.36,0.000631964530458411,0.000362873020992974,-0.031107281627982,-0.0181527031737035,-7.7023081025753e-06,-0.000728695184265671,0.000632964407752085,0.0360108727866139,-2.63093061400365,-0.000594783331652226,0
0.37,0.000631793746245513,0.000362872907216814,-0.0311052197297067,-0.0181526899311575,-7.78842214629356e-06,-0.000728546103597702,0.00063409612760827,0.0360090650846566,-2.63093437722212,-0.000563617073823114,0
0.38,0.000631632218509308,0.000362872540733851,-0.0311032357690244,-0.0181526786244324,-7.86962903785612e-06,-0.000728404976106312,0.000635183448658297,0.0360073264563199,-2.63093791875802,-0.000534282181332122,0
0.39,0.000631480293547842,0.000362872141579462,-0.0311013683632506,-0.0181526493147712,-7.94596116681121e-06,-0.000728272211453155,0.000636190573239921,0.0360056808401978,-2.63094125165348,-0.000506674463406624,0
0.4,0.000631337101218859,0.000362871754563357,-0.0310995950814367,-0.0181526350288911,-8.01789201640093e-06,-0.000728147072398794,0.000637157722123716,0.0360041248020082,-2.63094438819645,-0.000480692987153643,0
0.41,0.000631202290790067,0.000362871387938371,-0.0310979186439515,-0.018152619254132,-8.08560877036437e-06,-0.000728029256976504,0.000638069577834808,0.0360026526381759,-2.6309473399541,-0.000456242126796819,0
0.42,0.000631075454813449,0.000362871042380932,-0.0310963375700153,-0.0181526049022597,-8.14931920846326e-06,-0.00072791841003169,0.000638929797870367,0.0360012644738943,-2.63095011781251,-0.000433231748380037,0
0.43,0.000630956300763543,0.000362870717045997,-0.0310948551234838,-0.0181525754766049,-8.20917313312065e-06,-0.000727814275924264,0.000639722765074638,0.0359999550884182,-2.63095273201626,-0.000411576996597544,0
0.44,0.000630844016698814,0.000362870410827687,-0.0310934475047794,-0.0181525596128583,-8.26557352311331e-06,-0.000727716145728045,0.000640485442190891,0.0359987177081238,-2.63095519220756,-0.0003911980083074,0
0.45,0.000630738136964126,0.000362870122619946,-0.0310921073183556,-0.0181525602149722,-8.31875368516137e-06,-0.000727623612624217,0.000641224304870455,0.035997547294853,-2.63095750745939,-0.000372019623859915,0
0.46,0.000630638774999901,0.000362869851368551,-0.0310908550762896,-0.0181525442950032,-8.36866354932153e-06,-0.000727536775040278,0.000641900856751774,0.0359964456168522,-2.63095968631069,-0.000353971111202025,0
0.47,0.000630545175596812,0.000362869596077381,-0.0310896670389291,-0.0181525298062926,-8.41567725708278e-06,-0.000727454973590861,0.00064254265337697,0.0359954007325715,-2.63096173679769,-0.000336985905297819,0
0.48,0.000630457164129008,0.000362869355808992,-0.0310885477217482,-0.018152515294093,-8.45988489804757e-06,-0.000727378055439079,0.000643146491698183,0.0359944158660745,-2.63096366648286,-0.000321001362695469,0
0.49,0.00063037427493228,0.000362869129680052,-0.0310874862235353,-0.0181524993052026,-8.50151851484939e-06,-0.000727305613861256,0.000643716688415742,0.0359934807923453,-2.63096548248238,-0.000305958530504471,0
0.5,0.000630296160251728,0.000362868916859319,-0.0310864767647171,-0.0181524997779143,-8.54075225866662e-06,-0.000727237345026769,0.00064427195989613,0.0359925992319555,-2.63096719149484,-0.000291801928970006,0
0.51,2.85864577848492,-0.0240384700764896,1.573289027876,1.20504512633002,-0.284476499959082,2.8445573743316,1.05663962620975,1.67656936094218,0.0912670362700556,27.9979634098373,503.730808500607
0.52,2.74501066253378,-0.00244611247156273,0.720332686388261,0.127140578450599,-1.0915630015661,2.51864640918537,-0.169152565802997,0.711639877501496,0.408066708548044,58.2091722458247,503.730808500607
0.53,2.58025857365606,-0.0160055523998329,2.59049036024925,0.807741625152566,-2.09636282032517,1.50441131682513,-1.62022248539429,2.1766869176276,0.942133363903663,87.3614333098278,503.730808500607
0.54,2.45985276859395,-0.0171336484561491,2.25100029182405,0.866328296241927,-2.44104397058788,-0.30409462133565,-2.33672343343761,0.597704463999497,1.68776826876906,116.04057943486,503.730808500607
0.55,2.33208039403653,-0.010503524610606,1.99817780051615,0.535193831276726,-1.1020256254351,-2.05529774221722,-1.42267782717187,-1.50171061113176,2.64491170849496,145.220334571267,503.730808500607
0.56,2.19499548096374,-0.0299215502435157,2.43116020111794,1.50632672904794,1.38846985468933,-1.70030936103969,0.332290135651954,-2.84062377021183,-2.47044324904923,172.689215238995,503.730808500607
0.57,2.0992989961238,0.0328526878780029,1.76114346147326,-1.6322563826456,1.89975926559241,0.893896138834363,0.863656596663099,2.24053218535633,-1.11535229910062,196.568038288512,503.730808500607
0.58,1.99015766085513,0.00926391395049508,2.14504791074919,-0.449622832912148,-0.780701652731511,1.83066060879245,-1.26338724163189,1.79087797154557,0.40776059655873,218.986399647126,503.730808500607
0.59,1.86920738486651,-0.0106132837787652,2.72026396540005,0.541490082512302,-1.60977680150705,-0.950088174203738,-2.62306280096383,-0.901437237478544,2.09829991770915,242.444599824933,503.730808500607
0.6,1.8009582571673,0.0213288304948819,1.1359267421154,-1.05457341235247,1.29356527822202,-1.25323359117435,1.54991623878573,-0.0146389289889137,-2.32851709422733,263.423733301243,503.730808500607
0.61,1.69673890467143,-0.0234560961932945,1.88781446240414,1.18922385577411,0.523276846540737,1.61420396510126,1.73300770099926,1.40526906031611,-0.327304546017762,282.622506526236,503.730808500607
0.62,1.57455060330091,0.0281128796620642,3.17952241317035,-1.39587097819319,-1.53342979103334,-0.358598678650124,-2.74050700117676,-2.13247272904386,1.81837462381478,302.580199070726,503.730808500607
0.63,1.53177942057148,0.0433908563399319,1.21055374429104,-2.15597122893624,1.22867542656361,-0.915744317950679,2.22964189565397,1.06880743118789,-2.18296967686839,319.696265192731,503.730808500607
0.64,1.39303905560441,-0.0312907903545366,3.93321854202144,1.57541029130026,-0.339389976540269,1.3514256797265,0.664084264020378,4.1846287500227,0.223587923454461,337.175417513363,503.730808500607
0.65,1.37631707994791,0.0132510334738413,0.8816504856078,-0.648946414053506,-0.532090380603959,-1.26937154581045,0.267890060857138,-1.06144898246658,2.75429270887639,352.834101000419,503.730808500607
0.66,1.30521431149279,0.00210365401547842,0.688490851783848,-0.0952639756946783,1.01330949802965,0.822674106489754,0.473648678592769,0.50867652523242,-0.887248519705868,368.188921502518,503.730808500607
0.67,1.18329814775525,0.0198730325706649,3.2144975904324,-0.981063598725895,-1.1382352723934,-0.324052323836864,-2.79199131727765,-1.87089952372833,1.8649483836744,382.244792392554,503.730808500607
0.68,1.14044692889403,-0.0147757634237031,1.91974034203324,0.747902257029429,1.1403756866945,0.0195144562985267,1.92283147554069,-0.739918835798648,-1.5666410838363,395.995948892536,503.730808500607
0.69,1.06374756586304,-0.0516291236036179,2.57833949324905,2.59687994106355,-1.05461124149847,0.148389957843109,-2.04670138147514,3.03358425395006,1.38251111318292,408.312508847599,503.730808500607
0.7,0.984284923293773,0.0352106414042579,3.35617191705035,-1.75396825758375,0.932683445245221,-0.316477788252245,3.71856729263809,0.715927283689519,-1.86216725904947,420.696933683642,503.730808500607
0.71,0.947322383644006,0.00992628107650764,2.36382012628039,-0.482130405860022,-0.899478565652428,0.29741644127523,-2.39852047511058,0.259219690876909,1.26193671823975,431.598893297409,503.730808500607
0.72,0.918257850259402,-0.0168908753855437,0.9151781066256,0.854565714576288,0.894812838969141,-0.206864120741838,0.679955691917475,-1.05142464513874,-1.81637891226862,442.465834649422,503.730808500607
0.73,0.858232961571119,0.0056993250822393,1.28386013443553,-0.27847531031635,-0.852639084468596,0.0979943379490965,-1.30636743786241,-0.138742425167686,1.46300844509086,452.425251215257,503.730808500607
0.74,0.813178093712442,-0.0181657410991282,0.990213535263356,0.921011127735651,0.807097247507402,0.100909064555455,1.0788849384,-0.815347553209838,-1.46875008149136,461.677300683132,503.730808500607
0.75,0.713037408421841,-0.00887352137086367,3.49280978047723,0.449522795084817,-0.659349691653761,-0.271586209713499,-3.41189248059649,-0.872227382479681,1.94907510223881,470.751805986265,503.730808500607
0.76,0.700005172258561,-0.00702453779663568,1.89700242975292,0.36341319579217,0.523041877202756,0.465278174871991,1.6687477683187,0.972608993941401,-0.853812744728235,478.864994964358,503.730808500607
0.77,0.666715536066844,0.00711798023684634,1.35842707763486,-0.345927692828754,-0.29997440568736,-0.595462532497274,-0.287590074739665,-1.3719628430933,2.68561172691085,486.533167090402,503.730808500607
0.78,0.605105071617235,0.0184982329625994,2.31695708852117,-0.921325194237342,0.0208108348522728,0.605029950888705,-0.912462957534526,2.32046150899176,-0.00382205131070702,493.922632913829,503.730808500607
0.79,0.579339401712136,0.0190206340368382,1.65993286131652,-0.94344635006853,0.260801162737956,-0.517666572621672,1.62326781362832,-1.00522123175668,-2.64208872061267,500.616164612587,503.730808500607
0.8,0.553802891292161,0.0428602709018413,1.04445487641553,-2.13471354328472,-0.459490241153446,0.312095119330764,-1.96630043870824,-1.33474734893431,1.05139167805415,506.876128899281,503.730808500607
0.81,0.49382347604659,0.0130705053091404,2.21390991806815,-0.650135783798225,0.493365874642187,0.0249514998010701,2.15734494099799,0.818496468071695,-1.49380355794665,512.892597045276,503.730808500607
0.82,0.483974794926738,0.00167998005454462,1.01485322822009,-0.0829205500952832,-0.366560357146871,-0.316018874477016,-0.711974224724335,-0.727939280287185,2.28575570866687,518.412098348872,503.730808500607
0.83,0.41674046614888,-0.0330865867218798,2.77323651135726,1.66461074493826,0.0414454767907019,0.415992320602775,2.13063371325389,2.43355083366566,-0.178530245906901,523.420218120203,503.730808500607
0.84,0.403001048125212,-0.00780279629169625,1.90809790263976,0.395709619177208,0.212160900798412,-0.342722162388713,0.632312841970661,-1.84325911869346,-2.60664538911721,528.192078913565,503.730808500607
0.85,0.350300455752751,0.0380512463660502,3.07725847048373,-1.90370891468352,-0.324885622726102,0.136409819281705,-3.49248847013719,-0.946652846595909,1.28147897036936,532.655073743716,503.730808500607
0.86,0.300351026919608,-0.031798987962778,4.21322669657838,1.59376212708419,0.250332288722039,0.168984201126336,4.46850955998775,0.569016016283152,-1.08249928277865,536.664935125306,503.730808500607
0.87,0.323212878099177,0.037540208395327,1.77409388830369,-1.8706908560737,-0.124260909870036,-0.300724222658882,1.31596987049434,-2.21700624795362,2.8653832080813,540.372540460678,503.730808500607
0.88,0.313355812708517,-0.0309988909180348,0.989435136492717,1.55409298450114,-0.191937590573294,0.249625234944871,0.796317950311586,1.6613442195444,0.556884956636997,543.937298539536,503.730808500607
0.89,0.25257422951902,-0.0272654800966858,2.84146539422708,1.36230124651983,0.253738415300939,-0.0124082401088047,2.59459319928401,-1.78826072011011,-1.72719304954378,547.177114904708,503.730808500607
0.9,0.236869872022897,-0.0137794210931267,2.53010495671218,0.691768758902903,-0.168402406081195,-0.167146158627322,-2.3542016702824,-1.15659396652982,2.29434317596359,550.052161582814,503.730808500607
0.91,0.213928833256313,0.0621872688190707,2.60824668088484,-3.10527341924519,0.0506342593331538,0.216953851967108,-3.24057818241465,2.43809901363248,0.0536120042224075,552.755010305001,503.730808500607
0.92,0.238056771052717,-0.0259871604359886,0.407657932288719,1.30279080512889,0.211399255758796,-0.112502059608697,-0.39627133799043,-1.30629931423605,-2.16858699868943,555.177331903773,503.730808500607
0.93,0.187836880500682,-0.0132475506030719,1.94508881649336,0.660470789207335,-0.172750726911053,-0.0749358233751474,-2.0540280234316,-0.0236864180784933,1.9096699094292,557.499210587079,503.730808500607
0.94,0.15399901978735,-0.0386128523040906,2.73629226673503,1.92790301053674,0.00534694733239049,0.158675961042455,2.60765690468001,2.09862594439915,-0.279354274681398,559.536442191928,503.730808500607
0.95,0.155971847768999,-0.0257140300839766,1.78294508797497,1.29224937434744,0.118857321397325,-0.104217876537033,0.132853851195559,-2.19798805421184,-2.45405637011683,561.393241442235,503.730808500607
0.96,0.142935100935717,-0.00847172964509513,1.60813430703004,0.426484437669946,-0.141446045335887,-0.022253753425468,-1.64183876223502,0.268980303822044,1.66764697440433,563.083918177037,503.730808500607
