t,iq,id,vq,vd,ia,ib,va,vb,theta_e,omega,r
0,0,0,0,0,0,0,0,0,0,0,0
0.01,0.00107204654048289,0.000613233679268202,-0.053197787762522,-0.0307245324303906,-0.000577601640866566,0.00109165730649247,0.0285046881311112,-0.0544195210419988,1.00625279264901,-0.000879321098939091,0
0.02,0.00120095175283483,0.000687474923155162,-0.0596679091824136,-0.0344441999463131,-0.000646775752695818,0.00122335113860617,0.0319803288021732,-0.0610239368268489,1.00624629907567,-0.000953863976442848,0
0.03,0.00123042404744021,0.000704349594409558,-0.0611338199682826,-0.0352896628027721,-0.000662637934274029,0.00125338049120174,0.0327660051001842,-0.0625227410981193,1.0062396541581,-0.000943244983992269,0
0.04,0.00121468603890742,0.000695626220260841,-0.0603669401406961,-0.034852587974885,-0.000654001808813087,0.00123759429761946,0.0323515983981018,-0.0617433756089301,1.00623350167479,-0.000896912953902468,0
0.05,0.00122992179652992,0.000704387468513285,-0.0611292137159821,-0.0352915376396282,-0.000662177920175246,0.00125315191952545,0.0327603404047203,-0.0625222639950791,1.00622733692061,-0.000876790776766453,0
0.06,0.00122972801886377,0.000704432005710287,-0.0611293774941985,-0.0352937805915258,-0.000661982935741543,0.00125308979879123,0.0327589070644135,-0.062524441214745,1.00622139350777,-0.00084476602854126,0
0.07,0.00126227278612274,0.000723128101124984,-0.0627453455399145,-0.0362305048300221,-0.000679466504884504,0.00128630171653571,0.033622537915098,-0.064180626448402,1.00621571650653,-0.000841942204681862,0
0.08,0.00122938295592468,0.000704528062151671,-0.0611306479056812,-0.0352985983611568,-0.000661625982615559,0.00125299373574064,0.0327567017572387,-0.0625295582074425,1.0062101861184,-0.000784394885574382,0
0.09,0.0012289485450086,0.000704424114218824,-0.0611178392663617,-0.035293385611174,-0.000661307995275498,0.0012526769712725,0.0327483400829757,-0.0625184738001306,1.00620490810822,-0.000755732776799132,0
0.1,0.00122870715278268,0.000704420884577376,-0.0611142228983768,-0.0352932103979181,-0.000661099439370417,0.00125254843466918,0.0327450615588611,-0.0625165568803225,1.00619983518051,-0.00072833395873507,0
0.11,0.00122847601776525,0.000704418305999058,-0.0611107895268213,-0.0352930965297293,-0.000660899448340498,0.0012524258042831,0.0327419171360956,-0.0625147832236607,1.00619495916312,-0.000701999495384339,0
0.12,0.00122825384672166,0.000704415830171745,-0.0611074878889741,-0.0352929797824853,-0.00066070721331985,0.00125230793020336,0.0327388973920573,-0.0625130713977515,1.00619027241119,-0.000676687225276887,0
0.13,0.001284026005467,0.000736365464920846,-0.0638686354398266,-0.0368937141887385,-0.000690721606191317,0.00130914496652744,0.0342146786082652,-0.0653429759600748,1.00618554519061,-0.000698658614556985,0
0.14,0.00139354819436447,0.000799652222728324,-0.0693889824584675,-0.0400645379379456,-0.00074937532671653,0.00142121668546331,0.0371812662831736,-0.0709757108057561,1.00618106722812,-0.000767563770733246,0
0.15,0.00122854986126367,0.000704926747104478,-0.0611442554241354,-0.0353185555242835,-0.000660666933608384,0.00125290689328089,0.0327554261840703,-0.0625547951095176,1.00617672814438,-0.000604332298219533,0
0.16,0.00122742884178731,0.000704409389120461,-0.061095417859138,-0.0352926527921357,-0.000659991757813564,0.00125187260883469,0.0327277802100029,-0.0625069102341066,1.00617274795849,-0.000582045300052341,0
0.17,0.00122724252653719,0.000704404565225555,-0.0610924708396029,-0.0352923964884134,-0.000659832154255137,0.00125177136037817,0.0327251886864505,-0.062505241929132,1.00616892334345,-0.000561384794812203,0
0.18,0.00122706833123903,0.000704402607189145,-0.0610898783152676,-0.0352923091436068,-0.000659681442538811,0.00125167891925786,0.0327228155174681,-0.0625039011732217,1.0061652471895,-0.000541530546777232,0
0.19,0.00122690077161171,0.000704400739613021,-0.0610873789496516,-0.0352922218098384,-0.000659536467406425,0.00125159001015102,0.0327205299705166,-0.0625026055909807,1.00616171372771,-0.000522446978056482,0
0.2,0.00122673984765524,0.00070439894450257,-0.0610849820624709,-0.0352921344858415,-0.000659397231479084,0.0012515046216292,0.0327183395721565,-0.0625013603514369,1.00615831741956,-0.000504104150037699,0
0.21,0.00122658521012366,0.000704397218974176,-0.0610826790786103,-0.0352920471707208,-0.000659263434529363,0.0012514225679942,0.0327162367449659,-0.0625001610411383,1.00615505294123,-0.000486473310281228,0
0.22,0.00122643650977099,0.000704395560334031,-0.061080461080456,-0.0352919598641572,-0.000659134776494069,0.00125134366356076,0.0327142136349319,-0.0624990030568682,1.00615191517577,-0.00046952682252599,0
0.23,0.00122629386301256,0.000704393965992318,-0.0610783421378163,-0.035291872564663,-0.000659011350889135,0.0012512679717742,0.032712281820433,-0.0624978940887221,1.00614889920454,-0.00045323812322914,0
0.24,0.00122615623477469,0.000704392433460026,-0.0610762783812569,-0.0352918145063457,-0.000658892278669175,0.00125119493984859,0.0327103883015437,-0.0624968355136269,1.00614600030031,-0.00043758167992879,0
0.25,0.00122602429822171,0.000704390960343319,-0.0610743110571353,-0.0352917272171042,-0.000658778124052313,0.00125112492905926,0.0327085989270455,-0.0624958001572897,1.00614321391892,-0.000422532951218904,0
0.26,0.00123537944916582,0.000709763790258491,-0.0615405223245645,-0.0355609295475497,-0.000663802626354879,0.00126067168391604,0.032958217831637,-0.0629727836102898,1.00614054489466,-0.000416161597974118,0
0.27,0.00118941657909454,0.00068356918280694,-0.0592756502220374,-0.0342484988970417,-0.000638988643075784,0.00121394898588387,0.0317470705493198,-0.0606521714160548,1.00613791755662,-0.000363085952839787,0
0.28,0.00116395862406845,0.000668771669920125,-0.0579274136586475,-0.0335071154949328,-0.000625398068346908,0.00118782678919909,0.0310047047956017,-0.0593044713534184,1.0061354137114,-0.000328067418632026,0
0.29,0.00122519657718288,0.000704191885674207,-0.0610499223377092,-0.0352817580476118,-0.000658172780338146,0.00125052047396754,0.0326926994298316,-0.0624746578410897,1.00613310956604,-0.000367665138150896,0
0.3,0.00122347821167491,0.000703288879585553,-0.0609683721975738,-0.0352365108421003,-0.000657201881977027,0.00124883940877832,0.0326478965297271,-0.0623928598233129,1.00613110487878,-0.00035546096972795,0
0.31,0.00122533495451376,0.000704377431107972,-0.0610636314622632,-0.0352910498872468,-0.000658185119586893,0.0012507540383952,0.032699044996031,-0.0624899811637896,1.00612889895274,-0.000345210996363469,0
0.32,0.00122524552254211,0.000704382236247295,-0.0610626725069934,-0.035291288643862,-0.000658104344325132,0.00125071163632174,0.0326979744969489,-0.0624897390908107,1.00612677638413,-0.000333756806940973,0
0.33,0.0012251489889017,0.000704381189530747,-0.0610612276772721,-0.0352912305820753,-0.000658020804587492,0.00125066043589043,0.0326966575361722,-0.062488983568427,1.00612473619155,-0.000322738156942511,0
0.34,0.00122505606413516,0.000704380152591285,-0.0610598309330313,-0.035291172518802,-0.000657940407511252,0.00125061112253281,0.032695386148792,-0.0624882511829511,1.00612277519037,-0.000312147151461538,0
0.35,0.00122496652808248,0.000704379155701572,-0.061058476358952,-0.0352911436588856,-0.000657862947045927,0.00125056360606462,0.0326941395166248,-0.0624875635410461,1.00612089030654,-0.00030196724217982,0
0.36,0.00122488082106422,0.000704378197476205,-0.0610571909044857,-0.0352910855893714,-0.000657788792183146,0.00125051812292706,0.0326929714797991,-0.0624868858164991,1.00611907858587,-0.000292182472432129,0
0.37,0.00122479837367387,0.000704377276417203,-0.0610559508393052,-0.0352910275178767,-0.0006577174591398,0.00125047436904151,0.0326918461838959,-0.0624862300770952,1.00611733718835,-0.000282777504632707,0
0.38,0.00122471896575279,0.00070437639108429,-0.0610547497467312,-0.0352909986434314,-0.000657648759273666,0.00125043222719879,0.0326907424117826,-0.0624856176448079,1.00611566338423,-0.000273737596533343,0
0.39,0.00122464292120348,0.000704375540092767,-0.0610536082084727,-0.0352909405655717,-0.000657582963647793,0.00125039187131673,0.0326897086386054,-0.0624850102856636,1.0061140545499,-0.000265048578114295,0
0.4,0.0012245695668783,0.000704374722111441,-0.0610524967599863,-0.0352909116813535,-0.000657519501158,0.00125035294172126,0.0326886885651234,-0.0624844416460738,1.00611250816356,-0.000256696829373926,0
0.41,0.00122449900652057,0.000704373935860118,-0.0610514246330208,-0.0352908827917689,-0.00065745845708255,0.00125031549446512,0.0326877054640205,-0.0624838920798091,1.00611102180133,-0.000248669258980049,0
0.42,0.00122443146028752,0.000704373180109682,-0.0610504067659485,-0.0352908247044098,-0.000657400015131667,0.00125027964788064,0.0326867874311511,-0.0624833449971742,1.00610959313316,-0.000240953283748082,0
0.43,0.00122436637144908,0.00070437245367664,-0.0610494190370064,-0.0352907958053372,-0.000657343702824842,0.00125024510452565,0.0326858827040449,-0.0624828368849192,1.00610821991962,-0.000233536808918202,0
0.44,0.00122430384374361,0.000704371755425043,-0.0610484702217889,-0.0352907639906845,-0.000657289605701133,0.00125021192038917,0.0326850157416789,-0.0624823453899823,1.00610690000825,-0.000226408209194565,0
0.45,0.0012242436443481,0.000704371084261836,-0.0610475521882758,-0.0352907350815325,-0.000657237525070086,0.00125017997132839,0.0326841764299035,-0.06248187114575,1.00610563133023,-0.000219556310526504,0
0.46,0.00122418577325874,0.000704370439136639,-0.0610466682404376,-0.0352907061675097,-0.000657187458994526,0.00125014925777643,0.0326833689928512,-0.0624814135270377,1.00610441189674,-0.000212970372589416,0
0.47,0.00122413023047554,0.000704369819040074,-0.061045821534226,-0.0352906772486178,-0.000657139405616046,0.00125011978015118,0.032682595976963,-0.0624809742854678,1.00610323979642,-0.000206640071951628,0
0.48,0.00122407689958318,0.000704369223001242,-0.0610450093706481,-0.0352906483248244,-0.00065709326480651,0.001250091476553,0.032681854987339,-0.0624805520368977,1.00610211319184,-0.000200555485891998,0
0.49,0.00122402566416633,0.000704368650087701,-0.0610442288685696,-0.0352906193963794,-0.000657048936507613,0.00125006428506634,0.0326811434795567,-0.0624801452975827,1.00610103031723,-0.000194707076845391,0
0.5,0.00122397617497902,0.000704368099402289,-0.0610434654025765,-0.0352905904645195,-0.000657006124044513,0.00125003801915777,0.0326804489919602,-0.0624797462972912,1.00609998947522,-0.000189085677454303,0
0.51,4.60086404442734,-0.0211377592198046,9.95855197812406,1.06450248173489,-0.293565576575273,4.59153743450047,0.472884979617113,10.0041142951623,0.0592550492542983,18.200123861807,616.992295127454
0.52,4.56470795319397,0.0791373524258951,11.7683432713378,-3.95320175539356,-1.13085630254079,4.42311942428701,-6.92469531841754,10.3038974285449,0.2676424595174,38.6864696399609,616.992295127454
0.53,4.54715611630885,0.0497908007524717,12.6479305849319,-2.4751730632444,-2.62937263557081,3.71018967348516,-9.42939168478978,8.7853971013884,0.627483537700303,59.6295702761212,616.992295127454
0.54,4.48879238545858,0.0225891546935275,12.9331615044918,-1.10633330774341,-4.079272274144,1.87331392539017,-12.2367471826845,4.33043395933398,1.14532767962284,81.9559121149113,616.992295127454
0.55,4.39591299201877,0.0750466254563826,10.5561754510469,-3.73579317734494,-4.26984035119057,-1.04792480872273,-9.25526209616756,-6.30310354892146,1.82853457685201,103.927440741268,616.992295127454
0.56,4.20569857325271,0.0270166455888448,14.1019590641876,-1.31887817224526,-1.96316102937394,-3.71949313226227,-5.33189838117685,-13.121568074512,2.66237427024852,123.347579439958,616.992295127454
0.57,4.16593738431091,-0.00577223219733267,9.93141779638781,0.325659553569999,1.99073904051912,-3.65951167250725,4.44745395682124,-8.88590270558906,-2.64476065912521,143.376465429008,616.992295127454
0.58,3.90211782679224,0.0809034317162594,16.9226533261761,-4.01509192105955,3.90128220458012,0.114306866196707,16.7007281753928,4.85621634033506,-1.52077464615774,162.668498087399,616.992295127454
0.59,3.85688500966546,0.0387899783866534,13.486003831035,-1.89832305623028,1.03685307275261,3.71510462110138,1.66097781409547,13.5172882804795,-0.262108796567017,181.150857563509,616.992295127454
0.6,3.77185141726702,-0.0176987831703319,11.9238398344836,0.935929358449444,-3.42518918167513,1.57963775296761,-10.4083340022165,5.89241066633427,1.13398963684794,199.168000569956,616.992295127454
0.61,3.67766351956187,-0.015623011504819,10.9455557963506,0.822143654271016,-1.69444959239993,-3.26409154596197,-5.81230810347013,-9.31118608930236,2.65851960521497,217.064592346229,616.992295127454
0.62,3.41439919045257,0.0220788225146908,18.8652472910849,-1.04553451384603,3.13346880308145,-1.35645957045616,17.7699320894604,-6.42029682408808,-1.97286784885163,233.625435980451,616.992295127454
0.63,3.48995083375868,0.0455886921173576,9.70388215419869,-2.22506352345981,0.729987551106185,3.41305630280719,-0.276292450626578,9.95187917067596,-0.197644154840378,250.167973777371,616.992295127454
0.64,3.31806443141611,-0.0360208711703577,13.0509333382866,1.85385462241308,-3.28767848490555,-0.449465520454793,-13.1802374708029,0.212080585356982,1.69581059148674,266.366408391695,616.992295127454
0.65,3.20603164540305,0.000888446194451609,13.6165061061055,-0.00163171078684502,1.70992141655201,-2.71197500908087,7.26686878327742,-11.5152880678999,-2.57876535136786,281.94028700685,616.992295127454
0.66,3.0773590562497,-0.0119787468052134,15.2122088045637,0.64117747874619,1.35059082674692,2.76517389510391,7.30446544970463,13.3591612673464,-0.458240469456847,296.909390906935,616.992295127454
0.67,2.93723141440884,0.0964151660848493,17.4840792824281,-4.78552708920231,-2.89782292820398,-0.489128350043866,-16.1845881075759,-8.16415370162961,1.77082525617644,311.373887438624,616.992295127454
0.68,2.92332675085518,-0.0273512871951422,13.5140945627307,1.42977084260713,2.4164645447547,-1.64538338666713,10.2830818941445,-8.88443713867769,-2.17794768534953,325.500809703414,616.992295127454
0.69,2.81970142497107,0.0289263394732555,14.1420949020379,-1.39273916089953,-0.693143190929698,2.7333322842214,-4.96310996816244,13.3156340454548,0.258612041467742,339.210220544825,616.992295127454
0.7,2.69424043125836,0.00655337986946369,15.9791631662968,-0.287885824419962,-0.924091094305873,-2.53081609320779,-5.17345107700871,-15.1212412750024,2.79393049207034,352.514918686268,616.992295127454
0.71,2.58963061588026,0.0158147213492057,16.8726887958281,-0.753684682416915,1.96995958038082,1.68098069107933,12.2751575275828,11.6006971977723,-0.858278528919763,365.390682296914,616.992295127454
0.72,2.57485826683929,-0.0237638520823897,13.3839249674653,1.23372658417456,-2.45712376856156,-0.770066621109025,-13.1658770972949,-2.70392475453122,1.86527348159105,377.82515991596,616.992295127454
0.73,2.47361555318181,0.066479746713631,14.3604478092978,-3.27889273874149,2.46995096891631,-0.150118862290603,14.4631469271658,2.79123267373973,-1.6046306592121,389.808827616678,616.992295127454
0.74,2.35620425541556,0.00982339138499844,16.3116846334658,-0.42666312549479,-2.26463066826004,0.650571232558584,-15.8123315136843,4.02781195013482,1.29522369559802,401.332890588423,616.992295127454
0.75,2.25365510195963,0.0339436198767955,17.5989218977503,-1.62599958697852,2.03105574735873,-0.977203171832807,16.654763577515,-5.91479304769392,-2.00417437818986,412.612570851325,616.992295127454
0.76,2.21199472440966,-0.0149036930886031,15.8758425046256,0.780678341397366,-1.93816890025037,1.06613512041679,-13.4775037269583,8.42666762096558,1.06115920961181,423.670901286961,616.992295127454
0.77,2.24067390133641,0.0124623918805026,10.7454283488712,-0.573312094286606,1.95260994906791,-1.09913112509041,9.67145120848464,-4.71762108271543,-2.07793047199285,434.19893536383,616.992295127454
0.78,2.0818762873375,0.0070592784028719,15.1425936450296,-0.281091942170461,-1.8907438349475,0.871404877079408,-13.8905078439846,6.03580539900408,1.14232282658236,444.356491616097,616.992295127454
0.79,2.057882158145,-0.0088847766939445,12.8541105256304,0.476713800334997,1.98243017748774,-0.552203320756353,12.2377942808765,-3.96128824897898,-1.84677613043796,454.351748610982,616.992295127454
0.8,1.90195100441151,-0.0102526130585836,17.2491968851633,0.565780523295695,-1.89989852484157,0.0889288173839807,-17.1962346597078,1.46438188732783,1.51863280007286,463.835556385548,616.992295127454
0.81,1.90177365887643,0.058335893341708,13.9968678040675,-2.84930078724933,1.86096806171525,0.396161582342343,12.9158839241385,6.10006276680338,-1.33038319586212,473.071463856032,616.992295127454
0.82,1.83837918338354,-0.00677622586949034,13.9141998725267,0.3794280804361,-1.51375410901155,-1.04318379808431,-11.7002974995124,-7.54002401745174,2.17050838382365,482.067662052713,616.992295127454
0.83,1.79513333595608,0.0974421325297428,13.0076439583174,-4.80868080665009,1.01766815963777,1.48200883260263,2.66544101038741,13.6094686401322,-0.547503326380885,490.599644033307,616.992295127454
0.84,1.74445708183433,0.0131285321903504,12.464891935993,-0.621821223482129,-0.120716927339972,-1.74032476629307,-0.148306838840933,-12.4795111158855,3.07986469740868,499.024128004301,616.992295127454
0.85,1.53712293015474,0.0522210899049811,19.9294355587117,-2.5489149137449,-0.668978793940729,1.38489758390141,-11.5290984421256,16.4547639921735,0.483958451019541,506.986041261313,616.992295127454
0.86,1.55227116947107,-0.0481188588778532,16.2583328641118,2.44847098358739,1.39697226588891,-0.678476010252393,13.260218496682,-9.72085403130707,-2.05390835315134,514.813513276401,616.992295127454
0.87,1.41082954880117,0.00969160761474189,20.5750490958953,-0.451641206123856,-1.39062468482249,-0.23811116939579,-20.1762985956688,-4.05630374306248,1.74724718376189,522.312905834923,616.992295127454
0.88,1.46795995436457,-0.00188188458103153,14.9741877299352,0.146589229373427,0.922143947856066,1.14217358949506,9.53535301308049,11.5466371506793,-0.680493934252308,529.545453795094,616.992295127454
0.89,1.33834330153173,0.0761082734516016,18.8095113207492,-3.79936311537206,0.0386355114293273,-1.33994871517504,5.39416861276579,-18.4156406672397,-3.05596072157704,536.603431202412,616.992295127454
0.9,1.33951971757229,0.0978123389800896,16.211123150788,-4.83609860812839,-0.990269604129184,0.907329288935133,-15.7171312158221,6.25780711609005,0.901969482223323,543.2635416046,616.992295127454
0.91,1.31996740998198,0.06257899585615,14.659429589008,-3.09598914932419,1.30684384422387,0.195931776266859,13.7746779236959,5.89425761112122,-1.37460329676408,549.809191300222,616.992295127454
0.92,1.22032193075852,-0.044180460231883,17.2267081036523,2.22235303302083,-1.2095496171693,-0.167711810443088,-17.3632707807306,0.463845757601755,1.67238613309148,556.110222649897,616.992295127454
0.93,1.22005595234515,0.0341210715157664,14.8977253237308,-1.64702156501936,0.62786679108803,1.04665374743658,5.86803054041015,13.7920671921863,-0.512371838570086,562.094404486145,616.992295127454
0.94,1.14966077913496,0.00560540176925395,16.1008190475257,-0.237326465032307,0.534149148840417,-1.01805501541088,7.75962817708165,-14.109601993168,-2.65352392803105,567.934496389498,616.992295127454
0.95,1.11667723353149,0.0512936985139551,15.5097098508096,-2.55596446327537,-1.11369221737231,0.0963780699076266,-15.6003300922418,-1.92711053313562,1.53037411567813,573.596919862414,616.992295127454
0.96,1.12341771879557,-0.0274763929456785,13.0291182643164,1.38076674864167,0.542783365744706,0.983975884330504,7.76259893360987,10.5549276338408,-0.528541123576918,578.97989722487,616.992295127454
0.97,0.987993160218184,0.00926864032390368,17.696878294268,-0.40885579903763,0.544422217998513,-0.824512486795044,10.2283986725152,-14.4473708688685,-2.54863255114273,584.133689274819,616.992295127454
0.98,0.941656019405265,0.0111967819513181,17.9656383936485,-0.521918701138621,-0.928293850320708,-0.158467518012332,-17.5783205203317,-3.74689334067851,1.75176482579596,589.124765840207,616.992295127454
