t,iq,id,vq,vd,ia,ib,va,vb,theta_e,omega,r
0,0,0,0,0,0,0,0,0,0,0,0
0.01,0.000660857812775815,0.000364719892275177,-0.0317601382106541,-0.0182519431384584,0.00046090801187544,0.000597760364290808,-0.0228662372935752,-0.0286177392454973,-0.15255064726783,-0.00373889992016486,0
0.02,0.000755378664381269,0.000415669928649204,-0.0365532398951159,-0.0208016597528592,0.000525648547370402,0.000683426675535167,-0.0261156102183658,-0.032967003173264,-0.152578216521677,-0.00378788158108953,0
0.03,0.000788787289892098,0.000435655717333564,-0.0382923265365869,-0.0218018282323774,0.000550498468424471,0.000713395212349406,-0.0273693801167527,-0.0345331582378934,-0.152604350043449,-0.00348290136226507,0
0.04,0.000766588302047187,0.000425965654512078,-0.0373742998724661,-0.0213169108116311,0.000537561793327971,0.000692915349818077,-0.0267512906825552,-0.0336989231923735,-0.152626435851237,-0.00290974906450807,0
0.05,0.000782179801756425,0.000436586365890823,-0.0382305336283591,-0.02184840507273,0.000550443345104932,0.000706700092675223,-0.027407459331676,-0.034463860473164,-0.152646044456189,-0.00262165253761023,0
0.06,0.000780626920086831,0.000437552180913713,-0.0382601738166675,-0.0218967375779422,0.000551173889941943,0.000705008966207427,-0.0274603277263297,-0.0344853362779231,-0.152663181562923,-0.00227493748493777,0
0.07,0.000795044739519174,0.00044749760266078,-0.0390295459734691,-0.022394445548665,0.000563206524865752,0.000717738568402799,-0.0280697535059645,-0.0351696685858945,-0.152677604647766,-0.00208147491801635,0
0.08,0.000776870435225916,0.000438542199920558,-0.0382470675417568,-0.0219462855648709,0.000551600340312891,0.000701130514815872,-0.0275082500277351,-0.0344640944469774,-0.152690562239549,-0.00171299955182861,0
0.09,0.000772917027119795,0.000437722106889557,-0.038125224235937,-0.0219052380059292,0.000550196053109702,0.000697341865094905,-0.0274495207877106,-0.0343496140249338,-0.152701417153636,-0.0014748108940821,0
0.1,0.00077076366139583,0.000437645126529403,-0.0380791165427854,-0.0219013944444929,0.000549798874080348,0.000695220164094242,-0.0274390268918295,-0.0343043728775466,-0.152710696424853,-0.00127886608747821,0
0.11,0.000769049068847281,0.000437636291340167,-0.0380457940751656,-0.0219009448003083,0.00054953483689527,0.000693522499152936,-0.027433786083991,-0.0342712884358596,-0.152718648983395,-0.00111175441709192,0
0.12,0.000767593059038501,0.000437633933854188,-0.0380178805303227,-0.0219008215730333,0.00054931572873811,0.000692080049203626,-0.0274296513858273,-0.0342435315124435,-0.152725466672586,-0.000968577363073414,0
0.13,0.000801774518938373,0.000457277335743432,-0.0396755727214878,-0.0228838624016392,0.000573935324599565,0.000722871485244965,-0.0286536723978952,-0.035732188392391,-0.152732012878912,-0.00105361766077242,0
0.14,0.000826089994902924,0.000472197622255827,-0.0410208294881892,-0.0236305284366875,0.000592385544679421,0.000744630539662211,-0.0295965252891744,-0.0369480177669039,-0.152737772607796,-0.00109242174272943,0
0.15,0.00077037910520669,0.000440785459659942,-0.0382544858125099,-0.0220585401773436,0.00055286650287622,0.000694344595416502,-0.0276221290887549,-0.0344529079199298,-0.152742869625885,-0.000643769104896326,0
0.16,0.000763831831030187,0.000437916698446582,-0.0379653598629515,-0.0219149843935324,0.000549037363863687,0.000688308124283664,-0.02743637286094,-0.0341888949035744,-0.152746338926951,-0.000534598903176128,0
0.17,0.000762600555875274,0.000437654119493751,-0.0379243665529171,-0.0219018438090024,0.000548592477822934,0.000687129557949024,-0.0274172463206835,-0.0341502993378524,-0.152749217536492,-0.000470289870880462,0
0.18,0.000762010746206013,0.000437629584117405,-0.0379112094164755,-0.0219006107241022,0.000548480172464095,0.000686549000903777,-0.0274141095584402,-0.0341374156407066,-0.152751675286613,-0.000418269058423167,0
0.19,0.000761554699320751,0.00043762686259705,-0.0379022676407312,-0.0219004655881641,0.000548409536238408,0.000686097523306149,-0.0274126774224642,-0.0341285423336524,-0.152753781316004,-0.000374000873593902,0
0.2,0.000761168874973641,0.00043762620128516,-0.0378948403146833,-0.0219004373217813,0.000548351413460187,0.000685715302174403,-0.027411580944393,-0.0341211563035254,-0.152755586770399,-0.000336083466036533,0
0.21,0.000760838638955385,0.000437625786878461,-0.0378884936595802,-0.0219004175939068,0.000548301815326278,0.000685388125939152,-0.0274106485303724,-0.0341148441257459,-0.152757134634509,-0.000303579344361964,0
0.22,0.000760555667559665,0.000437625445453144,-0.0378830552531318,-0.0219003991569243,0.000548259329054091,0.000685107774054818,-0.0274098480442596,-0.0341094354795715,-0.152758461668944,-0.000275712870590468,0
0.23,0.000760313034074888,0.00043762515395202,-0.0378783864988504,-0.0219003820341108,0.000548222899793004,0.000684867386651051,-0.0274091595010264,-0.034104792514302,-0.15275959937962,-0.000251822052182606,0
0.24,0.000760104883477843,0.000437624904111801,-0.0378743725856425,-0.021900381456295,0.000548191647199616,0.000684661163296342,-0.0274085814099752,-0.0341007986970989,-0.152760574777027,-0.000231339658406716,0
0.25,0.00075992656945578,0.000437624689894552,-0.0378709337537996,-0.0219003626469089,0.000548164874337025,0.000684484499980245,-0.0274080680560682,-0.0340973798536594,-0.152761411017907,-0.000213779417141279,0
0.26,0.000767244001017707,0.000441786868326499,-0.0382209436179022,-0.0221086612501677,0.000553392473881725,0.000691083036960436,-0.0276672217762679,-0.0344116008418721,-0.152762007894706,-0.00024780565629149,0
0.27,0.00074704351164188,0.000430248787520092,-0.0372705419557416,-0.0215312477765982,0.000538915554170751,0.000672872984241137,-0.0269519449225093,-0.0335601041921206,-0.152763009969018,-0.000101764892479892,0
0.28,0.000746496276499329,0.00042992760017461,-0.0370957883336321,-0.021515181641751,0.000538515180470234,0.000672380719996025,-0.02690949087813,-0.0333898166190085,-0.152763524184707,-8.82304671882111e-05,0
0.29,0.000758053111298464,0.000436921383880576,-0.0377960435335734,-0.0218651606367702,0.000547186258554658,0.000682738613006731,-0.0273619588576951,-0.0340286550414991,-0.15276372565948,-0.000156544269052981,0
0.3,0.000750629560985215,0.000433142108577582,-0.0374397969226023,-0.0216760397566687,0.000542320815727157,0.000675977038720193,-0.027120803544767,-0.0337053572629713,-0.152762932235923,-0.000125720306901235,0
0.31,0.000758573069199223,0.000437214975051486,-0.0378179740134333,-0.0218798657834805,0.000547555251179203,0.000683208081502027,-0.0273798148890827,-0.0340481045261466,-0.152763284220743,-0.000168478098348719,0
0.32,0.000759333091523761,0.000437586734567491,-0.0378565390190771,-0.0218984580677178,0.000548038630565272,0.000683902444476267,-0.0274040738751037,-0.0340833793408805,-0.152763718186851,-0.000164696672713894,0
0.33,0.00075934135966169,0.000437620588328662,-0.0378592233449662,-0.0219001561820384,0.000548073612301444,0.000683905253175347,-0.0274061738489979,-0.0340857634217016,-0.152764104294775,-0.000157155575815158,0
0.34,0.000759280009030257,0.000437623603073686,-0.0378582886375994,-0.0219003121940421,0.000548067483563515,0.00068384397602124,-0.027406197142907,-0.0340848067462383,-0.152764436812023,-0.000150233290294859,0
0.35,0.000759220171575457,0.000437623812998754,-0.037857141002356,-0.0219003256031069,0.000548058780561948,0.000683784647151123,-0.0274060454809833,-0.0340836626184546,-0.152764722048936,-0.000144249993350537,0
0.36,0.00075916813392903,0.000437623776153796,-0.0378561177848101,-0.02190032734127,0.000548050992726889,0.000683733087103048,-0.0274058998298763,-0.0340826443502698,-0.152764966608869,-0.000139115146942772,0
0.37,0.000759123639320733,0.000437623724767171,-0.037855242155967,-0.021900309496707,0.000548044314478399,0.000683689003584633,-0.0274057560933644,-0.0340817758881411,-0.152765176280126,-0.000134712322083142,0
0.38,0.000759085222264648,0.000437623678902607,-0.0378544733367497,-0.0219003097275489,0.000548038546051703,0.000683650942395575,-0.0274056454553436,-0.0340810110610186,-0.152765356038296,-0.000130937574584561,0
0.39,0.000759052276728673,0.000437623639415607,-0.0378538091862105,-0.0219003099369167,0.000548033598995394,0.000683618302091525,-0.0274055498494693,-0.0340803503897378,-0.152765510151144,-0.000127701351006359,0
0.4,0.000759024104220878,0.00043762360554604,-0.0378532388383464,-0.0219003101275389,0.000548029368772978,0.000683590390425227,-0.0274054677497085,-0.0340797830341533,-0.152765642276981,-0.000124926827556796,0
0.41,0.000759000006249334,0.000437623576506674,-0.0378527480139927,-0.0219003103021662,0.000548025750463394,0.000683566515439438,-0.0274053970928698,-0.0340792947949942,-0.152765755552859,-0.000122548135671923,0
0.42,0.000758979167904506,0.000437623551609831,-0.037852313717423,-0.0219003090087931,0.00054802262122131,0.000683545870345468,-0.0274053330362494,-0.0340788630915864,-0.152765852668158,-0.000120508803496645,0
0.43,0.000758961472775643,0.000437623530264368,-0.0378519452946885,-0.0219003091582739,0.000548019964325594,0.000683528338914632,-0.0274052799576095,-0.0340784966550039,-0.152765935928118,-0.000118760415766167,0
0.44,0.00075894616416087,0.000437623511964143,-0.037851617955662,-0.0219003092983831,0.000548017665479603,0.000683513172250992,-0.0274052327166661,-0.0340781711506297,-0.152766007309758,-0.000117261464446973,0
0.45,0.000758933125644865,0.000437623496274544,-0.0378513370242338,-0.0219003094295843,0.000548015707697751,0.000683500254432413,-0.0274051921817901,-0.0340778917938423,-0.152766068507497,-0.000115976363311501,0
0.46,0.000758921949774004,0.000437623482823142,-0.0378510917078908,-0.0219003095534686,0.000548014029602554,0.000683489182010808,-0.0274051567617596,-0.0340776478777555,-0.152766120974302,-0.000114874603093844,0
0.47,0.000758912345509983,0.000437623471290871,-0.0378508756471302,-0.0219003096711803,0.000548012587442452,0.000683479666703234,-0.0274051255324189,-0.0340774330826204,-0.152766165955684,-0.000113930027184739,0
0.48,0.00075890413822982,0.000437623461403724,-0.0378506871423054,-0.0219003097834094,0.000548011355104244,0.000683471535376663,-0.0274050982722183,-0.0340772456992058,-0.152766204519782,-0.00011312021064386,0
0.49,0.00075889703689521,0.000437623452926981,-0.0378505177114508,-0.0219003098912962,0.000548010288693888,0.000683464499916203,-0.0274050737227655,-0.0340770773190637,-0.152766237582112,-0.000112425927820087,0
0.5,0.000758890983298494,0.000437623445660036,-0.0378503696042641,-0.0219003099950678,0.000548009379691951,0.000683458502392618,-0.0274050522533689,-0.0340769301441545,-0.152766265927261,-0.000111830695918079,0
0.51,1.25550964993978,-0.00754910950434083,1.0629298611732,0.378883879360105,-0.0798736080240473,1.25298909687492,0.317013067670596,1.08299381288109,0.0576476015071568,17.4630148219816,204.671516354596
0.52,1.1274377531442,0.0304524128734059,2.10720340922911,-1.52186165384147,-0.252137021977769,1.09930439770467,-1.99997917243309,1.66025673048891,0.252464664089609,35.4070034738387,204.671516354596
0.53,1.05761143012807,-0.0119305711305286,0.702220302437445,0.600546397672796,-0.583514957918173,0.882153370764287,0.123809529029183,0.915663982820489,0.573113689262882,51.8751316440315,204.671516354596
0.54,0.974414400428539,0.0411044327015819,0.201306840492819,-2.05247333609435,-0.803757601339881,0.552400865711296,-1.26076201822673,-1.63206935293949,1.01082190132637,67.490146677436,204.671516354596
0.55,0.872937156945301,-0.0299167746750901,0.724813731282394,1.50076694530125,-0.873187030812193,-0.0214173435348804,-0.710169470204436,1.50775186710344,1.56106120706673,82.5797534925641,204.671516354596
0.56,0.781392197254919,0.0398801263255973,1.12274863342507,-1.99456559132679,-0.647285230733102,-0.439529316976025,0.30763428534253,-2.26808675725697,2.21830583173502,96.2152414933694,204.671516354596
0.57,0.691683956973153,0.00745818731957759,2.18618976555334,-0.370310616088586,-0.128230218585025,-0.679734751159428,-0.0174730703445964,-2.21726190045534,2.96591870105258,107.500019848478,204.671516354596
0.58,0.629635596656985,-0.00902086644277761,2.26314837551572,0.457084798637746,0.388014719978618,-0.495950539559028,1.00485370733255,-2.07871020337256,-2.49202331205497,117.578195260814,204.671516354596
0.59,0.634493491435743,-0.0161047262998551,-0.980647683671618,0.810218394775661,0.6346961475353,0.00146737430863127,-0.999072595208982,-0.787386611662751,-1.59386096999802,127.525015188039,204.671516354596
0.6,0.559563865436922,-0.00329641471041098,-0.00805738934636633,0.166274303563449,0.324683078226392,0.45574497755443,0.130137753685612,-0.103808624951166,-0.624905771508963,136.509169226183,204.671516354596
0.61,0.465678104963478,-0.000669160197379864,2.39380852814978,0.0384599724264924,-0.183666933134222,0.427928735761943,-0.90560910385696,2.2162289118981,0.403985583824376,144.049755670826,204.671516354596
0.62,0.412566584326698,0.032641473794855,2.87517539108956,-1.62867013150389,-0.408324478201288,0.067437176810305,-3.0026857628481,-1.37952098076443,1.48607159857727,151.253543349534,204.671516354596
0.63,0.365132560170813,0.0433529555610052,3.17256607119399,-2.16935468701577,-0.219452674016735,-0.295028454762708,0.300991309573521,-3.83153748066357,2.62022727199427,157.92104273662,204.671516354596
0.64,0.332340461968761,0.00257889888042032,3.08082523496146,-0.123564874918729,0.201004403226757,-0.264677281353161,1.98007619075343,-2.36348274491277,-2.48432267429727,163.555290899852,204.671516354596
0.65,0.268426188939255,-0.0366222983335569,4.57093729906715,1.83076534554745,0.244950973892457,0.115727403983765,4.91002741281419,-0.369865310449634,-1.26502576689564,169.131298027331,204.671516354596
0.66,0.320204430421041,0.0277152087040987,0.514488996153433,-1.38448876709315,0.0301373548259712,0.319985546390565,-1.38055606835031,0.524950488628414,-0.00756692435762559,173.806582013422,204.671516354596
0.67,0.259651575906628,0.0373383502378791,2.19376593676305,-1.8623268085228,-0.238320256909304,0.109620018317665,-2.63271746493366,-1.16175250241945,1.2825055114136,178.18184334285,204.671516354596
0.68,0.226695692199289,0.000915267474864631,2.56522210760589,-0.0466677055156294,-0.116869596527688,-0.194250539210888,-1.27348113041997,-2.22728268222791,2.60400289534219,182.22197406904,204.671516354596
0.69,0.257039894824108,-0.0354677728151912,-0.0237474242194128,1.78123826485837,0.21076926935075,-0.151339966753695,-1.24415260388915,-1.27493450599965,-2.33064444588679,185.667347871601,204.671516354596
0.7,0.172588751372339,-0.00273434859793636,3.10249808723156,0.133989884312876,0.139501357162557,0.101654931569122,2.61321064247317,1.67767035154067,-0.956907610007921,189.104718774519,204.671516354596
0.71,0.202957366381473,0.0257007768939299,0.691022856605886,-1.28186425987762,-0.063176923792359,0.194578772741503,-1.454095471857,0.0793405812200338,0.43990847974371,191.90299656443,204.671516354596
0.72,0.157941086055846,-0.016648393556075,2.08497549391216,0.82978621691567,-0.146845444720572,-0.060489429136963,-2.23432308041403,0.208490643259154,1.85652004839684,194.590727988646,204.671516354596
0.73,0.155043713618822,0.0100978468099801,1.48644947408779,-0.50299795233571,0.0131954694685874,-0.154810849840755,0.719576514600962,-1.39454244062507,-2.99152492385051,196.908554872293,204.671516354596
0.74,0.169149773127855,0.024723882198401,0.103505544227172,-1.23797729147268,0.169823395330568,-0.0195686100314496,0.0658108355956145,1.24055233900308,-1.54038167906993,199.01746315751,204.671516354596
0.75,0.117237600966195,0.0255903513007986,2.05800061239422,-1.28007352973563,0.0342215605894031,0.115014807528565,-1.12379038626843,2.14733554198581,-0.0742919234618606,200.942594466666,204.671516354596
0.76,0.110651859892477,-0.0184826899137864,1.83923711112412,0.930492736454726,-0.112184858149064,3.90664553953021e-05,-1.66037811818407,1.2213739755647,1.40494144204711,202.594993036945,204.671516354596
0.77,0.13260454588749,0.0160907267099392,0.205599359936522,-0.805588402673724,-0.0478232263622993,-0.124722957375063,0.731506967589896,-0.395147222812137,2.8962002894619,204.224140957294,204.671516354596
0.78,0.0229266796334118,-0.042747624786874,5.23008202126336,2.14434211920653,0.0350168371527302,0.0335680380682523,4.31119028531214,-3.65589925971376,-1.8850308560961,205.556071736008,204.671516354596
0.79,0.0794621180368239,0.0071507393774644,1.98546645276048,-0.359419268452666,0.035650112978647,0.0713752808831759,0.389769425512811,1.97973206280743,-0.373479351493799,206.796216208471,204.671516354596
0.8,0.0701513792560966,0.0137201129260349,2.04984882194171,-0.681109210830316,-0.0582938463420928,0.0413676804870702,-2.14854492288684,0.222586307375162,1.14677009967056,207.946745220028,204.671516354596
0.81,0.0688019533121458,-0.0112729579850309,1.71915125323495,0.561988625109301,-0.020857345298789,-0.0665263820479217,-1.27478689622519,-1.28305518800405,2.67537541960535,209.109136206413,204.671516354596
0.82,0.0505544141160748,-0.0094198538428788,2.29608594585217,0.476751331010188,0.048872152031355,-0.015999849651322,1.78552185455118,-1.52026780840744,-2.07139930814247,210.014543928042,204.671516354596
0.83,0.00632409218189947,-0.00183838994694407,4.18102674851211,0.0887636331932505,0.00160140222270338,0.00638821809609751,2.18495455669327,3.56578704349219,-0.528518656709547,210.932066617958,204.671516354596
0.84,0.0499107179620623,0.0274344820900387,1.75858547116146,-1.36777242222481,-0.0281803203541953,0.0494934351179236,-2.21430435292227,-0.245520856564942,1.02018730806031,211.575409094963,204.671516354596
0.85,0.0140532417846766,0.0523449766454368,3.29749242138311,-2.62316514714722,-0.0516866061073861,0.0163090445388386,0.437655201908291,-4.19081252056562,2.57365468170123,212.23432419254,204.671516354596
0.86,0.0448383548291847,0.00918803976198084,1.54908366924194,-0.45471721296322,0.0324408886640016,-0.032287565426112,1.54451824002871,-0.469990812990778,-2.1517090071903,212.781195588621,204.671516354596
0.87,0.0142935847315161,0.0135531972032509,2.87036860201298,-0.681851014190077,0.0192142679069972,0.00433677618806588,1.03036536087395,2.76446811160575,-0.58999345048528,213.286837983629,204.671516354596
0.88,0.0195101640877507,0.0416632550659684,2.41134738805626,-2.0802362558905,0.00721724043366214,0.0454355011631391,-3.16312315887052,-0.36963629154081,0.975313587769112,213.794924925987,204.671516354596
0.89,0.0506176377448583,0.0197965765817212,0.664922356157683,-0.994014518575218,-0.0448340914962084,-0.0307238333372525,0.448049341298595,-1.10880042866988,2.5443843365515,214.234082092677,204.671516354596
0.9,-0.000277042687238068,-0.0101422052716708,3.05125418348319,0.512242743124131,0.00546615294394955,0.00854764601610354,2.23707977198924,-2.13729240251857,-2.16705822223976,214.603690488173,204.671516354596
0.91,-0.0149817587605419,-0.0364056784061003,3.66029255835488,1.81810189354549,-0.0385624086580111,0.00792257245217904,3.55331053021705,2.01921281293241,-0.593028561283105,214.850467098006,204.671516354596
0.92,0.0178551976324567,0.01140812493461,1.89627894512243,-0.566038898687682,-0.00852756188388715,0.0193967545051803,-1.8917582383899,0.580968708302027,0.982753952232395,215.113057729062,204.671516354596
0.93,-0.00294709777735645,0.00672653701404804,2.84066443220571,-0.340353783796014,-0.00400195388229843,0.0061576010454246,-1.27599758064218,-2.56067281954141,2.56005509028577,215.22745927976,204.671516354596
0.94,0.0190314372602669,-0.0183123200018679,1.62938739620688,0.921389174013283,0.0259232092364321,0.00505211746958145,0.868494256731936,-1.65818546095736,-2.14446498251977,215.493979551306,204.671516354596
0.95,-0.00690499908786157,0.0212929673379867,2.82636558996682,-1.06930432344551,0.0143007973164574,-0.0172208207288022,0.607745286067631,2.96013510697575,-0.564184661222303,215.627924772397,204.671516354596
0.96,-0.0354503070813322,-0.0183460589875859,4.19475510634701,0.922574912093226,0.0204930626537801,-0.0342540002861706,-3.08170188798193,2.99169322362049,1.01670586885478,215.672592277182,204.671516354596
