t,iq,id,vq,vd,ia,ib,va,vb,theta_e,omega,r
0,0,0,0,0,0,0,0,0,0,0,0
0.01,0.00104566591785425,0.000598595016815832,-0.0516224961389879,-0.029987880277543,-0.000493148359865264,0.00109933520869702,0.0240889529560694,-0.054624879099549,0.941597258061408,-0.00213488348075579,0
0.02,0.0011676198258319,0.000668810238655794,-0.0577554327493214,-0.033505471507491,-0.000550407103100397,0.00122788241043805,0.0269763680764904,-0.0610784921097631,0.941581451811173,-0.00231690196398936,0
0.03,0.00119821115928087,0.000686319887308264,-0.0592667283490284,-0.0343826412094787,-0.000564814812183678,0.00126005126795617,0.0276809938583828,-0.06267753732199,0.941565209588492,-0.00230480694477226,0
0.04,0.00118161056294703,0.000677047324299831,-0.0584658519532078,-0.0339181176895206,-0.000556831866466806,0.00124279317438448,0.0273059481543626,-0.0618310581148814,0.941550073608018,-0.00219870956300101,0
0.05,0.00119785525529524,0.000686371181293562,-0.0592736635066501,-0.0343852207282201,-0.000564458643809099,0.00125990041296046,0.0276831801463413,-0.0626845445625412,0.94153485831297,-0.00216128644523955,0
0.06,0.0011977514025345,0.000686433719187551,-0.0592803933748888,-0.0343883526977465,-0.000564319297913768,0.00125989817172386,0.0276858532374957,-0.0626914457518569,0.941520112388806,-0.00209170326552737,0
0.07,0.00123020626744796,0.000705082177380249,-0.0608811983781218,-0.0353225793743398,-0.000579563512555594,0.00129408441465066,0.0284292707470349,-0.0643892964273143,0.941505963986008,-0.00209337516605833,0
0.08,0.00119756546779504,0.000686559580501867,-0.0592936500898423,-0.034394642894103,-0.000564059614755655,0.00125990628946591,0.0276911123180201,-0.0627051090373051,0.94149210487434,-0.00195956415538263,0
0.09,0.001197126123328,0.000686425620778825,-0.0592827739658092,-0.0343879410392407,-0.00056376654156293,0.0012595468925888,0.0276854311626714,-0.0626936574091551,0.941478816638387,-0.00189613289336824,0
0.1,0.0011969291585723,0.000686421742722652,-0.0592834030393885,-0.0343877550350279,-0.000563593428371645,0.00125943505867484,0.0276852445823311,-0.062694232627062,0.941465982523159,-0.00183534712143258,0
0.11,0.00119674057573531,0.00068641888395135,-0.0592840898139936,-0.0343876127193705,-0.000563427045718742,0.00125932873151094,0.0276851063773663,-0.0626948650089063,0.941453586321538,-0.00177663891821897,0
0.12,0.00119655862856489,0.000686416128807193,-0.0592847609825492,-0.0343874704376331,-0.000563266501723588,0.0012592261518551,0.0276849820430987,-0.0626954765284576,0.941441613087091,-0.00171993390362805,0
0.13,0.00125171139319258,0.000718030742655444,-0.0619956179430167,-0.0359712681401659,-0.00058922738557763,0.00131725496671365,0.028943406109466,-0.0655718538591882,0.941429520400747,-0.00177899191264871,0
0.14,0.00135246251246576,0.000776250509657774,-0.0671019394248624,-0.0388879007727385,-0.000636388132706653,0.00142363262322809,0.0313537139624431,-0.0709357718069632,0.941417986035818,-0.00193653291542674,0
0.15,0.00119717093299875,0.000687043131772468,-0.0593426398492209,-0.0344188851074924,-0.000563348500345564,0.00126011308020004,0.0277110928358946,-0.0627559072132459,0.941406755332141,-0.00155724954558112,0
0.16,0.00119587896211534,0.000686410206626849,-0.0592876604301481,-0.0343871827573156,-0.000562663594909579,0.00125884675109999,0.0276846590926207,-0.0626982030698723,0.941396376554173,-0.00150571172579777,0
0.17,0.00119571822361405,0.000686403443081911,-0.0592877972964557,-0.0343868479600362,-0.000562525024200118,0.00125875230053657,0.0276843385024531,-0.0626982904278407,0.941386355334177,-0.0014582339776368,0
0.18,0.00119557098946588,0.000686401183514351,-0.0592883201117934,-0.0343867314328382,-0.00056239515096786,0.00125866924557255,0.0276842228524419,-0.0626987719606131,0.941376676070171,-0.00141239302923101,0
0.19,0.00119542876117474,0.000686399031136079,-0.0592888219264125,-0.0343866178326744,-0.00056226967851391,0.00125858903602891,0.0276841092036478,-0.062699234357309,0.941367327069478,-0.0013681163279503,0
0.2,0.00119529165515343,0.000686396952305758,-0.0592893179256542,-0.0343865042470183,-0.000562148706399699,0.00125851171981321,0.0276840108400481,-0.062699684514578,0.941358297063501,-0.00132535037855248,0
0.21,0.00119515876137778,0.000686394944308983,-0.0592897713814091,-0.0343864191710138,-0.000562031486747141,0.00125843676534651,0.0276838806153801,-0.0627001241461116,0.941349575167532,-0.001284043632314,0
0.22,0.00119503085215932,0.000686393004733651,-0.0592902296828847,-0.0343863056102665,-0.000561918631908424,0.00125836463144594,0.0276837897307845,-0.062700535368636,0.941341150868753,-0.00124414630026782,0
0.23,0.0011949070387731,0.000686391131251856,-0.059290656712501,-0.0343862205507353,-0.000561809411942105,0.00125829479893385,0.0276836748067909,-0.0627009432652755,0.941333014013059,-0.00120561029228296,0
0.24,0.00119478741633603,0.000686389321613913,-0.0592910652720822,-0.0343861354974792,-0.000561703892598584,0.0012582273276718,0.0276835623523591,-0.062701332609701,0.941325154792707,-0.0011683891590888,0
0.25,0.00119467198484812,0.000686387573646927,-0.0592914631349164,-0.0343860504496564,-0.000561602063122211,0.00125816222139068,0.0276834580579711,-0.0627017082395529,0.941317563734096,-0.00113243803629429,0
0.26,0.00120433518111833,0.000691940239535558,-0.0597705596259238,-0.0346642224587133,-0.000566134906384277,0.00126834371971525,0.0279065000657167,-0.0632088235197067,0.941310257677864,-0.00111838432400951,0
0.27,0.00115941090445364,0.000666295152163002,-0.0575760520983644,-0.0333794750246182,-0.000544910460316098,0.00122116971195654,0.0268885425695204,-0.060878546357808,0.941303039567963,-0.000989989898028595,0
0.28,0.00113795307777946,0.000653825734117814,-0.0563833694059405,-0.0327547893792697,-0.000534898452982138,0.00119846107271774,0.0262918286395176,-0.0596716039640071,0.941296134472275,-0.000912399246642004,0
0.29,0.00119383620207848,0.000686151031754591,-0.0592727165140917,-0.0343741811157529,-0.000561030695627919,0.00125749460210941,0.0276735459855921,-0.0626818482730191,0.941289704011214,-0.000999628055085867,0
0.3,0.00119183805545032,0.000685082563577506,-0.0591794216239213,-0.034320663194374,-0.000560037458408559,0.00125545773107533,0.0276292858019029,-0.0625838192500287,0.94128400443882,-0.000968616974959754,0
0.31,0.00119405089558889,0.000686369252078985,-0.0592927144997263,-0.0343851089212162,-0.000561060817844256,0.0012578040587214,0.0276825321392822,-0.0627027840101822,0.941277824481114,-0.000944197874301837,0
0.32,0.00119397681342203,0.000686376980560072,-0.0592938361920306,-0.0343855092219948,-0.00056098886971757,0.00125777004197317,0.0276828284141003,-0.062703933415845,0.941271848417965,-0.000915930787956923,0
0.33,0.00119388899365898,0.000686375715383551,-0.0592941206688328,-0.0343854555741411,-0.000560911369410701,0.00125772055223493,0.0276827280033437,-0.0627042173320441,0.941266076211243,-0.000888593969371447,0
0.34,0.00119380441221189,0.000686374431628413,-0.0592944054581469,-0.0343853705519447,-0.000560836745866362,0.00125767284279173,0.027682658664847,-0.0627044706211227,0.941260500956123,-0.000862189651562617,0
0.35,0.0011937224132084,0.000686373191201982,-0.0592946630844885,-0.0343853139924008,-0.000560764423983653,0.00125762658137905,0.0276825625389544,-0.0627047256587243,0.941255115932386,-0.000836686265365638,0
0.36,0.00119364344100221,0.000686371993061303,-0.0592949211751073,-0.0343852574302827,-0.000560694755331796,0.00125758203249329,0.0276824783093888,-0.0627049758819762,0.941249914649764,-0.000812053072199935,0
0.37,0.00119356691351669,0.000686370835769462,-0.0592951556945735,-0.0343852008669145,-0.000560627262332037,0.00125753885584769,0.0276823861547335,-0.0627052073139224,0.941244890838724,-0.000788260380504697,0
0.38,0.00119349317999363,0.000686369717934094,-0.0592953891510634,-0.0343851413904325,-0.000560562220432091,0.00125749725940555,0.0276823056031617,-0.0627054310208394,0.941240038443459,-0.000765279511800308,0
0.39,0.00119342189119537,0.000686368638211722,-0.0592956088784782,-0.0343850848224363,-0.000560499340738769,0.00125745703979752,0.0276822226225554,-0.0627056444125318,0.941235351615282,-0.000743082766135038,0
0.4,0.00119335316353311,0.000686367595303138,-0.0592958253563992,-0.0343850282519596,-0.000560438710966802,0.00125741826774012,0.0276821470433221,-0.062705851462655,0.941230824705448,-0.000721643388697878,0
0.41,0.00119328631982688,0.000686366587954965,-0.0592960091357314,-0.03438500012987,-0.000560379777601305,0.00125738054661365,0.0276820379684578,-0.0627060579790243,0.941226452256747,-0.000700935537571035,0
0.42,0.00119322224877587,0.000686365614954566,-0.0592962089924716,-0.0343849435532299,-0.000560323253013994,0.00125734440170445,0.0276819679966116,-0.0627062468329292,0.94122222899918,-0.00068093425257796,0
0.43,0.00119316027319957,0.000686364675131892,-0.0592963952950868,-0.0343848869750367,-0.000560268584107534,0.00125730943624579,0.0276818961051421,-0.0627064237164053,0.941218149842251,-0.000661615425200555,0
0.44,0.00119310018158064,0.000686363767356871,-0.0592965615134158,-0.034384858839718,-0.000560215594371229,0.00125727552757992,0.0276817999594768,-0.062706607911329,0.941214209869246,-0.000642955769518818,0
0.45,0.00119304251336963,0.000686362890536311,-0.0592967384386394,-0.0343848022548049,-0.000560164714472678,0.00125724299515743,0.0276817376482428,-0.0627067716944216,0.941210404330921,-0.000624932794145414,0
0.46,0.00119298637987083,0.000686362043616122,-0.0592968854995461,-0.0343847741112184,-0.000560115220930324,0.00125721131746273,0.0276816425934641,-0.0627069372873011,0.941206728640036,-0.000607524775113396,0
0.47,0.00119293266977913,0.000686361225577063,-0.0592970507223777,-0.0343847175204841,-0.000560067827055554,0.0012571810194635,0.0276815868322403,-0.0627070871097108,0.941203178366788,-0.000590710729688689,0
0.48,0.00119288037798514,0.000686360435434645,-0.0592971873518704,-0.0343846893682549,-0.000560021715625995,0.00125715151097206,0.0276814988103976,-0.0627072397287917,0.941199749231379,-0.00057447039108764,0
0.49,0.00119283027676679,0.000686359672238202,-0.0592973374110945,-0.0343846327718494,-0.000559977506189474,0.0012571232482968,0.0276814457281733,-0.0627073740264917,0.9411964371004,-0.00055878418404036,0
0.5,0.00119278147743163,0.00068635893506918,-0.0592974597159282,-0.0343846046116305,-0.00055993447594947,0.00125709570968024,0.0276813605553623,-0.0627075118376126,0.941193237981524,-0.000543633201197684,0
0.51,3.74845623197999,0.03384782783139,6.44188882987944,-1.69190481657282,-0.399026995253421,3.72731099528568,-2.42412323463281,6.20355544411277,0.115678295982548,35.3252974988992,678.339320178704
0.52,3.52502024996694,0.0435500961397191,8.99368332440171,-2.17404184131762,-1.69793040422209,3.08944925771066,-6.32096006332846,6.75708972452103,0.514882311555238,73.3451793091299,678.339320178704
0.53,3.35632867252771,0.0661752709442479,9.0324281006551,-3.30342132802412,-3.08860593259608,1.31523181137337,-9.61255501348249,0.310058021539693,1.18793393676536,110.143593976335,678.339320178704
0.54,3.24976727174762,-0.0128045705121307,5.87669157022387,0.657402173611212,-2.74872055997225,-1.73369159908381,-5.33141881855389,-2.55805684271841,2.12956303326681,146.92785700786,678.339320178704
0.55,2.9810222284652,0.015382667904094,10.4425701804116,-0.758487544450518,0.585547526766015,-2.92298892351197,2.84689640758893,-10.0756020253067,-2.9387245355193,184.161402895749,678.339320178704
0.56,2.80948377958182,0.0338524401240989,11.3108822437173,-1.68061173087525,2.79786227453709,0.257510753480056,11.0757870403153,2.84384499556105,-1.46696774429254,216.653981033877,678.339320178704
0.57,2.7296285680263,-0.00761300501587681,8.41737963427783,0.40304361111505,-0.630718933069024,2.65577177195236,-1.52970252637295,8.28702203694572,0.230381207081896,246.318667114625,678.339320178704
0.58,2.64191878588527,-0.0350114332707613,5.53712256915259,1.76963548561859,-2.19554482790581,-1.46987876382007,-5.60650042739406,-1.53573730025997,2.14749429781061,277.148257779402,678.339320178704
0.59,2.44871972675187,0.0391476281124578,8.40545503749054,-1.94166350149,2.21219499376708,-1.0506922225478,8.45414249739682,-1.71732529650112,-1.99822201674831,305.158860702961,678.339320178704
0.6,2.27771394198667,0.0100720666656011,10.8191648034776,-0.478261502577237,-0.735988293649064,2.15555178078814,-3.99307760011621,10.0666971936731,0.333449329350303,331.226620408394,678.339320178704
0.61,2.20158079130537,0.0539525470454361,8.22496704622816,-2.68479548996003,-0.663073855301598,-2.10004807573373,0.29568172565095,-8.64701000644529,2.86025811772506,357.413225083461,678.339320178704
0.62,2.058076752982,0.0768164938362947,9.89056489303771,-3.82067419998278,1.41252999788265,1.49877940337191,3.6340874080159,9.96063421458214,-0.718474096809139,380.529777071377,678.339320178704
0.63,2.06693301929286,-0.00794451085387005,3.68089316351406,0.417685425012251,-1.714823317879,-1.15397409414347,-3.29355248438794,-1.6958619130266,2.15928619523733,403.910829211052,678.339320178704
0.64,1.89433459605458,-0.0297984896134541,7.21933305887474,1.52163592451439,1.66254705356997,0.908476090196284,7.09742526988257,2.01511792214919,-1.08642228767098,425.122317535662,678.339320178704
0.65,1.78381599922942,0.0096865362198999,7.60669405886326,-0.462746721746508,-1.53744912329043,-0.904623425179934,-6.29814537412236,-4.2906053046224,2.10806730632842,445.640795624378,678.339320178704
0.66,1.6550081545314,-0.0360053046086536,9.20097664883004,1.81662758417391,1.2053843003832,1.13463521094451,8.05137896753907,4.80971972083267,-0.837375289942158,465.33569742653,678.339320178704
0.67,1.55571708142483,0.0143763549084687,9.73497250613612,-0.692537328593814,-0.760767081815792,-1.35709091966711,-4.07446553884311,-8.86837235458131,2.63989854957877,483.101385680054,678.339320178704
0.68,1.51410215227216,-0.052684223497546,7.31799521729741,2.65837031028699,0.000331236411039805,1.51501843064801,2.91282185310764,7.22048859559114,-0.0350002888711543,500.832994791196,678.339320178704
0.69,1.42630029531933,0.0278967590076394,7.53011822180525,-1.38689744057351,0.727627651572149,-1.22705695151396,5.14555065405769,-5.67005056516776,-2.58679010126852,517.513553030795,678.339320178704
0.7,1.31711959500548,-0.00301311144495076,9.12936075125875,0.178371729169815,-1.2560359769291,0.396467818426353,-8.64555858791777,2.93791778361343,1.26275659341509,532.657490991412,678.339320178704
0.71,1.30697850027396,0.0347814150319934,5.79770326684662,-1.72037126053031,1.15682722278519,0.609223541594622,4.21429307841096,4.33736951316349,-1.05946412752832,547.470882451193,678.339320178704
0.72,1.24366914305109,-0.00767050577292738,5.30966937740117,0.396907715781387,-0.160999842002551,-1.23322780738653,-1.11305543226931,-5.20684474867979,3.00560770845212,561.571947841008,678.339320178704
0.73,1.14867949614868,0.015014816495123,6.65884965841567,-0.745241180384783,-0.880408988407432,0.737949891739385,-5.62995320474588,3.63308272720226,0.886269364693394,574.765660782498,678.339320178704
0.74,1.12244630639354,-0.0106820156371207,4.74904684168274,0.561883764183569,1.01481877370819,0.479731875868146,4.54789526927107,1.47844779708035,-1.13872091641412,586.927150142115,678.339320178704
0.75,0.983402227201517,-0.0451702234791014,8.58923840763842,2.2853476905643,0.110088658235918,-0.978264165183347,-1.71247318666106,-8.72154034990296,-3.07542977142919,598.54051596038,678.339320178704
0.76,0.975236933950216,-0.0251652381011048,5.97219472334124,1.27683690566432,-0.9578855943927,0.184866315493783,-5.55862457031154,2.52964724487433,1.35434764259262,609.77987275065,678.339320178704
0.77,0.981126277697618,-0.00835998986336139,2.82528786997454,0.428523817047887,0.392670683601486,0.899159828094672,1.54396179797785,2.40459272567884,-0.420266458130986,620.31127252664,678.339320178704
0.78,0.847381157387954,0.0259186568538265,6.84283856833835,-1.29537301982779,0.708806807465748,-0.465101615090153,6.51044859941377,-2.47315385029479,-2.12092331737864,630.099790002161,678.339320178704
0.79,0.794659187407101,0.0107476254224338,6.93980668525557,-0.536955232299714,-0.464256022851227,-0.645031069661839,-3.53744870166027,-5.99463880757915,2.53126346403466,639.324729004424,678.339320178704
0.8,0.733177186296899,-0.015957250237056,7.59910017903482,0.821164391508071,-0.612346580399957,0.403528296174933,-5.78608640965825,4.99418046819055,0.96636835059046,647.904644323544,678.339320178704
0.81,0.673007838246647,0.0819238540347328,8.28878293191404,-4.08335807515599,0.414507695319817,0.536502039811577,0.728691322220882,9.21122926754356,-0.536684188308436,656.057599010378,678.339320178704
0.82,0.650449343623688,0.0406323000398451,7.18812357612465,-2.01702079196832,0.580186361857042,-0.296848644837911,7.39583980150794,-1.01933657410225,-1.98132839486673,663.81483117287,678.339320178704
0.83,0.600298525065466,0.0502455670117247,7.58460731365501,-2.50273788618907,-0.185603268319279,-0.573091932406403,0.710123424392956,-7.95523033930782,2.91189580117475,671.043314030346,678.339320178704
0.84,0.562680649165517,0.00942747707421354,7.45297171252144,-0.462097957940916,-0.562701850182244,0.00806337837337587,-7.45182957745764,-0.480164366551044,1.57322056572445,677.885620185969,678.339320178704
0.85,0.559408941587259,-0.0552863389123521,5.69817434131603,2.77642306569657,-0.209247577075727,0.521737860123306,1.07540794186085,6.24669621658897,0.282908810249723,684.294895278262,678.339320178704
0.86,0.544122238422642,0.0394701134239492,4.65801254605263,-1.97416774837958,0.468971804365981,0.278733469302633,2.69270553134866,4.28296113680361,-0.962129249082009,690.229724753524,678.339320178704
0.87,0.517702406300254,0.0758429123851772,4.25368191758736,-3.7993797586359,0.386496919357203,-0.352686915231528,5.65167432190663,0.766598829534159,-2.16502241269935,695.856744996966,678.339320178704
0.88,0.428464342871037,0.0396865528129563,7.10338772838175,-1.99173700365197,-0.118622776872067,-0.413624651578269,0.63691631975499,-7.34979395038192,2.95466173822273,700.990752272783,678.339320178704
0.89,0.423070512807859,0.0646621419288071,5.81962929515716,-3.24438021230196,-0.425612237182371,-0.0449897206808772,-4.80392397911731,-4.61696897302653,1.82777751963773,705.876519221064,678.339320178704
0.9,0.454169882457078,-0.045520297936794,2.81777517965963,2.27540482991017,-0.338335245603989,0.30638479276462,-0.201674088724711,3.61616532600785,0.735020885381736,710.325589778673,678.339320178704
0.91,0.350009347159711,0.0552465655768364,6.60595264671607,-2.77559475553623,0.164338660696139,0.313929181038976,-0.515876537316097,7.14677605748648,-0.325710706564967,714.586108680996,678.339320178704
0.92,0.34984903248435,-0.00363223846187913,5.27071326818392,0.173935201426569,0.341042792515664,0.0780855451386316,5.18675762094148,0.953004297635022,-1.35609676122316,718.57319039881,678.339320178704
0.93,0.31213560047838,0.0241797168704072,5.90303187245754,-1.22019867484882,0.203016285162012,-0.238322637936366,5.02853341139963,-3.3239316815768,-2.35871173600332,722.172478620779,678.339320178704
0.94,0.325174523118731,-0.0434810284720696,4.05193725462421,2.16987083482722,-0.0200454390735801,-0.327455723258627,-2.91055841639248,-3.55741263561205,2.94752575271193,725.53601483049,678.339320178704
0.95,0.313846570890935,-0.0438401577468264,3.50753239519997,2.18768473117062,-0.268149856942301,-0.168870612342968,-4.09655024396063,0.554097541124667,1.99402418974793,728.583948927431,678.339320178704
0.96,0.250850779792976,0.0202217652807263,5.55822812412827,-1.02297729941935,-0.209307575799893,0.139733218049914,-5.35356127998019,1.81101188744709,1.06258835059936,731.530580568078,678.339320178704
0.97,0.220153444675058,0.0118765293111243,6.05400147194966,-0.605540284112397,-0.021527433855977,0.21942005546975,-1.5134123012426,5.89297853928717,0.151691970579293,734.232776836836,678.339320178704
0.98,0.158741289326967,-0.0232160045370966,8.15809697554629,1.1513026631162,0.0899373799804364,0.132849717674178,6.3528579562553,5.24606899231793,-0.740333699725176,736.673412234285,678.339320178704
