t,iq,id,vq,vd,ia,ib,va,vb,theta_e,omega,r
0,0,0,0,0,0,0,0,0,0,0,0
0.01,0.00105956900578201,0.000604460232416391,-0.0525077045599269,-0.0302808322323572,0.00121714623892468,-8.13245575350205e-05,-0.0604590206140787,0.00432373278812906,-1.11908410120855,-0.00175459607995982,0
0.02,0.00118156659351833,0.000674769806084092,-0.0586404938289831,-0.0338030447475588,0.00135759701430037,-9.13468821798766e-05,-0.0675141045897931,0.00481653736110776,-1.11909698375996,-0.00187420005628761,0
0.03,0.00121289243237235,0.000692739624473857,-0.0602011942177749,-0.0347032678088394,0.00139362359420997,-9.38590298457303e-05,-0.0693111555997053,0.00494613902874942,-1.11911001235154,-0.00183587296335167,0
0.04,0.00119530799293774,0.000683163449760298,-0.059350277936541,-0.0342235354426976,0.00137362170980707,-9.29348988052582e-05,-0.0683361223513029,0.00488674240471163,-1.11912191984188,-0.00172087604926162,0
0.05,0.00121197377705964,0.000692795662997919,-0.0601869410634342,-0.0347060593544829,0.00139281929350262,-9.43434290016622e-05,-0.0692994328990954,0.00495651393158159,-1.11913370733352,-0.00166599636123111,0
0.06,0.00121161941715261,0.000692865114053077,-0.0601841583206749,-0.0347095504278247,0.00139252971896461,-9.4576213147748e-05,-0.0692983972272637,0.00496164744839161,-1.11914493352513,-0.00158565263691922,0
0.07,0.00124447096927594,0.000711791304768006,-0.0618167720878997,-0.0356576704574503,0.00143034651033913,-9.72816286593123e-05,-0.0711810597238905,0.00510289235663457,-1.11915550664875,-0.00156740453307323,0
0.08,0.00121097775373968,0.000693002519335426,-0.060179634652063,-0.0347164280260155,0.00139201039489806,-9.50088014522822e-05,-0.0692972256836026,0.00497124876637042,-1.11916569897768,-0.00143706128116549,0
0.09,0.00121029416648412,0.00069285689686724,-0.0601584811265924,-0.0347091169564372,0.0013913308793516,-9.51894591050244e-05,-0.069274954597634,0.00497456700125364,-1.11917528642485,-0.0013677860352288,0
0.1,0.00120989383947032,0.000692852858723679,-0.0601506409507185,-0.0347089209837089,0.00139096805905187,-9.53731897719119e-05,-0.0692677696660707,0.00497844233910306,-1.11918438180225,-0.00130249604804022,0
0.11,0.00120951609705142,0.000692850044595645,-0.0601433028288136,-0.0347087774542638,0.00139062613470079,-9.5547510746296e-05,-0.0692610616015069,0.00498211334277499,-1.11919301098448,-0.00124055601387055,0
0.12,0.00120915746496341,0.000692847382067474,-0.0601363265770967,-0.0347086628093125,0.00139030151050129,-9.57130075398803e-05,-0.0692546938826301,0.00498562166845595,-1.11920119787175,-0.00118179078513684,0
0.13,0.00126511894163133,0.000724880047728373,-0.0629046569963012,-0.0363133499313533,0.00145463124436176,-0.000100124737181306,-0.0724457498053486,0.00522193356909645,-1.11920940073397,-0.00122036511618936,0
0.14,0.00136491577475264,0.000782690433370387,-0.0679472494788044,-0.0392094110485717,0.00156965128395926,-0.000108601258847104,-0.078246631550958,0.0056277240017048,-1.11921706430291,-0.00133862093785633,0
0.15,0.00120939113428621,0.000693521417919195,-0.0601781617837263,-0.0347424339346492,0.00139080367143452,-9.6249780919237e-05,-0.0693069569414756,0.00499935904734338,-1.11922440873794,-0.00101734643867871,0
0.16,0.00120786331543797,0.000692842861078092,-0.0601114663718063,-0.0347084348361843,0.00138913225498213,-9.63150927733329e-05,-0.0692320774949167,0.00499832810890802,-1.11923098942904,-0.000967964884569022,0
0.17,0.00120758023664951,0.000692835699190011,-0.0601056624212568,-0.0347080613471691,0.00138887382350078,-9.64408441114051e-05,-0.0692266611153869,0.00500095674769418,-1.11923722972767,-0.000923155062934881,0
0.18,0.00120732080861723,0.000692833733550351,-0.0601006046085505,-0.0347079727443443,0.00138863896909802,-9.65605031463659e-05,-0.069222041972994,0.00500349392170327,-1.11924315015085,-0.000880658302123745,0
0.19,0.00120707500117776,0.000692831905127613,-0.0600958204668782,-0.0347078870565605,0.00138841645798106,-9.66739180874679e-05,-0.0692176718358698,0.00500589324097601,-1.11924876711853,-0.000840339871797544,0
0.2,0.00120684153375994,0.000692830170548224,-0.060091266937184,-0.0347078013738149,0.00138820511769353,-9.67816306920452e-05,-0.06921351061701,0.0050081719608185,-1.11925409618442,-0.000802087990983601,0
0.21,0.00120662040636379,0.00069282852474134,-0.0600869638493932,-0.0347077156934145,0.00138800494477086,-9.68836572411082e-05,-0.0692095760873978,0.00501032245428151,-1.11925915210562,-0.000765796736286806,0
0.22,0.00120641045483608,0.00069282696316887,-0.0600828717321018,-0.0347076300155821,0.00138781488855806,-9.69805213853506e-05,-0.0692058326648193,0.00501236292019678,-1.11926394888161,-0.000731365614504807,0
0.23,0.00120621144634617,0.0006928254815247,-0.060078996812929,-0.0347075443388986,0.00138763473653445,-9.7072339569129e-05,-0.0692022858884567,0.00501429156480311,-1.11926849979575,-0.000698699283286569,0
0.24,0.00120602211856167,0.000692824075724099,-0.0600752928880235,-0.0347074874171181,0.00138746334999961,-9.71596766708479e-05,-0.0691989066706825,0.00501615529797417,-1.11927281744931,-0.000667707287111942,0
0.25,0.00120584280249375,0.000692822741888884,-0.0600717924859241,-0.0347074304859876,0.0013873010240526,-9.72424015900857e-05,-0.0691957116713347,0.0050179148766303,-1.11927691379867,-0.000638303806815631,0
0.26,0.0012157610892438,0.000698512906330313,-0.0605655742471932,-0.0349924870691497,0.00139870777997017,-9.8040056508538e-05,-0.0697643692671265,0.0050592208823992,-1.11928077947823,-0.000628011430366152,0
0.27,0.00117017643224171,0.000672613807084744,-0.0583242257304402,-0.0336950309726987,0.00134639039866996,-9.46314452194272e-05,-0.0671814961820116,0.00487000924566129,-1.1192845806999,-0.000522136005237793,0
0.28,0.00114952196152325,0.000660546012937781,-0.0572068993177531,-0.0330904865668936,0.00132253991798549,-9.27897654226572e-05,-0.0659123430068311,0.0048137999683355,-1.11928813018569,-0.000461186939731087,0
0.29,0.0012047667317228,0.000692573232768589,-0.0600374929099423,-0.034694934318067,0.00138622251957535,-9.75073681100627e-05,-0.0691593246675433,0.00502263215611963,-1.11929130234881,-0.000534251323855352,0
0.3,0.00120258698283206,0.000691437735690897,-0.0599334678235847,-0.034638037300904,0.00138376550767517,-9.74403067675675e-05,-0.0690408854825049,0.00501700360884072,-1.11929388997504,-0.000512101471331212,0
0.31,0.00120494793124754,0.000692805768122549,-0.060053721780211,-0.0347065619500016,0.00138648647467941,-9.76453014366759e-05,-0.06917897250256,0.0050264008529297,-1.1192968999666,-0.000494808865947336,0
0.32,0.00120484232494138,0.00069281522120468,-0.0600522357631925,-0.0347070516536847,0.00138639529567751,-9.77038526687794e-05,-0.0691778346700648,0.00502768783943194,-1.11929976189902,-0.000474300449155666,0
0.33,0.00120472377767034,0.000692814415475513,-0.060049920175223,-0.0347070004744621,0.0013862880104313,-9.77586155251877e-05,-0.0691757151306102,0.00502883994114341,-1.11930247719073,-0.0004548104323862,0
0.34,0.00120461083656759,0.000692813576861785,-0.0600476982197104,-0.0347069721871686,0.00138618576857912,-9.78107092746007e-05,-0.069173690523627,0.00502996214973646,-1.11930505330841,-0.000436319127937572,0
0.35,0.00120450416365059,0.000692812780637096,-0.0600456124563883,-0.0347069151687051,0.0013860891979884,-9.78599227752664e-05,-0.0691717765855863,0.00503098994077659,-1.11930749738552,-0.000418775605867593,0
0.36,0.0012044025148295,0.000692812025190891,-0.0600436097867524,-0.0347068839481158,0.00138599717790169,-9.79068068382812e-05,-0.0691699492966752,0.00503199601620886,-1.11930981618951,-0.000402131289020266,0
0.37,0.00120430598828599,0.000692811308439622,-0.0600417037127075,-0.0347068556260984,0.00138590979515751,-9.7951325717389e-05,-0.0691682107830632,0.00503295432575446,-1.11931201614156,-0.000386340088034716,0
0.38,0.00120421458401636,0.000692810628402507,-0.0600399023941643,-0.0347068272920513,0.00138582704832173,-9.79934861358186e-05,-0.0691665670870917,0.00503385911283686,-1.11931410333351,-0.000371358275876289,0
0.39,0.00120412816736257,0.000692809983200398,-0.0600382068932983,-0.0347067702386502,0.00138574881487036,-9.80333532195906e-05,-0.0691650066110567,0.00503468448399964,-1.11931608354485,-0.000357144366768459,0
0.4,0.00120404595990254,0.000692809371049653,-0.0600365856171068,-0.0347067418847163,0.00138567439308637,-9.80712726366615e-05,-0.069163525952174,0.0050354962690359,-1.11931796225911,-0.000343659001314546,0
0.41,0.00120396794339382,0.000692808790258464,-0.0600350446622923,-0.0347067135207496,0.00138560376532837,-9.81072580758986e-05,-0.0691621180445639,0.00503626633575134,-1.11931974467834,-0.00033086483751221,0
0.42,0.00120389388500576,0.00069280823922059,-0.0600335789858951,-0.0347066851470996,0.00138553672092911,-9.81414165538619e-05,-0.0691607783262487,0.00503699722682989,-1.1193214357384,-0.000318726447348724,0
0.43,0.00120382378473837,0.000692807716412918,-0.0600321948901401,-0.0347066567636011,0.00138547325878232,-9.81737532245307e-05,-0.0691595124447079,0.00503768651708985,-1.11932304012215,-0.000307210218697078,0
0.44,0.00120375672951315,0.000692807220389599,-0.0600308526816516,-0.0347066570715393,0.00138541255624408,-9.8204671342056e-05,-0.0691582971836679,0.00503837765784376,-1.11932456227168,-0.000296284262244303,0
0.45,0.00120369373058011,0.000692806749779224,-0.0600296085754205,-0.0347066286686586,0.00138535552224497,-9.82337343425975e-05,-0.0691571580606688,0.00503899476423824,-1.11932600640243,-0.000285918323184157,0
0.46,0.00120363375844515,0.00069280630328036,-0.0600284164646744,-0.0347066002582831,0.00138530122949244,-9.82613957794778e-05,-0.069156066091705,0.00503958405668374,-1.11932737651315,-0.000276083697442131,0
0.47,0.00120357681310425,0.000692805879658112,-0.0600272814319745,-0.0347065689298775,0.00138524967708269,-9.82876598222573e-05,-0.0691550245613784,0.00504014096161572,-1.11932867639787,-0.000266753152189747,0
0.48,0.00120352267997973,0.00069280547774095,-0.0600261976034722,-0.0347065691977329,0.00138520067108256,-9.8312624041221e-05,-0.0691540432245178,0.00504069934727703,-1.11932990965591,-0.000257900850436767,0
0.49,0.00120347155540865,0.000692805096416747,-0.0600251793772401,-0.0347065407632802,0.00138515438734629,-9.83362065267076e-05,-0.0691531087121798,0.00504119891142231,-1.11933107970252,-0.000249502279484444,0
0.5,0.00120342310838969,0.000692804734631352,-0.0600242145227162,-0.0347065123218953,0.00138511052726627,-9.83585552459557e-05,-0.069152222522462,0.00504167103476812,-1.1193321897772,-0.000241534183050283,0
0.51,2.57839670084212,0.0236343131856146,8.92018564355795,-1.1819643773359,-0.147966264343819,2.57425603083482,-1.7728312359813,8.82178106243617,0.0665820839003241,20.3037254589523,550.629829136447
0.52,2.57343865956403,-0.01194075934484,5.41928066545964,0.602941906645147,-0.764073547466203,2.45742156137991,-1.00840175370533,5.35866287211069,0.296809288666207,42.422666949908,550.629829136447
0.53,2.43500647636682,0.00578015943595739,8.64648362489943,-0.282098588653895,-1.54044955858823,1.88581682770008,-5.70390859960479,6.50435895202049,0.687311376486134,64.072403479458,550.629829136447
0.54,2.35233271311277,0.0213719259811773,8.99313622512171,-1.06010827687587,-2.21500166755746,0.792271143686487,-8.84287649693568,1.95034970767798,1.23637751406966,85.8226867408726,550.629829136447
0.55,2.27868387662299,0.0893695571468817,8.62630590129028,-4.46785926374752,-2.15191795661106,-0.754742496048226,-6.37922454024605,-7.32669189801322,1.94732118394112,108.312194961903,550.629829136447
0.56,2.25452083026327,0.0377574363574069,5.87407408670556,-1.88378476308071,-0.744717986905341,-2.12830564489007,-0.0587058254327042,-6.16846375005812,2.82174281096594,129.828481044591,550.629829136447
0.57,2.1592138048301,0.0302907416393283,7.23862421212204,-1.50497513623214,1.37237005990171,-1.66724989209276,5.82670220729257,-4.5510627366065,-2.43887625471716,148.911410151274,550.629829136447
0.58,2.16415967734291,0.0137057471988766,3.72864717725195,-0.667517703585409,2.0771177748289,0.607747238605876,3.38040297970086,1.70917095454446,-1.2798170271968,167.419622570342,550.629829136447
0.59,1.97883433803479,-0.007940464762833,9.3411791250464,0.406218323780997,-0.0469127314971413,1.97829410957767,0.222161868331944,9.34736780473719,0.0196966094380418,187.160540606141,550.629829136447
0.6,1.95944911521172,0.0843218328297446,7.06796055386496,-4.20868143365747,-1.93735371319434,0.305305742769205,-7.49845669335511,-3.3826340356122,1.457499612912,204.725130887098,550.629829136447
0.61,1.93922303599971,0.0345253944220506,4.99371703323846,-1.70615770597956,-0.269454050994854,-1.9207218696663,1.08794009644533,-5.16377480843964,3.02001619545336,221.84100844968,550.629829136447
0.62,1.82137428719483,0.000886677823072557,7.58878016903235,-0.0321979991610436,1.82137265817387,-0.00259235581808311,7.58880699412311,0.0250912533920402,-1.57173280571915,239.173183225964,550.629829136447
0.63,1.73115511542903,0.0522529347611719,9.22327613330483,-2.59330723101423,-0.358596908389525,1.69441336755844,-4.70079407190749,8.34844896487608,0.238732164009014,254.828679802604,550.629829136447
0.64,1.71876200575528,-0.016621146023921,6.72242189022408,0.844507153543857,-1.41241508940946,-0.979542092067266,-6.0353057445394,-3.07883630166989,2.16749183190197,271.136347019473,550.629829136447
0.65,1.66197055438239,0.0482443471310873,6.83325695245932,-2.39008089520287,1.43197781322035,-0.844933833568565,7.13778307223476,-1.20745189455573,-2.07484485251986,285.785256600521,550.629829136447
0.66,1.62555271838553,0.0459161226278498,5.72068359223513,-2.28556795108506,-0.0788559028118758,1.62428805239695,-2.71746480259629,5.52860078755427,0.0767488513669721,300.855055200789,550.629829136447
0.67,1.53873724819846,-0.0428466837324681,7.41247059440539,2.16844460158835,-1.08409161825727,-1.09283737148972,-6.8611290106891,-3.54567074074323,2.33237378067351,314.844782894457,550.629829136447
0.68,1.51266008489663,0.0598864993020922,6.03511767709243,-2.9776228615233,1.51110043922628,-0.0911174396494724,6.09533243762201,2.85233338806891,-1.59145261198461,328.464852214241,550.629829136447
0.69,1.40256398865533,-0.0738551275715734,8.89960539650339,3.70831669206132,-1.11565267349372,0.853205388091098,-4.37072784302906,8.59367948112236,0.86530756197362,341.9314980799,550.629829136447
0.7,1.33328523086387,0.0131977977001237,9.94916892443845,-0.632295573143239,0.349886405666112,-1.28662472844023,3.31414082544489,-9.40224603847122,-2.86617392423826,354.309678125197,550.629829136447
0.71,1.34831477054962,0.0468371125245246,6.71254576212133,-2.32455520120336,0.342895075405609,1.30482543003058,-0.787725770560866,7.05983821361431,-0.222256058460906,366.651591284257,550.629829136447
0.72,1.2217335191326,0.0264678724212192,10.6395922852473,-1.31808328273392,-0.743499748715339,-0.969815169866331,-5.22574605554297,-9.36108143856753,2.50918711029195,378.627742505463,550.629829136447
0.73,1.23226429922683,-0.00976904592342409,7.90187674172909,0.503987626917364,1.00273387685731,0.716306854364776,6.75571947071111,4.12963848328395,-0.95842924667428,389.792138772741,550.629829136447
0.74,1.19517004149792,0.0218893159391316,7.5398574416085,-1.06800805668377,-1.12278328426632,-0.410205152111182,-6.64863581053753,-3.71291439542558,1.93938984242139,400.565919742169,550.629829136447
0.75,1.15561497568916,-0.0077285914870735,7.30637596276204,0.406103607737648,1.13024020304146,0.240962209884101,7.23783114094087,1.07789156443076,-1.36743326619016,411.256139058868,550.629829136447
0.76,1.07984349966648,-0.00171851577764312,8.97043337025684,0.0937548925747395,-1.0726827756761,-0.124163601092424,-8.92319897968418,-0.924112979598455,1.68444257772963,421.497288524688,550.629829136447
0.77,1.09315877654812,0.0711376526181127,6.28750912975135,-3.5605959887749,1.09491806155092,0.034801075468582,5.91412450385532,4.15135474331989,-1.47403915271837,431.241190876009,550.629829136447
0.78,0.97230666449713,0.0105593980386393,10.3726984435846,-0.500727729005194,-0.962920643427173,-0.135187222673861,-10.1806984180358,-2.04865345559961,1.72113732069697,440.518007324247,550.629829136447
0.79,0.969685876039904,0.0583711713740653,8.59865957199875,-2.89545702555249,0.94986058785511,0.203624054272576,7.50821387499537,5.09385337728463,-1.29949654455795,449.438646876083,550.629829136447
0.8,0.867156978785879,0.0214216905504128,11.8454956928763,-1.05058661234704,-0.787596535698582,-0.363471885623473,-10.1659010804169,-6.17040968357626,2.02786663210173,458.12556530951,550.629829136447
0.81,0.887272887879787,-0.0540127513933411,9.00195006758875,2.72263382416466,0.640652498046048,0.616226363949949,8.61972121696004,3.76141543859961,-0.865629664504432,466.592216712666,550.629829136447
0.82,0.880951490265034,0.0227383226938581,7.54955386740998,-1.1286103436651,-0.485236580953284,-0.735620839851538,-3.03516040105144,-7.00409353482962,2.58428372910993,474.649561863346,550.629829136447
0.83,0.809210958597973,-0.0244639024428727,9.41829067794009,1.22985271791249,0.129822108802653,0.799103921967485,2.99794348645124,9.0127172292253,-0.191275143155695,482.40829663729,550.629829136447
0.84,0.81071840292114,-0.0470809721482958,7.67514549247108,2.35955205604924,0.230846353186776,-0.778582627595683,-0.545807803495409,-8.01108220388786,-2.91136196151939,489.891999647551,550.629829136447
0.85,0.764664031246109,-0.07846488610282,8.35361641572762,3.92881765038527,-0.555641414574032,0.531159521653191,-2.4271190130585,8.90660477665551,0.705665275655252,497.049977179111,550.629829136447
0.86,0.675078617905416,-0.00970995280726233,11.2780814014832,0.481642550106706,0.63997612307768,-0.215072047061138,10.477786437891,-4.2003679608461,-1.90938366505982,503.846876563427,550.629829136447
0.87,0.628599801062603,0.00727974742285969,12.1066868734885,-0.370801222678652,-0.612769242795508,-0.140372930803286,-11.681927838573,-3.20030038805919,1.8075707546013,510.326943382472,550.629829136447
0.88,0.685265857224987,-0.00506596540973155,7.80527621670099,0.248913663864874,0.443793226195275,0.522170979150526,5.28702818778415,5.74731483152199,-0.711828695733168,516.634931584277,550.629829136447
0.89,0.551313584214929,-0.0336032632085376,13.0698952166184,1.67583409397463,0.00903820637970978,-0.552262761974417,-2.25574469948784,-12.9823802414906,3.09708100578011,522.656359385339,550.629829136447
0.9,0.592489083085411,0.0556210246660541,9.62160006782995,-2.79325856088281,-0.322433484217238,0.500173630068424,-8.1421856175942,5.83800433554588,0.666202720967784,528.435441644062,550.629829136447
0.91,0.595483967648179,0.020319738037162,8.12863676360286,-1.0249548955263,0.585500814646014,-0.110466481471851,8.19002863248047,-0.220678888000982,-1.72316454155282,533.95393079289,550.629829136447
0.92,0.523730181390003,-0.036103112379651,10.4143366959049,1.80000268919997,-0.398726306739281,-0.341488023122855,-9.43111514518282,-4.76995656323009,2.21019574290772,539.228183874554,550.629829136447
0.93,0.567770248399756,0.0114710439921359,6.95368398007352,-0.582579198554333,0.0691497379801126,0.563660317527739,0.127580763189837,6.97687914229444,-0.101868922602201,544.294579293377,550.629829136447
0.94,0.552282890953208,0.0515884355437746,6.51170268683808,-2.59238546791015,0.344674642226062,-0.43459998772184,6.37577043946413,-2.91071908628459,-2.37794336872142,549.065107163506,550.629829136447
0.95,0.551235826599658,-0.0348133203375401,5.38026184335398,1.73699590056748,-0.545632517180126,-0.0857791349665637,-5.51815085241883,1.23060287322447,1.66365922008967,553.693388963126,550.629829136447
0.96,0.487589241008285,0.064771486250251,7.41237265192264,-3.25150871469886,0.308105485438436,0.383418339703316,1.06105156231862,8.02432220407646,-0.544850119705939,558.093620312107,550.629829136447
0.97,0.405480028155791,0.032105831418991,10.4222779482467,-1.61381723540506,0.135882582734713,-0.383380700288459,5.72010080697854,-8.86051524787376,-2.72195956515856,562.214491915216,550.629829136447
