t,iq,id,vq,vd,ia,ib,va,vb,theta_e,omega,r
0,0,0,0,0,0,0,0,0,0,0,0
0.01,0.00141921547871661,0.000812558439368534,-0.0706861518926669,-0.0407311498386873,-0.00162446150235216,-0.000188543416203291,0.0810633480729341,0.00918108031666744,2.20632849133744,-0.000863840105689681,0
0.02,0.0016148549965531,0.000925158507623969,-0.0804845489592223,-0.0463754574258574,-0.00184874498674113,-0.000214048821816541,0.0922992267912706,0.0104545878139961,2.206322115165,-0.00095286922121279,0
0.03,0.00164369002341853,0.000941680823531703,-0.0819229329930866,-0.0472036787372926,-0.00188175933514808,-0.000217856537831708,0.0939484825306326,0.0106412812534349,2.20631558776582,-0.000935920194474343,0
0.04,0.00163002221015283,0.000934140017087976,-0.0812512525946415,-0.0468257051570551,-0.00186628508774449,-0.000215800714501107,0.0931836387090174,0.0105461930857071,2.20630956641966,-0.000894898214629776,0
0.05,0.00164309494011607,0.000941685117698544,-0.0819067846922283,-0.0472039062315187,-0.00188128560819093,-0.000217477133381056,0.0939357503372197,0.0106303786723042,2.20630351627559,-0.000870579785519169,0
0.06,0.00164281776355005,0.000941692406548395,-0.0818994766788322,-0.0472042493439478,-0.00188106813673503,-0.000217295784005829,0.0939301346120755,0.0106252175577517,2.2062976922108,-0.000839061451454527,0
0.07,0.00168000352816898,0.000963009975976241,-0.0837512349148675,-0.0482728390403322,-0.00192364922494052,-0.000222201997911152,0.0960547370361438,0.0108638773785607,2.20629211821051,-0.000832508142019568,0
0.08,0.00164231536302767,0.000941717680797764,-0.0818866629745025,-0.0472055175720321,-0.001880681202527,-0.000216956577280827,0.0939206918417995,0.0106155596320175,2.20628671149157,-0.000779649668933052,0
0.09,0.00164198559657813,0.000941678679734839,-0.0818760181755274,-0.047203590705517,-0.00188039378373823,-0.000216782502328467,0.093911036237276,0.0106103063393245,2.20628154127179,-0.000751617282418171,0
0.1,0.00164172962281998,0.000941674376300221,-0.0818688124828213,-0.0472033533797757,-0.00188018630225708,-0.000216624685181325,0.0939051490447305,0.0106057536521595,2.20627657227866,-0.000724714144570922,0
0.11,0.00164148355983542,0.000941670293948834,-0.0818618838119274,-0.0472031581571058,-0.00187998688471285,-0.000216472938316362,0.0938995076944585,0.0106013497244722,2.20627179663837,-0.000698857921040956,0
0.12,0.00164124704289796,0.000941666370284837,-0.0818552224869242,-0.0472029629764263,-0.00187979520233847,-0.000216327081087846,0.0938940795178825,0.0105971219501947,2.2062672068268,-0.000674007809710632,0
0.13,0.00170932869327348,0.00098064632966272,-0.085239404372609,-0.0491569185178662,-0.00195772464663869,-0.000225357523664958,0.097777477364438,0.0110328426172094,2.20626256088718,-0.000691927860262381,0
0.14,0.00189066104477702,0.0010851787983204,-0.0943365905364662,-0.0543968176717376,-0.00216570665572259,-0.000248851144100863,0.108209058111478,0.0122149838102175,2.20625817822044,-0.000782665454073057,0
0.15,0.00164098605014655,0.000941888181648157,-0.081856939806244,-0.0472140674713368,-0.00187971967951222,-0.000215968724491603,0.0939021931844077,0.0105879590473881,2.20625394389968,-0.000602465732725531,0
0.16,0.00164036385483897,0.000941652078799631,-0.0818303648273135,-0.0472022421614992,-0.00187907963933348,-0.000215782118842578,0.093873827992716,0.0105813369116581,2.20625004847739,-0.000581109531018347,0
0.17,0.00164017031058882,0.0009416484994954,-0.081824896208077,-0.0472020687931635,-0.00187892255733043,-0.00021566308885348,0.0938693635323754,0.0105778791751403,2.20624630492738,-0.000560840787612941,0
0.18,0.00163998491542068,0.00094164542212687,-0.0818196702006436,-0.04720191290354,-0.0018787722994187,-0.00021554876653985,0.0938651031369948,0.0105745650774296,2.2062427070461,-0.000541361170730245,0
0.19,0.00163980697082719,0.000941642464951188,-0.081814658516171,-0.0472017570311979,-0.00187862807817499,-0.00021543903375509,0.0938610137382842,0.0105713913451136,2.20623924916501,-0.000522639541629297,0
0.2,0.00163963532815268,0.000941639622713014,-0.0818098099246549,-0.0472016402675271,-0.00187848896729358,-0.000215333202608767,0.0938570773679709,0.0105682955955978,2.20623592583651,-0.000504646404924594,0
0.21,0.00163947100413835,0.000941636890949506,-0.0818051811342582,-0.0472014815119816,-0.00187835578361791,-0.000215231870215865,0.0938532915872162,0.0105653762630447,2.20623273182484,-0.000487353413674923,0
0.22,0.00163931274921797,0.000941634265371366,-0.0818007153545331,-0.0472013647643832,-0.0018782275200957,-0.000215134288817946,0.0938496606022038,0.0105625315613662,2.20622966209798,-0.000470733323969458,0
0.23,0.00163916111446632,0.000941631741854682,-0.0817964456551435,-0.0472012089415469,-0.00187810461890203,-0.000215040779634017,0.0938461629558352,0.0105598459186311,2.20622671181982,-0.000454759952005537,0
0.24,0.00163901496673162,0.000941629316436486,-0.0817923205743461,-0.0472010922075863,-0.00187798616677045,-0.000214950664483146,0.0938428036742071,0.0105572254446845,2.20622387634255,-0.000439408132836988,0
0.25,0.00163887463975966,0.000941626985307121,-0.0817883618576354,-0.0472009754773183,-0.00187787243106294,-0.000214864136048093,0.0938395771092192,0.0105547140808656,2.20622115119883,-0.000424653680729105,0
0.26,0.00164793248840814,0.000946827296821394,-0.0822408086773047,-0.0474616482637784,-0.0018882494164979,-0.000216049895747455,0.0943584573155375,0.0106132087911028,2.20621853655532,-0.000416293004935772,0
0.27,0.00159029040807209,0.00091399811662113,-0.0793827081154766,-0.0458160503752133,-0.00182237369315899,-0.00020825528006544,0.0910815327022124,0.0102410556265869,2.2062159798609,-0.000366192401633831,0
0.28,0.001533453344439,0.000881098477959134,-0.0764832338360238,-0.0441668770725722,-0.00175710398931849,-0.000200995667003283,0.0877691846027527,0.00984724949046789,2.20621352049152,-0.000317122662212584,0
0.29,0.00163818831091394,0.000941520214314892,-0.081765187620322,-0.0471956181865815,-0.00187725880897198,-0.000214524171402011,0.0938178505499634,0.0105443444928918,2.2062112716284,-0.000371051892035192,0
0.3,0.00163722130248169,0.000941037380917392,-0.0817193650680143,-0.0471714228254745,-0.00187619438832813,-0.000214335164613121,0.0937666317920723,0.0105364377694285,2.20620931406597,-0.000359907205780392,0
0.31,0.00163815170078412,0.000941614071108104,-0.0817679186981105,-0.0472003457160685,-0.0018772859317167,-0.000214419178874567,0.0938228978179154,0.0105417744704671,2.206207156296,-0.000348881436716426,0
0.32,0.00163804643037618,0.00094161323596449,-0.0817649770614369,-0.0472003146063308,-0.0018772011561749,-0.00021435347785206,0.0938205337081666,0.0105398589890319,2.20620508176162,-0.000337650615129451,0
0.33,0.0016379441711922,0.00094161153152316,-0.0817620954142395,-0.0472001978814985,-0.00187711827066261,-0.000214290415521789,0.0938181662085911,0.0105380556003935,2.20620308795004,-0.000326855734175164,0
0.34,0.00163784541997657,0.000941609891896035,-0.0817593015249561,-0.0472001202066136,-0.00187703823007677,-0.000214229528975223,0.0938158916913735,0.0105362801557261,2.2062011717213,-0.000316480899802925,0
0.35,0.00163775051046094,0.000941608316027093,-0.0817566154677866,-0.0472000396173929,-0.00187696130306109,-0.00021417101143166,0.0938137014393335,0.010534578059067,2.20619933005673,-0.000306509769047652,0
0.36,0.0016376593262382,0.000941606801440106,-0.0817540346952301,-0.047199961934137,-0.00187688739510428,-0.000214114790315635,0.0938115968878194,0.0105329428409228,2.20619756005459,-0.000296926633075907,0
0.37,0.00163757175088895,0.000941605345754401,-0.0817515565451798,-0.0471998842464497,-0.00187681641171546,-0.000214060793183332,0.0938095741969928,0.0105313750012463,2.20619585892662,-0.000287716394308287,0
0.38,0.00163748721785124,0.000941603946679954,-0.0817491557108041,-0.0471998455951555,-0.0018767478961417,-0.000214008680564978,0.0938076361985145,0.0105298278467869,2.20619422399269,-0.000278864542640954,0
0.39,0.00163740639458843,0.000941602602016546,-0.0817468685059773,-0.0471997678971269,-0.00187668238484617,-0.000213958845508898,0.0938057658045482,0.0105283855314314,2.20619265267704,-0.000270357132582824,0
0.4,0.00163732871453781,0.000941601309649222,-0.0817446693613338,-0.0471996901947626,-0.00187661942113198,-0.000213910948792841,0.0938039656341923,0.0105270012242151,2.20619114250424,-0.00026218076128778,0
0.41,0.00163725372755463,0.000941600067544995,-0.0817425384586673,-0.0471996515232182,-0.0018765586420247,-0.000213864720406848,0.0938022429296657,0.0105256315223322,2.20618969109509,-0.000254322547438679,0
0.42,0.00163718210109852,0.000941598873750259,-0.081740511791581,-0.0471995738108244,-0.00187650058406634,-0.000213820553744982,0.0938005803493818,0.0105243604077501,2.20618829616306,-0.000246770110952708,0
0.43,0.00163711270204966,0.000941597726386585,-0.0817385351648002,-0.0471995351265653,-0.00187644433464752,-0.000213777773676216,0.0937989806318676,0.010523092676285,2.20618695551035,-0.000239511553479798,0
0.44,0.00163704666352677,0.000941596623649073,-0.0817366676143966,-0.0471994574041506,-0.00187639080514062,-0.000213737050169591,0.0937974449825423,0.0105219259976267,2.20618566702501,-0.000232535439654429,0
0.45,0.00163698273599692,0.000941595563802971,-0.0817348489756605,-0.0471994187066202,-0.00187633898928797,-0.000213697639208314,0.0937959713298937,0.010520761645368,2.20618442867711,-0.000225830779082686,0
0.46,0.00163692125318845,0.000941594545180656,-0.0817330981210025,-0.0471993800024223,-0.00187628915512581,-0.000213659736523502,0.0937945517191294,0.0105196420508512,2.20618323851549,-0.000219387009025903,0
0.47,0.0016368625488232,0.00094159356617884,-0.08173143384207,-0.0471992993557247,-0.00187624157070725,-0.000213623537933772,0.0937931764061816,0.0105186119422135,2.20618209466544,-0.000213193977762341,0
0.48,0.0016368059554571,0.000941592625257477,-0.0817298248379351,-0.0471992606392817,-0.00187619569832583,-0.000213588645163396,0.0937918699954962,0.0105175850689374,2.20618099532473,-0.000207241928590577,0
0.49,0.00163675145756642,0.000941591720936036,-0.0817282722782269,-0.0471992219168715,-0.00187615152498721,-0.000213555046929924,0.0937906085582156,0.0105165957144717,2.20617993876155,-0.00020152148446018,0
0.5,0.00163669905515116,0.000941590851790794,-0.0817267780282957,-0.0471991831887946,-0.00187610905021007,-0.000213522741244772,0.0937893936135752,0.0105156448291851,2.20617892331107,-0.000196023633199534,0
0.51,1.81439310251185,0.0122368624781216,2.90106556332056,-0.612566138395972,-0.0262347625356853,1.81424469366196,-0.673937011023716,2.8874257707803,0.0212036503928407,6.50983890449203,309.166191890459
0.52,1.70289680016904,-0.0967062300325602,7.42988829489284,4.84966186607,-0.258772202241578,1.6858963652313,4.1184950045114,7.85878229674381,0.0955753730005694,13.7717206795128,309.166191890459
0.53,1.81581092432541,0.0208687533780413,0.74274628447492,-1.04275688285418,-0.380940012789609,1.7755251404649,-1.18112000033706,0.493932692423627,0.222838886359094,20.9487415479459,309.166191890459
0.54,1.73384511086315,0.0613242617443263,3.76127824614446,-3.06914777697645,-0.623220039037471,1.61912825819472,-4.29788697694061,2.25722166728998,0.402785402464756,28.1506691884764,309.166191890459
0.55,1.68480539221827,-0.00439833017590763,5.07838653276112,0.227165512202379,-1.0039985981378,1.35298757196562,-2.83283494313995,4.220978575045,0.635789836682284,35.4648382573341,309.166191890459
0.56,1.71705347485993,0.0832831971277552,2.21631545267573,-4.16685470967515,-1.31939944218685,1.10199538946831,-4.28092114153373,-1.98706983704166,0.923408271454255,43.0784557839126,309.166191890459
0.57,1.62806042469539,-0.0783314894747891,5.34926723907854,3.92962142150161,-1.57715253726215,0.411468641466444,-3.93154261107511,5.3478553840492,1.2675153422935,50.7157094233423,309.166191890459
0.58,1.55190469400361,0.118376663052244,8.00650798077702,-5.92947161147421,-1.55615019686131,-0.028596825598645,-7.41124668951259,-6.65854534749996,1.66530179020596,57.7096021495394,309.166191890459
0.59,1.63269496317604,-0.0712119441409688,2.93618716888099,3.57875061233081,-1.3622609285347,-0.902778569947537,-4.36095215172073,1.55265816146433,2.11246338619296,64.2604251097934,309.166191890459
0.6,1.49984188048807,0.113305530125271,8.51662228192515,-5.66746227343229,-0.860892788724038,-1.23338048304078,0.543867637400548,-10.2155367801575,2.60761569428218,70.8741698138392,309.166191890459
0.61,1.48525566943208,-0.0512938175182166,8.01429989400603,2.57481936293258,0.0681648969383414,-1.48457704620579,-2.48360055949244,-8.04303585741643,-3.13023113962391,77.9670284942238,309.166191890459
0.62,1.54446618416613,0.0623962316742948,3.90593514198836,-3.12071068262033,0.830741056627842,-1.30351002320377,4.79231860770457,-1.4243759546864,-2.53381163422483,84.5985473606803,309.166191890459
0.63,1.51595537122224,-0.0526384537943235,4.30118906812929,2.65326494911504,1.45560312549597,-0.42674469580977,3.24863250517941,-3.87123095878935,-1.89068785685794,90.8212356561787,309.166191890459
0.64,1.45479381369455,-0.103337800228978,6.20010622040895,5.18461116367239,1.31915183759055,0.622046759256542,7.65462924714246,-2.59386991802236,-1.20107970287107,97.4629924691438,309.166191890459
0.65,1.38655330274912,0.0032120345085915,8.49683981326334,-0.152649002491049,0.622292279789139,1.23906928662001,3.65924532786345,7.67003990607142,-0.463109923915858,103.692389541901,309.166191890459
0.66,1.38104437261198,-0.015728089818293,7.77922741877193,0.80633473494282,-0.447337758730364,1.30668277005042,-1.66985732778627,7.64055832008282,0.318451945334081,109.584742877286,309.166191890459
0.67,1.45562970214536,-0.0271152685512577,2.86995981407409,1.36469369473839,-1.33704244870481,0.576116791907534,-2.05080315834359,2.42760470847023,1.14532258680995,115.984510931541,309.166191890459
0.68,1.38665011927613,0.0184065725275833,5.30549728359755,-0.905747465888943,-1.25897929343782,-0.58147097425024,-4.39597840212686,-3.10548768895634,2.01674170548837,121.730482026875,309.166191890459
0.69,1.35921238099208,0.082519309405002,5.57049196828153,-4.13251208061275,-0.365047980394309,-1.31187183256478,2.87568915881999,-6.31177064910826,2.93083026056892,127.769239194397,309.166191890459
0.7,1.24185894665716,0.115152212947592,10.4118864177317,-5.75743965322396,0.759075575546854,-0.989584734192768,11.2979020938778,-3.72999978732093,-2.39479796713135,133.359891190984,309.166191890459
0.71,1.20313549550954,-0.0851781896935291,11.2903680757209,4.27258946774628,1.17014128785415,0.29250591620253,11.8601918810785,-2.25017345757036,-1.39652022641649,139.116790981818,309.166191890459
0.72,1.23389324976149,-0.0762261788452195,8.73282789186456,3.83784939366694,0.359121946947693,1.18293465980536,6.64386745905046,6.84473492138064,-0.356441650167774,144.545420690256,309.166191890459
0.73,1.24806467625348,0.0746400908512461,6.97165931231781,-3.73828134975374,-0.770027502587791,0.985035138729779,-7.4164010960108,2.75241272341813,0.72323198334677,150.12172285621,309.166191890459
0.74,1.23859764879362,0.0114567473371515,6.45999459596599,-0.553147432065362,-1.19607272886105,-0.321971147669324,-6.07341993102629,-2.26959745393824,1.8430028108038,155.328147915811,309.166191890459
0.75,1.12155048594423,-0.0138680541767418,11.2396037006241,0.699874383038147,-0.14268177686615,-1.11252403389711,-2.26053867127517,-11.0321566529299,3.00167400245109,160.772500984191,309.166191890459
0.76,1.20329541717423,0.0140923736818991,6.19255010982523,-0.681640061889757,1.04102075869093,-0.60365075661599,5.72807718397896,-2.44978403355259,-2.084567613274,165.838730922274,309.166191890459
0.77,1.20268712328653,0.00844144544617815,5.18250827078061,-0.408286979102203,0.908629387024372,0.787984905665181,3.62170159608671,3.72939241471272,-0.8493689283924,171.005375965034,309.166191890459
0.78,1.19353736393422,0.0168905960424452,4.63408128252376,-0.843599091617153,-0.473939648789913,1.09553545841593,-2.66939012380238,3.88081500813433,0.422449496095728,176.091879997939,309.166191890459
0.79,1.05252608371966,0.0415505724676595,10.7246078191138,-2.05856127221054,-1.04567264738437,-0.12691068313897,-10.258786069294,-3.74328676028177,1.73102964110658,180.890769602689,309.166191890459
0.8,1.12668266705353,-0.0806231651361869,6.00398352817888,4.05487842596956,0.00602335214758558,-1.12954754048882,-4.44261921923699,-5.72302295372846,3.07548889713856,185.812067168675,309.166191890459
0.81,1.03926925269442,-0.00066364345249198,9.38355174022163,0.0345252497357238,1.0052035676477,-0.263906816143459,9.06565923358979,-2.42199461492256,-1.82818127053339,190.638432393018,309.166191890459
0.82,1.03298347942188,-0.0566079341327496,8.77167972144682,2.86420698360605,0.363771132005701,0.968467805600476,6.15124183300639,6.87810080563314,-0.414055494517576,195.161281949324,309.166191890459
0.83,1.0188246080733,0.00309298449301237,8.50776544501518,-0.136127968356032,-0.8739208160749,0.523713238136834,-7.38056519267013,4.23413050435496,1.03395067633977,199.736833275571,309.166191890459
0.84,0.94023351350283,-0.0261508483586907,11.4767300258304,1.31579252696863,-0.53035217666352,-0.776820117847126,-7.79777175551756,-8.52299229781866,2.51475105990749,204.280668350662,309.166191890459
0.85,1.03523600318002,-0.00596848624549257,5.81245077431279,0.300078240661957,0.805825904357963,-0.649918315616568,4.31348527756771,-3.90748969474453,-2.25526824082111,208.648974457088,309.166191890459
0.86,1.04206224042583,-0.030156749605081,4.57200108655821,1.54071065412327,0.656587580078413,0.809750512290556,4.14922715031248,2.46188897197421,-0.710254310721412,212.844070806739,309.166191890459
0.87,0.98925078945037,-0.0428272943117805,6.28032836290977,2.16979062322094,-0.781289021027555,0.608308118627438,-3.37811368167224,5.72178850083479,0.86597821443438,217.077655040075,309.166191890459
0.88,0.966422440443875,0.0643210565709833,6.4944841856439,-3.2121975590754,-0.64968946985038,-0.718340535176343,-1.50669004475701,-7.08706025832565,2.47279268184757,221.269955619942,309.166191890459
0.89,0.973295954480505,0.0496525109722804,5.25981041820697,-2.48589884730992,0.773516801479787,-0.592825560078552,5.74202297585069,-0.935131466339419,-2.17374231335358,225.308267072848,309.166191890459
0.9,0.859983805632051,0.0876169248018376,10.0483722234851,-4.39480067291383,0.494818892796352,0.708804017195803,1.04714926060019,10.9173044164929,-0.50792058945736,229.273265252402,309.166191890459
0.91,0.83103959316002,0.0871987541845193,10.631049327742,-4.34836604800718,-0.737834314942485,0.392212890946049,-11.4858672447886,-0.0484843421815069,1.18675517401217,233.095487684887,309.166191890459
0.92,0.913822937897303,-0.0112805614498178,5.62082906131387,0.594519300850109,-0.199107048427569,-0.891939457676553,-1.87080865963537,-5.33359611281424,2.90962046186259,236.888515716072,309.166191890459
0.93,0.801624643323179,0.108391505341756,10.3639222398009,-5.40982280145506,0.794872754250073,-0.150093610004454,10.6322163742793,4.86138271547195,-1.62302644513742,240.616464896713,309.166191890459
0.94,0.769422342150815,0.0149565367664243,11.114965569465,-0.732078595443745,-0.103712888065293,0.762547097196001,-2.43504972192457,10.8696334589559,0.154615254701422,244.288184866595,309.166191890459
0.95,0.733793194552215,0.115553509540911,12.0505551438192,-5.78146402861369,-0.722999154168067,-0.170520641010484,-8.9693389088847,-9.90919598786645,1.95860690134445,247.864146118197,309.166191890459
0.96,0.764044391507034,-0.116586384317474,9.69892630370835,5.85069596279156,0.55353446512507,-0.539403200880638,1.17714123978168,-11.2656181896688,-2.49468867016066,251.387097547285,309.166191890459
0.97,0.722937095955161,-0.0327949908230858,10.9285820056127,1.64536854123125,0.405082955367164,0.59968437982173,7.8417358796306,7.78770317128158,-0.639421149514342,254.825833345374,309.166191890459
0.98,0.78958511299325,-0.0606767366584,6.77604223623089,3.04142484239919,-0.766639294915764,0.198470422287897,-5.42478014517403,5.07314240246354,1.24077854370872,258.187802904212,309.166191890459
