t,iq,id,vq,vd,ia,ib,va,vb,theta_e,omega,r
0,0,0,0,0,0,0,0,0,0,0,0
0.01,0.000347825611347472,0.000193180097997681,-0.0169981530796571,-0.00966110494598647,-7.253541318945e-05,-0.000391203041916946,0.00375378412773403,0.0191881020848648,-2.8179522027573,-0.0014523110797288,0
0.02,0.000487726292500643,0.000265540809857162,-0.0238685201687855,-0.0132799230844474,-9.66550817499582e-05,-0.000546851582486445,0.00500014992381628,0.0268525811220434,-2.81796476251113,-0.00190883524013024,0
0.03,0.00055551971572622,0.000299922625885139,-0.0272089832854875,-0.0149993828016581,-0.00010770217272192,-0.000622057857493461,0.00556849506223957,0.0305663559915543,-2.81797918238467,-0.00202344775867733,0
0.04,0.000565872115947378,0.000304673535980888,-0.0277543180618631,-0.0152369835618767,-0.000108923421803355,-0.000633382114774729,0.00562078954701364,0.0311588601205523,-2.81799331809906,-0.0018882844385934,0
0.05,0.000581266873637477,0.000313903034495869,-0.0285425549625208,-0.0156985644942683,-0.000112787315827552,-0.000650911142048143,0.00580819584764724,0.032052881804365,-2.81800664751121,-0.00178568101640725,0
0.06,0.000585066970631871,0.00031719933828035,-0.0287640137842132,-0.0158634081814626,-0.00011471236451446,-0.00065556071706391,0.00589446818883371,0.0323151891976657,-2.81801904905239,-0.00164379471254263,0
0.07,0.000588945235925005,0.00032105192493925,-0.0289856682257638,-0.0160560805447088,-0.000117139289290115,-0.000660461366266464,0.00600702984781163,0.0325865352156336,-2.81803023488859,-0.00151780620728015,0
0.08,0.0005841648066444,0.000319750531116535,-0.0287837189533117,-0.0159909994789205,-0.000117432143668138,-0.000655514008320723,0.00600987065963615,0.0323743107381843,-2.81804060580985,-0.00136404283792752,0
0.09,0.000580588514941237,0.000319283853010241,-0.028637231500305,-0.0159676626449606,-0.000118132787291992,-0.000651973808554731,0.00603461864155736,0.032227948370883,-2.81804992185938,-0.00122908688801083,0
0.1,0.000577655918949437,0.000319115640085243,-0.0285193015686618,-0.0159592507646026,-0.00011891109646562,-0.000649138893906132,0.00606440557413245,0.0321134120261951,-2.81805830459689,-0.00110891017628549,0
0.11,0.00057512835949206,0.000319054231240032,-0.0284186119973549,-0.0159561819238411,-0.000119661315984454,-0.000646722043710484,0.00609374881489897,0.0320169248183493,-2.81806585319366,-0.00100119138327049,0
0.12,0.000572896555199473,0.000319031117096866,-0.028330098531809,-0.0159550175522556,-0.000120353302253341,-0.000644597858569367,0.00612100150807628,0.0319325916338295,-2.81807265290219,-0.000904357296857574,0
0.13,0.000587576316556439,0.000328374504847707,-0.0290628576842922,-0.0164222869962748,-0.000124549376605206,-0.000661485597726257,0.00633128888355316,0.0327758445816189,-2.81807897706977,-0.000888216160650858,0
0.14,0.000595573807593409,0.000333802121418638,-0.0294975569415635,-0.0166937330055362,-0.000127156998389464,-0.000670792899720529,0.00645065943105908,0.0332742480018016,-2.81808489320031,-0.000847814774454254,0
0.15,0.000577722229042146,0.000324298669681441,-0.0286169971818179,-0.0162184555530442,-0.000123824985408154,-0.000650845583894712,0.0062801371482277,0.0322882440778326,-2.81809033682319,-0.000699419275737693,0
0.16,0.000569864240809098,0.000320901528528134,-0.0282482503818848,-0.0160485608280619,-0.000123104975415917,-0.000642314727366942,0.00623642202219055,0.0318845886699326,-2.81809492193934,-0.000606095590172847,0
0.17,0.000566043831745268,0.000319686762387228,-0.0280742030567173,-0.0159878141329173,-0.000123170226135145,-0.000638305836489304,0.00623428024451088,0.0317002338769197,-2.81809892655622,-0.000538010581666213,0
0.18,0.000563893226122589,0.00031925201077033,-0.0279800669586869,-0.0159660704240931,-0.000123443924873362,-0.000636128142955254,0.00624370089491965,0.031604046432925,-2.81810248461751,-0.00048300492395438,0
0.19,0.000562467327307856,0.000319096084812446,-0.0279200866320401,-0.0159582650601254,-0.000123751370104188,-0.000634726243374899,0.00625546728736328,0.0315446761005177,-2.81810567062954,-0.000435955868539578,0
0.2,0.000561385291422445,0.000319039861212652,-0.0278758794488953,-0.0159554535027118,-0.000124043828504223,-0.000633682102538857,0.00626694408211363,0.0315018501583352,-2.81810853342493,-0.000394559011869396,0
0.21,0.000560490593123329,0.000319019318649029,-0.0278399394487032,-0.0159544369235081,-0.000124310381221717,-0.000632826958790113,0.00627748561555079,0.0314674349192973,-2.81811110975264,-0.000357653870046901,0
0.22,0.000559716421505486,0.000319011572063761,-0.0278091062132342,-0.0159540438166247,-0.000124550588437095,-0.00063209018860719,0.00628698678044743,0.0314380613222921,-2.81811342985136,-0.0003245577122707,0
0.23,0.000559031505055158,0.000319008438363935,-0.0277819353761775,-0.0159538907209974,-0.000124766649470605,-0.000631439538334044,0.00629554399528541,0.0314122378729542,-2.81811551982853,-0.000294799174645654,0
0.24,0.000558419348319618,0.000319006989143541,-0.0277576925863453,-0.0159538188433182,-0.000124961046640249,-0.000630858434613272,0.00630324089006906,0.0313892176978851,-2.8181174027561,-0.000268010523434874,0
0.25,0.000557869706661492,0.00031900617432311,-0.0277359402997216,-0.0159537758425321,-0.000125136054451785,-0.00063033682800792,0.00631016759352055,0.0313685691877262,-2.81811909924442,-0.000243882997908359,0
0.26,0.000559672942065147,0.000320369550624312,-0.0278279379040868,-0.0160219531076111,-0.000125856463297061,-0.000632479724333861,0.00634561229247113,0.0314774572354541,-2.81812055554214,-0.000233207643515795,0
0.27,0.000554913620108919,0.000317710338304458,-0.0276008955894622,-0.015888972640375,-0.000124848921644145,-0.000627121783716858,0.00629174394120287,0.0312199110678637,-2.81812208125706,-0.000192693030449658,0
0.28,0.000553877971499407,0.000317383702274099,-0.0275265799929622,-0.0158726298527482,-0.000124869202716564,-0.000626035864782875,0.00629990975120936,0.0311442470077207,-2.81812333807751,-0.000172045170253153,0
0.29,0.000555119206458738,0.000318425112001913,-0.0276176813851083,-0.0159247127317268,-0.000125462730215864,-0.000627543614946078,0.00632036725955684,0.0312471720061464,-2.81812439498509,-0.000164000742386791,0
0.3,0.000546045020321746,0.000313805789239965,-0.0271778755112006,-0.0156937050226901,-0.000123967605622782,-0.000617471675734886,0.00624115224871408,0.0307567441913135,-2.81812494864477,-0.000116885586500924,0
0.31,0.000551799773149033,0.000317146201502805,-0.027460020923964,-0.0158607587306784,-0.000125306065154283,-0.000623989657615038,0.00630988403719539,0.0310773515617801,-2.81812570086808,-0.000132650730165364,0
0.32,0.000553918911139854,0.000318339865796541,-0.0275654388564908,-0.0159204539529456,-0.000125764744241852,-0.000626378207937906,0.00633300059238952,0.0311962718432121,-2.81812649779904,-0.000131804580194075,0
0.33,0.000554613404004187,0.000318766325470289,-0.0276014594597223,-0.0159417796269536,-0.000125948819475728,-0.000627172139868802,0.00634179488477952,0.0312371980116724,-2.81812726306947,-0.000125078376963158,0
0.34,0.00055475780902673,0.000318918609906685,-0.027610551906148,-0.0159493924357485,-0.000126047750967913,-0.000627357370959233,0.00634614494989417,0.0312482341886152,-2.81812797130624,-0.000116654795802061,0
0.35,0.000554696987158448,0.000318972920090182,-0.027609475446774,-0.0159521178464751,-0.000126118982024629,-0.000627316884585923,0.00634909134902268,0.0312480757371652,-2.81812861685858,-0.000108128578785484,0
0.36,0.000554566756003494,0.000318992226781198,-0.0276048427015351,-0.015953078653075,-0.000126179048474364,-0.000627199470134638,0.00635149312465502,0.031243984927905,-2.81812920145485,-0.00010007521896017,0
0.37,0.000554419468828351,0.000318999033831587,-0.0275992127891915,-0.0159534124811267,-0.000126232649105888,-0.000627061918235438,0.00635361561197779,0.0312387497354051,-2.81812972935473,-9.26719241661421e-05,0
0.38,0.000554274764819466,0.000319001382838817,-0.0275935554529296,-0.0159535369171593,-0.000126281169210879,-0.000626925405029566,0.00635554665992834,0.0312334223125571,-2.81813020546697,-8.59431158094972e-05,0
0.39,0.000554139875304576,0.000319002146868698,-0.0275882372080115,-0.0159535680757168,-0.000126325037436528,-0.000626797699442228,0.00635728001627612,0.0312283870442695,-2.81813063463883,-7.98572076548605e-05,0
0.4,0.000554016358679311,0.000319002351905092,-0.0275833468305875,-0.0159535847508944,-0.00012636473409478,-0.000626680604600476,0.00635886231407319,0.0312237531192378,-2.81813102140596,-7.43645049418686e-05,0
0.41,0.000553904250733258,0.000319002363886754,-0.0275788983866803,-0.0159535897319124,-0.000126400597400902,-0.000626574270236501,0.00636029185772017,0.0312195347345478,-2.81813136992154,-6.94118173540205e-05,0
0.42,0.000553803121581318,0.000319002312932429,-0.0275748824521441,-0.0159535785477523,-0.000126432889749184,-0.000626478329648458,0.00636156752208416,0.0312157215100153,-2.81813168395421,-6.49478850704737e-05,0
0.43,0.000553711735556904,0.000319002244946872,-0.0275712484894301,-0.0159535805223619,-0.000126462049573354,-0.000626391625416791,0.00636273328083989,0.031212274828123,-2.81813196691014,-6.09252006323508e-05,0
0.44,0.000553629429921955,0.000319002175796213,-0.0275679736682721,-0.0159535795430102,-0.000126488304508146,-0.000626313533831963,0.00636378120996374,0.0312091679017786,-2.81813222186217,-5.73004351612175e-05,0
0.45,0.000553555309121659,0.000319002110665008,-0.0275650225896443,-0.0159535667824612,-0.00012651194586907,-0.00062624320708326,0.00636471427853292,0.0312063643445162,-2.81813245158123,-5.40343408279979e-05,0
0.46,0.000553488428519582,0.000319002050967596,-0.027562356438976,-0.0159535671857563,-0.000126533276822944,-0.000626179749659039,0.00636556855347375,0.0312038352676498,-2.81813265856403,-5.10914721640343e-05,0
0.47,0.000553428125383157,0.000319001996814115,-0.0275599496951144,-0.015953567557284,-0.000126552509540535,-0.000626122532948225,0.00636633970590539,0.0312015522650889,-2.81813284506086,-4.84398593426026e-05,0
0.48,0.000553373817632966,0.000319001947888429,-0.0275577801592087,-0.0159535664446383,-0.000126569830011691,-0.000626071004702427,0.00636703347815436,0.0311994938147212,-2.8181330130993,-4.60506838398322e-05,0
0.49,0.000553324864990366,0.000319001903756394,-0.0275558220013493,-0.0159535667612892,-0.000126585442485744,-0.000626024557479576,0.00636766089981978,0.0311976363406247,-2.81813316450613,-4.38979743273021e-05,0
0.5,0.00055328095396582,0.000319001863973576,-0.0275540651353859,-0.0159535538630663,-0.000126599447218572,-0.000625982893699098,0.00636821134356078,0.0311959656146526,-2.81813330092755,-4.19583279584132e-05,0
0.51,1.7530050209497,-0.000522487900374676,1.22776989384055,0.0271254823361437,-0.0414039547707822,1.7525160738201,-0.00151456176647263,1.2280685689797,0.0233229882722055,7.18435513698471,325.031148908993
0.52,1.73122135399068,0.0444993987389392,1.45743410012665,-2.22377931611323,-0.137796482266754,1.72630232070642,-2.36470864200938,1.21550879938861,0.1053512630063,15.1870745780664,325.031148908993
0.53,1.74645608316056,-0.00635931140471532,-0.185132100603878,0.321439766937882,-0.431252527162795,1.69238605201821,0.356833763447853,-0.101326618944512,0.245867999707699,23.1429350417996,325.031148908993
0.54,1.7028996629802,-0.0071709091903297,1.06732762749528,0.363295209563292,-0.739254233514104,1.5340866541197,-0.131346701699166,1.11978556771334,0.444840364745364,31.1531270639635,325.031148908993
0.55,1.70361693111803,-0.000622205189268699,0.0243891668792199,0.0370951737516898,-1.10200315757316,1.29919208580953,0.0125282372539789,0.0425902177505411,0.703095643600251,39.3503064862579,325.031148908993
0.56,1.64313411029349,-0.00885936293744582,1.89632621500422,0.449019458423764,-1.40719453541809,0.84839361867656,-1.38479705038301,1.37113409884151,1.02285757442145,47.9546789923026,325.031148908993
0.57,1.6663916166769,0.0137873800713783,-0.426510092014505,-0.683745609706493,-1.64146284634549,0.287490584276527,0.308328135326056,-0.744548640687419,1.40568560217005,56.3554231930059,325.031148908993
0.58,1.62976464194507,-0.0289098083815048,0.410768519409741,1.45344726023044,-1.55998375975518,-0.47267243885707,-0.791902634570268,1.28612982710538,1.84726480715442,64.0217910979723,325.031148908993
0.59,1.63832959591839,-0.0128668447915758,-0.936912347327969,0.653252705494729,-1.16410176723429,-1.15289049613526,0.214832385709414,1.1217802324262,2.34350233557784,71.3654233913324,325.031148908993
0.6,1.58538434619415,0.0151438574065651,0.688014510117157,-0.74648023851994,-0.402681662456931,-1.53346677182635,0.555398940338475,-0.849781577644183,2.89434674378194,79.0450158109376,325.031148908993
0.61,1.55989059322725,-0.0319657783990777,0.794239581670644,1.60724734459761,0.582111422619826,-1.44755889879585,-1.22199694676677,-1.31178656873026,-2.77973815911316,86.9931349138308,325.031148908993
0.62,1.54683313836482,-0.00810682453494316,0.489011079849865,0.4167436603853,1.32694484703961,-0.794969088369246,0.202121485618703,-0.609880332310001,-2.11579268937558,94.0693028995997,325.031148908993
0.63,1.49157829207346,0.0371858944293072,2.25584986789344,-1.84663332066308,1.47623883717253,0.216581365202035,1.90959706277861,2.20280555321738,-1.40019855199081,101.295594224267,325.031148908993
0.64,1.46506331445112,0.0260833271409939,2.43087392280855,-1.29475685672604,0.883505604841043,1.16897763088936,0.38429282706954,2.72724446460024,-0.629396931604658,108.846162073502,325.031148908993
0.65,1.47111740329912,-0.00449488475757215,1.16979873296138,0.239178187783247,-0.287188479902148,1.44281994555455,0.00985988472854418,1.193958987496,0.193423298764876,115.627626094428,325.031148908993
0.66,1.42139728257778,-0.031709002102813,2.54692591264747,1.59613031453655,-1.26029483235275,0.658052149361125,-1.46070562282525,2.62693788829207,1.06728824389015,122.906170248878,325.031148908993
0.67,1.39528282543675,-0.0118860430381352,2.84195848944947,0.608798879755742,-1.26775808211033,-0.582876390173603,-2.84173148197886,-0.609857619511296,1.99322620755548,129.586736699553,325.031148908993
0.68,1.4135958107739,0.006739673774511,0.869998934550285,-0.325921387263152,-0.250965015576528,-1.39115603021256,0.170645052629193,-0.913237736193237,2.96787968558894,136.50370895518,325.031148908993
0.69,1.37797680477941,-0.0105581606715009,1.61071303638398,0.543438393721859,1.04363045932107,-0.899870553826561,0.853747832153093,-1.46997837141986,-2.29002132620757,143.066612623465,325.031148908993
0.7,1.36188096146393,0.0144414471505742,1.36309773420418,-0.710812270202973,1.28273093252021,0.457744102473818,1.03289083937892,1.13860705706174,-1.21742740614689,149.748448568387,325.031148908993
0.71,1.34383232568673,-0.00718692971900264,1.25327298381753,0.376800324583253,0.122039221516244,1.33829869608062,0.495541705125063,1.2112431940179,-0.0962863455488201,156.018759565037,325.031148908993
0.72,1.3113985991472,0.0558669001257255,1.79328388691401,-2.78228808266678,-1.12432593770346,0.677331958630422,-2.90707209255716,-1.5830116622092,1.07116444454087,162.561136098188,325.031148908993
0.73,1.27879763009488,0.00693121034452734,2.44487470150093,-0.32748289279113,-0.970934558330002,-0.832260478368188,-1.63313474951569,-1.84865579301135,2.28486096563627,168.59365911899,325.031148908993
0.74,1.2581338714063,0.0224266313005259,2.39810920742583,-1.10683592159078,0.472387081015074,-1.16629937745904,1.9580514916837,-1.77258226437575,-2.73893355647761,174.860601166744,325.031148908993
0.75,1.22875126101713,0.0123713537343336,2.84145863685291,-0.606996777966001,1.21917973430376,0.153569161316368,2.73354597255572,0.984915574722784,-1.43542728573416,180.936839881322,325.031148908993
0.76,1.24268919600523,0.0159039628031048,1.14208398916186,-0.775345624458159,0.124517132621675,1.23653744689946,-0.672499055007909,1.20551304293224,-0.0875625990916924,186.724197070607,325.031148908993
0.77,1.21871556153609,-0.00264084779905482,1.28285826857667,0.147839431880847,-1.17608849203524,0.319515966595722,-1.19818439052507,0.481597343406762,1.30335537172301,192.648098472432,325.031148908993
0.78,1.19319628059428,-0.00808495565763837,1.5387631889857,0.416813928165533,-0.463146904488585,-1.09967162161922,-0.989891846487403,-1.2496560065666,2.736196125347,198.421280106413,325.031148908993
0.79,1.11076361414878,-0.0087526108694036,4.67889550781018,0.458398987886733,0.978159049732724,-0.526381314390876,3.88219711838296,-2.65155394799369,-2.07236392764339,203.887867558138,325.031148908993
0.8,1.15116821558169,-0.0154865222028737,1.62612418880953,0.793936588674089,0.595183763748791,0.985486874750393,1.53334576383895,0.960971358982179,-0.55677014596143,209.44671537979,325.031148908993
0.81,1.11431068590835,0.0208021629182892,2.43658985625303,-1.02568371262637,-0.925723390904609,0.62061037555272,-2.60398745327012,0.45634038737985,0.998875545474687,214.951422147684,325.031148908993
0.82,1.05690163494567,-0.0242319091367647,4.31158121427829,1.22357678472453,-0.529921262666054,-0.914774128813041,-3.29058896523309,-3.0428435676716,2.59361557146105,220.272308433001,325.031148908993
0.83,1.05873084817309,-0.00306804226925322,3.24251684852926,0.172187245130476,0.937851137935071,-0.491279619799731,2.78758011865162,-1.66522101910827,-2.05622776243246,225.436207550327,325.031148908993
0.84,1.06998737316127,0.0356870255336579,1.69168060515377,-1.76294371517762,0.434677574764521,0.978366980489851,-0.999115838484078,2.22969086512636,-0.384754026946093,230.48763111755,325.031148908993
0.85,1.04527914469469,-0.00755714522088202,1.92940318454996,0.398062977054645,-1.01540345848617,0.248236615493914,-1.7735234024979,0.85770946307326,1.32379857663629,235.518541773703,325.031148908993
0.86,1.01440320375388,0.0386886400589607,2.48071428414459,-1.91823805796012,-0.112506067081022,-1.00888703804029,1.73236680277441,-2.61390242113412,3.06865729361466,240.468650909246,325.031148908993
0.87,0.993730043954942,0.00625533880314258,2.53298616332737,-0.298541141345683,0.985309483250033,0.129242994935068,2.46865973108839,0.640987401425716,-1.43407626575443,245.318074865548,325.031148908993
0.88,0.975011326232554,0.025765116162946,2.49911113968083,-1.27644082077052,-0.33895387901181,0.914560657034568,-2.11483768694537,1.844537669792,0.381343887575056,250.060020725625,325.031148908993
0.89,0.934032668933405,0.00545946628154709,3.5889017044875,-0.262393022558044,-0.741109237354042,-0.568510273183738,-2.67383292107243,-2.40825311230977,2.23100146194814,254.684612601129,325.031148908993
0.9,0.914123800186918,-0.0235846457669384,3.63017392132247,1.18983121905471,0.768715776152359,-0.495231878092072,2.3300242667071,-3.0273499872732,-2.1689011040879,259.222061608809,325.031148908993
0.91,0.901164697812762,-0.000881353069656254,3.33322767916455,0.0542075606718438,0.224416247176798,0.872774849185219,0.885713770408067,3.21385381398909,-0.252655551285561,263.647901025984,325.031148908993
0.92,0.869390631526529,-0.00704106798217356,3.98444105679966,0.363427667147207,-0.86173301545773,-0.115351016010066,-3.99866750118786,-0.136045651539724,1.69576596882726,267.979014234381,325.031148908993
0.93,0.854944651774195,-0.00677851677179231,3.77275848230746,0.353328496308491,0.441049950759312,-0.732428321968869,1.61642721426695,-3.42720157754161,-2.60750393417582,272.214098647663,325.031148908993
0.94,0.854202701388865,0.021460961520803,2.88608084103706,-1.05782526661239,0.497854694785374,0.694451964364414,0.747189447665155,2.98163794666331,-0.596861723346111,276.36454934886,325.031148908993
0.95,0.835381596648381,0.000848366779819973,2.90496611610467,-0.0278838386473312,-0.828567502289747,0.106484862277796,-2.88516999916361,0.339705343055127,1.44399567075689,280.430578364691,325.031148908993
0.96,0.836258664689528,-0.00294902234018324,1.95135722562712,0.159232711994945,0.30717702435173,-0.777804298465553,0.562062379027294,-1.87542954030766,-2.76899239060545,284.399821036605,325.031148908993
