t,iq,id,vq,vd,ia,ib,va,vb,theta_e,omega,r
0,0,0,0,0,0,0,0,0,0,0,0
0.01,0.00108028833279116,0.000585261720178806,-0.0524683236952908,-0.0292939377495803,-0.000117575819003391,0.00122300044556698,0.00499000433329163,-0.0598845525742977,0.59234092213142,-0.00549179141412476,0
0.02,0.00120315118150632,0.00065490968032045,-0.0588748291744125,-0.0327800222370758,-0.000128336167566034,0.00136382157301897,0.00567204005602855,-0.0671461341387741,0.592302722440885,-0.00503669742609707,0
0.03,0.00124281860860028,0.000682728954695344,-0.0610409990798088,-0.0341724542062424,-0.000127354375277388,0.00141226689494594,0.0057238132229142,-0.0697208588395764,0.592269740142055,-0.00424571950297368,0
0.04,0.00120114668946695,0.000667521929163211,-0.0592487400040794,-0.0334112827293536,-0.000116674034882482,0.00136920636323216,0.00535313044456006,-0.0678090775644038,0.592244853572128,-0.00321975787007082,0
0.05,0.00122191041698078,0.000683475426467518,-0.0604089149767064,-0.0342098116261504,-0.000114999802660209,0.00139534181156418,0.00533681860065537,-0.0692175309252167,0.592224348341209,-0.00270464417888671,0
0.06,0.00121601231833685,0.000684429360876442,-0.0602595366921113,-0.0342575431672598,-0.000110893186333452,0.00139098246200357,0.00521270004415026,-0.0691203210673554,0.592207978331714,-0.00215871481726116,0
0.07,0.00124073890364554,0.000701717902343383,-0.0615432468550142,-0.0351229011228181,-0.00011033336876818,0.00142115009384125,0.00521038936463455,-0.0706685308989042,0.592195609075246,-0.00192111283034196,0
0.08,0.00120702277961769,0.000685519165666727,-0.0600143886989404,-0.0343121023950419,-0.000104939486741554,0.00138413446642111,0.00502901900084464,-0.0689474886385609,0.592185171591721,-0.00139349858882721,0
0.09,0.00120090595617492,0.000684544722336495,-0.0597844989683092,-0.0342633161054784,-0.000102323070281321,0.00137851607961001,0.00494064713114982,-0.0687295508013923,0.592177428601703,-0.00111533370735467,0
0.1,0.00119769668751748,0.000684484767854197,-0.0596795706166967,-0.0342603382981829,-0.000100573252874115,0.00137582040016896,0.0048841385972824,-0.0686408560513472,0.59217143294434,-0.000909097336466603,0
0.11,0.0011953193250872,0.000684480039825272,-0.0596036360034508,-0.0342601032353381,-9.92438114290033e-05,0.00137384565353579,0.00484162988895081,-0.0685777421511258,0.592166769965188,-0.000749411177426429,0
0.12,0.00119347875385137,0.000684478877023167,-0.0595449887846227,-0.0342600359656531,-9.82124637851999e-05,0.00137231817773531,0.00480870253312599,-0.0685290605048442,0.59216314187,-0.000625219838548089,0
0.13,0.00125091428001503,0.000716446658927745,-0.0623259054595096,-0.0358601046649713,-0.000103740012216301,0.00143781791646217,0.00503297301303677,-0.0717295948725522,0.592159173061286,-0.000845659565629346,0
0.14,0.00129747848500111,0.000744970048505312,-0.0648087957178656,-0.0372877938055089,-0.000106058374874842,0.00149237475632955,0.00523396557251928,-0.0745866286519767,0.592156021296574,-0.00102642980234167,0
0.15,0.00119680701350204,0.000688108350606607,-0.0597837549961942,-0.0344416875563933,-9.70451631354284e-05,0.00137710651950175,0.0047905746158604,-0.0688286103159657,0.592153345639821,-0.000339621340890293,0
0.16,0.00118876581037516,0.000684694160417963,-0.0594050688331255,-0.0342708068432708,-9.53888263520793e-05,0.0013685288513709,0.00472094600877016,-0.0684190256693226,0.592152585965352,-0.00026773532669935,0
0.17,0.00118792761021038,0.000684489051785445,-0.0593689075401671,-0.0342605476538618,-9.50905042826603e-05,0.00136771892767102,0.00470924166084002,-0.0683832973103466,0.592152096788849,-0.000247454454276663,0
0.18,0.00118769303274502,0.000684476646341878,-0.0593606891279896,-0.0342599313393624,-9.49693588787908e-05,0.00136751740036193,0.00470514046352668,-0.0683761359126569,0.592151724017353,-0.000234422276815837,0
0.19,0.00118754274052841,0.000684475831135838,-0.0593558280261194,-0.0342598939476343,-9.48857542464353e-05,0.0013673922691137,0.00470243848604101,-0.0683720829451203,0.592151434569011,-0.000224493787103655,0
0.2,0.00118742851459995,0.000684475727437054,-0.0593521716350525,-0.0342598630815165,-9.48217775004958e-05,0.00136729745456034,0.00470040789673545,-0.0683690329152409,0.592151209395885,-0.000216784750034284,0
0.21,0.0011873396897095,0.000684475678605513,-0.0593493247875476,-0.0342598633767732,-9.47720011061213e-05,0.00136722374217546,0.00469880671351941,-0.0683666717546054,0.592151034192238,-0.00021078759888973,0
0.22,0.00118727053900842,0.000684475642521175,-0.0593471037122718,-0.0342598636243497,-9.47332484022354e-05,0.00136716635770826,0.00469755750143775,-0.0683648296137339,0.592150897866337,-0.000206121306150114,0
0.23,0.0011872167551298,0.000684475614557632,-0.0593453725118031,-0.0342598638346946,-9.47031072759797e-05,0.00136712172539875,0.00469658381087135,-0.0683633937794486,0.592150791790839,-0.000202490466211056,0
0.24,0.00118717496202931,0.000684475592805488,-0.0593440241689643,-0.0342598640159777,-9.46796857990683e-05,0.00136708704357576,0.00469582544462964,-0.0683622754913371,0.592150709253687,-0.000199665306308941,0
0.25,0.00118714236573924,0.000684475575880241,-0.0593429670860449,-0.034259864174971,-9.4661418530374e-05,0.00136705999369134,0.0046952309148801,-0.0683613987753237,0.592150645031361,-0.000197467046384093,0
0.26,0.00119989518260864,0.0006913444061797,-0.0599525706895775,-0.034603667737981,-9.60801231381764e-05,0.00138147535162273,0.00475021684189639,-0.0690591050706881,0.592150731381402,-0.000276591338740404,0
0.27,0.00116311776181038,0.000670615855652226,-0.0581973021353707,-0.0335661540502667,-9.27514751072341e-05,0.00133939005429949,0.0046313481072698,-0.0670236024716006,0.59215013520549,-3.75799115054958e-05,0
0.28,0.00116172898366607,0.000669383916956834,-0.0579144932014024,-0.0335044937762518,-9.2998520829721e-05,0.0013375501242547,0.00452466124312903,-0.0667545284352538,0.592150131691788,-2.91467751887844e-05,0
0.29,0.00118514533334455,0.000683569434603678,-0.059248249260696,-0.0342145113301416,-9.42984886738156e-05,0.00136489722254336,0.00467998781790908,-0.0682574943873724,0.592150530512305,-0.000181926292144093,0
0.3,0.00117582911436669,0.000678944922763221,-0.0587883672992505,-0.0339830487852294,-9.29381674236102e-05,0.00135458584496305,0.00461547764012584,-0.0677467128398446,0.592152259882975,-0.000180030808766287,0
0.31,0.00118690057765676,0.000684143844164248,-0.0593202091631278,-0.0342432706116926,-9.480358680638e-05,0.00136667408721993,0.00469639051801025,-0.0683332474966995,0.59215201310241,-0.000238689074722284,0
0.32,0.00118759081909822,0.000684455907273077,-0.0593559937421313,-0.0342588966809788,-9.49294455231092e-05,0.00136742101891848,0.00470337468817827,-0.068371662708,0.592151672011758,-0.000232186797590585,0
0.33,0.00118751689626833,0.000684474576361928,-0.0593546855050101,-0.0342598340150681,-9.48723165320007e-05,0.00136737012844528,0.00470184782200324,-0.068371101681905,0.592151395117399,-0.00022310778634374,0
0.34,0.00118741256569806,0.00068447564465536,-0.0593514309660896,-0.0342598613289178,-9.48129024916754e-05,0.00136728417778643,0.00469999385544052,-0.0683684175168476,0.592151178780197,-0.000215733545590464,0
0.35,0.00118732758251604,0.000684475667844581,-0.0593487126605812,-0.0342598645250181,-9.47652198827453e-05,0.0013672136925789,0.00469846247588793,-0.0683661645999211,0.592151010379532,-0.000209971755718947,0
0.36,0.00118726110936736,0.000684475637369888,-0.0593465767055117,-0.0342598647660955,-9.47279642246246e-05,0.00136715853241787,0.00469726114042203,-0.068364393058324,0.59215087934182,-0.00020548665959124,0
0.37,0.00118720942096453,0.000684475610743862,-0.0593449123767213,-0.0342598649713631,-9.46989971980517e-05,0.00136711563916876,0.0046963250596163,-0.0683630126880843,0.592150777380461,-0.000201996659518728,0
0.38,0.00118716914126322,0.000684475589850463,-0.0593436102238013,-0.0342598651489764,-9.46764240852359e-05,0.00136708221325245,0.00469559269608258,-0.0683619327085842,0.592150698044776,-0.000199281075751379,0
0.39,0.00118713794195701,0.000684475573582331,-0.0593426000501712,-0.0342598653045849,-9.46589393991648e-05,0.0013670563226351,0.00469502452172283,-0.0683610949015835,0.592150636313347,-0.000197168076244113,0
0.4,0.00118711349473946,0.000684475560923536,-0.0593418013770807,-0.034259865443838,-9.46452391040629e-05,0.00136703603522696,0.00469457534580878,-0.0683604325120117,0.592150588280426,-0.000195523948981019,0
0.41,0.00118709463545734,0.000684475551073505,-0.059341183980142,-0.0342598655695412,-9.4634669937992e-05,0.00136702038492288,0.00469422808847706,-0.0683599204772903,0.592150550905631,-0.000194244651776284,0
0.42,0.00118707985071149,0.000684475543409235,-0.0593406939627,-0.0342598656853668,-9.46263844862114e-05,0.00136700811586824,0.00469395250279024,-0.0683595140902548,0.592150521824737,-0.000193249229237801,0
0.43,0.00118706832559464,0.000684475537445601,-0.0593403075313157,-0.034259865793298,-9.46199257960532e-05,0.00136699855180386,0.00469373518099684,-0.0683591936182441,0.59215049919662,-0.000192474689886521,0
0.44,0.00118705947803019,0.000684475532805309,-0.0593400087488015,-0.0342598658947425,-9.46149673396112e-05,0.00136699120968123,0.00469356712879111,-0.0683589458450107,0.592150481590045,-0.000191872019980894,0
0.45,0.00118705249311089,0.000684475529194545,-0.0593397671217133,-0.0342598659916774,-9.4611052998858e-05,0.00136698541327893,0.00469343124850886,-0.0683587454751942,0.592150467890268,-0.000191403081876087,0
0.46,0.00118704713800609,0.000684475526385324,-0.0593395790181017,-0.0342598660846613,-9.46080518243333e-05,0.00136698096936238,0.00469332545327104,-0.068358589499595,0.592150457230523,-0.000191038200629934,0
0.47,0.00118704294705451,0.000684475524199216,-0.0593394273466207,-0.0342598661748256,-9.46057031347406e-05,0.00136697749151697,0.00469324015655291,-0.0683584637405988,0.592150448936336,-0.000190754286138623,0
0.48,0.0011870396874255,0.000684475522498186,-0.0593393052942601,-0.0342598662627349,-9.46038763730365e-05,0.00136697478652592,0.00469317151932632,-0.0683583625479434,0.592150442482543,-0.000190533371967049,0
0.49,0.00118703712628843,0.000684475521174924,-0.0593392049755264,-0.0342598663489532,-9.46024411167661e-05,0.00136697266117854,0.00469311511196503,-0.0683582793809318,0.592150437461064,-0.000190361478410577,0
0.5,0.00118703503081264,0.000684475520145019,-0.0593391176919257,-0.0342598664340442,-9.46012670475471e-05,0.00136697092226834,0.00469306605722471,-0.0683582070238628,0.592150433553854,-0.00019022772784996,0
0.51,3.21457868136209,0.0530187886632789,3.01469616343916,-2.64846740123099,-0.4735545966964,3.17994860564863,-3.10595147355157,2.54083411051978,0.164324251079139,49.729859662244,646.759162600968
0.52,2.93884147063349,0.0226651654162893,3.93346886196153,-1.12262810178905,-1.92082915783069,2.22434670086882,-3.43770911361209,2.21689584625344,0.720018854799618,101.334490188691,646.759162600968
0.53,2.67800714879018,0.0239422458274953,4.71697146149606,-1.17958839367703,-2.67254651280619,-0.172599701604667,-4.61771636820813,-1.52247958602029,1.64422933295242,150.562948468415,646.759162600968
0.54,2.37333150336881,0.00627753938032871,7.82041998070294,-0.307433917757007,-0.512338254301011,-2.31738027642494,-1.36764883547408,-7.70603795417539,2.92665260368017,198.810301835983,646.759162600968
0.55,2.14466697536928,0.0166359751308094,8.96162039502688,-0.818603410306808,2.10912214905882,-0.389200399868351,8.96747996108479,-0.751701267439638,-1.74551873538719,239.303150016855,646.759162600968
0.56,2.00141977448507,0.0810717739667228,7.14953428532723,-4.02987760884471,-0.20161259730911,1.99288888471993,-4.99663765733919,6.51071164778455,0.141307972559183,275.520743526001,646.759162600968
0.57,1.76631948933558,-0.00328640845936112,9.87132207522501,0.172045314115367,-1.32043029295537,-1.1731833532458,-7.50561392563711,-6.41391913748653,2.29535276421931,311.148526166999,646.759162600968
0.58,1.62425999464634,0.0874309171067228,9.52047680242012,-4.3465668020404,1.62149738445491,-0.128883387915321,9.62837594689381,4.10201147430087,-1.59633749483578,340.97498599135,646.759162600968
0.59,1.46196708591972,0.00813829137910077,10.2405214180162,-0.400190230631938,-1.23643557405203,0.780154512463902,-8.90257431657438,5.07667230293742,1.01348166785488,370.283089910447,646.759162600968
0.6,1.35389854739176,0.0980913116901305,9.37485610922,-4.8776682355249,0.773306268537467,-1.11564357977773,9.68097505076718,-4.2377230384785,-2.46315543801006,395.402068057684,646.759162600968
0.61,1.25968478977018,0.0198602273945904,8.02925310630488,-0.975582276525187,-0.616093764199315,1.09892159498539,-4.8797675487109,6.45046780427006,0.526736218854114,419.277660692744,646.759162600968
0.62,1.11152481586145,0.0564034255569126,10.0192469960659,-2.82552741208935,0.520670975970854,-0.983651613871468,7.5570869059566,-7.15956374512185,-2.60406082227545,440.945370692126,646.759162600968
0.63,1.05323099208128,0.0339151234286632,8.15591237806679,-1.66436623936796,-0.651438374249641,0.828295721848594,-6.52009112216094,5.17469162908951,0.698632672252783,459.964197014209,646.759162600968
0.64,0.914580273870234,0.0220188987069402,10.5984084955317,-1.0819278129099,0.755635186044142,-0.515710553377428,9.48344446592373,-4.85397893405472,-2.14560030808088,477.676711771149,646.759162600968
0.65,0.834167573913479,0.0742274789711859,10.4649313052029,-3.71558042498489,-0.812993050366836,0.200966564528392,-10.9101657625375,-2.07089549497354,1.4172109944361,494.145064128239,646.759162600968
0.66,0.751976930282063,0.00538472408421173,10.8951375940643,-0.279233198439021,0.700125918040321,0.274448534006097,10.0111254248032,4.30805781084265,-1.19004585660402,508.85280314377,646.759162600968
0.67,0.658540479958982,-0.00389264765695524,12.2067165359157,0.225869382069908,-0.341969346014388,-0.562803414023831,-6.59252303983845,-10.2758739548105,2.58967972993129,522.124763980116,646.759162600968
0.68,0.613099253741851,0.0212419329657627,11.3449530878819,-1.03857849147414,-0.0893849481050913,0.606920296008617,-3.06229744647834,10.9731007558705,0.180858035518999,534.475144879813,646.759162600968
0.69,0.586418511134696,-0.0823465314027943,9.81938639349861,4.1329582775134,0.537908189910951,-0.247633601642081,6.02833400101506,-8.78412673182132,-2.14174610325583,545.76691202478,646.759162600968
0.7,0.599410918419991,-0.0292328818640453,6.58977121178476,1.46102684616142,-0.55846921564016,-0.219681919341213,-6.71056650439113,-0.726623189153357,1.89683857905772,556.005435943502,646.759162600968
0.71,0.422500949987009,0.000661456554379866,13.0929253440895,-0.0477330716777028,0.11600754196423,0.406263141906961,3.52933174479163,12.6083619057846,-0.276580148559521,565.28396696384,646.759162600968
0.72,0.462771782115397,-0.0158000216569466,8.95054900112008,0.774629009670265,0.329123810178598,-0.325706740151539,5.58004902048284,-7.04098220797943,-2.38510517550942,573.7199329154,646.759162600968
0.73,0.408798827537454,-0.0405599257751717,9.80369768495989,2.05167229206737,-0.382191084326505,-0.150637193402609,-9.99137205231797,-0.703087479823229,1.84734803295561,581.067694222359,646.759162600968
0.74,0.304098725572018,0.0345217728453394,13.2431369095421,-1.69990649987729,0.0795800400062776,0.295524626600745,0.298299968709019,13.3484596280571,-0.150006645195393,588.027989897164,646.759162600968
0.75,0.38339636012053,0.0416166777683557,7.68456922376524,-2.05617611228841,0.310136449613155,-0.229216272204861,7.67323254148671,-2.09808644337043,-2.0991491623186,594.306280360213,646.759162600968
0.76,0.28598787672348,-0.000354370969903151,11.0609790902723,0.0376514917176841,-0.216936331913932,-0.186354015538483,-8.42373136450639,-7.16850235187943,2.27926822982744,600.215740229162,646.759162600968
0.77,0.211838649337457,0.0265659538729369,13.3757950873122,-1.31782034834041,-0.0612858307151358,0.204512616265728,-6.60956451867657,11.7030851300722,0.415907196846558,605.62039650188,646.759162600968
0.78,0.168384327159305,-0.0516544367327521,14.3452700103845,2.59000508439006,0.15796106123172,0.077908700423115,14.5748247591424,-0.263403204789777,-1.41024346746734,610.388017494247,646.759162600968
0.79,0.17993950865028,-0.0260958995744306,12.6268945115564,1.30447317431432,0.0150798559757759,-0.181195531654765,-2.07167190753986,-12.5239087658761,3.08060367439628,614.782055276903,646.759162600968
0.8,0.198629453373256,0.0575135946981558,10.6944533752387,-2.88599112301423,-0.177983085624353,0.105278177007851,-11.0763118572588,-0.124873528097202,1.31848965937391,618.715637408284,646.759162600968
0.81,0.152152020627676,0.0564000134380813,12.0622969207679,-2.83588084142222,0.112997285094397,0.116459488485035,2.27226739019864,12.1810520095332,-0.415330960824316,622.452835994289,646.759162600968
0.82,0.0793415118707809,0.0210682992297637,14.7992867294084,-1.07267914081581,0.0565033003774719,-0.0595510351281094,13.1630521414596,-6.84861931776039,-2.12290003985032,625.895627713069,646.759162600968
0.83,0.116270869042788,0.0437348639481261,12.169204909156,-2.20950640316134,-0.106169651156426,-0.0644954144559829,-5.77176980065242,-10.9388363199617,2.47646938590136,628.964859238994,646.759162600968
0.84,0.13101665600707,0.0146588760860216,10.7260825215804,-0.755982475347977,-0.0851959233785103,0.100607660936249,-8.31777069454941,6.81432655775176,0.814063405013027,631.66043546145,646.759162600968
0.85,0.134494430928087,0.0599263223889037,9.91019602454106,-3.02331805992509,0.139676030266663,0.0465888681411668,5.26991219286406,8.92078823960088,-0.829689654364702,634.099023912438,646.759162600968
0.86,-0.00144422030711227,-0.0410197452834682,16.1334539056051,2.02595113166284,0.0308484708601657,0.0270753969685689,8.64044446244193,-13.7744521634665,-2.45643448899874,636.285015691348,646.759162600968
0.87,0.0740325701652992,0.0140853308196359,11.821566602387,-0.731322982051943,-0.0676305989621401,-0.0332463542903685,-9.00766038537183,-7.69066477104236,2.21570277650122,638.395404962171,646.759162600968
0.88,0.0904867713885642,-0.0701483616935188,10.5155001394496,3.48533712781975,-0.10963731948538,0.032989492579786,-3.26329913814307,10.5865101337654,0.619061370571478,640.205602741579,646.759162600968
0.89,-0.0117272588159284,-0.0145526684299026,15.1576886927453,0.700424719794534,-0.0179284236656335,0.0052801877459052,12.8568948594359,8.05893143460649,-0.964714492447106,641.98582669856,646.759162600968
0.9,0.00357036796033443,-0.0915594889779565,13.9981469259849,4.55574474142375,0.0773312887064641,0.0491503747317782,4.21659280657492,-14.1040161873848,-2.53644466332382,643.429544941598,646.759162600968
0.91,0.0650807629828831,0.0273753387467581,10.5746366075122,-1.39587362412196,-0.0689611508987949,-0.01514181457579,-7.83672176864487,-7.23582714527539,2.18510550171359,644.733487186919,646.759162600968
0.92,0.000489220748247599,0.0739098474040778,13.4926521130811,-3.72462255986976,0.0593182252331988,0.0440936847566415,-10.9813859463945,8.67949520159158,0.632606823293827,645.906484684255,646.759162600968
0.93,-0.0300402384669193,-0.0878311163649174,14.7080773363658,4.3785899004677,-0.0775301977091355,0.0510469330346045,14.3095238687255,5.54410633911105,-0.911817648248873,647.020902622716,646.759162600968
0.94,-0.0282709404788506,-0.0336940735020245,14.3509498340948,1.67556621124072,0.00785591962792796,0.0432761041628989,7.88046485557066,-12.1101427295087,-2.44847236437991,648.039700783124,646.759162600968
0.95,-0.0059827792504734,0.0420799809617853,12.9796745730361,-2.11105965976763,-0.0237656542347156,0.0352379358660528,-8.21727802546282,-10.2666872340236,2.30538674370161,648.994861535847,646.759162600968
0.96,0.0527914561062513,0.0390273536303804,9.75518064161474,-1.95223080241434,-0.0096191221046816,0.0649426259027478,-8.26872737751632,5.53198897438727,0.783649190958075,650.034282816271,646.759162600968
0.97,0.0456059581856565,-0.0486619427269203,9.9055175405323,2.44125167787039,-0.0057189296730214,0.0664468354053446,8.43604280831005,5.73691286641678,-0.731948725868755,650.804211391095,646.759162600968
