t,iq,id,vq,vd,ia,ib,va,vb,theta_e,omega,r
0,0,0,0,0,0,0,0,0,0,0,0
0.01,0.00134182581923346,0.00076633094845524,-0.0665092513498256,-0.0384126035903056,-0.00024024197519713,-0.00152644798308859,0.0123084646363009,0.0758123362520716,-2.77879202658208,-0.00139732035160389,0
0.02,0.00152464193946181,0.000871642087853775,-0.0756964585086247,-0.0436913454025677,-0.000273835464701176,-0.00173473545855149,0.0139839934940822,0.0862747669935531,-2.77880225762293,-0.0015188120186399,0
0.03,0.00155233007188722,0.000887573127836469,-0.0770836673445981,-0.044489916236521,-0.000278921691420197,-0.0017662721759112,0.0142391930654454,0.0878549361098754,-2.77881257354171,-0.00146980252290586,0
0.04,0.00153863394605696,0.000880233570113608,-0.0764335893136483,-0.0441220116526964,-0.000276936592969237,-0.0017508602689502,0.0141267435957743,0.0871164772188785,-2.77882190993141,-0.00138301331475629,0
0.05,0.00155120390706378,0.000887576959104104,-0.0770747641969553,-0.044490090734729,-0.000279357726281427,-0.00176521547704219,0.0142441482832959,0.0878464096550574,-2.77883115793723,-0.00132566247007052,0
0.06,0.00155068463834683,0.000887584590414796,-0.0770711007461213,-0.0444904873386864,-0.000279564573498676,-0.00176473026323887,0.0142465879457381,0.0878430006645774,-2.77883991066928,-0.00125778868892172,0
0.07,0.0015861524384473,0.000907947716254623,-0.0788355622154114,-0.0455111911200385,-0.000286031678623468,-0.00180511342919722,0.0145754898928926,0.089854713183933,-2.77884814216111,-0.00123332520181836,0
0.08,0.00154975227218962,0.000887610764183804,-0.0770653904751279,-0.0444917785722942,-0.00027994827224647,-0.00176386335602225,0.0142512346648682,0.087837890913528,-2.77885599971217,-0.00113304907382991,0
0.09,0.00154922664062683,0.000887570302326827,-0.0770579789134514,-0.0444897563409113,-0.000280109968132234,-0.00176335550339499,0.014252622046958,0.0878301388948358,-2.77886337929653,-0.00107572728081266,0
0.1,0.0015487934438738,0.000887565967508014,-0.0770540917570667,-0.0444895326571802,-0.000280271915872109,-0.00176294700193689,0.0142544044734912,0.0878263259260392,-2.778870350854,-0.00102164418707887,0
0.11,0.00154838392078493,0.000887561931745951,-0.0770504041272901,-0.0444893488789269,-0.000280425058504431,-0.00176256084586964,0.0142561195158323,0.0878227191346288,-2.77887693702204,-0.000970550948545096,0
0.12,0.0015479972150904,0.000887558118757304,-0.0770469277561521,-0.0444891651529764,-0.000280569666949283,-0.00176219620192747,0.0142577276301396,0.0878193150479739,-2.77888315910499,-0.000922282155062372,0
0.13,0.00161273548357408,0.000924567354564095,-0.0802457179585447,-0.0463442382577472,-0.000292212830323893,-0.00183585189895554,0.0148577215171459,0.0914680916040784,-2.77888941927508,-0.000945025269420866,0
0.14,0.00178138503401574,0.0010218840621171,-0.0887484688606869,-0.0512223046884575,-0.000323372596511102,-0.0020280556796227,0.0164022104717763,0.101148320373366,-2.77889519931093,-0.00108523369784516,0
0.15,0.00154734537844589,0.000887784831311594,-0.0770586683899559,-0.0445005164252223,-0.00028104380099388,-0.00176166228569148,0.0142657150449726,0.0878340691895822,-2.77890069610578,-0.000786715065292188,0
0.16,0.00154660317052004,0.000887544779665254,-0.077034427334788,-0.0444884880409934,-0.000281091340101909,-0.00176088181360743,0.0142635007696512,0.0878070675331235,-2.77890560531008,-0.000748152774673389,0
0.17,0.00154631429500832,0.000887541517445068,-0.0770317967350882,-0.0444883209926817,-0.000281198944056469,-0.00176060926897404,0.0142646850680811,0.0878044826469144,-2.77891024260181,-0.000712177347458325,0
0.18,0.00154604241614794,0.000887538830464767,-0.0770293607656451,-0.0444881743263195,-0.000281300601984462,-0.00176035289059737,0.0142657968400113,0.0878020906093495,-2.77891462354207,-0.000678191500642597,0
0.19,0.00154578501415869,0.000887536292529479,-0.0770270302792025,-0.0444880645257082,-0.00028139683472306,-0.00176011016756406,0.0142668843728589,0.0877998137194392,-2.77891876230259,-0.000646084400565567,0
0.2,0.00154554181483556,0.0008875338947233,-0.0770248257668869,-0.0444879547227304,-0.000281487755123062,-0.00175988083670562,0.0142679071054817,0.0877976578654598,-2.77892267227149,-0.000615752188143919,0
0.21,0.00154531235251394,0.000887531629316829,-0.0770227562132093,-0.0444878420048972,-0.000281573543729827,-0.00175966445646361,0.0142688602406633,0.0877956302350213,-2.77892636609616,-0.00058709674722299,0
0.22,0.00154509546304717,0.000887529489007178,-0.0770207939484643,-0.0444877321936447,-0.000281654628020218,-0.00175945993256484,0.0142697600891417,0.0877937068540996,-2.77892985572515,-0.00056002538552696,0
0.23,0.00154489068077072,0.000887527466893722,-0.0770189444983126,-0.0444876223772035,-0.000281731186850055,-0.00175926682410005,0.0142706029614833,0.0877918916957968,-2.77893315244652,-0.000534450534824616,0
0.24,0.00154469754002331,0.000887525556455635,-0.0770172117951352,-0.0444875125545856,-0.000281803398303247,-0.00175908469046282,0.0142713884000059,0.0877901882850658,-2.77893626692429,-0.00051028946767056,0
0.25,0.00154451445237322,0.000887523751530587,-0.0770155421539829,-0.0444874395507815,-0.000281871838046309,-0.00175891204158624,0.0142721707660114,0.0877885593496223,-2.77893920923294,-0.000487464029806585,0
0.26,0.00155329050199864,0.000892549002106918,-0.0774539721877519,-0.0447393062187497,-0.000283461786747595,-0.00176889923970109,0.0143523647384946,0.0882877848573024,-2.77894198256783,-0.000475746804569952,0
0.27,0.00149836831271835,0.000861409062749875,-0.074760144821042,-0.0431784169986209,-0.000273835640640944,-0.0017065014549835,0.0138488707687799,0.0852153960654975,-2.77894467350474,-0.000394919918269198,0
0.28,0.00144647211393237,0.000831281164184504,-0.0720422622135179,-0.0416682494600773,-0.000264081671098655,-0.00164729196601624,0.013401304654495,0.0821385146655691,-2.77894721829787,-0.000318530333201896,0
0.29,0.00154369672130383,0.000887418064914383,-0.077000809590685,-0.0444821258609593,-0.000282081101842791,-0.00175810711883086,0.0142733268563453,0.0877727539683192,-2.77894943678436,-0.000407922364675678,0
0.3,0.00154270164556683,0.000886932876514355,-0.0769563027545226,-0.0444578235569491,-0.000281983570221012,-0.00175700414364965,0.014266548616038,0.0877224954025635,-2.77895120194012,-0.000393259665236462,0
0.31,0.00154363583491084,0.000887514064288077,-0.0770075013746449,-0.0444869458523033,-0.000282199279242447,-0.00175808315273342,0.0142758001161575,0.0877806650138584,-2.77895331733984,-0.000378015801300212,0
0.32,0.00154351374895076,0.000887513866870823,-0.0770064735386898,-0.0444869251351525,-0.000282245919326803,-0.00175796837232966,0.01427632090188,0.0877796681262361,-2.77895531709353,-0.000362504561189845,0
0.33,0.00154339601167298,0.000887512709399964,-0.0770053825727341,-0.0444868888252942,-0.000282289924365552,-0.00175785734824991,0.0142768397962658,0.0877786082594101,-2.77895720630245,-0.000347848710789745,0
0.34,0.00154328533434107,0.000887511614162465,-0.077004377908016,-0.0444868157031864,-0.000282331299170089,-0.00175775297638048,0.0142772844870618,0.0877776175120134,-2.77895899107547,-0.000334003035311524,0
0.35,0.00154318040274349,0.000887510579435509,-0.0770034086253625,-0.0444867764512776,-0.00028237051854319,-0.00175765402576251,0.0142777396302652,0.0877766732680207,-2.77896067718558,-0.000320922751973087,0
0.36,0.00154308171618757,0.000887509601880403,-0.077002513604753,-0.0444867033040294,-0.000282407411884427,-0.00175756096052883,0.014278128554517,0.0877757877622958,-2.77896227008706,-0.000308565549730075,0
0.37,0.00154298807687925,0.00088750867833969,-0.0770016461317967,-0.0444866669342158,-0.000282442410248558,-0.00175747265822623,0.0142785343604974,0.0877749423152097,-2.77896377493238,-0.000296891456494744,0
0.38,0.00154289967626005,0.000887507805830053,-0.0770008282037179,-0.0444866305497199,-0.000282475451535237,-0.00175738929543019,0.0142789152733026,0.0877741443726089,-2.77896519658937,-0.000285862709843851,0
0.39,0.00154281628149933,0.000887506981533225,-0.0770000598977943,-0.044486594151039,-0.000282506623824563,-0.0017573106521685,0.0142792716700138,0.087773393941428,-2.77896653965662,-0.000275443634871283,0
0.4,0.00154273731052048,0.000887506202785857,-0.0769993232035993,-0.0444865577402647,-0.000282536138778082,-0.00175723618205969,0.0142796103231156,0.0877726741213359,-2.77896780847867,-0.000265600528786447,0
0.41,0.00154266287973883,0.000887505467071729,-0.0769986344433313,-0.0444865213161503,-0.000282563959991726,-0.00175716599190859,0.0142799258020105,0.0877720001141545,-2.77896900715986,-0.00025630155189544,0
0.42,0.00154259252349309,0.000887504772014128,-0.0769979801988078,-0.0444864848804308,-0.000282590257269154,-0.0017570996444087,0.0142802232087414,0.0877713593196626,-2.77897013957752,-0.000247516624611892,0
0.43,0.00154252612536793,0.000887504115366696,-0.0769973640242362,-0.0444864484332104,-0.000282615076267961,-0.0017570370288931,0.0142805016043794,0.0877707550087656,-2.7789712093947,-0.000239217330153758,0
0.44,0.00154246321969766,0.000887503495007543,-0.0769967714771506,-0.0444864090655249,-0.000282638586291529,-0.00175697770825637,0.0142807636962007,0.0877701725969765,-2.77897222007196,-0.000231376822627685,0
0.45,0.00154240403932171,0.000887502908932406,-0.0769962225394351,-0.0444863725970296,-0.000282660708636589,-0.00175692189856933,0.0142810081244681,0.0877696327845391,-2.77897317487868,-0.000223969740184863,0
0.46,0.00154234769430611,0.000887502355246159,-0.0769956805989622,-0.0444863728913657,-0.000282681762657042,-0.00175686876623155,0.0142812798091668,0.0877691133083804,-2.77897407690316,-0.000216972122986009,0
0.47,0.00154229480035718,0.000887501832159958,-0.0769951839051097,-0.0444863364029655,-0.000282701533417382,-0.00175681888545733,0.0142814966756099,0.0877686238005588,-2.77897492906348,-0.000210361335697063,0
0.48,0.00154224493320626,0.000887501337983022,-0.0769947182756491,-0.0444862999054224,-0.000282720174692368,-0.00175677185819444,0.0142816983788905,0.0877681640062965,-2.77897573411603,-0.000204115994272029,0
0.49,0.0015421974357551,0.000887500871117948,-0.0769942574890343,-0.0444863001683335,-0.000282737922663659,-0.00175672706877664,0.0142819288275957,0.0877677224150102,-2.77897649466498,-0.000198215896778263,0
0.5,0.00154215292370862,0.000887500430055715,-0.0769938386450807,-0.0444862636535216,-0.00028275456184981,-0.00175668509164427,0.0142821063215137,0.0877673075932966,-2.7789772131705,-0.000192641958050768,0
0.51,4.58425449314599,0.0531039605910572,10.7892539263006,-2.65416127513868,-0.372361144908848,4.56941533090633,-3.64353065402205,10.4965354633727,0.0928936953884522,28.4744875407058,769.504190082328
0.52,4.50099394759184,-0.0520334133767032,14.954503933437,2.6260677470035,-1.87926153435036,4.09023594403515,-3.68714027172228,14.7288294281548,0.419125319271544,60.591530458986,769.504190082328
0.53,4.46372198120854,-0.0488511171286761,16.8204775087813,2.47817048075108,-3.74529012216771,2.4289920250923,-12.6402673480087,11.3707270623275,0.984500503826618,94.0750797098758,769.504190082328
0.54,4.45706009015124,0.0302631808471441,17.1561235759256,-1.49025974513506,-4.34155666215394,-1.00855652129206,-16.3373380190829,-5.44470721991816,1.80584071633132,129.798353623372,769.504190082328
0.55,4.42991406421196,0.0720224510529694,18.5158777617145,-3.56552855988594,-1.2259026277095,-4.25752141475924,-1.39144742685944,-18.8046429707241,2.87749499780541,162.186529476523,769.504190082328
0.56,4.36837393643062,0.0219070140806559,14.7101664238327,-1.0594139544221,3.77055680497415,-2.20591752933228,13.2643725164479,-6.44730764649714,-2.09512654358368,196.049307511376,769.504190082328
0.57,4.03961096508554,-0.0389093672301482,20.9519003658954,2.01146754240567,2.05120079921526,3.48030831527844,12.5346221646589,16.9089141521802,-0.54220076785368,226.844184646186,769.504190082328
0.58,3.87695559665692,0.0644457674105671,18.8945879984595,-3.1803960542261,-3.63946037530912,1.3376345285396,-18.8879633930828,3.21950517235666,1.23520624605266,257.720364112563,769.504190082328
0.59,3.73560616874905,0.0424775236054296,16.6212198617699,-2.08361891265977,0.278157242729338,-3.72547800105232,3.50187380266927,-16.3811872993586,-3.05569693231075,286.398751293912,769.504190082328
0.6,3.53704795942544,-0.0383696954989762,17.6713861049324,2.00262768994059,2.64925243104328,2.3438519700313,14.6719744521271,10.0509487218991,-0.857334023311932,313.357701999511,769.504190082328
0.61,3.31862336091371,-0.0150984312852271,20.0054458444197,0.839449044114856,-3.31721369343947,0.0978891530618814,-19.9652713596809,1.52002554780553,1.53674586220224,339.186743724363,769.504190082328
0.62,3.15997098955674,-0.0445545869783481,19.7329120894347,2.31837473689716,2.64023837287141,-1.73681982383848,15.0298892714097,-12.9948108658497,-2.16675284664138,363.926400654202,769.504190082328
0.63,2.99940387306795,0.0321479291618129,19.9205517164445,-1.52469342654748,-1.64146439734078,2.51058792225787,-12.3463572576272,15.7073401058083,0.589771356173335,387.580735596245,769.504190082328
0.64,2.9054852046244,-0.0430778473490769,17.1186431702931,2.21923156446859,1.10001230835859,-2.68954882771872,4.17847451616006,-16.7485307847094,-2.76818130701914,410.175757390937,769.504190082328
0.65,2.63995553926612,0.0302656986391947,23.1827780803618,-1.47564591248127,-0.795268148448432,2.51750468398361,-8.63806876970872,21.563916580995,0.317439159756798,431.665121834457,769.504190082328
0.66,2.63825265157006,-0.0106680862532289,16.4557171130994,0.593927567305132,1.07130279618234,-2.41097515135944,6.07744989665296,-15.3038550181067,-2.7274956424246,451.863788061233,769.504190082328
0.67,2.44805718831085,-0.0242415058003677,19.5545571915826,1.29837769176738,-1.5121396673425,1.92535847942486,-10.8961928794664,16.2892440684895,0.655861017127313,471.022579671437,769.504190082328
0.68,2.32128340643741,-0.00711990205386773,19.7114573107465,0.394362832729722,2.00083336969788,-1.17689131728904,16.758521944359,-10.3850379680413,-2.1055618087924,489.608810201128,769.504190082328
0.69,2.24668954726851,0.0817235559908146,17.4783428582666,-4.03995869514502,-2.24422822455752,0.133162823298301,-17.5662930602865,-3.6385551321546,1.54788919708894,507.055679960096,769.504190082328
0.7,2.06963537556918,0.0307039987627888,20.804164295761,-1.45130290393154,1.71008637617458,1.166163757527,16.1769310778046,13.1615513169207,-0.957464911664975,523.528692362043,769.504190082328
0.71,1.98614148792404,0.0698985070445406,19.5298033958618,-3.46057203217786,-0.467005977545694,-1.93172182994259,-0.528560337283396,-19.8269867463707,2.93956625906894,539.492721924511,769.504190082328
0.72,1.92759962822143,0.0767736232096506,17.4362991922994,-3.76037437093738,-1.13067658403683,1.5630434985153,-13.730337965139,11.3860776519417,0.666054004073962,554.368405188733,769.504190082328
0.73,1.81098716079838,-0.0223379633993305,18.3199095945375,1.1700919944857,1.80485318373318,0.150593712862186,18.3567720839076,0.130849100326101,-1.49988500928714,568.733801621663,769.504190082328
0.74,1.62960503615971,-0.0120869497987462,22.8182051108641,0.625664249846099,-0.657382406819112,-1.49117639447426,-9.9298267190479,-20.5538434742673,2.71895842274774,582.281858057129,769.504190082328
0.75,1.64557366010715,0.054669070107347,17.5729286584994,-2.66435744146307,-1.08367043130403,1.2395804832209,-13.9455161412863,11.0194919014315,0.751599739909177,595.08284014629,769.504190082328
0.76,1.48365937633285,-0.057807426201665,21.4069435190172,2.93061690839472,1.31275449521792,0.693730840304496,20.5690862726851,6.61501596347283,-1.12358823547445,607.441634806256,769.504190082328
0.77,1.47779123558388,-0.0445647173802116,17.7255359916736,2.24825231541734,0.380761425568679,-1.42859150452556,1.8577859705636,-17.7707033049757,-2.91126572225889,619.087292757427,769.504190082328
0.78,1.28912528737581,0.143096079907145,23.297227439747,-7.09746539110564,-1.29692148038562,0.017752981465712,-22.5016206891754,-9.317289719533,1.66765852146831,630.089610406731,769.504190082328
0.79,1.29663806059504,0.0516146599600435,19.2315826364171,-2.52944175006071,-0.0036202122937442,1.29765990435453,-3.34569296636825,19.1064958808015,0.0425753165252234,640.60666558437,769.504190082328
0.8,1.16356580910002,0.0216696458867207,22.3987388671043,-1.05969193616173,1.16261434926364,0.0517961441203088,22.2872328996321,2.47097137050461,-1.50765299834485,650.578691275571,769.504190082328
0.81,1.06810344109862,0.024647526261851,23.888351603973,-1.23130475575485,0.139964793415391,-1.05918002154578,4.89167251679,-23.4145466269382,-2.98713751141882,660.011568593892,769.504190082328
0.82,1.06290660385218,0.0753620627433001,20.998143775015,-3.77880316210112,-1.03446702602686,-0.255593155379103,-18.814289670292,-10.0610088726951,1.883805592169,668.951582475286,769.504190082328
0.83,0.969508983779824,-0.00649903230990267,22.650755120774,0.376175198262192,-0.500416506092441,0.830405459688811,-11.2372300901613,19.6703552388316,0.535638269592009,677.433967287342,769.504190082328
0.84,0.929546471825514,-0.0300653412754629,21.7636746197073,1.57505778232514,0.612808678775178,0.699589945072892,16.012682992223,14.8233708501382,-0.751702943121592,685.513772231935,769.504190082328
0.85,0.975495970154595,0.0629498264507888,16.6956440625327,-3.08713528904301,-0.654291592850514,0.726262748571876,-14.1063721100248,9.44908465668253,0.797754990523256,693.207630439616,769.504190082328
0.86,0.837964676048343,0.112362393212655,20.9495325984902,-5.57278177331306,0.412702611389426,0.737893393564157,2.52345617415166,21.5306985888826,-0.376659506910771,700.473179021188,769.504190082328
0.87,0.848759130093937,0.0477907948902354,17.9069089061305,-2.33839000583706,0.850004784367199,0.0129571426992543,17.6941408326694,3.61148647865622,-1.49930662485824,707.371284905882,769.504190082328
0.88,0.707602560736608,0.00850676638260114,22.5552386327382,-0.376419118107672,0.374136201224817,-0.600662843838669,12.4713205589209,-18.797516980944,-2.5725035117968,713.968788593987,769.504190082328
0.89,0.715769108096938,0.07964396836185,19.8977686691323,-3.94156850570565,-0.387571104900383,-0.607006768041845,-5.25139831255378,-19.5928552298633,2.68416213657426,720.109091873532,769.504190082328
0.9,0.642638058938038,-0.0683931103642475,21.400704872591,3.47830574534869,-0.628269208492184,-0.151456574639563,-21.6713848973346,0.663216807269398,1.70132590487602,725.954664615198,769.504190082328
0.91,0.687980924283914,0.0408116963324497,17.0824108556507,-1.99031422902828,-0.44460498976319,0.526602079196193,-13.2157296751836,11.0052078819074,0.760421428042663,731.485421970963,769.504190082328
0.92,0.57356424031745,0.0159761581292778,20.8383719384475,-0.746344482222513,0.0964748200543364,0.565618055312053,2.19146609708334,20.7362545189953,-0.141092565398935,736.73915714904,769.504190082328
0.93,0.47508746561985,0.00964765086245453,23.914943646719,-0.430575833492479,0.406311338764991,0.246398606220199,19.9619960365131,13.1768220528459,-1.00535938215324,741.663479137564,769.504190082328
0.94,0.408882749160899,0.0631324831350144,25.4248894568332,-3.11552552986857,0.378349655800776,-0.167398778202236,25.3593090382323,-3.61067145042042,-1.83415679922662,746.407869834803,769.504190082328
0.95,0.403242909804759,-0.0739013222600439,24.0142817135054,3.68833628874038,0.262012777964805,-0.315302321467441,8.55195928842579,-22.7410101605788,-2.62949556890096,750.833481581278,769.504190082328
0.96,0.441186112862558,-0.0900604557509859,20.5034599738947,4.48470879957032,-0.0226316366293656,-0.449715333179029,-9.44882429174618,-18.7409765866604,2.889944701272,755.011097349507,769.504190082328
0.97,0.34457815639137,-0.0410558931677246,23.8009793422319,2.02943014555097,-0.264587533572924,-0.224528682585704,-20.9627736116987,-11.4528305178104,2.15588719352565,758.942921343758,769.504190082328
0.98,0.432321468828819,0.0581005064677795,17.9300988774205,-2.9226484700344,-0.422162178160439,0.109802625619582,-18.1516811483291,-0.739453394653545,1.44992997112335,762.732265557569,769.504190082328
