t,iq,id,vq,vd,ia,ib,va,vb,theta_e,omega,r
0,0,0,0,0,0,0,0,0,0,0,0
0.01,0.000574269727524611,0.000328689581209126,-0.028348962278117,-0.0164535889054684,0.000313803920163428,-0.00058253726098567,-0.0153706399095608,0.0289504348652463,-2.1276295646118,-0.000859883318150276,0
0.02,0.000638785124701993,0.000365495921799242,-0.0315764609038497,-0.0182960371789184,0.00034911679116329,-0.000647882065286782,-0.0171366258320724,0.0322203959435054,-2.12763606255277,-0.000934293698591365,0
0.03,0.00066433285950671,0.000380098237184715,-0.0328382284140572,-0.0190270101859294,0.000363083059959598,-0.000673782984128915,-0.0178212278135834,0.0335079125163836,-2.12764281152413,-0.000948211313036102,0
0.04,0.000649734105195828,0.000371854876142839,-0.0321267440926749,-0.0186143530576122,0.000355042276994736,-0.000659071648542268,-0.0174351138182253,0.0327816813463737,-2.12764923553035,-0.000901978412328694,0
0.05,0.000664597899683725,0.000380390927702427,-0.0328631624728689,-0.0190416575712919,0.0003631447033587,-0.000674176201422784,-0.0178342226332036,0.0335337542462791,-2.12765566536908,-0.000900754788496202,0
0.06,0.000665181355798557,0.000380786546769762,-0.0328976725859469,-0.0190614648049511,0.000363426660869987,-0.000674822711881971,-0.0178528386478578,0.0335689209581736,-2.12766197215618,-0.00087816319279357,0
0.07,0.000682566968657644,0.000390838841677123,-0.0337576737059122,-0.0195646654501495,0.000372868456575657,-0.000692547313154045,-0.0183167423074383,0.034450741928934,-2.12766804789418,-0.000882112396815221,0
0.08,0.000665796691933025,0.000381269683339571,-0.0329390964452753,-0.0190856510004558,0.000363685497967374,-0.000675562480449469,-0.0178748139393991,0.0336115631200665,-2.1276740810852,-0.000834015841766479,0
0.09,0.000664878668023784,0.000380822980420137,-0.0328993573933289,-0.0190632879069773,0.000363138356911214,-0.000674700169963652,-0.0178527037092097,0.0335716790314316,-2.12767989323735,-0.000810971037295524,0
0.1,0.000664721368166946,0.000380800789851128,-0.0328968540771448,-0.0190621728898384,0.000363012740175453,-0.000674600244084812,-0.0178509782421485,0.0335695102623406,-2.12768554482267,-0.000789686692854945,0
0.11,0.000664603351724093,0.000380798390147001,-0.0328961381960434,-0.0190620617137091,0.000362910115381984,-0.000674537824895596,-0.0178502447279359,0.0335691356478423,-2.12769104280436,-0.000769034558917799,0
0.12,0.000664490290129722,0.000380796948348972,-0.0328955268836592,-0.0190619798188224,0.000362811291841686,-0.000674478782513385,-0.0178495895217991,0.033568838488545,-2.12769639147797,-0.000748945839524178,0
0.13,0.000695889825408118,0.00039883456466681,-0.0344435862844775,-0.0199649178458821,0.000379928574573317,-0.000706389366640094,-0.0186862901544124,0.0351536789112346,-2.12770176770581,-0.000776918691557016,0
0.14,0.000726475177536093,0.000416582871090025,-0.0360056540953215,-0.0208533527556321,0.000396507386953303,-0.000737624134741516,-0.0195425365542032,0.0367336182945596,-2.12770699908561,-0.000804186389387938,0
0.15,0.000667130449641833,0.000382458105882884,-0.0330398202552919,-0.0191451363852981,0.000364163841999399,-0.000677290141501465,-0.0179275962479947,0.0337159793344721,-2.12771212827142,-0.000694384685059109,0
0.16,0.000664198852798194,0.00038086907112265,-0.0329001713173978,-0.0190655920939658,0.000362511929793654,-0.000674393406072115,-0.0178509338233339,0.0335747261529051,-2.12771691456915,-0.000672082033280401,0
0.17,0.000663965466082459,0.000380793976494541,-0.0328929933205807,-0.0190618304258272,0.000362350371233051,-0.000674207980634976,-0.0178466728628925,0.0335678217418952,-2.12772156116253,-0.000654423597845669,0
0.18,0.000663863573035066,0.000380789357779114,-0.0328921595845008,-0.0190615956911442,0.000362263270044306,-0.000674151838814908,-0.0178459374710254,0.0335672624472888,-2.12772608110939,-0.000637437669132406,0
0.19,0.000663770229463503,0.000380788048821581,-0.0328916315753696,-0.0190615412089313,0.000362181760109817,-0.000674102980479343,-0.0178453704518252,0.0335670155716406,-2.12773047829125,-0.000620922227126997,0
0.2,0.000663679919866918,0.000380786923514261,-0.0328911417254031,-0.0190614767307868,0.000362102809497826,-0.00067405583782636,-0.0178448451195409,0.0335667782460348,-2.12773475606334,-0.000604855714764895,0
0.21,0.0006635919896105,0.000380785835595562,-0.0328906606033195,-0.0190614295407051,0.000362025937592272,-0.000674009941896905,-0.0178443219594381,0.0335665581325511,-2.12773891766929,-0.000589225521468945,0
0.22,0.000663506569455815,0.000380784777479921,-0.0328901977285875,-0.0190613679937986,0.000361951257244697,-0.000673965356565484,-0.0178438256735183,0.0335663334571067,-2.12774296626363,-0.000574019778635074,0
0.23,0.000663423295809163,0.000380783748055555,-0.032889737925533,-0.019061320819497,0.000361878458298847,-0.00067392188985429,-0.0178433280901534,0.0335661206406277,-2.12774690491536,-0.000559226959050145,0
0.24,0.000663342350467599,0.000380782746532278,-0.0328892929922421,-0.0190612736514317,0.000361807693454415,-0.000673879638316621,-0.0178428467180392,0.0335659137778322,-2.12775073660995,-0.000544835849442039,0
0.25,0.000663263617015802,0.000380781772154182,-0.0328888599752746,-0.0190612264893805,0.000361738862304665,-0.000673838540868872,-0.0178423789525642,0.0335657113594479,-2.12775446425198,-0.000530835541085579,0
0.26,0.000669940028419028,0.000384643219380326,-0.033220285954446,-0.0192545220321787,0.000365362609067124,-0.000680646906838644,-0.0180214160848891,0.0339050524240579,-2.12775806715931,-0.000527624455053469,0
0.27,0.000648545281076992,0.000372384443948617,-0.0321721839848839,-0.0186408713591915,0.000353679085374297,-0.000658932667478974,-0.0174559821714971,0.0328301720040502,-2.12776167267067,-0.0004814991335537,0
0.28,0.000646659476640246,0.000371300160377967,-0.0320317604860821,-0.0185865915712251,0.000352649202558438,-0.000657016611479678,-0.017365362357221,0.0327099259594955,-2.12776511073977,-0.000465815127958522,0
0.29,0.00066218677792847,0.000380337074660912,-0.0328487696763871,-0.0190389590355425,0.000361050467415714,-0.000672896856289137,-0.0178196514130275,0.0335258654463622,-2.12776839174429,-0.000477330305371509,0
0.3,0.00065821998693272,0.000378141754832996,-0.0326565752910251,-0.0189290734310124,0.000358841713163754,-0.000668937487990911,-0.0177144936569787,0.0333310432655792,-2.12777136938781,-0.000460180187632353,0
0.31,0.000662615996750419,0.000380653892482321,-0.0328755127644198,-0.0190548195679068,0.000361243211084992,-0.000673394897112013,-0.0178337627269803,0.0335535750000918,-2.12777452062306,-0.000455165401846467,0
0.32,0.000662764098328735,0.000380770016728645,-0.032885625404842,-0.0190606414598421,0.000361305466769166,-0.000673572873084827,-0.0178391659069073,0.0335639176925769,-2.12777760162271,-0.000443919674898083,0
0.33,0.000662711034773709,0.000380774673593685,-0.0328857748717987,-0.0190608664043038,0.000361255942432609,-0.000673549858376011,-0.0178390732434042,0.0335642411327562,-2.12778059968826,-0.00043267508794536,0
0.34,0.000662649814665569,0.000380774164044218,-0.0328854476468856,-0.0190608481733205,0.000361202280473125,-0.000673518116653814,-0.0178387072190493,0.0335641047068958,-2.12778351637405,-0.000421721318063741,0
0.35,0.000662589998691393,0.000380773433790726,-0.0328851158474774,-0.0190608010509587,0.00036114998061494,-0.000673486900947946,-0.0178383552439047,0.0335639399236516,-2.12778635385674,-0.000411064311291484,0
0.36,0.000662531688948611,0.000380772712427712,-0.0328847862613661,-0.0190607697275761,0.000361099006691964,-0.000673456460921367,-0.0178379993829088,0.0335637883451609,-2.1277891142854,-0.000400696670300258,0
0.37,0.000662474892604415,0.000380772010119291,-0.0328844612268251,-0.019060738404793,0.000361049357992103,-0.00067342680976852,-0.0178376499021394,0.0335636378344663,-2.1277917997525,-0.000390610568758255,0
0.38,0.000662419667866464,0.000380771326833538,-0.0328841455657905,-0.0190607070822098,0.00036100108255744,-0.000673397978989577,-0.0178373108265076,0.0335634909767213,-2.1277944122938,-0.00038079836276545,0
0.39,0.000662365956527099,0.000380770662077739,-0.0328838382794813,-0.0190606757598176,0.000360954129892801,-0.000673369938130972,-0.0178369812416734,0.0335633472793786,-2.12779695388956,-0.000371252614558232,0
0.4,0.000662313940374543,0.000380770015351191,-0.0328835502552813,-0.0190606286465839,0.000360908653263214,-0.000673342783584062,-0.0178366786724407,0.033563199128371,-2.12779942646625,-0.000361966088282539,0
0.41,0.000662263081209065,0.000380769386165471,-0.0328832563811248,-0.0190605973256023,0.000360864194805954,-0.000673316231113141,-0.01783636504342,0.0335630600910198,-2.12780183189824,-0.00035293174457607,0
0.42,0.000662213495446884,0.000380768774045419,-0.0328829641846286,-0.0190605817926696,0.000360820852353507,-0.000673290342532047,-0.0178360466852806,0.0335629341757109,-2.1278041720089,-0.000344142735234103,0
0.43,0.000662165430248231,0.000380768178528746,-0.0328826877305566,-0.0190605504701202,0.000360778834745382,-0.00067326524876581,-0.0178357521706385,0.0335628020450746,-2.12780644857221,-0.000335592398020671,0
0.44,0.000662118645617519,0.000380767599165395,-0.0328824166576532,-0.0190605191475501,0.000360737937330154,-0.000673240823197274,-0.0178354642993577,0.0335626716553967,-2.12780866331343,-0.000327274251618028,0
0.45,0.000662073199762409,0.000380767035518061,-0.0328821554467992,-0.0190604878243755,0.000360698208608205,-0.000673217096847428,-0.0178351868188818,0.0335625454050526,-2.12781081791183,-0.000319181990711885,0
0.46,0.000662028976267579,0.000380766487160522,-0.0328818998472525,-0.0190604565010562,0.000360659548879098,-0.000673194008414207,-0.0178349160659219,0.0335624210764796,-2.12781291400036,-0.000311309481214735,0
0.47,0.000661985735136901,0.000380765953678565,-0.0328816393386779,-0.0190604395053008,0.000360621753566804,-0.000673171431256477,-0.0178346354826215,0.0335623052982977,-2.12781495316806,-0.000303650755613571,0
0.48,0.000661943956362903,0.000380765434669087,-0.0328813993771681,-0.0190604081799559,0.000360585229270799,-0.000673149619353555,-0.0178343817748992,0.0335621872304906,-2.12781693696061,-0.000296200008448451,0
0.49,0.000661903225326201,0.000380764929740021,-0.0328811607336145,-0.0190603768546115,0.000360549623235383,-0.000673128353734987,-0.0178341309944819,0.0335620688978087,-2.12781886688157,-0.000288951591909807,0
0.5,0.000661863476656602,0.000380764438509409,-0.032880921505096,-0.0190603613086347,0.000360514879182449,-0.000673107600056198,-0.0178338731350087,0.0335619627144242,-2.12782074439432,-0.000281900011558876,0
0.51,1.02641773720415,-0.0144452428883562,1.0620050769057,0.723447670377985,-0.0289645338516052,1.02611066268125,0.708351081346952,1.07213341553345,0.0141474766363797,4.35892811677826,130.309850318383
0.52,1.00184488466054,-0.036436215047897,0.87310308842734,1.82458578775988,-0.100070783109387,0.997500179977618,1.76537141286549,0.987363192829266,0.0636339318340521,9.12173389093413,130.309850318383
0.53,0.980826644654977,-0.00672938516635854,0.536372947318197,0.337754577129259,-0.150896974513055,0.969172995173031,0.255203127516588,0.580211562011932,0.14759569512416,13.764039240931,130.309850318383
0.54,0.955960683372924,0.00297760007633945,0.407441769001819,-0.147892925495267,-0.247710860892336,0.923314152200117,-0.249523574571847,0.354427846354894,0.265226955317839,18.3193261402724,130.309850318383
0.55,0.94261436896891,0.046268399725147,-0.287346933317533,-2.31477745516559,-0.338577552731813,0.880924431597807,-2.00125864597,-1.19821816000267,0.415982757709358,22.7916695001316,130.309850318383
0.56,0.896884204739413,0.000275378127424203,0.67904698945089,-0.012037775047301,-0.505440015293431,0.740899280256323,-0.392791922533867,0.554043524917091,0.598985177256813,27.1368521647277,130.309850318383
0.57,0.859448059423269,-0.0333280541761702,1.22125397507118,1.6705065405389,-0.647577857060828,0.566042971059705,0.259634773638121,2.05295960942447,0.813721501884629,31.4536349601135,130.309850318383
0.58,0.826880402484481,-0.02527198808949,1.48428553715214,1.26746961963009,-0.733797650390174,0.381982829033915,-0.675717608730841,1.83111673733144,1.06028587312857,35.8112840692593,130.309850318383
0.59,0.801049523970208,-0.0142190850487421,1.39002413850592,0.713489361844396,-0.782866853110938,0.170299772556212,-1.18879027760363,1.01390919266438,1.33885115577931,40.1807864761888,130.309850318383
0.6,0.810219738040819,0.0168063137223819,-0.425036783495691,-0.840168582358261,-0.809050389363704,-0.0466470102183109,0.489478798768436,-0.804332033219156,1.64912899496755,44.4045279711183,130.309850318383
0.61,0.737098866777789,-0.00737313911675286,1.98598131362388,0.370359851943712,-0.670549418473035,-0.306157769738104,-1.96519100432555,-0.468308140558032,1.98910402967253,48.2913844632508,130.309850318383
0.62,0.736290450891312,0.0334720702847824,0.886464605964816,-1.67389783394116,-0.544140380386642,-0.497147115042984,0.557396390135326,-1.81026592531743,2.35652426748906,51.9056890568882,130.309850318383
0.63,0.702913035020036,-0.0153293028600947,1.47190058919585,0.769759365733895,-0.254270124064242,-0.655490981124539,-1.27352517247148,-1.06637444675481,2.74974898071226,55.3460105004553,130.309850318383
0.64,0.657297441816339,-0.0219928020007325,2.69847783274693,1.10389488124579,0.0392060264614774,-0.656495619061734,-1.03281755769698,-2.72647288913352,-3.11539029321695,58.7096576218457,130.309850318383
0.65,0.649319930811985,0.0482955906533858,2.02133542529435,-2.41442212723687,0.250296702242342,-0.601082687716797,3.06721478049551,-0.712337420293786,-2.67277842770568,62.0800489293442,130.309850318383
0.66,0.612224557828977,-0.0264901120253821,2.74328268958111,1.32714404172613,0.508863739688381,-0.341435688928909,1.42340364758831,-2.69459334194918,-2.20501848317212,65.5585573523443,130.309850318383
0.67,0.587647221893992,0.0392793319576685,2.90155526481274,-1.96530964536377,0.576235174611286,-0.121758559696916,3.14971190824783,1.5364829488036,-1.71229099003311,68.8086661593505,130.309850318383
0.68,0.621514400972893,-0.0359778027706906,0.246545377160372,1.80318321767698,0.5654307746414,0.260504495157622,0.888136128869159,-1.5885429034522,-1.19688740860011,71.7749240432318,130.309850318383
0.69,0.594324006630444,0.0228695411475112,0.687863512292973,-1.14178812375209,0.382553707851354,0.45540827987504,-0.479998515160018,1.2435585054711,-0.660212721988214,74.6109324749367,130.309850318383
0.7,0.588114333649041,0.0291528544421075,0.0746212101969392,-1.45557114900379,0.0894052123966402,0.582009507106104,-1.44020828277548,0.2237315289546,-0.102893707921671,77.4593225276926,130.309850318383
0.71,0.584456687355413,0.00908216535268586,-0.730444337449453,-0.453602691255498,-0.25958017831115,0.523727253587121,-0.0687323977905379,-0.857076536325761,0.47569178361613,80.4255935249116,130.309850318383
0.72,0.526208948547402,0.0477858732158288,1.24947619617915,-2.39108480446372,-0.440251644899139,0.292160634538544,-2.23583706964386,-1.50980459164819,1.075467787808,83.1679860408221,130.309850318383
0.73,0.540434024865802,-0.0338067468189674,-0.276024701590701,1.69494456135874,-0.532161760296013,-0.100078430452226,0.0652732067653637,1.71603208316347,1.69421196116512,85.6375288673853,130.309850318383
0.74,0.465330899577275,0.0378036659670748,2.67435057205104,-1.8890308630374,-0.36331620170011,-0.293194987754141,-0.636894842343934,-3.21169013815674,2.33085140264608,88.0501329928049,130.309850318383
0.75,0.451657911885807,-0.0390383898013789,2.50906426749881,1.95604096596111,-0.0316913203606085,-0.452232822184694,-2.32251292285255,-2.17426619394689,2.9854103326864,90.5731262013054,130.309850318383
0.76,0.469693897557652,0.00452271306713861,0.777177493170101,-0.225622484440119,0.228126754732838,-0.41059833914843,0.580137468409252,-0.564225911424492,-2.62483455129026,92.9808030942047,130.309850318383
0.77,0.447387853348867,-0.0375233250613802,1.14747271846792,1.88084036042165,0.431390503800616,-0.124362874196523,0.401925538830104,-2.16626636456723,-1.93514610110993,95.1646071044241,130.309850318383
0.78,0.464599284297185,-0.00218815999029072,-0.439410018079133,0.113513941662888,0.437104901887149,0.157469323234165,-0.376128446418728,-0.253956631602294,-1.22972456916557,97.316940308686,130.309850318383
0.79,0.428990677547833,0.0597169771379487,0.561830816807633,-2.98914040359315,0.260912033486561,0.345722474773265,-2.33802908063913,1.94531083305304,-0.508179027382486,99.5646295755396,130.309850318383
0.8,0.418248028979722,-0.0167510273315367,0.352684864610686,0.839623395806508,-0.111470177129641,0.403467979240944,0.737361822716442,0.534463846215435,0.229526858067684,101.669296830056,130.309850318383
0.81,0.365290823179403,0.023545229576047,2.33834361481357,-1.17597990773491,-0.290665836261811,0.222497494289479,-2.5976280072027,0.321104874662027,0.981831502029626,103.564533311772,130.309850318383
0.82,0.370305692934081,-0.0051199950928891,1.43493694074256,0.260087830174366,-0.363614180008264,-0.0702655581779524,-1.45831375195736,0.0032717219437165,1.74785999632896,105.449993935614,130.309850318383
0.83,0.358853069439225,-0.0402334865803682,1.31109177401692,2.0141586864514,-0.173718938002501,-0.316569091143859,-2.40168773644865,0.0877090114791261,2.52805502333067,107.379894217186,130.309850318383
0.84,0.349417843934821,-0.0307373723353504,1.16787350628911,1.54069688288404,0.0927947612905065,-0.338270229247533,-1.30673001283106,-1.42482703693717,-2.96159896855102,109.098393055583,130.309850318383
0.85,0.362572626366576,-0.00694252135583991,-0.0919110161905776,0.351465757652801,0.306132504654993,-0.194396495819225,-0.27068448084881,-0.242292644393618,-2.15570544669642,110.795892289449,130.309850318383
0.86,0.321521108295421,-0.0274925141561827,1.31571475952877,1.37595095391701,0.306410028713194,0.101215392693618,1.59863268279845,-1.03378909914722,-1.33705440103612,112.55927353477,130.309850318383
0.87,0.331051883404402,-0.00902089362200234,0.254415754998263,0.452934704878348,0.152563525622645,0.293940634613403,0.519488382526549,0.00300727360276076,-0.505996600615248,114.152183116356,130.309850318383
0.88,0.282925222002183,0.0230778941315291,2.11505134653687,-1.15197526946848,-0.0715729059035869,0.274693628581092,-1.78536652658973,1.61646391413088,0.336276907730007,115.646248693348,130.309850318383
0.89,0.269562643683382,-0.0252420802139282,2.20333827586543,1.26290121479101,-0.259613191069977,0.0768255979837718,-1.57557395563292,1.99177954265664,1.18971518746664,117.214419893108,130.309850318383
0.9,0.313069768487678,0.00439515964885559,-0.512554131596335,-0.219042108195707,-0.279220469156044,-0.141661310785782,0.555628209737078,0.0443675052675036,2.05434122269217,118.652567005314,130.309850318383
0.91,0.28403481705285,0.042292671660692,0.439632076266782,-2.11383025307342,-0.101281836503848,-0.26871255454268,1.97344467099717,-0.87582579991912,2.92895758568536,119.981945396412,130.309850318383
0.92,0.251715813051294,0.0287044768025661,1.52750839059223,-1.43785640487464,0.134226789835358,-0.214867322827548,2.07616661032478,-0.30040827309049,-2.46966709576326,121.372395673503,130.309850318383
0.93,0.235960981335143,0.0194631355889701,1.81826607698223,-0.97381753970737,0.235873956276398,-0.0204908543042556,1.82249101032849,0.965887490662299,-1.57515258364708,122.648553639814,130.309850318383
0.94,0.24286524953063,-0.00868563944058552,1.019622172757,0.438107637339778,0.14434691551527,0.195506873902926,0.977481307653664,0.525450254791861,-0.671732801762069,123.835920806578,130.309850318383
0.95,0.211204310578171,-0.0353024401749503,2.12703934818051,1.76608690238154,-0.0845927283105765,0.19671703893176,1.20862211475574,2.48648183568575,0.240499690673237,125.060948375376,130.309850318383
0.96,0.232675423886122,-0.0125122266406802,0.601674237339344,0.627264224938326,-0.218434635507842,0.0811216290926803,-0.302333376238882,0.814902954576408,1.16148193577113,126.196154958045,130.309850318383
