t,iq,id,vq,vd,ia,ib,va,vb,theta_e,omega,r
0,0,0,0,0,0,0,0,0,0,0,0
0.01,0.000483022277037499,0.000267237582228199,-0.0238346685843238,-0.0133702531063061,-0.000225236880536671,0.000503978960985251,0.0110039685948971,-0.0250153506834055,0.925631053227096,-0.00156726758319036,0
0.02,0.000582204185562625,0.000319109170725464,-0.0287748872108513,-0.0159654439731612,-0.000273283942317861,0.000605068808813461,0.0133902724580763,-0.0300597760929094,0.925618899329885,-0.0017161314688031,0
0.03,0.000617944889189642,0.000339013672418624,-0.030566010544361,-0.0169612929980272,-0.000289863319931684,0.000642468218607382,0.0142221348650754,-0.031932700177757,0.92560672718893,-0.00164204145459478,0
0.04,0.00060406806979045,0.000332838095025944,-0.0299140988360565,-0.0166523323105449,-0.000282482838284005,0.000629192241302984,0.0138867227879305,-0.0312939676417891,0.925595945799382,-0.00141660996717245,0
0.05,0.000616160875608473,0.000341195432180239,-0.0305358643204032,-0.0170704586680269,-0.00028711272547268,0.000643144486443684,0.0141317452792801,-0.0320020834367457,0.925586215518314,-0.00129955149534717,0
0.06,0.000615904760975692,0.000342524337492472,-0.0305477553417744,-0.0171369457058605,-0.000286103316979811,0.000644054724678215,0.0141009830077611,-0.032062478737012,0.925577488289568,-0.00115559521672296,0
0.07,0.00062414940275915,0.000348776154604569,-0.0309742410660106,-0.0174497297294714,-0.000288925902611841,0.000654010019636769,0.0142533853186944,-0.0325689681169631,0.925569927301162,-0.00106059040923201,0
0.08,0.000613305974231203,0.000343728375045943,-0.0304605681549752,-0.0171971867510123,-0.000283293582258876,0.000643457970725628,0.0139946319824192,-0.032058379874063,0.92556301835544,-0.000909281873204892,0
0.09,0.000609683386444207,0.000342923361352969,-0.0302992453065808,-0.0171569029814438,-0.000280879575986266,0.000640637906513087,0.0138897768025757,-0.0319292606622462,0.925557042331753,-0.000798608152148493,0
0.1,0.000607569399037944,0.000342794075223992,-0.0302100022556735,-0.0171504307966749,-0.000279264998436246,0.000639264744299577,0.0138222010217449,-0.0318704921787193,0.92555180786651,-0.000705384756738354,0
0.11,0.000605905138806517,0.000342772517676574,-0.030141077837884,-0.0171493548216335,-0.000277945363747215,0.000638247922736855,0.0137676344412151,-0.0318282450964664,0.925547210910029,-0.000624190381485846,0
0.12,0.000604477679034116,0.000342768230260431,-0.0300822290674538,-0.0171491500951143,-0.000276804898660238,0.000637387144680558,0.0137206119200688,-0.0317927454490861,0.925543171634348,-0.0005529684791483,0
0.13,0.00062825298251285,0.000356714635961957,-0.0312616669527221,-0.0178468997555057,-0.000287410215030175,0.000662829170934768,0.0142431678095472,-0.0330595798868507,0.92553936129006,-0.000573951400800553,0
0.14,0.000642297414476473,0.000365481959703402,-0.0319933855252057,-0.0182855436681461,-0.000293355889564134,0.000678281175892297,0.0145638512006905,-0.0338501412524123,0.925535887421693,-0.000566298440785612,0
0.15,0.000608132244999912,0.000346382048159316,-0.0302910594497527,-0.0173299471706442,-0.000277544664517202,0.000642475143405338,0.0137783911849918,-0.0320629270011194,0.925532761902519,-0.000395157109240746,0
0.16,0.000601311833351047,0.000343340263434797,-0.0299624171540026,-0.0171777654777758,-0.000273923404992297,0.000635943728344654,0.0136072734640343,-0.031743726583294,0.925530390795816,-0.000332352432677399,0
0.17,0.000599519749267421,0.000342855490899428,-0.0298799643743805,-0.0171535090647621,-0.000272781906149405,0.000634479195150681,0.0135559228759763,-0.0316747864906727,0.925528375065139,-0.000293020839559128,0
0.18,0.000598705583956631,0.00034277792601347,-0.0298448646695733,-0.0171496366218267,-0.000272176971355368,0.000633928055134623,0.0135301536237406,-0.0316506070451077,0.925526615940896,-0.000261328111838774,0
0.19,0.000598128141245435,0.000342765246495189,-0.0298207976039922,-0.0171489941022448,-0.000271722278262352,0.000633571062352554,0.0135112631246349,-0.0316356403006795,0.925525072238054,-0.000233996372491957,0
0.2,0.000597645413955638,0.000342762938469335,-0.0298008602190736,-0.0171488821844157,-0.000271337138953045,0.000633279266860297,0.013495358837645,-0.0316235785422038,0.925523716023023,-0.000210071190333059,0
0.21,0.000597225725642623,0.000342762316832045,-0.0297835602495455,-0.0171488516126188,-0.000271001454350913,0.000633026685811206,0.0134815179823369,-0.0316131657013633,0.925522524243111,-0.000189062594948723,0
0.22,0.000596857783954444,0.000342761994434128,-0.0297683987322689,-0.0171488354797765,-0.000270707023949356,0.000632805425292762,0.0134693815162214,-0.031604048521768,0.925521476910326,-0.000170603154794952,0
0.23,0.000596534545751107,0.000342761746694332,-0.0297550785003422,-0.0171488207046776,-0.000270448344536376,0.000632611074997081,0.0134587193283693,-0.0315960380769945,0.92552055650794,-0.000154381404599548,0
0.24,0.000596250539511026,0.000342761534594162,-0.0297433738051606,-0.0171488058433656,-0.000270221058318389,0.000632440317425941,0.0134493514369882,-0.0315889976588582,0.925519747651185,-0.000140125697014883,0
0.25,0.000596000886853703,0.000342761349053385,-0.0297330827204265,-0.0171488065702568,-0.000270021264594746,0.00063229021517176,0.0134411066579022,-0.0315828185356327,0.925519036821163,-0.000127597681093452,0
0.26,0.000600623523020742,0.000345514452829359,-0.0299618924675237,-0.0172865414353651,-0.000272058311000679,0.000637270059657032,0.013541055906425,-0.0318304778470434,0.925518474035387,-0.000134596047763436,0
0.27,0.00058890788836544,0.000338760083727493,-0.0293879622672949,-0.0169486203342328,-0.000266760075495378,0.000624827942259147,0.013285734602089,-0.0312153377931551,0.925517757573941,-8.17344196429974e-05,0
0.28,0.000588404254498991,0.000338604403125518,-0.0293341090730229,-0.0169408232753622,-0.000266451036429364,0.000624400795734774,0.0132473839182607,-0.0311767263784584,0.925517278219926,-7.21089385354006e-05,0
0.29,0.000594002910034161,0.000342098960047275,-0.0296406788787805,-0.0171156657336769,-0.000268822070491578,0.000630559949577437,0.0133871478742772,-0.0315007956993816,0.925516945942784,-8.63116296455483e-05,0
0.3,0.000586327673560119,0.000338175638911148,-0.0292630327567443,-0.0169193744495448,-0.000265049725363437,0.000622809398307501,0.0132034919578313,-0.0311168462091788,0.925517066058502,-6.13433687707431e-05,0
0.31,0.000593582879948602,0.00034203065308613,-0.0296204737073114,-0.0171122505838197,-0.000268527473220044,0.000630252805741204,0.0133730541114559,-0.0314859175889958,0.925516782234933,-8.21540428444295e-05,0
0.32,0.000594797869745526,0.000342644417736264,-0.0296811223904228,-0.0171429475718385,-0.000269128825348916,0.000631473972722512,0.013403035923366,-0.0315469222879669,0.92551644926254,-8.09597274713622e-05,0
0.33,0.000594930937665126,0.000342742081950828,-0.0296885140879013,-0.0171478376639121,-0.000269176205701382,0.000631632112558649,0.0134059906628026,-0.0315552787920539,0.925516141515276,-7.63822262562747e-05,0
0.34,0.000594878609806874,0.000342757574658147,-0.0296866949087673,-0.0171486163259613,-0.000269124909127819,0.00063161309254815,0.0134040603384792,-0.0315548104564687,0.925515868325071,-7.17206500616444e-05,0
0.35,0.000594802008656904,0.000342759990135992,-0.029683590989248,-0.0171487402876921,-0.000269062105420678,0.000631569017421616,0.0134014983762282,-0.0315530459503299,0.925515627747273,-6.7508340075737e-05,0
0.36,0.000594729296248278,0.000342760329533628,-0.029680596766283,-0.0171487467528982,-0.000269003675528253,0.000631525614579697,0.0133990956369573,-0.0315512531559271,0.925515416235462,-6.37855803038549e-05,0
0.37,0.000594664278294258,0.000342760343830664,-0.0296779087984923,-0.0171487499176913,-0.000268951604690431,0.000631486572712823,0.0133969403682777,-0.0315496415694371,0.925515230341036,-6.05101950913904e-05,0
0.38,0.00059460688554068,0.000342760311176157,-0.0296755324014893,-0.0171487501518975,-0.000268905668335075,0.000631452073230606,0.0133950364968171,-0.0315482147249727,0.925515066972486,-5.76310725281782e-05,0
0.39,0.000594556477706401,0.000342760275277159,-0.02967344384671,-0.0171487503673837,-0.000268865326908905,0.000631421766711351,0.0133933632276094,-0.0315469607147823,0.925514923402458,-5.51007513320719e-05,0
0.4,0.00059451218167651,0.000342760242580812,-0.0296716069332374,-0.0171487505664704,-0.000268829877457835,0.000631395133843955,0.0133918915614061,-0.0315458578009713,0.925514797231663,-5.28770615243033e-05,0
0.41,0.000594473240751415,0.000342760213663271,-0.0296699903364297,-0.0171487507511685,-0.000268798713751082,0.000631371720562257,0.0133905964041656,-0.0315448871741568,0.925514686351726,-5.09228603704304e-05,0
0.42,0.000594438956439187,0.000342760188220412,-0.0296685648746976,-0.0171487509233691,-0.000268771276753081,0.000631351107034684,0.0133894543821518,-0.0315440313102839,0.925514588909604,-4.9205491423949e-05,0
0.43,0.000594408921286199,0.000342760165855431,-0.0296673152482309,-0.0171487510841581,-0.000268747240145564,0.000631333048331867,0.013388453219789,-0.0315432810304485,0.925514503276656,-4.76962531941619e-05,0
0.44,0.000594382436798958,0.000342760146199868,-0.0296662109528748,-0.0171487497802156,-0.000268726045197764,0.000631317124455207,0.0133875693752511,-0.031542616846859,0.925514428021775,-4.63699220756858e-05,0
0.45,0.00059435937550322,0.000342760128925491,-0.0296652495255483,-0.0171487357519115,-0.000268707589469022,0.000631303258815717,0.013386807612803,-0.0315420282993934,0.925514361887148,-4.5204331266612e-05,0
0.46,0.00059433894461427,0.000342760113744473,-0.0296643947566845,-0.0171487358873824,-0.000268691239054261,0.000631290974681893,0.0133861227974705,-0.0315415151073414,0.925514303767489,-4.41800003800447e-05,0
0.47,0.000594321016654735,0.00034276010040301,-0.0296636432842539,-0.0171487360160741,-0.000268676891646818,0.000631280195444783,0.0133855207350716,-0.0315410639404479,0.925514252691409,-4.3279809887289e-05,0
0.48,0.000594305300586311,0.000342760088678201,-0.0296629832016627,-0.0171487361387691,-0.000268664314322227,0.000631270746118844,0.0133849918856598,-0.0315406676498782,0.925514207805396,-4.24887150038892e-05,0
0.49,0.000594291388955373,0.00034276007837426,-0.0296623964666535,-0.0171487362565689,-0.000268653181197238,0.000631262381697373,0.0133845218103885,-0.0315403153955304,0.925514168359087,-4.17934942489043e-05,0
0.5,0.00059427922355426,0.000342760069319057,-0.0296618822128528,-0.0171487363696375,-0.000268643445455205,0.000631255067212783,0.0133841097961886,-0.031540006665314,0.925514133693389,-4.11825284735216e-05,0
0.51,2.6139656611611,-0.0114991691753826,3.70551469161056,0.577950985790553,-0.140837588951127,2.61019414644956,0.393874928504481,3.72957491041721,0.0495053782545532,15.2195029405092,680.851624572853
0.52,2.60027458802762,-0.0359167188297379,3.22787040549895,1.80288833671928,-0.61123945021766,2.52766775473584,1.04277543509488,3.54713590116548,0.223452924615232,32.2171914359286,680.851624572853
0.53,2.57202588906474,-0.0236244351656743,3.42453813401144,1.19142169752024,-1.30269671603403,2.21784953366777,-0.674400704773688,3.56260168725348,0.521895557773961,49.2514319583882,680.851624572853
0.54,2.56095487657926,-0.00603393556867482,2.58730794749715,0.315121029546413,-2.08234527649172,1.49075968476685,-1.91617500951036,1.76684379937002,0.947119852227304,66.9474131346407,680.851624572853
0.55,2.53308045422902,-0.0104151648487538,2.31351783529833,0.531601994355155,-2.52851303011978,0.152403804973531,-2.2745696630519,0.679189445272698,1.50648343948621,85.6014320174957,680.851624572853
0.56,2.48200605381217,0.0317422010282351,3.45891198814652,-1.5736721220065,-2.02977812241589,-1.42876253878949,-1.88057711797399,-3.30211232284379,2.19692374662232,102.471794553643,680.851624572853
0.57,2.43542564709602,0.0260145867352243,4.51603353505146,-1.28005008835584,-0.352547329681274,-2.4099139448517,0.662546774574989,-4.64694726566909,3.00701394894032,118.601636855937,680.851624572853
0.58,2.42654145507407,-0.027665110193113,3.37918813220513,1.39984420237878,1.75679367868256,-1.67408027348033,1.44242162429176,-3.36123430923002,-2.34349115858049,136.068193866049,680.851624572853
0.59,2.37006774147624,0.00761801342449764,4.80443715974359,-0.357340570883628,2.27701644687813,0.657628492358188,4.51122283395346,1.69091018328634,-1.28642132290136,152.036137979229,680.851624572853
0.6,2.36775727445764,0.00237203887854986,3.4512340137768,-0.0998959309024286,0.269638763158513,2.35235521865169,0.290331648600733,3.44045098042125,-0.113125117108328,168.49956062874,680.851624572853
0.61,2.34344063496323,-0.0133794782185197,3.2025128240297,0.698437531609726,-2.17275695139964,0.878077587789835,-2.6969211381784,1.86293310349092,1.18102489146328,184.209148658905,680.851624572853
0.62,2.29478845469741,-0.0151592025448146,4.10615680117208,0.779721979805825,-1.19098484111602,-1.96159092612761,-2.81797541810675,-3.08666560944818,2.58932472122799,200.316644298035,680.851624572853
0.63,2.25073256337579,0.0264185638324891,4.91917917532474,-1.28463042831833,1.84321854638849,-1.29191346560234,4.78602907344289,-1.71537890988241,-2.17038941653691,215.28539279004,680.851624572853
0.64,2.2113586169894,-0.00508749290568189,5.33214681811403,0.285269109928183,1.12108615301283,1.90612136367028,2.95934178143566,4.44471195643227,-0.533961652166452,230.818768967905,680.851624572853
0.65,2.19322398251068,0.0270811762367524,4.73331759568047,-1.33041274132744,-2.04445339622764,0.794465315932442,-4.89928226336736,0.413916450166845,1.21250697075645,246.004484255223,680.851624572853
0.66,2.14328844909711,0.0439854926030621,5.79670881322378,-2.16091771768284,-0.200412612066436,-2.13435116241853,1.73175761591107,-5.93905834351169,3.06848810918228,260.546929875098,680.851624572853
0.67,2.12451339692933,0.00382061201669076,5.23372060524067,-0.146455650958377,2.01774689877479,0.665033249765075,4.92164515843221,1.7862501409095,-1.25061839207497,275.006975011989,680.851624572853
0.68,2.07096820426937,0.0382527834972645,6.3853651055376,-1.87200002427332,-1.48720591259704,1.44173199731309,-5.94393222662929,2.99114381251292,0.819391517503006,289.391240931842,680.851624572853
0.69,2.0617693713928,0.0412249301033259,5.31960608617691,-2.02305516384072,-0.345151363785138,-2.03309197326455,1.21555677404845,-5.55998047092775,2.99342149289977,303.589234454937,680.851624572853
0.7,1.99496558284724,-0.00315526220969309,7.14201293695536,0.19533532221594,1.69106315533966,1.05839644608119,6.16338426205999,3.61375139127391,-1.01314868182117,317.511156655821,680.851624572853
0.71,1.98811337622341,-0.00855928053607047,5.97553175387052,0.466331246146712,-1.94765977563021,0.399110832218096,-5.75309001137598,1.68119002306507,1.36437108205083,331.168453021957,680.851624572853
0.72,1.93313717094456,0.0407928998400777,7.22024942317896,-2.00160194754651,1.2133253632616,-1.50549823820256,6.17997095259544,-4.23631574772404,-2.44214785212864,344.561838037682,680.851624572853
0.73,1.87017624345171,0.0330642684701868,8.86466537068102,-1.61150093910219,-0.213409387341551,1.85825425085351,-2.76440269998196,8.57538950271129,0.132020998396309,357.71651759283,680.851624572853
0.74,1.88111611327387,0.0327168785636811,6.82902654166018,-1.5872873602619,-0.657555650706098,-1.76275034874086,-0.778533520773263,-6.96770910900984,2.8019422901682,370.597130147527,680.851624572853
0.75,1.83400201821854,0.0708244730886377,7.69225160184401,-3.48881672137237,1.25892184410703,1.33555056034885,2.42718833401982,8.09019984997882,-0.717273105967089,383.320031748013,680.851624572853
0.76,1.78488955964427,0.0358508606508226,8.6431193390005,-1.74952784431926,-1.52345841043742,-0.930693556442721,-6.34184047836182,-6.12743167512004,2.13928118992911,395.928629715632,680.851624572853
0.77,1.76697993373752,0.0441249834453387,8.00937651360065,-2.17914152550653,1.66070352479937,0.605168491507981,6.65752051157829,4.95743790306232,-1.1963799272698,408.316895875291,680.851624572853
0.78,1.72201750622008,-0.00164620501341284,8.7688532829478,0.122895994244765,-1.65945188425618,-0.459963526334403,-8.48520133688724,-2.21568264779791,1.84023028729127,420.239693576663,680.851624572853
0.79,1.70786593188787,0.0105658462220685,8.01297682793954,-0.471830126216764,1.6567256000839,0.414943326776401,7.64323198577899,2.45182098136602,-1.31919836491555,431.954053654231,680.851624572853
0.8,1.65432939067992,0.0351564451318436,9.19820395311543,-1.73262339641212,-1.58157835631234,-0.486468510127894,-8.18783183658418,-4.53523424011611,1.89044447343696,443.709182735429,680.851624572853
0.81,1.6057501767634,0.059432743757687,10.1293904762652,-2.93456606659096,1.45716960461541,0.677216822436679,7.68726269301524,7.21957212779368,-1.09875022061718,455.047864017107,680.851624572853
0.82,1.60249632606812,0.0128033999187139,8.83968565043318,-0.580644355809086,-1.22667203782917,-1.03122941856763,-6.3435068088641,-6.18361638786738,2.27783978539883,466.151716817241,680.851624572853
0.83,1.55872626592378,0.0205412205462143,9.53071867678367,-0.998402093480284,0.828914505335872,1.32020841410211,4.10862293994835,8.65740277297926,-0.547480446261661,477.238758596946,680.851624572853
0.84,1.53926048035887,0.047883499055886,9.06032246883836,-2.33798027260467,-0.280052463568478,-1.51432700349881,0.94128294943094,-9.3096499076784,2.98982157297878,487.837324871262,680.851624572853
0.85,1.50020042416458,0.0139936458485908,9.54194406838271,-0.673254305404455,-0.461171894861428,1.42762656818148,-3.65639532096743,8.83927266355649,0.321780256871548,498.491230576875,680.851624572853
0.86,1.45676410435539,0.0500865590329445,10.287459317609,-2.44769122879874,1.08265376657763,-0.975977018607193,9.44866097998047,-4.74824359615143,-2.27005299901451,508.630345069116,680.851624572853
0.87,1.42619957626347,-0.0026866445948312,10.3643303043934,0.164217610063231,-1.42239292618083,0.104167235463118,-10.3229016657607,0.940218741068469,1.49580925526141,518.799795137624,680.851624572853
0.88,1.40264047368227,-0.00433558188932126,10.1372596342065,0.277432459946887,1.13728529110799,0.820975798858498,8.39941438127955,5.68250294436343,-0.948631691499653,528.580918546417,680.851624572853
0.89,1.37308158768785,0.0146819701444103,10.1783448971659,-0.690406710389619,-0.259988190017171,-1.34832293896763,-1.14087632073065,-10.1377397625018,2.96179942170246,538.249336195115,680.851624572853
0.9,1.33103351378052,0.00976166765150466,10.8761498572259,-0.467316566957516,-0.80711363928928,1.05844842965327,-7.02767939293122,8.31388855113886,0.658814903045307,547.761041451304,680.851624572853
0.91,1.29649927109001,0.0231805488167653,11.2103004019729,-1.09999995687022,1.29637325570639,-0.0293952320895843,11.2154446034317,1.04624918396285,-1.57558998426005,556.897442656908,680.851624572853
0.92,1.27536002339597,0.00760456777015672,10.8611051913145,-0.335677283304187,-0.727787586439894,-1.04734246918166,-5.86772226889036,-9.14582530942361,2.54026721429328,565.971867491629,680.851624572853
0.93,1.26119454638824,0.028079091878,10.1854738873421,-1.38080831980305,-0.509888927865878,1.15386888357383,-5.57347286309204,8.63637135434447,0.438353634970883,574.863976128108,680.851624572853
0.94,1.21269183887595,0.0229452123274053,11.2578810110699,-1.13054230626993,0.682306856615224,-1.00279874963072,7.4304286003572,-8.53268665665558,-2.52522212430118,583.463745653666,680.851624572853
0.95,1.20222175377181,0.0719164443283798,10.4217269347447,-3.53912631231812,-1.19047382229394,-0.182431353225952,-9.44480293995404,-5.6509737906277,1.78260446032043,591.817396698645,680.851624572853
0.96,1.16435674939418,0.0126726800333434,10.9620138511234,-0.58489732547469,0.165642625487966,1.15258394804911,0.861374072434011,10.9437601975238,-0.131853406591679,600.054760494727,680.851624572853
0.97,1.11306200217153,0.037259389277883,12.1868985749528,-1.83058378887331,1.00309378588051,-0.483836893483074,11.8873830614401,-3.24987043354938,-1.98675795525475,608.120407433405,680.851624572853
