t,iq,id,vq,vd,ia,ib,va,vb,theta_e,omega,r
0,0,0,0,0,0,0,0,0,0,0,0
0.01,0.000485557807303347,0.00027305358728667,-0.0235096252284468,-0.0136618743718343,-0.000503669885960328,0.000237994310310276,0.0244178076716344,-0.0119632753978531,1.64164878940747,-0.00185797121650679,0
0.02,0.000576709748650857,0.000322433941499155,-0.0280159193010192,-0.0161325611830855,-0.000598084842833682,0.000280806519853484,0.0290874983998937,-0.0141091708276354,1.64163426432825,-0.00207791699567897,0
0.03,0.000610698674685713,0.000341359270581441,-0.0297041029653845,-0.0170794620712967,-0.000633323575968684,0.000297288195186116,0.0308382445155964,-0.0149346721697972,1.64161926028204,-0.00206326011036713,0
0.04,0.00059784512599751,0.000334692949046246,-0.0291401351307147,-0.0167459221012026,-0.000620026462421832,0.00029155677100167,0.0302518843814397,-0.0146422974231457,1.64160535708545,-0.00187141434434662,0
0.05,0.000611656734049716,0.000343114711753274,-0.0298530306005023,-0.0171672889593638,-0.000634395360906029,0.000298988614818035,0.0309926073411231,-0.0150125792736552,1.6415921873791,-0.0017941472898848,0
0.06,0.000612735563165597,0.000344321537105143,-0.0299519023571919,-0.0172276747740791,-0.000635553136836865,0.00030012397694808,0.0310953162967964,-0.0150662051405915,1.64157980024795,-0.00167358987523448,0
0.07,0.000623060538861674,0.000350921283551476,-0.0304904787067127,-0.0175578922074137,-0.000646315552284731,0.000305984295693256,0.031655724332961,-0.015357864027502,1.64156846485246,-0.00160080331613779,0
0.08,0.000612609382692572,0.000345438722896835,-0.0300300131384476,-0.0172835697774009,-0.000635499614312287,0.000301261360364227,0.031176849908225,-0.0151171261536586,1.6415576585122,-0.00144983752567635,0
0.09,0.000610148813887396,0.000344650581088511,-0.0299495209757731,-0.0172441460544445,-0.000632986507036158,0.000300655417451621,0.0310936226927958,-0.0150837995101812,1.64154777099311,-0.00134025614837655,0
0.1,0.000608988495911841,0.000344536206264828,-0.0299285738563946,-0.0172384137643892,-0.000631818259725377,0.000300629127427671,0.0310721849665541,-0.0150798462722336,1.64153863396563,-0.00124346701696533,0
0.11,0.000608087098665924,0.00034451861289382,-0.0299174680535149,-0.0172375323953893,-0.000630915330464897,0.000300680627873817,0.0310609171031346,-0.0150800148052773,1.64153017632606,-0.00115456913127949,0
0.12,0.000607279135380098,0.000344514994634869,-0.0299084621679931,-0.0172373595970813,-0.000630106776791962,0.00030073905572291,0.031051803429586,-0.0150807220949037,1.64152234536422,-0.00107236581879391,0
0.13,0.000631947539953533,0.000358866299553912,-0.0311210412075807,-0.0179554000526362,-0.00065572530432335,0.00031331619728142,0.0323119739568537,-0.0157115223930004,1.64151478219747,-0.00109526689034416,0
0.14,0.000647339418196512,0.000368171276754304,-0.031966516961783,-0.018420963205321,-0.000671733901748387,0.000321515126580044,0.033188117920531,-0.0161164177462821,1.64150764728491,-0.00108519833891509,0
0.15,0.000611524468532667,0.000347906242005653,-0.0301934978286482,-0.0174070282631728,-0.000634574647425034,0.000303835392418413,0.0313477907220424,-0.0152304944414326,1.64150095659593,-0.000873776500652903,0
0.16,0.00060549440518854,0.000344997335604565,-0.0299259645542008,-0.0172614896886219,-0.00062835241599482,0.00030136336473159,0.0310705573721257,-0.01510439821228,1.64149520749033,-0.000791572397906057,0
0.17,0.000604113320819021,0.000344579161691716,-0.0298796542637828,-0.0172405683752897,-0.000626943660154508,0.00030104708943157,0.0310228056178263,-0.0150869635256667,1.6414899531761,-0.000733043893140673,0
0.18,0.000603485343134736,0.00034451847212365,-0.029867965041655,-0.0172375293686009,-0.000626311502830567,0.000301033948974167,0.0310108577027479,-0.0150849083193378,1.64148509861468,-0.000681573265951575,0
0.19,0.000603004691404353,0.000344509133120727,-0.0298619725392359,-0.0172370567810355,-0.000625830039073266,0.000301061393826589,0.0310047790038295,-0.0150849994806235,1.64148060516183,-0.000634335653694249,0
0.2,0.000602575156570368,0.000344507209552568,-0.0298571664290675,-0.0172369666237379,-0.000625400188290557,0.000301092413115369,0.0309999157653725,-0.0150853779568395,1.64147644467834,-0.000590661047738914,0
0.21,0.000602179847891836,0.000344506393139983,-0.0298528309696213,-0.0172369288010799,-0.000625004648929599,0.000301121923708227,0.0309955303436671,-0.0150857658111575,1.64147259229326,-0.000550230401514545,0
0.22,0.000601814225127039,0.000344505775460269,-0.0298488352250656,-0.017236898213617,-0.000624638821097348,0.000301149355086234,0.0309914886005596,-0.0150861280201745,1.64146902516008,-0.000512794965835906,0
0.23,0.000601475785342326,0.00034450522322326,-0.0298451394688858,-0.0172368704990159,-0.000624300192376907,0.000301174764844986,0.0309877502824325,-0.0150864636993132,1.64146572215224,-0.000478131638813991,0
0.24,0.00060116237484968,0.000344504714586514,-0.0298417145641781,-0.0172368412937766,-0.000623986607061083,0.000301198296003879,0.0309842857223944,-0.0150867711651548,1.64146266371224,-0.000446034957519981,0
0.25,0.000600872247422399,0.000344504243899659,-0.0298385457628272,-0.0172368135092672,-0.000623696317460503,0.000301220077972117,0.030981080141898,-0.0150870549291399,1.64145983173123,-0.000416314845711086,0
0.26,0.000605660618317793,0.000347391396732944,-0.0300780219340332,-0.0173812744864636,-0.000628675810344276,0.000303763547176294,0.0312301194980003,-0.0152143268789189,1.64145728165171,-0.000409851228490996,0
0.27,0.000592923305839126,0.000340134240322768,-0.0294767111618197,-0.0170181659053626,-0.000615457132472241,0.000297425395916674,0.0306046339653252,-0.0148946584904876,1.64145466014568,-0.000332220454387475,0
0.28,0.000592417635215151,0.000339987367543162,-0.0293843163314218,-0.0170108213374601,-0.000614941686336453,0.000297315971667383,0.0305119176907996,-0.0148939238506822,1.64145241290265,-0.000307529770379851,0
0.29,0.000598717835260024,0.000343854667346163,-0.0297708167341865,-0.0172043198877913,-0.000621498593688461,0.000300730072585791,0.030911084466152,-0.0150597147698217,1.64145043765812,-0.000312938852462712,0
0.3,0.000591557365714782,0.00034009499059863,-0.0294322959148438,-0.0170162055892181,-0.000614090173281784,0.00029748609823056,0.0305601082061588,-0.0148960089252569,1.64144909201788,-0.000270588985657448,0
0.31,0.000598322876120705,0.000343869680408372,-0.0297635084033471,-0.0172050667367559,-0.000621104756918482,0.000300774836259189,0.0309038008802973,-0.0150610705145177,1.64144736926818,-0.000280414087374826,0
0.32,0.000599225581963277,0.000344411126140151,-0.0298132147024792,-0.0172321573159819,-0.000622042925511775,0.000301252254280541,0.0309552701677042,-0.0150846367375325,1.64144568590638,-0.00026707000072031,0
0.33,0.00059923098963157,0.000344488604535662,-0.0298194374161152,-0.0172360324200341,-0.000622053315133242,0.000301330135767239,0.0309617271797765,-0.0150881115930115,1.64144411353126,-0.000251238153349896,0
0.34,0.000599107405206664,0.000344499517906002,-0.0298190350796158,-0.0172365773201626,-0.000621930369967774,0.000301350652434464,0.0309613423105661,-0.0150887286780978,1.64144265546593,-0.000236040218559695,0
0.35,0.000598972887398427,0.000344500894059787,-0.0298176983199387,-0.0172366578306527,-0.000621795877873135,0.000301362360135401,0.0309599941917914,-0.0150889451557794,1.64144130503364,-0.000221884219348301,0
0.36,0.000598845402409007,0.000344500915625556,-0.029816319236489,-0.01723665420079,-0.00062166833553139,0.000301372157723442,0.0309585994232608,-0.0150890775927461,1.64144005454232,-0.000208763471773636,0
0.37,0.000598726881388788,0.000344500755810532,-0.0298150181884907,-0.0172366418196426,-0.000621549749878219,0.000301381083809012,0.030957283274576,-0.0150891929226297,1.64143889663428,-0.000196612235504735,0
0.38,0.000598616927117526,0.000344500582014817,-0.0298138018902885,-0.0172366422343736,-0.000621439734440886,0.000301389337731476,0.0309560538609369,-0.0150893123775717,1.64143782446104,-0.000185360414476284,0
0.39,0.000598515286317057,0.000344500417370648,-0.0298126829690032,-0.0172366283546575,-0.000621338036296757,0.00030139696444163,0.0309549217701248,-0.015089408240628,1.6414368316756,-0.00017494167427253,0
0.4,0.00059842098990477,0.000344500264373386,-0.0298116365435767,-0.0172366272688088,-0.000621243687188016,0.00030140403852798,0.0309538640064374,-0.0150895094711903,1.64143591239978,-0.000165294370881484,0
0.41,0.000598333842811699,0.000344500122617479,-0.0298106746478377,-0.0172366133513268,-0.000621156490865965,0.000301410576775855,0.0309528906829146,-0.0150895898272256,1.64143506119071,-0.000156361390387253,0
0.42,0.000598252992370845,0.000344499991337501,-0.0298097748654059,-0.0172366136813412,-0.000621075595219536,0.000301416641768346,0.0309519812743198,-0.0150896780588632,1.6414342730087,-0.000148089842503998,0
0.43,0.000598178301717057,0.000344499869768282,-0.0298089490797058,-0.0172365997311148,-0.000621000862266305,0.00030142224533032,0.0309511455505672,-0.0150897450155648,1.64143354318671,-0.000140430752326591,0
0.44,0.000598109034600705,0.000344499757193492,-0.0298081778111887,-0.0172366000269562,-0.000620931556241462,0.000301427441419852,0.030950366028857,-0.0150898206613757,1.64143286740352,-0.000133338771116193,0
0.45,0.000598044995948714,0.000344499652948303,-0.0298074673138264,-0.0172365860485201,-0.000620867481306976,0.000301432245647892,0.0309496468742937,-0.0150898762297572,1.64143224165793,-0.000126771907912872,0
0.46,0.000597985565925212,0.000344499556416709,-0.029806801471293,-0.017236584859941,-0.000620808018013841,0.000301436703465142,0.0309489738649755,-0.0150899399696648,1.64143166224535,-0.000120691280927022,0
0.47,0.000597930501478096,0.000344499467028403,-0.0298061818915487,-0.0172365851128487,-0.000620752922842603,0.00030144083360266,0.0309483477521427,-0.0150900005539102,1.64143112573443,-0.000115060887328958,0
0.48,0.000597879734172624,0.000344499384254934,-0.0298056178837338,-0.0172365710982604,-0.000620702126535497,0.000301444642348589,0.0309477766651366,-0.0150900417541292,1.64143062894916,-0.000109847390078483,0
0.49,0.000597832527759718,0.000344499307607065,-0.0298050844221484,-0.0172365713276095,-0.000620654893758834,0.00030144818301415,0.0309472376084958,-0.0150900938680468,1.64143016894762,-0.000105019920541022,0
0.5,0.00059778887201412,0.000344499236631965,-0.0298045919402475,-0.0172365715457263,-0.000620611213460703,0.000301451457569464,0.0309467399425003,-0.0150901420240786,1.64142974300658,-0.000100549895716604,0
0.51,4.22522669853811,-0.010433493853247,2.64901692250191,0.527280918622947,-0.417179459146105,4.20459401258906,0.269790616019502,2.68747629689141,0.096426902785781,29.6538545910813,544.199907179974
0.52,3.95706763762522,0.00825648840314036,4.09269006225054,-0.402665485401647,-1.64897271620719,3.59712961116859,-2.07893098702962,3.54828090629056,0.43191502706555,61.6034862077885,544.199907179974
0.53,3.71918106623323,0.0258996124352662,4.45918992470904,-1.2804719518527,-3.10923703876876,2.04098594559113,-4.43994424003582,1.34568880112781,0.996880215214147,92.4072677777248,544.199907179974
0.54,3.48745012209413,0.0341389949890829,4.44135591390245,-1.68942145663672,-3.41343379588886,-0.715502303390435,-3.97499653471675,-2.6036877234205,1.78720724332548,123.404826392392,544.199907179974
0.55,3.29263541826157,-0.0277135573120666,2.91094238878405,1.40448169826661,-1.06819785636104,-3.11467002722843,-2.29211820699031,-2.27867254268119,2.80278932450468,152.825045940589,544.199907179974
0.56,3.04488407344269,0.0305393849234556,5.80590806542944,-1.50554242047529,2.31786739968115,-1.97477654235404,5.42180529098862,-2.56500562000885,-2.26640932910755,177.922050822742,544.199907179974
0.57,2.90963457271741,-0.0290634923538711,3.43176826619795,1.48168468497035,2.21117576649076,1.89143325629646,3.58183169748534,1.06906717723831,-0.873165698813341,202.431281569056,544.199907179974
0.58,2.70536252008515,0.0200301772316129,4.47720414360952,-0.980402559310596,-1.73079811896483,2.07935697860401,-3.63853945303352,2.78703727470149,0.701574291614168,226.366389726422,544.199907179974
0.59,2.57344937010426,0.0114876389617367,3.23573400631771,-0.545000614513356,-1.67447936524066,-1.95419868020684,-1.67896990401569,-2.81923044302347,2.43759195838948,247.253526254249,544.199907179974
0.6,2.42899589730276,0.0262973657860671,2.36382956763975,-1.29377764289872,2.24343697885562,-0.93150584671493,2.67596885527512,0.317398014659879,-1.95352279518868,268.495470697508,544.199907179974
0.61,2.26599010723318,0.0243387116770264,3.54581645645797,-1.18675374177789,-0.162994764156282,2.26025136783995,-1.47570366003017,3.43562184972176,0.0827293991065388,287.028920964183,544.199907179974
0.62,2.1187645443044,-0.00915496268217741,3.84065032325033,0.481635071453133,-1.63382433778609,-1.34902373618888,-3.27716568258867,-2.05979424613229,2.25668276477764,305.480877773292,544.199907179974
0.63,1.97248036740298,-0.0174452781813386,4.85247826132101,0.893257699690466,1.95133347753987,-0.28858412456887,4.65530808436331,-1.63479700094871,-1.72646688404855,322.339388675707,544.199907179974
0.64,1.87838572557762,-0.0122829833295787,3.54576217054253,0.643379282711873,-1.21314101622931,1.43414527872017,-1.77828820208372,3.13433523124173,0.695568952557267,337.955032242669,544.199907179974
0.65,1.72704201018614,0.0306449874642319,5.29944934353003,-1.51403728298274,0.121300845521723,-1.72304942618608,1.97405889700186,-5.14582973970869,-3.05356732964731,353.240137534937,544.199907179974
0.66,1.65932870129351,4.67075392288629e-05,3.45052511438882,0.0143507250475786,0.667348235790506,1.51921626943148,1.40078117836869,3.15343330334818,-0.413868127938443,367.166372346965,544.199907179974
0.67,1.55267416127729,0.0263233191391619,3.80839851134251,-1.28819882278608,-1.14833525345495,-1.04537845486752,-1.88915687915306,-3.54886484867654,2.32624816660598,380.084223058644,544.199907179974
0.68,1.47463378256789,-0.0184566498252952,2.90976769954113,0.945944739222558,1.32150539161226,0.654605942955757,3.03260937866418,0.406004767698309,-1.12339213462399,392.589341799486,544.199907179974
0.69,1.33011395072489,-0.0218345380838835,5.67128474924658,1.10677444106127,-1.2912420423484,-0.319959149014748,-5.77498013109446,-0.194999630480444,1.79728151156779,404.320069641656,544.199907179974
0.7,1.25682359337475,-0.0159660847633858,5.24714054343125,0.810271855006733,1.25059678492531,0.125968814635111,5.29793958783248,-0.347649946373476,-1.48311079961591,415.110668126176,544.199907179974
0.71,1.16230397826912,0.00593407078160522,6.12490480206774,-0.270440098405799,-1.1620616909166,-0.0244617579152923,-6.11573842807164,-0.430511510445496,1.59694892113386,425.127736799637,544.199907179974
0.72,1.15113630849066,-0.0062004069625734,2.98756960204838,0.335468691508773,1.15010632843244,0.0490782953214562,2.99799283185685,-0.223942738665632,-1.53353565142339,434.680943847002,544.199907179974
0.73,1.05415717607313,0.0388154069338701,4.35455067321851,-1.92237160427327,-1.05154989735163,-0.08364688315592,-4.10234714469682,-2.41420215701623,1.68698010574782,443.718828959307,544.199907179974
0.74,0.959270333600391,0.02526028541951,5.82674883676161,-1.25006576953365,0.933795485295201,0.221051230685516,5.312865051727,2.69946872124875,-1.31202507184234,452.218467367262,544.199907179974
0.75,0.907708594614228,0.00653677937661751,5.35391074344723,-0.317748504038895,-0.815802392307218,-0.398050347226297,-4.6532779478577,-2.66689495492414,2.03193860460735,460.152553557443,544.199907179974
0.76,0.846010105063791,-0.0176211250266978,5.59810995112598,0.887561984505526,0.624763000075683,0.5707142854824,4.79577228522582,3.02112056851344,-0.851403882354401,467.523591644755,544.199907179974
0.77,0.832901885194309,0.0153852886278261,3.58467311267676,-0.765360231139428,-0.441946600218456,-0.706148327210186,-1.18913413261995,-3.46722044623582,2.60084841114834,474.449290330148,544.199907179974
0.78,0.75091541093688,0.0127820152185291,5.17765716840193,-0.636612710745875,0.14759129856182,0.736379075534052,0.304726012618351,5.20773958202797,-0.18078720615168,480.940424675013,544.199907179974
0.79,0.705638793369023,0.00385782156847442,5.06952044529281,-0.18525023369412,0.154017667934018,-0.688636005055437,1.31408315930301,-4.89974903895718,-2.91609060882379,487.017999295705,544.199907179974
0.8,0.658632271661797,0.00866967886453013,5.19916646807383,-0.416077675551058,-0.404847948011935,0.519586154161674,-3.57406421967971,3.79875210410478,0.67507484063953,492.707884839153,544.199907179974
0.81,0.619908268945754,0.0196896791600591,5.04294793835604,-0.965708222728605,0.561863135512715,-0.262647601025724,5.01491427812681,-1.10206672368553,-1.97632180314274,498.054647117796,544.199907179974
0.82,0.585948203817571,0.0523339417931671,4.7661892701303,-2.59950097817447,-0.587947706685835,-0.0197897252006036,-4.41211832157149,-3.16341230488351,1.69352121239305,503.095135638399,544.199907179974
0.83,0.528297171755646,0.0390556640884523,5.79108419345267,-1.9360278672534,0.433289543427675,0.304767810207445,3.25063200311195,5.16897007331088,-0.884011348022999,507.800951123655,544.199907179974
0.84,0.497557932366976,0.0107270331466476,5.59787583807108,-0.519032194863035,-0.150965323039858,-0.474224036232771,-1.08484832301568,-5.51622265991996,2.85495065039676,512.199124488669,544.199907179974
0.85,0.483636830927912,-0.0378491743469741,4.65143907761587,1.91149791304423,-0.197903720247017,0.442912250610809,0.240284817578292,5.02314373383699,0.342109119046335,516.356223410783,544.199907179974
0.86,0.476036864085169,0.00575419307513136,3.48082849884913,-0.270402603961593,0.397562708910889,-0.261893297335811,3.075749340528,-1.65198383795698,-2.14120900644414,520.254576194872,544.199907179974
0.87,0.432928915073334,-0.00925999724226936,4.19096931292143,0.48006587009582,-0.428983064268957,-0.0590484853820697,-4.21837107415768,-0.00570106917462077,1.68619841338067,523.891446293231,544.199907179974
0.88,0.388259615286227,-0.00731028622077931,5.06676245609106,0.381578492886863,0.257514726745002,0.290663266781831,3.71154939960406,3.47017074320364,-0.743827434559572,527.293776518814,544.199907179974
0.89,0.362971455248972,0.0542269331771323,5.04924250850482,-2.69837617782575,-0.0571563146010486,-0.362521714258028,2.65751340174852,-5.07086840948141,3.13351713854069,530.486925171908,544.199907179974
0.9,0.313912664550313,0.00869514919425747,6.31165135495839,-0.4225272322276,-0.207632933986473,0.235595694588752,-4.61179294399546,4.32976187916098,0.750085051191169,533.445851045979,544.199907179974
0.91,0.29997124957753,-0.010135915208956,5.87834900179862,0.510584248996593,0.300133538547757,-0.00231222599029285,5.85211919000109,-0.753912626430459,-1.61227693650125,536.228988887487,544.199907179974
0.92,0.276837022278098,0.0322168430096306,5.98353210965459,-1.61896574453362,-0.223308900144799,-0.166762696648356,-3.23607358486958,-5.28692106452802,2.32808730134365,538.823778099466,544.199907179974
0.93,0.289369316736496,-0.038588892895903,4.34904706900686,1.92373986829096,-0.0397007427504162,0.289218870664663,1.90701094142135,4.35640847012634,0.00384331553986815,541.294793452589,544.199907179974
0.94,0.253232551606926,-0.0110834040877235,5.22043454601188,0.546549074065649,0.195719756591819,-0.161069376105967,3.51660937269445,-3.89680782942062,-2.30312062558703,543.548080256401,544.199907179974
0.95,0.278469018346984,0.0174597168412129,3.08376542472375,-0.880607560495684,-0.278582772836623,-0.0155394520484747,-2.95822997328798,-1.23852908543337,1.68913594856069,545.668975255325,544.199907179974
0.96,0.239253826058603,0.0153125229782799,4.21608577332653,-0.772833798696702,0.145222277318148,0.190754703255704,1.69082209701666,3.93875258993181,-0.586782374824232,547.651497766907,544.199907179974
0.97,0.223267287621613,-0.00982381370777509,4.23859023490227,0.486462824963877,0.0738891565234917,-0.210915105163011,0.758457038858234,-4.19845640440473,-2.84859884559167,549.49951394292,544.199907179974
