t,iq,id,vq,vd,ia,ib,va,vb,theta_e,omega,r
0,0,0,0,0,0,0,0,0,0,0,0
0.01,0.000507256188185986,0.000288326723294167,-0.0249663381452947,-0.0144311020774444,-0.000172456663027219,-0.000557404556131401,0.00872254135834537,0.0274862150869626,-2.92478028951066,-0.00143353336386026,0
0.02,0.000569553417207643,0.000323389753878087,-0.0280824504435487,-0.0161860489725331,-0.000193304344472477,-0.000625783875131262,0.00976640554136413,0.0309067877181894,-2.92479112323101,-0.00154352041203887,0
0.03,0.000594105165379154,0.00033738385709024,-0.0293001114544095,-0.0168864722994874,-0.000201696832832655,-0.000652768873477095,0.0101888622074536,0.0322464969396631,-2.92480220965525,-0.00154126611984894,0
0.04,0.000580332662427321,0.000329838260074491,-0.0286403660839423,-0.0165088016347309,-0.000197296872789624,-0.000637693673229071,0.00996226683940188,0.0315208556396821,-2.92481256173906,-0.00143167850769495,0
0.05,0.000594039770804502,0.000337796339123443,-0.0293257130785865,-0.0169071229592173,-0.000202127093862747,-0.000652789593934574,0.0102041836251772,0.0322757322282444,-2.92482268770103,-0.00140408715217818,0
0.06,0.000594589586573779,0.000338307614294102,-0.0293663177042532,-0.0169327038715854,-0.000202514512060419,-0.000653434534407445,0.0102207473956925,0.0323207889536036,-2.92483242182085,-0.00134058085891787,0
0.07,0.000608910739910912,0.000346728970897807,-0.0300803433271441,-0.0173542032111998,-0.000207664926476684,-0.000669229816094696,0.0104791233228656,0.0331086604706179,-2.92484157824641,-0.00132127359120839,0
0.08,0.000594894067963752,0.000338880471150246,-0.029406624579917,-0.0169613755557819,-0.000203020303332164,-0.000653851422159798,0.010240664743981,0.0323661337748246,-2.92485050459823,-0.00122050799346471,0
0.09,0.000593619839351083,0.000338373647916822,-0.0293560350285536,-0.0169360178714621,-0.000202804836755123,-0.00065249631222289,0.0102270507976943,0.0323111888658021,-2.92485889828856,-0.00116062668845108,0
0.1,0.000593224135576457,0.00033833984919611,-0.0293478738764995,-0.0169343179887598,-0.000202862123885293,-0.000652100979356134,0.0102274033847723,0.0323027715037039,-2.92486687651755,-0.00110609707907353,0
0.11,0.000592902776778813,0.000338336579347551,-0.0293428047245301,-0.016934157163484,-0.000202932979843442,-0.000651784894983375,0.0102285814708751,0.0322977087272945,-2.92487446569757,-0.00105438828842371,0
0.12,0.000592600917594669,0.000338335329195523,-0.0293381698393518,-0.0169340953171925,-0.000203001369854185,-0.000651488362408118,0.0102297508311205,0.0322930951082054,-2.92488168519642,-0.00100520926414296,0
0.13,0.000619942478065174,0.000354055607995435,-0.0306868598681011,-0.0177209127239324,-0.000212479873086118,-0.000681569037732725,0.0107084122919674,0.0337793431333255,-2.92488882949252,-0.00103749689954555,0
0.14,0.000643202858789452,0.000367705091232273,-0.0318888981849342,-0.0184040829552663,-0.000220813685800425,-0.000707218684592177,0.0111173913350164,0.035100081293033,-2.9248956521983,-0.00105998254851233,0
0.15,0.000595207900951429,0.000340224352186009,-0.0294946408019336,-0.0170286486527889,-0.000204299088549499,-0.000654436351063447,0.010289114638428,0.0324660257951678,-2.92490220695304,-0.000875564613579559,0
0.16,0.000591731697936225,0.000338453137945108,-0.0293327199704487,-0.0169400005597193,-0.000203320508694274,-0.000650659434475271,0.0102375426814197,0.0322887720372603,-2.92490810009188,-0.000825961334730348,0
0.17,0.000591279904876713,0.000338338228002228,-0.0293184397998837,-0.0169342508533575,-0.000203309048126485,-0.000650192366449042,0.0102351777445243,0.0322735325119801,-2.92491368301821,-0.000787290946483263,0
0.18,0.000591043251110735,0.000338330059845303,-0.0293143077608044,-0.0169338409613959,-0.000203355399464271,-0.000649958410659636,0.0102358371055754,0.0322693546255442,-2.92491899244508,-0.00075108055451645,0
0.19,0.000590831277644627,0.000338328805387147,-0.0293110198874415,-0.0169337744540771,-0.000203403026574736,-0.000649750096558757,0.010236641954545,0.0322660776295786,-2.92492404315651,-0.000716672900879763,0
0.2,0.000590630538273701,0.000338328031685739,-0.0293079356678102,-0.0169337312354,-0.000203448546282486,-0.00064955290683775,0.0102374177977018,0.0322630070436182,-2.92492884785249,-0.000683943802552665,0
0.21,0.000590439474493353,0.000338327322604846,-0.029304995423704,-0.016933703556613,-0.000203491895299793,-0.000649365227594032,0.0102381702883575,0.0322600827970598,-2.92493341852259,-0.000652809039062996,0
0.22,0.000590257943649701,0.000338326649706774,-0.0293022086958769,-0.016933661802953,-0.000203533084181143,-0.000649186911133531,0.0102388688249089,0.0322573077255344,-2.92493776656631,-0.000623190787541904,0
0.23,0.000590085098865893,0.000338326009608335,-0.029299548857331,-0.0169336341241295,-0.000203572298945141,-0.000649017127496078,0.0102395469762607,0.0322546617656109,-2.92494190282698,-0.000595015171050762,0
0.24,0.000589920694192387,0.000338325400615173,-0.0292970185986613,-0.0169336064425276,-0.000203609597712084,-0.000648855634064596,0.0102401907514846,0.0322521444138824,-2.92494583762043,-0.000568211921531935,0
0.25,0.00058976426396654,0.00033832482121328,-0.0292946088731162,-0.0169335773027386,-0.00020364508565932,-0.000648701973781336,0.0102408009932939,0.0322497464224516,-2.92494958075962,-0.000542714194227273,0
0.26,0.000595548609984207,0.000341700357501709,-0.0295827464169734,-0.0171025276781301,-0.000205700662527044,-0.000655075963997193,0.0103439807813561,0.0325674285160357,-2.92495309834379,-0.00053612462138357,0
0.27,0.000577925730209786,0.000331653710374099,-0.0287248580956457,-0.0165996791188477,-0.000199679112611196,-0.000635704794090957,0.0100373997903974,0.0316214709479401,-2.92495662238436,-0.000460935633685164,0
0.28,0.000576947491681781,0.000331124086400059,-0.0286307453425611,-0.0165731685957727,-0.000199374183814931,-0.000634634937251569,0.0100318397552986,0.0315238272945799,-2.92495984911163,-0.000436485261041964,0
0.29,0.000588372797895554,0.00033785898579094,-0.0292450394575447,-0.0169102527557393,-0.000203497807884277,-0.000647240207163785,0.0102291030158947,0.0321961866162213,-2.92496282091338,-0.000450068401278109,0
0.3,0.00058393165140277,0.000335472718839474,-0.0290310589681038,-0.0167908225143863,-0.000202123475602411,-0.000642389460690255,0.0101585358201638,0.0319615120967327,-2.92496528632503,-0.000420568721574438,0
0.31,0.000588642623114754,0.000338138379773516,-0.0292655746846537,-0.0169242357024591,-0.000203716058555738,-0.000647562714422157,0.0102385136308723,0.0322191938813788,-2.9249680450273,-0.000415912061461601,0
0.32,0.000588858161862451,0.000338309723431042,-0.0292798502081416,-0.016932817829554,-0.00020383879347156,-0.000647809501347481,0.0102439125917564,0.0322349531203711,-2.92497070398295,-0.000398756364910913,0
0.33,0.000588774446703787,0.000338320396113151,-0.0292792949710965,-0.0169333584791563,-0.00020386884968314,-0.000647729520437646,0.0102446415548852,0.0322345011253472,-2.92497323577041,-0.000381574944014875,0
0.34,0.0005886754092657,0.000338320735783743,-0.0292778162595062,-0.0169333656732071,-0.000203892027367439,-0.000647632379449474,0.0102450440366705,0.0322330338416141,-2.92497564439921,-0.000365172090277404,0
0.35,0.000588579760959984,0.00033832042669751,-0.0292763381753119,-0.0169333548880463,-0.000203913766619936,-0.00064753843277088,0.0102454250365368,0.0322315645065587,-2.92497793572008,-0.000349564234463669,0
0.36,0.000588488652848557,0.00033832009191476,-0.0292749252166272,-0.016933341184828,-0.00020393443229943,-0.000647448937328212,0.0102457855859114,0.0322301592898397,-2.92498011543704,-0.000334716332951104,0
0.37,0.000588401968517618,0.000338319770792845,-0.0292735793300101,-0.0169333260184772,-0.000203954091440504,-0.000647363786791793,0.010246126863405,0.0322288203497652,-2.9249821889849,-0.000320591619180113,0
0.38,0.000588319591555043,0.000338319465123057,-0.0292723022116045,-0.0169333122994672,-0.000203972774213257,-0.000647282866812024,0.0102464515144476,0.0322275499155748,-2.92498416153532,-0.000307154885257577,0
0.39,0.000588241334213482,0.000338319174312645,-0.0292710916263243,-0.016933284548515,-0.000203990523621962,-0.000647205992908969,0.0102467450611373,0.0322263424274259,-2.92498603800742,-0.000294372622469877,0
0.4,0.000588166595576989,0.000338318897649941,-0.0292699243048089,-0.0169332848399948,-0.000204007471190823,-0.000647132577110766,0.0102470537471303,0.0322251841544011,-2.92498782308114,-0.000282212953169454,0
0.41,0.000588095685523207,0.000338318634447911,-0.0292688221985972,-0.0169332710998123,-0.000204023552571115,-0.000647062921006892,0.0102473319078229,0.0322240874471838,-2.92498952120822,-0.000270645552320114,0
0.42,0.000588028209721282,0.000338318384052479,-0.0292677717526268,-0.0169332573530969,-0.000204038854647334,-0.00064699663848439,0.0102475962908121,0.0322230420384327,-2.92499113662316,-0.000259641571941308,0
0.43,0.000587964051755894,0.00033831814584102,-0.0292667730000692,-0.0169332435999883,-0.000204053404469769,-0.000646933614899404,0.010247847019447,0.0322220479194004,-2.92499267335543,-0.000249173569168466,0
0.44,0.000587902978794698,0.000338317919221312,-0.0292658198344163,-0.0169332283857164,-0.000204067254006421,-0.000646873621957331,0.0102480841092311,0.0322210987744594,-2.92499413523702,-0.000239215437811807,0
0.45,0.000587844932633421,0.000338317703629837,-0.029264914664064,-0.0169332146206983,-0.000204080417600356,-0.000646816601954698,0.0102483100028719,0.0322201975439415,-2.92499552591377,-0.000229742343253836,0
0.46,0.000587789518940328,0.000338317498530268,-0.0292640427951087,-0.0169332148640909,-0.000204092981739648,-0.000646762168955869,0.0102485402360166,0.0322193325408546,-2.92499684885373,-0.000220730660510952,0
0.47,0.000587737002506699,0.000338317303412476,-0.0292632222504952,-0.0169332010867218,-0.000204104891176463,-0.000646710580786872,0.010248743667809,0.0322185153096287,-2.92499810735679,-0.000212157915314481,0
0.48,0.000587687047210016,0.00033831711779104,-0.0292624407909808,-0.0169331873041126,-0.000204116219720606,-0.000646661508438405,0.0102489367179952,0.0322177368769494,-2.92499930456091,-0.000204002728065493,0
0.49,0.000587639375135813,0.000338316941204247,-0.0292616888488719,-0.0169331875269404,-0.000204127028594446,-0.000646614679784653,0.0102491352224987,0.0322169908790635,-2.92500044345197,-0.000196244760514213,0
0.5,0.000587594134659525,0.000338316773212432,-0.029260977965569,-0.0169331737336137,-0.000204137287334925,-0.000646570239063543,0.0102493094259196,0.0322162825367238,-2.92500152687056,-0.000188864665037226,0
0.51,1.94257952969943,-0.00823007917513464,2.29263666771698,0.413076388589548,-0.0974763396841208,1.94014982066135,0.307301244615175,2.30919486792011,0.0459627958886266,14.0904399547236,378.877498811169
0.52,1.87901879861551,0.0124036478773281,2.34704352722976,-0.618572777293259,-0.372148219661371,1.84183908054803,-1.08550643213602,2.17092638873609,0.20596938574329,29.4761693205193,378.877498811169
0.53,1.820444090467,-0.0171353382232345,2.22490917997829,0.861215564334272,-0.851256710850397,1.60924588505437,-0.256760249102735,2.37191637329059,0.477148424850987,44.437788439241,378.877498811169
0.54,1.77006332909839,-0.0136129724713367,1.74049548686474,0.686246636143751,-1.34658282808864,1.14892305622925,-0.865901361600065,1.65845525034422,0.856748922457323,59.0924062751633,378.877498811169
0.55,1.70542241612199,0.0179455277822625,1.91609766375389,-0.892153661946906,-1.65767546792152,0.401123051481599,-2.06767934849298,-0.438258514331468,1.34390298363708,73.8089823277577,378.877498811169
0.56,1.62410922274051,0.018104386647425,2.80661237044788,-0.900280373394571,-1.52131489768977,-0.568910817504671,-2.29296944033484,-1.85199052221146,1.93980165595353,88.8486494941756,378.877498811169
0.57,1.55862571472887,0.034183174631779,2.95715411302464,-1.70667926354087,-0.772256157782328,-1.35429060205307,0.0925996824280297,-3.41305432942301,2.64527918284644,103.320090175436,378.877498811169
0.58,1.51673687691474,-0.0142054279088415,2.33114248509462,0.716734998373827,0.474691215138755,-1.44061125854453,0.025972578609055,-2.43870042622448,-2.83265542649694,116.186510931045,378.877498811169
0.59,1.4779968197354,-0.0142230466275517,1.76864890593315,0.719905568768599,1.38523989992582,-0.51554564672475,1.39397917982543,-1.3050689738921,-1.93670706929976,128.16989930603,378.877498811169
0.6,1.38342448870899,0.048844314146308,3.99992419537562,-2.43522056183386,1.15654731777602,0.760688756804804,1.85307781907202,4.30067382511078,-0.953718325950851,140.115353707753,378.877498811169
0.61,1.32881385955637,-0.0532568985753534,4.02928929300126,2.67060816513075,-0.211097191908989,1.31301962900906,2.17185048150669,4.31860922801969,0.119351112807682,152.643186302321,378.877498811169
0.62,1.32814876989361,-5.16964091828442e-05,1.63886638030784,0.00971251337718994,-1.27254841635566,0.380262653534556,-1.56745902003783,0.478591230510421,1.28038371936875,163.863834826151,378.877498811169
0.63,1.2787024249773,0.0115076780858353,1.91399482639519,-0.565320571834479,-0.754194109077837,-1.03266817716537,-0.655385045788268,-1.88505543318066,2.51979539481293,174.266231133059,378.877498811169
0.64,1.21309904415137,0.0167793340055069,2.82199256714029,-0.83465317367094,0.764439128133105,-0.942084739473968,2.44904528863403,-1.63170620625573,-2.44608792638644,185.300316500201,378.877498811169
0.65,1.15246006346272,-0.0207301465060528,3.60815472150608,1.04471302625553,0.988976965750179,0.592046026982894,3.64904603751531,0.891441987819972,-1.04935960728266,195.480902339914,378.877498811169
0.66,1.13925286508123,0.0431073469069135,2.26631262568233,-2.14586478742856,-0.422926177366661,1.0587203513918,-2.88092628656136,1.20048837339339,0.417868929791526,204.844738211688,378.877498811169
0.67,1.06540824341209,-0.0313296974907558,3.78384394538947,1.5728625095801,-0.975668049145767,-0.429124845413767,-4.09756219614422,0.0368174664113605,1.95576017763871,214.7522963875,378.877498811169
0.68,1.03396952070523,-0.0430326716521623,3.43165079786478,2.16356150928265,0.461966034287089,-0.926030325498029,-0.571630484622512,-4.01627491489136,-2.7204466928291,223.49997699853,378.877498811169
0.69,0.994008228208667,-0.0186752147494822,3.5329657318971,0.944754846367035,0.853255938370203,0.510250355245791,3.53525102511005,0.93616706412454,-1.05063143686064,232.257544327511,378.877498811169
0.7,0.96224125855106,0.00885029249208802,3.19816425361273,-0.435837754077733,-0.6013653503796,0.751229846783223,-2.35925707107919,2.20275173669858,0.684247820664916,240.797254557428,378.877498811169
0.71,0.931316035321362,-0.0246360571339564,3.01966186299893,1.24597862231031,-0.554183130663746,-0.748890880332734,-2.8414101262255,-1.61158586140722,2.47807219421073,248.676917136,378.877498811169
0.72,0.913807466367261,0.00253419557972276,2.06502198378917,-0.121051262426633,0.847331301252577,-0.342169802369237,1.96194407123565,-0.655549130890225,-1.95181872675936,256.744148808636,378.877498811169
0.73,0.871378459914184,0.00709375784639554,2.58891500978493,-0.342236543840256,0.0448942682595,0.87025010570539,-0.229586946384414,2.60132593380363,-0.0434014201310997,263.970357419005,378.877498811169
0.74,0.837413870093334,0.00275668268191032,2.57300841766703,-0.133067164116238,-0.787897134635335,-0.283703532508027,-2.37247644168022,-1.00470628604767,1.91971184259891,271.484041014013,378.877498811169
0.75,0.786622538782774,-0.00458763953278368,3.61295710288931,0.242183045624945,0.563465707225893,-0.548910249255708,2.40320398050544,-2.70863845556939,-2.34894222640497,278.166364989976,378.877498811169
0.76,0.79074237768945,-0.0200741025765722,1.81101639793967,1.00986815411719,0.202194843697538,0.764718067427694,1.47666865165947,1.45570044154443,-0.28387010562668,285.094377667155,378.877498811169
0.77,0.768284611847215,0.0111401287724153,1.52670494298661,-0.544550118495834,-0.745727341986844,-0.185137999026479,-1.33737675676309,-0.915852731045457,1.82864037028648,291.317862873459,378.877498811169
0.78,0.731145518989472,0.012753096268321,1.90310460131908,-0.632366489993891,0.539143643740794,-0.49402484028307,1.84435737269809,-0.78742643021633,-2.29511103944463,297.652258825378,378.877498811169
0.79,0.664871166184268,-0.0244398030754027,3.8718162017339,1.2335097566895,0.0367083908239036,0.664306755678965,1.58378928116245,3.74220770838983,-0.0919442149206069,303.541566438909,378.877498811169
0.8,0.665522191488862,-0.0145759998352092,2.49054052778681,0.737639493332983,-0.547193455400065,-0.379093088175808,-2.48449493380322,-0.757752642080044,2.15477248247848,309.242781701138,378.877498811169
0.81,0.632414632092001,0.0180736430638613,2.8558665330121,-0.903390376416981,0.604546467057673,-0.186543540830945,2.99344209733158,0.106734420429731,-1.8415237761453,314.796933880762,378.877498811169
0.82,0.57697315622688,0.0490518963706614,4.42331062908967,-2.44485657844381,-0.225595850948326,0.533301625329294,-4.22509361783489,2.77337060832275,0.485002111868228,319.872530335914,378.877498811169
0.83,0.537893915549871,0.0424780678808671,5.13254179137519,-2.1244676273078,-0.195753709912625,-0.502806857244317,0.554502422153408,-5.52710367222451,2.84913284519468,325.088655066789,378.877498811169
0.84,0.531898014857234,-0.0171768901858466,4.31912941026773,0.871579943690191,0.44825354200917,0.28684369583757,4.15711001978394,1.46046798811018,-1.03382654116908,329.784539793178,378.877498811169
0.85,0.518699633298337,0.0498274469935703,3.83364170302114,-2.48788102290849,-0.502886528196948,0.136518217889578,-4.19804329767713,-1.80632033762541,1.40148397609121,334.499090590674,378.877498811169
0.86,0.511181686526139,-0.0171772286456941,3.11829093432526,0.859583269603215,0.353024305776799,-0.370102166103447,1.43372432402188,-2.89949242302594,-2.41339714220429,339.030971910215,378.877498811169
0.87,0.523498172083276,0.00422962049484377,1.49156093481226,-0.200317069373217,-0.041366808216396,0.521878350807973,-0.329424769298371,1.46845506295324,0.0871792038656987,343.162333677562,378.877498811169
0.88,0.502859761099296,0.0135802291600885,1.47513993841135,-0.676179811891446,-0.262955532439181,-0.428843502826507,-0.151094931911316,-1.61568168197096,2.61854235573391,347.403142093623,378.877498811169
0.89,0.484821695979159,-0.0017229332276579,1.4089306936711,0.0858803503445166,0.432153005449322,0.219769937143671,1.29678211693492,0.557509888111075,-1.10388857718163,351.346776637952,378.877498811169
0.9,0.436419982138211,-0.00411258938278314,2.89196866828063,0.215394671044282,-0.43518444157883,0.0330728893305299,-2.86311466190821,0.460925238403535,1.48552153648483,355.044672808177,378.877498811169
0.91,0.394187887636454,0.0244551575063776,4.06774142830773,-1.22302156717488,0.308987953902094,-0.245984938220512,4.03421706556422,-1.3294339958254,-2.18119402321167,358.752871924214,378.877498811169
0.92,0.370204823100556,0.00445597971891043,4.41134348634255,-0.222943185985247,-0.160649890981378,0.333561207771288,-2.16153639793933,3.85193658035248,0.460872077669249,362.162769796176,378.877498811169
0.93,0.358169855552042,-0.0100445086819386,4.16845564879028,0.511376892149298,0.00513454684358955,-0.358273881282941,-0.568461040681559,-4.16105525882355,3.12788638547831,365.411997544663,378.877498811169
0.94,0.365385759199867,-0.00635514604352769,2.97833811254498,0.319166383337551,0.158088301753924,0.329477206731905,1.62023122236014,2.51936815074338,-0.464761313040974,368.60815605461,378.877498811169
0.95,0.350794183111248,-0.0413408997260725,2.93245673891043,2.06688439265317,-0.247438044939059,-0.25207150337074,-3.58045214358735,-0.227323702361164,2.2481618769699,371.626623438517,378.877498811169
0.96,0.331566944122583,0.0365765039969431,3.14230368546619,-1.82148236097836,0.329284528884936,0.0533495840326064,2.5413409077747,2.59489052438067,-1.30030550418557,374.431752734319,378.877498811169
0.97,0.316810587157762,0.0113352210050569,3.12391357777804,-0.565306533110764,-0.313386376547122,0.0478164654187734,-3.16827750226222,-0.201060156328393,1.45514811662161,377.258234853634,378.877498811169
