t,iq,id,vq,vd,ia,ib,va,vb,theta_e,omega,r
0,0,0,0,0,0,0,0,0,0,0,0
0.01,0.00100235270989548,0.000572086985297148,-0.0496392549159688,-0.0286364410835784,0.000928313712665014,-0.000685731816863772,-0.0459368436485944,0.0342623376632474,-1.68838665539584,-0.00122791683866578,0
0.02,0.00111740327250957,0.00063742658463737,-0.0553939726204136,-0.0319070945323333,0.00103489707166882,-0.000764127460093449,-0.0512677552692384,0.0381860203977825,-1.68839592010045,-0.00132677415269167,0
0.03,0.00116302403837598,0.000663465739319401,-0.0576569974404186,-0.0332105254508064,0.00107714000074193,-0.000795349684033813,-0.0533618400201086,0.0397464763750377,-1.68840547514333,-0.00133680154524475,0
0.04,0.00113694329459101,0.000648906230980233,-0.0563802449242382,-0.0324817089849463,0.00105294079547237,-0.000777839979012682,-0.0521790748027872,0.0388733532001674,-1.68841449193842,-0.00125924909734343,0
0.05,0.00116323799752734,0.000664046079908588,-0.0576886219146184,-0.0332395489617299,0.00107727009037194,-0.000795970469002094,-0.0533891260307544,0.0397799690203405,-1.68842343503375,-0.00124798625563013,0
0.06,0.00116423456718161,0.000664817552865624,-0.0577480020719256,-0.0332781890211285,0.00107816230607727,-0.000796862941648645,-0.0534432148449046,0.0398257755086633,-1.6884321323679,-0.00120610065103305,0
0.07,0.00119399573236882,0.000682107024957987,-0.0592266894117964,-0.0341436194368183,0.00110568183224801,-0.000817535007353618,-0.0548097728470201,0.0408592252421131,-1.68844042900141,-0.00120240744798842,0
0.08,0.00116511194820327,0.00066573539424153,-0.0578105705205603,-0.0333241312048863,0.00107891275901585,-0.000797895184485247,-0.0534993020231764,0.0398796247162145,-1.68844860368662,-0.00112550417766088,0
0.09,0.00116322126740865,0.000664894155621823,-0.0577263774728856,-0.0332820256892544,0.00107712768128966,-0.000796846229414061,-0.053420322866032,0.0398283441158575,-1.6884564004203,-0.00108445129565977,0
0.1,0.00116277660142616,0.000664848035914006,-0.0577132227014247,-0.0332797123503565,0.00107668551957104,-0.000796756316340782,-0.0534072314993306,0.0398249036694832,-1.6884639110074,-0.00104663764172636,0
0.11,0.00116242111071863,0.000664842728604563,-0.057704149987046,-0.0332794390281439,0.00107632734273423,-0.00079671710393675,-0.0533979653269685,0.0398239536798561,-1.68847114993728,-0.0010102837313388,0
0.12,0.00116208218288909,0.000664839616596786,-0.0576955868625543,-0.033279295339387,0.00107598556551747,-0.000796681729665542,-0.0533892004346231,0.0398231781586093,-1.68847812724763,-0.00097524855942668,0
0.13,0.00121666222396833,0.000696188089267495,-0.0603977781705514,-0.034848462280736,0.00112650165345942,-0.000834229493378573,-0.0558881749262017,0.0416991466901817,-1.68848509660061,-0.00100937804015892,0
0.14,0.00126771778906268,0.000725929808468289,-0.0629946930931456,-0.0363372253489112,0.00117370600929927,-0.000869768177886243,-0.0582920271934006,0.0434829261853548,-1.68849182152451,-0.00104028419074343,0
0.15,0.00116674343032861,0.000667958438566442,-0.0579493383036737,-0.0334354071541055,0.00108023219854709,-0.000800348114940755,-0.0536220581833344,0.0400090881872798,-1.68849835973627,-0.000880758585305815,0
0.16,0.00116110852221903,0.000664988424217905,-0.0576782299502162,-0.0332867336782727,0.00107498025921319,-0.000796743400986422,-0.0533700450026768,0.0398299277625572,-1.68850437005937,-0.000843853416777636,0
0.17,0.00116054423908673,0.000664834035145816,-0.0576571319096535,-0.0332790200787003,0.0010744334095498,-0.000796530020532087,-0.0533497687444167,0.0398200980958483,-1.68851014769568,-0.000814485357580122,0
0.18,0.001160259211139,0.000664823863684539,-0.0576495714459711,-0.0332784925752815,0.00107414711376578,-0.000796492426044323,-0.0533421008404244,0.039818983336057,-1.68851571571245,-0.000786507942501362,0
0.19,0.0011599978477089,0.000664821156520902,-0.0576429420558589,-0.0332783623266266,0.00107388360275068,-0.000796464804363811,-0.0533353189347864,0.039818361620262,-1.68852108246359,-0.000759559083042586,0
0.2,0.00115974696167429,0.000664818910267606,-0.0576366018493143,-0.0332782524704877,0.00107363059726433,-0.000796438660023483,-0.0533288295465722,0.0398177837080186,-1.68852625526369,-0.000733585054378486,0
0.21,0.00115950492319997,0.000664816763584457,-0.0576304782514511,-0.0332781426375562,0.00107338651557317,-0.000796413450572992,-0.0533225627156007,0.0398172212282242,-1.68853124112424,-0.00070854974840571,0
0.22,0.00115927173228592,0.000664814695243186,-0.057624579448231,-0.033278032824885,0.00107315135475945,-0.00079638916244914,-0.0533165263018174,0.0398166755064662,-1.68853604680102,-0.000684419194061301,0
0.23,0.00115904683871701,0.00066481270152222,-0.0576188857942974,-0.0332779506645947,0.00107292456363998,-0.00079636573456116,-0.0533106972899294,0.0398161720293777,-1.68854067880568,-0.000661160692131404,0
0.24,0.001158830411602,0.000664810779691425,-0.0576134132904595,-0.0332778408830805,0.00107270630544815,-0.000796343191029699,-0.0533050978124363,0.0398156581262136,-1.68854514341482,-0.000638742727459284,0
0.25,0.00115862135051138,0.000664808927162018,-0.0576081142778965,-0.0332777587421306,0.00107249548283634,-0.000796321406713879,-0.0532996738072454,0.0398151834052774,-1.68854944667755,-0.000617134923935813,0
0.26,0.00117021374623853,0.00067153473772009,-0.0581851078459196,-0.0336144315129308,0.00108321413770447,-0.000804366985727017,-0.0538329536156045,0.0402175320724554,-1.68855355996345,-0.000611323407646515,0
0.27,0.00113355025594442,0.000650579475793651,-0.056380204130831,-0.0325654709282318,0.00104926328718771,-0.000779253739956145,-0.0521636267853448,0.0389640007598161,-1.68855767061607,-0.000544785667938735,0
0.28,0.00113071706361328,0.000648969781203855,-0.0561798893778926,-0.0324848979728636,0.00104663583845733,-0.000777326364224663,-0.0519740158370435,0.038860651623337,-1.68856153085838,-0.000522072104042099,0
0.29,0.00115640875596428,0.000663991613707432,-0.0575172215504504,-0.0332368280043556,0.00107038173087959,-0.000795266637137428,-0.0532135941552038,0.0397646942369733,-1.68856516275507,-0.000536395019396028,0
0.3,0.00114894618248201,0.000659920646425249,-0.0571526043797432,-0.0330330657427676,0.00106344665033635,-0.000790350436013477,-0.0528753177998979,0.0395196708907507,-1.68856835621722,-0.000511161973376205,0
0.31,0.00115707220235087,0.000664549487382246,-0.0575577055751851,-0.0332647566884838,0.00107096975458428,-0.000795905702579643,-0.053250252272185,0.0397975393909268,-1.68857179522286,-0.000504331895659564,0
0.32,0.00115735027185523,0.00066478507761618,-0.0575753164559452,-0.0332765683293736,0.00107121555688397,-0.000796175911387855,-0.0532662203252217,0.0398115163871793,-1.68857513397102,-0.000488121286414399,0
0.33,0.00115721746366243,0.000664795824517735,-0.0575725062338283,-0.0332770914452847,0.00107107984277133,-0.000796174426184654,-0.0532632399337809,0.0398118771330683,-1.6885783533355,-0.000471985432322374,0
0.34,0.00115706815552878,0.000664795108965935,-0.05756874472631,-0.0332770689211184,0.00107092918262404,-0.000796159493599124,-0.0532593835953095,0.03981157801936,-1.68858145642347,-0.000456405579533968,0
0.35,0.00115692312284307,0.00066479385231733,-0.0575650623614557,-0.0332769868007796,0.00107078292126927,-0.000796144405096171,-0.0532556173213805,0.0398112230273853,-1.68858444737264,-0.00044138732564279,0
0.36,0.00115678312788504,0.000664792611995227,-0.0575615013691624,-0.0332769322603609,0.00107064174696835,-0.000796129808242029,-0.0532519726435547,0.0398109039096431,-1.68858733023239,-0.000426911738897585,0
0.37,0.00115664825520013,0.000664791414948741,-0.0575580707323677,-0.0332768777132317,0.00107050573739429,-0.000796115744005201,-0.0532484615685882,0.0398105945365326,-1.68859010890853,-0.000412959280292034,0
0.38,0.00115651827195768,0.00066479026102737,-0.0575547632460109,-0.0332768231594935,0.0010703746583404,-0.000796102188988005,-0.0532450767912227,0.039810294264039,-1.68859278716623,-0.000399511048381876,0
0.39,0.00115639306174239,0.000664789148748786,-0.0575515775701514,-0.0332767685990593,0.00107024839147432,-0.000796089131998869,-0.0532418168361363,0.0398100031298141,-1.68859536863451,-0.000386548821161091,0
0.4,0.00115627227530827,0.000664788076615818,-0.0575485004044762,-0.0332767140326364,0.00107012658735329,-0.000796076534321121,-0.0532386683556583,0.0398097197595021,-1.68859785681145,-0.000374055034953747,0
0.41,0.00115615602907066,0.000664787043181536,-0.0575455416850141,-0.0332766594590595,0.00107000935906459,-0.000796064411874241,-0.0532356410827153,0.0398094455008887,-1.68860025506811,-0.000362012760804771,0
0.42,0.00115604385736342,0.000664786047050411,-0.057542682015668,-0.0332766019692512,0.00106989624173923,-0.00079605271208185,-0.053232715968014,0.0398091753600223,-1.68860256665435,-0.000350405681553904,0
0.43,0.0011559358766115,0.000664785086878081,-0.0575399309907924,-0.0332765473827416,0.0010697873486532,-0.000796041450701317,-0.0532299017305795,0.0398089164119529,-1.68860479470241,-0.000339218069724805,0
0.44,0.00115583142019333,0.000664784161367576,-0.0575372590053964,-0.0332765203474137,0.00106968201554877,-0.000796030551375289,-0.0532271659532207,0.0398086898160969,-1.68860694223104,-0.000328434766215328,0
0.45,0.00115573100643576,0.000664783269268576,-0.0575346953837084,-0.0332764657464117,0.00106958075498489,-0.000796020076946796,-0.0532245441192167,0.0398084444404674,-1.68860901215016,-0.000318041159756706,0
0.46,0.00115563431796744,0.000664782409377164,-0.0575322277089496,-0.0332764111390614,0.00106948324969339,-0.000796009991964075,-0.0532220205468487,0.0398082063444348,-1.68861100726477,-0.000308023167115874,0
0.47,0.00115554092100351,0.000664781580530478,-0.0575298375620553,-0.0332763840751755,0.0010693890668765,-0.000796000247218084,-0.0532195735986921,0.0398080008667662,-1.68861293027797,-0.000298367214012202,0
0.48,0.00115545078366833,0.00066478078160921,-0.0575275264587441,-0.0332763570014547,0.00106929817293247,-0.000795990840675943,-0.053217207914756,0.0398078009629695,-1.6886147837955,-0.000289060216724753,0
0.49,0.00115536433974623,0.000664780011534025,-0.0575253191293636,-0.0332763023711914,0.00106921099676171,-0.000795981824978587,-0.0532149511919195,0.0398075823188963,-1.68861657032896,-0.00028008956436446,0
0.5,0.0011552807216631,0.00066477926926433,-0.0575231751216045,-0.0332762723687926,0.00106912667499634,-0.000795973099734715,-0.0532127570277566,0.0398073921318364,-1.68861829229891,-0.000271443101786111,0
0.51,4.36231397053369,-0.0469352572138599,6.56980019118166,2.35309341509067,-0.255818941954243,4.35505944446463,2.03572543884939,6.67496405307288,0.04791436836999,14.7279841451527,603.583873501029
0.52,4.23361166137254,0.0377569841594916,9.8121479820453,-1.88272058688815,-0.869948664204378,4.14343850090856,-3.94076155029336,9.18113736056582,0.215870257177521,31.047223082987,603.583873501029
0.53,4.22891864637483,-0.023842158666623,6.81772437568683,1.20524936581682,-2.05912928937157,3.693820235994,-2.22996212337365,6.5544840090548,0.502909055831638,47.2816385499261,603.583873501029
0.54,4.12312216671974,-1.39382594044335e-05,8.69017894474507,0.0167557222068701,-3.25488713205731,2.53097731310609,-6.84992284727685,5.34771426239958,0.909864944660834,63.8379611151217,603.583873501029
0.55,4.09152478323,0.0614604156570862,6.45046544184295,-3.05953904222708,-4.04922746672752,0.590007929758113,-6.79193145654896,-2.19976149999556,1.44112607259757,81.278256081384,603.583873501029
0.56,4.01489555244524,0.0661046196361379,6.51386556890954,-3.29054695120278,-3.49943376709913,-1.96919258262573,-3.96274779016727,-6.12819499032297,2.09981434010801,98.0662180997066,603.583873501029
0.57,4.00095577758623,0.0460254532105937,4.00150099913363,-2.27930470424777,-1.09877570851558,-3.84739618689315,1.14421228910293,-4.46071949559029,2.87491153232332,113.237301587747,603.583873501029
0.58,3.81831474227628,0.00409638196093942,9.92347743693873,-0.174960645795266,2.21027389781583,-3.11355641478736,5.89554846139293,-7.98426728061984,-2.52318892545578,128.389946683852,603.583873501029
0.59,3.81761672903717,0.00355243649954651,6.24237778679925,-0.15238459962227,3.81330172096224,0.181494061985358,6.22765436566774,0.454777529245096,-1.52230668801708,144.572064867989,603.583873501029
0.6,3.77229488623584,0.0548797268058019,5.33531972317195,-2.71335961578637,1.55041576732474,3.43939405151055,-0.368003650938188,5.97432257799528,-0.408956692125094,159.007211419604,603.583873501029
0.61,3.62578091332641,-0.0490263673868625,9.30374349164448,2.48404085141864,-2.66077905281605,2.46352301556867,-5.02873589112165,8.21230279806941,0.810352613443428,174.02234269447,603.583873501029
0.62,3.66687417285879,0.0423025591856189,3.89826334667577,-2.08077406173326,-3.11093066222266,-1.94161430797556,-2.1610004238016,-3.85436829900141,2.1403031673906,188.420471721761,603.583873501029
0.63,3.54826725840078,0.00778194468075699,6.60903680004993,-0.35389938321908,1.47522513147277,-3.22706862449083,3.08247711734653,-5.85687177756967,-2.71062306142154,202.684304448217,603.583873501029
0.64,3.43422237370641,0.030410226881828,9.02918398119817,-1.4813189110017,3.17742594314481,1.30336965968791,7.74873595222294,4.86595933245897,-1.17267588473104,216.503338165285,603.583873501029
0.65,3.36710349013685,-0.0294755826183217,9.10361316281398,1.50944670117489,-1.5351600448098,2.99692148046659,-2.72993896523785,8.81485310189137,0.464642318082388,230.499400231649,603.583873501029
0.66,3.32675140789393,0.0385638904644221,8.06416802387172,-1.88133536946281,-2.70779723799746,-1.93302773427215,-5.39784616012391,-6.27960870765547,2.20236508856802,243.49077922357,603.583873501029
0.67,3.24110379577634,-0.0242823973853827,9.05401937300341,1.25689246968074,2.54600097049858,-2.00579722505514,6.28467796127499,-6.63761014297507,-2.24555969691881,256.965976284346,603.583873501029
0.68,3.20144814109395,-0.022214166144563,7.93935447163094,1.14888654562957,0.972422802394085,3.05027171948262,3.55606672444107,7.19080518247142,-0.315551569680805,269.928128140454,603.583873501029
0.69,3.14835167100396,-0.00145427239377061,7.58491144807383,0.127561676671401,-3.11824371783273,-0.434369054397679,-7.53039903159382,-0.916648286665877,1.70874302105653,282.267970565439,603.583873501029
0.7,3.02071568847872,-0.020302047566376,10.8321136567383,1.06567216201085,1.92346429323785,-2.32925321860803,6.01473093931835,-9.07156850588628,-2.45804604789716,294.779583650299,603.583873501029
0.71,2.93775661384271,-0.0130322598579898,11.8861027597525,0.694591105695374,0.719762872565203,2.84824949210042,3.63586942653534,11.3376518350447,-0.251957692871941,307.095899529871,603.583873501029
0.72,2.89880868774551,0.0857915611231705,10.845738796649,-4.25630965227048,-2.62187582683902,-1.23944308007509,-7.7317908420028,-8.71582654007466,2.04197889645669,319.033488335894,603.583873501029
0.73,2.85371533975025,0.0316573137901469,10.183390903481,-1.54601386192134,2.72545400688968,-0.846518683887896,10.2001756455809,-1.43109257340322,-1.86085393342154,330.610105565388,603.583873501029
0.74,2.85824593012668,-0.0130833153692329,7.03853410489427,0.715075811660781,-1.63519880754568,2.34432630621848,-3.41186354015179,6.1976998108625,0.604477735019949,341.924671778976,603.583873501029
0.75,2.75649296673254,0.0667867817598295,9.22133129897464,-3.28327370654188,-0.0361904958135668,-2.75706441670784,3.38541188709115,-9.18432488059196,-3.13049420307657,353.054497108846,603.583873501029
0.76,2.70918338426735,0.0339318613484528,8.7002393989824,-1.63878204679453,1.33140106073713,2.35970277710413,2.74283510622016,8.41763789768769,-0.501174059206589,364.003018175522,603.583873501029
0.77,2.60541953246456,0.0333294099578272,11.0342747595087,-1.60979157810192,-2.1147293219719,-1.52224889046051,-7.91511906683689,-7.85477807140684,2.20750007455288,374.731941904471,603.583873501029
0.78,2.55057341595606,0.0431000748124005,10.9512779311156,-2.09868308811686,2.46208890738759,0.667383382134735,9.93672140053665,5.0593010225726,-1.28919657930604,385.258810302852,603.583873501029
0.79,2.52072878685897,0.0304142155799981,9.66284887283317,-1.46218927927398,-2.52079965267483,0.0238275572249506,-9.65899524912668,-1.48743289091819,1.57340928621245,395.52053115141,603.583873501029
0.8,2.54408981208932,0.0799852279051858,5.74291700237449,-3.94068006857552,2.47637630759647,-0.588515923178455,6.41647696335095,2.70903644822599,-1.77269078881248,405.583604315464,603.583873501029
0.81,2.37682443872391,0.05546927614513,11.3877139246381,-2.71510894769869,-2.22771598772047,0.830453328710231,-11.6490846711119,1.16218387208583,1.23730458506124,415.437892560118,603.583873501029
0.82,2.32037702240072,0.00816910194387546,11.5170811266551,-0.354117658888569,2.13961517550255,-0.897921578463844,10.7713194589226,-4.09233846451226,-1.96461892961824,425.117099400292,603.583873501029
0.83,2.25952623626094,-0.0070703446372673,11.8894088094011,0.388912518082075,-2.09720159290908,0.840984114489955,-10.8754380056975,4.82018080241977,1.18629648336849,434.569575642374,603.583873501029
0.84,2.34104954762602,0.019857833349612,5.15462564109175,-0.954350680047391,2.2255861798203,-0.726411367049142,5.2020186442969,-0.648037610555847,-1.87780360508864,443.784267286668,603.583873501029
0.85,2.22783841756502,0.0395814551061925,8.22698128192283,-1.93624697926815,-2.19193460448862,0.40031661970526,-8.43207279542253,-0.576560274844666,1.4079203928298,452.710870583871,603.583873501029
0.86,2.1550321343436,0.0629786998694939,9.33698495822113,-3.09788272265221,2.15564255724346,0.0365374067448818,9.18407867969683,3.5254594421852,-1.52463258680073,461.391093815787,603.583873501029
0.87,2.11193211202234,-0.00768531534065908,9.00092813277593,0.446780759420178,-2.00328138439698,-0.668715189592348,-8.68804641021229,-2.39461267690261,1.88933676249511,469.921010067817,603.583873501029
0.88,1.98270102441634,0.0318748036826496,12.9690350270095,-1.56480430831367,1.59432619151717,1.17908581128507,9.35143471799948,9.12113758092215,-0.917941001953736,478.36351874025,603.583873501029
0.89,1.97327452395909,-0.0513474311291238,10.9359026061696,2.6073125906664,-0.941076861383004,-1.7351723967834,-7.72080696597489,-8.17197555987708,2.61862344505581,486.557034231583,603.583873501029
0.9,1.90834650677824,0.0379397120295318,11.7864176618371,-1.84749615958353,0.169193795047396,1.9012099493215,-1.03190196155954,11.8856241611735,-0.0688805563078884,494.435697049502,603.583873501029
0.91,1.94470661465886,-0.0193728727699718,7.60779902309388,1.03091576554007,0.85056138531992,-1.7489438113044,2.32742229903333,-7.31604392642565,-2.69890338407749,502.196859408831,603.583873501029
0.92,1.89644208061856,0.0407298257682178,7.61935526010115,-2.00674841143104,-1.58502672400048,1.04203731605556,-7.52125052654666,2.34785099257463,1.01069229133579,509.874801456016,603.583873501029
0.93,1.88005044855485,0.0530179854024356,6.12614802368286,-2.60279962767881,1.87967201558789,0.0650669632238414,5.95073782528252,2.98210912688826,-1.50800119007919,517.179177279559,603.583873501029
0.94,1.7643464863802,0.0142819481319684,9.64757266433028,-0.65730735195192,-1.31370704637596,-1.17783542753084,-6.68810722654408,-6.98404846737991,2.30980989396273,524.383252352291,603.583873501029
0.95,1.70838690686157,0.0332454897075506,10.1523948275351,-1.63248633840398,0.209357880257599,1.69583618433385,-0.576137349629485,10.2666546710016,-0.103374852075526,531.455872339275,603.583873501029
0.96,1.74649901221894,0.0583474495033584,6.04037745795986,-2.86425730208763,1.04695814065998,-1.39912182323451,6.01311719978763,-2.92105310954971,-2.46578678107393,538.234435865227,603.583873501029
0.97,1.60381557308661,0.00396121170067099,10.959045339279,-0.175525606616562,-1.60005085050935,0.109897040258498,-10.9467034240763,0.548787875473321,1.50469042003765,545.008564340019,603.583873501029
0.98,1.57649667960606,0.00201708646785259,10.1615432615925,-0.0562664783850548,1.08719902424506,1.14164098171331,6.95748031229141,7.40632129183464,-0.759697406475302,551.435144711926,603.583873501029
