t,iq,id,vq,vd,ia,ib,va,vb,theta_e,omega,r
0,0,0,0,0,0,0,0,0,0,0,0
0.01,0.000546473832094977,0.000289279038886823,-0.0243582073962186,-0.0144779604766118,-0.000598077817459348,-0.000156904224821755,0.027730308751274,0.0058278283844457,2.31421743098721,-0.00862111231993472,0
0.02,0.000610969962963698,0.000326110164529754,-0.0282100812463808,-0.016321299433993,-0.000670494926088582,-0.000173403255860298,0.0318138979809474,0.00707597303551508,2.31415910013264,-0.00741223568869136,0
0.03,0.000627807015773704,0.00034074369649833,-0.0295234146453819,-0.0170536830054173,-0.00069280192308478,-0.000173992560553779,0.0332767694881984,0.0074240641700971,2.31411247370973,-0.00576524341628342,0
0.04,0.00060212708367252,0.000333092855350333,-0.0288674608034266,-0.0166707635000099,-0.000668723176075752,-0.000162225734569367,0.0325349327946245,0.00726104654715128,2.31408087047962,-0.00392168127000703,0
0.05,0.000610690496612898,0.000341250818000809,-0.0295362325229641,-0.0170790586866657,-0.000680552413065951,-0.000161998199093817,0.0333037894860762,0.0074122117576534,2.31405709242608,-0.00308131636149298,0
0.06,0.000606496521966731,0.000341848353592879,-0.0295887476922866,-0.0171089702621209,-0.000677871632075923,-0.000158708469964988,0.0333628243000744,0.00742514701203268,2.31403975327828,-0.0022638560227201,0
0.07,0.000617402594363268,0.000350101959857926,-0.0301942572448887,-0.0175220488588841,-0.000691488420392061,-0.00016000346960784,0.0340882560950429,0.00753034947279383,2.31402822702404,-0.0019889338300082,0
0.08,0.000601075164827362,0.000342496423161286,-0.0296362862654878,-0.0171414040795782,-0.000674321770883401,-0.000154548707413519,0.0334199284175836,0.00743273718040046,2.31401887002359,-0.00127204696188259,0
0.09,0.000597658953024691,0.00034193692898573,-0.0295716886200489,-0.0171133961038409,-0.000671428758818496,-0.000152645043700134,0.0333534577017669,0.00740945027546108,2.31401293249639,-0.000953297077085991,0
0.1,0.000596113747478616,0.000341895366957378,-0.0295607230577701,-0.0171113128238448,-0.000670263525710011,-0.000151627332571356,0.0333440043380433,0.00740342818957577,2.31400885256251,-0.000749999050712701,0
0.11,0.000595123856409954,0.000341891998211365,-0.0295566383918371,-0.0171111470879981,-0.000669532819491553,-0.000150958095287754,0.0333409056729457,0.00740069162988599,2.31400601299052,-0.000610184680501409,0
0.12,0.000594442640715264,0.000341891530866075,-0.0295541502022245,-0.0171111217132156,-0.000669031221805388,-0.000150496166821865,0.0333390710988066,0.00739896065193236,2.31400403284324,-0.0005128632483888,0
0.13,0.000623509651610721,0.000357602059962482,-0.030807206697983,-0.0178974137631611,-0.000701064398195579,-0.000158594541279967,0.034793770252989,0.00766778687264176,2.31400086517571,-0.000948441349254312,0
0.14,0.000644419829532251,0.00037056718836403,-0.0321299859227802,-0.0185462973235555,-0.000725233906629448,-0.00016319539963304,0.0362068250977436,0.00808498337371066,2.3139984431765,-0.00125571155715858,0
0.15,0.000597282558102224,0.000343997684082932,-0.0297722120410173,-0.0172165343509424,-0.000672548542265201,-0.00015086192085649,0.0335710151015612,0.00746864177231882,2.3139964189133,-0.000245688684031115,0
0.16,0.000592634219367006,0.00034204548084719,-0.029569510577648,-0.0171188255278999,-0.000667804883396616,-0.000149154505947216,0.0333556451469276,0.00740345055285417,2.31399709506984,-0.000183222950348734,0
0.17,0.000592358434973292,0.000341902113666569,-0.0295488872055065,-0.0171116611258615,-0.00066750470938299,-0.00014907392047305,0.0333356071332957,0.00739479402178524,2.31399778618806,-0.000207124131885204,0
0.18,0.0005924780511404,0.000341891635615318,-0.0295471875091426,-0.0171111341399991,-0.000667585618181396,-0.000149162910886747,0.0333339953170194,0.00739404878685569,2.31399829135983,-0.00023088789759767,0
0.19,0.000592594175380796,0.000341890905223116,-0.0295473131680944,-0.0171110946154107,-0.000667670573951581,-0.000149242260934003,0.033334058472541,0.00739417474368864,2.31399864618153,-0.000248210186489494,0
0.2,0.000592678576485812,0.000341890879141198,-0.0295475199976109,-0.0171110915545989,-0.000667732664308145,-0.000149299555528928,0.0333342068590506,0.00739432520769169,2.31399889395315,-0.000260372190935388,0
0.21,0.000592737890092195,0.00034189089646874,-0.0295476641384166,-0.017111091472547,-0.000667776323140891,-0.000149339792726447,0.0333343116569144,0.00739442856333351,2.31399906682099,-0.000268864404086337,0
0.22,0.000592779333948294,0.000341890911165543,-0.0295477491206336,-0.0171110928945139,-0.000667806830399874,-0.000149367905404949,0.0333343743002186,0.00739448903938028,2.31399918741325,-0.000274789276335272,0
0.23,0.000592808204948064,0.000341890921609064,-0.0295477877437481,-0.0171110928956548,-0.000667828082764591,-0.000149387489447447,0.0333344021173365,0.00739451797705795,2.31399927153656,-0.00027892244621478,0
0.24,0.00059282834479871,0.000341890928908214,-0.0295477960968952,-0.0171110929206693,-0.000667842908010299,-0.000149401150888631,0.0333344078507919,0.00739452556696745,2.31399933021987,-0.000281805677030478,0
0.25,0.000592842372844969,0.000341890934000969,-0.0295477822340986,-0.0171110929623847,-0.000667853234260953,-0.000149410666552603,0.0333343973690662,0.00739451752058763,2.31399937115637,-0.000283816965416749,0
0.26,0.000599244070693127,0.000345255353032216,-0.0298113364753038,-0.0172794891511892,-0.000674843332411808,-0.000151265302556783,0.033642397078021,0.00744886881443118,2.31399961864372,-0.000419827733706413,0
0.27,0.000581932685395982,0.000335505167561846,-0.0291015039128049,-0.0167914986108926,-0.000655499545826581,-0.00014673006922246,0.0327895517783382,0.00732784072986601,2.31399871318467,-4.20190612712356e-05,0
0.28,0.0005815927304818,0.000335099934821285,-0.0286877595993194,-0.0167712172599764,-0.000654975018479254,-0.000146798486486088,0.0324711854439402,0.0070628177857649,2.31399882379776,-4.00438872804729e-05,0
0.29,0.000591729415061316,0.000341391959514099,-0.0294992509514347,-0.0170861184203365,-0.000666696105418485,-0.000149025077384671,0.0332817634606204,0.00738007251460269,2.31399951526989,-0.000268106101823653,0
0.3,0.000586289501246593,0.000338784849327004,-0.0292364409953882,-0.0169556493774397,-0.000660926164007692,-0.000147265607443074,0.0329999532476954,0.00729839801171491,2.314002267766,-0.000278166275062083,0
0.31,0.000592869147414413,0.000341662971111607,-0.0295173253750698,-0.0170996836699461,-0.000667718340150355,-0.000149598228637768,0.0333042341031381,0.00738238916024725,2.31400175968217,-0.000385621382440152,0
0.32,0.000593352922756078,0.000341874376694979,-0.0295460613535632,-0.0171102681463931,-0.000668217692053425,-0.000149769477566543,0.0333325593698885,0.00739401808239972,2.31400110157032,-0.000367201789166342,0
0.33,0.000593258918225947,0.000341889855696874,-0.0295485202071555,-0.0171110454938005,-0.000668159023540873,-0.000149694143986857,0.0333348994571467,0.00739509313704084,2.31400061057132,-0.000344539937039621,0
0.34,0.000593148032693572,0.000341890954577716,-0.0295483722624684,-0.0171111026224323,-0.000668078173368124,-0.000149618073037409,0.0333348317386397,0.00739493943676371,2.31400026470635,-0.000327700286144338,0
0.35,0.000593065901688875,0.000341891008436935,-0.0295480556984472,-0.0171111072902761,-0.000668017772529638,-0.000149562297991851,0.0333346035963775,0.00739471374227943,2.3140000230853,-0.000315844902624339,0
0.36,0.000593008159689333,0.000341890993635137,-0.0295477984393259,-0.0171111075267611,-0.000667975272024192,-0.000149523125138413,0.033334415581956,0.00739453387394074,2.31399985449802,-0.000307563423760402,0
0.37,0.000592967763572719,0.000341890979460283,-0.029547594998655,-0.0171111077162704,-0.000667945536165036,-0.000149495722982119,0.033334266785501,0.00739439215591096,2.31399973689135,-0.000301785223845155,0
0.38,0.000592939591064878,0.000341890969288772,-0.0295474348385398,-0.017111107872661,-0.000667924797994225,-0.000149476612745188,0.0333341495713004,0.00739428093365193,2.31399965485069,-0.000297754334930031,0
0.39,0.000592919916875518,0.000341890962172315,-0.0295473034161097,-0.0171111080059978,-0.000667910315532402,-0.000149463267220378,0.0333340533177235,0.00739419000078686,2.31399959762091,-0.000294942449712397,0
0.4,0.000592906401271878,0.00034189095720669,-0.0295472035265761,-0.0171110939852493,-0.000667900366534541,-0.00014945409887956,0.0333339705766299,0.00739413140330345,2.31399955769829,-0.000292980930288658,0
0.41,0.000592896855215503,0.000341890953742352,-0.0295471093199443,-0.0171110940913865,-0.000667893339544472,-0.000149447623492049,0.03333390148956,0.0073940666519398,2.31399952984967,-0.00029161261122657,0
0.42,0.000592890161334507,0.00034189095132566,-0.029547023230221,-0.0171110941897283,-0.000667888412075071,-0.000149443082882621,0.0333338383114596,0.00739400767936057,2.31399951042299,-0.000290658097668251,0
0.43,0.000592885504721641,0.000341890949639916,-0.0295469451800422,-0.0171110942825052,-0.000667884984272652,-0.000149439924176364,0.0333337810057068,0.00739395434667961,2.31399949687147,-0.000289992247031081,0
0.44,0.000592882245092635,0.000341890948463984,-0.029546871521103,-0.017111094371464,-0.000667882584808729,-0.000149437713101133,0.0333337269003561,0.00739390412476324,2.31399948741851,-0.000289527762199099,0
0.45,0.000592880033201524,0.000341890947643585,-0.0295468045681851,-0.0171110944575577,-0.000667880956612714,-0.000149436212625169,0.0333336777096053,0.00739385853787765,2.31399948082427,-0.000289203746352171,0
0.46,0.000592878403387021,0.000341890947071523,-0.0295467349089901,-0.017111094542059,-0.000667879756872559,-0.000149435107160456,0.0333336265103851,0.0073938111874438,2.31399947622442,-0.000288977719014539,0
0.47,0.000592877355649126,0.000341890946672274,-0.0295466721050114,-0.0171110946249692,-0.000667878985627256,-0.000149434396359981,0.0333335803473283,0.00739376852314954,2.31399947301616,-0.000288820046610075,0
0.48,0.000592876540741874,0.000341890946393876,-0.0295466054415915,-0.0171110947072435,-0.000667878385753101,-0.000149433843663285,0.0333335313349425,0.00739372328017146,2.31399947077804,-0.000288710057318316,0
0.49,0.000592876016872927,0.000341890946199703,-0.029546542524578,-0.0171110947887228,-0.000667878000127678,-0.000149433488287895,0.033333485075509,0.0073936805953579,2.31399946921712,-0.000288633330860514,0
0.5,0.000592875609419301,0.000341890946064122,-0.0295464778744242,-0.0171110948698842,-0.000667877700188531,-0.00014943321195707,0.0333334375362501,0.00739363675378556,2.31399946812828,-0.000288579807930584,0
0.51,3.5588833303443,-0.0108743361892239,5.39260126183224,0.56525198349233,-2.07978021515934,2.88795482423494,-2.67829411806677,4.71448817912248,0.621070753718605,184.140756211668,716.407022722197
0.52,2.53125047131334,0.0190386008803778,4.63536424188635,-0.927256585078658,-1.34937179763634,-2.14167858666775,-1.65318604610647,-4.4286998460597,2.58688898838501,346.851717808813,716.407022722197
0.53,1.77955447097197,0.0469519081284705,4.8613322366366,-2.32324737813751,1.18639557436554,1.32720915381077,1.37077982662016,5.21066139390349,-0.70305812186479,460.126028506967,716.407022722197
0.54,1.23264659180622,0.0282460933615256,5.83673945811526,-1.40068656593212,-0.222664201373016,-1.21269786653915,0.460815109406234,-5.98473890765882,2.98291561490327,541.55659699927,716.407022722197
0.55,0.837885184742124,0.0285738653453099,7.3792445600719,-1.42579076771955,-0.628940201987865,0.554348510338559,-6.60469187391956,3.58666625729882,0.882441625886954,597.789849277852,716.407022722197
0.56,0.596518666219073,-0.029131946125162,6.60267715987279,1.46959634004178,0.436186143391269,0.407952004218967,5.98680938197381,3.14851909698518,-0.867630830382352,637.192171167266,716.407022722197
0.57,0.428781223469545,0.0133743548627519,5.71937574514113,-0.650441600002873,0.289447224796977,-0.316626775597647,4.45485664862812,-3.64535120794922,-2.36982828196814,665.319493567287,716.407022722197
0.58,0.263494439068266,-0.0296556194892054,7.39123948430845,1.50073402179897,-0.113749088994244,-0.239520186915776,-5.17268588388556,-5.48871063777607,2.58614687718264,685.352601255743,716.407022722197
0.59,0.189479611117108,0.0010443816905959,6.55251410237916,-0.0370915774395725,-0.185863541008097,0.0368559070725092,-6.44130804350069,1.20265021337381,1.38055201447103,698.993187593322,716.407022722197
0.6,0.155642246146046,0.0438527402744213,5.07460512875239,-2.18026561775322,0.00266913325176951,0.161680077135826,-3.40342640760673,4.34992690337689,0.258126704458623,708.743335457823,716.407022722197
0.61,0.0685672127116403,-0.0171331606285623,7.17225423683047,0.870440879271184,0.0375247538014121,0.0598907397208521,5.77144943361976,4.34617873507397,-0.80457570265915,715.409191458807,716.407022722197
0.62,0.0537912385819574,0.0281841774022818,6.24812729983662,-1.39822538408543,0.0449746692085862,-0.0408059350291425,6.39895328408508,-0.218004237943309,-1.82500778048098,720.157228255133,716.407022722197
0.63,0.071823139887571,-0.00236832037274356,4.19695462459481,0.131053543481187,0.0251636305024311,-0.0673124361811,1.21506748474312,-4.0193549432324,-2.81680762418792,723.641771038277,716.407022722197
0.64,0.0510706396474178,0.000884315097592479,4.41689183213013,-0.0393925325718076,-0.0314479391851075,-0.0402494641976513,-2.62727520043871,-3.55076192520986,2.49565647686985,725.912507911665,716.407022722197
0.65,0.0153501110992152,0.0168877167496715,5.56389926968195,-0.85122915373634,-0.0148342978475935,0.0173425631076916,-5.58702140808094,-0.683196853756913,1.54066077331447,727.526483062038,716.407022722197
0.66,0.000289332859391907,-0.0498782762988783,5.80241757655181,2.48395459355672,-0.0414603089405986,-0.027730289262842,-1.19711914598682,6.19717563942162,0.595306027938344,728.988505840471,716.407022722197
0.67,0.0190107439716822,0.0111408213417365,4.54517135894205,-0.570182063467321,0.0168563957244475,0.014191131375129,0.982467479088366,4.47419801977748,-0.340950529376759,729.677771538191,716.407022722197
0.68,0.00270811528798465,0.00797656173271122,5.1992624967363,-0.41215120992276,0.00492154688047782,-0.00683650508608223,4.85167822672131,1.91400562020276,-1.27414266247693,729.884214343784,716.407022722197
0.69,-0.012863678939841,0.00298393694298782,5.84341855310932,-0.162151708354511,-0.0121274738870766,0.00522517872089671,4.80137605764703,-3.33445970381985,-2.20555032672846,730.001631757546,716.407022722197
0.7,0.0131616108225122,0.00614712676128136,4.49499251770086,-0.31913442858713,-0.00608911330743982,-0.0131885505644741,0.338923910103615,-4.49354371302388,-3.1371893894689,730.008482673001,716.407022722197
0.71,-0.0185223552995023,-0.0358340596233632,6.01801705850836,1.78252838275988,0.0363348116554222,-0.017519672853588,-5.88187349117034,-2.19031983639601,2.21523784000293,729.914450710938,716.407022722197
0.72,0.0136530833146733,-0.00333615284735479,4.3825018929256,0.157991521114206,-0.0140383027058107,0.000680188913724162,-4.1570306694597,1.39656012237638,1.28272632432371,729.849287876537,716.407022722197
0.73,0.00332890679382595,-0.0247937168260348,4.81285443325269,1.23330823491456,-0.0244287629515561,-0.00538939283669874,-0.494769207151536,4.9436646760923,0.350604407216457,729.97137451572,716.407022722197
0.74,0.00842742646975642,-0.0380848200793778,4.51516426095064,1.90037467874062,-0.0271822853821167,0.0279749602106401,4.06946494413132,2.72719403260031,-0.581997034211842,729.845662037179,716.407022722197
0.75,0.0129377898890587,-0.0320295590734486,4.2346233304775,1.59925106934298,0.0111361011872014,0.0326996377961802,4.31702588937743,-1.36122231992574,-1.51514219475816,729.827554458797,716.407022722197
0.76,-0.00432336642504299,-0.0313913192962231,5.15207076455222,1.56883351526638,0.0214288001861547,0.0233433705146552,2.07584467082944,-4.9695010478081,-2.4503219050385,729.407385358462,716.407022722197
0.77,0.0149406240886441,-0.027664860014091,4.15917007351623,1.38467893970903,0.0231968278638324,-0.0212243705398571,-2.35528946486261,-3.69711279287147,2.89574688736646,729.335231574475,716.407022722197
0.78,0.0327460775714688,-0.0184792680396089,3.27613754534137,0.92721557213145,-0.0233441867581672,-0.0294760561845742,-3.38371922549487,-0.378483997303508,1.95799557505058,729.120353654968,716.407022722197
0.79,0.0058489166339466,-0.0261382758376229,4.60465093907091,1.3118303242643,-0.0186854831202457,-0.0191904145374072,-3.2331054354478,3.53139325389057,1.01887033077282,728.970914521995,716.407022722197
0.8,-0.0174469248739506,-0.00328021300525166,5.7422241556751,0.169007199048851,-0.00189803424286923,-0.017650848447879,-0.283082770425867,5.7377317672088,0.0787209431973261,728.743124558116,716.407022722197
0.81,0.0118690122557582,0.00907287031010606,4.26362348939124,-0.447045184803894,0.0149166186674992,0.000827595988243606,2.94792468024282,3.11256722596643,-0.862707591626844,728.641220723439,716.407022722197
0.82,0.00048266161032904,0.00373750368548873,4.88734528280756,-0.178838212317641,-0.00040235662136664,-0.00374699949004129,4.79426817846053,-0.965981186445697,-1.80619675671644,728.329342089909,716.407022722197
0.83,-0.033235623245619,0.0150707896966882,6.47779537577807,-0.745614662746323,-0.0266049239766537,0.0249782580418053,3.15926075147962,-5.70410778824476,-2.75039177148487,728.35361781324,716.407022722197
0.84,-0.0459580402028325,-0.0145470573615585,7.12577416995093,0.737552618720659,0.0365461524688319,0.0314346477137971,-4.37546600785501,-5.6723838551906,2.58769658320222,728.210433527597,716.407022722197
0.85,-0.0129632862690101,0.0262875468124125,5.51609051352702,-1.3048399385561,0.0110815020718098,0.0271345208201575,-5.41060720112982,-1.68973120162825,1.64121690614955,727.910339576083,716.407022722197
0.86,-0.0136654443956152,-0.0412443019151841,5.52415520781903,2.07569544849218,-0.0229889319111173,-0.0368693072973513,-1.93393805789742,5.57536419825478,0.693312632648867,727.781185344166,716.407022722197
0.87,-0.0487472580174573,0.0224911689082633,7.28603054208371,-1.11509178334815,0.00942326297952209,-0.052852151875769,0.764985945426702,7.3310618090947,-0.255839075658447,727.498511547734,716.407022722197
0.88,-0.0233233776547568,0.00492760812731065,6.07836060201931,-0.235695644751479,-0.0200518135493628,-0.0128913164752223,5.59820570454727,2.37951947558951,-1.20763977532018,727.16104404992,716.407022722197
0.89,-0.0241898741726217,0.0136537241961486,6.14057238988942,-0.674370872644122,-0.0276961592475366,0.00212060365152388,5.47684718812449,-2.85754269036806,-2.16107561771863,726.922463667841,716.407022722197
0.9,-0.0387565297983319,0.0130252929124932,6.86612371738546,-0.653248842494885,-0.0139967759290681,0.0384163652764898,0.825881426170335,-6.84750383881388,-3.11641718999535,726.792930106761,716.407022722197
0.91,0.0238694161496244,0.00607109989592244,3.77298435369562,-0.313743427902045,-0.0227769720830429,-0.00937106311997229,-2.84047227406524,-2.5031106911302,2.21017984002236,726.715608561079,716.407022722197
0.92,-0.0224457101678674,-0.0184758279650372,6.02137000299997,0.911722445535708,0.0155639409932891,-0.0245546302088012,-5.43668850264173,2.74418524446961,1.25362647882465,726.542339892616,716.407022722197
0.93,0.0328572386156651,0.00382833563527022,3.30262065659921,-0.203704491661213,-0.00590797155877753,0.0325476597506443,-1.15682503708941,3.10008944304545,0.295553703735863,726.194009126208,716.407022722197
0.94,-0.0188686449495276,0.00392506033398893,5.91140918054674,-0.209589943849491,-0.00692826619115936,0.0179841871776632,1.16393195559067,-5.79947832543325,-2.97896828913066,726.057189950584,716.407022722197
0.95,-0.043274543858739,-0.0470094950521093,7.16634166313486,2.33963731280452,0.0638001111847698,-0.00348203734144672,-6.76613329910946,-3.3241233080215,2.3430166130968,725.779275493934,716.407022722197
0.96,-0.0222852937122483,0.027725457664238,6.15318549054447,-1.39990894975401,0.0271483088963731,0.0229848785639545,-6.30709236172,-0.204994364267806,1.3795852309988,725.475794062325,716.407022722197
