t,iq,id,vq,vd,ia,ib,va,vb,theta_e,omega,r
0,0,0,0,0,0,0,0,0,0,0,0
0.01,0.000786688997663944,0.000444457091708052,-0.0379124447445624,-0.0222556425896723,-0.000391016425217125,-0.000814572182575308,0.0196783470140026,0.0393119543190774,-3.07486919947058,-0.00483834659044502,0
0.02,0.000868791217721582,0.000491656189484139,-0.0421465165919366,-0.0246190866053923,-0.000432668014524749,-0.000899623464486907,0.0217557642826018,0.0436934206328374,-3.07490432278332,-0.00496242545709328,0
0.03,0.000897487624484751,0.000508336801363436,-0.0436029048592554,-0.0254543282401782,-0.000447431227161154,-0.000929352267272617,0.0224936524355008,0.0452014572600807,-3.07493872971867,-0.00474308923371331,0
0.04,0.000878951615452211,0.000498800242274833,-0.042814499715175,-0.0249768061232571,-0.000439178121803393,-0.000910208877856466,0.0220710524610971,0.0443823261359631,-3.07496915571521,-0.0042597745227696,0
0.05,0.000895302190261585,0.000508483325062194,-0.0436715872337712,-0.0254616682429046,-0.00044777811650741,-0.000927154821014577,0.0224990934026251,0.0452691382432732,-3.07499819151346,-0.00402284514469969,0
0.06,0.000894600673352474,0.000508691559960924,-0.0437158291052153,-0.0254721096002096,-0.000448057373552332,-0.000926456722110409,0.0225077805613384,0.045313374361706,-3.07502496118154,-0.00370045285908915,0
0.07,0.000918883085478549,0.000522991732500691,-0.0449338932884246,-0.0261881635991994,-0.00046073368098823,-0.000951625426439253,0.0231423523280817,0.046575811399018,-3.07504916980825,-0.00357309115276437,0
0.08,0.000893248911639868,0.000509002333501726,-0.0437875369660385,-0.0254876626783365,-0.000448500800214595,-0.000925107575292127,0.0225206596412884,0.0453849009217614,-3.07507190028065,-0.00313435146162546,0
0.09,0.000891796299043462,0.000508690876341112,-0.0437781294403531,-0.0254720652560497,-0.000448305526334879,-0.000923628281137987,0.0225066523361752,0.0453740159818734,-3.07509240279723,-0.00288140333411168,0
0.1,0.000890995558478529,0.000508680656435487,-0.0437944705872604,-0.0254715599241017,-0.000448365841135517,-0.000922820225159237,0.022505913243822,0.0453898654772965,-3.07511115165855,-0.00265356700718247,0
0.11,0.000890275726895155,0.000508677349648588,-0.0438100149267482,-0.0254713835099688,-0.000448426177194999,-0.000922094073048129,0.0225054833331872,0.045404977763825,-3.07512830309158,-0.00244522609425171,0
0.12,0.000889617284201704,0.000508674456483868,-0.0438242331418524,-0.0254712583229217,-0.000448481478697699,-0.00092142985533067,0.0225051267492111,0.0454188031659398,-3.07514399334914,-0.00225463627661587,0
0.13,0.000932219362299379,0.000533036610153787,-0.0458832340834599,-0.026691157890938,-0.00046997602091524,-0.000965548293445118,0.0235863518293667,0.0475538966531439,-3.07515944733206,-0.00235191520953138,0
0.14,0.000985828841334713,0.000564497948685298,-0.0487286209870446,-0.0282665478330263,-0.000497823392379897,-0.00102112110372699,0.0249700828489169,0.0504972394514199,-3.0751734154331,-0.00253936628164045,0
0.15,0.000890176765916177,0.000509894922709434,-0.0439732872711628,-0.0255323612864638,-0.000449701215792281,-0.000922050065504465,0.0225581308311719,0.0455706286954487,-3.07518641335499,-0.00175477236690326,0
0.16,0.000887442133529559,0.000508691676000024,-0.0438750905023778,-0.0254721051829345,-0.000448691982102569,-0.000919236784942855,0.0225050131981507,0.0454684076034491,-3.07519718067768,-0.00160893786649128,0
0.17,0.000886975171849246,0.000508663435290564,-0.0438813851732615,-0.0254706982679556,-0.000448703810090384,-0.000918764570871651,0.0225036384512827,0.0454743740081743,-3.07520700374241,-0.00148925580998712,0
0.18,0.000886596920568627,0.000508661196060642,-0.0438894511754825,-0.0254705832362614,-0.00044873492001987,-0.000918382972127846,0.0225033972837607,0.0454822124084748,-3.0752159893093,-0.00138009929353308,0
0.19,0.000886252080526514,0.000508659666437639,-0.0438968818370639,-0.02547049724452,-0.000448763812601644,-0.000918035101179286,0.0225031925471137,0.0454894360273655,-3.07522420935846,-0.00128024999129746,0
0.2,0.000885936625267534,0.000508658278305536,-0.0439036754779454,-0.0254704352295512,-0.00044879024945956,-0.000917716873588584,0.0225030222362994,0.0454960413826096,-3.07523172912105,-0.0011889072795099,0
0.21,0.000885648003738403,0.000508657008479822,-0.0439098839147546,-0.0254703731479434,-0.000448814432672219,-0.00091742571569941,0.0225028616115474,0.0455020772382344,-3.07523860825664,-0.00110534627646311,0
0.22,0.000885384004043077,0.000508655846668984,-0.0439155608799165,-0.0254703080928645,-0.000448836549785161,-0.000917159395384927,0.0225027066700005,0.0455075957864949,-3.07524490134169,-0.00102890403560685,0
0.23,0.000885142346007183,0.000508654783693378,-0.0439207424445731,-0.0254702669922425,-0.000448856789510897,-0.000916915614535616,0.0225025841416849,0.0455126336799469,-3.07525065830368,-0.000958974092648219,0
0.24,0.000884921536398034,0.000508653811156253,-0.0439254913484345,-0.025470204727219,-0.000448875285100116,-0.000916692862201472,0.0225024469103808,0.0455172495005282,-3.07525592481566,-0.000895001649472541,0
0.25,0.000884719459564359,0.000508652921372416,-0.0439298274853858,-0.0254701605928154,-0.000448892208067012,-0.000916489008166092,0.0225023347544458,0.0455214647624439,-3.07526074266053,-0.000836479172495299,0
0.26,0.000893431164767023,0.000513621054284239,-0.0443541957298314,-0.0257189335306144,-0.000453275971657734,-0.00092550890168531,0.0227226305645834,0.0459612911156531,-3.07526506110057,-0.00084262248352661,0
0.27,0.000861114626282494,0.000495356847798177,-0.0428389037241099,-0.024804394729116,-0.000437197780724155,-0.000892050955264361,0.0219107311641824,0.0443886193749285,-3.0752694869368,-0.000577135999626116,0
0.28,0.000854748056318186,0.000491520940357261,-0.0422984068732049,-0.0246123102351328,-0.000433795574004502,-0.000885442530356153,0.021755054814256,0.043836498824043,-3.07527324280156,-0.000490598616596912,0
0.29,0.000883362374140581,0.000508273189763565,-0.0439102944437902,-0.0254511647733648,-0.000448617443038817,-0.000915102786183621,0.0224853804471535,0.0455003671700359,-3.07527623749519,-0.000643604951179061,0
0.3,0.000879941705989547,0.00050649127207421,-0.0437530306728046,-0.0253619288459179,-0.00044706753171324,-0.000911570862146754,0.0224068322893088,0.0453375009743542,-3.0752777834693,-0.000602712752015836,0
0.31,0.000883784837245028,0.000508601747050768,-0.0439431118362901,-0.0254676160597795,-0.000448921359916366,-0.000915544094109156,0.0224998236273197,0.0455341024108804,-3.07528069113655,-0.00059352159990485,0
0.32,0.000883766642683537,0.000508647691199337,-0.0439500341838895,-0.0254698993586778,-0.000448970886860272,-0.000915527768685608,0.0225017664799147,0.0455410999360975,-3.07528339792304,-0.000561269369874848,0
0.33,0.000883664964074534,0.00050864825522936,-0.0439523444925079,-0.0254699283173906,-0.000448980454739868,-0.000915425238641748,0.0225017551175747,0.0455433513425374,-3.07528587523579,-0.000531192426483941,0
0.34,0.000883569979254477,0.000508647858893707,-0.0439543608886572,-0.025469907775618,-0.000448988427202451,-0.000915329418753259,0.0225017042371429,0.0455453109513257,-3.07528814152673,-0.000503664071425971,0
0.35,0.000883483027091399,0.000508647476232842,-0.0439561983408691,-0.0254698872005162,-0.000448995703978657,-0.000915241701434835,0.0225016563943531,0.0455470963520103,-3.07529021474731,-0.000478480593545189,0
0.36,0.000883403166180981,0.000508647125715047,-0.0439578591314133,-0.0254698876568483,-0.00044900238101892,-0.000915161141196512,0.0225016332035024,0.0455487108472313,-3.07529211134507,-0.000455442548983299,0
0.37,0.000883330416686912,0.000508646805036027,-0.0439593895536765,-0.0254698670205346,-0.0004490084685401,-0.000915087751254985,0.0225015902496332,0.045550197499168,-3.07529384636664,-0.00043436717083478,0
0.38,0.00088326395362,0.000508646511665408,-0.0439607897355361,-0.0254698463577425,-0.000449014031339852,-0.000915020702090262,0.0225015491697865,0.0455515575213264,-3.07529543357729,-0.000415087255004381,0
0.39,0.000883202951991639,0.00050864624327884,-0.0439620562599588,-0.0254698467280614,-0.000449019133333337,-0.000914959164722121,0.0225015317760577,0.0455527886159101,-3.07529688556949,-0.000397449841729994,0
0.4,0.000883147315549415,0.000508645997749107,-0.0439632190110187,-0.0254698260181223,-0.000449023789362211,-0.000914903037799702,0.0225014945915706,0.0455539175521682,-3.07529821386266,-0.000381315002255741,0
0.41,0.000883096393921911,0.00050864577313038,-0.0439642771336356,-0.0254698023777562,-0.000449028050251351,-0.000914851667522531,0.0225014562621492,0.0455549444421531,-3.0752994289947,-0.000366554728700441,0
0.42,0.000883049653170413,0.00050864556764223,-0.0439652329698352,-0.0254698026823944,-0.000449031958448598,-0.000914804516680088,0.0225014438875286,0.045555873186104,-3.07530054060675,-0.000353051918474354,0
0.43,0.000883007113451416,0.000508645379655655,-0.043966114044397,-0.0254697819154643,-0.000449035519088861,-0.00091476160131886,0.0225014111278279,0.0455567280677914,-3.07530155751749,-0.000340699445244916,0
0.44,0.000882967997903465,0.000508645207680753,-0.0439669057587366,-0.0254697821843726,-0.000449038789550685,-0.000914722142564126,0.0225014013320688,0.0455574971284659,-3.07530248779453,-0.000329399309025867,0
0.45,0.000882932258399831,0.000508645050353336,-0.0439676278490963,-0.0254697824369916,-0.000449041778431986,-0.000914686088991525,0.0225013925228404,0.0455581985003509,-3.07530333881893,-0.000319061858691005,0
0.46,0.00088289967219061,0.000508644906426726,-0.0439682895601896,-0.0254697616254538,-0.000449044505436485,-0.000914653215227193,0.0225013633933911,0.0455588398617071,-3.07530411734247,-0.000309605080704064,0
0.47,0.000882869753453041,0.000508644774759316,-0.0439688852328906,-0.0254697618506345,-0.000449047007268797,-0.000914623033667492,0.0225013566080781,0.0455594182156362,-3.07530482954109,-0.000300953948462377,0
0.48,0.00088284233764488,0.000508644654307258,-0.0439694235681795,-0.0254697620636538,-0.000449049298966375,-0.00091459537752573,0.0225013508451082,0.0455599407225522,-3.07530548106565,-0.000293039827058724,0
0.49,0.000882817493054329,0.000508644544115389,-0.0439699234769859,-0.0254697412173589,-0.000449051379789665,-0.000914570312556711,0.022501324086196,0.0455604247414267,-3.07530607708458,-0.000285799928763829,0
0.5,0.000882794617443699,0.000508644443309861,-0.0439703691170082,-0.0254697414087224,-0.000449053293091483,-0.000914547235664326,0.0225013196005429,0.0455608571467588,-3.07530662232726,-0.000279176814882791,0
0.51,0.61313163018931,-0.0453443746385925,-0.451069361035246,2.27092672761469,-0.0733558690328744,0.61041414197936,2.28918996825308,-0.34667140047741,0.0457794105612091,13.9336182258341,118.706008392093
0.52,0.561828033031004,0.0528926497083491,-1.46907672372256,-2.64822863150914,-0.059265412921708,0.561191573283025,-2.30538053974966,-1.96380291064855,0.199083569295749,27.619038118423,118.706008392093
0.53,0.454589536029657,-0.0337598607471985,0.750487593334906,1.69118680206062,-0.226782776488398,0.395425020393933,1.20119349084381,1.40729478957612,0.446590267435936,39.5681388482592,118.706008392093
0.54,0.427178267411027,-0.0650985939919721,-0.663308470620734,3.26082836788506,-0.345737837575452,0.259199627230961,2.79145429321491,1.8112875809471,0.776258713975928,50.2079610067012,118.706008392093
0.55,0.355834033225007,-0.0439551184151997,0.333437987151135,2.20238981848886,-0.345853533164696,0.0945264261123108,0.528278426905058,2.16393708492773,1.18109433727091,59.9826213296483,118.706008392093
0.56,0.287640957592393,-0.00273479000968008,1.44204478431425,0.138459831726562,-0.286441570839753,-0.0263823057354836,-1.44854695214667,0.0193910390714019,1.65313345908832,68.6905555218625,118.706008392093
0.57,0.252792803786286,0.00192950981433887,1.12970231481637,-0.0949995571709555,-0.20764032433463,-0.144199238432334,-0.868166120781302,-0.729067776473277,2.1854314588284,76.448481965801,118.706008392093
0.58,0.213871490259552,0.00363315234485974,1.2279632457651,-0.182538471026759,-0.0807106613045321,-0.198090896543955,-0.27376791776089,-1.21089436102396,2.77167270558327,83.3538025687068,118.706008392093
0.59,0.164944618037124,0.0243843899289227,2.13170260845386,-1.22190012034994,0.0192884333504533,-0.16561787895787,1.73357974096757,-1.74123438879061,-2.87888075080568,89.0742722733822,118.706008392093
0.6,0.170323093599382,-0.0124487656420305,0.601353623719183,0.622954074340116,0.144304267415755,-0.0913302052164361,0.112705206002204,-0.858484418051454,-2.20801594290854,93.8344495062848,118.706008392093
0.61,0.101099794389865,0.00738175069717668,2.95554043546971,-0.369624685273571,0.101366577852716,-0.000689611091558569,2.92468177485835,0.563984210303356,-1.50471420107439,97.9657412167154,118.706008392093
0.62,0.152182850061721,0.0599966986715588,-0.524939115659476,-3.00349685457963,0.149266399288006,0.0669235814043715,-2.51516788467305,1.72350948431634,-0.773783668889133,101.42359028205,118.706008392093
0.63,0.113041785601189,-0.0277930907461135,0.637502584486973,1.39332531443606,-0.0256098923891777,0.113556305844024,1.40534977906906,0.61053826706149,-0.0192687484134405,104.375144494813,118.706008392093
0.64,0.075176324249911,-0.00466740660422956,1.76804262610321,0.235457067964619,-0.0549905864158713,0.0514713494846944,-1.04222238499414,1.44747616864305,0.756435889726714,107.199222289337,118.706008392093
0.65,0.0903809338876898,-0.01529425301253,0.323645506987571,0.764696207756782,-0.0906572614352172,-0.0135605433036041,-0.30894128826621,0.77075416622634,1.55164394063931,109.775462429281,118.706008392093
0.66,0.108272670073462,0.0390031397995636,-1.14042382548027,-1.95416502969069,-0.103760665693196,-0.0497789137483531,2.19255722128139,-0.558587769644031,2.36387081292928,111.821693254243,118.706008392093
0.67,0.0831775448530045,-0.0507633528245514,-0.370106686952557,2.54166457936417,0.0547621124304885,-0.0806010731933143,-2.55669810841831,0.245626904331875,-3.09277107537706,113.53855797976,118.706008392093
0.68,0.0810651185797757,0.0195032241167668,-0.681770157823193,-0.975973897834224,0.0505075462599314,-0.0663394073843204,0.0882740670636263,1.18724188202575,-2.2547666047832,115.055472954228,118.706008392093
0.69,0.0240903711586228,-0.0248328883033878,1.81161714651278,1.24494898473995,0.0197030321610375,0.0284395648298258,1.9908858155895,-0.931787706201722,-1.40645398076101,116.322232700178,118.706008392093
0.7,0.103441899098668,0.0406165536306137,-2.52018962266706,-2.03185228368793,0.0885976781615268,0.0670848890761104,-3.04790418857009,-1.09089848025538,-0.548557325803497,117.694455123065,118.706008392093
0.71,0.0689787154296362,0.0195670244829849,-1.11530862195204,-0.981179837358907,-0.00301183305393595,0.071637005039963,-0.582685206401474,-1.36642055959396,0.318424622403324,118.761988619878,118.706008392093
0.72,0.0573198966486538,-0.0701553424192683,-0.809329985822881,3.51200682754273,-0.0791651135572932,-0.0440480126366447,2.04834724231874,2.96538033944113,1.19279546738519,119.757889390293,118.706008392093
0.73,0.0351812172322671,0.0326219789577166,0.0739872248960197,-1.6339001676424,-0.046549744802972,0.0116203621217179,0.722863495438103,-1.46716469226624,2.07383388484672,120.47342866092,118.706008392093
0.74,0.0671343939882458,-0.0456668312678081,-1.7183973441846,2.28776897585843,0.0327540565124777,-0.0742944016476941,-1.93874898488446,2.1042881677685,2.95949292875227,121.186508823115,118.706008392093
0.75,0.026657924661118,0.0738961804380843,0.169454211319897,-3.69883161234317,-0.0388183322456188,-0.0682966142077666,2.92067228854053,2.27590496487763,-2.43385809970437,121.590087872982,118.706008392093
0.76,0.00904874037117353,0.0705515337137077,0.948646354527188,-3.53133659649469,0.0111278388518307,-0.0702536106840711,0.843969599859168,3.5578059781576,-1.54126690287405,121.936355795582,118.706008392093
0.77,-0.00908596346452173,0.00934691769195961,1.77126558510419,-0.46983154829662,0.00198938501541345,-0.0128826220032779,0.691715253845568,1.69695417273026,-0.646340525184863,122.157525799077,118.706008392093
0.78,-0.0106020289255474,0.0644362516098971,1.75331723554514,-3.22801614255531,0.0650527172292922,0.00570767202612996,-3.56197227684892,0.898088550209284,0.250589134366113,122.513519524525,118.706008392093
0.79,-0.0320807866059077,-0.00468646297813208,2.72339956774971,0.234393624739277,0.0273613570900355,-0.0173924104910951,-2.3895805703044,1.32730941191624,1.14962807208926,122.784257479064,118.706008392093
0.8,0.0400123522076694,-0.0237088591672015,-0.98263058174757,1.1884025486696,-0.0245259765669407,-0.0395167661333599,0.322178342714148,1.50800019673604,2.05121441248545,123.075426329719,118.706008392093
0.81,0.0284578566160118,-0.0363759550784775,-0.483639314514166,1.82329566565835,0.0304472458986983,-0.0347278696184074,-1.70150353057212,0.814370803997095,2.95448072217527,123.38372827673,118.706008392093
0.82,0.0424422259822593,0.000256827387203304,-1.21734219106578,-0.0139242718208572,0.027707487660565,-0.0321512617820144,-0.789773783314584,0.926484358574684,-2.42424508017483,123.37887678237,118.706008392093
0.83,-0.0618362672646516,-0.0439174721468624,3.94954634804204,2.19734420864196,-0.0640118399834846,0.0406811092636941,4.05726682450024,-1.99143763181132,-1.51937481879417,123.519198751221,118.706008392093
0.84,0.0282150891760959,0.0277393076073715,-0.629787843999244,-1.38974707296258,0.038923332930306,0.00710876904590229,-1.49896875647425,0.284819806845179,-0.61325676376517,123.723789797363,118.706008392093
0.85,0.0235694370511698,0.0201783207903042,-0.444058333953635,-1.00999702112798,0.0124790223977953,0.0284069884503937,-0.837892154669062,-0.717787241308389,0.294122341673233,123.83336110669,118.706008392093
0.86,-0.0540590504661954,0.0587512514751779,3.42902518760574,-2.94085080838247,0.0716094193177079,0.0353012967493679,-4.2588669210448,-1.50627678838546,1.20183622103654,123.804547128028,118.706008392093
0.87,-0.0317345661859537,0.017040308002746,2.29029493998785,-0.851818754311664,0.0184949493187444,0.0309094101777469,-1.52873566712093,-1.90630883185368,2.10960061189871,123.796848415223,118.706008392093
0.88,0.00215371825433395,0.0382496443417684,0.596665518001042,-1.91716345549709,-0.0382210009590542,0.00261321263558925,1.8282210116112,-0.830140583376291,3.01708028232633,123.753670088119,118.706008392093
0.89,-0.0147148216822664,-0.0109877157383411,1.40583086479631,0.548889473756454,-0.0025915286424518,0.0181807550333543,0.60260668862023,-1.38365647963819,-2.35861137862221,123.839750524737,118.706008392093
0.9,-0.00945163387368543,0.0267532427188962,1.11089418473494,-1.33985653499313,-0.00616678204807477,-0.0276954902110418,0.941758201103549,1.4636915367303,-1.45028386946398,123.904504888061,118.706008392093
0.91,-0.00194573703855607,0.0212281334654952,0.720983428711075,-1.06197306835206,0.0171780930000441,-0.0126227043035129,-0.53749109008848,1.16563597681976,-0.542308039548636,123.90741922756,118.706008392093
0.92,0.0181074648561898,-0.0211372570594528,-0.322551990065995,1.06025801706394,-0.026219532551284,0.00933809575382983,1.10545313571803,0.0784870293428864,0.366205025897852,123.925060128609,118.706008392093
0.93,-0.0729611410197616,-0.0201462864044332,4.2201489536414,1.00774065645826,0.0639191789881879,-0.0405405909215812,-3.74307830329072,2.19421130181981,1.27498504620345,123.936269819492,118.706008392093
0.94,-0.0272762957569029,0.00854463347339139,1.94159056207357,-0.429631607420134,0.0174079193954364,0.022670937645687,-1.34179728146822,-1.46762981854147,2.18318482913176,123.863352497968,118.706008392093
0.95,-0.0173096014328822,0.0417461968214638,1.41295399899881,-2.09132495975011,-0.0408207058491383,0.0193916792671434,2.01745171029598,-1.51656443555305,3.09116962423691,123.88553510263,118.706008392093
0.96,0.00140352570972945,0.0224327710213807,0.485491154494716,-1.12294378505513,-0.0136210861747342,-0.0178791809526061,1.1020278240728,0.531261781474933,-2.28431687699128,123.82155519846,118.706008392093
