t,iq,id,vq,vd,ia,ib,va,vb,theta_e,omega,r
0,0,0,0,0,0,0,0,0,0,0,0
0.01,0.000851670797431413,0.000474902002161045,-0.040218148355899,-0.0237697232885976,0.000974688250625452,-2.92894681878183e-05,-0.0466461657270456,0.00257573782800047,-1.09216867837681,-0.00457931449297581,0
0.02,0.000954752081769281,0.000532116801272815,-0.0455385803573772,-0.0266334238520778,0.00109253590324407,-3.26362982313546e-05,-0.0526875497761892,0.0026690196011489,-1.09220222530179,-0.00464465689768216,0
0.03,0.000993412556111604,0.00055495949338968,-0.0475630961013978,-0.0277767395744245,0.00113737126425966,-3.51447461210635e-05,-0.055011041943566,0.00275329555613417,-1.09223445745788,-0.00435387523613046,0
0.04,0.000967369510862821,0.000542562600277423,-0.0465704272419765,-0.0271562539927811,0.00110854412919063,-3.61643388403034e-05,-0.0538440817226497,0.00266114408953896,-1.09226232526307,-0.00375424574499627,0
0.05,0.000988126143023547,0.000555598998025094,-0.0477191105677278,-0.0278087673792256,0.00113297119118057,-3.82073433775039e-05,-0.0551641335044368,0.00271282716581592,-1.09228787999908,-0.00346576701804584,0
0.06,0.000986939582242746,0.000556408537322409,-0.047835965509431,-0.0278492671183763,0.00113228975332968,-3.94982772708704e-05,-0.0552864501442507,0.00269623917659893,-1.09231080807054,-0.00309094012962159,0
0.07,0.00100900796781698,0.000570342325962933,-0.0490031230948034,-0.0285466845279709,0.00115829448642023,-4.17292539049211e-05,-0.0566435882316783,0.00277906150058277,-1.09233076006365,-0.00290003687980065,0
0.08,0.000983986702387358,0.000557320820337895,-0.0479861246096419,-0.0278949427401714,0.00113008695322753,-4.17109746009998e-05,-0.0554406738766823,0.00266976883435314,-1.09234908801426,-0.00245945393081009,0
0.09,0.000980384858527454,0.000556502011900645,-0.0479389057961652,-0.0278539542602876,0.00112651189887977,-4.2660306628654e-05,-0.055379843866893,0.00265600266309195,-1.09236498086804,-0.00218336487031258,0
0.1,0.000978509001072295,0.000556447089922989,-0.0479573666921726,-0.027851198274435,0.00112482077057307,-4.34909548142953e-05,-0.0553949260007941,0.0026458342230649,-1.09237901210094,-0.00194725026623721,0
0.11,0.000976942280189745,0.000556440382062979,-0.0479779167927009,-0.0278508777880755,0.00112342631718108,-4.4220215712845e-05,-0.0554129885812717,0.00263677640794655,-1.09239141778455,-0.00173903034379386,0
0.12,0.000975563744868468,0.000556437066915192,-0.0479963996858196,-0.027850705527542,0.0011222005312502,-4.48642106889961e-05,-0.0554292882713359,0.00262872267764034,-1.09240238751678,-0.00155494993760439,0
0.13,0.00102072301525989,0.000582346788144026,-0.0501587779766173,-0.0291475235120397,0.00117421715989066,-4.70883951862552e-05,-0.0579458738962288,0.00278510922493959,-1.09241299754771,-0.00164914575028615,0
0.14,0.00105848685999752,0.000605100039779144,-0.0523038236246742,-0.030286385117943,0.00121821551162161,-4.99145086384558e-05,-0.06037435960964,0.00280923316925798,-1.09242245121388,-0.00171859383685101,0
0.15,0.000978005531573686,0.000559473668604411,-0.0483231465483213,-0.0280026854509761,0.00112576477404092,-4.64680447081963e-05,-0.0557892427854856,0.00261481819998755,-1.09243100932261,-0.00111001373141841,0
0.16,0.000971581856410766,0.000556617553298293,-0.0480752350780438,-0.0278597305917714,0.00111874711040374,-4.68967729129731e-05,-0.0555033366758279,0.00260239011390515,-1.09243748008468,-0.000968577280642547,0
0.17,0.000970476226578318,0.0005564373793818,-0.0480664410547803,-0.0278507230885769,0.0011176823809138,-4.72520784921312e-05,-0.0554913687408135,0.00259875499043834,-1.09244312441713,-0.000871541380071965,0
0.18,0.00096982195343199,0.000556424787343984,-0.0480735361112623,-0.0278500950225252,0.00111709551381719,-4.75476428328237e-05,-0.0554973653589012,0.00259520812752245,-1.09244810999524,-0.000787717064983572,0
0.19,0.000969266284981289,0.00055642283183572,-0.0480808571872552,-0.0278499904328853,0.00111660110467916,-4.78066106180795e-05,-0.0555038051221167,0.00259198995737355,-1.09245251815257,-0.000713734568203387,0
0.2,0.00096877630024845,0.000556421676626708,-0.0480873876706469,-0.0278499407274819,0.00111616539758339,-4.80354804354493e-05,-0.0555095696424702,0.00258915615965767,-1.09245641607986,-0.000648324735085963,0
0.21,0.000968343242617526,0.000556420690804585,-0.0480931672690369,-0.0278498966251682,0.00111578032617511,-4.82377901550698e-05,-0.0555146713246104,0.00258664796998005,-1.09245986285683,-0.000590486171266612,0
0.22,0.000967960418191488,0.000556419821138184,-0.0480982781295852,-0.027849849418212,0.00111543992137114,-4.84166330141707e-05,-0.0555191789456215,0.00258442273091558,-1.09246291070175,-0.000539341924581022,0
0.23,0.000967621948001944,0.00055641905211828,-0.0481027943898609,-0.0278498020376404,0.00111513895507489,-4.85747536254474e-05,-0.0555231595466611,0.00258245147195605,-1.092465605787,-0.000494117145198208,0
0.24,0.00096732244416506,0.000556418371996951,-0.0481067721916991,-0.0278497804748407,0.0011148726370436,-4.87146677362055e-05,-0.0555266748225794,0.00258073368412541,-1.09246798894153,-0.00045412670745374,0
0.25,0.000967057897703179,0.000556417770502046,-0.0481102988906409,-0.0278497327935935,0.00111463740200811,-4.88382522738229e-05,-0.0555297783221194,0.00257918504912556,-1.09247009626833,-0.000418764785506994,0
0.26,0.000976807088009198,0.000561983528781759,-0.0485729337214485,-0.0281283117801432,0.00112585420657786,-4.92938062837588e-05,-0.0560687137456439,0.0026136474165833,-1.09247183061479,-0.000448024788185889,0
0.27,0.000947429668920392,0.000545322347914073,-0.0472334925307893,-0.0272943959993752,0.00109210477690463,-4.80270439148808e-05,-0.0544957512501624,0.00248997295311867,-1.09247392655502,-0.000242374089210016,0
0.28,0.000945946416802144,0.000544398651830802,-0.0468614784683711,-0.0272481613620215,0.0010903627542322,-4.78913328189032e-05,-0.054144203752126,0.00262024080966601,-1.09247538496069,-0.000210288128270245,0
0.29,0.000964827088216612,0.000555664148223256,-0.0480540568053059,-0.0278120116533746,0.0011123097682628,-4.92029999529886e-05,-0.0554624695738437,0.00257193243019168,-1.09247635383425,-0.000305299799555704,0
0.3,0.000957352233445023,0.000551809280183654,-0.0477069588317327,-0.0276190859932604,0.00110389948473079,-4.92210137042944e-05,-0.0550655259455723,0.00256040707959824,-1.09247604524946,-0.000266482589637576,0
0.31,0.000965545532681236,0.000556127565398345,-0.0480927119854677,-0.0278352169201947,0.00111316085025595,-4.92845425466673e-05,-0.0555074656647707,0.00257478204625975,-1.09247709639477,-0.000297592708150093,0
0.32,0.000966002638529818,0.000556397442984673,-0.0481215695499109,-0.0278487153031092,0.00111369082485307,-4.93148947534276e-05,-0.0555392949908959,0.00257354073113013,-1.09247814087424,-0.000283510360479401,0
0.33,0.000965926970239948,0.000556414079409655,-0.0481250068875761,-0.0278495626165079,0.00111363126032512,-4.93655307771222e-05,-0.0555427341672503,0.00257276253980128,-1.09247907258981,-0.000268119109320193,0
0.34,0.000965826420288645,0.000556414901363573,-0.0481264946137364,-0.027849592549287,0.00111354233261725,-4.94134602750273e-05,-0.0555440665840204,0.00257215012726955,-1.09247989704241,-0.000254301599566572,0
0.35,0.000965734917851901,0.000556414759261565,-0.0481276848828501,-0.0278495959924618,0.0011134609979338,-4.94562631300912e-05,-0.0555451229804908,0.00257164581706157,-1.09248062611275,-0.000242068663964783,0
0.36,0.000965654158401798,0.00055641457923742,-0.0481287403513584,-0.0278495734504491,0.00111338918723022,-4.94939934283015e-05,-0.0555460479619469,0.00257117579903276,-1.09248127080271,-0.000231250538531486,0
0.37,0.000965582446558117,0.000556414416642128,-0.0481296533827292,-0.0278495709768117,0.00111332542040818,-4.95274915709744e-05,-0.0555468559212889,0.00257078501506874,-1.09248184087598,-0.000221684435803647,0
0.38,0.000965519000208035,0.000556414272647459,-0.0481304536630086,-0.0278495713724218,0.0011132690032556,-4.9557128233975e-05,-0.0555475652740686,0.0025704450116114,-1.09248234496866,-0.000213225514041334,0
0.39,0.000965463270051767,0.000556414145301645,-0.0481311746089422,-0.0278495487125014,0.00111321944685388,-4.9583163040979e-05,-0.0555481937342503,0.00257011781610704,-1.09248279071713,-0.0002057456323053,0
0.4,0.000965413677124916,0.000556414032690973,-0.0481317911419642,-0.0278495490403663,0.00111317534823511,-4.96063285974892e-05,-0.0555487402132598,0.00256985622267129,-1.09248318487438,-0.00019913147628696,0
0.41,0.000965369788548807,0.000556413933110964,-0.048132329214099,-0.0278495493397058,0.00111313632202743,-4.96268292965709e-05,-0.0555492171411398,0.00256962818431307,-1.09248353341156,-0.00019328284642738,0
0.42,0.000965331022246832,0.00055641384505471,-0.0481328017602871,-0.0278495496134353,0.0011131018505288,-4.96449376074639e-05,-0.0555496359888864,0.00256942804306794,-1.09248384160869,-0.000188111140297132,0
0.43,0.000965296796142386,0.000556413767188865,-0.0481332169422989,-0.0278495498644722,0.00111307141614608,-4.96609254707596e-05,-0.0555500039915946,0.00256925230406856,-1.09248411413467,-0.000183538010362627,0
0.44,0.000965266677356585,0.000556413698333884,-0.0481335860176483,-0.0278495270823133,0.00111304463383644,-4.96749956872483e-05,-0.0555503205414324,0.00256907558685208,-1.09248435511817,-0.000179494177072344,0
0.45,0.000965239901832699,0.000556413637447411,-0.0481338999000777,-0.0278495272967369,0.00111302082463223,-4.96875030812543e-05,-0.0555505987491022,0.00256894314040702,-1.09248456821022,-0.000175918379334967,0
0.46,0.000965216269522488,0.00055641358360733,-0.0481341743174766,-0.0278495274953672,0.00111299981035315,-4.96985425089814e-05,-0.0555508419769157,0.0025688274749728,-1.09248475663864,-0.000172756446451381,0
0.47,0.000965195198349343,0.000556413535997814,-0.0481344029409532,-0.0278495276811384,0.00111298107373128,-4.97083843449534e-05,-0.0555510446002506,0.00256873166475401,-1.09248492325793,-0.000169960477469389,0
0.48,0.000965176688313266,0.00055641349389856,-0.0481346058753149,-0.0278495278540283,0.00111296461431079,-4.97170307620488e-05,-0.0555512244611093,0.00256864659609843,-1.09248507059286,-0.000167488115520749,0
0.49,0.000965160273752971,0.000556413456671508,-0.0481347775893445,-0.0278495280164007,0.0011129500182863,-4.97246980138354e-05,-0.0555513766443704,0.00256857494094374,-1.09248520087467,-0.000165301906142621,0
0.5,0.000965145838253138,0.000556413423752861,-0.0481349280935284,-0.02784952816884,0.00111293718195044,-4.9731441382124e-05,-0.0555515100322684,0.0025685122018298,-1.09248531607756,-0.00016336872987553,0
0.51,4.67009833741482,-0.00409561455425772,6.4961081562541,0.219037916861976,-1.02459224174358,4.55631934716413,-1.2059054024889,6.38695474753206,0.220316371759734,67.7656140444179,591.771007876641
0.52,4.45981738151644,0.0249491184164252,5.6716368180924,-1.21817269087522,-3.73592718392318,2.43586568008373,-5.4278447236714,2.0469271010097,0.998602828752862,144.661453049249,591.771007876641
0.53,3.72316125647243,-0.0265706381164963,6.79835557712312,1.36031144707367,-2.67239868516484,-2.59247391655856,-5.85341662973506,-3.71558872115601,2.33387843712972,218.19624917586,591.771007876641
0.54,3.20995067311118,-0.0344354735523196,4.56920032726135,1.76503107803125,2.7339763601044,-1.68236214532899,2.92445368941269,-3.9294397762966,-2.13315611476403,275.155156731855,591.771007876641
0.55,2.65301056690972,-0.0260475942946267,7.43800144612196,1.33536120489218,-0.228978539332629,2.64323899294564,0.762293113171939,7.51837510833651,0.0765944737191782,326.578352436582,591.771007876641
0.56,2.22757586278033,-0.00439168678470958,8.59978576412814,0.254718889474484,-1.09719690761687,-1.93862643571945,-4.4720101929808,-7.34998787314863,2.6246025593978,368.254826043445,591.771007876641
0.57,1.99282190928421,0.0396822085813635,2.89693970257828,-1.94441180284841,1.4881245874807,1.32604639886259,0.801818822190681,3.39559766106223,-0.823018252351097,403.783684293922,591.771007876641
0.58,1.62183478317213,0.0525259285458678,6.49062392391412,-2.59426975570907,-1.29022775464616,-0.984083013885166,-3.39144777987419,-6.11199774570145,2.25476431728227,434.36228712985,591.771007876641
0.59,1.34864056124043,0.00222114877943802,7.55530527405351,-0.0824172707667616,0.916829061086658,0.989070659595036,5.06655139087697,5.60530885806162,-0.745865151051413,460.198621369293,591.771007876641
0.6,1.17627580824294,-0.0274311054273083,5.45635774340183,1.39839337146671,-0.465877307080981,-1.08043305084097,-3.54753544180444,-4.37519555385637,2.71117045175074,482.239747986828,591.771007876641
0.61,0.998817631382012,0.0240372628797856,5.32376905191909,-1.1802188746009,-0.00873573447168834,0.999068635134526,-1.35419736101681,5.28219490529749,0.0328047284695841,500.704314525417,591.771007876641
0.62,0.859356306923029,-0.0157787039156078,4.62531171242657,0.812263669581799,0.51299180806058,-0.689624270605654,2.03150208835402,-4.23394378458739,-2.52038437701151,516.386121409126,591.771007876641
0.63,0.652140949019956,0.0797496293222986,8.53841335052222,-3.97083680777483,-0.61080624932915,0.241999063110065,-9.26484189210504,-1.68367224026859,1.31525822035422,529.61082840297,591.771007876641
0.64,0.547200392935688,-0.00116343776962322,8.32907022181468,0.080134743945025,0.472163642437339,0.276570277464372,7.23619080161579,4.12521211814838,-1.04304615838476,540.780851940714,591.771007876641
0.65,0.539460571287576,0.0522201093711785,4.10375571085463,-2.59084488879149,-0.150323437282708,-0.52071826547584,1.79382085564404,-4.50948942897147,2.95704879072904,550.238384122134,591.771007876641
0.66,0.402845368638307,-0.0627455972696248,6.95832326305351,3.13765961371093,-0.317455212432239,0.255819446308636,-2.36024622763172,7.25895365942051,0.737987471543608,558.333467871634,591.771007876641
0.67,0.337019634496383,0.0242875663529714,6.91855799361067,-1.22035686995139,0.337022921360306,0.0242419139753973,6.672381506743,2.19887258145299,-1.42704906253855,565.104439065156,591.771007876641
0.68,0.358333115258907,-0.00509663033080266,3.00283190923968,0.256367725294441,-0.136414458508771,-0.331390543983441,-1.41806857395879,-2.65928663465809,2.73686783155879,570.836992287812,591.771007876641
0.69,0.291670711327354,-0.0447738524601724,3.96815332018244,2.24928600664942,-0.213431086995928,0.203773582228086,-0.638969430284724,4.51633107503706,0.656222958875984,575.626324398888,591.771007876641
0.7,0.207567867289605,0.0106499962381905,6.15023796452737,-0.519330242075785,0.206148580704555,0.0264689369738582,5.95956703177733,1.60583053726132,-1.39183408522707,579.705149254578,591.771007876641
0.71,0.18129429964383,-0.0140104499508067,5.73367324097022,0.716416115616129,-0.0349911881579579,-0.178436354318466,-2.22391181363244,-5.33314889442612,2.87082401686421,583.20247943351,591.771007876641
0.72,0.122116373775325,-0.0441230600295301,7.23827334562647,2.19760789018362,-0.121959325954657,0.0445553137469606,-4.13948256956654,6.33141102134893,0.873807485990712,586.113671557466,591.771007876641
0.73,0.164051170968128,0.0281248486186341,3.93330606691879,-1.41256055485687,0.159153227759177,0.0487241613542051,2.87657042749654,3.03175963968948,-1.10392148920016,588.513337823927,591.771007876641
0.74,0.0860160497866518,0.039672975444389,6.78193226997108,-1.98242175138435,-0.0329917994132205,-0.088793282251467,2.49429044318363,-6.61083326819544,-3.06519025996087,590.595986587106,591.771007876641
0.75,0.0348151194843014,0.011936940746693,8.42162437736885,-0.587003222092917,-0.0297348054241591,0.02168927028472,-8.21915708892683,1.92711875186367,1.27090045398221,592.392515269605,591.771007876641
0.76,0.0263213925881427,-0.00172808158076689,8.10387920452862,0.0876558262802903,0.0148687486108913,0.0217881226468698,5.06570338757901,6.32607231183322,-0.66439171347572,593.867681556876,591.771007876641
0.77,0.0233657639685838,-0.00039670798264434,7.62539732470032,0.00720733188903677,0.0125872323731641,-0.0196895374309056,3.99144675222919,-6.49731399343597,-2.58976317309661,595.069552685192,591.771007876641
0.78,0.0523044409317391,-0.0208697860901827,5.55469432743253,1.04132800964877,-0.0469242253468705,-0.0311355036610601,-5.65022987007402,-0.117879218751597,1.77697316681214,596.327521654774,591.771007876641
0.79,0.0115258012297464,0.0122001743281743,7.13579219780884,-0.604172581240781,0.0136090382170218,0.00982254684046394,0.338822687726044,7.15330371118931,-0.13179698128591,597.107429410021,591.771007876641
0.8,0.0212074830210685,-0.0303527335868978,6.23163106310279,1.53090738614175,0.0325505228538116,0.0176496241951378,4.8872568876646,-4.15831976230135,-2.03488672571824,597.898731475367,591.771007876641
0.81,0.0642799452790693,-0.0282519045666051,3.72760224398956,1.4012631946412,-0.0258515618263405,-0.0652822964352481,-3.63605637402935,-1.62408468834991,2.35044309278502,598.571419907977,591.771007876641
0.82,-0.0147605891698207,0.00609152682931632,7.42866294385146,-0.313813569289823,0.0119764916136374,-0.0105615027520227,-3.55761805699092,6.52892532122971,0.45670150625694,599.015996156509,591.771007876641
0.83,-0.00595771362502786,-0.0368250331766038,6.79498195457382,1.84599304867238,-0.0109125606418617,0.0356720260194666,6.98295435203847,-0.904333243930331,-1.43431758544525,599.326934476156,591.771007876641
0.84,-0.0345996851296903,-0.0077944156442198,8.03994954114291,0.399970608009755,0.0139129060113623,0.0326239509046279,-1.84491714842431,-7.83562670287742,2.96005892987146,599.610941671803,591.771007876641
0.85,0.0635081859900024,-0.0284645073722729,2.95106723681167,1.41246230822637,-0.069393973876813,0.00529095995742849,-1.91938154610655,2.64949468555969,1.07334047173732,599.902964602994,591.771007876641
0.86,-0.0368541224943978,0.00628927474055901,7.81158889670807,-0.326897851082904,-0.0223965781107129,-0.029936175616218,5.43995290573612,5.61557616630641,-0.811337342746909,600.163104895119,591.771007876641
0.87,0.0621795613685103,-0.00382996487744611,2.71036191041263,0.192924778000839,0.0303609201906891,-0.0543983548291437,0.998982326568837,-2.52691827461542,-2.69405263066957,600.424745772579,591.771007876641
0.88,-0.0455789045570138,0.0239427524927365,7.96296453389511,-1.19028247166286,0.0418735217667401,0.0299549680753653,-7.72515700523392,-2.26881594116943,1.70807714726855,600.622443092305,591.771007876641
0.89,0.0367640396509375,0.0546236693924154,3.81980330468448,-2.73361921189612,0.0601320713089214,0.0268230100743073,-2.0360242754113,4.23298670350639,-0.172824014751882,600.618434035047,591.771007876641
0.9,0.0312786079233465,0.0491620479704668,3.97705979943448,-2.47312810113006,0.00493960820374766,-0.0580590952828786,4.67029325236252,0.34889567181909,-2.05255928856493,600.738681890706,591.771007876641
0.91,0.00616128174790372,0.0103456581612309,5.17776565581493,-0.521111607292181,-0.00804602595202294,-0.0089585435169713,2.03694963765841,-4.78870031088129,-2.8397185008997,600.784782570781,591.771007876641
0.92,0.0202280023170822,0.0145941930189318,4.37325663790631,-0.722423578159903,-0.0201416857166637,0.0147130909092843,-4.37743613391784,-0.696650802585739,1.56490589006588,600.915356519352,591.771007876641
0.93,-0.0518977848378133,0.000829811509340219,7.9286583743719,-0.0322219201171189,-0.0152030924040766,-0.0496279622749726,2.41259578872939,7.55275071942924,-0.313252242467133,600.96774772835,591.771007876641
0.94,-0.0267241246676968,-0.0331127449874631,6.66651598044124,1.64259603152222,-0.0024774600419481,0.0424793468829255,4.46727120525515,-5.21383208580303,-2.19157460976592,600.84289965881,591.771007876641
0.95,-0.0111407089177129,0.0307555104645592,5.87229985388672,-1.54605714240711,-0.00949660044555025,0.0313022586901072,-3.77691558470485,-4.75490346143428,2.21288705305619,600.821623766967,591.771007876641
0.96,-0.0591544401380235,0.0261841365150721,8.23860700320758,-1.30698600767155,0.0441318770283871,-0.0472994103878078,-3.93595629591815,7.3546655813961,0.334051415538264,600.823264759138,591.771007876641
