t,iq,id,vq,vd,ia,ib,va,vb,theta_e,omega,r
0,0,0,0,0,0,0,0,0,0,0,0
0.01,0.000731365788367194,0.000414955675032985,-0.0360378048080682,-0.0207652954362759,0.000480720681480507,0.000689921557159192,-0.024004483247708,-0.0339662428589144,-0.0924769105416605,-0.00139570731945828,0
0.02,0.00083913472933601,0.000474909215316753,-0.041407709352011,-0.0237655076658023,0.000550378481805587,0.000791687680550841,-0.027488179447801,-0.0390358519702007,-0.0924876449760626,-0.00153404066121893,0
0.03,0.000880513441474676,0.000498317751084459,-0.0434612504616426,-0.0249369148646909,0.000577517749267361,0.000830721223362333,-0.0288446910154474,-0.0409721102078211,-0.0924987344534918,-0.00153860344354363,0
0.04,0.000860372348284338,0.000487326647543631,-0.0424948194355337,-0.0243868949157299,0.000564721712887547,0.000811675567016635,-0.028208173240045,-0.0400603205797092,-0.0925091458860587,-0.00142622680830121,0
0.05,0.00088123247410604,0.000499525421769544,-0.0435395555387365,-0.0249973646370343,0.000578803741801193,0.000831313748767595,-0.0289129579390121,-0.0410439033051742,-0.0925192678114394,-0.00139695330308769,0
0.06,0.000882685067725252,0.000500715163546242,-0.0436312024368981,-0.025056889761225,0.000580130695133354,0.000832644570242528,-0.0289810955373479,-0.041129376995657,-0.0925289942078527,-0.00133205407836499,0
0.07,0.000901358800878326,0.000511852308199178,-0.0445665520150983,-0.0256142123165039,0.000592953355327293,0.000850203970665713,-0.0296228409529907,-0.0420089600559597,-0.092538121697081,-0.0013053854505397,0
0.08,0.000883469721181065,0.000501914782195271,-0.0437074080500385,-0.0251169320689106,0.000581412692781,0.000833304552671484,-0.0290486643266761,-0.0411991856211131,-0.0925470079561817,-0.00120808967041757,0
0.09,0.000881032230094523,0.000500940377165002,-0.0436052723382486,-0.0250681752222639,0.000580224126565609,0.000830962703670098,-0.0289910200191419,-0.0411017510930698,-0.0925553471215891,-0.00114516366647129,0
0.1,0.000880216548086216,0.000500842565181458,-0.0435818026226217,-0.0250632775899333,0.000580057907617063,0.000830154967721854,-0.0289842989281516,-0.0410786053686193,-0.0925632520935137,-0.00108847010204719,0
0.11,0.000879596737795364,0.000500830598783834,-0.0435670978315707,-0.0250626664459894,0.000579994925565306,0.000829534565968722,-0.0289826392665906,-0.0410638026002373,-0.0925707537307013,-0.00103497403547852,0
0.12,0.000879024186229753,0.000500827148325201,-0.0435539106769712,-0.0250624983289165,0.000579944466008628,0.000828960655774687,-0.0289815451364159,-0.0410504811086352,-0.0925778734631397,-0.000984232825135394,0
0.13,0.000917675402808256,0.000523107795236935,-0.0454650504587979,-0.0261774727658711,0.000605708904178733,0.000865382362748132,-0.0302687218823781,-0.0428501501658536,-0.0925848816035013,-0.00101184012362946,0
0.14,0.00094561892322408,0.000539602384985394,-0.0469125849659736,-0.0270028932789441,0.000624722287523729,0.000891677040924859,-0.0312247324157239,-0.0442149630689677,-0.0925915943729881,-0.00102032914119539,0
0.15,0.000884380644464451,0.000504611980869901,-0.0438589213608663,-0.0252519095611446,0.000584225079221986,0.0008339325106679,-0.029199175258796,-0.0413360869414244,-0.0925980270901589,-0.000854399283221455,0
0.16,0.000877664379357119,0.000501188601250476,-0.0435414531451607,-0.0250805963533769,0.000580200116408832,0.000827558216523106,-0.0289994778223035,-0.0410356520780038,-0.0926037971997134,-0.000800911688795749,0
0.17,0.000876584174205059,0.000500852101359469,-0.0434998383211139,-0.02506375001561,0.000579769667923459,0.000826510601298546,-0.0289790785752423,-0.0409956156648241,-0.092609239111629,-0.000760857162349953,0
0.18,0.000876104042127729,0.000500817541021559,-0.0434870784901797,-0.0250620295237949,0.00057969511802906,0.000826032730683658,-0.0289763969952484,-0.0409829200599028,-0.0926144004980183,-0.000723944353370543,0
0.19,0.000875704942997502,0.000500812589835351,-0.0434777433570445,-0.0250617663449071,0.000579657322780838,0.000825632960506302,-0.0289754723139512,-0.0409735073423205,-0.0926192988260216,-0.000689023858275412,0
0.2,0.000875331565619831,0.000500810613674723,-0.043469146996408,-0.0250616666437441,0.000579624659183242,0.000825258671572997,-0.0289747684342755,-0.0409648223447581,-0.0926239478123372,-0.000655892366866033,0
0.21,0.000874977978865322,0.000500809004090452,-0.0434610256162438,-0.025061584410135,0.000579593992493633,0.000824904191977835,-0.0289741161099873,-0.0409566155389712,-0.0926283601813523,-0.000624448330763177,0
0.22,0.000874642255660554,0.000500807502190376,-0.0434533095538233,-0.0250615201255013,0.000579564897120253,0.000824567619824558,-0.028973509881977,-0.0409488171660706,-0.0926325479792988,-0.000594604784804407,0
0.23,0.000874323768119978,0.000500806079027208,-0.0434459922574424,-0.0250614378955842,0.000579537296029276,0.000824248325931693,-0.0289729138820974,-0.0409414236905427,-0.092636522636256,-0.000566280159619476,0
0.24,0.000874021456112276,0.000500804728321144,-0.0434390443763937,-0.0250613765065183,0.000579511094244363,0.000823945248970548,-0.0289723644685399,-0.0409344019846126,-0.0926402950003584,-0.000539397137230057,0
0.25,0.000873734510925287,0.000500803446181745,-0.0434324477629329,-0.0250613151055554,0.000579486221922863,0.000823657578057125,-0.0289718396288863,-0.0409277356082392,-0.0926438753672252,-0.000513882345091583,0
0.26,0.000881696052154554,0.000505499523234891,-0.0438300916663459,-0.0252963127745496,0.000584901477874282,0.00083114857730499,-0.0292427544834312,-0.0413018363476721,-0.092647225015688,-0.000506287874107364,0
0.27,0.000859182140831155,0.000492662839010383,-0.0427324433424693,-0.0246539366475198,0.000570039702642464,0.000809916885535959,-0.0285017201476556,-0.0402682288518131,-0.0926505897977336,-0.000438317845050649,0
0.28,0.000858427982931629,0.000492343994610609,-0.0426422851086153,-0.0246379947384632,0.000569654930029769,0.000809193716981277,-0.0284776283645236,-0.0401798450314216,-0.0926536515024722,-0.000415493366027958,0
0.29,0.000871229257517493,0.000499972064806388,-0.0433358371755448,-0.025019708040204,0.000578436986043467,0.000821232694136196,-0.028921987791276,-0.0408350241376647,-0.0926564719092233,-0.000421157475082918,0
0.3,0.000862853883605035,0.000495479352178473,-0.0429297387168307,-0.0247948827792277,0.000573190509269838,0.000813307600462749,-0.0286606469403756,-0.0404514028840798,-0.0926587918818119,-0.000388428625766473,0
0.31,0.000871334253364307,0.000500277079285626,-0.0433512369077571,-0.0250349756530584,0.000578754435674047,0.000821306179406989,-0.0289388151397147,-0.0408488032345028,-0.0926613773708888,-0.000387185020572265,0
0.32,0.000872028487357552,0.000500745421231885,-0.0433905213189083,-0.0250584161826844,0.000579287061508713,0.000821952650714382,-0.0289658923406171,-0.0408856777224377,-0.0926638792293552,-0.000371125537156358,0
0.33,0.000871929957833542,0.000500790453029726,-0.0433906509477856,-0.0250606711767222,0.0005793247386042,0.000821848998572424,-0.0289682469406742,-0.0408855292088103,-0.0926662586932314,-0.000354350991745494,0
0.34,0.000871758432597998,0.000500794130105944,-0.0433869460004417,-0.0250608544645756,0.000579314384100814,0.000821676560410593,-0.0289681789562458,-0.0408817577618527,-0.0926685175612588,-0.000338272373032905,0
0.35,0.000871587547317155,0.0005007938001939,-0.0433830313668474,-0.0250608340568184,0.000579300003844151,0.000821505196877748,-0.028967884031919,-0.0408777997073417,-0.0926706615150552,-0.000322995832242335,0
0.36,0.000871424636456591,0.000500793113489491,-0.0433792793154073,-0.0250607961714142,0.000579285915929758,0.00082134186983705,-0.0289675822736192,-0.0408740083169047,-0.0926726963561795,-0.0003084951275845,0
0.37,0.000871270049285922,0.000500792425151462,-0.0433757185439729,-0.025060755356018,0.00057927251097308,0.000821186890971062,-0.0289672910513478,-0.0408704106581601,-0.0926746276333234,-0.000294732274002849,0
0.38,0.000871123022922778,0.000500791768222832,-0.0433723223256648,-0.0250607352910475,0.000579259755698404,0.000821039494551934,-0.0289670316880886,-0.0408669777746115,-0.0926764606165951,-0.000281669872710774,0
0.39,0.000870983627945392,0.000500791144331581,-0.043369105013727,-0.0250606915251576,0.000579247662450159,0.000820899747798644,-0.0289667614579312,-0.0408637279264888,-0.0926782003089016,-0.000269272289629368,0
0.4,0.000870851211704491,0.000500790552116623,-0.0433660443322743,-0.025060671414242,0.000579236173448165,0.000820766998231276,-0.0289665256478268,-0.0408606344132734,-0.0926798514584722,-0.000257505690013797,0
0.41,0.000870725547552043,0.000500789990000691,-0.0433631387011849,-0.0250606512802353,0.000579225269913503,0.000820641017704043,-0.0289663007207876,-0.0408576977222244,-0.0926814185714313,-0.000246337959690184,0
0.42,0.000870606525259328,0.000500789456458768,-0.0433603919389878,-0.0250606103673032,0.000579214943699034,0.000820521694119122,-0.0289660665396868,-0.0408549234524171,-0.0926829059251475,-0.000235738618804539,0
0.43,0.00087049337575336,0.000500788950040414,-0.0433577743634579,-0.0250605901927736,0.000579205125569764,0.000820408259482299,-0.0289658618637193,-0.0408522780889218,-0.0926843175787739,-0.000225678738782348,0
0.44,0.00087038593059277,0.000500788469367959,-0.0433552859360173,-0.0250605670878759,0.000579195801775511,0.000820300543966276,-0.0289656632806775,-0.0408497636721458,-0.0926856573855505,-0.000216130863386691,0
0.45,0.000870283956957247,0.000500788013134224,-0.0433529229768929,-0.0250605468738534,0.000579186952511039,0.000820198313749219,-0.0289654763966451,-0.0408473758933473,-0.0926869290016771,-0.000207068933785296,0
0.46,0.000870187222010997,0.000500787580097842,-0.043350681372238,-0.0250605266411365,0.000579178557878291,0.000820101335095543,-0.0289652980765177,-0.0408451108250044,-0.0926881358980921,-0.000198468217428185,0
0.47,0.000870095492923375,0.000500787169080394,-0.0433485566322736,-0.0250605063904568,0.000579170597892536,0.000820009374371982,-0.0289651280408703,-0.0408429639010631,-0.0926892813685833,-0.000190305240543833,0
0.48,0.000870008304033095,0.000500786778963136,-0.0433465322832442,-0.0250604861234746,0.000579163030936688,0.000819921966205958,-0.02896496489506,-0.0408409186277089,-0.0926903685394556,-0.000182557724077222,0
0.49,0.000869925655340158,0.000500786408684736,-0.0433446147126357,-0.0250604658399089,0.000579155858416771,0.000819839108974372,-0.0289648093518928,-0.0408389812790253,-0.0926914003780866,-0.000175204522879842,0
0.5,0.000869847197598598,0.000500786057236391,-0.0433427926629095,-0.0250604455409959,0.000579149049338494,0.000819760453390393,-0.0289646604862582,-0.0408371405640622,-0.0926923797005936,-0.000168225568000344,0
0.51,4.13747866472782,0.0653175663138379,2.60541745138725,-3.26463108157846,-0.163135635993714,4.13477724307078,-3.40345198208919,2.42126636296269,0.0552195560572995,16.9596457946697,572.57869148358
0.52,4.01293988948235,0.0206983000922311,3.87602449622346,-1.02696147340564,-0.965852494785879,3.89502810446102,-1.94776342057472,3.50491560820726,0.248225582456149,35.6373189499441,572.57869148358
0.53,3.91981518249885,-0.00317450171194367,3.58232137169444,0.172660307107924,-2.14185566617249,3.2828974165658,-1.81033046132282,3.09605258556053,0.577270635802819,54.1553093927234,572.57869148358
0.54,3.82143981886503,0.0243416689707963,3.32527344075972,-1.19960814700828,-3.28989097416421,1.94437963992847,-3.47716770453897,0.637030546129305,1.04337825259765,73.1879074837366,572.57869148358
0.55,3.63729827706347,0.00694673842601601,7.01873872364158,-0.33024494057678,-3.62578358483711,-0.28927566338945,-6.96853457973929,-0.90071127588153,1.65232048603591,92.7411775241531,572.57869148358
0.56,3.61643347987405,-0.0463669644675282,3.2603552042071,2.34332219769573,-2.4169196889715,-2.69058362196936,-3.93272531499793,-0.809164122158356,2.39690358500248,110.093081532923,572.57869148358
0.57,3.53489235030199,0.033985341237361,2.86072128050576,-1.67138142826511,0.398845305235621,-3.51248364467851,2.00889455055876,-2.63468874978115,-3.01891219749892,126.639954885078,572.57869148358
0.58,3.36776177088942,0.0539731438336685,6.23342939481238,-2.67647506880828,3.0015554708692,-1.52820064160917,6.77548849921884,-0.334539102373022,-2.02570113709288,144.35449041735,572.57869148358
0.59,3.26254893475914,-0.0191335606489615,7.13735987973523,0.990030348815177,2.56226982088756,2.01974379806201,6.23942043145328,3.6043999256454,-0.909117402556369,160.038786396837,572.57869148358
0.6,3.24040012222676,0.0265589857168862,3.71666095737546,-1.30067733051947,-1.00187550218223,3.08174363144902,-2.41163357398045,3.11277266999321,0.322518555159385,176.360689351973,572.57869148358
0.61,3.11701567319106,0.0523624787904725,5.6278356095574,-2.58327130234278,-3.10644284452707,-0.261804105755417,-5.33907587134118,-3.13689226939219,1.67167275227444,191.399605144969,572.57869148358
0.62,3.08144894097502,0.0461588560897725,3.04443565062348,-2.27845034951867,-0.0797323972376417,-3.08076304844471,2.24514211209618,-3.06908151121818,3.13069617387975,206.875729747832,572.57869148358
0.63,2.97606055970181,0.016972843281329,4.35864400063136,-0.805595917969765,2.97556494778461,-0.0569014405553502,4.36906043128375,0.747043007516936,-1.58421383708502,220.978628281442,572.57869148358
0.64,2.88465370128021,0.0525395828909951,4.78408488236696,-2.59081089229708,-0.206918501348391,2.87770257634101,-3.01027550223878,4.53188819830745,0.0899919911471824,235.408559110252,572.57869148358
0.65,2.72490288149786,-0.013398668809783,8.80724014950034,0.702885913766445,-2.60324805001601,-0.805217255161027,-8.63102747240212,-1.88862183334354,1.86585760534255,249.392127815807,572.57869148358
0.66,2.69490666695291,-0.0100233006000594,6.59456958954845,0.549243844453762,1.53028379765038,-2.21829977883759,3.27117750405547,-5.75233992467665,-2.54143378174497,262.480114499429,572.57869148358
0.67,2.62358118147108,0.00336883256789877,6.3791729782593,-0.122080257135849,1.4146088433786,2.20954098967118,3.3297838148359,5.44254455399245,-0.568190490166198,275.481950869169,572.57869148358
0.68,2.5132644614722,-0.0352521271086217,8.17240288919729,1.8056201810233,-2.50932303017166,0.145047909377986,-8.02189830002303,2.38696059572972,1.49903146518025,288.299989409927,572.57869148358
0.69,2.50880203459147,0.0477423754172664,4.79814232925281,-2.35107907799339,1.1962567860488,-2.20575082115206,4.41229639326392,-3.01353333824864,-2.62562534703592,300.711847394104,572.57869148358
0.7,2.3743767013359,0.02345721048657,8.05097109566337,-1.139611559092,0.898726189204365,2.19784125846449,1.91442208798454,7.90264754103712,-0.378287440919586,312.667502964618,572.57869148358
0.71,2.30513441083645,-0.00662707670530571,8.13081621270346,0.364702596767109,-2.13429816981725,-0.870896028514716,-7.67381620276435,-2.71214401443609,1.95534638338413,324.278674393315,572.57869148358
0.72,2.27962520647773,0.042240394854774,6.10911569238789,-2.08055464596502,2.13554717615736,-0.798694930103142,6.45328221083249,-0.0717696675454935,-1.91016269952776,335.528472384596,572.57869148358
0.73,2.2032674883193,0.0148013017898865,6.7081604612503,-0.707849273341412,-1.21158334568397,1.84029141716217,-4.31490328417331,5.18479286142486,0.588950997075546,346.443434144674,572.57869148358
0.74,2.09669855342234,-0.00688722867218905,8.87076037600701,0.376169273843973,0.0603857759827354,-2.09584012174142,-0.149694421967477,-8.87747061674395,-3.11607320198925,357.091622402477,572.57869148358
0.75,2.01791091368383,-0.0250231060820127,9.71770597286224,1.28297922067101,0.875453001377971,1.8182883857575,5.47284148196466,8.13190329313888,-0.46111464414226,367.425923341841,572.57869148358
0.76,2.01795815150192,0.020287667054775,6.70005900817229,-0.982897449691582,-1.5594767752953,-1.28085864870491,-4.50308007930192,-5.05758320831157,2.26846714904341,377.442241374956,572.57869148358
0.77,1.93185061939213,0.0846222016371359,8.07291269449929,-4.20103968192023,1.83904787920857,0.597587341427295,6.08932624484148,6.76319152959319,-1.21283947888347,387.135198836093,572.57869148358
0.78,1.87223369356559,0.0137869445615108,8.20677998693281,-0.651546451092205,-1.86613567204331,-0.151613774737157,-8.11717107135204,-1.37378467390537,1.65922681806622,396.524369572114,572.57869148358
0.79,1.82854226378876,0.00622580378341131,7.61405027085757,-0.266684127408039,1.81620955624962,-0.212104735642671,7.59564852654817,-0.592457097268816,-1.68364921408124,405.650969063024,572.57869148358
0.8,1.80198723420811,0.0190300277015432,6.25263072514987,-0.901750967660519,-1.7421874879963,0.460763378397679,-6.28268612677163,0.660606407201897,1.32280228625178,414.493361040149,572.57869148358
0.81,1.71514108938549,0.0404192401656789,7.94689439275985,-1.98729115659494,1.61589338003076,-0.576395051893039,8.1691743475326,-0.605844130427747,-1.88986891164779,423.176017035986,572.57869148358
0.82,1.65062073415887,0.0278962603989918,8.54787273516279,-1.36889486875332,-1.55370887199011,0.557956763986815,-8.5333508576248,1.45668273790574,1.24292522491116,431.595438514055,572.57869148358
0.83,1.62832515888892,0.0136424655044983,7.14282318915649,-0.645281761043518,1.56282465069877,-0.457392666211346,7.04788280212541,-1.32802848997752,-1.84713729219069,439.638867724447,572.57869148358
0.84,1.53960547021947,0.0411785325919565,9.14231448922528,-2.01409554673068,-1.51154013651004,0.295511575399925,-9.34960296680553,-0.472672671475866,1.40446770346978,447.468161629892,572.57869148358
0.85,1.46167580911902,-0.0167773982802455,10.6271840814876,0.861222986286354,1.46166498209136,0.0176955413778529,10.6277229590389,-0.854547388884839,-1.57016818034671,455.190268364973,572.57869148358
0.86,1.48923530388325,0.0117771508922395,6.87805417897801,-0.558844696887728,-1.45504610286207,-0.317492252127934,-6.58468405492187,-2.06443032845726,1.79353788696186,462.58696710027,572.57869148358
0.87,1.46578526842628,0.00961806020156564,5.81190840295051,-0.435458997180108,1.29233965723803,0.691720442481963,4.89796335849108,3.15877488298718,-1.07278897817087,469.639910856186,572.57869148358
0.88,1.4123499663692,0.00996510086903313,6.24785480728542,-0.477953539893296,-0.965777523955038,-1.03058503043741,-3.88891181796201,-4.91329768600799,2.39570145904044,476.669677005637,572.57869148358
0.89,1.34572527724105,0.0249497195876298,7.38417262104277,-1.21619501816797,0.508277103725483,1.24629587022562,1.52681915287805,7.32625135345348,-0.368700421579551,483.386681801718,572.57869148358
0.9,1.29677704974994,0.0504515883342078,7.75186576975794,-2.48020785027981,0.0233863586412142,-1.29754736243156,2.91709274019483,-7.59825136712632,-3.08468533784274,489.84837080474,572.57869148358
0.91,1.27279229887476,0.0139172514027562,6.86379589948374,-0.674374407047948,-0.630794324101074,1.10557335651841,-4.04851717524561,5.5835457974653,0.529423990119961,496.200433366311,572.57869148358
0.92,1.18326938798759,0.00435991544661674,9.36043549961677,-0.177580303801426,1.02259262035249,-0.595356856189501,8.19540249016959,-4.52599884344949,-2.09434265124371,502.222386747066,572.57869148358
0.93,1.18555541978605,0.0148692040101529,7.27038268408631,-0.727905023384691,-1.18525564312333,-0.0305255148403994,-7.23718902471818,-1.00568639079456,1.60908632234576,508.215374191374,572.57869148358
0.94,1.14069967679856,0.0423168491076549,7.62440525874466,-2.08003456280873,0.938452761552932,0.649840659470008,4.85632742053622,6.23491646428404,-0.928068684508223,513.844103478727,572.57869148358
0.95,1.0916118828059,0.0147929421309184,8.21490005955804,-0.727628075358605,-0.318515825997587,-1.04421405966833,-1.59128945780677,-8.09208400018498,2.85907892082181,519.431582292491,572.57869148358
0.96,1.04528955848577,0.0332960522244163,8.72429842765497,-1.63108566931383,-0.467648311450518,0.935437835973394,-5.58258889192173,6.89989309911509,0.49542988142234,524.721772686501,572.57869148358
0.97,1.03076365225989,0.0541756376280287,7.68195049362222,-2.69985126645575,0.949131021700948,-0.405658736103965,8.14184357435994,-0.109286129491162,-1.92218773826864,529.945289451136,572.57869148358
