t,iq,id,vq,vd,ia,ib,va,vb,theta_e,omega,r
0,0,0,0,0,0,0,0,0,0,0,0
0.01,0.000628938616722404,0.000352225399458808,-0.030374195004696,-0.01762833331731,0.000717721314551311,6.71016413163317e-05,-0.035012653674001,-0.00273202130920404,-0.967062439816157,-0.00204483986055867,0
0.02,0.000710198315833019,0.000397062190073154,-0.0344786482532795,-0.0198723415137799,0.000810071964464212,7.63114865982735e-05,-0.0396655458143465,-0.00321428341370991,-0.967077646008064,-0.00212428032873843,0
0.03,0.000740935305014769,0.000414878832140913,-0.0360376483115042,-0.0207640295036832,0.000845491407625852,7.90812949235887e-05,-0.0414552301098375,-0.00336465653431549,-0.96709257246489,-0.00203124214204094,0
0.04,0.000722135428069545,0.000405565080053122,-0.0352239851931153,-0.0202978998580652,0.000824728253944466,7.60652205504747e-05,-0.0405208149771591,-0.00328594356611455,-0.967105802136975,-0.00178817592179759,0
0.05,0.000738289863097298,0.000415497947012328,-0.0360714012109391,-0.0207950222927974,0.000843667015880927,7.70482461724985e-05,-0.0415006970913509,-0.00335724267970314,-0.967118132526268,-0.00167910047060145,0
0.06,0.000738004736442502,0.000416224927076867,-0.0361284118908497,-0.0208313942252444,0.000843845833566656,7.62783724518658e-05,-0.0415683166528563,-0.00335919361905617,-0.967129421295824,-0.00152665481231395,0
0.07,0.000754088453126603,0.000426275770457081,-0.0369581036136379,-0.0213344307817963,0.000862793195053633,7.71254185518226e-05,-0.0425369589152393,-0.00341562377068944,-0.967139464737411,-0.00144801488803723,0
0.08,0.000736540194776753,0.000417012293830472,-0.0361800171861959,-0.0208708087163973,0.000843088548984453,7.47824197175989e-05,-0.0416332406182254,-0.00335523109410173,-0.967148845515174,-0.00126095057826858,0
0.09,0.00073393864536992,0.000416330487192486,-0.0361080491547828,-0.0208366923246249,0.000840560358044015,7.38599635681145e-05,-0.0415546531491772,-0.00334211945430896,-0.967157173672679,-0.00114014542526457,0
0.1,0.000732666170078427,0.000416278905826897,-0.0360943166094182,-0.0208341072909251,0.000839484030086666,7.31738166510356e-05,-0.0415419051539033,-0.00333614062875071,-0.967164680482415,-0.00103499517610324,0
0.11,0.00073160499006764,0.000416273742441877,-0.0360860857312342,-0.0208338372020028,0.000838607943053904,7.25700212576704e-05,-0.0415349981016019,-0.00333140941066446,-0.967171456298623,-0.000940388633003973,0
0.12,0.000730653774491664,0.000416272120029007,-0.036078974062865,-0.0208337722330672,0.000837824342673831,7.20262932235278e-05,-0.0415291266567565,-0.0033271720747937,-0.96717757306503,-0.000855008743235264,0
0.13,0.00076386880809888,0.000435401088365098,-0.0376997258889901,-0.0217911437519068,0.000876028378896697,7.51261812122772e-05,-0.0434069193273792,-0.00345870389418563,-0.96718348762003,-0.000891518298728897,0
0.14,0.000790130926634927,0.000451191978826986,-0.0391275009145611,-0.0225814440642153,0.000906613375395568,7.70277257656954e-05,-0.0450310028501969,-0.00361824904474884,-0.967188879223437,-0.000910790675696459,0
0.15,0.000733103588077177,0.000418832490258974,-0.0362974615994405,-0.0209619062885793,0.000841295733000687,7.12952690085458e-05,-0.0417817911415733,-0.00334502060023305,-0.967193835449662,-0.000645376589241006,0
0.16,0.000727912806120906,0.000416455860873364,-0.0360748483444961,-0.0208429694951168,0.000835673458780841,7.03022592798594e-05,-0.0415310177598138,-0.00331641738730146,-0.96719781913563,-0.000573825440019711,0
0.17,0.000726988882162974,0.000416280645027507,-0.0360530189602531,-0.0208341877059104,0.000834813588271031,6.99191179230176e-05,-0.0415080728177248,-0.00331110925098167,-0.967201375529705,-0.00052288956563569,0
0.18,0.000726460462369836,0.000416267126826537,-0.0360478639550324,-0.020833511218897,0.000834371090340958,6.96276372301714e-05,-0.0415034553335956,-0.00330860707861566,-0.967204582811047,-0.00047801721466084,0
0.19,0.000726008236950793,0.000416265543844448,-0.0360443887523067,-0.0208334297273093,0.00083399807446869,6.93698413940062e-05,-0.0415005575095532,-0.00330658148643203,-0.967207477908306,-0.000437599065023366,0
0.2,0.000725601855133756,0.000416264894412512,-0.0360413373249365,-0.0208334091181233,0.00083366331081566,6.91375346225155e-05,-0.0414980421969258,-0.00330475800553182,-0.967210091424598,-0.000401119068535059,0
0.21,0.000725235427850962,0.000416264365249044,-0.0360386013740615,-0.0208333755053249,0.000833361491540077,6.8928020459423e-05,-0.0414957783886284,-0.00330313485437989,-0.96721245076443,-0.000368187490739211,0
0.22,0.000724904424957003,0.000416263891636373,-0.0360361183645057,-0.0208333576655493,0.000833088852222865,6.87387598410824e-05,-0.0414937310166319,-0.00330165181700984,-0.967214580648862,-0.000338458686772672,0
0.23,0.000724605669106973,0.00041626346429848,-0.0360338771146935,-0.0208333397604513,0.00083284277345099,6.85679380045742e-05,-0.0414918819608089,-0.00330031465795856,-0.967216503393809,-0.000311621129829469,0
0.24,0.000724336215785842,0.000416263078466406,-0.0360318636868895,-0.0208333059812064,0.000832620829858689,6.84138705140399e-05,-0.0414902108412028,-0.0032991276437408,-0.967218239143888,-0.000287393631160416,0
0.25,0.000724092757213091,0.000416262730097397,-0.0360300330266278,-0.0208332879676714,0.000832420297234199,6.82746678433663e-05,-0.0414886985838577,-0.00329803839601955,-0.967219806085634,-0.000265522352043988,0
0.26,0.000731163279601392,0.000420359073900098,-0.0363756114081929,-0.0210383196134481,0.000840566675054487,6.89141294326189e-05,-0.0418895955760311,-0.00332532403744448,-0.967221158292149,-0.000272044883631938,0
0.27,0.000710261302704298,0.000408484646587221,-0.0353881732445764,-0.0204440221811812,0.00081661813166825,6.68255314034275e-05,-0.0407393140190772,-0.00325409615527898,-0.967222637899019,-0.000179284583378044,0
0.28,0.000709370021258929,0.000407990135378543,-0.0352182774648816,-0.0204192684079809,0.000815603726629277,6.67258475819602e-05,-0.0405853904110164,-0.0031779985991076,-0.967223790552523,-0.000160711390805825,0
0.29,0.000722187136459848,0.000415654334154774,-0.0359696505368743,-0.0208028420382031,0.000830506389969443,6.76898942948458e-05,-0.0414217202738751,-0.0032886298308165,-0.967224694622721,-0.000193290481412502,0
0.3,0.000716074639101247,0.000412481138236985,-0.0356800293586585,-0.0206440320357514,0.000823672843421793,6.68328151039487e-05,-0.0410931337220583,-0.0032549830458699,-0.967224989362871,-0.000168014778886352,0
0.31,0.00072256952015669,0.000415983828898797,-0.0359950020339944,-0.0208193461534241,0.000831008305771871,6.76347033920994e-05,-0.0414519637809053,-0.0032893835881314,-0.967225836927668,-0.000179299567793956,0
0.32,0.000722980271179582,0.000416240827193354,-0.0360197110928473,-0.0208321995415755,0.000831492407203382,6.76555651859835e-05,-0.0414796052118776,-0.00329279158450371,-0.967226659843564,-0.000169691800189746,0
0.33,0.000722908002353343,0.000416259543104793,-0.036020916979381,-0.0208331283829153,0.00083144358061785,6.75985158245471e-05,-0.0414811276940817,-0.00329268028842419,-0.967227407423085,-0.000159409777335832,0
0.34,0.000722806546474638,0.000416260779172612,-0.0360202781435968,-0.0208331971265031,0.000831360797630231,6.75393519928162e-05,-0.0414806429717706,-0.0032922330874818,-0.967228082679244,-0.00014999699464473,0
0.35,0.000722712075445845,0.000416260745286773,-0.0360195617874649,-0.0208332018276087,0.000831283040067285,6.74852528959697e-05,-0.0414800578596157,-0.00329179733790069,-0.967228692295113,-0.000141489018552971,0
0.36,0.000722626708880442,0.000416260630275203,-0.0360189089901966,-0.0208331849105621,0.000831212728248021,6.74364375020603e-05,-0.041479512610767,-0.00329141792165003,-0.967229242625878,-0.000133807613280735,0
0.37,0.000722549467314525,0.000416260520245206,-0.0360183083419865,-0.0208331852016052,0.000831149105042356,6.73922741759303e-05,-0.041479019887563,-0.00329105615721619,-0.967229739434889,-0.000126873184730282,0
0.38,0.000722479734536855,0.000416260420455767,-0.0360177634686019,-0.0208331854721333,0.000831091666462691,6.73524044910315e-05,-0.0414785729137206,-0.00329072807105459,-0.967230187927412,-0.000120613150932706,0
0.39,0.000722417010751357,0.000416260330333641,-0.0360172804050401,-0.0208331685002844,0.000831040001020857,6.73165413227042e-05,-0.0414781668986911,-0.00329045107255157,-0.96723059280215,-0.000114961929583961,0
0.4,0.000722360141866731,0.000416260248970456,-0.0360168295713718,-0.0208331687370214,0.000830993158312988,6.72840268390296e-05,-0.0414777970565924,-0.00329017983256028,-0.967230958301184,-0.0001098603117044,0
0.41,0.000722308860917544,0.000416260175517175,-0.0360164229235802,-0.0208331689583494,0.000830950918324924,6.7254707021546e-05,-0.0414774634676123,-0.00328993515896732,-0.967231288253976,-0.000105254846229985,0
0.42,0.000722262585827188,0.00041626010920514,-0.0360160542395903,-0.020833169165855,0.00083091280162517,6.72282492458508e-05,-0.0414771610213318,-0.00328971337547149,-0.967231586117653,-0.000101097280390013,0
0.43,0.000722220792726716,0.000416260049340571,-0.0360157179675128,-0.0208331693610027,0.000830878376724148,6.72043541451377e-05,-0.0414768851579184,-0.00328951120023797,-0.967231855012663,-9.73440541836107e-05,0
0.44,0.000722183214648919,0.000416259995296515,-0.0360154194273449,-0.020833150871681,0.000830847423660568,6.71828683631343e-05,-0.0414766296687942,-0.00328934690896228,-0.96723209775671,-9.39558439897526e-05,0
0.45,0.000722149104959677,0.000416259946507167,-0.0360151380790262,-0.0208331510464267,0.000830819327570206,6.71633664731201e-05,-0.0414763988496586,-0.00328917798828035,-0.967232316892727,-9.08971505668694e-05,0
0.46,0.000722118371314762,0.000416259902461944,-0.0360148845049028,-0.0208331512117821,0.000830794012291451,6.71457945711e-05,-0.0414761908220245,-0.0032890257234444,-0.967232514716999,-8.8135927112068e-05,0
0.47,0.000722090606260549,0.000416259862699337,-0.0360146520706084,-0.0208331513688819,0.000830771142239768,6.71299200493352e-05,-0.0414760001311769,-0.00328888626199498,-0.967232693302152,-8.5643243499764e-05,0
0.48,0.000722065518758734,0.000416259826803235,-0.0360144385919558,-0.0208331515185401,0.000830750477689199,6.71155765061075e-05,-0.0414758249854637,-0.0032887582859474,-0.967232854518995,-8.33929831744376e-05,0
0.49,0.000722042875978674,0.000416259794397534,-0.0360142436238959,-0.0208331516614033,0.000830731826847367,6.71026306955889e-05,-0.0414756650244023,-0.00328864147208658,-0.967233000056834,-8.13615695180276e-05,0
0.5,0.000722022503297386,0.000416259765142997,-0.0360140684603121,-0.0208331517979589,0.000830715045854927,6.70909825160845e-05,-0.0414755213185722,-0.00328853649113212,-0.967233131440593,-7.9527718831483e-05,0
0.51,4.67234845227158,0.0329661710306471,6.38359319598765,-1.64195320690925,-0.538012884257268,4.64138653467369,-2.40941998133345,6.13522353130597,0.122456857391196,37.8242175154549,706.706688102211
0.52,4.67515819737917,-0.00744635095686053,6.24421636537322,0.391096009722233,-2.47874979196518,3.96395750324052,-2.97028651845564,5.50641372443953,0.557238077701899,80.9239902668426,706.706688102211
0.53,4.64828953033252,0.00748475349345012,7.58894795703785,-0.344749433269139,-4.49298938556092,1.19151078911215,-7.426347151933,1.60010976040552,1.31318018178016,125.923485731477,706.706688102211
0.54,4.62019623975127,0.0422862006689244,8.99503583555827,-2.08562475902366,-3.10673676513661,-3.41996901867945,-4.43051817528203,-8.10129674909675,2.4133023042875,173.781534038651,706.706688102211
0.55,4.61350975949215,0.0471826381843545,9.3308600742986,-2.31406954159934,2.95503588223829,-3.54322754518526,7.8111286666704,-5.60411781837403,-2.43623700591977,216.955204091521,706.706688102211
0.56,4.44402591488755,0.0292167096132148,8.00652475048107,-1.41854434021543,2.81987131052381,3.43490112527238,3.93718435433845,7.11444207125026,-0.680809274316326,262.61935019295,706.706688102211
0.57,4.0381541138041,0.0701320872244793,9.52706501148811,-3.44883813388475,-3.96217462963928,0.782802248805077,-9.98666413949768,-1.7105530017306,1.39310512604305,302.300831204671,706.706688102211
0.58,3.69795196626306,0.0272629934355565,8.43709180941793,-1.31172363310646,2.10165899506982,-3.04279829828433,5.91975092565977,-6.15318503446365,-2.52976368219462,340.546321074976,706.706688102211
0.59,3.34855576387335,0.0166503243139351,9.80427856133565,-0.788954275161176,-0.289189534409679,3.33608638231343,-1.68092683394916,9.6912750417822,0.0914414607789007,374.964120665347,706.706688102211
0.6,3.02465686726644,0.0528042500397965,11.5435466372342,-2.60074699188765,-0.620000939649469,-2.96090126285192,0.386172562088134,-11.8265897296771,2.95263515665029,405.818991106003,706.706688102211
0.61,2.84027007860854,0.0530533313626942,7.42370647650039,-2.58949584369095,0.755904159508424,2.73834944392521,-0.667174043726838,7.83401463932151,-0.25065948511204,433.991255386913,706.706688102211
0.62,2.55084559603274,0.0203535853693216,9.60718543183281,-0.95454601656927,-0.3078770002378,-2.53227946245307,-0.134923834525933,-9.65354678748933,3.02858447329036,459.940002671433,706.706688102211
0.63,2.3484650674665,0.0367420635491239,8.4940113497689,-1.77608568861881,-0.445666839615134,2.30608309052639,-3.48030356216713,7.94922614463107,0.206547500354269,483.698947057639,706.706688102211
0.64,2.12689571706873,0.0337953810153384,9.31771386037362,-1.6374276004446,1.33129144573345,-1.65906317106379,7.20689409993767,-6.12875502551539,-2.44948012160484,505.422562188843,706.706688102211
0.65,1.95302754953333,0.0406364102018276,8.61720065841161,-2.00627472447578,-1.88654194042662,0.506880098328619,-8.84693135060084,0.114416498617583,1.32911710689242,525.27154279664,706.706688102211
0.66,1.7784650996134,0.0126175866077367,8.72118707824005,-0.605729530348125,1.5376907723393,0.89364668784553,7.20094798633982,4.95705158492681,-1.03724930897683,543.329896722996,706.706688102211
0.67,1.60909369581555,0.00318447879736455,9.39724195542722,-0.127999744013898,-0.221258915170556,-1.59381214554166,-1.14692613890533,-9.32786689094591,3.00562962443213,559.658755743143,706.706688102211
0.68,1.49202228574105,0.00608032509405088,8.20165366265869,-0.260890575503227,-1.14616880042431,0.95523010444348,-6.48799821151991,5.02404875592421,0.880087202395091,574.486924278289,706.706688102211
0.69,1.29043740771266,-0.00100213248847947,11.8287854774582,0.0984098171000216,1.1724883318983,0.538981278947649,10.7924700708406,4.84277194732901,-1.14068997677848,588.133664426873,706.706688102211
0.7,1.15690387374446,-0.0123576834781031,12.5214569597986,0.628201135181651,0.0999864213718246,-1.15264131496626,0.322417031678298,-12.5330590168568,-3.06574505843976,600.74165005103,706.706688102211
0.71,1.0919647808498,-0.0134363358630225,10.3103606886952,0.695145273738807,-1.07464662006597,0.194170697373618,-9.99074334592211,2.64041888315204,1.37973749910359,612.051353021664,706.706688102211
0.72,0.991616966807777,-0.0159595470400114,10.426951639003,0.839389787237872,0.351577590048137,0.927336030885634,4.63279823334512,9.37886326940216,-0.378476515169867,622.342903368418,706.706688102211
0.73,0.868711984116261,-0.0128678672919396,12.0198790900397,0.645772287018262,0.771245694821505,-0.400007714394544,10.2812090318199,-6.26029200835538,-2.06406503223672,631.921064647127,706.706688102211
0.74,0.841374337250472,0.0109505771192708,9.2548259037061,-0.529149806024862,-0.443359736150375,-0.715166298761054,-4.32028190681207,-8.20164411997971,2.59965510351693,640.441620242476,706.706688102211
0.75,0.77708963570498,0.0156123126634762,8.72823150615991,-0.743390436703321,-0.662366798353967,0.406672190670957,-7.90455488674665,3.77527040209229,1.04025735365361,648.264746329553,706.706688102211
0.76,0.654406649917893,-0.0279796952784905,11.3742905448189,1.39963789156587,0.267876426210856,0.597723303113687,6.34248698353857,9.54496361905625,-0.464053572038467,655.477794284419,706.706688102211
0.77,0.61014946020668,0.0565100458354396,10.475489666566,-2.80152517481681,0.554372146596906,-0.261050324934419,10.8031694067599,-0.935926187426728,-1.91853566058275,661.897657576027,706.706688102211
0.78,0.552707270635739,0.0159160514263273,10.4720040375117,-0.804231714958524,-0.117807048722202,-0.540240823131664,-1.14532642680428,-10.4402051986094,2.95567834070304,667.878695768912,706.706688102211
0.79,0.50165320102171,0.0126998002420989,10.3842752764933,-0.621482110194457,-0.501798499117711,0.00393513719329224,-10.3718350682416,-0.802776649184401,1.58826491081809,673.256997632459,706.706688102211
0.8,0.403354095977458,-0.00728393229200602,12.9120435910303,0.377219545286159,-0.110167148844036,0.388086049384673,-2.93653217645153,12.579345891527,0.258540062095707,678.168376547229,706.706688102211
0.81,0.415390550244847,-0.0231643056390814,10.1122796326674,1.16372081813678,0.345764687868582,0.231371292323831,9.29666429456834,4.14541656603085,-1.03677819289218,682.630341431909,706.706688102211
0.82,0.374885472861669,-0.0056172486079841,10.1736868708447,0.30864943058687,0.283029057020677,-0.245896775348168,7.37328829663307,-7.01667932228153,-2.30108907493953,686.645580271318,706.706688102211
0.83,0.346056095666874,-0.0371703803358716,9.75560295071942,1.85835349323033,-0.0989782152775393,-0.333676147518799,-5.47229839634966,-8.28729249509125,2.74622965879195,690.390317776,706.706688102211
0.84,0.283366664178868,-0.0191222584519658,11.2440547769986,0.982336644559687,-0.283858514138278,-0.00930973078945916,-11.2033499067648,1.37065822799926,1.53620142735752,693.73230707142,706.706688102211
0.85,0.286059602475637,0.0292138812160999,9.56166720322291,-1.46812998324035,-0.0705749790529333,0.278752075070134,-4.65562072861168,8.47974533722559,0.349743460528873,696.822831086891,706.706688102211
0.86,0.209062208602311,-0.012801154942312,12.0155186849832,0.663653222942691,0.143386152063874,0.152680345918684,9.20050723680438,7.75653217971877,-0.81517118534762,699.598605495304,706.706688102211
0.87,0.224669525605556,0.00373635953912697,9.98151497028689,-0.194912241746619,0.206377809001593,-0.0888738210618482,9.30607463025585,-3.61463786016697,-1.96080251643845,702.078942507131,706.706688102211
0.88,0.174979329499863,-0.0236113992247648,11.3103860705005,1.20384247784653,0.0327697823175299,-0.173497565667172,-0.608090450274612,-11.358005801175,-3.08904239543943,704.368689530815,706.706688102211
0.89,0.212769563210926,-0.00161406222416513,8.37144519934387,0.0740976077418181,-0.0180929921856761,-0.212005037344872,-0.8488830536114,-8.32862430071029,3.04887085077049,706.413786085329,706.706688102211
0.9,0.159719280215969,0.0170149003470502,10.0430758602959,-0.830118009677673,-0.154631355909488,-0.0434614665666081,-9.01817595975831,-4.49721814063835,1.95092212314982,708.324877208603,706.706688102211
0.91,0.126332854505154,0.036920048471566,10.8312472136238,-1.8544107412867,-0.0723396760641226,0.109954769671447,-9.4533984715125,5.60250057910197,0.8662378542896,710.001679645026,706.706688102211
0.92,0.156538189390432,0.00126829504168216,8.52762108809855,-0.0431222309690826,0.0333774357042466,0.152943650066802,1.70845498615292,8.35484066330867,-0.206762813692291,711.515126417422,706.706688102211
0.93,0.103977827713443,-0.0267642303751971,10.3984116317761,1.33667935445926,0.0913234336525171,0.0564601022802595,10.3257635652946,1.81446492226453,-1.26900470846788,712.928769853517,706.706688102211
0.94,0.0729793592937237,0.0335253126673395,11.2906602596218,-1.68665420316047,0.030479752610746,-0.0743028811901195,9.40517023683019,-6.47043926758342,-2.32168851057842,714.151784790964,706.706688102211
0.95,0.0663801802867772,-0.0141255595773785,11.0039702321082,0.708140709870244,-0.000982224542990757,-0.0678593766787337,-3.13629670202057,-10.5713039465808,2.91744889679988,715.283851765783,706.706688102211
0.96,0.0963806364541188,-0.00775439627382072,8.93954425834692,0.365107023248529,-0.0894043099701881,-0.0368269887939129,-8.62372927038402,-2.3832851605485,1.88124896269986,716.295851745601,706.706688102211
