t,iq,id,vq,vd,ia,ib,va,vb,theta_e,omega,r
0,0,0,0,0,0,0,0,0,0,0,0
0.01,0.000444472632138524,0.000251478853780614,-0.0217614924412893,-0.0125823609875699,-0.000358970791108455,-0.000363232027428652,0.0178357995732922,0.0177133456714186,2.87698109314341,-0.00156005696217531,0
0.02,0.000527792324626296,0.000297214318305794,-0.0258867475274208,-0.0148706749410451,-0.00042491065950716,-0.000431685093995145,0.021123621927042,0.0210962856312206,2.87696881155666,-0.00176906741185054,0
0.03,0.000559213613407329,0.000314741639700222,-0.027440136437511,-0.0157476182130542,-0.000450051882031288,-0.000457422636804697,0.0223766106897082,0.0223659531684785,2.87695593269449,-0.00178431339523189,0
0.04,0.000547916579588833,0.000308624521267504,-0.0269119146043078,-0.015441566634017,-0.000441198325811314,-0.000448113501935855,0.0219433191781148,0.0219359037021437,2.87694377628246,-0.00164942960286218,0
0.05,0.000561011045284437,0.000316388815633224,-0.0275707146641318,-0.015830031249084,-0.000452122800082646,-0.000458715869830507,0.0224908449936362,0.0224698929216447,2.87693206104628,-0.00160684797974675,0
0.06,0.000562412758234135,0.00031751055333007,-0.0276591893991204,-0.0158861685956476,-0.000453577298445449,-0.000459770264844763,0.0225684238396862,0.0225403495149929,2.87692084763168,-0.00152551766472931,0
0.07,0.000572282713563525,0.000323572508289767,-0.028158685193481,-0.0161894602131702,-0.000462014967732104,-0.000467705935344065,0.0229920588317167,0.0229428726296048,2.87691038211441,-0.00148081689124516,0
0.08,0.000563030856898454,0.000318546609487539,-0.0277263997564141,-0.0159379982210819,-0.00045474844526645,-0.000460086448141608,0.0226364957813295,0.0225911949548833,2.87690024778791,-0.00136897412621523,0
0.09,0.000561105453299622,0.00031781755408075,-0.0276496866281026,-0.0159015275138606,-0.000453545408412198,-0.00045841453937747,0.0225814392635415,0.0225264810543797,2.87689078651222,-0.00128902340587921,0
0.1,0.000560331417486317,0.000317710468811344,-0.0276280499276498,-0.0158961711760394,-0.000453243626872126,-0.000457691439852604,0.022570809413165,0.0225067981573843,2.87688187565365,-0.00121751209447465,0
0.11,0.000559760995297533,0.00031769348861221,-0.0276154152030863,-0.0158953180035908,-0.000453081840567485,-0.0004571415210972,0.0225668693912542,0.022494637075361,2.87687347112321,-0.00115064562221576,0
0.12,0.000559247174478874,0.000317689632385765,-0.0276046780406148,-0.0158951286248831,-0.000452947304149398,-0.000456643016317779,0.0225640556305952,0.0224841445740545,2.87686554229824,-0.00108765298396612,0
0.13,0.000582038708018146,0.000330898926605133,-0.0287285259123496,-0.0165560239717566,-0.000471663428035673,-0.000475180773930827,0.0234961592696153,0.0233957395785385,2.87685780155141,-0.00111105303572553,0
0.14,0.000596366641693177,0.000339440746217959,-0.0294869848173801,-0.0169833998400879,-0.000483660227996268,-0.000486770968086637,0.0241072775591347,0.0240157721598857,2.8768503875561,-0.00110612390295395,0
0.15,0.000563656920850269,0.000320833156339823,-0.0278594534404643,-0.0160524067178085,-0.00045714533504202,-0.000460066496583591,0.0227830198585471,0.0226883871961051,2.87684332206336,-0.000932438180486953,0
0.16,0.000558310400985041,0.000318138996884821,-0.0276104157549363,-0.0159176080112255,-0.000453148901920452,-0.000455608382138922,0.0225878942126578,0.0224831567622797,2.87683703071233,-0.000864453777769541,0
0.17,0.000557175796280293,0.00031774803626124,-0.0275657463577922,-0.015898043023596,-0.000452477340139636,-0.000454612955346208,0.0225574540797706,0.0224450308460756,2.87683115257858,-0.000815005798403548,0
0.18,0.000556704218769695,0.000317690474119951,-0.0275527492090462,-0.0158951686478442,-0.000452300896477215,-0.000454170368461488,0.0225514029896657,0.0224331138836698,2.87682561569587,-0.000770605661090493,0
0.19,0.000556351154915852,0.00031768121956278,-0.027544955927359,-0.0158947078975883,-0.000452201943171675,-0.000453829667861037,0.0225490360297098,0.022425594982534,2.87682039331767,-0.000729061663136128,0
0.2,0.000556032201176507,0.000317679008517979,-0.0275382903688058,-0.0158945963123703,-0.000452118576751535,-0.000453520180096017,0.0225472944811605,0.022419079819424,2.87681546651502,-0.000689920179235967,0
0.21,0.000555733387348126,0.000317677865953824,-0.0275321025059374,-0.0158945341912943,-0.000452041382822999,-0.000453229977545472,0.0225457193755961,0.0224130190601922,2.87681081839566,-0.000653000570979541,0
0.22,0.000555451709607078,0.000317676924356871,-0.0275262745400454,-0.0158944940405583,-0.000451968745658561,-0.000452956380816181,0.0225442537142387,0.0224073058471412,2.87680643317124,-0.000618170314898852,0
0.23,0.000555186248776175,0.000317676055573529,-0.0275207889809974,-0.0158944406368964,-0.000451900308181895,-0.000452698529465278,0.0225428592663478,0.022401932179927,2.87680229596841,-0.000585310189957624,0
0.24,0.000554935712133028,0.000317675238602559,-0.0275156077465773,-0.0158944019147768,-0.000451835718537417,-0.000452455174879855,0.0225415533485784,0.022396853674683,2.87679839275913,-0.00055430860787399,0
0.25,0.000554699261740553,0.000317674468086993,-0.0275107138980154,-0.0158943617214644,-0.000451774758579078,-0.000452225503660159,0.0225403162413802,0.0223920579101114,2.87679471030898,-0.000525060427946573,0
0.26,0.000559111649430664,0.000320327777872699,-0.0277317252596866,-0.0160271129501168,-0.000455491928705682,-0.000455788135749404,0.0227263593377045,0.02257054555495,2.87679129730097,-0.000514832988074728,0
0.27,0.000547426376505111,0.000313670239719545,-0.0271688512821028,-0.015694022507467,-0.000446009735828623,-0.000446251019635042,0.0222576409720572,0.0221143899037007,2.87678785854143,-0.000445734588129887,0
0.28,0.000546978441434575,0.000313534129362106,-0.0271070427010488,-0.0156872061358358,-0.000445762514609192,-0.000445852942390583,0.0222349538073442,0.0220564509731271,2.87678476609268,-0.000420263254341179,0
0.29,0.000552794022289293,0.000317072865913792,-0.0274408852109555,-0.0158642648887854,-0.000450701251767728,-0.000450538361332932,0.0224932785265735,0.0223322525229403,2.87678193657998,-0.000419648437663138,0
0.3,0.000546267979800343,0.000313591838535538,-0.02712714976844,-0.0156900946849953,-0.000445634535025816,-0.000445149871552909,0.0222431166184473,0.0220749878568855,2.87677967213005,-0.000378406315202966,0
0.31,0.00055242704682807,0.000317080366861776,-0.0274316404567525,-0.0158646372257391,-0.000450614605514317,-0.00045018005110573,0.0224913254692538,0.0223231245816741,2.87677713517595,-0.000381298737580579,0
0.32,0.000553237408384915,0.000317584820517014,-0.0274755308712022,-0.015889877364622,-0.000451314683379547,-0.000450829019502184,0.0225272284053914,0.0223588233073308,2.87677466830266,-0.000365236154644329,0
0.33,0.000553235738451455,0.000317657414788468,-0.0274796450563554,-0.0158935075905015,-0.000451385364207102,-0.0004508073518141,0.0225318611979862,0.0223617912276117,2.87677232970386,-0.000347202646887217,0
0.34,0.000553116565209598,0.000317667529609876,-0.0274778011535896,-0.015894023154425,-0.000451364929656819,-0.000450688688956801,0.0225319255454234,0.0223598269108932,2.87677012164884,-0.000329747875886594,0
0.35,0.00055298636694655,0.000317668623909175,-0.0274751957508709,-0.0158940730687075,-0.000451332846693189,-0.000450561802798368,0.0225313383667031,0.0223572523282093,2.87676803821371,-0.000313212711611252,0
0.36,0.000552860825190296,0.00031766843353602,-0.0274726045729832,-0.0158940589539237,-0.000451300689060591,-0.000450439800360447,0.022530690470435,0.0223547108900954,2.87676607257374,-0.000297602389510383,0
0.37,0.000552741709286678,0.000317668076922189,-0.0274701253133189,-0.0158940463608697,-0.000451270002370807,-0.000450324093560241,0.0225300708420011,0.0223522795773793,2.87676421810098,-0.000282873373957562,0
0.38,0.000552629403679246,0.000317667714828161,-0.0274677885898086,-0.015894033744399,-0.000451241045307767,-0.000450215008506579,0.0225294861460447,0.0223499882030773,2.87676246851312,-0.00026897716383658,0
0.39,0.000552523536091852,0.000317667369473633,-0.0274655868885893,-0.0158940079330655,-0.000451213744612827,-0.000450112177391606,0.02252892183758,0.022347832828872,2.87676081787911,-0.000255866863018482,0
0.4,0.000552423512297938,0.000317667043085848,-0.0274635010969784,-0.0158939938211445,-0.000451187949477615,-0.000450015023581081,0.0225283970666237,0.0223457883660178,2.87675926060213,-0.000243498053340069,0
0.41,0.000552329192857175,0.000317666735054126,-0.0274615342260135,-0.0158939811441972,-0.000451163625243333,-0.000449923410259457,0.0225279028337917,0.0223438602880041,2.8767577914023,-0.000231828802131791,0
0.42,0.000552240170313417,0.000317666444409458,-0.0274596752823116,-0.0158939684484079,-0.000451140666612031,-0.000449836942169484,0.0225274349707394,0.0223420382527667,2.87675640529788,-0.000220819544271764,0
0.43,0.00055215621183602,0.000317666170180748,-0.0274579214679668,-0.0158939557344357,-0.000451119013858937,-0.000449755392720696,0.0225269928516221,0.0223403194536739,2.87675509758927,-0.000210432951747782,0
0.44,0.000552077026384091,0.000317665911443101,-0.0274562666414511,-0.0158939415480605,-0.000451098591942496,-0.000449678479251091,0.0225265735652015,0.0223386982438814,2.87675386384267,-0.000200633807660715,0
0.45,0.000552002322924492,0.000317665667322835,-0.0274547041147682,-0.0158939288005906,-0.000451079325755162,-0.000449605919206994,0.0225261782648268,0.0223371673121046,2.87675269987466,-0.000191388886905719,0
0.46,0.000551931868624003,0.000317665436994909,-0.0274532297335089,-0.015893916037602,-0.000451061155359586,-0.000449537486300782,0.0225258045481214,0.0223357229404152,2.87675160173873,-0.000182666843532858,0
0.47,0.000551865372444321,0.000317665219680915,-0.0274518360001541,-0.0158939032600027,-0.00045104400552369,-0.000449472898158697,0.022525450537154,0.0223343578084509,2.87675056571173,-0.000174438104465987,0
0.48,0.000551802601552156,0.000317665014646093,-0.0274505178488521,-0.0158938890134867,-0.000451027816195108,-0.000449411928666898,0.0225251135812522,0.0223330673284004,2.87674958828062,-0.0001666747692322,0
0.49,0.000551743346153591,0.000317664821197311,-0.0274492710693435,-0.0158938893629705,-0.000451012533299817,-0.000449354374027407,0.0225248081575761,0.0223318431569147,2.87674866613159,-0.000159350515364264,0
0.5,0.000551687560183221,0.000317664638680541,-0.0274480992615917,-0.0158938765441366,-0.000450998145572375,-0.000449300188536832,0.022524508482397,0.022330695965439,2.87674779613774,-0.000152440509148387,0
0.51,2.94674092171077,0.0288578201700474,1.72515529111148,-1.44086567079328,-0.148819554577188,2.94312207929696,-1.54223524697559,1.63516516068153,0.0603149876686027,18.5553123744127,519.606774363988
0.52,2.83948252961446,0.0135364365057206,2.73670112586438,-0.670897778680715,-0.748309953147072,2.73913790910937,-1.38012325667969,2.45660266997289,0.27145152793453,38.9678135184249,519.606774363988
0.53,2.71837537947944,-0.0101962597760326,4.47141324524703,0.519857667819027,-1.61177844321372,2.18902693392863,-2.21787020264058,3.91724905626383,0.630923831658407,59.0817219227768,519.606774363988
0.54,2.66904192907166,-0.0185628993110643,2.45089271968392,0.941861950844296,-2.43160946904031,1.10063835588575,-1.83138321807736,1.88149264319382,1.13879619206232,79.641340488749,519.606774363988
0.55,2.55542803403713,-0.0123744341525265,3.39576519068024,0.631722493978124,-2.48552647410697,-0.593737071671336,-3.4504178265792,-0.157833335065802,1.80043757301415,100.592708506311,519.606774363988
0.56,2.46083640764205,0.0258299661920631,4.02184339772762,-1.27681966035004,-1.27620010130174,-2.10420918964051,-0.950811171751122,-4.1111374188386,2.60690443926609,119.069268699068,519.606774363988
0.57,2.40881821432147,0.0458411279231044,2.80602209325231,-2.27381031198952,0.900705756427929,-2.23455493085172,3.19074350718312,-1.69207836523571,-2.73940515568494,136.603216200298,519.606774363988
0.58,2.32501571691284,0.00324409418210686,2.79400278724567,-0.14508103090158,2.31330892090315,-0.233046013715561,2.79466055564074,-0.131804625904509,-1.66980370040918,155.213855215738,519.606774363988
0.59,2.2370779792186,0.0367306177156455,3.51330845277909,-1.81592123700989,1.04739653010678,1.97707549984891,-0.0248752299305961,3.95478032845422,-0.470761951749547,171.641240268906,519.606774363988
0.6,2.19160970425988,0.00313273111424961,2.01845148770245,-0.137407049915783,-1.6417325442309,1.45185301012997,-1.60480745911388,1.23191725564148,0.848129144453326,188.5514063184,519.606774363988
0.61,2.13634290365496,-0.00845987088799283,1.22275040199078,0.448186351889526,-1.60337831677704,-1.4118110867611,-1.21573910298293,-0.466870415711821,2.28878575132129,204.129738949305,519.606774363988
0.62,2.02791745075892,-0.020190129745618,3.05839548321646,1.03080845574524,1.32301359696095,-1.53703996392031,1.18411466441434,-3.00236930868167,-2.44084402419591,219.971606799891,519.606774363988
0.63,1.93838484116295,0.0117801336508404,4.2664924342018,-0.561694272115442,1.36498932281568,1.37632798147765,2.58468287290684,3.44062096036901,-0.77518476023785,234.340861360053,519.606774363988
0.64,1.87440173441383,0.000904656224562483,4.04741586179874,-0.0216335644428997,-1.57459383805043,1.01687606204005,-3.41282398638816,2.17593097486666,0.997860453989082,249.098743261272,519.606774363988
0.65,1.78369515573319,-0.0196485256107938,5.41729756150775,1.00392869288266,-0.453223205446579,-1.72526612416446,-2.40215498690416,-4.95828973631053,2.87368432103725,263.038625939961,519.606774363988
0.66,1.78705969610447,0.0612594030937911,2.20631936231174,-3.03484278952485,1.77848522338237,0.185271104382099,1.76764817703405,3.30961263713306,-1.43273116420446,276.12961151181,519.606774363988
0.67,1.71495939896001,0.023853610654069,2.72344257612251,-1.16620641808006,-1.00646744070024,1.38876852845707,-2.56337165706422,1.485362791633,0.64103246093653,289.254916278981,519.606774363988
0.68,1.65083137376764,0.0279573451594501,2.97173625226164,-1.37553726800971,-0.567527963698578,-1.55046375261857,0.325456884168653,-3.2584347385266,2.80763621940915,301.909300661524,519.606774363988
0.69,1.59478683444506,0.0340239445788469,2.95892858245257,-1.68123611636152,1.50890859872082,0.517394933131711,2.19873274856519,2.59757339365034,-1.21913520783159,313.987345759213,519.606774363988
0.7,1.48823617227162,0.00114785960357922,5.57848167819879,-0.033286293760513,-1.34191499750339,0.643515626472921,-5.04624098052433,2.37823837699856,1.12441326366079,325.494431397817,519.606774363988
0.71,1.47283153999714,-0.0107306714933897,3.69180539262035,0.568180296422344,0.597345656675505,-1.34630087980806,0.951624729969164,-3.61201692680619,-2.73128075082659,336.641943254748,519.606774363988
0.72,1.39188601887281,0.0557687525874104,5.13638871084071,-2.76033273480052,0.361808809472897,1.34519560982281,-1.55772284513491,5.61920148538989,-0.222700090831506,347.459505006929,519.606774363988
0.73,1.35483561418262,0.0366869915600128,4.48438127790565,-1.80614784368301,-0.977167517377279,-0.939185349007344,-1.86147887878598,-4.46169719531763,2.36344899655007,357.871075009069,519.606774363988
0.74,1.31496899751114,0.0222592804368908,4.03409604707187,-1.08483697606409,1.25820538492661,0.382829138549701,3.50566854948585,2.27180329315338,-1.25850437489597,367.94426342068,519.606774363988
0.75,1.27201797064831,-0.00526272234102176,3.81704731983984,0.291987095081888,-1.26670850030408,0.116219573033435,-3.77172654243219,0.655122579906547,1.47516593787157,377.66741932489,519.606774363988
0.76,1.26664401148454,0.000981377466158007,1.78527591336561,-0.0196940209659286,1.14903420137535,-0.533018216387673,1.62836506525243,-0.732137388452933,-2.00436096799889,387.056111724455,519.606774363988
0.77,1.18914509800778,-0.00212078018759559,3.44445259751366,0.135100433434485,-0.907721892800884,0.768187169350359,-2.53785288938502,2.33276842731397,0.866682251512302,396.056133506785,519.606774363988
0.78,1.14965744513491,0.0302798256855787,3.27295330724434,-1.48569823856226,0.681742203551776,-0.926205526270518,3.18181732776013,-1.67199315196985,-2.48074140613377,404.736462379998,519.606774363988
0.79,1.07824325627787,0.0231083051682281,4.75690088791642,-1.12755707306571,-0.513244746685862,0.948536948924932,-3.33285778364217,3.57652764626479,0.517405677607941,413.127179046424,519.606774363988
0.8,1.05188600417658,-0.0244338846927307,4.05386801922492,1.2446176151274,0.464530929367653,-0.944072135042961,0.575615853221725,-4.2013789777524,-2.70754951340089,421.183847208018,519.606774363988
0.81,0.99847616869443,0.0278984141951996,4.74368505231327,-1.38212705839849,-0.371000047316524,0.927411422108037,-3.15264924259435,3.80442187911211,0.408473079239093,428.998469759366,519.606774363988
0.82,1.0048214960187,-0.0246702810043111,2.50964281927107,1.25021674337305,0.449198090216922,-0.899164021395185,-0.0656583866330065,-2.80304084201317,-2.70283365547204,436.462763589367,519.606774363988
0.83,0.977965019878109,-0.0163233963606745,2.01783042718798,0.836154744245246,-0.502227361985035,0.839315024438078,-0.282482535964828,2.16587118871006,0.522536114273086,443.576626052089,519.606774363988
0.84,0.910837641544136,0.0399724199839472,3.60347247798076,-1.97694035248849,0.525215670821731,-0.745232515887717,3.76747197801575,-1.64300394148285,-2.48381697414653,450.420471389206,519.606774363988
0.85,0.857702811261936,0.00853469462872572,4.54191820495923,-0.401287051554121,-0.634461254185862,0.577222548412601,-3.65691540330096,2.72342101251078,0.842552365942142,457.042650628827,519.606774363988
0.86,0.827601724247407,0.0265464855068472,4.35891724654462,-1.31768264626188,0.715368538539488,-0.416985831819167,4.46102836345379,-0.914151551409634,-2.06647939333496,463.509653370062,519.606774363988
0.87,0.813448844183527,-0.00701073034831129,3.41792574176957,0.362977633123838,-0.795863212563047,0.1683743428565,-3.25950267733637,1.09069309837198,1.35369034955803,469.672135732192,519.606774363988
0.88,0.755615474634109,0.035405318702767,4.74456954265648,-1.7537182053091,0.755139069521217,0.0444214788318162,4.5333364550524,2.24395371476977,-1.46521646155185,475.500142488034,519.606774363988
0.89,0.727376673321701,-0.0108165600508061,4.64889051918265,0.564581197593212,-0.643480674688664,-0.339302879690255,-4.39989603178811,-1.60369881757059,2.04116966274515,481.119075299807,519.606774363988
0.9,0.707515756818693,0.0086314631107911,4.16426272363059,-0.424465188237127,0.459749095441018,0.537851110943658,2.34095908738234,3.4700382243783,-0.695068565928219,486.60100593139,519.606774363988
0.91,0.689273740605595,-0.000811433094124278,3.62606166259826,0.0526117173118597,-0.170123153195521,-0.667949893823563,-0.950070825350237,-3.49977950742353,2.8910233282306,491.824808643066,519.606774363988
0.92,0.641839084276004,-0.00780776949020281,4.62376046054719,0.410656484880578,-0.154790521766596,0.622943228344202,-0.660639396595436,4.59470947207329,0.231385881793357,496.774979046345,519.606774363988
0.93,0.629702225529195,0.0441904395689062,3.88994266526378,-2.2051994538919,0.39648534726945,-0.491199610327958,4.26393145006813,-1.34664292208608,-2.39242853116502,501.625290801446,519.606774363988
0.94,0.609108032014734,0.0139163915266838,3.60759139600456,-0.687086624968458,-0.583453154267281,0.175467026513662,-3.66037093114199,0.297469926525998,1.30150502327891,506.220875211909,519.606774363988
0.95,0.584871654390034,0.00538726531899136,3.57946414860355,-0.25046587851936,0.557607876175192,0.176571037160527,3.3245573262314,1.35004271489524,-1.25491705434785,510.554175375665,519.606774363988
0.96,0.538098740856972,-0.00986998717644308,4.70057858065187,0.49677474684388,-0.312676160516426,-0.438042566656973,-3.199611343858,-3.47918257500813,2.50332250347224,514.824415749797,519.606774363988
0.97,0.523883004236972,-0.0200197717944653,4.21788137883483,1.01137730151445,-0.0246194386798521,0.52368700254078,0.974299300537074,4.22660008102414,0.00878153688408488,518.866833392137,519.606774363988
