t,iq,id,vq,vd,ia,ib,va,vb,theta_e,omega,r
0,0,0,0,0,0,0,0,0,0,0,0
0.01,0.000609950563215852,0.000343865807709516,-0.0301153497372622,-0.0172091860676513,1.16786189227577e-05,0.00070010498722628,-0.000780013093996045,-0.0346768215740984,0.496666501145552,-0.00125992158804121,0
0.02,0.000692357748156049,0.000389472417561387,-0.0342374297583629,-0.0194916272046347,1.25155883856432e-05,0.000794286708638756,-0.000822894150730034,-0.0393884243498008,0.496656990863998,-0.00134318160819943,0
0.03,0.000723936631790344,0.000407498029722434,-0.0358145824464622,-0.0203937277961037,1.33243073369796e-05,0.000830639123753272,-0.000864901508887812,-0.0412048588714478,0.496647422068974,-0.00131518659704913,0
0.04,0.000706444774060667,0.000398365784177596,-0.0349767652232125,-0.0199367024333817,1.36369857970478e-05,0.000810909088258005,-0.000862646785244923,-0.040250491300366,0.4966386925718,-0.00118884184919582,0
0.05,0.000722945006032875,0.000408216804670259,-0.0358092987107155,-0.0204297112899239,1.44428848747633e-05,0.000830109537615106,-0.000899757886351299,-0.0412173435981608,0.496630375033929,-0.0011406692028341,0
0.06,0.000723371826452421,0.000409015898112479,-0.035850187739631,-0.0204696979741332,1.49485627997491e-05,0.000830865419116773,-0.000915753857243209,-0.0412723380848719,0.496622568950996,-0.00106267280629285,0
0.07,0.000739157862771072,0.000418632170505903,-0.0366445791263996,-0.0209509585189657,1.58878257949954e-05,0.000849326095955075,-0.00096068307031956,-0.0422000584152769,0.496615429471402,-0.00102485645601774,0
0.08,0.000722970987236367,0.000409859263969924,-0.0358660231007231,-0.0205119057066721,1.58926222280811e-05,0.000830914610057021,-0.000945894097580363,-0.0413063575389694,0.496608618667482,-0.000920751964912314,0
0.09,0.000720739448125296,0.000409144143226326,-0.0357721608248656,-0.0204761225528275,1.63322515915179e-05,0.000828611814771134,-0.000959410233427709,-0.0412067787734306,0.496602395227505,-0.000852969810738425,0
0.1,0.000719791987135096,0.000409084460961854,-0.0357402500791996,-0.0204731353232265,1.6735954116793e-05,0.000827750269576604,-0.000972224532278486,-0.041177293805515,0.496596637212486,-0.000792688826701495,0
0.11,0.000719012398553854,0.000409078195098364,-0.0357155111404797,-0.0204728137350298,1.7106280536475e-05,0.000827061771662376,-0.000983947822935181,-0.0411553846408547,0.496591303474822,-0.000737063255834632,0
0.12,0.0007182987387476,0.000409076376676205,-0.0356930125542525,-0.0204727276004255,1.74487752995944e-05,0.000826433361065167,-0.000994794386427845,-0.0411355576688585,0.49658636219503,-0.000685549371635983,0
0.13,0.000750570312640635,0.000427684132028055,-0.037292081757222,-0.0214039779473768,1.84380829359099e-05,0.000863672129979716,-0.00105192991847822,-0.0429851494961426,0.496581548732641,-0.000707143078736553,0
0.14,0.000775342331122175,0.00044245255563466,-0.0385697652267391,-0.0221430796458822,1.9624784365279e-05,0.000892488017990285,-0.0010932427611483,-0.0444606296189657,0.496577048975827,-0.000715580395600031,0
0.15,0.00072146809830413,0.000411787033954023,-0.0358833461393568,-0.0206083791015313,1.8333297527167e-05,0.000830511088670711,-0.00102394103017701,-0.0413675158078902,0.496572825004437,-0.000555577821125206,0
0.16,0.000716274653470578,0.000409292132147908,-0.0356371794259316,-0.0204835208480149,1.86169424111157e-05,0.000824756229499261,-0.00103158901339086,-0.0410915929099196,0.496569214109426,-0.00050776165586006,0
0.17,0.000715386050358283,0.000409088347629574,-0.0356019389255776,-0.020473319598577,1.88638458801589e-05,0.000823877801941604,-0.001039545095678,-0.0410557452330376,0.496565895386537,-0.000472272142533219,0
0.18,0.000714906809015264,0.000409070958663545,-0.0355861980141726,-0.0204724601660815,1.90794018104084e-05,0.000823448098683126,-0.00104641466348476,-0.0410414927933639,0.496562823146566,-0.000440166319465401,0
0.19,0.000714493247213712,0.000409068788590893,-0.0355731095542174,-0.0204723431430125,1.92768597842828e-05,0.000823083396011651,-0.00105266397042573,-0.0410299263426949,0.49655997713332,-0.000410490289749514,0
0.2,0.000714112668577679,0.000409067911655635,-0.0355611085781119,-0.0204723042385468,1.94595671407117e-05,0.000822748312071275,-0.00105845522753563,-0.0410193534404333,0.496557340517367,-0.000383003452893125,0
0.21,0.000713760320660551,0.000409067191258566,-0.0355500008025997,-0.0204722696669974,1.96288017391742e-05,0.0008224381268253,-0.00106381676364375,-0.041009568106437,0.496554897877193,-0.000357539326361702,0
0.22,0.000713433933359485,0.000409066531206324,-0.035539711036008,-0.0204722350649354,1.97855725714496e-05,0.00082215079841838,-0.00106878116004001,-0.0410005021421551,0.496552634940551,-0.000333948624781242,0
0.23,0.000713131527615479,0.000409065920192311,-0.0355301756357844,-0.0204722018888302,1.99308236871972e-05,0.00082188458131852,-0.00107338056803823,-0.0409921002760638,0.496550538486749,-0.000312093479760831,0
0.24,0.000712851278357685,0.000409065354067269,-0.0355213361003009,-0.020472184224618,2.00654312199543e-05,0.000821637868786683,-0.00107765575261107,-0.0409843177734619,0.496548596267658,-0.000291846203880857,0
0.25,0.000712591829866424,0.00040906482949914,-0.0355131549290553,-0.0204721509865703,2.01900476425139e-05,0.00082140946713666,-0.0010815977192787,-0.0409771068452333,0.496546796936502,-0.000273088506941353,0
0.26,0.000719359921147797,0.00041303342092535,-0.0358500808126871,-0.0206707705683484,2.04564464080529e-05,0.000829250768317652,-0.00109578899903648,-0.0413679622006582,0.496545170533597,-0.000271379973744315,0
0.27,0.00069954646754271,0.000401765424411126,-0.0348800855421174,-0.020106841108501,1.99895375997559e-05,0.000806462110015272,-0.00106212723107653,-0.0402464571426224,0.496543501236842,-0.000211363939749617,0
0.28,0.000698754723242141,0.000401377348536111,-0.0347989928361268,-0.0200874232052439,2.00266593598093e-05,0.000805581077288913,-0.00108374352410142,-0.0401659056092271,0.496542070081784,-0.000195170049826676,0
0.29,0.000710576458847949,0.000408437994488768,-0.0354292339627496,-0.0204407818789729,2.06039133478395e-05,0.00081933874433329,-0.00109424042398918,-0.0408883702402713,0.496540825545373,-0.000208325247992818,0
0.3,0.000704284341004159,0.000405128678335557,-0.0351219642389829,-0.0202751597020859,2.06924028685927e-05,0.000812229957251702,-0.00109503249956023,-0.0405393065650411,0.49653999378206,-0.000186216286570299,0
0.31,0.000710805621705989,0.00040874256006675,-0.0354454747607451,-0.0204560199980356,2.07641319093091e-05,0.000819685282949994,-0.00109998146385102,-0.0409099068191781,0.496538868912427,-0.000189041051153865,0
0.32,0.000711236220613554,0.000409036180539892,-0.0354693884139075,-0.020470712747647,2.08180486859904e-05,0.000820203735270831,-0.00110155197131787,-0.0409379307990499,0.496537788864327,-0.000179058251582154,0
0.33,0.000711142819276254,0.00040905979269573,-0.0354673423291533,-0.0204718922052604,2.08841276469366e-05,0.000820132840837921,-0.0011036048139937,-0.0409366925724549,0.49653678494697,-0.00016870457672928,0
0.34,0.000711013016301998,0.000409061465313396,-0.0354633185693786,-0.0204719901396335,2.09481971657782e-05,0.00082001949049441,-0.00110564585626995,-0.0409332003570573,0.496535854595202,-0.000159015653115305,0
0.35,0.000710889112828938,0.000409061371840217,-0.0354594104482057,-0.0204719808942866,2.1007847145585e-05,0.00081991048720505,-0.00110753476697857,-0.0409297588291244,0.496534992663283,-0.000150031031413666,0
0.36,0.000710774056912005,0.000409061151601878,-0.0354557756281037,-0.0204719643542589,2.10631186885252e-05,0.000819809203876193,-0.00110928446739225,-0.0409265541901939,0.496534194140973,-0.000141706656325089,0
0.37,0.000710667441105735,0.000409060936682777,-0.0354524059274466,-0.0204719477955569,2.11143258875592e-05,0.000819715345110654,-0.00111090544443278,-0.0409235827082868,0.496533454365254,-0.00013399463465091,0
0.38,0.000710568429874685,0.000409060736677354,-0.0354492710863938,-0.0204719481604998,2.11618787860872e-05,0.000819628180769694,-0.00111242718753072,-0.0409208258444923,0.496532769014294,-0.000126849975664514,0
0.39,0.000710476948060074,0.000409060551302087,-0.0354463780415771,-0.02047193156527,2.12058162483451e-05,0.000819547644565931,-0.00111381676494135,-0.0409182735522118,0.496532134084132,-0.00012023094409989,0
0.4,0.000710392023081256,0.000409060379548666,-0.0354436880536815,-0.0204719304365373,2.12466037690701e-05,0.000819472880821726,-0.00111512129462812,-0.0409159072139843,0.496531545865472,-0.000114098870348533,0
0.41,0.000710313521574838,0.000409060220421785,-0.0354412036418068,-0.0204719138097808,2.12843068413239e-05,0.00081940377174251,-0.00111631249255836,-0.0409137142903706,0.496531000921566,-0.000108417929280555,0
0.42,0.000710240587375838,0.00040906007299405,-0.035438890533844,-0.0204719141031708,2.13193351342709e-05,0.000819339564053455,-0.0011174353193863,-0.0409116800880185,0.496530496069013,-0.000103154931360449,0
0.43,0.000710173124696955,0.000409059936405859,-0.0354367517688957,-0.0204719143805562,2.1351735954823e-05,0.000819280173070188,-0.0011184735575534,-0.0409097992079674,0.496530028358087,-9.82791287822607e-05,0
0.44,0.000710110688504769,0.00040905980986098,-0.0354347724210329,-0.020471897713436,2.13817228583619e-05,0.000819225207070575,-0.00111941954539422,-0.040908050459551,0.496529595056498,-9.376203583683e-05,0
0.45,0.0007100527136746,0.000409059692621089,-0.0354329310060145,-0.0204718979644464,2.1409566493415e-05,0.000819174168773947,-0.00112031339484914,-0.0409064310816895,0.496529193632412,-8.95772624893006e-05,0
0.46,0.000709999046211331,0.000409059584002295,-0.0354312260706739,-0.0204718982027796,2.14353415485622e-05,0.000819126922410579,-0.00112114100812636,-0.040904931728779,0.496528821741096,-8.57003602027576e-05,0
0.47,0.000709949473910299,0.000409059483371014,-0.0354296528062118,-0.0204718800478762,2.14591503443848e-05,0.000819083281057408,-0.00112188860422744,-0.0409035394143716,0.49652847720938,-8.21086791019855e-05,0
0.48,0.000709903315235276,0.000409059390139935,-0.0354281825258431,-0.020471880265154,2.14813186874303e-05,0.000819042645160275,-0.00112260225707064,-0.040902246427888,0.496528158024862,-7.87812356504713e-05,0
0.49,0.000709860707227563,0.000409059303765484,-0.0354268270606483,-0.0204718804718665,2.15017823502173e-05,0.000819005134915821,-0.00112326024421954,-0.0409010544126093,0.496527862322339,-7.5698590054801e-05,0
0.5,0.000709821321268732,0.000409059223743005,-0.0354255745763881,-0.0204718637461447,2.15206988545653e-05,0.000818970461114276,-0.00112385339560537,-0.040899944900368,0.496527588374753,-7.28427326960875e-05,0
0.51,2.779094172567,-0.0242109346203591,2.16028777695242,1.21408027758247,-0.147035256103974,2.77530741050672,1.11739946028233,2.21184372093182,0.0442187356567603,13.5573977465183,485.601599257933
0.52,2.71334531881263,0.0199686216219729,2.53016379984545,-0.994469588438552,-0.51560388811449,2.66398089248649,-1.47398297283945,2.28431013922298,0.19854181331157,28.4907558535637,485.601599257933
0.53,2.66057520347318,0.012298398586007,2.26338338404675,-0.60759326755715,-1.17384046628633,2.38765789502031,-1.55198448768443,1.75596642107604,0.461550365646307,43.2522807721329,485.601599257933
0.54,2.57499701819761,-0.00423830429694105,3.55779265031201,0.223119912254768,-1.90819307081673,1.72899589688262,-2.482464582855,2.55832770237303,0.832980454748497,58.1547843274074,485.601599257933
0.55,2.47676528607889,-0.0281157971875885,5.23186639408863,1.41722320441826,-2.40391263786656,0.596959638403127,-4.7058533778332,2.68996125679746,1.31604027329566,73.7864698338312,485.601599257933
0.56,2.44801815416054,0.00944432757372859,3.51649412534009,-0.462389431874152,-2.30937305778115,-0.812205736508584,-3.15769227176454,-1.61508960652305,1.91284245257421,88.7005051550478,485.601599257933
0.57,2.35779860122603,-0.0142701879516534,5.30069217559587,0.728896034029517,-1.17726971041843,-2.04290330440256,-3.3037041871031,-4.20881997868342,2.61275005753236,102.09753974925,485.601599257933
0.58,2.30398267120384,0.0386893116837376,5.32025990766849,-1.91657180822315,0.572044482808842,-2.2321734076308,3.25542473527173,-4.62391855185636,-2.87392851957757,115.343372987147,485.601599257933
0.59,2.29095767896689,0.0271990977288872,2.97778469263073,-1.34830704558867,2.09431148399752,-0.929024373055262,3.26818899044358,0.0638301464302016,-1.97643860034772,129.433977469563,485.601599257933
0.6,2.22679884080305,0.0209609169401621,3.58880294803149,-1.0290321401057,1.86239197069313,1.22088844082436,2.41048518087701,2.85096035362514,-0.981117647201736,141.935566968799,485.601599257933
0.61,2.11236344122772,0.031479168845538,6.67364072827456,-1.55651190162293,-0.190249773629285,2.10401408491973,-2.24789177683119,6.47357647901325,0.105078298207764,154.703137381575,485.601599257933
0.62,2.12347657856748,-0.0220241138679639,3.44896747493582,1.12203912341442,-2.04408894693232,0.575619855760232,-2.9946481768307,2.04607691317857,1.28593121069013,167.083885489171,485.601599257933
0.63,2.00664585793343,0.00777485955376211,6.83594100410576,-0.362337861863394,-1.11997641471591,-1.66503479785936,-3.49190142601305,-5.88795402230369,2.55333753058599,178.933181145893,485.601599257933
0.64,1.95036233326254,0.0102085860069728,7.08960629697998,-0.489728875969086,1.34763866245332,-1.40992463688617,5.27763061786612,-4.7590930732124,-2.37354382172146,190.72433985423,485.601599257933
0.65,1.94905005519555,0.0214482943586708,4.74003039018908,-1.05776323693958,1.58032064278566,1.14098326586072,3.18371280098063,3.66752286512422,-0.934456731329145,202.205697921353,485.601599257933
0.66,1.90899280301468,0.0199557257133809,4.37864797026472,-0.971096110434327,-1.04330619103606,1.59880078330492,-3.23876234026471,3.10258024980613,0.588622740544401,213.085266819655,485.601599257933
0.67,1.82530071090935,0.0480124877590987,6.14044315987142,-2.38595112487736,-1.51295114074795,-1.02225570672727,-3.60845558306542,-5.51152005121629,2.19130395250468,224.222070368085,485.601599257933
0.68,1.79565302286792,0.0137103410621578,5.42515762274288,-0.653888590068392,1.18813835734151,-1.34643417804234,4.10751225790473,-3.6039212770244,-2.41093297178204,234.502911416684,485.601599257933
0.69,1.7174190997355,-0.0200007225336309,7.06698354850593,1.02912641092665,1.02773173639335,1.37611622730352,5.11168656499525,4.98718538915161,-0.653117692778437,244.754337113739,485.601599257933
0.7,1.68575018872112,-0.0231933676152472,6.40680230444526,1.17976858355173,-1.56649036341514,0.623217114978502,-5.46868379226893,3.5401224921118,1.1783932590671,254.944381391135,485.601599257933
0.71,1.63326861611655,0.0300707308318147,6.91832830729894,-1.49007363251067,-0.127351451169449,-1.62857367936764,1.07512950315595,-6.99483256049214,3.08196261363477,264.640920333393,485.601599257933
0.72,1.57621442744396,0.0178758123437452,7.70956306225775,-0.860535013200834,1.49002344498652,0.514394400572121,6.96849696573397,3.4085089347734,-1.22704059708262,273.913628204243,485.601599257933
0.73,1.53088836830672,0.000443857469841547,7.90023605580859,0.00804293408499585,-1.11448688564359,1.04954198341692,-5.74743015374235,5.42040967585845,0.815690199963249,283.137046744049,485.601599257933
0.74,1.53909868375554,0.0363302333716639,5.42789680267412,-1.79391421042387,-0.366142197130795,-1.49535431777058,0.585894340015808,-5.68655605064947,2.92506442449179,292.266152280498,485.601599257933
0.75,1.43447661164935,-0.00263347786632093,8.6766464367985,0.149071995280317,1.32740018784573,0.543818743591824,8.0912510174653,3.13657023217267,-1.1838028332861,301.032176665081,485.601599257933
0.76,1.46960951067377,0.0119453717552193,5.00051642107837,-0.583003006312531,-1.27139815639857,0.737184870758681,-4.63450778491633,1.96631497334324,1.05347367408142,309.539853531541,485.601599257933
0.77,1.34306618909411,0.000734976225689188,9.46605115011739,-0.0248991136962142,0.279928255626863,-1.3135705158763,2.00237475985016,-9.25187762908787,-2.93108137135171,317.744559950955,485.601599257933
0.78,1.34190177538233,0.0408422220280197,7.70071301960155,-2.02841799882051,0.76174250475744,1.10549392504902,2.46989280500475,7.57067302952555,-0.572913598351159,325.708579976599,485.601599257933
0.79,1.28183116085145,-0.00725713172081943,8.91036146728165,0.392899557727208,-1.23263072448715,-0.351802910648667,-8.68761596398713,-2.01847477129536,1.84315149944174,333.475870482851,485.601599257933
0.8,1.28709354339753,0.0232613906049329,6.87230412785956,-1.12852115776971,1.17820987880067,-0.518625455646941,6.77482403905218,-1.61365525104038,-1.96738389114368,341.07844350344,485.601599257933
0.81,1.24213467514435,0.0139667514050491,7.3906907861901,-0.663362512670146,-0.648219652995525,1.05967207324301,-4.48925445252065,5.90838003016181,0.560234262404233,348.455525943614,485.601599257933
0.82,1.16913680439768,0.0390103837516203,9.34339647690717,-1.91786598093262,-0.0393433866016052,-1.16912564567218,1.91520462994017,-9.34394236235197,3.14130782427329,355.646413144756,485.601599257933
0.83,1.17237241573184,0.0381486104575898,7.52353191099821,-1.87897105463609,0.604579316564816,1.0051846833447,2.02520776379334,7.48549251241625,-0.50896483099191,362.651420000894,485.601599257933
0.84,1.13518901023451,0.0366326758752009,7.75011284519135,-1.81853286220203,-0.955332521971288,-0.614276659464579,-5.34786616228382,-5.89674812031245,2.17449220610658,369.473053370478,485.601599257933
0.85,1.06939261543571,0.0110446259015572,9.44122477835729,-0.545254323311128,1.05132085686339,0.196079080051286,9.15730961016838,2.36171723457212,-1.37607989858939,376.105665483315,485.601599257933
0.86,1.05699000346152,-0.0301151217072365,8.49874907961384,1.51506229906572,-1.04735221497858,0.145561415740902,-8.12989406293641,2.90326922859709,1.40421684688521,382.527266084444,485.601599257933
0.87,1.0677147264608,-0.00636306167468478,6.44050732310194,0.329575158145441,0.949228010817516,-0.488898158244187,5.55536140434951,-3.27516626003325,-2.05236932221784,388.74334452871,485.601599257933
0.88,1.04634872694006,-0.0389551220998559,6.02470669135521,1.96620685860872,-0.791053376518349,0.686001250294646,-3.05905046274044,5.55024957944304,0.819188919391037,394.771211873301,485.601599257933
0.89,0.988468073559342,0.0311087463150702,7.46997468645131,-1.53376445954836,0.526532888549509,-0.837137983739313,5.44602019081812,-5.33796022042113,-2.54868383957174,400.613942842136,485.601599257933
0.9,0.990661551370523,-0.00180739787618006,5.94746315425833,0.121949689731029,-0.395694021271915,0.908206924428897,-2.25371606487233,5.50526598785402,0.409063330294172,406.302499571969,485.601599257933
0.91,0.91308817433996,0.0452171311217812,8.44483644458403,-2.22940223640506,0.19678600221589,-0.89277649632943,4.37418889541244,-7.55989209015003,-2.87516087350545,411.833103166146,485.601599257933
0.92,0.85805620732371,0.00130292114157443,9.82863801825726,-0.0624333886563598,-0.138631707438439,0.846784153266317,-1.66428462262233,9.68690765501839,0.163794379416374,417.263898779515,485.601599257933
0.93,0.878117033070744,-0.00810136968078051,7.48234386294905,0.411874337171048,0.0956756960145234,-0.872926868157813,0.336737124355139,-7.48610167324172,-3.04165064739466,422.483772562105,485.601599257933
0.94,0.837689536449268,0.00628089773495144,8.21229519989934,-0.297088412940641,-0.0554028320241982,0.835879019569605,-0.900832133006429,8.16814271689326,0.0736818580646166,427.492343057945,485.601599257933
0.95,0.855822327916236,0.00611178583104163,6.05594945692231,-0.275359956332665,0.0654504386380211,-0.853337829331444,0.780631718109996,-6.01173527785695,-3.05790190061224,432.338265252522,485.601599257933
0.96,0.781279708173946,0.043755999330832,8.55450192152638,-2.16619177398715,-0.0570131278370236,0.78042429045747,-3.24761186377492,8.20517562940346,0.128871572531941,437.095047577644,485.601599257933
0.97,0.78642605420646,0.00835087573275567,7.07099461474559,-0.415326222394845,0.154493787684409,-0.771146772947388,1.8689066490362,-6.83217744573121,-2.93324902659346,441.726812619185,485.601599257933
