t,iq,id,vq,vd,ia,ib,va,vb,theta_e,omega,r
0,0,0,0,0,0,0,0,0,0,0,0
0.01,0.000626641494778076,0.000350065778291008,-0.030423412897703,-0.0175133377507003,0.000208107727814106,0.000686961997298424,-0.0106093300015396,-0.0334625636858962,0.215299772000363,-0.00254381987933801,0
0.02,0.000765289396542378,0.000423699767237313,-0.0372683282284323,-0.0211971655942004,0.000250437796407065,0.000838134991124892,-0.0127465823303453,-0.0409362035008847,0.215279620291059,-0.00289398971197532,0
0.03,0.000817254258391281,0.000452136629518247,-0.0398564517428855,-0.0226198113739443,0.000267136188155905,0.000894969447293223,-0.0135844273112953,-0.0437682070314734,0.215258713286103,-0.00286204387179888,0
0.04,0.000802233607701725,0.000444736626999152,-0.0392110374401212,-0.0222496044587851,0.000263132290838777,0.000878709750849873,-0.0133614534779223,-0.043058354783483,0.215239471367679,-0.00256229528304843,0
0.05,0.00081967914235742,0.000455876345443976,-0.0401241646730425,-0.0228069016581325,0.000270305012173345,0.000898127128609931,-0.0137116537350184,-0.0440691945218439,0.215221556145566,-0.00241841739792274,0
0.06,0.000820946477556315,0.000457857195916957,-0.0402525995246679,-0.0229060147219074,0.000271984436940638,0.000899783750090623,-0.0137817848550409,-0.0442156045434516,0.215204961851077,-0.00222108907626572,0
0.07,0.000832244841706953,0.00046575178912305,-0.0408574246185522,-0.0233009657178152,0.000277297798594627,0.000912503225481273,-0.0140391361853119,-0.0448906093188068,0.215190041248113,-0.00208736236804055,0
0.08,0.000819673415220817,0.000459610709551753,-0.0403087108637003,-0.0229937396395239,0.000273995362853935,0.000898906587521175,-0.0138567848388515,-0.0442887541937384,0.215176036050137,-0.00186214149755661,0
0.09,0.000815598608670043,0.000458514846982199,-0.0401635377399199,-0.0229389034107411,0.000273806085419585,0.000894688316093835,-0.0138347660808306,-0.044135046176049,0.215163447365229,-0.00169077904638251,0
0.1,0.000813332025812875,0.000458317657567274,-0.040100726543219,-0.0229290519598417,0.000274107567128683,0.000892428765276883,-0.0138390557786649,-0.0440714218993006,0.215152026104789,-0.00154146267438707,0
0.11,0.000811552298316362,0.000458280689376184,-0.040057150901992,-0.0229272040813106,0.000274460663880442,0.000890679329018018,-0.0138470108770194,-0.0440283126538223,0.215141643050515,-0.00140692684561598,0
0.12,0.000809988755304013,0.000458272419625152,-0.0400201724877176,-0.0229267820902674,0.000274794775550843,0.000889147471254346,-0.0138549084125705,-0.0439919658101404,0.215132199716845,-0.00128480364051026,0
0.13,0.000840813449706569,0.000476389655365893,-0.0415415651451943,-0.0238331693682832,0.000285922333135654,0.000923126632895704,-0.0144160311232077,-0.0456716503260436,0.215123200427449,-0.00130743181715794,0
0.14,0.000858727090700454,0.00048744560266975,-0.0425257915087519,-0.0243862835282382,0.000292907386747502,0.000942984991743607,-0.0147466885894778,-0.0467511384183361,0.215114790838267,-0.00128172648384297,0
0.15,0.000815952973510384,0.000463461713093523,-0.0404097006207484,-0.0231863906040813,0.000278613788982273,0.000896074980720342,-0.0140264960481537,-0.0444275817720779,0.215107019405412,-0.00100275759930278,0
0.16,0.000806772116008557,0.00045918941268802,-0.0399936714814839,-0.0229726689167475,0.000276405347909299,0.000886191992482911,-0.0139067862594684,-0.0439754314550843,0.215100558321235,-0.000884311027218703,0
0.17,0.000804238817396319,0.00045842755236675,-0.0398950095277648,-0.0229345421925462,0.000276206853897863,0.00088355286770846,-0.0138908497467099,-0.0438708252044164,0.215094800245293,-0.000803049463800548,0
0.18,0.000803072750832863,0.00045829094161242,-0.0398599998614575,-0.0229277079771313,0.000276326877482276,0.000882383072749674,-0.0138918740515624,-0.0438350911642206,0.215089585957239,-0.000734315138347117,0
0.19,0.000802234865772526,0.000458265762602308,-0.039838866064016,-0.0229264441653329,0.000276485289780169,0.000881557810679319,-0.0138953576604699,-0.0438141087644192,0.215084847577899,-0.000672808128119733,0
0.2,0.000801516205388184,0.0004582605044561,-0.0398217318167841,-0.0229261915194386,0.000276637332443362,0.000880853395147486,-0.013898956533127,-0.0437972555049297,0.215080538423611,-0.000617059566769132,0
0.21,0.000800871338376923,0.000458258863582005,-0.0398065699175793,-0.0229260971192679,0.000276776810820419,0.000880221951372035,-0.0139022718559786,-0.043782368311544,0.215076618976732,-0.000566389316176419,0
0.22,0.000800286264836317,0.000458257930306607,-0.0397928487110826,-0.0229260522442677,0.000276903902824281,0.000879649171531037,-0.013905312467068,-0.0437689040900409,0.215073053868675,-0.000520307083246639,0
0.23,0.000799754116232007,0.000458257180773638,-0.0397803673547745,-0.0229260321320879,0.000277019591938883,0.00087912822491526,-0.0139080984697109,-0.043756660900475,0.215069811041249,-0.000478392015120572,0
0.24,0.000799270440443013,0.000458256516511402,-0.0397690308797974,-0.0229259928248765,0.000277124758710713,0.000878654733100927,-0.0139106084846879,-0.0437455361803955,0.215066861355557,-0.000440266218238682,0
0.25,0.000798830595023828,0.000458255915263984,-0.0397587228413171,-0.0229259548667464,0.000277220396250106,0.000878224148679304,-0.0139128886119726,-0.0437354201877106,0.215064178311639,-0.000405586921277112,0
0.26,0.000804526328366181,0.000461746817369309,-0.0400425619880127,-0.0231006074844436,0.000279417416030165,0.000884533008996318,-0.0140230464344076,-0.0440499603338371,0.215061842821468,-0.000401549152428796,0
0.27,0.00078993922141075,0.000453408479846915,-0.0393499720054853,-0.0226834411183627,0.000274386331770828,0.000868501792777345,-0.0137634021110057,-0.0432842645788683,0.215059353998687,-0.000308385708212462,0
0.28,0.000789118110833652,0.000453172299596677,-0.0392344007315802,-0.0226716294252636,0.000274332573575838,0.000867648641468809,-0.0137766132146073,-0.0431688071400844,0.215057334864804,-0.000280179742842157,0
0.29,0.000795749178392007,0.00045734895682546,-0.0396448991048213,-0.0228805819901978,0.000276999409435728,0.000875017800043604,-0.0138932245883693,-0.0436144169716707,0.215055638804442,-0.00028797936367557,0
0.3,0.000785133917267681,0.000451844405178662,-0.0391370869725892,-0.0226052061989166,0.000273887727526203,0.000863472146189954,-0.0137325978302227,-0.0430595248560514,0.215054765492986,-0.000231644174036775,0
0.31,0.000794677252609524,0.000457112068003408,-0.0396025179296564,-0.0228687362636158,0.000276998725180858,0.000873919381165993,-0.0138907955076151,-0.0435704524285575,0.215053353876186,-0.000255446817422421,0
0.32,0.000796356073376948,0.000458049899726474,-0.0396891675695309,-0.0229156517801161,0.000277557944223583,0.000875759267060396,-0.0139182016491608,-0.0436650979813757,0.215051926696358,-0.00024522846928418,0
0.33,0.000796512941006822,0.000458216673825786,-0.0397020923911236,-0.0229239914061202,0.000277688563138919,0.000875947742314087,-0.013923648968429,-0.0436794862793183,0.215050600512037,-0.000229697301070178,0
0.34,0.000796387389263698,0.000458246155177608,-0.0397009477951518,-0.0229254804346383,0.000277745219072101,0.000875831037241716,-0.01392540088039,-0.0436786689278964,0.215049388727752,-0.000214349668946443,0
0.35,0.000796220843365859,0.000458251206374948,-0.0396973881232623,-0.0229257269565198,0.000277786660234386,0.00087566909900382,-0.0139264495300396,-0.0436752284914582,0.215048285411763,-0.000200150584405379,0
0.36,0.000796059128382608,0.000458251924873171,-0.039693656952876,-0.0229257537596484,0.000277822750116575,0.000875510983397071,-0.0139273157645049,-0.0436715750040734,0.215047281621729,-0.000187188312985016,0
0.37,0.000795909825745735,0.000458251888127236,-0.0396901549292619,-0.0229257631239633,0.000277855373735817,0.000875364858203088,-0.0139281120956478,-0.043668142925661,0.215046368530076,-0.000175388641230482,0
0.38,0.00079577383848193,0.000458251731756098,-0.0396869595016465,-0.0229257447365548,0.000277884966591797,0.000875231739033728,-0.0139288122791688,-0.0436650056074962,0.215045537970718,-0.000164653830128371,0
0.39,0.000795649914372191,0.000458251567613497,-0.0396840399104671,-0.022925745279394,0.000277911911762898,0.000875110424324264,-0.0139294688125963,-0.0436621428565996,0.215044782489535,-0.000154889059391336,0
0.4,0.00079553732658784,0.000458251414398034,-0.039681389285896,-0.0229257268136424,0.000277936388606827,0.000875000206103131,-0.0139300463944154,-0.0436595397713034,0.215044095300911,-0.00014600692235074,0
0.41,0.0007954347646896,0.000458251274327538,-0.0396789690205329,-0.0229257272791622,0.000277958684370839,0.000874899802881704,-0.0139305905996067,-0.0436571666437148,0.215043470232049,-0.000137927687032725,0
0.42,0.000795341457807232,0.000458251146786898,-0.0396767650366668,-0.0229257262546911,0.00027797896789945,0.000874808459860784,-0.0139310847273359,-0.0436550052846141,0.215042901667,-0.000130578784626128,0
0.43,0.00079525680969986,0.000458251030746146,-0.0396747698182277,-0.0229257076932786,0.000277997369916066,0.000874725592899656,-0.0139315149277821,-0.0436530448558172,0.215042384498347,-0.000123894197617241,0
0.44,0.00079517962634171,0.000458250925185518,-0.039672943909705,-0.0229257080652222,0.000278014148305116,0.000874650033970448,-0.0139319254540006,-0.0436512545283473,0.215041914080149,-0.000117813874555619,0
0.45,0.000795109311487528,0.000458250829161362,-0.0396712759506654,-0.0229257084111792,0.000278029433093296,0.000874581199189113,-0.0139323003924712,-0.043649619098936,0.215041486186199,-0.000112283192106651,0
0.46,0.000795045457681487,0.00045825074181314,-0.0396697623344397,-0.0229257072775,0.000278043313765008,0.000874518689235874,-0.0139326392608368,-0.0436481346803267,0.215041096972431,-0.000107252464634989,0
0.47,0.000794987585097877,0.000458250662357801,-0.0396683943153656,-0.0229256886231131,0.000278055895016346,0.000874462034200328,-0.0139329284066724,-0.0436467892566888,0.215040742942065,-0.000102676497904162,0
0.48,0.00079493473254192,0.000458250590082085,-0.0396671377009698,-0.022925688904258,0.000278067384049747,0.000874410293992359,-0.0139332108818608,-0.043645557158136,0.215040420915032,-9.8514183082417e-05,0
0.49,0.000794886653014145,0.000458250524337654,-0.0396659927785394,-0.0229256891672297,0.000278077835477493,0.000874363226360714,-0.0139334682344324,-0.0436444345805927,0.21504012799826,-9.4728127438871e-05,0
0.5,0.000794842939060926,0.000458250464534339,-0.0396649506224323,-0.0229256894135838,0.00027808733797719,0.000874320432380319,-0.0139337024855663,-0.0436434127676998,0.215039861560082,-9.12843184152762e-05,0
0.51,3.91190398931142,0.0155195963203901,2.20338828378699,-0.772235979911217,-0.318617188843442,3.89893790235675,-0.957586070500347,2.12938893943378,0.0855050426115907,26.1610311557406,574.674254291857
0.52,3.65826902443674,-0.00566115979050164,5.92642489480949,0.291862458543342,-1.36810850114405,3.39282234032094,-1.93698273286712,5.60854648024773,0.381745519416742,54.4573493100465,574.674254291857
0.53,3.51742725294513,0.0125982073492547,4.27028824175024,-0.617165108909276,-2.70721555687907,2.24575980977074,-3.68871677178481,2.23821871514801,0.881879009890386,81.9068717205143,574.674254291857
0.54,3.33472960406785,0.0327701605456043,4.64942770011465,-1.62243186136623,-3.33488116145684,-0.00794069448886414,-4.62927556456358,-1.67906844134009,1.58300404052074,109.49638949748,574.674254291857
0.55,3.16872970503266,0.0425013828744796,4.09280530135991,-2.111960708332,-1.96054379699704,-2.48976350908255,-0.812049128295634,-4.53343241723226,2.48796815846048,136.892079477609,574.674254291857
0.56,3.02545565174487,0.00500820421691617,3.59668646026,-0.231651278201031,1.28117405738815,-2.74080280528535,1.7381528418143,-3.15731539549071,-2.70267134094924,160.672303665878,574.674254291857
0.57,2.85247761659441,0.000929735604623394,5.19173057248219,-0.0218878319581254,2.82945494294955,0.361682379165434,5.14683004741177,0.68167872014126,-1.44333228918009,182.935445610216,574.674254291857
0.58,2.73528654906428,-0.0177421123418934,3.5817080765352,0.905753550117042,0.027926115166561,2.73520153190474,0.965424120605252,3.56608728250175,-0.0166958289607996,206.167456468297,574.674254291857
0.59,2.57577950793383,-0.0238269398236954,5.04976587758194,1.21727300408705,-2.57579498709035,-0.0220902927414544,-5.04894402022068,1.22067737979691,1.57012210689644,226.361317138833,574.674254291857
0.6,2.42346194231217,0.00640102031375378,6.22623320742689,-0.301863416585617,0.38197923081804,-2.39317793448799,1.2955575439387,-6.09742832068419,-2.98067474371645,246.659391318277,574.674254291857
0.61,2.38031004497351,0.0160241968416841,2.3181883014792,-0.775420735579325,2.13090556075186,1.06083654548805,1.71800366270344,1.73888979904391,-1.10215140230323,265.28830133694,574.674254291857
0.62,2.22123926657771,-0.00463007276189442,4.45723739737694,0.250178914778815,-1.75422027581599,1.36258450779265,-3.36050218930121,2.93880583599483,0.908311575615771,283.569871434003,574.674254291857
0.63,2.12115770732812,0.0438207814238643,4.07591813061959,-2.16340562181086,-0.239307190115124,-2.10807076470437,1.77818428299082,-4.25810910472251,3.04921298352393,300.131108677678,574.674254291857
0.64,1.98428429647494,-0.00743233296667567,5.55572230941596,0.390824779443006,1.63554799071445,1.12357562223479,4.81111731717324,2.80569858466027,-0.972613207797241,316.796569323941,574.674254291857
0.65,1.90503893475424,0.0468555006165431,4.73218845363886,-2.31246000440724,-1.87090049108058,0.362077523939347,-5.05011004341927,-1.49581662716118,1.4042190845578,331.748880443316,574.674254291857
0.66,1.80656378248578,0.0224081585486412,4.85175920109327,-1.09473703227521,1.21578824378443,-1.33642574505075,4.10974770611384,-2.80142647722905,-2.39102400931821,346.451786717713,574.674254291857
0.67,1.69739617949591,0.00844452592688849,5.74292021570706,-0.405455276159642,-0.329545642456826,1.66512004664023,-1.54031846039763,5.54733680476504,0.200361088402809,360.630701267632,574.674254291857
0.68,1.59885007224639,-0.0161047225855762,6.52495729635774,0.831801742026282,-0.38097428657297,-1.55288103490965,-2.42424620648375,-6.11473565967322,2.8909381072045,373.570766730335,574.674254291857
0.69,1.52384954383165,0.027506050877137,6.21805533798584,-1.34722503851186,0.891764513377316,1.23597332809074,2.44006117894552,5.87582580865452,-0.606967012321975,385.956450410232,574.674254291857
0.7,1.45118338989528,0.0362990612098132,5.92148280661542,-1.79474093636109,-1.13628085187009,-0.903391763647448,-3.38979738215994,-5.1763237307566,2.26751539573042,398.006098535481,574.674254291857
0.71,1.3923770610288,0.0391014613870233,5.17195706267617,-1.94206086120689,1.23156587569076,0.6507597853247,3.54804052099407,4.23463678586271,-1.05661231214642,409.395040742773,574.674254291857
0.72,1.32756919908937,0.0105149250520248,4.98306882510987,-0.514751978848103,-1.22072699700661,-0.521896676363103,-4.36013500778937,-2.46681317277161,1.9827277126378,420.033955008826,574.674254291857
0.73,1.21144805640395,0.00862844074763613,7.52398792467965,-0.403197981750527,1.12547233994217,0.448322267325347,6.81795757464872,3.20755629935049,-1.18459826538194,430.041032602845,574.674254291857
0.74,1.18721337567596,-0.0313977034815165,5.56413759156654,1.59893354397105,-1.06424413241489,-0.527110843929727,-5.72115184903518,-0.885797457775213,2.00422948177605,439.698125672861,574.674254291857
0.75,1.19575168734914,-0.00220436063118395,2.10906765396893,0.135595953597579,1.01836230919876,0.626709792653244,1.86907437975335,0.986465201920301,-1.02096682004454,448.910040643654,574.674254291857
0.76,1.10721858174553,-0.00491544203537203,3.66171837702813,0.265770054146939,-0.820522857234108,-0.743437549555685,-2.90201140904833,-2.24880967983067,2.30250639512365,457.677562970125,574.674254291857
0.77,1.03800556667185,0.0352596152787947,4.39156629902343,-1.74930942917079,0.610983055298771,0.839880052774881,1.01266752046726,4.61740647232782,-0.59496624535848,465.993118144914,574.674254291857
0.78,0.986739941449133,-0.0303232652743312,4.35314667134009,1.52826423630873,-0.2547737488714,-0.95376388553664,-2.71577622620024,-3.72961620108359,2.84984173745981,473.92016083483,574.674254291857
0.79,0.860012292322663,0.0175978560901534,8.22453889534287,-0.874045271157364,-0.040592932347442,0.859233985203383,-1.4281546416631,8.1466170584198,0.0676675394015637,481.378494426363,574.674254291857
0.8,0.854271788373533,-0.0089221111054483,6.17804964497498,0.451396953009896,0.402800827231612,-0.753399884562654,2.45554256339079,-5.68703502225354,-2.66105909823691,488.463553670111,574.674254291857
0.81,0.812976272103253,-0.0171918759392639,6.03993704045626,0.863555000245594,-0.66838566716753,0.463126958323773,-4.38403824520345,4.24343909532329,0.943705132546206,495.141471501507,574.674254291857
0.82,0.724138084653369,-0.0490762250890384,8.38135892681514,2.45668535689443,0.724945322163821,-0.0351954739595041,8.04008327554729,-3.41167720119419,-1.68697582065896,501.45003747728,574.674254291857
0.83,0.733080719099446,0.0155559372449811,5.93133904916799,-0.77713081839466,-0.66985903023791,-0.298225095368679,-5.03513062602811,-3.22988773859364,2.01087297761581,507.492325727205,574.674254291857
0.84,0.719083299812556,0.0373876160444613,4.72063928356272,-1.86985267204156,0.396603981959307,0.600985779696013,0.780004235009518,5.01720815334821,-0.531372288956967,513.214583808912,574.674254291857
0.85,0.682968697728629,-0.00313148358885014,4.70799900488003,0.156769648820569,0.0772979400213151,-0.678587560109282,0.35554715375783,-4.6971712310919,-3.03275656069748,518.64704374471,574.674254291857
0.86,0.601599313287744,-0.0450680077434968,7.05922802607844,2.25362747682682,-0.458192481160574,0.392444275379537,-3.41364088817078,6.57712650137495,0.787763727667235,523.765978154744,574.674254291857
0.87,0.623943380911599,-0.00743328176939306,4.29633185959203,0.371584470579365,0.623024097730029,-0.0346636684288116,4.2614895171055,-0.660491909201911,-1.63828961623138,528.633662676068,574.674254291857
0.88,0.555844959636821,-0.0234316739350666,6.1615266305335,1.17162772313871,-0.416495163482704,-0.368842027557292,-5.51983313536043,-2.97801344828693,2.25346011954033,533.212902653724,574.674254291857
0.89,0.547054846332274,-0.0358026495807681,5.11688623988012,1.79200578490875,0.0218204224922799,0.547790748164744,2.31923351045301,4.90050665227716,-0.10516543048778,537.57828461975,574.674254291857
0.9,0.463412263671323,0.0034381254781907,7.91895837419206,-0.171011260453338,0.299012993294063,-0.354053635299947,5.28407635404638,-5.90065112237593,-2.43285705501716,541.627305841257,574.674254291857
0.91,0.479417293484638,0.0124508707398738,5.80113430524503,-0.618746590365218,-0.479092908639342,0.0215858834846152,-5.81187334665323,-0.508069653729808,1.55173604728053,545.521576419289,574.674254291857
0.92,0.492848103063159,0.00402300891069818,3.86579974724682,-0.193335509298511,0.327648048362515,0.368187715300069,2.40078768913236,3.03611672645829,-0.71904095581094,549.196798575407,574.674254291857
0.93,0.464970169835867,-0.040983723480641,4.06823402659984,2.0616815961557,0.122723467203031,-0.45035083548851,-1.30820679348429,-4.36917086923748,-2.96346172231954,552.674736645981,574.674254291857
0.94,0.394245234446477,0.0168273019944091,6.46383588776581,-0.828789022523879,-0.343769594036309,0.1937393331058,-6.137098274522,2.19182353228639,1.10024841491865,555.994400296975,574.674254291857
0.95,0.437038404069402,-0.0316259169431867,3.22523624039473,1.59954557495476,0.374081024079077,0.228180088259199,3.59968696544183,0.0543010454877577,-1.09531274503695,559.158719637285,574.674254291857
0.96,0.391423040437484,-0.00475406771401234,4.47154787174596,0.255702245037162,-0.0447819438240918,-0.388881955421551,-0.819104202465906,-4.40331605871479,3.01479703493503,562.145122215604,574.674254291857
0.97,0.318093730520459,0.00766505522622588,7.14788392361528,-0.369134435349524,-0.236692136458416,0.212648082537308,-5.67071122743714,4.36709731879849,0.862949047860259,564.99097741174,574.674254291857
