t,iq,id,vq,vd,ia,ib,va,vb,theta_e,omega,r
0,0,0,0,0,0,0,0,0,0,0,0
0.01,0.000695374298640576,0.000391206453920048,-0.0341559270411443,-0.0195757222388357,0.000687281506118965,-0.000405255519574278,-0.0337511010209249,0.020265720640711,-1.59111748284804,-0.00147551661509607,0
0.02,0.000806276745938841,0.000451770851513858,-0.0396830233046803,-0.0226063303420264,0.000796925103938289,-0.000468069943525783,-0.0392152099480282,0.0234084561401365,-1.59112880145197,-0.0016053381556852,0
0.03,0.000847785114323399,0.000475213370709578,-0.0417537085653524,-0.0237793692672612,0.00083794261971378,-0.000492361161990571,-0.0412613349286443,0.0246238262992449,-1.59114029991381,-0.00157809495642191,0
0.04,0.00082800449553155,0.000464983874110203,-0.0408262667220185,-0.0232675003735707,0.000818369111452556,-0.000481740018291342,-0.0403442438135772,0.0240936219610533,-1.59115083878609,-0.00142381172414354,0
0.05,0.000847314711312456,0.000476677195560295,-0.0418067286167417,-0.0238526266480591,0.000837432402475663,-0.000493832299528472,-0.0413123469331172,0.0246989948484417,-1.59116082061579,-0.00136276394828524,0
0.06,0.000848231179986633,0.000477975683519911,-0.0418861517657119,-0.0239176084279205,0.000838317607227418,-0.000495157023731198,-0.0413901986746607,0.0247659677041641,-1.59117017665346,-0.00126711673202975,0
0.07,0.000864485727069349,0.000488139228632952,-0.0427119205867527,-0.0244261757989114,0.000854357409788812,-0.000505656894718094,-0.0422052195405752,0.0252916125998372,-1.59117870985414,-0.00121436212270579,0
0.08,0.000847793715954765,0.000479245907968384,-0.0419264190076602,-0.0239811615993287,0.000837846088423398,-0.000496432026797669,-0.0414287492698893,0.0248310180297074,-1.59118683171845,-0.0010922242897968,0
0.09,0.000844673775276971,0.000478253341942738,-0.0418013875948874,-0.0239315005739913,0.000834743366372831,-0.000495382234256136,-0.0413045729444498,0.0247791238436225,-1.59119423506476,-0.00100794084226855,0
0.1,0.000843272912871365,0.000478140491946104,-0.0417582134073017,-0.0239258494973932,0.000833341716336563,-0.00049524652389921,-0.0412613538886984,0.0247728750130714,-1.59120106159608,-0.000933524532023402,0
0.11,0.000842157218255426,0.000478125751530752,-0.0417270371223057,-0.0239251174860572,0.000832223432818448,-0.000495214269185007,-0.0412300428639687,0.0247717669770088,-1.59120736578753,-0.000865200352857526,0
0.12,0.000841148102323737,0.000478122097736934,-0.0416992851918593,-0.0239249311806085,0.000831211718165921,-0.000495194860606254,-0.0412021562750707,0.0247712542232629,-1.59121318875656,-0.00080213955487365,0
0.13,0.000877192097041557,0.000498993237061743,-0.0434812575908659,-0.0249693014622384,0.000866819192661551,-0.000516802392582598,-0.0429622902073241,0.0258520288824115,-1.59121882822817,-0.00082385683467813,0
0.14,0.00090170917492226,0.000513731237530942,-0.0447681747853324,-0.0257067872184164,0.000891027379176342,-0.000532042695760589,-0.0442337380658973,0.0266158749512503,-1.5912241151509,-0.000823478015222257,0
0.15,0.000845924714914635,0.000482080250503089,-0.0419914234890319,-0.0241229914220723,0.000835898602250958,-0.000499262974777244,-0.0414897937188746,0.0249758959589007,-1.59122906343696,-0.000647056006688343,0
0.16,0.00083858247436637,0.000478555363302378,-0.0416482798139433,-0.0239466111708986,0.000828627823075177,-0.000495592305111356,-0.0411502208304349,0.0247927151324166,-1.59123327928663,-0.000586614111576719,0
0.17,0.000837120780338488,0.0004781616336757,-0.0415911098078669,-0.0239269069495794,0.000827172573249951,-0.000495171973012395,-0.0410933700219598,0.0247720049947953,-1.59123713071335,-0.000543128270600324,0
0.18,0.000836411382349643,0.000478116571585682,-0.0415695892542525,-0.0239246424550034,0.000826462485660395,-0.00049511535660382,-0.0410718122584191,0.0247694470098989,-1.59124068310689,-0.000504446982832838,0
0.19,0.000835833016779502,0.000478110417390082,-0.0415534640220665,-0.0239243401059721,0.000825882742493761,-0.000495100089685535,-0.0410556153175949,0.0247689497684716,-1.5912439638107,-0.000468896286804581,0
0.2,0.000835308086107005,0.000478108680976004,-0.0415390217657135,-0.0239242530143714,0.000825356456795687,-0.000495090121862708,-0.0410411028048813,0.0247686917722202,-1.59124699410128,-0.000436079884336846,0
0.21,0.000834824482903331,0.000478107516288533,-0.0415257421949884,-0.0239241905965237,0.00082487159277932,-0.000495081376959497,-0.0410277579593564,0.0247684726491543,-1.59124979315225,-0.000405770177568002,0
0.22,0.000834377671594835,0.000478106489120833,-0.0415134685751688,-0.023924150925131,0.000824423615943974,-0.00049507334332332,-0.0410154236807179,0.0247682880094927,-1.59125237861664,-0.000377773607458544,0
0.23,0.000833965256361248,0.000478105545536014,-0.0415021448853995,-0.0239240912960154,0.000824010123993075,-0.000495065932020058,-0.0410040444292872,0.0247680946959958,-1.59125476679333,-0.000351913392144449,0
0.24,0.000833584219707531,0.000478104674350577,-0.0414916790037028,-0.0239240514888005,0.000823628092829084,-0.000495059083023442,-0.0409935269155292,0.0247679312258992,-1.59125697273683,-0.000328026481041763,0
0.25,0.000833232170470176,0.000478103869531683,-0.0414820056767372,-0.0239240130703476,0.000823275125020044,-0.000495052753240338,-0.0409838059321804,0.0247677784160872,-1.59125901035279,-0.000305962294464995,0
0.26,0.000840556801888998,0.000482450385545029,-0.0418466439345823,-0.0241415060689344,0.000830508373990201,-0.000499549749721247,-0.0413438719521352,0.0249927624697543,-1.59126083967727,-0.000303240317321278,0
0.27,0.000820261621043041,0.00047089324274164,-0.0408619993988717,-0.0235631918389339,0.000810453016213369,-0.000487581256332263,-0.0403712215884823,0.0243944967557327,-1.59126272930485,-0.000238122087781193,0
0.28,0.000819595059450724,0.000470652969066908,-0.0407689019597946,-0.0235511807544883,0.000809790729472035,-0.000487328691160987,-0.0402783503334216,0.0243806475786859,-1.59126433385263,-0.000219876835761521,0
0.29,0.000830540612263649,0.000477271998863288,-0.0413752972138474,-0.0238823802238122,0.000820597831959175,-0.000494171496246128,-0.0408778055911381,0.0247242454837769,-1.59126572761206,-0.000229800456822767,0
0.3,0.000821783161070928,0.000472675128471768,-0.0409507601283103,-0.0236523738050598,0.000811935860046314,-0.000489397078113859,-0.0404580429958348,0.0244856345363537,-1.59126663472477,-0.000200744459964448,0
0.31,0.000830481829369339,0.000477496364321703,-0.0413803315189747,-0.0238936104351,0.000820533410076053,-0.000494396369123048,-0.0408825559981642,0.0247356639551384,-1.59126786961684,-0.000207302168854138,0
0.32,0.000831347878644684,0.000478032655487843,-0.0414270645015148,-0.0239204492832257,0.000821387706876813,-0.000494951260258447,-0.0409287001218473,0.0247635028511707,-1.59126906785004,-0.000196726860972012,0
0.33,0.00083128466499089,0.000478091968924391,-0.0414280805119128,-0.0239234199303037,0.000821322740937889,-0.000495010181932948,-0.0409296275230208,0.0247665392594516,-1.59127018158237,-0.000184955823793329,0
0.34,0.000831122377882553,0.000478098213660939,-0.0414239440144447,-0.0239237325669964,0.000821159850340041,-0.000495013948401912,-0.0409254599926148,0.0247668092826246,-1.59127121116449,-0.000173841852725801,0
0.35,0.000830959915702032,0.000478098577964604,-0.0414195082182758,-0.0239237498351476,0.000820996943938908,-0.00049501176733314,-0.0409210012165369,0.0247667746518341,-1.59127216228332,-0.000163546913738614,0
0.36,0.000830808396512593,0.000478098312863854,-0.0414153382745127,-0.0239237350576085,0.000820845027046881,-0.0004950091211801,-0.0409168106905584,0.0247667104479373,-1.59127304083789,-0.000154034048402627,0
0.37,0.000830668286017752,0.000478098000995442,-0.0414114774005647,-0.0239237158775832,0.00082070455060472,-0.000495006606590469,-0.0409129309201948,0.0247666454209725,-1.5912738523544,-0.000145246654581154,0
0.38,0.000830538657555021,0.000478097705445348,-0.0414078990146911,-0.0239237150085547,0.000820574584319789,-0.000495004271914706,-0.0409093347374926,0.0247666019461125,-1.59127460194729,-0.000137129744420839,0
0.39,0.000830419094364232,0.000478097431597222,-0.0414046006959976,-0.0239236957575839,0.000820454709069334,-0.000495002117925294,-0.0409060203563672,0.0247665434831127,-1.59127529434135,-0.000129632200314307,0
0.4,0.000830308727983658,0.000478097178535624,-0.0414015560584768,-0.0239236764761036,0.000820344054431062,-0.000495000129544601,-0.0409029609124557,0.0247664880189055,-1.5912759339014,-0.000122706766039176,0
0.41,0.000830206515329114,0.00047809694475884,-0.0413987286628116,-0.0239236755049441,0.000820241575574064,-0.000494998287252011,-0.0409001194986244,0.0247664533100968,-1.59127652465879,-0.000116309786603151,0
0.42,0.000830112330678032,0.000478096728806874,-0.0413961267625367,-0.0239236561667614,0.000820147144987974,-0.000494996590096966,-0.0408975050255232,0.0247664030091722,-1.59127707033771,-0.000110400937601132,0
0.43,0.000830025252017581,0.000478096529322708,-0.0413937176908527,-0.0239236565930819,0.000820059839177997,-0.0004949950206867,-0.0408950839671058,0.0247663747120382,-1.5912775743778,-0.000104942971568134,0
0.44,0.000829944862579587,0.000478096345050933,-0.0413914929824842,-0.0239236357510788,0.000819979239915889,-0.000494993571857525,-0.0408928486215062,0.0247663273516263,-1.59127803995638,-9.99014832512966e-05,0
0.45,0.000829870473189177,0.000478096174832391,-0.0413894296508041,-0.0239236361287341,0.000819904656742005,-0.000494992230760613,-0.0408907750640703,0.0247663030567451,-1.59127847000823,-9.52446927369485e-05,0
0.46,0.000829801958116104,0.000478096017595826,-0.041387531969411,-0.0239236166998086,0.000819835962632153,-0.000494990995988129,-0.0408888683405864,0.024766261008569,-1.59127886724438,-9.09432451227178e-05,0
0.47,0.000829738511765914,0.000478095872351806,-0.0413857694544189,-0.0239236170352174,0.00081977235094137,-0.000494989852117605,-0.040887097101092,0.0247662402481266,-1.59127923416889,-8.69700254737269e-05,0
0.48,0.000829679954859224,0.000478095738185731,-0.0413841421508851,-0.02392361735097,0.000819713641301495,-0.000494988796469988,-0.0408854617385371,0.024766221091376,-1.5912795730947,-8.32999878964825e-05,0
0.49,0.000829625933491138,0.000478095614253296,-0.0413826407112551,-0.0239235964144032,0.000819659478841471,-0.000494987822713454,-0.040883953289303,0.02476618220627,-1.59127988615824,-7.99099976601358e-05,0
0.5,0.000829575991318238,0.000478095499774151,-0.0413812500100339,-0.0239235966965487,0.000819609406352534,-0.000494986922346823,-0.0408825557122953,0.0247661658260441,-1.59128017533306,-7.67786853616086e-05,0
0.51,4.71987056453701,0.0262564963121513,4.00729107825351,-1.30711085973246,-0.287813956727068,4.71116022609024,-1.57081934471427,3.91145077583141,0.066579027187791,20.5257835920459,791.571259118488
0.52,4.6752119075264,-0.0578515730239332,6.24122130725767,2.91019188177963,-1.44623506191989,4.44627454510532,0.921464865524936,6.82443863600123,0.302101662177193,43.7534345712183,791.571259118488
0.53,4.66352160567625,-0.0249243626818338,6.82678442247022,1.27159996550768,-3.0586445761384,3.52047558538948,-3.48542853014809,6.00614185516717,0.709972166841211,67.7508342091512,791.571259118488
0.54,4.62389935633018,0.0357271536308024,8.80903571089751,-1.76135868555077,-4.44709319812487,1.26691900852769,-8.95982690910632,0.650381683234561,1.30098816538474,93.7558287623526,791.571259118488
0.55,4.66172210176364,-0.0033438911407937,6.91907052553974,0.204240164838574,-4.07142330199861,-2.27050136129057,-6.14469276283202,-3.1871620342753,2.07879009041335,117.959592371541,791.571259118488
0.56,4.67203648626991,-0.00895051631544341,6.40458980825031,0.498508890756247,-0.516979094635028,-4.6433541386039,-1.21622557058103,-6.30777909311761,3.02879612267825,141.608699004928,791.571259118488
0.57,4.63788016172852,0.0208417694305183,8.1137625542746,-0.992601490893561,3.93956500964515,-2.44748734597089,7.43120658422772,-3.40522674860331,-2.12220665112927,166.701616054199,791.571259118488
0.58,4.60450435910121,0.0521393475240148,9.78395813045365,-2.54594420288491,3.38529057080444,3.12153594497402,5.3703254301573,8.56546982697851,-0.814587979089937,190.623925893703,791.571259118488
0.59,4.59702595057958,0.0744455681996021,7.28156786670003,-3.65380981879081,-2.80874419468822,3.63993760684601,-7.39734959041949,3.41332328184296,0.673404260362171,214.636912104612,791.571259118488
0.6,4.4043544562981,0.085416846163417,9.44460228366859,-4.20634684698665,-3.23769541106183,-2.98713284597632,-3.9043403885161,-9.57340024361431,2.33535537907933,238.572221033501,791.571259118488
0.61,4.27208692029367,0.0167293631261093,8.99143589681311,-0.769794029345776,3.6421672165555,-2.23285120256214,8.08369761314314,-4.01152530010466,-2.11684435620597,261.404895025644,791.571259118488
0.62,4.16103930640759,0.0453447646808507,7.73649933851481,-2.19968091272304,0.550064325809178,4.12477072024919,-1.2443837718449,7.94629015081926,-0.121677106920586,283.346867228851,791.571259118488
0.63,3.97571018202905,0.00740347736854963,10.3628252969207,-0.300044594858097,-3.56308391565734,-1.7637344678127,-9.14509937898637,-4.88316825860694,2.0322999038965,304.594325038301,791.571259118488
0.64,3.85480993359074,0.071503069090738,9.92635572395647,-3.50570371969455,3.56417491293707,-1.47014608219364,10.5214345683426,-0.349157776498185,-1.9434667416775,325.176078836539,791.571259118488
0.65,3.70883186910576,0.0556145660174363,10.920384538078,-2.70730776652765,-1.769613082442,3.25990741458986,-7.71293397818975,8.19115152162869,0.512324692901474,345.065675595767,791.571259118488
0.66,3.62834229725312,0.0166153339121504,8.86993851477924,-0.745728875698225,-0.124989648067125,-3.62622689351247,0.480443356707708,-8.88825601527148,3.11171734313724,364.204950785938,791.571259118488
0.67,3.51022695457352,0.0516786358572521,8.95877429978083,-2.4870909262136,1.52140446719054,3.16380979220168,1.50619787840643,9.17478207810689,-0.433511548833905,382.624505350598,791.571259118488
0.68,3.40060992027233,0.0487985438085483,8.7531468989717,-2.35096611227209,-2.23648573565832,-2.56215937871345,-3.86776318197566,-8.19664750152056,2.43830736286345,400.746597679607,791.571259118488
0.69,3.27233901528867,0.0171116955654831,9.51680543974756,-0.774095915069117,2.45451853080386,2.16421676895962,6.59028168421723,6.90919659485865,-0.842939530314854,418.224212819873,791.571259118488
0.7,3.17404145890721,0.0876195457493185,9.14877193566708,-4.27989210907561,-2.45792965227253,-2.01017367213347,-4.11956728367563,-9.22207513477561,2.28391432601383,434.782870843452,791.571259118488
0.71,3.02179109476124,0.0546305643218947,11.4956587856924,-2.65858095839463,2.10295620344014,2.17066375225393,5.90575113709873,10.2147113094821,-0.751479451831108,451.235464953347,791.571259118488
0.72,2.95703755421204,0.0538516160634109,9.73846799419989,-2.58983853494471,-1.53721801725591,-2.52664438752207,-2.67271631552216,-9.71604909455905,2.61322670499406,466.713675921407,791.571259118488
0.73,2.80435520576579,0.0118533285984387,12.402999526863,-0.515478021589036,0.5468268592,2.75055067351285,1.86102103785663,12.2734149913853,-0.192020796182629,482.061795913098,791.571259118488
0.74,2.72506171510943,0.0684787158727624,11.6765116577323,-3.32984600922913,0.617296356200063,-2.655107510875,6.15244534326447,-10.4678658396294,-2.88803299128431,496.648768818863,791.571259118488
0.75,2.66930033861307,0.0100289719833477,9.81583323096391,-0.403919541546051,-1.91713458377684,1.85737983882826,-7.35541742021985,6.51241641700411,0.804985085054435,510.764138688317,791.571259118488
0.76,2.57176232182336,0.0429229045234996,10.1952574182325,-2.07129792288518,2.55069275339023,-0.331316002459233,10.3633208438006,0.913854472999043,-1.6832771465116,524.556904923827,791.571259118488
0.77,2.44096169690433,0.105959856497555,12.4383775435134,-5.23900007406848,-2.02204303823537,-1.37144575119358,-6.85551450305732,-11.6259312998761,2.21015550115638,537.776969987322,791.571259118488
0.78,2.34881864306556,0.0356073282443242,12.8717928832309,-1.68143423233146,0.23358783691294,2.33744596136111,-0.589791879890714,12.9677453184763,-0.0844437374666385,550.414976485771,791.571259118488
0.79,2.25776531449228,0.0383248548093155,13.3457712174694,-1.81966308391776,1.67735472664445,-1.51177185144587,11.2588540244467,-7.39317179458236,-2.28734694286591,562.668851634402,791.571259118488
0.8,2.21576027237557,0.0285504697960797,11.4963318729795,-1.3357371027967,-2.11843655603331,-0.650104047076435,-10.5378018536068,-4.7858721499423,1.88143674120707,574.531801775488,791.571259118488
0.81,2.14838324514102,0.0871860156127364,11.0412180717178,-4.27625854008454,0.402266036729237,2.1121870194221,-2.6055695772132,11.5501467863908,-0.147636344601002,586.015739824599,791.571259118488
0.82,2.03460665487434,0.0565720555887397,13.0177298971048,-2.75024760493383,1.73401379047155,-1.06584277076264,12.6498873582907,-4.12377295507119,-2.0941336105836,597.090024911516,791.571259118488
0.83,1.97998469331407,0.0839248582041356,12.1620278698419,-4.11996582127766,-1.50408964732897,-1.29038641514099,-6.07426891284332,-11.3133680860198,2.32223085665255,607.755323454024,791.571259118488
0.84,1.88092113911696,0.0767316022870402,13.642097981336,-3.76005060138261,-0.888343075690129,1.65969836122109,-10.162575303506,9.84717629871124,0.532215534769365,618.037043610022,791.571259118488
0.85,1.88430181912435,0.0323830639867884,10.1048409920656,-1.53409615956924,-0.716874420188987,1.74290937058334,-5.41232407644722,8.66994870764782,0.407401411145353,627.973274648488,791.571259118488
0.86,1.78463083162225,0.0661262091580592,11.815807550351,-3.22033406338832,1.70766806488534,0.522637217278952,10.1068884048252,6.91626100715995,-1.23675924733301,637.58852244873,791.571259118488
0.87,1.68538291297329,-0.0125213549910694,13.6299882806994,0.713687372952583,0.557462425287321,-1.59056844934945,3.73723348382649,-13.127033788548,-2.8119195302161,646.827706135704,791.571259118488
0.88,1.62733866688035,-0.0407153587128676,13.4522837056095,2.07597374922596,-1.48845901775503,-0.659074069906228,-13.2255416234852,-3.21848608341592,1.96262349062011,655.801532743886,791.571259118488
0.89,1.54303335491859,-0.0115349182791966,14.6776249094978,0.617351530343652,-0.77418562095184,1.33481145224426,-6.73254807320819,13.0570514411895,0.518105635749963,664.391848515623,791.571259118488
0.9,1.52213005581383,-9.05221744010865e-05,12.8345984842364,0.0629454295316576,1.15798539027925,0.987901690911547,9.80547689398935,8.28151575860985,-0.864552601811606,672.641898572421,791.571259118488
0.91,1.52434784996199,0.0446845962979106,9.95723042930895,-2.15642623697702,1.2174612127187,-0.918379701624307,9.36911438392152,-4.00203793071404,-2.1877637414812,680.568908810967,791.571259118488
0.92,1.41811994271853,0.0458314132436894,12.581438160312,-2.25218232023165,-0.479025082760252,-1.33555219308811,-1.71949607726147,-12.6652376458399,2.82952045688893,688.273592353433,791.571259118488
0.93,1.33198348429872,0.00576764793403242,14.2522243756577,-0.254399658459642,-1.33072026694702,-0.0582824102427068,-14.223508827228,-0.939369725977232,1.6188960892172,695.68654822568,791.571259118488
0.94,1.30131954975954,0.0892004132809319,13.2484064129424,-4.40033515417932,-0.499531791134654,1.20493040212357,-9.83885753104787,9.90353999514024,0.46144503999489,702.776371874709,791.571259118488
0.95,1.2084004613966,0.067724787791647,15.4497997431356,-3.33950771845137,0.780332423628493,0.92514843707322,6.61552961307218,14.3556048929731,-0.644702811509749,709.664608367386,791.571259118488
0.96,1.17361429248576,0.0119280227088269,14.7954796581735,-0.566604493150594,1.16205935785249,-0.164714401556288,14.7432108600731,-1.36564728334444,-1.70143873138212,716.281019618531,791.571259118488
0.97,1.17060830372535,0.0261204069518348,12.6462519079775,-1.24081621849194,0.465250244071826,-1.07449908645898,6.40992826009639,-10.9717879996159,-2.71066182446671,722.614122810101,791.571259118488
