t,iq,id,vq,vd,ia,ib,va,vb,theta_e,omega,r
0,0,0,0,0,0,0,0,0,0,0,0
0.01,0.000690015941873767,0.000393113042781558,-0.0339333516184605,-0.0196816762141992,0.00036869733907495,-0.000703364867336981,-0.0179431275626405,0.0348838774211449,-2.14092621914617,-0.00107658569170352,0
0.02,0.000763574345640313,0.000435108754244756,-0.0376385168303946,-0.0217842468205838,0.000407948021412035,-0.000778423934091483,-0.0199270963228512,0.0386538767896808,-2.14093422105845,-0.00114438794264924,0
0.03,0.000791467310145973,0.00045107179349688,-0.0390247294481649,-0.0225834640696136,0.00042280646923406,-0.000806920662452029,-0.0206623446154043,0.040075052999095,-2.14094236276901,-0.00113741038860265,0
0.04,0.00077480494218898,0.000441902137039484,-0.0382335169643247,-0.0221243701809042,0.000413723115745167,-0.000790210972246427,-0.0202437859743538,0.039261669663777,-2.14094991865637,-0.00106209301824677,0
0.05,0.000791059954409104,0.000451280425035828,-0.039049385469445,-0.0225938986110005,0.000422338828734895,-0.000806882759286061,-0.0206768667319172,0.0400974555568805,-2.14095737058236,-0.00104070014126398,0
0.06,0.000791226529694017,0.0004515740982666,-0.0390787680087903,-0.0226086071606229,0.000422314759188901,-0.000807222913257639,-0.0206933748694541,0.0401258453286715,-2.14096453052714,-0.000995145665740225,0
0.07,0.00081266096103792,0.000464022723117047,-0.040145480197128,-0.0232318592572935,0.000433633437911807,-0.000829274964465238,-0.0212546503877892,0.041226432075812,-2.14097128874556,-0.000986572772449532,0
0.08,0.000791248985409749,0.000451971602065584,-0.0391194509386141,-0.0226285183038744,0.000422108324008133,-0.000807575289857691,-0.02071633869096,0.0401648427559333,-2.14097787490713,-0.000909777161060428,0
0.09,0.000790216988490667,0.000451587796370738,-0.0390874909460893,-0.0226092870291014,0.000421441747292961,-0.000806697762714695,-0.0206995661316136,0.0401315308752091,-2.14098408682713,-0.000868350342706047,0
0.1,0.000789875188653616,0.000451573182131799,-0.0390883706059651,-0.0226085534818006,0.000421157133497315,-0.000806503454038201,-0.0207004649653642,0.0401315107787689,-2.14099000799868,-0.000829901393363609,0
0.11,0.000789570426500497,0.000451570360949118,-0.0390902418951423,-0.0226084222929146,0.000420897555984445,-0.000806338946509602,-0.0207018844324528,0.0401325273430526,-2.14099565411535,-0.000793272947536233,0
0.12,0.000789280565516896,0.000451568021981824,-0.039092062356517,-0.0226083100748501,0.00042065047508942,-0.000806182775421488,-0.0207032613851936,0.0401335270284426,-2.1410010380233,-0.000758346686652735,0
0.13,0.000826963726628869,0.000473184763568729,-0.0409480863229501,-0.0236905640942919,0.000440698458938678,-0.000844723442271241,-0.0216812137155155,0.0420465643357417,-2.14100640178094,-0.000784988028305288,0
0.14,0.00086909680005102,0.000497740228809866,-0.0431164691920022,-0.0249199803634299,0.000462905773146748,-0.000888140095042461,-0.0228426561783829,0.0442521004655688,-2.14101149739137,-0.000820546288211974,0
0.15,0.000791117425588314,0.000453022085800857,-0.0392273569687864,-0.0226811062227334,0.000421399392461509,-0.000808404814017032,-0.0207772365634148,0.0402681580784546,-2.14101640654988,-0.000662958724955682,0
0.16,0.000788303447698688,0.000451605668557099,-0.0391030856305082,-0.0226101939347915,0.00041979167427655,-0.000805695324384245,-0.0207107290662683,0.0401414732806279,-2.14102083536168,-0.000630061003193382,0
0.17,0.000787991249668594,0.000451559100613462,-0.0391003437470066,-0.0226078615408373,0.00041955061568538,-0.000805489361679674,-0.0207095109065837,0.0401381170783314,-2.1410250501351,-0.000602581014700212,0
0.18,0.000787772186296332,0.000451555946769361,-0.039101567772137,-0.0226076970500059,0.000419364678997127,-0.000805370136381101,-0.020710468751838,0.0401387226032794,-2.14102906889669,-0.000576506121276277,0
0.19,0.000787565713068634,0.000451554244106216,-0.039102852160798,-0.0226076197383512,0.000419188708221215,-0.000805258849483488,-0.020711437834563,0.0401394302421963,-2.14103290101749,-0.000551646420809371,0
0.2,0.000787369234343393,0.000451552661611382,-0.0391040965262561,-0.0226075265725144,0.00041902122980655,-0.000805152983208924,-0.0207123889239331,0.0401400992515643,-2.14103655517382,-0.00052794134852262,0
0.21,0.000787181736810285,0.000451551153748461,-0.039105275339267,-0.0226074521908205,0.000418861408591242,-0.000805051955846443,-0.0207132815001338,0.0401407451776413,-2.14104003963063,-0.000505337146514187,0
0.22,0.000787002696600512,0.000451549715801746,-0.0391063863610164,-0.022607395123587,0.000418708799698597,-0.000804955484080999,-0.0207141141561765,0.0401413657368053,-2.14104336226891,-0.000483782685774893,0
0.23,0.000786832253907033,0.000451548344498233,-0.0391074593509509,-0.0226073207485961,0.000418563516763785,-0.000804863644129768,-0.0207149303319582,0.0401419480052762,-2.14104653060355,-0.000463229216111872,0
0.24,0.000786669785660262,0.000451547036754001,-0.0391084849056568,-0.0226072463774889,0.000418425031119883,-0.000804776100169734,-0.0207157124793641,0.0401425016268392,-2.14104955180036,-0.0004436302514351,0
0.25,0.000786514668795212,0.000451545789628487,-0.0391094525534025,-0.0226071907617175,0.000418292814304794,-0.000804692516345362,-0.0207164413869299,0.0401430368734781,-2.14105243269241,-0.000424941464471336,0
0.26,0.000794371710574922,0.000456087364150631,-0.0395011930430562,-0.0228345734261581,0.00042245260849148,-0.000812758200129868,-0.0209233315632336,0.0405459762698395,-2.14105515496467,-0.00042023131764038,0
0.27,0.000767079119803452,0.000440536983051195,-0.0381765012951649,-0.0220560261659219,0.000407871506258581,-0.00078493569409006,-0.0202284498069207,0.0391755454305418,-2.14105786666025,-0.00035871748327438,0
0.28,0.000763223318719856,0.000438287558577105,-0.0379062015833411,-0.0219434046891484,0.000405838245025504,-0.000780961674549942,-0.0200616236290184,0.0389348736378615,-2.14106037592661,-0.000336419396284141,0
0.29,0.000785205455108328,0.000451122062631865,-0.0390759011971453,-0.0225859740425531,0.00041741128004563,-0.000803633340159412,-0.0206992419146554,0.0401072769205105,-2.14106267989888,-0.000357240202971693,0
0.3,0.000781432936202632,0.000449097837342122,-0.0388974126286872,-0.0224846326456306,0.000415326981430733,-0.000799893617791312,-0.020603630580052,0.0399256536744993,-2.14106461057649,-0.000338780090101399,0
0.31,0.000785595969270945,0.000451462308543796,-0.0391071219379268,-0.0226030041718882,0.000417553019046962,-0.000804132277212659,-0.0207161638940599,0.0401385517598321,-2.14106677776378,-0.000331645437738093,0
0.32,0.000785625743243725,0.000451536232715296,-0.0391147411427649,-0.0226067135724921,0.000417536499642151,-0.000804211445683632,-0.020720491320913,0.0401458305759661,-2.1410688582036,-0.000318378788386376,0
0.33,0.000785523612755285,0.000451537740184924,-0.0391156338417752,-0.0226067944821251,0.000417448121404502,-0.000804158406623518,-0.0207211194118905,0.0401464217324414,-2.14107084248811,-0.000305514034079578,0
0.34,0.000785421889530617,0.000451536995433229,-0.0391162728181282,-0.0226067604463445,0.000417361376175222,-0.000804103652818365,-0.0207215996830299,0.0401467772509438,-2.14107273463748,-0.000293239620848146,0
0.35,0.000785324980312496,0.000451536216194552,-0.0391168862119638,-0.0226067047667896,0.000417278772619664,-0.00080405143191163,-0.0207220736313139,0.0401470989207304,-2.14107453891563,-0.00028153499729864,0
0.36,0.000785232337476301,0.000451535470920244,-0.0391174588574828,-0.0226066678030851,0.000417199809511839,-0.000804001507623554,-0.0207225065385143,0.0401474126113644,-2.14107625940301,-0.000270373929837758,0
0.37,0.00078514384460777,0.000451534760150698,-0.0391179967293062,-0.0226066495483448,0.00041712438541567,-0.000803953819221862,-0.0207229032813773,0.0401477216228564,-2.14107789999059,-0.000259731183211105,0
0.38,0.000785059758294089,0.000451534082353933,-0.0391185238954,-0.0226066111070098,0.000417052714134283,-0.000803908505523614,-0.0207233049687378,0.0401480062851351,-2.14107946438915,-0.000249582686801064,0
0.39,0.000784979513687848,0.000451533436003925,-0.0391190228293192,-0.0226065741118068,0.000416984318166893,-0.000803865261808229,-0.0207236850269835,0.0401482754187,-2.14108095613682,-0.000239905487589967,0
0.4,0.00078490299437119,0.000451532819642692,-0.0391194979713811,-0.0226065371075584,0.000416919097575379,-0.000803824025433597,-0.0207240478440079,0.0401485302655972,-2.1410823786076,-0.000230677698491687,0
0.41,0.000784829926531515,0.000451532231880575,-0.0391199453810769,-0.0226065188056981,0.000416856820026284,-0.000803784648773594,-0.0207243798720348,0.0401487845152306,-2.14108373501853,-0.000221878448857201,0
0.42,0.000784760392133089,0.000451531671391188,-0.0391203784405984,-0.0226064817820803,0.000416797552747449,-0.000803747176264985,-0.0207247124566987,0.0401490139540976,-2.14108502843747,-0.000213487837272922,0
0.43,0.000784693959963537,0.000451531136910417,-0.0391207844869128,-0.0226064620031504,0.000416740931084804,-0.000803711375284337,-0.0207250154042113,0.0401492420808483,-2.14108626179,-0.000205486886548992,0
0.44,0.000784630711991386,0.000451530627232196,-0.0391211760390398,-0.0226064249618498,0.000416687022431651,-0.000803677290251413,-0.0207253177700088,0.0401494466657443,-2.14108743786531,-0.000197857500796061,0
0.45,0.000784570275213021,0.000451530141206428,-0.0391215425376229,-0.0226064066180574,0.000416635511285735,-0.000803644719948689,-0.0207255911451805,0.0401496523320788,-2.14108855932364,-0.000190582424500646,0
0.46,0.000784512748817515,0.00045152967773612,-0.0391218966351269,-0.022606388263474,0.000416586479682288,-0.000803613718075803,-0.0207258561782584,0.0401498502154944,-2.14108962870126,-0.00018364520349629,0
0.47,0.000784457783558905,0.000451529235775423,-0.0391222282217239,-0.0226063698994947,0.000416539632257471,-0.00080358409622447,-0.02072610426157,0.040150034909125,-2.14109064841671,-0.000177030147750423,0
0.48,0.000784405437642094,0.000451528814326502,-0.0391225471393745,-0.0226063500705769,0.000416495016681323,-0.000803555885952686,-0.0207263443727773,0.0401502105489759,-2.14109162077654,-0.000170722295875431,0
0.49,0.000784355478241939,0.000451528412437965,-0.0391228484739476,-0.0226063316880489,0.000416452435713894,-0.000803528961690153,-0.0207265707154422,0.0401503769780973,-2.14109254797972,-0.000164707381293864,0
0.5,0.000784307905355696,0.000451528029202601,-0.0391231385549111,-0.0226063132964058,0.000416411888150137,-0.000803503323556451,-0.0207267893189708,0.0401505364318962,-2.14109343212361,-0.00015897179996726,0
0.51,4.51470556186572,-0.00165572716779208,10.2528034191543,0.0914328235507427,-0.338964297710147,4.5019631558523,-0.674854064738054,10.2309779544456,0.074784016669911,23.0164539121915,482.535753620491
0.52,4.32848897603672,-0.0228830328763692,7.65235562378138,1.16353142164507,-1.44950811939593,4.07863539197491,-1.42600369366654,7.60781607477621,0.336182358128928,48.1677318785519,482.535753620491
0.53,4.11309721003202,0.033388077646981,6.53599220412827,-1.64520363540135,-2.87164170812831,2.9448866401001,-5.76944677608093,3.48416029945994,0.78092360197702,73.3252186255686,482.535753620491
0.54,3.81593697238648,-0.00977522661323516,9.38397530817283,0.516993655348981,-3.76956604321356,0.59316302829217,-9.18447348029142,1.99291793957806,1.41215865557615,98.2482658768294,482.535753620491
0.55,3.61337356810373,0.0416444169106511,9.34928474167643,-2.04829363481808,-2.92168562393965,-2.1264891053083,-6.27083893457781,-7.23057473870251,2.21148127180071,119.532138058843,482.535753620491
0.56,3.44158521360885,0.0488481827827099,7.57722036825957,-2.41120447889849,0.0388995514854892,-3.44171203798146,2.60357715283076,-7.51329232477251,-3.1160981911994,141.371934352891,482.535753620491
0.57,3.21946935095393,-0.00880828428581082,9.46850314703258,0.486372310017717,2.92004193079401,-1.35588185695088,8.37086736584544,-4.45170634844007,-2.00824420245693,160.617223947637,482.535753620491
0.58,3.08865371092909,0.0105147509510711,6.7661668501556,-0.484134585865912,2.13225221549963,2.23459007326188,4.30290765973448,5.24408102656456,-0.758562942057588,179.888253920303,482.535753620491
0.59,2.90462771187616,0.0152440881920606,7.50433540520556,-0.723826448177383,-1.68578585960177,2.36542185717273,-4.97455006800695,5.6650530643406,0.624432755940747,197.777109774027,482.535753620491
0.6,2.68572051786202,0.00326267868878788,10.5807992853164,-0.111745985170193,-2.27153249150557,-1.43291503068806,-8.88243758431741,-5.75048721779808,2.13478056745348,214.292985156008,482.535753620491
0.61,2.59412500257398,-0.00666592461267723,7.56825328859467,0.38730350972916,1.5204806606608,-2.10182480813385,4.10576965668681,-6.36954608863162,-2.51789719505096,230.072357353762,482.535753620491
0.62,2.48948514470692,0.0271150106034426,5.57119952446993,-1.30385459568518,1.76000140590072,1.76087096652309,2.96313450080168,4.89470477948386,-0.774259806433678,245.159199386138,482.535753620491
0.63,2.34858295842027,0.0129591095296183,5.80819718247418,-0.595555130788925,-2.0613420934159,1.12555702877005,-5.3955622288614,2.23108687836092,1.07652309621435,259.372496389421,482.535753620491
0.64,2.16036761905437,-0.00576395660024631,8.80096462609997,0.341032726439897,-0.23824594226524,-2.14719825438838,-1.3327550504503,-8.70614987499441,3.02841996657597,272.805378232322,482.535753620491
0.65,2.10327727729142,0.0172346781976844,5.59910075944836,-0.80821782363891,1.97194664480307,0.731777814198342,4.94578629077277,2.74633270579276,-1.20726035670602,285.484329772089,482.535753620491
0.66,1.96712181915889,0.0323249962598509,6.66845209511534,-1.56490155647086,-1.55830687109189,1.2009549751352,-6.28281478970084,2.7282610843923,0.930622399825209,297.542690712113,482.535753620491
0.67,1.82673052443134,-0.0138475150676407,8.20970102835264,0.726870803344466,0.0365265216497824,-1.8264177988015,-0.624885881820569,-8.21809283072358,-3.12917666976902,309.004156245444,482.535753620491
0.68,1.72464943443294,0.00875933113924043,8.12996727200801,-0.402770201843785,1.27264744071218,1.16398491795237,5.69787926828381,5.81315435228381,-0.824885144511272,319.705948597499,482.535753620491
0.69,1.66291762219164,0.0592207573312077,6.40195185083531,-2.92025270907226,-1.66182579547849,0.0844816061438876,-6.44558539104414,-2.82263925290071,1.55560095104536,329.722882533719,482.535753620491
0.7,1.53474570803129,0.012900139733893,8.27184804976349,-0.596735914901877,1.16118730868786,-1.00362086271055,6.68989770824296,-4.90151329323459,-2.27513201297116,339.250919356484,482.535753620491
0.71,1.4490786188143,0.00318978286424482,8.16175656914493,-0.132038747169393,-0.349244218971081,1.406366770702,-2.11257808338081,7.88471422223745,0.245608303418126,348.406375310041,482.535753620491
0.72,1.36636754960978,0.0413201050785035,8.21831618208025,-2.02954818780838,-0.4574814113275,-1.28816861862108,-0.58283971576071,-8.44512193997282,2.83057692412832,356.819506838162,482.535753620491
0.73,1.30379747999236,0.0191295175148705,7.52881393836999,-0.918199460137857,0.954974516700486,0.887849919596468,4.80313343667096,5.86992663980779,-0.80713581214239,364.876580157265,482.535753620491
0.74,1.22149987453245,0.054479169770474,7.93973984809827,-2.69898232348272,-1.17495422453809,-0.338396946886003,-6.6623411838318,-5.09285621122082,1.89578656455578,372.492285739042,482.535753620491
0.75,1.17360489790649,0.0839159407374206,6.92915125313163,-4.15818021506004,1.16650282903193,-0.153822922090474,7.1650113247914,3.73713961544165,-1.63052536935884,379.615999552631,482.535753620491
0.76,1.08766246713432,0.00857481915375638,7.90953559409598,-0.40639792903415,-1.00145562399946,0.424464136407405,-7.46215444342339,2.65370752975739,1.17778608824791,386.477913309547,482.535753620491
0.77,0.999320076739519,0.0219361501625462,9.28214600371635,-1.05908610925972,0.764461418311621,-0.643988004835196,7.89288949139049,-4.99821901259157,-2.24891843418228,392.820889565844,482.535753620491
0.78,0.981436488956883,-0.00574774600877753,7.21538126954985,0.309605692902598,-0.601169930582645,0.775786912111472,-4.14032973699529,5.91736869047392,0.65340138426541,398.937034405829,482.535753620491
0.79,0.907999491662551,0.0106790789106584,8.14094635233089,-0.497827829666224,0.391348505672563,-0.819404336511397,4.04133009423607,-7.08452476380326,-2.68426353634684,404.662900444502,482.535753620491
0.8,0.854899111826181,0.0409601191753298,8.1578654225773,-2.02635595278267,-0.215375243018891,0.828337930713428,-4.36285737090759,7.18487037192581,0.30225201892249,410.089575209212,482.535753620491
0.81,0.839278681629019,0.0079334712315248,6.48246884293413,-0.386721913791968,0.1471572678688,-0.826314942328962,1.57691887984146,-6.29962562257617,-2.95589930432208,415.221886967437,482.535753620491
0.82,0.763199380956756,0.0628008426514914,7.94897086651052,-3.11316313251457,-0.0179916963469423,0.765567462600829,-3.93365907407174,7.57655916727732,0.105598115462886,420.007986277426,482.535753620491
0.83,0.729665387898466,0.0140747470060451,7.38156866012439,-0.691273545073946,0.0296692019521258,-0.729197788844582,1.13230600004662,-7.32688870670956,-3.08164070374787,424.636220477829,482.535753620491
0.84,0.664375593232256,-0.0316822759831733,8.58302465976817,1.59825761450758,-0.0627640918487881,0.662162641855143,1.19451058188809,8.6484613765847,0.046852972545735,428.925266136333,482.535753620491
0.85,0.666696876138245,-0.0202536592354006,6.49205818759667,1.04110534490183,0.0631569604372512,-0.66400763076432,-0.620756410659077,-6.54563834388593,-3.0771328964207,432.953163591626,482.535753620491
0.86,0.601257644686911,-0.0251406345978468,7.89094847172818,1.26806040713662,-0.0915598911446885,0.594776927205492,0.386543421274066,7.98283340444272,0.110951819186937,436.807844292749,482.535753620491
0.87,0.557932328009796,-0.0186082400464003,8.31819341222272,0.93287075059663,0.120697491307374,-0.545038406745948,0.609735591353193,-8.34810229867252,-2.95700170766125,440.418622624474,482.535753620491
0.88,0.532371245795558,0.000477794193990771,7.92639382547567,0.00186784340744836,-0.350045417374716,-0.401107937358721,-5.20781693942863,-5.97548033975329,2.42496637137564,443.813937242182,482.535753620491
0.89,0.504260214482442,0.0229589834584349,7.74689015057552,-1.13670941735605,0.300762517151288,0.405397813398326,3.38527563314107,7.06019292882647,-0.592794938229789,447.059191135792,482.535753620491
0.9,0.482663002895846,0.0208133670793579,7.34951719589784,-1.04210724561104,-0.227011148438002,-0.426453642379186,-2.23065468617703,-7.07994139772283,2.69551737363494,450.110040034119,482.535753620491
0.91,0.472665055912697,-0.00345125792163903,6.43336708764582,0.187764705739127,0.126153132362724,0.455532165118192,1.94281076238935,6.13587434769242,-0.277466520030843,453.002173018618,482.535753620491
0.92,0.39969955727851,-0.0162837098565774,8.74401872354888,0.835827029231221,-0.01904467726167,-0.399577521343893,-1.6040390171335,-8.63617560567641,3.05324930374593,455.706861930642,482.535753620491
0.93,0.435019391246776,-0.00519691134353492,5.7152464290205,0.271226302643044,-0.0572779856192867,0.43126338937084,-0.415455645774174,5.70657533535406,0.120095800747904,458.277409104249,482.535753620491
0.94,0.344813996621448,-0.0525509038885423,9.03625253157983,2.62763683394772,0.166628063433952,-0.306420264084818,0.60034351536404,-9.39137491580237,-2.79477008024649,460.690703943476,482.535753620491
0.95,0.364657315626596,-0.0346781563803852,6.93854792196968,1.72981285338899,-0.231859854780395,0.283581628655933,-2.42683744118578,6.72652657820352,0.590575525443808,462.96849576466,482.535753620491
0.96,0.341142686677403,0.0160860913700256,7.05319367509176,-0.784621558141364,0.245828203918388,-0.237077179769165,5.81934952162349,-4.06181525343473,-2.29095620486025,465.105819361925,482.535753620491
0.97,0.314013047190844,0.0272122921516693,7.39897521379135,-1.34738392520562,-0.271745869046317,0.159683703947801,-7.25873212442081,1.96750745922415,1.1259722055634,467.137712346574,482.535753620491
