t,iq,id,vq,vd,ia,ib,va,vb,theta_e,omega,r
0,0,0,0,0,0,0,0,0,0,0,0
0.01,0.00079482691082853,0.000447751197318451,-0.03853678194612,-0.0224048137013479,0.000584178051636841,-0.000700690343063978,-0.0280766287939055,0.0346231447925249,-1.93360645402222,-0.00247785982039953,0
0.02,0.000924350794069181,0.000518571975313726,-0.0449688374619786,-0.0259485858320436,0.000680120331280957,-0.0008128822910209,-0.0328315154871769,0.0402196101445557,-1.93362554443802,-0.00271530775766835,0
0.03,0.000972911115379559,0.000545922957667431,-0.0473832770215746,-0.0273171734371647,0.000715795076537685,-0.000855701655100575,-0.0346021999007069,0.042356707472736,-1.93364505618469,-0.00268356377343173,0
0.04,0.000950647429569613,0.000534285447477528,-0.0463885034808658,-0.0267348626257964,0.000699096534120819,-0.000836932201981638,-0.0338781352117232,0.0414598370642084,-1.93366305267546,-0.0024347561782956,0
0.05,0.000972981852156591,0.000547732073119937,-0.047532891032619,-0.0274077115855116,0.00071518897184461,-0.000857443201093917,-0.0347084446616227,0.0424956733497011,-1.9336801730579,-0.00234052541941778,0
0.06,0.000974289319299897,0.000549283118729903,-0.0476628511060369,-0.0274853147035076,0.000715846855653019,-0.00085936889720026,-0.0348017071451335,0.0426149161643134,-1.93369630107055,-0.00218715285658794,0
0.07,0.000992809655030319,0.000560799977817507,-0.0486142434670636,-0.028061597629073,0.00072905968446749,-0.000876720937770794,-0.0354859203884606,0.0434919231990811,-1.93371109304184,-0.00210319531004692,0
0.08,0.000974119318984011,0.000550787695869672,-0.0477750720459782,-0.0275606092927973,0.000715128920609812,-0.000860735825004827,-0.0348786546028019,0.0427261529591313,-1.93372523197269,-0.00190379432663014,0
0.09,0.000970616200607619,0.000549627552275167,-0.0476607121388179,-0.0275025535925182,0.000712254731229234,-0.00085841682936877,-0.0347918019291783,0.0426317306030312,-1.93373819495839,-0.00176561055087714,0
0.1,0.000969086674871694,0.000549490913211818,-0.0476372325394401,-0.0274957245821841,0.000710863048224767,-0.000857754611637167,-0.0347717642760319,0.0426174284002224,-1.93375021063734,-0.00164314885730157,0
0.11,0.000967881020790942,0.000549472770952081,-0.0476257257319314,-0.0274948144951612,0.000709732818526362,-0.000857317515703313,-0.0347608549213654,0.0426128799865987,-1.93376136472236,-0.00153016929594693,0
0.12,0.00096678840651122,0.000549468493493293,-0.0476163277934097,-0.0274945912856165,0.000708704034091086,-0.000856932926412163,-0.0347517072473962,0.0426096945058728,-1.9337717210487,-0.00142535744099057,0
0.13,0.0010079557748792,0.000573308360447772,-0.0496361224824415,-0.028687510180942,0.000738715620373705,-0.000893843695781054,-0.0362159000096328,0.0444423950970902,-1.93378177117625,-0.00146189836938789,0
0.14,0.00103564304949401,0.000589919163132356,-0.0511407701722212,-0.0295186909006484,0.000758692171743952,-0.000919210168313252,-0.0373269484543521,0.045754020647175,-1.93379123982888,-0.00145998915152531,0
0.15,0.000972622431166249,0.000554138120867952,-0.0480148994848101,-0.0277282531101057,0.000712475417679325,-0.000863389963926777,-0.0350401252692685,0.042970643632467,-1.93380014075205,-0.00116665254998781,0
0.16,0.000964091767835456,0.000550000202676421,-0.0476369267256356,-0.0275211988388293,0.00070596339972814,-0.000856498008168429,-0.034759977938348,0.0426431366941448,-1.93380780947983,-0.00106376056554332,0
0.17,0.000962389925816169,0.000549520370869318,-0.0475844698061599,-0.0274971818920715,0.000704536820057694,-0.000855450101698396,-0.0347191675605866,0.0426023025509059,-1.93381485581226,-0.000989310319835364,0
0.18,0.000961583543775411,0.000549463522900295,-0.0475729009363646,-0.0274943508518514,0.000703797590403436,-0.000855115212354452,-0.0347090796467654,0.042595774700554,-1.93382138915694,-0.00092280621085414,0
0.19,0.000960931007301179,0.000549455670420116,-0.0475667735314156,-0.0274939610579335,0.000703185185276041,-0.000854880418396619,-0.0347032316679416,0.0425934449257784,-1.93382745426456,-0.000861383094917205,0
0.2,0.000960337144473147,0.000549453573059216,-0.0475616587390401,-0.027493856371678,0.000702625959461438,-0.000854671528186865,-0.0346982475601426,0.0425917261501624,-1.93383308561614,-0.000804391919593756,0
0.21,0.000959787344879894,0.00054945222572023,-0.0475569842831337,-0.0274937836450659,0.000702108004930474,-0.000854478697893084,-0.0346936809066425,0.0425901796001847,-1.93383831434718,-0.000751480273241205,0
0.22,0.000959277126497465,0.000549451043795932,-0.047552654787985,-0.0274937137820544,0.000701627314316211,-0.00085429981081298,-0.0346894516497592,0.0425887452169446,-1.93384316925766,-0.000702352073558273,0
0.23,0.00095880314209582,0.000549449954117108,-0.0475486199651391,-0.0274936696439095,0.000701180761317072,-0.000854133629668637,-0.0346855035185827,0.0425874274491902,-1.9338476770753,-0.000656736279775165,0
0.24,0.000958363034548148,0.00054944894303029,-0.0475448705218352,-0.0274936225303014,0.000700766125762298,-0.000853979322916859,-0.0346818369586236,0.042586197035568,-1.93385186261489,-0.000614381710622402,0
0.25,0.000957954475555543,0.000549448004129732,-0.0475413906899266,-0.0274935782648301,0.000700381213424621,-0.000853836074642491,-0.0346784341778004,0.0425850546261543,-1.93385574891711,-0.000575055202515724,0
0.26,0.000966263311347713,0.000554392018912506,-0.0479552287454764,-0.0277409662839393,0.000706389607285891,-0.000861411063435463,-0.0349772885438518,0.0429634083903705,-1.93385926737431,-0.00056786473378917,0
0.27,0.00094336516505059,0.00054135261949429,-0.0468700046456052,-0.0270884925802358,0.00068961188223311,-0.000841092114543445,-0.0341943741694801,0.0419681848655161,-1.93386287181257,-0.000457662660883937,0
0.28,0.000942605006034456,0.000541090796112362,-0.0467171655829525,-0.0270753838922502,0.000688991647481093,-0.000840579536236766,-0.0340560235294101,0.0419017569366965,-1.93386598095903,-0.000424781082240773,0
0.29,0.000954815009349459,0.000548479051104001,-0.0474444314273635,-0.0274450897270539,0.000697779454488817,-0.000851824397673747,-0.0346044638734838,0.0425057420076463,-1.93386872090532,-0.000437973711185027,0
0.3,0.000944582685795774,0.000543091437865253,-0.0469607124166773,-0.027175504109967,0.000690125969201146,-0.000843155327814446,-0.0342479410958307,0.0420820040517228,-1.93387062586886,-0.00038585218312074,0
0.31,0.000954665839072121,0.0005487094087873,-0.047455274577925,-0.0274566242260952,0.00069755450289044,-0.000851989785783994,-0.0346103193156889,0.0425205255850078,-1.93387305740427,-0.000395096154477112,0
0.32,0.000955704601041957,0.000549358351243343,-0.0475149653069136,-0.0274890810450921,0.000698293062827216,-0.000852966987017057,-0.0346544912737225,0.042572147460286,-1.9338754143254,-0.000375457346183953,0
0.33,0.000955633273193086,0.000549432903377718,-0.0475206681310313,-0.027492812642605,0.000698198030218723,-0.000853012883106987,-0.0346584033214671,0.0425777374437336,-1.93387761508793,-0.000353711240413421,0
0.34,0.000955438191126742,0.000549441088531351,-0.0475197758703795,-0.0274932242520753,0.000698011014891045,-0.00085295267742169,-0.0346573359743653,0.0425778762000404,-1.93387966004743,-0.000333082954832398,0
0.35,0.000955241129448791,0.00054944163249933,-0.047518180581726,-0.027493251743011,0.000697824987634782,-0.000852884522984588,-0.0346557540727264,0.0425774011284485,-1.93388155899726,-0.000313875093894828,0
0.36,0.000955056058485733,0.000549441321856046,-0.0475165958341061,-0.0274932355477165,0.000697650588903621,-0.000852819732895325,-0.0346542033218072,0.0425768842527827,-1.93388332220908,-0.000296033699838387,0
0.37,0.000954884026030007,0.000549440939092049,-0.0475151126174192,-0.0274932134928743,0.000697488511964371,-0.00085275941765269,-0.0346527549324172,0.042576393586172,-1.93388495936626,-0.000279467001139404,0
0.38,0.000954724217182835,0.000549440572760684,-0.0475137291115468,-0.0274931914008428,0.000697337955867869,-0.000852703377017464,-0.0346514047512814,0.042575934238155,-1.93388647947834,-0.000264084602600873,0
0.39,0.000954575671232593,0.000549440231332062,-0.0475124338401927,-0.0274931920322371,0.000697198012355292,-0.000852651283634297,-0.0346501336099498,0.0425755237002762,-1.93388789091288,-0.000249801926584307,0
0.4,0.000954438097711627,0.000549439914143882,-0.0475112461320857,-0.0274931698682408,0.000697068403473355,-0.000852603039225719,-0.0346489754126063,0.0425751265562908,-1.93388920143963,-0.000236540361909367,0
0.41,0.000954310186657763,0.000549439619595547,-0.0475101320892901,-0.0274931447641422,0.0006969478990544,-0.000852558182145789,-0.0346478911120894,0.0425747495782261,-1.9338904182726,-0.00022422690756725,0
0.42,0.000954191268406852,0.00054943934608593,-0.0475090874623814,-0.0274931452911799,0.000696835867927579,-0.000852516477788452,-0.0346468663030071,0.0425744181979235,-1.93389154811071,-0.000212793780376715,0
0.43,0.00095408111069366,0.00054943909211514,-0.0475081278360161,-0.0274931230392599,0.000696732088180558,-0.000852477846648414,-0.0346459324827403,0.0425740929126685,-1.93389259717272,-0.000202178043032551,0
0.44,0.000953978548795424,0.000549438856288401,-0.0475072202267026,-0.0274931235072752,0.000696635466581756,-0.00085244187782027,-0.0346450424123812,0.0425738047406973,-1.93389357123434,-0.000192321257794177,0
0.45,0.000953883641489142,0.000549438637310411,-0.0475063910059029,-0.0274931012050165,0.000696546053949947,-0.000852408594746008,-0.0346442366724177,0.0425735207101847,-1.93389447565691,-0.000183169164814083,0
0.46,0.000953795282260131,0.000549438433978446,-0.0475056065971066,-0.0274931016213693,0.000696462812083123,-0.000852377606803252,-0.0346434675070296,0.0425732715915912,-1.93389531541963,-0.000174671383447143,0
0.47,0.00095371341346519,0.000549438245174527,-0.0475048843430146,-0.0274930763653866,0.000696385683541549,-0.000852348895724197,-0.0346427681184292,0.0425730184690835,-1.93389609514506,-0.00016678113492132,0
0.48,0.000953637161429617,0.000549438069862004,-0.0475041992718277,-0.0274930767374419,0.000696313848313354,-0.000852322153249737,-0.0346420967596346,0.0425728005778866,-1.93389681912531,-0.000159454984822391,0
0.49,0.000953566497329475,0.000549437907076727,-0.0475035673918367,-0.0274930770880889,0.000696247276390272,-0.000852297371039702,-0.0346414773354217,0.0425725997648938,-1.93389749134639,-0.000152652603999176,0
0.5,0.000953500984891427,0.000549437755924117,-0.0475029830532837,-0.0274930546867622,0.000696185557101075,-0.000852274395900591,-0.0346409124801757,0.0425723929032731,-1.93389811550773,-0.000146336546555196,0
0.51,4.67073772402087,-0.0186675877099536,6.46394724389334,0.939397668572356,-0.46682070911087,4.64738827632981,0.31473262674229,6.52426435126746,0.0961154760390372,29.6043744219643,552.885373353336
0.52,4.66896064221941,-0.0555521506425845,3.66117037133171,2.79144347637548,-2.01977196626956,4.20984568889484,0.986650856183089,4.49698179423817,0.435438166424913,62.9506056325744,552.885373353336
0.53,4.33060549138641,0.0378153189009518,6.75910556282462,-1.87529262495209,-3.662285795443,2.31154421823727,-6.73412386724025,1.96311135172503,1.01650057573582,95.4475718530575,552.885373353336
0.54,4.07988558180727,0.0931623030495479,5.46522436630093,-4.64018044798957,-3.96307140296963,-0.973761074551998,-4.06642841408986,-5.90458397492971,1.83456261837333,127.865353859141,552.885373353336
0.55,3.83705417397471,0.0787551900107548,3.9015630626663,-3.92227247363616,-1.0314021799228,-3.69667372880281,2.82762995987932,-4.75509458364382,2.89002593699917,159.323800701614,552.885373353336
0.56,3.60458246459304,0.0304661185224582,3.98394008501625,-1.50007988300981,3.04855812987441,-1.92359981732326,4.17686968231857,-0.822057122916632,-2.12523729837529,186.058163588126,552.885373353336
0.57,3.3580105751348,0.0827958476195497,5.55786077778136,-4.11272110168581,2.14784806994163,2.58260311382686,0.221485951726244,6.91051628018053,-0.669098780107725,211.33342292075,552.885373353336
0.58,3.0743475645511,-0.0263610753515556,8.60827909221267,1.34085173557863,-2.56108142218314,1.70093203947229,-6.37838422521513,5.93435480753863,0.975966498846779,236.931406773669,552.885373353336
0.59,2.98411788367311,0.0135089637301395,3.72493910998767,-0.643989277837611,-1.02940473413772,-2.80097624572105,-0.663645983500796,-3.72148727952532,2.79392594912769,258.757061162218,552.885373353336
0.6,2.75771478975087,0.00481526405200572,5.45134011741016,-0.219495812004461,2.7530941376095,0.159645600749799,5.4285492560108,0.544187892402509,-1.51112738571054,281.005053782616,552.885373353336
0.61,2.58802270276753,0.0175512638600902,5.54939321930744,-0.845837312709235,-1.49164813051955,2.11498354878253,-3.91698558866395,4.0209986023705,0.621040071016254,300.311090228105,552.885373353336
0.62,2.3943863311784,0.0307349422068848,6.8214031275468,-1.51739859891563,-0.616874064110432,-2.31376250480344,-0.201452873995112,-6.98523126861634,2.89387796893545,319.747521470333,552.885373353336
0.63,2.32283327838307,0.0422980649038848,3.08319141800331,-2.08149925827869,1.95624583714297,1.25317428561205,1.41095173849489,3.44208129972292,-0.982848764514954,336.693114819342,552.885373353336
0.64,2.12242725472629,-0.0455728348060337,5.67839272933185,2.30461657389318,-2.12291646599263,0.000115302184566048,-5.6274789970467,2.42628969395458,1.5492732764783,353.631162983868,552.885373353336
0.65,1.97319264337828,-0.0549959562811788,6.51723318830593,2.76927966085943,1.74409527909273,-0.924470345947292,4.30642968892553,-5.62120108207728,-2.0860639455627,369.078925227394,552.885373353336
0.66,1.92856092321965,0.0445317933049965,2.51031260462491,-2.1956938607764,-1.16675738665955,1.5362315957759,-3.2814823016731,0.595495429870047,0.672635679859935,383.225715331201,552.885373353336
0.67,1.72602756366731,0.0165302982911603,6.58119549524481,-0.806525633040264,0.644361857644375,-1.60132513803849,3.26044451874992,-5.77339755114224,-2.74944835599214,397.031031577032,552.885373353336
0.68,1.62303434465113,-0.0551013365665393,6.21070830293126,2.77057918811942,-0.387479586656108,1.57706569651786,1.43505917003932,6.64752674610835,0.206987718369109,409.794538725269,552.885373353336
0.69,1.57545095583506,0.0644125583505031,3.51414652186664,-3.19102865766894,0.112352602037491,-1.57275922656021,3.56435516138011,-3.13484640050431,-3.02941478401486,421.357921033963,552.885373353336
0.7,1.40614056612042,0.00314568606365428,7.02236577707511,-0.132235426488944,-0.140075096834293,1.39914979693996,-0.84672094917343,6.97238631669856,0.102019059702697,432.54450656807,552.885373353336
0.71,1.34171828508857,-0.025855002679342,5.59558528216102,1.30963363338094,0.252931063171225,-1.31791589829838,-0.34210585657241,-5.73660862239341,-2.97124839782469,443.088999101208,552.885373353336
0.72,1.20776585015482,0.0502058503225684,8.03543555965825,-2.5045715666181,-0.322891869358384,1.16488618195472,-4.84984865535527,6.87895859748267,0.311944030198495,452.824980768228,552.885373353336
0.73,1.1063140192865,0.0158402530646452,9.11596219200963,-0.776567958806628,0.538732124395345,-0.966410534416653,5.22501606693043,-7.51019517596666,-2.61872541793322,461.877289335096,552.885373353336
0.74,1.12556053021087,-0.00241947651413976,4.38580215333245,0.148791618313735,-0.808112420839419,0.783483679677013,-3.03847252323141,3.16624133625719,0.798721597709371,470.311233981923,552.885373353336
0.75,1.06638057399883,-0.00151571481088214,3.77488704399675,0.0989961288882922,0.967361417261027,-0.448755740228691,3.38031645987214,-1.68316162610334,-2.00656780413626,478.295239879932,552.885373353336
0.76,0.96502281687717,0.0202135027271169,5.49057322048832,-0.996024863673478,-0.963254414145541,0.0617944691309625,-5.52840557085649,-0.758413912532086,1.52767542848896,485.790896846742,552.885373353336
0.77,0.846237406897851,-0.0159261362449061,8.29545444361521,0.804577732946208,0.772457912631418,0.345948209797366,7.94831572454418,2.50722693376804,-1.16854633428903,492.814872347677,552.885373353336
0.78,0.806865931634678,-0.0163199120878746,7.34722644193905,0.819336808704369,-0.490744977870889,-0.640678029791684,-5.22502851786312,-5.22992602077155,2.46772055439245,499.315445202639,552.885373353336
0.79,0.827079231061601,-0.0286369317444448,3.61526321304778,1.43407347872462,0.0814743979116045,0.823554522055539,1.90156748341692,3.39274755147054,-0.13321965747964,505.386949387273,552.885373353336
0.8,0.691139885606124,0.0263908566430247,7.87002552003558,-1.32183224020498,0.277180751682121,-0.633673141049022,4.61674076020468,-6.50924319028882,-2.69108409998932,511.033551232728,552.885373353336
0.81,0.646116506432714,-0.0171295934718833,7.70706963340207,0.877558080078295,-0.576342996948892,0.292555486575277,-6.35970005205135,4.44108610206525,1.07457659404506,516.341764229034,552.885373353336
0.82,0.567351123205217,0.00922568050894632,9.38431108534468,-0.441641160499861,0.561103794217811,0.0844685876373611,9.18297436591588,1.98326076351612,-1.40511872597155,521.265463238993,552.885373353336
0.83,0.569483391647175,0.0338349733068499,7.14659350746645,-1.67368085335426,-0.396107105360881,-0.410554868273741,-3.37705757600423,-6.51693858250933,2.43344681869759,525.897738489122,552.885373353336
0.84,0.556720763485334,0.0299382757337646,5.80143026265576,-1.4803853400389,0.0179600009816162,0.557235809343176,-1.60479313082201,5.76825561627834,0.0215049911520259,530.205486154924,552.885373353336
0.85,0.490692648027487,0.0590995560415076,7.22422799371909,-2.94291376001009,0.303793856608554,-0.389847822925089,7.17841145519395,-3.05296912595453,-2.35976121719565,534.242588176652,552.885373353336
0.86,0.504745682124496,0.0599130413583552,4.77825039270258,-2.98535893383038,-0.504730511164892,0.0600407132482463,-4.77900537683919,-2.98415019516534,1.5705433799893,537.994495527381,552.885373353336
0.87,0.440366009688744,-0.0296247385675062,6.36670389316925,1.49215130034133,0.280473545483192,0.340785031813999,5.45258811974065,3.60980841082597,-0.755793681407087,541.47697499778,552.885373353336
0.88,0.368963314804733,0.0651766008980195,8.39075328767275,-3.25526508960425,-0.0339462935710213,-0.37313478279183,3.94873602414341,-8.0875815513551,-3.05747469068744,544.767422326642,552.885373353336
0.89,0.366193917067185,0.0135994156788717,7.08724508175166,-0.675922375309821,-0.289324815453765,0.224886816346491,-6.14795747171195,3.59006028254106,0.947182611892163,547.80183250016,552.885373353336
0.9,0.386195386862629,0.059198351318907,4.70519878863042,-2.95886491699867,0.388383890536154,0.0425355757555171,3.78155872261691,4.0735231513979,-1.30960957274681,550.696718738663,552.885373353336
0.91,0.350095137862296,0.0598508054422796,5.26059320115451,-2.99339321788322,-0.192861508600462,-0.298250168427888,0.680309057647346,-6.01426831551314,2.73689968267992,553.300026368987,552.885373353336
0.92,0.277131747997383,0.0239869368726397,7.7243413094153,-1.20105387698413,-0.116538332926513,0.252579088301716,-4.87198233177337,6.11324522971608,0.518627304235958,555.742042680402,552.885373353336
0.93,0.309256538899753,0.0225008756871554,5.01563840669104,-1.12678392453195,0.304826166033297,-0.0568058514625405,5.10993172180642,0.561131390793943,-1.68240786151355,558.006498709757,552.885373353336
0.94,0.214812054235231,0.020452475243782,8.67208578595359,-1.02680617256522,-0.157856009084077,-0.147119008915929,-4.98697126318638,-7.16864843712603,2.41592773867126,560.159680657275,552.885373353336
0.95,0.236339705311951,-0.0407723816106901,6.61463333892657,2.03718800902132,-0.0971624502515203,0.219267648480729,0.363046213914735,6.91170793936646,0.246285508821771,562.138152181545,552.885373353336
0.96,0.264693146521379,0.0508131696676137,4.28182775858997,-2.54568209055322,0.232774154403482,-0.135869912301443,4.88438191097307,0.978447550027101,-1.9094804335436,563.966130794987,552.885373353336
0.97,0.192520012978644,0.00167091684766463,7.00383923699202,-0.0879583394785761,-0.153091538103704,-0.116746427446202,-5.47821823134454,-4.36470225065548,2.2309868817852,565.68878927335,552.885373353336
