t,iq,id,vq,vd,ia,ib,va,vb,theta_e,omega,r
0,0,0,0,0,0,0,0,0,0,0,0
0.01,0.00052644512368581,0.000299034548255125,-0.025944745171973,-0.0149593989673345,0.000206296718287729,0.000569216824528604,-0.0103858495169555,-0.0280899901978206,0.168879309280859,-0.00134875534033204,0
0.02,0.000652112481749943,0.000368384614907585,-0.0321626487866772,-0.0184286874930428,0.000253546059539656,0.000704749820182022,-0.012761074680579,-0.0348024061336004,0.168868316061424,-0.00161636949737795,0
0.03,0.000701294319289939,0.000395580882604715,-0.0345907401654012,-0.0197891978161109,0.00027209872179273,0.000757799605799202,-0.0136945993949797,-0.0374244519372895,0.168856330388474,-0.00167695803046947,0
0.04,0.000691903545256127,0.000390233474713642,-0.0341405805144986,-0.0195216876531285,0.000268414245187075,0.000747640604639511,-0.0135069758347572,-0.0369355808197537,0.168844678663974,-0.00158529225928674,0
0.05,0.000708630224786321,0.000400003513878356,-0.034973412454597,-0.020010450260961,0.000275243251623218,0.000765768084364726,-0.0138492664761494,-0.0378385453795248,0.168833301392414,-0.00156394917244104,0
0.06,0.000711649800936933,0.000401981027205445,-0.0351324459557052,-0.0201093647727442,0.000276693768140698,0.000769073952282108,-0.01392047225787,-0.0380117845215362,0.168822240073078,-0.00150834161363463,0
0.07,0.000722247710217398,0.000408440777994026,-0.0356632754304094,-0.0204325191231742,0.000281289205159504,0.000780603617147252,-0.0141502469832033,-0.0385892156237785,0.168811737456745,-0.00147589179622851,0
0.08,0.000713559298925897,0.000403686824149186,-0.035246295201293,-0.0201946968201202,0.000278070513938633,0.000771237132374458,-0.0139862550518908,-0.0381380620207257,0.168801447310564,-0.00139389801509301,0
0.09,0.000711268208160926,0.00040272195743536,-0.0351431481175202,-0.0201464374446019,0.000277511783513352,0.000768813793419617,-0.0139563822218512,-0.0380281369067276,0.168791669868215,-0.00133168909584489,0
0.1,0.000710349033378278,0.000402524845139557,-0.0351069929405851,-0.0201365814474472,0.00027747906326444,0.000767871974762699,-0.0139530951533288,-0.0379907094085135,0.168782322751536,-0.00127556355326334,0
0.11,0.000709738247198835,0.000402483351075449,-0.0350856036096835,-0.020134505098379,0.00027754762530981,0.000767260414145473,-0.0139549810763065,-0.0379691503641102,0.168773374909918,-0.00122254403939585,0
0.12,0.000709210407916186,0.000402473451315371,-0.0350679223919974,-0.0201340045397731,0.000277633098652857,0.000766736032962298,-0.0139577827781719,-0.0379515166971773,0.168764806723146,-0.00117192399355079,0
0.13,0.000735599239442426,0.000417789646988936,-0.036372618550691,-0.0209002005439855,0.000288305993197476,0.000795320114473306,-0.0144942815869068,-0.0393662490503266,0.168756392615712,-0.0011930385076982,0
0.14,0.00075093416110393,0.000426872971696494,-0.0371677151757559,-0.0213546082979188,0.000294691332188201,0.000811960385124177,-0.0148090219209906,-0.0402262503433675,0.168748204169265,-0.00118635429149364,0
0.15,0.000716774068634376,0.000407410593491191,-0.0354631630227844,-0.0203809941756987,0.000281248666763547,0.000775014609281173,-0.0141358177206768,-0.0383822812315559,0.168740295061772,-0.00105099539445077,0
0.16,0.000709218447264504,0.000403466187348689,-0.0350989014718734,-0.0201836700710666,0.000278634741195642,0.000766901852437976,-0.0140027460662828,-0.0379899529438133,0.168733041889807,-0.000989432615280848,0
0.17,0.000707301834196355,0.00040266583743836,-0.0350113470279485,-0.0201436242891307,0.000278172882107692,0.000764876139618281,-0.0139782329875787,-0.0378968207473669,0.168726163746622,-0.000944867502418598,0
0.18,0.000706590772681096,0.000402502536591483,-0.0349827307209302,-0.0201354616679379,0.000278136328826177,0.000764145924930404,-0.0139752406056945,-0.0378671482328292,0.168719591231168,-0.000905232217760268,0
0.19,0.000706147705676238,0.000402468352787751,-0.0349670099106987,-0.0201337557808902,0.000278181834902581,0.00076370165899894,-0.013976436911939,-0.0378512762689189,0.16871330008583,-0.000867918708793735,0
0.2,0.000705773674307953,0.000402460374884963,-0.0349544225532283,-0.0201333563812255,0.000278241373765745,0.000763329922526062,-0.0139783847211957,-0.0378387163602217,0.168707276002506,-0.000832321377827947,0
0.21,0.000705426127708872,0.000402457750722399,-0.034942889358873,-0.0201332232425898,0.000278301544297112,0.000762985264086213,-0.0139804082091735,-0.037827243901549,0.168701507165751,-0.000798260295710191,0
0.22,0.000705095577802417,0.000402456253708883,-0.034931954746203,-0.0201331424987943,0.000278359781980335,0.000762657617651442,-0.0139823734767314,-0.0378163737185988,0.168695982659061,-0.000765647728720108,0
0.23,0.000704779387793987,0.000402455025738685,-0.0349214990785474,-0.0201330902162174,0.000278415692012245,0.000762344236971026,-0.0139842774259045,-0.0378059837118765,0.168690692113118,-0.000734417540144471,0
0.24,0.000704476835783083,0.000402453891251241,-0.0349114966998368,-0.0201330225951579,0.000278469230520895,0.000762044378229583,-0.0139860815755069,-0.0377960410996062,0.1686856256153,-0.000704510174721059,0
0.25,0.000704187013845222,0.000402452813041619,-0.0349019119419632,-0.0201329732337788,0.000278520520888299,0.000761757137569103,-0.0139878254068852,-0.037786516230305,0.168680773676245,-0.000675869398594907,0
0.26,0.000708864067229153,0.000405307031378303,-0.0351361169010587,-0.0202757587257166,0.000280552554803041,0.000766845694704506,-0.0140894400952703,-0.0380413036131798,0.168676185717868,-0.000661819032277315,0
0.27,0.000697269814150521,0.000398704999186261,-0.034570839463583,-0.0199454880928407,0.000275994095113261,0.000754306389714571,-0.0138589258225803,-0.037428540066675,0.168671596439897,-0.000604932210898067,0
0.28,0.000696550164355006,0.000398457659516094,-0.0345068993235674,-0.0199331125087645,0.00027587428901791,0.000753554254548995,-0.0138576190318001,-0.0373633706988994,0.168667331644441,-0.000578533499054524,0
0.29,0.000701699719135196,0.000401640108112825,-0.0347964304421931,-0.0200923112831385,0.000278150173179886,0.000759163851509866,-0.0139661066062144,-0.0376754616492057,0.168663319546067,-0.000569035299516886,0
0.3,0.000692293844463796,0.000396552860491634,-0.0343376234575405,-0.0198378233024506,0.000274716640747396,0.000749036518163852,-0.0137923769999987,-0.0371803974532414,0.16865983220144,-0.000524240272254023,0
0.31,0.000700467561140706,0.000401252938052651,-0.0347427351415728,-0.0200729555898879,0.000277980748493251,0.000757882199272041,-0.0139563079304793,-0.03761917941929,0.168656173981791,-0.00052473599642057,0
0.32,0.000702027996923936,0.000402204564349041,-0.0348228337345757,-0.0201205513323708,0.00027865966293064,0.000759579233723262,-0.0139899182898924,-0.0377060806961769,0.168652590715422,-0.000508254580706871,0
0.33,0.000702197139263981,0.000402396763675331,-0.0348344410060347,-0.0201301712894239,0.000278823364085064,0.000759777276211382,-0.0139975834996188,-0.0377190897625547,0.168649142287702,-0.000488886135446932,0
0.34,0.000702078957236788,0.000402435125097382,-0.0348317928005064,-0.0201320938703174,0.000278883529632821,0.000759666287922783,-0.0140000479975726,-0.0377167555519605,0.16864583632117,-0.000469579949355956,0
0.35,0.000701906523339153,0.000402442342693574,-0.0348263440744581,-0.0201324569017289,0.000278921992554413,0.000759496628543027,-0.0140014398554694,-0.0377114007226752,0.168642669601613,-0.000450931096662162,0
0.36,0.000701728966689081,0.000402443273825568,-0.0348205140319138,-0.0201325042325585,0.000278955015221275,0.000759320901082582,-0.0140025794076785,-0.0377056188657917,0.168639636827904,-0.000433038112674343,0
0.37,0.000701556241173853,0.000402442953724516,-0.034814797010681,-0.0201324860855881,0.000278985895016113,0.000759149761848449,-0.0140036305659869,-0.0376999392287664,0.168636732454195,-0.000415895706064061,0
0.38,0.000701390267728601,0.000402442401606975,-0.0348092926860189,-0.0201324562881116,0.000279015318509048,0.000758985274108058,-0.0140046298721175,-0.0376944690324542,0.168633951068832,-0.000399477740046031,0
0.39,0.000701231279197426,0.000402441823065168,-0.0348040175423872,-0.0201324235682793,0.00027904345336042,0.000758827700478551,-0.0140055833635868,-0.0376892259202683,0.168631287469803,-0.000383754730013463,0
0.4,0.000701079042754282,0.000402441258885982,-0.0347989650317158,-0.0201323908358822,0.000279070382748378,0.000758676816909327,-0.0140064951994772,-0.0376842038561824,0.16862873666979,-0.000368697498147621,0
0.41,0.000700933017131959,0.000402440716502012,-0.0347941128633036,-0.0201323748030642,0.000279096208565235,0.000758532089742336,-0.0140073857792588,-0.0376793836041194,0.168626293892229,-0.00035427790313511,0
0.42,0.00070079335354019,0.000402440196622557,-0.0347894732552292,-0.0201323405884066,0.000279120909694264,0.000758393666900743,-0.0140082188411053,-0.0376747712911919,0.16862395456277,-0.00034046895330373,0
0.43,0.000700659435110831,0.000402439698628916,-0.0347850199064872,-0.020132324522148,0.000279144592459697,0.00075826093895365,-0.0140090347818361,-0.0376703470257588,0.168621714300312,-0.000327244791134713,0
0.44,0.000700531413052681,0.000402439221665098,-0.0347807645995177,-0.0201322917363124,0.000279167233899662,0.000758134053663867,-0.014009797411234,-0.0376661165131108,0.168619568909614,-0.00031458065225583,0
0.45,0.000700408670491248,0.000402438764857376,-0.0347766805974892,-0.0201322741831222,0.000279188939795315,0.00075801240165001,-0.0140105428690798,-0.037662058702066,0.168617514373209,-0.000302452820629213,0
0.46,0.000700291050206271,0.000402438327358204,-0.0347727639627417,-0.0201322580689749,0.000279209738677112,0.000757895826716133,-0.0140112583652716,-0.0376581673423702,0.168615546843095,-0.000290838584471172,0
0.47,0.000700178686005077,0.000402437908353171,-0.034769025125545,-0.0201322237898932,0.00027922961013913,0.000757784459616995,-0.0140119229641939,-0.0376544493752414,0.168613662635277,-0.000279716193790873,0
0.48,0.000700070844606629,0.00040243750706259,-0.0347654310696701,-0.0201322076471327,0.000279248679198672,0.000757677576363976,-0.0140125781276662,-0.03765087829551,0.168611858220655,-0.000269064819672056,0
0.49,0.000699967601613226,0.000402437122738239,-0.0347619890166112,-0.0201321914892823,0.000279266935040611,0.000757575250426667,-0.0140132048786771,-0.0376474581290736,0.16861013022036,-0.000258864515271374,0
0.5,0.000699868724194224,0.000402436754663856,-0.0347586905605472,-0.0201321753171373,0.000279284418528629,0.00075747725126023,-0.0140138047519818,-0.0376441805443704,0.168608475398207,-0.00024909617846436,0
0.51,1.16882331663584,0.0129185229213055,0.858232157509009,-0.646064116027834,-0.00375504827591069,1.16888867449322,-0.658240328552359,0.84892929509393,0.0142646215890854,4.43608401546889,213.765750607924
0.52,1.11659865652152,-0.0267333421783232,3.06954442304031,1.33804253447017,-0.0990375921169701,1.11251911744354,1.13631014125204,3.1498031767012,0.0648497889245803,9.35257359156004,213.765750607924
0.53,1.12653765986309,-0.00261321637732227,2.14773914927897,0.131573805133848,-0.172539185551907,1.11324936893704,-0.193952297997103,2.14300667886141,0.151443925740828,14.2690843261333,213.765750607924
0.54,1.15088066892817,-0.0125264153475119,0.494242351495261,0.627876397314428,-0.323447857144826,1.10456539367411,0.470732632179671,0.645689601369969,0.273980441190157,19.1529572116707,213.765750607924
0.55,1.114820940632,0.00802456411103492,1.83684992235484,-0.400039505824346,-0.459789728850906,1.01561977557745,-1.13282018148533,1.50025587147484,0.432310173467911,24.0382773072278,213.765750607924
0.56,1.12547959687752,-0.00927519967700083,0.827451763559415,0.465923541117579,-0.667298086415794,0.906368366715461,-0.107605253716763,0.943494714642155,0.62639077417053,28.8980085611761,213.765750607924
0.57,1.10270960806722,-0.0144726087113496,1.4597524231467,0.726332114351917,-0.842402855045802,0.711712980025906,-0.626615259369604,1.50525373075331,0.856169693497512,33.8076231018009,213.765750607924
0.58,1.12268615050418,0.00875318634923861,-0.101379047417433,-0.435300962815603,-1.007855922789,0.494699150701005,-0.0973997302032194,-0.436208587764841,1.12229750332293,38.8178269054486,213.765750607924
0.59,1.09366489296688,-0.00707562347582885,0.727807295752154,0.356929648988229,-1.08318495442751,0.151206207073979,-0.668519268419822,0.4584585279263,1.42562896987239,43.971006280813,213.765750607924
0.6,1.08925602540447,0.0089231125513336,0.268863187155944,-0.444674672691463,-1.07004022651093,-0.203892678794473,-0.176880937094485,-0.488606295531984,1.7672776624237,49.230736309689,213.765750607924
0.61,1.0651716236341,-0.000233935932645091,0.818314137063265,0.0134064942870206,-0.893141625012033,-0.580421123144386,-0.693553472863407,-0.434512763087312,2.14685673283779,54.280158679899,213.765750607924
0.62,1.06009283881797,-0.0105073557098018,0.485143258506841,0.527750183531372,-0.571583456176427,-0.892860338497889,-0.707237041116477,-0.117047021170312,2.56224662640146,58.9970927223388,213.765750607924
0.63,1.03409256309326,-0.0012655293289337,1.24384108249907,0.0659184374685077,-0.133074385004775,-1.02549511879134,-0.226935551735361,-1.22473921071766,3.01132397551243,63.4844361168163,213.765750607924
0.64,1.0202658010884,-0.0086843111990193,1.41192220525477,0.437862133207163,0.359099763753623,-0.955020985006952,0.0745218279928717,-1.47637869753692,-2.79044627370567,67.8559567721697,213.765750607924
0.65,1.00887498696074,-0.0201728847919438,1.44418254705491,1.01346746809147,0.780587608638646,-0.639467489271865,0.440856763683529,-1.70833979407266,-2.27713595420572,72.2214016270947,213.765750607924
0.66,1.02007509195314,0.0172378961741937,0.274719989536866,-0.857647036482041,1.00423354029599,-0.179903682097653,0.408145190512896,0.802774573151613,-1.73116418371861,76.7657421103589,213.765750607924
0.67,1.01248302944555,5.55533446725265e-05,-0.0412392848590261,-0.000363626041587524,0.924588729554986,0.412622792852393,-0.0378065626298286,-0.0164764881482333,-1.15098779394517,81.5471055346668,213.765750607924
0.68,0.95386763993804,-0.0341575216250102,2.22425630198851,1.71144811535972,0.458035358843151,0.837397050898769,2.60768576843478,1.03747081000221,-0.536312089849669,86.0866925130031,213.765750607924
0.69,0.968145253364284,-0.0158689871482854,0.931773231350206,0.797574805684311,-0.122218990123982,0.960530881761737,0.690292169228632,1.01381637707467,0.110171333282141,90.2512142278257,213.765750607924
0.7,0.951578163847119,-0.0223365395028439,1.20014525028001,1.12250013893923,-0.689466010993083,0.656229032116763,-0.0569150377244093,1.64228982282942,0.786623045113573,94.3042314220111,213.765750607924
0.71,0.979517824513443,-0.00768651952373461,-0.804617051875503,0.390580540579983,-0.977160186126589,0.0683536522139598,0.832501983278411,0.326959029063414,1.49311167330841,98.4976249711974,213.765750607924
0.72,0.928893551768152,0.00849591372470776,1.01222261058405,-0.422453636508778,-0.73865782756635,-0.563293906270457,-0.540007559803979,-0.954700750880417,2.23145319432831,102.968418232182,213.765750607924
0.73,0.89415764960348,-0.01589654031483,2.09511212504906,0.798460899329255,-0.10893874426802,-0.887638976350018,-1.08279978189819,-1.9633082428917,3.00169831731936,107.107321273985,213.765750607924
0.74,0.887304552424739,-0.0204637952010497,1.85754680669669,1.02871180145223,0.559743181494889,-0.688778416065484,0.324864660818948,-2.0983781979584,-2.48223806911005,110.935717622543,213.765750607924
0.75,0.850825791979261,-0.0328954846020991,3.08160949112923,1.65203792588079,0.850581801910344,-0.0386941786745287,2.93193810147967,-1.90506832776624,-1.65490017080421,114.811173795155,213.765750607924
0.76,0.861537269606068,0.0308688868797052,1.85065714872067,-1.54182479000391,0.638488465065843,0.579251098467094,0.249045631492474,2.39585722417177,-0.798190509635973,118.965176630113,213.765750607924
0.77,0.856544001296354,0.00481409239425751,1.43862490535987,-0.237402974997356,-0.0708723953891119,0.853620469069339,-0.363563885569991,1.41202800679326,0.08845597271073,122.851645829643,213.765750607924
0.78,0.872902589307237,0.0502534736332766,0.0245693679254985,-2.50839264516753,-0.708633496271547,0.512174686990145,-1.37079562796311,-2.1008466537394,1.0024624709161,126.493263643765,213.765750607924
0.79,0.859831867550929,0.0121659721780998,0.0471490652561508,-0.601490400587908,-0.80532402826251,-0.301516269607795,0.174933876134036,-0.577418284551721,1.94319238380646,130.22606238284,213.765750607924
0.8,0.850098960770001,0.00689033165732197,-0.186450955076183,-0.341797335136585,-0.199806875424603,-0.826312853770072,0.375214595507975,0.1039393297702,2.91244649207588,134.17225338774,213.765750607924
0.81,0.804067602351771,0.0444835356565159,1.48366663848687,-2.22072244670633,0.526368441023102,-0.60945857807659,2.62823974608405,0.47458478332994,-2.37395148831721,137.715349928493,213.765750607924
0.82,0.825810258162142,-0.0192952166783303,-0.210557147091155,0.972747610835749,0.801916797664353,0.198152308833977,0.00569033853481374,-0.995258683270427,-1.35191144081769,141.175985861317,213.765750607924
0.83,0.767562614913592,0.0192151364562548,2.00246599592659,-0.958938062364867,0.247722500372883,0.726742837660634,-0.316679519479655,2.19753187786582,-0.303486537659666,144.872696790644,213.765750607924
0.84,0.76417275113363,-0.0404841760047013,1.53970051786834,2.03008040991841,-0.561583245358615,0.519829992030478,0.382905200438804,2.51898546302583,0.771060591450471,148.245748061452,213.765750607924
0.85,0.750830733557224,-0.0238560547285377,1.60511080304104,1.20097219741347,-0.710541735045306,-0.24381621061795,-1.88751636655668,0.67527540676368,1.86958572743177,151.490274130565,213.765750607924
0.86,0.743921412466312,-0.0338817932551612,1.26054756454543,1.69766124785563,-0.0766927817443742,-0.74073292155025,-1.86566236905944,-0.995157173328753,2.99291050305182,155.010473993734,213.765750607924
0.87,0.735133190682677,0.0562692758751936,1.06922368252312,-2.81032962827248,0.587987377410142,-0.444812188970981,2.41896568393685,1.78600025832875,-2.14205018278616,158.203370698223,213.765750607924
0.88,0.769505822468072,0.00521775017798259,-1.25758205792729,-0.252935989186936,0.638173124529205,0.430001742854393,-1.18089294677339,-0.50098013464354,-0.971090215003982,161.305419120953,213.765750607924
0.89,0.710521648322379,-0.00857425007483262,1.01258002241911,0.431512625743751,-0.16582575384611,0.690953218286496,0.196375969610985,1.08303182157215,0.223473893372222,164.605562845961,213.765750607924
0.9,0.676701197614177,-0.0383718808249151,2.08870927039337,1.92552515609005,-0.675983849300334,0.049424159837126,-1.82228112389132,2.17936803878377,1.44116812314953,167.586867136288,213.765750607924
0.91,0.661169212570001,0.0240672193926876,2.24324348706785,-1.19643611894267,-0.315715460662944,-0.581418701623981,0.0734542766716078,-2.54129990324274,2.68051775516969,170.604414892556,213.765750607924
0.92,0.642770078094507,0.0415260645832039,2.49141438947413,-2.07469840511286,0.432690930012163,-0.477133468139258,3.23295903027293,-0.24391605284058,-2.34048788241017,173.684760943386,213.765750607924
0.93,0.618827357194296,0.0102337266839646,3.09642133827664,-0.505115947685611,0.543981990460171,0.295187434063358,2.44853375194727,1.96154268123747,-1.05708407528044,176.456600929184,213.765750607924
0.94,0.622737981421768,-0.0528241019839717,2.24987157733635,2.64459040693081,-0.203577977740158,0.590888302672256,2.01376403331001,2.82852169040356,0.247169328195804,179.428617951967,213.765750607924
0.95,0.613851778162325,-0.0296168954029184,2.08002353980192,1.48672238924949,-0.613795502177422,-0.0307611370583471,-2.08279135412233,1.48284239351965,1.5726604474465,182.158762266937,213.765750607924
0.96,0.604259764264665,-0.00964252532591427,1.95216446926923,0.490295211809854,-0.124739421605498,-0.591323023145028,-0.911428070618619,-1.79461259938999,2.9177348056786,184.877420799036,213.765750607924
