t,iq,id,vq,vd,ia,ib,va,vb,theta_e,omega,r
0,0,0,0,0,0,0,0,0,0,0,0
0.01,0.000557971278874878,0.000312790301304503,-0.026595328592536,-0.0156542619076103,0.000198466366795294,0.000608096063044734,-0.0101908958035109,-0.0291292475278543,0.195459942203849,-0.00301160649965526,0
0.02,0.0006319586025767,0.000353538554395144,-0.0303316042504398,-0.0176935998777215,0.000224084553661132,0.00068858354440474,-0.0114664974473089,-0.0331901962833766,0.195437440038956,-0.00315145207549078,0
0.03,0.000659946746452042,0.000369683052559167,-0.0317510186461021,-0.0185015895930699,0.000234502510940123,0.000719168853514164,-0.0119842331539265,-0.0347392308240676,0.195415218411177,-0.00302952861348813,0
0.04,0.000643359704695222,0.000361387368075505,-0.0310703237361008,-0.0180864148071218,0.0002295993907721,0.000701282153763479,-0.011709807395814,-0.0339906432477281,0.195395392528905,-0.00268102473947471,0
0.05,0.000657902597956431,0.000370289464279756,-0.0318419257495886,-0.0185319323230605,0.000235521827597369,0.000717272322398965,-0.0119976833955702,-0.0348338390679016,0.195376842052077,-0.00252835697595917,0
0.06,0.000657804727423515,0.000370980629905881,-0.0319203649264381,-0.0185665193732179,0.000236231088818889,0.000717306461605868,-0.0120169805983487,-0.0349172953702312,0.195359771159545,-0.0023101022590185,0
0.07,0.000671949170615455,0.000379804458182926,-0.0326572924139371,-0.0190081274577895,0.000242152550031768,0.000732891026592314,-0.0123076819892164,-0.0357257417181685,0.195344499328333,-0.00219694602584171,0
0.08,0.000656678290050136,0.000371717925855684,-0.0320114688309328,-0.0186034291949703,0.000237194224523886,0.000716337555121979,-0.0120365395598095,-0.0350134749768028,0.195330174580507,-0.00192618526275225,0
0.09,0.000654362958930917,0.000371086456204205,-0.0319651944546726,-0.0185718238257793,0.000237033279552172,0.000713940658867221,-0.0120149638579219,-0.0349617925775216,0.195317382527444,-0.00174970352627534,0
0.1,0.000653252134638386,0.000371035785788645,-0.0319695059974429,-0.0185692917872141,0.000237207420850087,0.000712838372451326,-0.0120120484388669,-0.0349653915107718,0.195305792496609,-0.00159549874803226,0
0.11,0.000652329264429394,0.000371030488512994,-0.0319773961684513,-0.018569023743799,0.00023738880879766,0.000711929523263934,-0.0120106220317422,-0.0349729533628843,0.195295277006724,-0.00145607991591129,0
0.12,0.000651499177358337,0.000371028849414765,-0.0319848961737082,-0.0185689332461885,0.000237555069727057,0.000711112631053343,-0.0120094116070303,-0.0349801786444441,0.195285735185681,-0.00132961238000442,0
0.13,0.000680909000277945,0.000387981612820908,-0.0334076794575946,-0.0194173731936669,0.000248485576171359,0.000743250776643665,-0.0125659752847797,-0.0365404391548026,0.195276505338682,-0.00138156307252546,0
0.14,0.000703668222228502,0.00040166141646706,-0.0346838105863628,-0.0201020071663318,0.000257495734958587,0.000768229657674502,-0.0129903004538909,-0.0379250511275013,0.195268041829031,-0.00140492208804133,0
0.15,0.000653889789164731,0.000373411300774018,-0.0322208914868607,-0.0186881781247758,0.000239446553413605,0.00071391400320906,-0.012081494402792,-0.0352345191939199,0.195260230797258,-0.00101816773248925,0
0.16,0.000649123999237863,0.000371210180141131,-0.0320285348475326,-0.018578016902735,0.000238216439072307,0.000708810194891889,-0.0120109708686451,-0.0350243677360559,0.195253865780224,-0.000909508729165804,0
0.17,0.000648265959242753,0.000371038006277784,-0.0320160992157602,-0.0185693950145951,0.000238218054846357,0.00070793369347753,-0.012005125555984,-0.0350104270266235,0.195248152063273,-0.000831696789760823,0
0.18,0.000647784644379145,0.000371023928477644,-0.0320187142203285,-0.0185686960721862,0.000238301288634425,0.000707457558325283,-0.0120041139026763,-0.0350127945693551,0.195242972650863,-0.000762872236076193,0
0.19,0.000647373470359983,0.000371022225897488,-0.0320222804138537,-0.0185686139468737,0.000238382710928995,0.000707052745816037,-0.0120035060353942,-0.0350162206651398,0.195238273212509,-0.000700572566182674,0
0.2,0.000647002576088703,0.000371021543131955,-0.0320256168188399,-0.0185685783169136,0.000238457008274038,0.000706687748682847,-0.0120029731529732,-0.0350194355869354,0.195234008893709,-0.000644053813550096,0
0.21,0.00064666619896421,0.000371020990594134,-0.0320286495272913,-0.01856854699489,0.00023852445534694,0.000706356731790473,-0.0120024896121298,-0.035022358160955,0.195230139375099,-0.000592768771517673,0
0.22,0.000646361079354563,0.000371020494317558,-0.0320314039934841,-0.0185685170747755,0.000238585638513862,0.000706056474513883,-0.0120020488976128,-0.0350250123541638,0.195226628101952,-0.000546231866272541,0
0.23,0.000646084013361421,0.000371020044291961,-0.0320338905007424,-0.0185685010538013,0.000238641193519837,0.000705783824087119,-0.0120016624304666,-0.0350274102797181,0.195223441907392,-0.000504003420410286,0
0.24,0.000645832852252501,0.000371019635877722,-0.0320361563152725,-0.0185684710319591,0.000238691554393643,0.000705536664615373,-0.0120012947212346,-0.0350295925316774,0.195220550695406,-0.000465684543229307,0
0.25,0.00064560473890165,0.000371019265207668,-0.0320381989184433,-0.0185684549049422,0.000238737291269279,0.000705312186060125,-0.0120009745771916,-0.0350315617221416,0.195217927155871,-0.000430913280804742,0
0.26,0.000651832120249577,0.000374641886727187,-0.0323410607357733,-0.0187497579489187,0.000241084741367995,0.000712123446994334,-0.0121201654686785,-0.035363812318101,0.195215640715902,-0.000437679149849124,0
0.27,0.000633574519488995,0.000364265510858663,-0.0314975730109137,-0.0182304516638234,0.000234448733140148,0.000692199267318171,-0.0117744258081267,-0.0344355829097427,0.195213180566093,-0.000300987921317105,0
0.28,0.000632842127477943,0.000363878213772567,-0.0313125144957338,-0.0182110673166078,0.000234212213307964,0.000691405200954193,-0.0117913736048356,-0.0342502561357831,0.195211221031201,-0.000271774759704235,0
0.29,0.000643839510713854,0.000370461972930138,-0.0319956743051985,-0.0185405617322306,0.000238538833450948,0.000703470407252079,-0.0119821500635152,-0.0349843348292689,0.195209640558193,-0.000315058394135088,0
0.3,0.000638209960043679,0.000367534465748412,-0.031735144376408,-0.018394053426926,0.000236759368646153,0.000697379765959839,-0.0118889830369524,-0.0347003266902651,0.195208975220099,-0.000274100364691263,0
0.31,0.000644132311919357,0.000370746472280401,-0.0320196662664401,-0.0185548149749687,0.00023876262595531,0.000703812326130953,-0.0119915530365661,-0.0350106104251375,0.195207520766435,-0.00028971680399611,0
0.32,0.000644528897821576,0.000370996462599658,-0.0320450682588228,-0.0185673209259316,0.000238931934687392,0.000704249533883477,-0.0119989436033046,-0.0350379388446847,0.19520611191391,-0.000274038141454357,0
0.33,0.00064446167159477,0.00037101576724102,-0.0320481416829714,-0.0185682807414423,0.000238964818102154,0.000704187021611143,-0.0119993341064967,-0.0350411246398498,0.195204825854626,-0.000257250103230237,0
0.34,0.00064436394102221,0.000371017119846506,-0.0320492094628134,-0.0185683567760697,0.000238985923703203,0.00070409113045159,-0.0119992424995011,-0.0350421728777322,0.195203658204973,-0.000241796609477879,0
0.35,0.000644272208228201,0.000371017088188047,-0.0320500328566559,-0.0185683475889967,0.000239004431681128,0.000704000880439478,-0.0119991109078757,-0.035042966137572,0.195202598601661,-0.000227754971055233,0
0.36,0.000644188622027279,0.000371016961389266,-0.0320507603863072,-0.018568347919487,0.000239021196936024,0.000703918627259713,-0.0119990038113812,-0.0350436683772412,0.195201637093134,-0.000215011709681402,0
0.37,0.000644112838125275,0.000371016838684179,-0.0320514206602123,-0.0185683328703171,0.000239036390033992,0.000703844050244453,-0.0119988915542624,-0.035044302723693,0.195200764602157,-0.000203448098340001,0
0.38,0.00064404397846254,0.000371016726738047,-0.0320520120538791,-0.0185683331583485,0.000239050193664445,0.000703776287340134,-0.0119988048735853,-0.0350448734423034,0.19519997288756,-0.000192955050247746,0
0.39,0.000643981463434833,0.000371016625104522,-0.0320525439900529,-0.0185683334272314,0.000239062725105853,0.000703714768081914,-0.0119987271387649,-0.0350453867085039,0.195199254471063,-0.00018343346206014,0
0.4,0.000643924888058984,0.000371016532872612,-0.0320530310652463,-0.0185683168711612,0.000239074066817459,0.00070365909338397,-0.0119986392695689,-0.0350458535004678,0.195198602566861,-0.000174793395608212,0
0.41,0.000643873432486832,0.000371016449175583,-0.0320534639846415,-0.0185683171078671,0.000239084381322946,0.000703608457331673,-0.0119985762637725,-0.0350462711465208,0.195198011016634,-0.000166953238467599,0
0.42,0.000643826691735205,0.000371016373224667,-0.0320538511848251,-0.0185683173302128,0.00023909375034821,0.000703562461147489,-0.0119985201927036,-0.0350466445960191,0.195197474233163,-0.000159838933933643,0
0.43,0.000643784316558139,0.000371016304302764,-0.032054201286645,-0.0185683175392639,0.000239102244511851,0.000703520760869291,-0.011998469562892,-0.035046982245438,0.195196987145668,-0.00015338328156817,0
0.44,0.000643746076597062,0.000371016241760124,-0.0320545263890108,-0.0185683023881668,0.000239109911105404,0.000703483129289596,-0.0119984071333568,-0.0350472929320426,0.195196545153797,-0.000147525302441014,0
0.45,0.00064371115200058,0.000371016185005806,-0.0320548069683332,-0.0185683025753634,0.000239116911514404,0.00070344876101532,-0.0119983669526038,-0.0350475634071474,0.195196144082043,-0.00014220966313544,0
0.46,0.000643679487033102,0.000371016133504688,-0.0320550596948944,-0.0185683027525633,0.000239123258697256,0.000703417600361244,-0.0119983308631595,-0.03504780700204,0.195195780141994,-0.000137386153080092,0
0.47,0.000643650732448665,0.000371016086770502,-0.0320552847907175,-0.0185683029208351,0.000239129022340744,0.000703389303798799,-0.01199829894342,-0.035048023893484,0.195195449896429,-0.000133009210266494,0
0.48,0.000643624655416625,0.000371016044362242,-0.032055486639238,-0.0185683030808984,0.000239134249371875,0.000703363642088305,-0.0119982704531951,-0.0350482183443674,0.195195150225216,-0.000129037490881394,0
0.49,0.000643601023106339,0.000371016005879366,-0.0320556681349529,-0.0185683032334702,0.000239138986552376,0.000703340386067021,-0.0119982449309364,-0.0350483931603946,0.19519487829808,-0.000125433478778458,0
0.5,0.000643579602687163,0.000371015970958809,-0.0320558308540312,-0.0185683033792584,0.000239143280495749,0.000703319306641874,-0.0119982221616229,-0.0350485498571165,0.195194631546436,-0.000122163131107978,0
0.51,1.56565649154189,-0.0253828631611439,3.13827673415902,1.271564601273,-0.138864852888357,1.55969262737304,1.04061337081649,3.22223233300336,0.0725884707087089,21.9161793239382,210.774815758655
0.52,1.41740729961035,-0.0326850656795754,1.78659421367647,1.63810904692963,-0.471278624126515,1.33716424755847,1.00223353007542,2.20699979274297,0.315796839035471,44.0181172111388,210.774815758655
0.53,1.25725877449679,-0.0479814699786644,1.92086317841245,2.40476443898392,-0.858062366724478,0.920179777174912,0.564533891443869,3.02554273521193,0.712335394724884,63.8436567592147,210.774815758655
0.54,1.15462323083923,-0.00905423568477703,-0.11789366817736,0.457486402889198,-1.09766323473558,0.358290674574818,0.257147961538819,0.396317614674444,1.24744610672747,81.893066158812,210.774815758655
0.55,0.991655551673551,-0.0275598269299755,1.39719975910651,1.3842338804039,-0.92621294839335,-0.355344693859192,-1.7776230085004,0.841621674005193,1.90934724162503,98.5716740766447,210.774815758655
0.56,0.848590979945097,-0.0117346252821769,2.3238446613358,0.588503611582207,-0.359843044929487,-0.768607400231463,-1.54381538711916,-1.83390963827511,2.68989983816552,114.055852853408,210.774815758655
0.57,0.7552935476828,0.0060156709293207,1.742580815987,-0.29986782365016,0.311795233580368,-0.687959492837016,1.00408746029066,-1.45544391303604,-2.70810182269652,127.006063432651,210.774815758655
0.58,0.688176023269028,-0.0348671922145802,0.789549655932262,1.74770916827988,0.684488476354198,-0.0792305864777639,0.490163879396654,-1.85408073378888,-1.73665781623728,137.718280032968,210.774815758655
0.59,0.629172965840252,-0.0268304684935468,0.013371259925877,1.347448687258,0.380981157842905,0.50142980800156,1.04572699328681,-0.849853993869914,-0.692355279443243,147.056258927791,210.774815758655
0.6,0.500539164936357,-0.045104101187785,2.95107180207778,2.26266837563566,-0.244406162198009,0.439134903485005,0.869921365783993,3.61548472220155,0.417999566805895,155.821489231424,210.774815758655
0.61,0.445995264446529,0.0106308214800058,2.33884698659305,-0.532598116853718,-0.446119509774733,0.00147420229979255,-2.32742228338727,-0.580492459523739,1.59132350091956,164.073850471172,210.774815758655
0.62,0.403515266681846,-0.0379178171726277,1.75773399264297,1.89887428732187,-0.0919228936257889,-0.3947309373889,-2.35806368867262,-1.06531121655056,2.81910200774403,170.717787670923,210.774815758655
0.63,0.400946251362589,-0.010911906334602,-0.396810126334285,0.550233016102088,0.332506773046216,-0.224312755009517,-0.642809939744025,-0.216817964515199,-2.19148743277238,176.392424318285,210.774815758655
0.64,0.329065707709901,0.0556601232152385,1.05026096725958,-2.78096669954968,0.288882230496295,0.16712075338042,-0.965879162398465,2.81138779377689,-0.878769547920993,181.744695570941,210.774815758655
0.65,0.309678267831226,0.0154082477518347,0.00643064813996401,-0.772338269477218,-0.127150280196603,0.282791177216786,-0.690726186461988,-0.345608291379479,0.472257571886752,186.648376776586,210.774815758655
0.66,0.225702203212737,0.0024430065898774,2.59559797100806,-0.120828060840074,-0.217308882249635,-0.0610270637643346,-2.45725994451532,-0.844749556062671,1.85539902356858,190.589339757521,210.774815758655
0.67,0.23929793907607,0.0120389374370132,0.472346232622408,-0.59800185823894,0.0176585143434212,-0.238948983115329,0.651844563386235,-0.394735165792986,-3.01755894792851,194.132665145091,210.774815758655
0.68,0.187648193349274,-0.00180633178579692,1.69453421518247,0.088064461829326,0.187656626332977,-0.000312881914385472,1.69343165338838,-0.107195107927888,-1.58208950005586,197.466027698436,210.774815758655
0.69,0.163975321237688,-0.0257411239209063,1.73901482830885,1.28808960049318,-0.00522666629577874,0.16590115549672,1.49362439725804,1.56602476094483,-0.12421663561736,200.20620969469,210.774815758655
0.7,0.153615636314183,0.0144706195782909,1.29380718158251,-0.720692727725095,-0.146814841235799,0.0474611940863058,-1.41937043704711,-0.422755950102434,1.3520507398408,202.5602270489,210.774815758655
0.71,0.138405183616893,-0.0113821321941485,1.12495227975454,0.568313565268794,-0.0295344416539773,-0.135695484602468,-0.87207319853436,-0.909937512465287,2.84522959864414,204.842629104497,210.774815758655
0.72,0.0983363294161832,0.0431370785579023,2.31019573983063,-2.16056632339598,0.0769666626648917,-0.0748797306871993,2.921115131723,1.21331676875553,-1.92906061390911,206.754885509901,210.774815758655
0.73,0.109691585050114,0.00434646200678183,1.07856684009577,-0.214739021457467,0.0474642859455992,0.0989862471379595,0.230311473850299,1.07534919951781,-0.407512978626457,208.334714432086,210.774815758655
0.74,0.102933059421269,-0.0294441179332851,0.773711190959897,1.47594194121337,-0.105575220534371,0.0177776154703199,-0.0623060543330537,1.66527822793752,1.12536211406937,209.863994416539,210.774815758655
0.75,0.0953833660063739,-0.0179409998686621,0.597512636913214,0.895900313962863,-0.0274809424695623,-0.0930841758194046,-1.06973689181915,-0.123780879423464,2.66859936288934,211.131020411412,210.774815758655
0.76,0.0663014450709511,-0.0439300106637531,1.57205434377861,2.20085059472324,0.0791889159519747,0.00740560907453944,0.34614574578282,-2.68240215530097,-2.06271730393262,212.27871260319,210.774815758655
0.77,0.0541090272798041,-0.00277581238749873,1.75066306872196,0.142693574311757,0.0236539767614347,0.0487440391324589,0.969009281280348,1.46499271299532,-0.503049030060464,213.284816944567,210.774815758655
0.78,0.0567386470607541,0.0354111218084229,1.20963095116344,-1.77499496483329,-0.0324160522258308,0.0585014630253637,-1.91917893843292,-0.96465867822333,1.06394928666069,214.195395476262,210.774815758655
0.79,0.0298209234604246,0.0421298565072311,2.22065876261713,-2.10706087646076,-0.0512970518115453,-0.00572928972875571,0.770455341561075,-2.96267268589695,2.63685614927114,214.935370000473,210.774815758655
0.8,0.0400458211855089,-0.0131661201656534,1.4283330824141,0.662665941267188,0.041474099843925,-0.0075441074206511,0.938848458798264,-1.2640510731162,-2.06837199996183,215.590772745473,210.774815758655
0.81,0.0652925570083457,-0.016544036697773,-0.0863220716529879,0.82524375411189,0.015887704895011,0.065455358711983,0.689237148944565,-0.461985829079114,-0.48628103825032,216.101366622851,210.774815758655
0.82,0.0121386672253443,-0.0165322916109799,2.35082542854931,0.828725388249746,-0.0183196349819706,-0.00922252037381778,-1.71866105458376,1.80537257764174,1.09972010483825,216.571583304136,210.774815758655
0.83,0.00963132775150509,0.0285297414438345,2.27693286666524,-1.42447769145464,-0.0298681624459848,0.00382119002526989,0.284749908399129,-2.67066985275586,2.68877286559679,216.97122537271,210.774815758655
0.84,0.0192149944386206,0.00908392628309475,1.63913289889475,-0.457842042647916,0.0136474014549939,-0.0162936233391824,1.68025584052419,-0.270400271152745,-2.00273404017711,217.31031754427,210.774815758655
0.85,0.0299040809481612,0.0159165295970653,0.942733508211894,-0.79529339997395,0.0264879069595805,0.0211182564779634,-0.355250543931253,1.18111604450375,-0.408600959134034,217.624200155228,210.774815758655
0.86,0.0530730773939473,-0.00594429439295339,-0.372057869811417,0.301330390586363,-0.0514505434698596,0.0143152979902657,0.457697064702022,0.140500746413293,1.18788862395963,217.912412249937,210.774815758655
0.87,-0.000541490203263193,-0.0362606390642733,2.18296326421692,1.81155469023426,0.0341839702944651,-0.0121071603564527,-2.45783234100108,-1.4163753712062,2.78626977309233,218.168139412401,210.774815758655
0.88,0.0320551204982446,-0.0252551736869892,0.445273578579831,1.26545631653811,0.0384587073647542,0.0136485301754134,0.0161805427562893,-1.34141210628338,-1.89707257969562,218.35380358965,210.774815758655
0.89,0.00987536437904027,-0.0363844242460717,1.4625313772682,1.82460394988896,-0.0319241754209248,0.0200548291698276,2.17175284136585,0.866987427511942,-0.295866108668711,218.479276751632,210.774815758655
0.9,0.00278783870118269,-0.0147337689856016,1.74734502761723,0.734102902212668,-0.00654557516183901,-0.0134911615121013,-1.49441463648355,1.16569576255533,1.30608229047002,218.605387996257,210.774815758655
0.91,0.0355266496729826,-0.00528327571015261,0.0146355921626455,0.265811319060231,-0.00304588543253129,-0.0357879647528078,-0.262029767320921,0.0470133910310152,2.90905699275784,218.727266465024,210.774815758655
0.92,-0.00769217982358599,-0.00280494322294479,2.09482369715451,0.143690067359179,-0.00698399899918211,0.00427330023538607,2.02483313638876,-0.555863227241947,-1.7702333591522,218.868338178274,210.774815758655
0.93,0.0359258145010471,-0.0196243066249886,-0.135784543500947,0.979073817879652,-0.013423421814873,0.0386728497121069,0.943218074535115,-0.295571728995634,-0.165865224707646,218.898833323096,210.774815758655
0.94,0.0141635206172407,-0.0142453510358425,0.902628673772771,0.714237694953025,-0.0159145967472739,-0.0122580974372469,-0.800813779955898,0.826783706564993,1.43884860344405,218.947268565555,210.774815758655
0.95,-0.0207516189880244,0.0108482606978683,2.60259864770206,-0.539788847970938,-0.00877557717842828,0.0217095300727238,0.283741901249232,-2.64279818656095,3.04404279115384,218.9755120397,210.774815758655
0.96,0.0190094398969914,0.000426180294067394,0.572238333474335,-0.0245675755490084,0.0189448473416472,-0.00162271194056812,0.572649486448074,-0.0115256989634898,-1.63382664950139,219.004524637587,210.774815758655
