t,iq,id,vq,vd,ia,ib,va,vb,theta_e,omega,r
0,0,0,0,0,0,0,0,0,0,0,0
0.01,0.00119303061875952,0.000682372259507538,-0.0591445781999569,-0.0341998127942102,-0.0013403546874449,-0.00030397906126515,0.0666991507446187,0.0147963379103233,2.313364600043,-0.00151451195769823,0
0.02,0.00135065344568974,0.000773142867611344,-0.0670615846508365,-0.0387491335370325,-0.00151786215151561,-0.000343670064288796,0.0756082389289014,0.0167971929744898,2.3133534449238,-0.00165523997669282,0
0.03,0.00137748579172324,0.000788525701811089,-0.0684002573278689,-0.0395200945245492,-0.00154803612355123,-0.000350462621397144,0.0771159938205234,0.0171334926626471,2.3133420753652,-0.00162203440992212,0
0.04,0.00136412614837509,0.00078119921265631,-0.0677592308390241,-0.0391529065279809,-0.00153324311234646,-0.000346811068130236,0.0763956150790359,0.016969780498897,2.31333163415517,-0.00154138012282191,0
0.05,0.00137682541160015,0.000788538401049153,-0.0684008021120062,-0.0395207445450874,-0.00154756548409782,-0.000349974422474205,0.0771171924763205,0.0171317717570025,2.31332119323382,-0.00149512459628739,0
0.06,0.00137652484941739,0.000788552894254474,-0.068401833193824,-0.0395214712705089,-0.00154735734002621,-0.000349745036230241,0.0771186149352824,0.0171311618439914,2.31331118715137,-0.00143433403198326,0
0.07,0.0014095721372741,0.000807514904049827,-0.0700434422586016,-0.0404718215625496,-0.0015845300454308,-0.000358103987089144,0.0789708437089792,0.0175401820947472,2.31330166395174,-0.00142047602312453,0
0.08,0.00137598469942709,0.000788592684717305,-0.068404826575112,-0.0395234786240326,-0.00154699282052416,-0.000349321526238812,0.0771224984897749,0.0171302623450485,2.31329245725129,-0.00132057301677039,0
0.09,0.00137560904822545,0.00078854410727251,-0.0684001783913413,-0.0395210217795561,-0.00154668625831736,-0.000349089789318144,0.0771175625811064,0.0171282546693059,2.31328370353073,-0.00126724200132921,0
0.1,0.00137532976212282,0.000788541272692942,-0.0683996686283914,-0.0395208880933252,-0.00154648148782017,-0.000348890098957451,0.0771172399985932,0.0171273628781041,2.31327533149787,-0.0012163422007385,0
0.11,0.00137506281604059,0.00078853866688892,-0.068399188239504,-0.0395207573550964,-0.00154628583364984,-0.000348699150974393,0.0771169347927408,0.0171265169230545,2.31326732438527,-0.0011676612888704,0
0.12,0.00137480762790088,0.000788536174716102,-0.0683987339335682,-0.0395206266515829,-0.0015460987950276,-0.000348516611633568,0.0771166428427072,0.0171257154980222,2.31325966628685,-0.00112110228028946,0
0.13,0.00143376226669159,0.000822282126634053,-0.0713126782420892,-0.0412119343418579,-0.0016123555015039,-0.000363499477221814,0.0804072919860768,0.0178490617603037,2.3132519376005,-0.0011522725118294,0
0.14,0.00157648256010404,0.00090463875767752,-0.0785080399821006,-0.0453395882656498,-0.00177319747360483,-0.000399298464567491,0.0884997569100779,0.019671899572407,2.31324468269758,-0.00129687097385992,0
0.15,0.0013745858209655,0.000788809666813282,-0.0684225426688389,-0.0395343321181178,-0.00154612792423115,-0.000348131170064051,0.0771438279226781,0.0171300196944124,2.31323769756675,-0.000988212635668264,0
0.16,0.00137386435260058,0.000788527629853528,-0.0683970940394635,-0.0395202046244208,-0.00154540786467979,-0.00034784136351919,0.0771156344501037,0.0171227325493707,2.31323133005053,-0.000948827701637697,0
0.17,0.00137366001025109,0.000788524970819543,-0.068396657362175,-0.0395200718806774,-0.00154525761971422,-0.000347695760808407,0.077115327210387,0.0171220655590271,2.31322524087276,-0.000911805571679724,0
0.18,0.00137346591247098,0.000788523073136638,-0.0683963046142112,-0.0395199740703692,-0.00154511534404962,-0.000347556935150239,0.0771151008805826,0.0171214500431533,2.31321941711205,-0.00087639879350735,0
0.19,0.00137328031300657,0.000788521259621758,-0.0683959681566547,-0.0395198762713599,-0.00154497929740067,-0.000347424186795102,0.0771148822111644,0.0171208651109679,2.3132138471976,-0.000842535329565515,0
0.2,0.00137310248570925,0.000788519525058289,-0.0683956295112194,-0.0395198112202679,-0.00154484894522428,-0.000347297011358454,0.0771146799088172,0.0171202732946137,2.31320852006434,-0.000810147905802798,0
0.21,0.00137293283513927,0.000788517866010135,-0.06839532587185,-0.0395197134369014,-0.00154472458714441,-0.000347175668347114,0.0771144772920634,0.0171197471717077,2.31320342513034,-0.000779172184605324,0
0.22,0.001372770258246,0.000788516279193135,-0.068395018437064,-0.039519648391532,-0.00154460541184245,-0.000347059398640036,0.0771142902063518,0.0171192114878928,2.31319855227447,-0.000749546632714004,0
0.23,0.00137261515958659,0.000788514761466078,-0.0683947429673977,-0.0395195506210099,-0.00154449171879772,-0.000346948462948152,0.0771141009107155,0.017118737908939,2.31319389181663,-0.000721212398978933,0
0.24,0.00137246643611351,0.00078851330982395,-0.0683944592518779,-0.0395194855797434,-0.00154438269654674,-0.000346842103318895,0.0771139241856715,0.0171182503057654,2.31318943449884,-0.000694113197450394,0
0.25,0.00137232423189721,0.000788511921392502,-0.0683941887303405,-0.039519420537978,-0.00154427845249753,-0.000346740405465258,0.0771137538538021,0.0171177866067496,2.31318517146654,-0.000668195195570046,0
0.26,0.00138083167883075,0.000793394007519242,-0.0688193446220934,-0.0397641052140983,-0.00155384916693929,-0.000348888152324022,0.0775925215448069,0.0172246003730424,2.31318110392298,-0.000654874256190217,0
0.27,0.00133114702444786,0.000765129181150788,-0.0663801389390368,-0.0383475016614153,-0.00149813159337732,-0.000336120206874881,0.0748375476463855,0.0166191212617593,2.31317712840205,-0.000565296619195296,0
0.28,0.0012899884361934,0.000741255964660163,-0.0642191782397913,-0.037150996076988,-0.00145166531804468,-0.000325880921569827,0.0724363899817418,0.0160396000486135,2.3131733343209,-0.000488068138587031,0
0.29,0.00137160837686224,0.00078839273429031,-0.0683830491994517,-0.0395134334243292,-0.00154367568309661,-0.000346320701628751,0.0771017593904067,0.0171134899333059,2.31316990030405,-0.000575077711548296,0
0.3,0.00137052164033157,0.00078784474602463,-0.0683341921744844,-0.0394859856814769,-0.00154250545478068,-0.000345985306664316,0.0770472525998203,0.0171004605843424,2.31316697466777,-0.00055598507412606,0
0.31,0.0013716054385384,0.000788503326625878,-0.0683927122427343,-0.0395189814457806,-0.00154375043201025,-0.00034622764013919,0.0771127366877607,0.0171154556747254,2.31316369247264,-0.000537605089644464,0
0.32,0.00137150348644528,0.000788503897801721,-0.0683926457230953,-0.0395190276619802,-0.0015436767799547,-0.000346153447489317,0.0771127726738836,0.0171151344399957,2.31316055148949,-0.000518512793343802,0
0.33,0.00137140354098205,0.000788502922962858,-0.0683924614675284,-0.0395189626043724,-0.00154360351355074,-0.000346081962391681,0.0771126443346679,0.0171148261641233,2.31315754741077,-0.000500248869475368,0
0.34,0.00137130764240557,0.000788501986909615,-0.0683922687846426,-0.0395189302391149,-0.00154353320969914,-0.000346013387076589,0.0771125296443326,0.0171144981990927,2.31315467427364,-0.000482781023665776,0
0.35,0.00137121619525897,0.000788501091621585,-0.0683920970552101,-0.0395188651752752,-0.00154346616986167,-0.000345947984705012,0.0771124061445238,0.0171142181519594,2.31315192637127,-0.000466074566104427,0
0.36,0.00137112856216941,0.000788500235333085,-0.068391923222868,-0.0395188327991011,-0.00154340192511485,-0.000345885317220679,0.0771123011419695,0.0171139218332969,2.31314929824443,-0.000450096309435717,0
0.37,0.00137104465436983,0.000788499416346538,-0.0683917512412268,-0.039518800417113,-0.00154334041074838,-0.000345825317763082,0.0771121955377604,0.0171136356042679,2.3131467846723,-0.000434814512848681,0
0.38,0.00137096447186024,0.000788498633037419,-0.0683915891604926,-0.0395187680290079,-0.00154328162742986,-0.000345767979781725,0.0771120953493083,0.0171133645221312,2.31314438066191,-0.000420198819049563,0
0.39,0.00137088815870236,0.000788497883853111,-0.0683914518480941,-0.0395187029505742,-0.00154322568195443,-0.000345713394399858,0.0771119895189334,0.017113142353694,2.3131420814376,-0.000406220193959241,0
0.4,0.0013708147282805,0.000788497167306856,-0.068391297352691,-0.0395186705528465,-0.00154317184790725,-0.00034566088865853,0.0771118914036939,0.0171128922159154,2.31313988243188,-0.000392850869034482,0
0.41,0.00137074467389937,0.000788496481978026,-0.0683911573556469,-0.0395186352388022,-0.00154312048937627,-0.000345610790315263,0.0771118003596594,0.0171126614199656,2.31313777927668,-0.000380064286106958,0
0.42,0.00137067752990423,0.000788495826507398,-0.0683910152944504,-0.0395186028300978,-0.00154307126377924,-0.000345562779104866,0.0771117081892562,0.0171124341571781,2.31313576779385,-0.000367835044625869,0
0.43,0.00137061341270715,0.000788495199594301,-0.0683908834368176,-0.0395185704158259,-0.00154302425742533,-0.00034551692848978,0.0771116220330529,0.0171122205575593,2.31313384398772,-0.000356138851197863,0
0.44,0.00137055208947748,0.0007884945999951,-0.0683907563042367,-0.0395185379965197,-0.00154297929924701,-0.000345473076067754,0.0771115379198386,0.0171120166223962,2.31313200403628,-0.000344952471331076,0
0.45,0.00137049356021522,0.000788494026520532,-0.0683906397415518,-0.0395185055720521,-0.0015429363897241,-0.000345431217053563,0.0771114602191567,0.0171118260211015,2.31313024428495,-0.000334253683277484,0
0.46,0.00137043709878423,0.000788493478032665,-0.0683905030818486,-0.0395185058169379,-0.00154289499422944,-0.000345390855996415,0.0771113884808944,0.0171116036752924,2.31312856123773,-0.000324021233891173,0
0.47,0.00137038345896517,0.000788492953443156,-0.0683903894264044,-0.0395184733821429,-0.00154285566865548,-0.00034535249808349,0.0771113103468274,0.0171114266192404,2.31312695155106,-0.000314234796407324,0
0.48,0.00137033238028288,0.000788492451711136,-0.0683902908573615,-0.0395184409424073,-0.00154281822147713,-0.000345315963047381,0.0771112421255795,0.0171112651759972,2.31312541202763,-0.000304874930063938,0
0.49,0.00137028328066075,0.000788491971840987,-0.0683901832400693,-0.0395184084990815,-0.0015427822241624,-0.000345280853399948,0.0771111660857239,0.0171111027935208,2.31312393960903,-0.00029592304148223,0
0.5,0.0013702361324555,0.000788491512880765,-0.0683900698654777,-0.039518408720092,-0.00154274765672027,-0.000345247146629356,0.0771111067860573,0.0171109173980366,2.31312253137021,-0.000287361347732189,0
0.51,1.15783078207386,-0.0625911077934122,2.58757692728802,3.13743613149664,-0.0945117876465108,1.15566313806768,3.0648506386844,2.67315364249977,0.0275934630166926,8.38339775627491,193.646349996096
0.52,1.15093918626433,-0.0551763819790802,0.487478054875461,2.76624105045338,-0.195321017875937,1.13558581515578,2.68600230530595,0.821654440193522,0.122429922027307,17.3960733116495,193.646349996096
0.53,1.06859965795632,-0.0606880320565678,2.23708661046886,3.04301741112524,-0.355955110397308,1.00939795204929,2.29940819018489,2.99620317102513,0.282294497076765,26.1492176175653,193.646349996096
0.54,0.962344898876727,0.00863046718541817,5.28828624297832,-0.430769926811364,-0.457681908939342,0.846586947446945,-2.9336596211324,4.42099257462124,0.504581154813126,34.4442748371899,193.646349996096
0.55,1.035298588684,-0.00886725745303679,-0.543905702947432,0.446980980211586,-0.739256354425573,0.72485987502912,0.700749023086696,-0.0676477421108174,0.786666008486931,42.4612996419124,193.646349996096
0.56,0.893638466035035,-0.0394054913943647,4.38211704371155,1.97816544687361,-0.823962994391086,0.348177375203439,-3.10796549225733,3.6683291590218,1.12692350024777,50.3426848693649,193.646349996096
0.57,0.879962671109422,-0.00682396892231968,2.93911121794885,0.34582106123955,-0.879334137803111,0.0339461808152358,-2.91993648146063,0.481599316968928,1.52445638746723,58.073892276172,193.646349996096
0.58,0.830637188330733,0.00982672487098485,3.29276329555162,-0.488483387577942,-0.766537182886387,-0.320117869561006,-2.82966439592602,-1.75325569923506,1.97822550839252,65.7150313923487,193.646349996096
0.59,0.827496395293145,-0.0147958257030439,1.36830884199532,0.741023374738501,-0.491782918848231,-0.665671661865291,-1.42065088640037,-0.63492975041438,2.48743471236874,73.1705951901756,193.646349996096
0.6,0.795422504513907,0.0123580352443364,1.04726883803706,-0.620075055093021,-0.0856105952201184,-0.790898544510188,0.520921220291313,-1.09995735159247,3.04930293803239,80.0044625447846,193.646349996096
0.61,0.62399159976699,-0.00167321341055493,7.8821037720939,0.0836085910360318,0.310126109156273,-0.541470324803194,3.8264034390612,-6.89153009077756,-2.62413383154344,86.2313284158484,193.646349996096
0.62,0.724539564840993,-0.0167614017619838,1.26357876721313,0.841916473776755,0.673870833930617,-0.26671450051817,0.835968292252716,-1.26752185942358,-1.97080193262342,92.0036362264479,193.646349996096
0.63,0.74686475725725,-0.0151102015626196,-1.35556312646016,0.761397605873424,0.710346892837598,0.231176503261392,-1.07630753688207,-1.12198029844516,-1.27639372340942,97.4456850042829,193.646349996096
0.64,0.580750957202692,0.0589449389330401,5.45746166361337,-2.94919352903962,0.350171813720569,0.467039485475596,0.289973983370245,6.19657529370112,-0.542201977592417,102.840749333417,193.646349996096
0.65,0.516187321143147,0.058896650781623,7.18104786419282,-2.9488202533535,-0.0609984155136965,0.515943174474718,-4.51642575114731,6.31386472366882,0.231288799932418,108.213515369065,193.646349996096
0.66,0.499269015139309,-0.0864497879766433,6.57207510995908,4.3305788377025,-0.474965858600192,0.176495179774305,-3.50068322711901,7.04920571865143,1.04356103393498,113.368540058172,193.646349996096
0.67,0.613501374869597,-0.016490630787175,-0.463933346341159,0.826489420870425,-0.576896345997257,-0.209395520118406,0.179178412246615,0.930706188462728,1.89210476436754,118.068027834782,193.646349996096
0.68,0.561352925198605,0.0522087516190732,0.919804095174207,-2.61368491405374,-0.250530363446047,-0.505051875915974,2.1082575572576,-1.79795396929888,2.7738494571309,122.468550555209,193.646349996096
0.69,0.547094482898352,-0.0512798537280799,0.465826081020018,2.57612382857729,0.327641187166368,-0.441127248181748,-1.96076583072548,-1.73459080909061,-2.59621479381983,126.63999554256,193.646349996096
0.7,0.415979453344192,-0.00819753563729858,5.84010189895305,0.414023928456264,0.415257939034604,-0.025825360864673,5.7867311254259,-0.88991510017329,-1.65261150107956,130.808296352053,193.646349996096
0.71,0.490709545635116,0.0161781803525442,0.959403486043071,-0.813404338146883,0.320693051693409,0.371770841100415,-0.030708526058401,1.25743335917856,-0.678812102988507,134.853413704342,193.646349996096
0.72,0.390558646133731,-0.00439827608207078,4.9063774209411,0.220624045884673,-0.128361354003906,0.36888855186979,-1.35097627896692,4.7218722409667,0.323602265709508,138.555521852648,193.646349996096
0.73,0.427024955371081,0.0273609551379866,2.1211121950596,-1.36663881728869,-0.410884552419854,0.119468903730104,-2.36733313940425,-0.873242468063258,1.35182372191351,141.970316575794,193.646349996096
0.74,0.343712897658158,-0.0144382240418704,5.29951540746392,0.729970972540471,-0.220137468648875,-0.264360574267262,-4.09996598930917,-3.43627706409236,2.40523643574393,145.427034998025,193.646349996096
0.75,0.326385307828488,-0.000201141637295066,5.19054304807563,0.00601714108213914,0.10969383177148,-0.307399858320633,1.73579186319176,-4.89170726307189,-2.79944995246569,148.824923735021,193.646349996096
0.76,0.3067880227322,0.0310743071101857,5.28850074630684,-1.55841838053757,0.300431428363643,-0.069465533221104,5.44266533223847,0.879944358317516,-1.69707750550538,151.874807793473,193.646349996096
0.77,0.360202455114141,-0.0880232293828399,1.81553193454441,4.41635808949636,0.121403074619536,0.350364368984864,4.69506814996508,-0.869890824870557,-0.573232338457063,154.7091578392,193.646349996096
0.78,0.316555636532141,-0.0764972970143669,3.1856324819275,3.84070728657843,-0.235477090200035,0.224966325172675,1.5091364220339,4.7562373816683,0.57111229514671,157.528807916742,193.646349996096
0.79,0.278733931898246,0.0246398741685453,4.260806404998,-1.23954377308031,-0.278986366911462,-0.0215947972447279,-3.99853085096942,-1.92423777639352,1.73621685433853,160.336965891529,193.646349996096
0.8,0.236334534825759,-0.00509458299986994,5.65201965832767,0.255024679816444,-0.0467835173227569,-0.231713766604753,-1.48655944581606,-5.45898386327464,2.92081541315448,162.808949778008,193.646349996096
0.81,0.30797602148683,-0.0294603752073234,1.39054234224555,1.48234854732291,0.272398034726185,-0.146684880596212,0.332071028230062,-2.00516683932742,-2.16013118972714,165.174628701554,193.646349996096
0.82,0.298070873960854,0.00737583225190347,1.20474587468525,-0.369492524020375,0.245157456822015,0.169701120119336,0.755560698914561,1.00849659302043,-0.940575658593936,167.526056340058,193.646349996096
0.83,0.286943481951887,0.0626886126355317,1.12144163706169,-3.14552667631515,-0.0236229168756598,0.292759938835774,-3.33578995874167,0.156444136688151,0.29560666248374,169.706328097131,193.646349996096
0.84,0.244269433186727,-0.072106780049875,2.66529519963476,3.61654568029984,-0.245918103913772,-0.0662663556111328,-2.57837089004562,3.67902224949196,1.54696810737902,171.707542905287,193.646349996096
0.85,0.217791208992838,0.0271695061962872,3.38178215081913,-1.3549498893114,-0.0959973933106948,-0.197371966750762,0.191157095163247,-3.63810372077441,2.81301093792292,173.726555876637,193.646349996096
0.86,0.263412634591877,-0.0333525810225049,0.547464744626994,1.66637648374512,0.233897266766563,-0.125660969766383,-0.520891206666234,-1.67487330356838,-2.1897439197687,175.617049142152,193.646349996096
0.87,0.253270356264444,-0.0704547900323315,0.523523127367818,3.53085992183193,0.153722832097413,0.213258157388572,2.61491617671459,-2.42966286575819,-0.895889701969437,177.381490987219,193.646349996096
0.88,0.261690921264094,0.0134332524686392,-0.39037768960958,-0.667004003741681,-0.0921116986603882,0.245312098180734,-0.455811958316837,-0.624119011253236,0.410485753011129,179.022637610217,193.646349996096
0.89,0.139261070979853,0.00570078699729717,5.22482181179883,-0.291467068897734,-0.138418811570437,-0.0163210742989556,-5.11356749581901,-1.11137009272515,1.72907834121057,180.708346161606,193.646349996096
0.9,0.214160596609416,0.0542083618879401,1.02906724224719,-2.71980955987053,-0.0716373258489918,-0.208977035063378,2.62596571542776,-1.24925877720644,3.05925954960631,182.227441756222,193.646349996096
0.91,0.211743397219434,-0.0030118106290826,0.711475884453181,0.155433403646024,0.202441226674627,-0.062144082676991,0.629390851544054,-0.366366801334503,-1.88286135483191,183.630865177776,193.646349996096
0.92,0.129896317171788,-0.00407458578209897,4.36248249729249,0.210399918917046,0.0623236810496087,0.114041283071158,2.39243740659439,3.65400669410874,-0.531510612585932,185.094728846112,193.646349996096
0.93,0.149439087031848,0.063139749462448,2.98214086706641,-3.16953216279345,-0.0676714304484806,0.147442348720269,-4.33963994896668,-0.326532380235404,0.830048333384861,186.407218695484,193.646349996096
0.94,0.0970200164746034,0.0813040196150124,5.19894480315566,-4.07294366130632,-0.126298636860212,0.00847829756158698,-1.79838096601419,-6.35481888298262,2.20126152280311,187.684711211339,193.646349996096
0.95,0.137057306331215,-0.00888724685663964,2.82464044719774,0.452238218081961,0.0664150406523889,-0.120219510690241,0.793875086749068,-2.74824951714333,-2.70162448285218,188.904994200865,193.646349996096
0.96,0.184792727401258,0.0173982444624297,0.0758733651789555,-0.877699210543752,0.183112166996617,0.0303477397605347,-0.150678938771779,0.867991088170446,-1.31268283009265,190.039603348322,193.646349996096
0.97,0.180070834313047,0.0560938271741104,-0.0328084536002441,-2.8101793108679,0.0406865899683475,0.184164666030114,-2.79737007166095,-0.27000895546855,0.0845500101758075,191.140278123241,193.646349996096
