t,iq,id,vq,vd,ia,ib,va,vb,theta_e,omega,r
0,0,0,0,0,0,0,0,0,0,0,0
0.01,0.000467339517487197,0.000267457005493363,-0.023160343692371,-0.0133839871885498,0.000185552362323167,0.000505479767378414,-0.0093231473495322,-0.0250721270838939,0.167989958856003,-0.000690462995930682,0
0.02,0.000536558287710133,0.000306638231455359,-0.0266068687143868,-0.0153446755438642,0.000212611703691336,0.000580274128799456,-0.0106801273596748,-0.0287979063459864,0.167984583022903,-0.000776780574013882,0
0.03,0.000563409607032647,0.000321908558056873,-0.0279360041479977,-0.0161088268953447,0.000223181124528881,0.00060929934408381,-0.0112114687080901,-0.030236031503963,0.167978892982462,-0.000798405587456841,0
0.04,0.000550953003182922,0.000314838225761639,-0.027321526063104,-0.0157550126015363,0.000218296205549938,0.000595834781428138,-0.0109655316670854,-0.0295709878723993,0.167973394502348,-0.000761599038033535,0
0.05,0.000564664558473821,0.000322730102176507,-0.0280009136467911,-0.0161499449616598,0.000223787996045949,0.000610671528133605,-0.0112414886259175,-0.0303067784627971,0.167967911227615,-0.000764161451669448,0
0.06,0.000565964068038889,0.000323521840963556,-0.0280665710401152,-0.0161895594315344,0.000224354652953408,0.000612083897508939,-0.0112697333889403,-0.0303780735709034,0.167962500842822,-0.000748313877754479,0
0.07,0.000578238207717246,0.00033065454303885,-0.0286748032114469,-0.0165464843947497,0.000229338333787719,0.000625376510873055,-0.0115201172464559,-0.0310373546499828,0.16795727254963,-0.00074955506768368,0
0.08,0.000567145806208184,0.000324315813128815,-0.0281276928046144,-0.0162292913716064,0.000224946300811797,0.00061337938822235,-0.0112990061297822,-0.0304448593594124,0.167952059255634,-0.000715736597229295,0
0.09,0.000565900478333896,0.000323677953809364,-0.0280674228609597,-0.0161973769876817,0.000224528675417161,0.000612043824473513,-0.0112777688899207,-0.0303800456912517,0.167947018352041,-0.000697280995303571,0
0.1,0.000565671270919711,0.000323612856977432,-0.0280573613588086,-0.0161941087093101,0.000224505815344369,0.000611805857132454,-0.0112763777206265,-0.0303695240135482,0.167942103634117,-0.000680766951656192,0
0.11,0.000565548895792711,0.000323605327025587,-0.0280525504340879,-0.0161937348712669,0.000224521780366581,0.000611682868284467,-0.0112769589322936,-0.0303646642032691,0.16793730773611,-0.000664804572064868,0
0.12,0.00056543985033821,0.000323603604278722,-0.0280483678163616,-0.0161936491427146,0.000224541171102005,0.000611574018032827,-0.0112777156291117,-0.0303604733149558,0.167932627351884,-0.000649242348709883,0
0.13,0.000590373816385315,0.000337947226782815,-0.0292824248263726,-0.0169114265910843,0.000234518435251551,0.000638553580125208,-0.0117792786108815,-0.0316970873814145,0.167927937230252,-0.000671276310664718,0
0.14,0.000608461515900326,0.000348460440295748,-0.030201633501539,-0.0174375247625123,0.000241863620409664,0.000658142905382379,-0.0121444905853003,-0.0326912417082629,0.167923328496597,-0.000683291091606729,0
0.15,0.000569570857590692,0.000326097813432088,-0.0282561925419681,-0.0163184625842238,0.000226318336514141,0.000616060675826056,-0.0113664594322533,-0.0305860791546812,0.167918799950361,-0.000609957129541359,0
0.16,0.000565481232483198,0.000323850277899347,-0.0280550775050719,-0.016206000027309,0.000224788517271885,0.000611651983801989,-0.0112893203888213,-0.0303689488764309,0.1679145461433,-0.00058981740467215,0
0.17,0.000564975319964527,0.000323623625773694,-0.0280311266366451,-0.0161946528311267,0.00022465213089955,0.000611114378337004,-0.011282261062935,-0.0303433918036224,0.167910411801755,-0.000575455180486345,0
0.18,0.00056484025491802,0.000323600022197385,-0.0280254852550718,-0.0161934643253705,0.000224653895791522,0.000610976362102245,-0.0112821544271545,-0.0303375856343436,0.167906378750921,-0.000561983406472181,0
0.19,0.000564745257607529,0.00032359683789096,-0.0280217990947354,-0.0161933106891129,0.000224669036370205,0.000610881284358676,-0.0112827383646042,-0.0303338812316482,0.167902442977758,-0.000548892023197741,0
0.2,0.000564656255757771,0.000323595724523671,-0.0280183841018894,-0.0161932589092333,0.000224685158228742,0.000610792485029171,-0.0112833745076204,-0.0303304622698576,0.16789860197813,-0.000536121587622139,0
0.21,0.000564569873260336,0.000323594838263026,-0.0280150740723422,-0.0161932187774468,0.000224701009134227,0.000610706326836169,-0.0112840017642283,-0.0303271497809796,0.167894853453592,-0.000523659197901422,0
0.22,0.000564485798888761,0.000323593993412153,-0.0280118542355901,-0.0161931651951237,0.000224716459421638,0.000610622471404804,-0.0112845979265685,-0.030323924983224,0.167891195176242,-0.000511496905175802,0
0.23,0.000564403607340234,0.000323593170870037,-0.0280087039790978,-0.0161931250808178,0.00022473156270109,0.000610540495739898,-0.011285193046785,-0.0303207720279107,0.1678876249731,-0.000499627429712089,0
0.24,0.000564323336643371,0.000323592368282664,-0.0280056257883302,-0.0161930849738888,0.000224746311633188,0.000610460436472642,-0.0112857735040505,-0.0303176910925427,0.167884140723808,-0.000488043716205753,0
0.25,0.000564245103213494,0.000323591584989672,-0.0280026260673707,-0.0161930448737487,0.000224760687418268,0.000610382407813169,-0.0112863382919779,-0.0303146884679896,0.167880740358916,-0.00047673888427014,0
0.26,0.000569425280696913,0.000326607931429335,-0.0282595988558968,-0.0163439992760062,0.000226871083640791,0.00061599302153268,-0.0113923327924411,-0.0305932344379695,0.16787744639755,-0.000473685450599141,0
0.27,0.000555140430083912,0.000318409584952975,-0.0275541312556617,-0.0159337380559282,0.00022117683423888,0.000600538399188381,-0.0111058144032798,-0.0298290972731169,0.167874139475423,-0.000441341861964552,0
0.28,0.000554742386538992,0.000318214395330258,-0.0275126478031196,-0.0159239665042785,0.000221052793690783,0.000600112638776987,-0.0111032057275311,-0.0297865291858586,0.167870977847188,-0.000430342055541549,0
0.29,0.000562995425778359,0.000323048640530781,-0.0279440983144222,-0.0161658755373408,0.000224441988645378,0.00060905670288492,-0.0112697179418456,-0.0302522994168399,0.167867934021861,-0.00043272837311825,0
0.3,0.000557703861950839,0.000320102589939773,-0.0276831744497733,-0.0160184559330088,0.000222423153862257,0.000603346671779167,-0.0111680496559988,-0.0299703811282985,0.167865139569604,-0.000415583850151272,0
0.31,0.000563182587918864,0.000323237157387699,-0.0279548085931811,-0.0161753081970327,0.000224600063916003,0.000609271448978201,-0.0112774013670596,-0.0302643707543479,0.16786222307566,-0.00041422053447647,0
0.32,0.000563687108608711,0.000323551478236848,-0.027980481730554,-0.0161910442050771,0.000224827424104158,0.000609820748131439,-0.0112887137912775,-0.0302922797303743,0.167859353103178,-0.000405536590275028,0
0.33,0.000563681249219064,0.000323582476920668,-0.0279809015717447,-0.0161926005345026,0.000224860675549474,0.000609819519761965,-0.0112902630228543,-0.0302929220398496,0.167856549787805,-0.000396304956712135,0
0.34,0.000563624436378685,0.000323585025533104,-0.0279787842334558,-0.0161927205191927,0.000224874348388588,0.000609763315942553,-0.0112908179416593,-0.0302908236138152,0.167853813712249,-0.000387217698159186,0
0.35,0.00056356351081475,0.000323584729497277,-0.0279764459100288,-0.0161927084532894,0.000224885863193772,0.000609702596698804,-0.0112912775785952,-0.0302884859881294,0.167851143482642,-0.000378341203466294,0
0.36,0.000563503516559601,0.000323584160939225,-0.0279741365424072,-0.0161926847501369,0.000224896914207924,0.00060964276454784,-0.011291718945109,-0.0302861756908201,0.167848537536983,-0.000369677588343632,0
0.37,0.000563445073722981,0.000323583577950097,-0.0279718872815877,-0.016192644704677,0.000224907653260484,0.000609584473659348,-0.0112921322456519,-0.0302839226318596,0.167845994330239,-0.00036122246757857,0
0.38,0.000563387931638541,0.000323583006148294,-0.0279696859688718,-0.0161926180953017,0.000224918148428692,0.000609527480833579,-0.0112925489179391,-0.0302817197813061,0.167843512351791,-0.000352970897752211,0
0.39,0.000563332186537456,0.000323582447804734,-0.0279675378585078,-0.0161925914870532,0.000224928386793999,0.000609471881000776,-0.0112929548834599,-0.0302795700586021,0.167841090127848,-0.00034491798614889,0
0.4,0.000563277722002547,0.000323581902851267,-0.0279654374811039,-0.0161925634248225,0.000224938388633628,0.00060941755904809,-0.0112933496655483,-0.030277467812023,0.167838726219795,-0.000337058950817184,0
0.41,0.000563224596245158,0.000323581370992591,-0.0279633881668188,-0.0161925368186358,0.000224948144806369,0.000609364572006889,-0.0112937356202504,-0.0302754167953299,0.167836419223461,-0.00032938912420894,0
0.42,0.000563172751055801,0.00032358085191673,-0.0279613874015489,-0.0161925102134378,0.000224957665581343,0.000609312862128405,-0.011294111775106,-0.0302734142713239,0.167834167768822,-0.0003219039510742,0
0.43,0.000563122186434475,0.000323580345317395,-0.0279594355362153,-0.0161924836088632,0.00022496695148834,0.000609262429063627,-0.0112944781122668,-0.0302714605709505,0.167831970518821,-0.000314598985824106,0
0.44,0.00056307284417352,0.000323579850895369,-0.0279575300564591,-0.0161924570049648,0.000224976012767165,0.000609213215081973,-0.0112948350919321,-0.0302695532005596,0.167829826168342,-0.00030746988989819,0
0.45,0.000563024511628746,0.00032357936835816,-0.0279556606576277,-0.0161924438253979,0.000224984885441275,0.000609165010194143,-0.0112951977096057,-0.030267684228299,0.167827733443568,-0.000300512429187921,0
0.46,0.000562977555881126,0.000323578897420582,-0.0279538460438337,-0.0161924172214957,0.00022499350868323,0.000609118175998891,-0.0112955364076541,-0.0302658675966956,0.167825691101972,-0.000293722471522083,0
0.47,0.000562931706078555,0.000323578437804228,-0.0279520729769254,-0.0161923906181564,0.000225001928215097,0.000609072445132618,-0.0112958666709284,-0.0302640924825267,0.16782369793052,-0.000287095984213008,0
0.48,0.000562886807785139,0.000323577989237247,-0.0279503341757576,-0.0161923774356118,0.000225010170299457,0.000609027665019557,-0.0112962029836648,-0.0302623539353051,0.167821752745162,-0.000280629031660891,0
0.49,0.00056284316987292,0.000323577551454598,-0.0279486452741496,-0.0161923508320453,0.000225018183798454,0.000608984139890355,-0.0112965163051869,-0.0302606628726955,0.167819854390818,-0.000274317773016754,0
0.5,0.000562800579698088,0.00032357712419718,-0.0279469960461161,-0.0161923242288422,0.00022502600467459,0.000608941659793787,-0.0112968216110125,-0.0302590114415944,0.167818001740013,-0.000268158459901568,0
0.51,0.994394550895484,-0.00223199028416657,0.506722278976184,0.111848532072693,-0.0121580890948916,0.994322727036258,0.106784774278174,0.507813522978655,0.00998233031442383,3.09063265181691,172.412829803575
0.52,0.990437332692973,0.00843365798759796,0.562134130105692,-0.421699968321031,-0.0363790166253514,0.989804932160067,-0.446697324245326,0.54248239051946,0.0452520664292322,6.52777514927175,172.412829803575
0.53,1.00033544781515,-0.0144490096224975,-0.088746229435381,0.723738275861478,-0.119883174139568,0.993230993572406,0.729061792203879,-0.011911688982241,0.105675963630606,9.95083605059291,172.412829803575
0.54,1.01036212173117,0.0180365485343142,-0.764446917588582,-0.901759755872348,-0.174308880200531,0.995375983433084,-0.740043943891156,-0.921891917868719,0.19121044311884,13.3839992340078,172.412829803575
0.55,0.990554949644269,0.0292444902376272,0.0332828055664848,-1.46243502104462,-0.266590401783275,0.954454769044113,-1.40619601414159,-0.403034372896975,0.301885112238709,16.8089787452109,172.412829803575
0.56,1.00261599299117,0.0340733228334437,-0.781949224064509,-1.70379577624588,-0.394119661083645,0.922534288510674,-1.21171945833666,-1.43041972527532,0.437715864758819,20.2441567904864,172.412829803575
0.57,0.95829256117918,-0.016363855616255,1.19672898189401,0.820641614474248,-0.55367012289383,0.782331006413982,0.00330315157464955,1.45106926254457,0.598813006026548,23.7141552800957,172.412829803575
0.58,0.969769578230005,-0.0165086457280408,0.352263512922146,0.828184047878441,-0.697463043343937,0.673996196883625,0.336453543213595,0.834731940778349,0.785485731209864,27.2321825975891,172.412829803575
0.59,0.943321994992881,-0.00903997652566729,1.36157490121517,0.454616702772776,-0.797804093048765,0.50343493773036,-0.898184971842891,1.11974386107479,0.998292771846906,30.849148566037,172.412829803575
0.6,0.905388152267946,0.0372406162095577,2.89173445641886,-1.861758020333,-0.843552495878171,0.330958844058503,-3.34126816729579,-0.814983513287325,1.23802038415914,34.5669431610799,172.412829803575
0.61,0.932051197212006,0.00812434013369323,1.16445576255719,-0.405188426796782,-0.929515035100902,0.0691898738856355,-1.18850688327154,-0.328003464278746,1.50521322425609,38.3018979533601,172.412829803575
0.62,0.924048714894464,-0.0257201360352676,1.20639114958725,1.28875556471816,-0.89424806789757,-0.234196383313761,-1.46677425691172,0.982264623538657,1.79910874062488,41.842277490121,172.412829803575
0.63,0.902617296098078,0.0109754235532666,1.96471998685587,-0.547436007980723,-0.776472676430774,-0.460357063477915,-1.39281935234779,-1.48992115942766,2.11812489056785,45.1635741542911,172.412829803575
0.64,0.943352057811787,-0.0239106850625947,-0.36592745524074,1.19914102402649,-0.574990660650823,-0.748244990629557,-0.701757986619168,1.03893109791674,2.46104513541329,48.3831102366714,172.412829803575
0.65,0.91496963437178,-0.0270059513996556,0.758775253460731,1.35458895871036,-0.257175676094063,-0.878498392063976,-1.52280603495128,-0.302841397831255,2.82729827876714,51.5489898575069,172.412829803575
0.66,0.844821681018673,0.0155701289596012,3.94177160110158,-0.775861314078307,0.0480281834227615,-0.843599072564773,1.07019415170261,-3.87223560899847,-3.06629357962745,54.7642763013387,172.412829803575
0.67,0.906527849308732,-0.0269674758369281,0.48324450781096,1.35348855535874,0.449544524587677,-0.787673604190575,-0.967994907714032,-1.06228168696267,-2.65271688062779,58.110700447945,172.412829803575
0.68,0.922470406788252,-0.000211761809604277,-0.761742058008358,0.0126937954538759,0.738349317612415,-0.552984612285395,-0.617208554246707,0.446615825902446,-2.2138528262425,61.6227295497848,172.412829803575
0.69,0.913013254601195,0.0190174054670623,-0.690106329578018,-0.949284599385429,0.895012084987163,-0.181406263715168,-0.509904922914535,1.05706431513959,-1.74994680780712,64.8946056530659,172.412829803575
0.7,0.904898069832727,-0.0200584255229092,-0.639653736674883,1.00724715263979,0.856263834482559,0.293351500726821,-0.30431816025301,-1.15373055202821,-1.26289665014155,67.9690139792606,172.412829803575
0.71,0.85242138838731,-0.0127046106761124,1.63518321806302,0.640031591914959,0.574038260664534,0.630288589303199,1.58565594087146,0.754426823796163,-0.753628260678387,70.9835155584984,172.412829803575
0.72,0.868330447737743,0.0158822646395025,0.43962686501319,-0.789921828585553,0.206565340358146,0.84355247196676,-0.673822516418709,0.602670301312773,-0.221861289764213,74.1351655091064,172.412829803575
0.73,0.864861852084889,0.0126085342212114,0.13279085234402,-0.628509762715765,-0.271501349471358,0.821238099190572,-0.637320320787426,-0.0805030496732352,0.33386621347647,77.4893146894277,172.412829803575
0.74,0.841963251150097,0.0356756274498197,0.846119963965375,-1.78244404544186,-0.644689712234569,0.542724646225034,-1.75894764155597,-0.893940133799022,0.913406156795435,80.5800742543037,172.412829803575
0.75,0.811399559082768,0.0269387160150514,1.9973948012755,-1.3440151082308,-0.808611243826276,0.0724071492186572,-2.06963529348956,-1.22986680386837,1.51467756557923,83.453366841137,172.412829803575
0.76,0.829354084067656,0.00837864190192991,0.700209705110155,-0.413920152521916,-0.704401572464823,-0.43785479683213,-0.368862632641683,-0.724957848453869,2.13704797907958,86.3828068187521,172.412829803575
0.77,0.786485150950837,-0.0394498813012836,2.36659877523016,1.97674669510296,-0.240095814505212,-0.749979456823935,-2.68363844554051,-1.51868428356202,2.78164814950139,89.5308367635037,172.412829803575
0.78,0.838919402580144,0.0206175523953803,-0.720727618662011,-1.02850887147268,0.234294361793161,-0.805802084586617,0.762088386873874,0.998248510939133,-2.83406370367026,92.5267534513894,172.412829803575
0.79,0.809272437857661,0.0325092877230392,0.356919000557959,-1.62202883282764,0.66151202633927,-0.467312070754495,1.18149826706895,1.1672320045289,-2.14567541663588,95.2830498515193,172.412829803575
0.8,0.773950204044727,-0.0257865159812969,1.69227531896039,1.2964595524353,0.763589076929219,0.128823850050024,1.85012963001494,-1.05906726812041,-1.43696754599953,98.1211124143044,172.412829803575
0.81,0.760718439751785,0.014301640182283,1.84099642124244,-0.713129990709814,0.504741710251692,0.569326696565768,0.652772624855803,1.86325256122623,-0.706541352175596,101.156929273721,172.412829803575
0.82,0.771521659389322,-0.0168155737420839,0.854807757236734,0.84568361476659,-0.0516262591145677,0.769976080016103,0.806234011949431,0.892111986295838,0.0451570818380501,103.889529571936,172.412829803575
0.83,0.748537060997411,0.00259595538212043,1.57811396033364,-0.123973787489179,-0.543664734415473,0.514531949662935,-1.23484137144559,0.990444324104446,0.816389831138111,106.543458210607,172.412829803575
0.84,0.759182350372836,0.0059568566118911,0.543454272131165,-0.29534993452159,-0.758883492423971,-0.0221171920621815,-0.5321624183535,-0.315241637814036,1.60777871329922,109.428688153053,172.412829803575
0.85,0.712537329121908,-0.0120600995713132,2.39221283054631,0.607098717816419,-0.461604644686372,-0.542932816652135,-2.0359560427071,-1.39503909334798,2.42005515517917,112.132496975513,172.412829803575
0.86,0.710555454989218,-0.0066813089996664,2.05298538829277,0.340272452137039,0.0844777519540528,-0.705547449807363,-0.113333725414424,-2.07790515012371,-3.03182899308575,114.685257466622,172.412829803575
0.87,0.738126573446093,-0.00517539304806308,0.170347696831951,0.261837347582066,0.607764106414393,-0.418903824373551,-0.0105255492058802,-0.312196007691765,-2.1812851342582,117.430587339318,172.412829803575
0.88,0.689509786177295,0.0157146568922918,2.10294515921352,-0.782875405995371,0.670354220217189,0.162160152665525,1.83083455914849,1.29742709274916,-1.31066642254437,120.048464814413,172.412829803575
0.89,0.678422765611269,0.0524176610296143,2.20845470239767,-2.61716936372385,0.325551177570647,0.597512753729846,-1.4837423577297,3.08631759007977,-0.421765167518696,122.49480994721,172.412829803575
0.9,0.69313609403004,0.00188372832669638,0.953280259472503,-0.0917803099218887,-0.321947766955689,0.613832899600432,-0.526233590933102,0.800153164189815,0.4857629426358,125.154613360223,172.412829803575
0.91,0.680453246938384,-0.0208108404388195,1.09655258567725,1.04572072858309,-0.675218926711105,0.0867704636374758,-0.91789737409752,1.2055802859904,1.41241537513495,127.61805015139,172.412829803575
0.92,0.668793485779222,-0.0130722102124619,1.21366379397515,0.660950020393421,-0.463492793308396,-0.482317364244479,-1.32541252263285,-0.391300880541121,2.35655150979949,129.99885155046,172.412829803575
0.93,0.671623777796734,0.0138804065070068,0.538999315753669,-0.692081477694646,0.104791981988882,-0.663543370924311,0.776295993393377,-0.408486921201056,-2.96429446751349,132.550407371995,172.412829803575
0.94,0.657160068057477,0.0173429250460979,0.787125578450626,-0.862537907975582,0.594845502976172,-0.279855247739769,1.06730205296898,0.473713675836282,-1.9841551520204,134.843837937418,172.412829803575
0.95,0.644367985719357,-0.0330402404907456,0.930390242446681,1.65920747124385,0.519515750965717,0.382629250071444,1.69065603172202,-0.871938999169867,-0.987214544622874,137.220321503045,172.412829803575
0.96,0.641330560415641,0.00682788355655084,0.557359855803601,-0.338178711260617,-0.0108595312212894,0.641274963099727,-0.353419422069413,0.547822564080218,0.0275786956706071,139.585533516825,172.412829803575
