t,iq,id,vq,vd,ia,ib,va,vb,theta_e,omega,r
0,0,0,0,0,0,0,0,0,0,0,0
0.01,0.000805578354599728,0.00045512755910998,-0.0392408012270239,-0.0227701222858043,-0.000165141375753002,0.000910398762342864,0.00758273771906979,-0.0447305380979603,0.693707154753121,-0.00266440321053589,0
0.02,0.000973055460587369,0.000546511966250636,-0.047497122791556,-0.0273421086560269,-0.000201937871777025,0.00109760345962292,0.00934530428751049,-0.0540021561329542,0.693685943418886,-0.0030710111571506,0
0.03,0.00103657586530431,0.000581650074111242,-0.0506273814114952,-0.0291000743579645,-0.000215507537553917,0.00116891523837378,0.00999373392840453,-0.0575332196073914,0.69366350110401,-0.00311057028331239,0
0.04,0.00101775992147022,0.000571479142284447,-0.0497694953506943,-0.0285912301257207,-0.000211273516954811,0.00114794911422536,0.00983528973479674,-0.056548458718141,0.693642237563092,-0.00287657111301372,0
0.05,0.0010417798044808,0.000585812427313684,-0.050982864739298,-0.0293083273252406,-0.000215585227510771,0.00117558681971955,0.010058471519212,-0.0579401216630255,0.693621801169675,-0.00279636316510293,0
0.06,0.00104476336361211,0.00058820282826948,-0.0511757933994838,-0.0294279081960807,-0.000215631592002594,0.0011794134430558,0.0100887296861354,-0.0581651196524489,0.693602266800593,-0.00265104679566683,0
0.07,0.00106152595496526,0.00059868550665541,-0.0520322938602596,-0.0299523554196135,-0.00021826564799317,0.00119900867213306,0.0102319506911588,-0.0591591952666443,0.693584066105001,-0.00256370402543994,0
0.08,0.00104593003665215,0.000590346165453325,-0.051321092855125,-0.0295351491504382,-0.000214687056683303,0.00118168849716381,0.0100970705971354,-0.0583457691057326,0.693566480917333,-0.00237006376071878,0
0.09,0.00104209821314309,0.000588949998914022,-0.0511763270748123,-0.029465299239627,-0.000213291739441111,0.00117785288595097,0.0100572829441961,-0.0581899593738414,0.693550089918169,-0.00222636059386211,0
0.1,0.00104041568881756,0.000588713792424905,-0.0511331307854996,-0.0294534697866091,-0.000212379670325477,0.00117641132711372,0.0100378698575014,-0.0581493346060088,0.693534688619246,-0.00209792458130481,0
0.11,0.00103917294083571,0.00058867151747695,-0.0511089626090461,-0.0294513581191481,-0.000211600705113764,0.00117543170709706,0.0100232014820343,-0.0581295448639135,0.693520195156615,-0.00197823043814081,0
0.12,0.00103806360615394,0.000588661800335041,-0.0510891374366431,-0.0294508616156466,-0.000210883012646306,0.00117457529370076,0.0100101172344175,-0.0581141184814619,0.693506552089311,-0.00186576708406939,0
0.13,0.00107876603623199,0.000612329711326607,-0.0530921425592164,-0.0306349847758834,-0.000218684488528507,0.00122100816163449,0.010379109969468,-0.0604115218314226,0.693493276934823,-0.00189991947492779,0
0.14,0.001103260993497,0.000627012709564756,-0.0544102503089908,-0.0313695840085633,-0.000223034967290439,0.00124923382963058,0.0106559737833111,-0.0618948815516011,0.693480561091983,-0.00188282946504282,0
0.15,0.00104693790561087,0.000595058807936254,-0.0516132039835875,-0.0297709187433771,-0.000211591290125903,0.00118549697977272,0.0100967569227575,-0.0587221076590318,0.693468465634381,-0.00159294916719184,0
0.16,0.00103625684677803,0.000589719202177221,-0.0511228912842682,-0.0295037850821981,-0.000208857586471873,0.00117387201111707,0.00998815439967976,-0.0581743940159913,0.693457717137964,-0.00147064462256675,0
0.17,0.001033712077853,0.000588825333918922,-0.0510245426231527,-0.0294590614089874,-0.000207906671002902,0.00117134570043023,0.0099591032245761,-0.0580702721877783,0.693447711797138,-0.00138221873528265,0
0.18,0.00103264885482552,0.000588674189662797,-0.0509963958350958,-0.0294514890979234,-0.000207332303201213,0.00117043337059266,0.00994638992802237,-0.0580438793125909,0.693438312957956,-0.0013037133604103,0
0.19,0.00103188384752066,0.000588647216009723,-0.0509813039051046,-0.0294501477808056,-0.000206853719586979,0.0011698296279301,0.00993726168009659,-0.0580315033622015,0.693429468558821,-0.00123064965981326,0
0.2,0.00103120568738608,0.000588641084339485,-0.0509691251478196,-0.0294498422884987,-0.000206415234978004,0.00116930588241005,0.00992922916766725,-0.0580220245879742,0.693421143174385,-0.00116201738817573,0
0.21,0.00103057490851699,0.000588638528918807,-0.0509580263629556,-0.0294497113603962,-0.000206004863667735,0.00116882075440922,0.00992178115795325,-0.0580134829903533,0.693413305864882,-0.00109743419310525,0
0.22,0.00102998243032082,0.000588636660195531,-0.0509476391390012,-0.029449606602622,-0.000205618988828068,0.00116836542054661,0.00991479460337749,-0.0580055006948472,0.693405927931244,-0.00103664100259875,0
0.23,0.00102942459584171,0.000588634990314044,-0.0509378529295912,-0.0294495321902161,-0.000205255615542269,0.00116793676311444,0.00990819405075841,-0.0579979956373645,0.693398982432729,-0.000979411821140043,0
0.24,0.00102889970690085,0.000588633432894842,-0.0509286493846985,-0.0294494606424427,-0.00020491369414314,0.00116753342698821,0.0099019874168583,-0.0579909364080001,0.693392444020696,-0.000925537072720149,0
0.25,0.00102840555159835,0.000588631968902423,-0.0509199803672377,-0.0294493861403234,-0.000204591796705564,0.00116715370457067,0.00989614700940379,-0.0579842825169891,0.693386288834625,-0.000874820027795869,0
0.26,0.0010360053044311,0.000593257479011556,-0.0513019037567578,-0.0296807952071007,-0.000205885040806628,0.0011759561119296,0.0099619458322684,-0.0584259751174804,0.693380603381771,-0.00085565881219938,0
0.27,0.00101628740548582,0.000582034071449373,-0.0503617164737859,-0.0291192815505717,-0.000201907721936688,0.00115361909775253,0.00979255946561006,-0.0573440565649131,0.693374871548351,-0.000742250561666365,0
0.28,0.00101533484587988,0.00058175244779303,-0.0502309485634639,-0.0291052047502138,-0.000201509580077293,0.00115270752964842,0.00971951330486922,-0.0572345367610649,0.69336973474597,-0.000698068679275705,0
0.29,0.00102461759758501,0.000587478422866738,-0.0507892333488756,-0.0293916588072051,-0.000203033204104045,0.0011635074716761,0.00985574913387601,-0.0578470400333137,0.693365045926884,-0.000692627144662607,0
0.3,0.0010116644701107,0.000580596635783857,-0.0501714891062237,-0.0290473820025396,-0.00020004299449187,0.00114914762059651,0.00972550166298618,-0.0571519320560612,0.693361328094466,-0.000618506597344267,0
0.31,0.00102345345420666,0.000587283815219019,-0.0507523901069563,-0.0293819437471099,-0.000202429679451461,0.00116248934507931,0.00983921787654359,-0.0578125722616189,0.693357166528199,-0.000625877303495647,0
0.32,0.00102527798876495,0.000588400036682413,-0.0508507336190793,-0.029437786556417,-0.000202732564622397,0.00116460682835685,0.00985888746885952,-0.0579239391341446,0.693353109137923,-0.000599835143136825,0
0.33,0.00102535086031161,0.000588585735541078,-0.0508637638411204,-0.0294470758121686,-0.000202631838063425,0.0011647823371889,0.00985984816332925,-0.0579399356244807,0.693349264770964,-0.000569469353503174,0
0.34,0.00102512767449657,0.000588616044555895,-0.0508619148171008,-0.0294485848552585,-0.000202461665351826,0.00116463078741305,0.00985729586115504,-0.0579395136944127,0.693345641331652,-0.000539845700387006,0
0.35,0.00102486583656775,0.000588620438864549,-0.050857668931687,-0.0294487962042761,-0.0002022869685061,0.00116443290334197,0.00985422203558298,-0.0579364168301725,0.693342229487154,-0.000511774279599534,0
0.36,0.00102460988739957,0.00058862054349631,-0.0508532106703007,-0.0294488166352086,-0.000202119568487663,0.00116423676527466,0.0098511709152319,-0.0579330326177649,0.693339017477933,-0.000485315519157153,0
0.37,0.00102436772321884,0.000588619968401289,-0.0508489522023205,-0.0294487747642724,-0.000201961721710885,0.00116405075599686,0.00984830632792657,-0.0579297603798086,0.69333599370452,-0.00046040175451806,0
0.38,0.00102413924798904,0.000588619314433624,-0.0508449152812468,-0.029448751450699,-0.000201812891655377,0.00116387518804963,0.0098455793451876,-0.0579266686364737,0.693333147154743,-0.000436947194797642,0
0.39,0.00102392392769034,0.000588618679935785,-0.0508410998563862,-0.0294487280885449,-0.000201672649123643,0.00116370971580614,0.00984300364016775,-0.0579237455624179,0.69333046744452,-0.000414867158811522,0
0.4,0.00102372169395276,0.000588618079426136,-0.0508375280889677,-0.0294486802710697,-0.000201540927712657,0.00116355429806844,0.0098406115787343,-0.0579209927026527,0.693327944795981,-0.000394081233594476,0
0.41,0.00102353093728086,0.00058861751353583,-0.0508341436034885,-0.0294486539111102,-0.000201416687451261,0.00116340769931624,0.0098383312829029,-0.0579183961332174,0.693325570003379,-0.000374513596014369,0
0.42,0.00102335147290024,0.000588616980677972,-0.0508309597348332,-0.0294486304185493,-0.000201299801262608,0.00116326977827208,0.00983618506894443,-0.0579159543164232,0.693323334400987,-0.000356092845173617,0
0.43,0.00102318248589831,0.000588616478994854,-0.0508279570349504,-0.0294486068858878,-0.000201189740163697,0.00116313990871529,0.00983416226940285,-0.0579136505180374,0.693321229830593,-0.000338751761207229,0
0.44,0.00102302339419305,0.000588616006675746,-0.050825126558445,-0.0294485804046237,-0.000201086124508118,0.00116301764342226,0.00983225895779334,-0.0579114760761322,0.693319248612067,-0.000322427063414867,0
0.45,0.001022873732134,0.000588615562006799,-0.0508224639514493,-0.0294485567970758,-0.000200988649522628,0.00116290262468075,0.00983046745323293,-0.057909431435457,0.693317383515871,-0.000307059179948839,0
0.46,0.00102273280122383,0.000588615143371139,-0.050819952056156,-0.0294485331556497,-0.000200896862052175,0.00116279431565628,0.00982877863104933,-0.0579075016093012,0.693315627735434,-0.000292592030533304,0
0.47,0.00102259997134222,0.000588614749245993,-0.0508175760860929,-0.0294485338618251,-0.000200810353044521,0.0011626922320757,0.00982716391654456,-0.057905690870883,0.69331397486395,-0.000278972821833448,0
0.48,0.00102247498932534,0.000588614378198352,-0.0508153391909186,-0.0294485072443595,-0.000200728954732884,0.00116259617956947,0.00982566471428963,-0.0579039686803207,0.69331241886974,-0.000266151854808854,0
0.49,0.00102235757430961,0.000588614028877733,-0.0508132421335355,-0.0294484835070956,-0.000200652482002451,0.00116250594243908,0.00982425795133264,-0.0579023549840131,0.693310954074535,-0.000254082343352257,0
0.5,0.0010222469113823,0.000588613700012909,-0.0508112582224242,-0.0294484597431765,-0.000200580408767753,0.00116242089420833,0.00982292849484191,-0.0579008274481167,0.693309575133096,-0.000242720243557079,0
0.51,1.04883755768567,0.0572812843413941,3.92821423562759,-2.86593665211229,0.0360966243233887,1.04978016825443,-2.94465187907281,3.8695587973283,0.0201884699860498,6.22928494177269,149.479034770655
0.52,1.03276866469762,0.0249027333616828,2.73076171093615,-1.24569585397085,-0.0686870834042151,1.03078287989451,-1.48777381704964,2.60678858978181,0.0906453980453228,12.9639986595238,149.479034770655
0.53,0.977055293946412,0.0731866842915685,3.58014578718244,-3.66135768329353,-0.131683817067507,0.97090303867525,-4.32606925953601,2.74009282765936,0.209573382872657,19.4532810636649,149.479034770655
0.54,0.989151375053436,0.0394492051376815,1.09656935561019,-1.97293542027395,-0.32586903206531,0.934765241382517,-2.23756307005447,0.297069069011445,0.375297216812361,25.727219871922,149.479034770655
0.55,0.972521954261246,-0.00214470321987015,0.0887550806940582,0.108572540376207,-0.539887604644261,0.808903532952785,0.041330012101399,0.134004816974802,0.586326539510107,31.8166586233183,149.479034770655
0.56,0.939057422382246,-0.0274136518685764,-0.029647749904188,1.3732203286762,-0.718374423519315,0.605407745633678,0.937302167689128,1.00403072991279,0.841343776645767,37.7286814358972,149.479034770655
0.57,0.881909462959963,0.00705457278043461,1.05981486449791,-0.351087363266179,-0.798140130117652,0.375215139021899,-1.10951400065593,0.124292260436449,1.13934285700725,43.5226645157037,149.479034770655
0.58,0.848099042413959,0.00104224952471427,1.01355556067685,-0.0499424566796431,-0.844444543359888,0.0786542129657189,-1.01387272920109,0.0430257195232298,1.47915007986009,49.1838506153101,149.479034770655
0.59,0.817249449591057,-0.00538391134614707,0.78733080102085,0.271838304636531,-0.781672055491263,-0.2385674894497,-0.8321747005175,0.0356527968384737,1.86043054019062,54.863752689426,149.479034770655
0.6,0.81706883982041,0.00405473853595534,-0.988806907956784,-0.20141957401744,-0.620933198971613,-0.53109311078656,0.879916633811364,0.494019901990295,2.28333009973804,60.4926094773301,149.479034770655
0.61,0.785013223768981,0.0102305033413993,-1.09851496529427,-0.511295307405548,-0.311445926091813,-0.720660710606316,0.894554829304653,0.817269648107728,2.74669854519483,65.858439315575,149.479034770655
0.62,0.656320572880227,-0.0648430880416381,3.78537434696341,3.24486440813015,0.133974494633492,-0.645764783214682,-2.82579958811257,-4.10768312575609,-3.03550658342288,70.7299458759557,149.479034770655
0.63,0.708110962513614,0.0134732449448332,-0.216074717101666,-0.67319222811742,0.412786541498878,-0.575508414116332,0.410213269018988,0.57584818597354,-2.50035475816942,75.2233784537635,149.479034770655
0.64,0.675304224692109,-0.0037004139213942,0.086843318832085,0.186743655631821,0.632759059658893,-0.235935290640874,0.0150027295581858,-0.205401735752917,-1.93317567142107,79.4799527907604,149.479034770655
0.65,0.656028358415731,-0.00666108669002502,-0.201058820596971,0.335613908770453,0.636461036794148,0.159169487542207,-0.117422492565591,-0.373193385980661,-1.33589078199904,83.4537266720815,149.479034770655
0.66,0.64726617235193,-0.060074553585936,-1.00613262551386,3.00893993744728,0.376207834927445,0.53012273559891,1.62677345114769,-2.72389987810303,-0.709728595393873,87.3909428326735,149.479034770655
0.67,0.605713759524017,0.0589075482186794,-0.193947540324925,-2.94425979183945,0.0918830917547352,0.601595175482189,-2.95045692885528,-0.0329436065182177,-0.0546129431730622,91.3571439452633,149.479034770655
0.68,0.551441289025041,0.0785356367608088,1.21383695965851,-3.92944885693064,-0.261323061756493,0.491899988694081,-3.89049074876711,-1.33343549436186,0.629803347924805,95.3550155805495,149.479034770655
0.69,0.566485460320019,0.0113886248750794,-0.750244256929982,-0.569946247555212,-0.549207747977871,0.13930659385544,0.601778884741073,-0.72496023617746,1.34248654195664,99.0313693580134,149.479034770655
0.7,0.539769748473462,-0.0152001486733688,-0.496046945143444,0.761103286865408,-0.463670550435161,-0.276752681190178,0.0614011459189222,0.90640536425118,2.08076079506866,102.361757064264,149.479034770655
0.71,0.488608733440299,0.018335511231222,1.04613515172909,-0.915760406955791,-0.161454010937646,-0.461527125658276,0.566960920362697,-1.26947674000454,2.84258155514117,105.46975024359,149.479034770655
0.72,0.447387952343816,-0.00894822446479437,2.13690813946394,0.45050965950623,0.216535412455493,-0.391597326058535,0.597921212492925,-2.10043461537527,-2.65648249497385,108.460964291906,149.479034770655
0.73,0.522138101053834,0.044143553025632,-2.58913284042907,-2.20502159484689,0.489683703077479,-0.186511985636735,-1.88013534631501,2.83387017674881,-1.85037105943924,111.484523897158,149.479034770655
0.74,0.383791863526186,-0.00737698947674992,3.28402273125157,0.368425509533205,0.323503409799587,0.206630487418201,2.99341495651736,1.40000341197798,-1.0216054382276,114.568212869186,149.479034770655
0.75,0.420674822301158,0.0342225618566201,0.483384381932361,-1.71270172454199,0.105390521419309,0.408694663352859,-1.60531201732371,0.768102196964264,-0.17120005327289,117.386122574395,149.479034770655
0.76,0.381765411424658,0.0303241446468418,1.56965590383766,-1.51642183528077,-0.222351720430559,0.311807786192666,-2.17073822704308,0.226385486775554,0.698732220046731,119.945492073454,149.479034770655
0.77,0.362387447436229,-0.0353069026553803,1.73253102353154,1.76912437614843,-0.361778052934366,-0.0410838149333929,-1.76053453502383,1.74125901484249,1.58675066247148,122.324338790179,149.479034770655
0.78,0.360280468092491,-0.0358084125891656,1.02876834375597,1.79524008453713,-0.189337032259321,-0.308602894212503,-2.05192533711403,0.266183540349071,2.49221918479238,124.731248027426,149.479034770655
0.79,0.386076997591907,0.0469277958793116,-1.10235213896489,-2.34872461119681,0.0592655675836648,-0.384376454266722,1.96293341359363,1.6966378374066,-2.8676541098191,127.185152357866,149.479034770655
0.8,0.402905025859364,-0.00395332776075485,-2.75353163109244,0.197524727578396,0.379012189773213,-0.13674007703096,-2.64967896649808,0.774695963542576,-1.92685412761144,129.476669136861,149.479034770655
0.81,0.324775139520646,0.0422049358997077,0.448848284557216,-2.11063680475538,0.291806413133945,0.148691509908451,-0.822281723892968,1.99502011786587,-0.970306650325388,131.490867848162,149.479034770655
0.82,0.339562996027814,0.0363348624248462,-0.968143477042015,-1.81489687084488,0.0361415135336445,0.339583629608842,-1.81434532763755,-0.969176700102383,0.000569387754217972,133.415046044322,149.479034770655
0.83,0.298747095400259,-0.00349371598910754,0.383676463213841,0.178628104749799,-0.250994274223796,0.162061430847608,-0.221228430791237,0.360795800475052,0.985771535434102,135.371394917876,149.479034770655
0.84,0.248070585396241,-0.0137940820635524,2.21732182866485,0.688848236212748,-0.22151153324978,-0.112525253504008,-2.30698359689905,-0.262401730264481,1.98526581710272,137.314182525476,149.479034770655
0.85,0.341370237633638,-0.0112546505346939,-3.08869607780138,0.563293059903174,-0.0375518584096137,-0.339485145817441,-0.116976589595856,3.13746059893144,2.99846925994019,139.091108635906,149.479034770655
0.86,0.226114578674955,-0.00730908412479886,2.0913861959353,0.36752407146647,0.179250615492271,-0.138023339496398,1.38146160569791,-1.61261712617676,-2.25928976567581,140.681413887698,149.479034770655
0.87,0.231340632630743,0.0273656525496308,1.27700546528319,-1.36569937305172,0.226788030726799,0.0532405518803095,0.73416475350851,1.71955803932952,-1.22246824544571,142.195320766136,149.479034770655
0.88,0.189707925626128,0.0112766145614208,2.80938362412391,-0.565762253118352,0.0440804579914655,0.184859872077739,-0.0688155466871087,2.86495858523004,-0.174709947280157,143.698631102017,149.479034770655
0.89,0.17940427171425,0.024349330902811,2.77650243959669,-1.21960141541064,-0.123310894579287,0.132563969097153,-2.92044458504865,0.816943593657483,0.884150380401073,145.158344535424,149.479034770655
0.9,0.242297695556377,-0.00868293119172379,-0.859388275842208,0.435728357286338,-0.22156812222438,-0.0984435563151449,0.634807265955513,0.724863535493806,1.95308272672561,146.462114322528,149.479034770655
0.91,0.230198777465215,-0.0533394077070694,-0.738008955848175,2.67232311335156,0.0276997606573786,-0.234668474279236,-2.57495121800985,1.02742117261359,3.03139476253368,147.727982857157,149.479034770655
0.92,0.160048761007178,-0.0791359445933463,2.28389747100995,3.96081786844266,0.176938369694249,-0.0238938685975119,-0.32148651425493,-4.56080171309963,-2.16422188533897,148.999582687283,149.479034770655
0.93,0.160076225957091,0.013957485423913,1.7806714833689,-0.699951113576438,0.146937632094703,0.0650272388344001,1.22179860069015,1.47238944319487,-1.06718234244433,150.28545352003,149.479034770655
0.94,0.204252996583565,0.0772171165163079,-0.861273292242115,-3.86278680155996,0.06929214911388,0.207075753693277,-3.82674451817139,-1.00942555489773,0.0385287292112779,151.37899663408,149.479034770655
0.95,0.150824740524875,0.021726988374252,1.39675917224416,-1.0842255428661,-0.128950792340282,0.0811902551604831,-1.71698321822406,-0.422433238972083,1.15195053663369,152.403207734421,149.479034770655
0.96,0.131930059309121,0.0278350987777239,1.93878099203121,-1.39080963362033,-0.118710531851847,-0.0639385869465803,-0.582273673477117,-2.31391022756029,2.27278638308803,153.414361575272,149.479034770655
0.97,0.096589242967391,0.0777710739723429,3.29367754551167,-3.89341107586102,-0.0503779103326311,-0.113313229388023,4.60829330711502,-2.18416903536424,-2.88205098009527,154.412781634248,149.479034770655
