t,iq,id,vq,vd,ia,ib,va,vb,theta_e,omega,r
0,0,0,0,0,0,0,0,0,0,0,0
0.01,0.00117104068108482,0.000665993039213753,-0.057821322095898,-0.0333491303962083,-0.000465161214098405,0.00126432118147853,0.0226678053754414,-0.0627824847115977,0.869644787820736,-0.00182489807247525,0
0.02,0.00129444737118643,0.000736769641802942,-0.0640395963880263,-0.0368932465718379,-0.000513779622568573,0.00139801788303555,0.0251319519188871,-0.0695022772353431,0.869631355664566,-0.00192123020844909,0
0.03,0.00133775942562056,0.000761628640800554,-0.0661996035083576,-0.0381380423369619,-0.000530817697544539,0.00144496056669304,0.0259783947870006,-0.0718472044149972,0.86961783435573,-0.00188622929811095,0
0.04,0.00131153992004173,0.000747434482483853,-0.0649442692617833,-0.0374272550219622,-0.0005199232276252,0.00141720679678188,0.0254768864898614,-0.0704945798143994,0.869605471002366,-0.00174686797029913,0
0.05,0.00133641670923277,0.000761847236123216,-0.0661959473913765,-0.0381489650293249,-0.000529615377893651,0.00144427434492332,0.0259667959039238,-0.0718538272768717,0.869593355714985,-0.00169278414723429,0
0.06,0.00133616722408157,0.00076215143100726,-0.0662129492865981,-0.038164216064352,-0.000529211887002012,0.00144435190765687,0.0259691203887688,-0.0718767474728078,0.869581848703894,-0.00160247202749615,0
0.07,0.00137307609429573,0.000783594711620146,-0.068051615511599,-0.0392379796708168,-0.000543562442310949,0.00148455330120358,0.0266804416444285,-0.0738836616312712,0.869571098604141,-0.00157867927821178,0
0.08,0.00133550632168469,0.000762608902463402,-0.0662341299658324,-0.0381871258339366,-0.000528381289466506,0.00144428622035866,0.0259690053395698,-0.071908464824811,0.869560735749265,-0.00143643563782061,0
0.09,0.00133397007839922,0.000762155214093382,-0.0661833054425895,-0.0381643891220768,-0.000527486280409056,0.00144295355587571,0.0259441471630302,-0.0718585537312812,0.869551066874596,-0.00135838564777145,0
0.1,0.00133329030098804,0.000762141773720656,-0.0661731182180246,-0.0381637165082527,-0.000526962418930232,0.00144250952128367,0.0259361423647053,-0.071851703888333,0.869541946580017,-0.00128601883539084,0
0.11,0.0013326661556751,0.00076213797755343,-0.0661643504292253,-0.0381635501215492,-0.00052647559072264,0.00144210846737835,0.0259289325861923,-0.0718461431152851,0.869533341469722,-0.00121776834840143,0
0.12,0.00133207799742272,0.00076213458553677,-0.0661561126072542,-0.0381633607824456,-0.000526016704348496,0.00144173067680319,0.0259221775373889,-0.0718408940175085,0.86952522239053,-0.00115337341023397,0
0.13,0.0013957700251367,0.0007986271258064,-0.0693024249164182,-0.0399907086606779,-0.00055112206777889,0.0015107096728197,0.0271464386773994,-0.0752672156095414,0.86951715138488,-0.00119419698564534,0
0.14,0.00147734052208129,0.000846178579829001,-0.0734627000024327,-0.0423718172149563,-0.000582751288010243,0.00159967313644608,0.0287880785922067,-0.0797708324935501,0.869509599202095,-0.00126823429381597,0
0.15,0.00133374665370745,0.000763926355514317,-0.0662960102063816,-0.0382530861404382,-0.000526102589192438,0.0014441882420828,0.0259695286316926,-0.0720002996604885,0.869502389044747,-0.000977694813989944,0
0.16,0.00133003658721916,0.000762160994636055,-0.0661301349226414,-0.038164695231746,-0.000524397900699129,0.00144044907817963,0.0258993707137947,-0.0718259096959324,0.869496008400999,-0.000921790941261126,0
0.17,0.00132952732716301,0.000762120707855647,-0.0661204052343145,-0.0381626752444975,-0.000524026161642595,0.00144009286816154,0.025892808838529,-0.0718182443437484,0.869489997731472,-0.000873998220612168,0
0.18,0.00132911481009894,0.000762117529663541,-0.0661145593075346,-0.0381625089100334,-0.000523704884043006,0.00143982724723291,0.0258880426156209,-0.0718144921883438,0.869484326771429,-0.000829017351181344,0
0.19,0.00132872732236687,0.000762115277200178,-0.0661091270121234,-0.03816238332765,-0.000523402595506213,0.00143957831185507,0.0258835891549316,-0.0718110297099984,0.869478976120933,-0.000786579623072767,0
0.2,0.00132836135674777,0.00076211316768919,-0.0661039817821488,-0.0381622894261969,-0.000523117095066375,0.00143934321109155,0.025879356306802,-0.0718077687917475,0.869473927683677,-0.000746538901284604,0
0.21,0.00132801611304984,0.000762111177429446,-0.0660991281652942,-0.0381621926058184,-0.000522847761690129,0.00143912141995682,0.0258753686387359,-0.0718046863826108,0.869469164390061,-0.000708759742613526,0
0.22,0.00132769042712662,0.000762109299376592,-0.0660945499854305,-0.038162098686045,-0.000522593686977625,0.00143891219079243,0.0258716088757805,-0.0718017769144932,0.86946467013473,-0.000673114409227241,0
0.23,0.0013273833676522,0.000762107527209189,-0.0660902404066817,-0.0381620047553013,-0.000522354141290106,0.00143871492618436,0.0258680725783105,-0.0717990341511631,0.869460429722021,-0.000639482379373019,0
0.24,0.00132709317368328,0.000762105854967121,-0.0660861487678473,-0.0381619424545489,-0.000522127762221901,0.00143852849319333,0.0258646995925255,-0.0717964499530357,0.869456428814541,-0.000607749938575074,0
0.25,0.00132681987464396,0.000762104277025159,-0.0660823118766353,-0.0381618455844442,-0.000521914556158664,0.00143835291388447,0.0258615597783557,-0.0717939978494191,0.869452653884443,-0.000577809795123833,0
0.26,0.00133971257050504,0.000769526666198769,-0.0667239937603409,-0.0385335282931405,-0.000526969884932731,0.00145234424360556,0.0261117072726582,-0.0724920884604332,0.869449127279324,-0.000571284395166257,0
0.27,0.00129142812350167,0.000742097365797762,-0.0643632202318848,-0.0371600047801212,-0.000507775618825084,0.00140023534429817,0.0251941560170235,-0.0699195578966759,0.869445620320531,-0.000465130360006318,0
0.28,0.0012814022799264,0.000736194483887559,-0.0637516597445753,-0.0368644256692522,-0.000503920553675731,0.00138925814616658,0.0249174421493357,-0.069299214114205,0.869442421788061,-0.00042378743907131,0
0.29,0.00132485778871298,0.000761543619638571,-0.0660191928958995,-0.0381337635797955,-0.000520758533777338,0.0014366653731554,0.0258305196239683,-0.0717321546542519,0.869439569858758,-0.000472382185077605,0
0.3,0.00131989390558068,0.000758921195284697,-0.0657812793178851,-0.0380024628284153,-0.000518655209985229,0.00143146012022569,0.0257333235188359,-0.0714783879952369,0.869437326960428,-0.000446761986743676,0
0.31,0.00132538324850211,0.000762028668463691,-0.066057468410455,-0.038158057795836,-0.000520839913440544,0.00143737755358076,0.0258437316494701,-0.0717755393012048,0.869434648097462,-0.000434784959376221,0
0.32,0.00132532798530875,0.000762094225356402,-0.0660612013441858,-0.0381613329112461,-0.000520751735986823,0.00143739330262487,0.0258442875478575,-0.0717805158364278,0.869432103766274,-0.000414815496483115,0
0.33,0.0013251567531781,0.000762094648910772,-0.0660588779413041,-0.0381613718513082,-0.000520617196812927,0.00143728438688194,0.0258423150865754,-0.0717791084327752,0.869429702762342,-0.000395777159687736,0
0.34,0.00132499286982114,0.000762093731955747,-0.0660565705838762,-0.0381613093384238,-0.000520489332200138,0.00143717911772644,0.0258404300875402,-0.0717776303636198,0.86942743736209,-0.000377809670854222,0
0.35,0.0013248378193203,0.000762092838528527,-0.0660543708446256,-0.0381612783940908,-0.000520368384696538,0.00143707949893044,0.0258386161250083,-0.0717762425395415,0.869425299914993,-0.000360856912249899,0
0.36,0.0013246916163836,0.000762091994915996,-0.0660522982880928,-0.0381612474247538,-0.000520254338116838,0.00143698556391588,0.0258369080119057,-0.0717749336365892,0.869423283194385,-0.000344861669434003,0
0.37,0.00132455404288694,0.000762091198900613,-0.0660503598356555,-0.0381611848523763,-0.000520147017387762,0.00143689717386893,0.0258353309217796,-0.0717736841740686,0.869421380381237,-0.000329769862682013,0
0.38,0.00132442378884842,0.000762090447810871,-0.0660485067120886,-0.0381611538407299,-0.000520045414160605,0.00143681348487641,0.0258338063723532,-0.0717725111004793,0.869419585042057,-0.000315530464578522,0
0.39,0.00132430110180549,0.000762089739113843,-0.0660467671976833,-0.0381611228067897,-0.000519949710402931,0.00143673465795106,0.0258323759115988,-0.0717714086938644,0.869417891106593,-0.000302095329762958,0
0.4,0.00132418516684652,0.000762089070417932,-0.0660451154943544,-0.0381610888430017,-0.000519859276826479,0.00143666016846165,0.0258310212953814,-0.0717703582350237,0.869416292847098,-0.000289419032199258,0
0.41,0.00132407586756496,0.000762088439467242,-0.0660435598640689,-0.0381610577696549,-0.000519774018152624,0.00143658994242999,0.0258297446913791,-0.071769369641902,0.869414784859856,-0.000277458711582999,0
0.42,0.00132397285471046,0.000762087844132125,-0.06604209619807,-0.0381610266775608,-0.000519693661582952,0.00143652375556223,0.0258285444714618,-0.071768438173102,0.869413362046368,-0.000266173928428144,0
0.43,0.00132387566262175,0.000762087282403496,-0.0660407137357096,-0.0381609955680309,-0.000519617845726479,0.00143646130838456,0.0258274120684012,-0.07176755701091,0.869412019595306,-0.000255526527331485,0
0.44,0.00132378394205285,0.000762086752384988,-0.0660394069000044,-0.0381609644419334,-0.000519546298451645,0.00143640237648191,0.0258263428949814,-0.0717667226750233,0.869410752968324,-0.000245480507966576,0
0.45,0.00132369746017312,0.000762086252288079,-0.0660381752058793,-0.0381609332995385,-0.000519478836863345,0.00143634681050447,0.0258253362727126,-0.0717659349637107,0.869409557882496,-0.000236001903360931,0
0.46,0.00132361538737148,0.00076208578042362,-0.0660369877260618,-0.0381609337000158,-0.000519414822444325,0.00143629407595922,0.0258243479199919,-0.071765198134585,0.869408430296925,-0.000227058665047542,0
0.47,0.00132353845154326,0.000762085335198996,-0.066035890816289,-0.0381608996159532,-0.0005193548067994,0.0014362446433297,0.0258234555823288,-0.0717644917573252,0.869407366399101,-0.000218620554709991,0
0.48,0.00132346582308617,0.000762084915110765,-0.0660348524228788,-0.03816086842883,-0.000519298151941203,0.00143619797803332,0.0258226103925388,-0.0717638237991051,0.869406362591987,-0.000210659041936784,0
0.49,0.00132339702163118,0.000762084518740267,-0.0660338573044505,-0.0381608687807947,-0.000519244486918335,0.00143615377079572,0.0258217819810043,-0.0717632063939108,0.8694054154816,-0.00020314720775791,0
0.5,0.00132333242583098,0.000762084144748947,-0.0660329328176877,-0.0381608375668282,-0.00051919409725073,0.00143611226661199,0.0258210317371636,-0.0717626090686194,0.869404521865552,-0.000196059653628203,0
0.51,3.17775513757316,0.041619291026853,6.42848438631085,-2.08147734797814,-0.148643048877799,3.17454959384453,-2.46248903592545,6.29238485815477,0.0598855009281134,18.2611642846435,443.303123555874
0.52,3.04687297716029,0.0429437790623594,6.77611978916613,-2.14479480829294,-0.760160567697399,2.95083632525217,-3.85194493335668,5.97314526838223,0.266220145710341,37.9472183885647,443.303123555874
0.53,2.94030577018503,-0.0421713662482691,6.03960628641734,2.12084743874864,-1.73088061191116,2.37723132101709,-1.75235481565807,6.15662980480542,0.615000709862106,57.147923250966,443.303123555874
0.54,2.75551482386132,0.0127219209569892,9.24373430328335,-0.624868018313493,-2.45422044845298,1.25292688620988,-8.53378306531575,3.60716377561907,1.10338560319822,76.1802342322437,443.303123555874
0.55,2.66205489969919,-0.0404407173389154,7.60699378541255,2.03477721678492,-2.62050026425458,-0.470265994595644,-7.83588018969509,0.778238026567871,1.73317246883261,95.7489768786007,443.303123555874
0.56,2.63682171957968,0.00306548410771024,2.8939124723944,-0.143398172048887,-1.57289054471943,-2.11633019927708,-1.60835356673365,-2.41008116834309,2.50361000475485,113.999309038907,443.303123555874
0.57,2.43834705768158,0.024352511295737,7.65327482256315,-1.20464292322499,0.597589098572781,-2.36411012598352,3.11447751676096,-7.09392767652346,-2.88401650298698,130.101979660045,443.303123555874
0.58,2.36257304233455,0.0964308010417465,6.46731786529476,-4.80821066863896,2.22665345145154,-0.795653622435314,7.60579816637282,2.66400534105586,-1.87319427666301,145.770478394595,443.303123555874
0.59,2.32186851748485,0.000562897505809179,3.2169912831114,-0.0172126394068232,1.57409584335695,1.70683801377497,2.16770904389601,2.37704999770335,-0.744719129571519,162.00559176945,443.303123555874
0.6,2.15081623515112,0.0449981571927406,7.11538185487522,-2.23512999576666,-0.984773345229293,1.91265699226659,-5.35411178583547,5.19210477777954,0.496392603984296,176.331378111377,443.303123555874
0.61,2.02364835052175,-0.00274223259517348,8.96657438589352,0.161308631442548,-1.9500658015194,-0.540743503107996,-8.68666161514888,-2.22876348593535,1.83993983708737,190.445299218234,443.303123555874
0.62,1.96644362446173,0.0954930316136124,7.24142640208758,-4.7671874387907,0.193339376541765,-1.95924458216716,5.77569143707458,-6.46573436178121,-2.99470736742684,204.315081584494,443.303123555874
0.63,1.79617941438307,-0.0463855050388395,11.7322834400544,2.34817864937563,1.77785046274826,0.260115043465418,11.9285149775902,-0.933246010741258,-1.45133716361314,216.825887365802,443.303123555874
0.64,1.85065119407912,0.0592089081182591,4.77138543409799,-2.95085470577341,-0.284720024684297,1.82957646587695,-3.78383945752496,4.14200693082288,0.186365053861458,229.666236701698,443.303123555874
0.65,1.77405520066359,0.0795351796419071,4.89991192433995,-3.95495986232697,-1.69856120120574,-0.518157838463066,-3.29570147021762,-5.36555646677133,1.91168842534991,241.156384888482,443.303123555874
0.66,1.63303713899592,0.0495211972770403,8.10412078971823,-2.46469121164228,0.855842108933988,-1.39168851791453,6.51191454508717,-5.41723596500762,-2.55992553431327,252.741367635468,443.303123555874
0.67,1.57382061999318,-0.0650366943222475,7.56637315196617,3.27727582759575,0.924175531728642,1.27555505646686,7.26077629769979,3.90789803854947,-0.668299417424147,263.551864670245,443.303123555874
0.68,1.56955078980219,0.0252425964457864,4.32526995173044,-1.2418377401517,-1.50683780126076,0.439962170118781,-4.49971108294738,-0.0521660637562027,1.30279742452721,273.894241480964,443.303123555874
0.69,1.47968382665019,0.0875155826034228,5.46792944502419,-4.37410809509033,0.216898052277836,-1.46631457708319,5.39976483927182,-4.45798314530922,-2.93566105494598,284.082423069068,443.303123555874
0.7,1.34953955754413,-0.0252552020490683,8.94980826012152,1.2924321757788,0.968902050329124,0.939746593223389,7.42216007757834,5.16536432449155,-0.819384175955379,293.252370561125,443.303123555874
0.71,1.39985391327088,0.0296551944859387,3.33063892588446,-1.46680281676713,-1.36436701207954,0.314599849664523,-3.55982525726453,-0.756511926961036,1.36535561706547,302.498937848391,443.303123555874
0.72,1.22517498195794,-0.0357083465614105,9.14502254417958,1.79309030037884,0.590082194855725,-1.07430527586159,2.57117012130652,-8.95743793537896,-2.66844838197881,311.333146372009,443.303123555874
0.73,1.22898140730988,0.0631678623007562,6.25313007141238,-3.1348230400719,0.487895295406208,1.1297538046236,-0.756696517152413,6.95385947251574,-0.356313254779837,319.440223928419,443.303123555874
0.74,1.20750745073727,0.0590875655197447,4.60195281923634,-2.93803076247606,-1.11531473367439,-0.466517554689952,-2.8887844089488,-4.63302483808875,2.01585866159604,327.504199063391,443.303123555874
0.75,1.1020852373032,-0.00339729584032317,7.26549960203986,0.177321885414556,1.06383549156129,-0.287849715642069,6.96058049450701,-2.09027431161004,-1.8381287379041,335.243790874615,443.303123555874
0.76,0.997828180147001,0.000698825692322991,10.0423392761629,-0.0339254550743051,-0.599836638481594,0.797406779873313,-6.06958850923435,8.0006140016024,0.645629800502648,342.539426117273,443.303123555874
0.77,0.959005447142796,0.0110321022167401,9.68346248671084,-0.526425287700998,0.0274718802826488,-0.958675362530304,0.914701377882627,-9.65452695394066,-3.10144122759828,349.318020909659,443.303123555874
0.78,0.918672220219734,0.0707328246297743,9.40005877382919,-3.52304517149505,0.514272915920974,0.764516284086677,1.56684395339309,9.91554094628998,-0.515309405451633,356.020674059804,443.303123555874
0.79,0.92448132523201,-0.0389125197325066,6.92533136302098,1.9574024218369,-0.7691396779882,-0.514396792990464,-6.93215736347359,-1.9330889831288,2.11820460480279,362.418390726697,443.303123555874
0.8,0.832443025405412,0.0301038448810342,9.46254303524238,-1.50805035685832,0.832018129655595,0.0401679467628417,9.3017602196217,2.30025941782615,-1.48640855445968,368.477803694285,443.303123555874
0.81,0.887314224897669,-0.025824789304349,4.75990799268916,1.292761242734,-0.846406371785892,0.267562529604963,-4.06952846982266,2.78691473907691,1.23552440558809,374.206246149346,443.303123555874
0.82,0.727682352249731,-0.00179903694266056,10.8643856920491,0.114452063057113,0.55129933995859,-0.474967241050208,8.13846581005956,-7.19814906756111,-2.28442504077285,379.629616559539,443.303123555874
0.83,0.743775802675763,0.0894075486841212,8.21492916807639,-4.45512555479212,-0.290954616558237,0.69031990085114,-7.9407817005076,4.927188948108,0.518517294029068,384.93619183387,443.303123555874
0.84,0.773758005257337,-0.0448475127594438,4.95305928270895,2.26209459975103,0.210811672727091,-0.745835899338807,-1.13961061060111,-5.32458034895309,-2.92402273595112,389.965010737118,443.303123555874
0.85,0.700543407508638,0.0872547500922005,6.91544317048008,-4.36182606076214,0.120412314257812,0.695611480492195,-4.028621131611,7.1147095939624,-0.0474894765122753,394.810734899991,443.303123555874
0.86,0.5989700698652,0.0706252243306281,10.379987976634,-3.53746534195368,-0.232357700559356,-0.556563532668861,0.551721148058851,-10.9523246489215,2.86347245451783,399.418576268368,443.303123555874
0.87,0.510536119870404,0.00244856255845163,13.2524355473557,-0.129400415204221,0.236057121956502,0.452692125317575,5.95602113191175,11.839324502711,-0.475865375037489,403.801385874627,443.303123555874
0.88,0.627905208930917,-0.0668780973850432,5.91766783915179,3.34279325920744,-0.322614306154171,-0.542823765855074,-6.22168183174604,-2.73564153588429,2.4992457985058,407.959925137503,443.303123555874
0.89,0.561266209851998,0.0376457842300717,7.86966523798436,-1.88801578851792,0.421224623110977,0.37283613059485,4.18742969580361,6.92543624029089,-0.779288278912806,411.832365391404,443.303123555874
0.9,0.485276457438004,0.0219183771187156,10.3281920026473,-1.07648155902266,-0.390349469053862,-0.289138284231723,-7.3344409664619,-7.35094132067104,2.25346556666681,415.550992296886,443.303123555874
0.91,0.515612398725865,-0.0102463452788982,7.52561166686325,0.5356551874026,0.419570749380829,0.299869170765227,6.51110523900402,3.81146507354246,-0.970139054566844,419.101605166895,443.303123555874
0.92,0.541900422783332,0.0180286495259389,4.95905625845028,-0.880460283233864,-0.472931762704665,-0.265172864828853,-3.78657615675523,-3.32103753274785,2.11507445417839,422.547714946572,443.303123555874
0.93,0.531846091371868,0.0190224895341731,4.26105410890507,-0.932091129699364,0.472840329387581,0.244221503803934,3.25650942962014,2.90181362735034,-1.05828523032641,425.833868332941,443.303123555874
0.94,0.483862949459657,0.0479681929293681,5.5292734064128,-2.38478421676123,-0.446884877106268,-0.191619957223728,-3.69058718351227,-4.75811164268686,2.07468615727101,428.894932301698,443.303123555874
0.95,0.463303369053054,0.0269528738110107,5.45930312061658,-1.3351003442019,0.416011907322557,0.205695313870859,4.0847241286246,3.86024769734974,-1.05349205712172,431.870465417494,443.303123555874
0.96,0.458218309735762,-0.040925389840518,4.64298759194231,2.06154784207608,-0.368678282991074,-0.275164006660484,-5.03439912739423,-0.67980784799161,2.12288121284191,434.727159594284,443.303123555874
0.97,0.337523082952219,0.00242497797302457,9.65705878641076,-0.113864161750807,0.278562311227034,0.190606271690082,7.86553538820713,5.60402556278839,-0.963534697156785,437.442476547612,443.303123555874
