t,iq,id,vq,vd,ia,ib,va,vb,theta_e,omega,r
0,0,0,0,0,0,0,0,0,0,0,0
0.01,0.000836651279813704,0.00047170850747871,-0.0412627271468319,-0.023618319882624,0.000958651612461348,5.90031013333849e-05,-0.0474722168307796,-0.00261272173093476,-0.995945311567191,-0.00171349984237712,0
0.02,0.000923994923910071,0.000521769589302245,-0.0456770865292515,-0.0261248812618286,0.00105917630317763,6.44645834483781e-05,-0.0525399489435131,-0.00290850816715608,-0.995957754547332,-0.00175066625265055,0
0.03,0.000955658334712821,0.000540226925141635,-0.0472673770435274,-0.0270490267434645,0.00109578681793514,6.61757734647446e-05,-0.0543771417676905,-0.0029968706211856,-0.995969901448617,-0.00166905066065779,0
0.04,0.000934838634528926,0.000529630050347892,-0.0462815354441736,-0.0265184542796948,0.00107255239777837,6.37386606329598e-05,-0.0532613026779263,-0.00290561138228832,-0.995980608887085,-0.00148992460354679,0
0.05,0.000952964283190215,0.000540430393206415,-0.0472021518808731,-0.0270592081371824,0.00109363770641213,6.45174553984088e-05,-0.0543279962826882,-0.00295172951074261,-0.995990770828863,-0.00140325031686862,0
0.06,0.000952147787430616,0.000540715843166849,-0.0471919957106021,-0.0270735133083886,0.00109310820996488,6.38237688328335e-05,-0.0543272769307504,-0.00293369447941258,-0.996000105145976,-0.00128521975796312,0
0.07,0.000977569692551784,0.000555794896913263,-0.0484643997715322,-0.0278285136514948,0.00112264337470705,6.49794156404471e-05,-0.0558057010611219,-0.00299131180972808,-0.996008500796546,-0.0012365885393129,0
0.08,0.000950522305051667,0.000541121011406408,-0.0471642735239053,-0.0270937865547185,0.00109196523038932,6.25822419463738e-05,-0.0543150786070536,-0.00290072453362719,-0.996016362123335,-0.00107920515062995,0
0.09,0.000948712803216674,0.000540727168431357,-0.0470981547803381,-0.0270740669506762,0.00109023281776059,6.19213755081955e-05,-0.0542488841066009,-0.00288094743981299,-0.996023413510149,-0.00098741812900476,0
0.1,0.000947733560515818,0.000540714695881429,-0.0470706881277762,-0.0270734542722877,0.00108940453729962,6.13924928727151e-05,-0.0542255162279504,-0.00286618158327686,-0.996029831165533,-0.000905349088018868,0
0.11,0.00094686159483375,0.000540712577733158,-0.0470466404470154,-0.0270733508894218,0.00108867188417182,6.09138744764373e-05,-0.0542052930153285,-0.00285287834561469,-0.996035674803912,-0.000830663635155068,0
0.12,0.000946068267705369,0.000540710894945481,-0.04702477313951,-0.0270732591735609,0.00108800543390965,6.04782180199129e-05,-0.0541869045501728,-0.00284077918389299,-0.996040995848381,-0.000762658530044468,0
0.13,0.000991375857426914,0.000566628116489498,-0.049261413730747,-0.0283709210054466,0.00114012293791994,6.3349818580469e-05,-0.0567696363646908,-0.00296722571940491,-0.996046222319783,-0.000797229725749445,0
0.14,0.00104449331086304,0.000597916349540283,-0.051981104998014,-0.0299375231744074,0.00120171529187318,6.59590385267584e-05,-0.0599040088384742,-0.00313054239912937,-0.996050935082342,-0.000855376203535453,0
0.15,0.000946861953576718,0.000542233466536537,-0.0471093764652019,-0.0271494983491727,0.00108950016244804,5.96161671784672e-05,-0.0542994005099131,-0.00282200563711417,-0.996055304196635,-0.000586230309818708,0
0.16,0.000943487205914599,0.000540746021045436,-0.0469554448421264,-0.0270750117324852,0.00108585923485365,5.90261728731044e-05,-0.0541297183974976,-0.00280065114639272,-0.996058881894898,-0.000534256160215383,0
0.17,0.000942919846719003,0.000540705322745475,-0.0469380069855397,-0.0270729803557212,0.0010853610969091,5.87483846428256e-05,-0.0541139869727685,-0.0027927010271212,-0.996062127902647,-0.000492587773121687,0
0.18,0.000942476762491475,0.000540703331428974,-0.0469257281652904,-0.0270728811491148,0.00108498829040947,5.8505983703628e-05,-0.0541036352106619,-0.00278594948777742,-0.996065083278957,-0.000454811520491181,0
0.19,0.000942075413200629,0.000540702454081319,-0.0469146481060341,-0.0270728342756119,0.00108465110244563,5.82856240438885e-05,-0.0540943172911236,-0.00277982003644099,-0.996067774348479,-0.000420418420761841,0
0.2,0.000941710210868894,0.000540701680031135,-0.0469045690239984,-0.0270727902682913,0.00108434429511559,5.80850901135771e-05,-0.0540858403909873,-0.00277424538182193,-0.996070224757692,-0.000389101207056459,0
0.21,0.000941377346626228,0.000540700975746725,-0.0468953726067652,-0.0270727686642075,0.00108406465478001,5.79023157671182e-05,-0.0540781158936298,-0.00276914363444474,-0.996072456029093,-0.000360584667550937,0
0.22,0.000941074542905693,0.000540700334361212,-0.0468870106669648,-0.0270727245697013,0.00108381026741387,5.77360470743344e-05,-0.0540710790096567,-0.00276452521103461,-0.996074487759834,-0.000334618336450555,0
0.23,0.000940798547544305,0.000540699750249666,-0.0468793803601968,-0.0270726999591035,0.0010835784015006,5.75845012388392e-05,-0.0540646662893217,-0.00276029800129177,-0.996076337794689,-0.000310974150815722,0
0.24,0.000940547348648973,0.000540699218304135,-0.046872435577652,-0.0270726782124615,0.00108336736668688,5.74465710312467e-05,-0.0540588300460358,-0.00275645000506893,-0.996078022382478,-0.000289444443283154,0
0.25,0.000940318617910525,0.000540698733871581,-0.046866109442881,-0.0270726564233601,0.00108317520717013,5.73209784584559e-05,-0.0540535126118935,-0.00275294650243421,-0.996079556318992,-0.000269840117993246,0
0.26,0.000949747849437597,0.000546076197732246,-0.0473324530301906,-0.0273419026120872,0.00109401285036161,5.79316363027474e-05,-0.0545913016073645,-0.00278038434714051,-0.996080918768807,-0.00027361378149676,0
0.27,0.000916068041174698,0.000527045593310581,-0.045686723388623,-0.0263890458958212,0.00105539892244443,5.55952155575376e-05,-0.052691998065887,-0.00268547521025033,-0.99608233543796,-0.000181894053062758,0
0.28,0.000910623790512458,0.00052373921800635,-0.0453288560564263,-0.0262234926319839,0.0010490320395426,5.54097133927732e-05,-0.0523016321150079,-0.00262983560518529,-0.996083512660662,-0.000155260023332006,0
0.29,0.000938738591382343,0.000540244521161844,-0.046804193766942,-0.0270499004178931,0.00108160238637439,5.68380452260571e-05,-0.0539891871802741,-0.00273812607538708,-0.996084435353334,-0.000205608411507188,0
0.3,0.000934581815073323,0.000538082892706303,-0.0466018528488858,-0.026941676888928,0.00107693837788644,5.63923640597464e-05,-0.0537605241205501,-0.00271894994811505,-0.996084850680698,-0.000191294011765818,0
0.31,0.000939249557544641,0.000540626995454937,-0.0468334226738723,-0.0270690718354526,0.00108223925049559,5.67933468742891e-05,-0.0540241454898432,-0.00273785198188721,-0.996085753526622,-0.000190318418935691,0
0.32,0.000939264836745907,0.000540694647445054,-0.0468368375021663,-0.0270724515338721,0.00108228889793663,5.67439576180114e-05,-0.0540288512057488,-0.00273682601661827,-0.996086595474344,-0.00017986747813299,0
0.33,0.00093915473331072,0.000540696217950672,-0.046833869760078,-0.0270725197201923,0.00108219737980619,5.66819578588691e-05,-0.0540263993950271,-0.0027351140950901,-0.996087362708874,-0.000170070978379906,0
0.34,0.000939050541600809,0.000540696045559558,-0.0468309717946361,-0.0270725229781139,0.00108210987228824,5.66247089249699e-05,-0.054023970666877,-0.00273349831075918,-0.996088061347181,-0.000161142361745335,0
0.35,0.000938955804896155,0.000540695845800969,-0.0468283373886317,-0.0270725009157634,0.00108203028235059,5.65726903276892e-05,-0.0540217492209289,-0.00273205042570583,-0.996088697507441,-0.000153011982695864,0
0.36,0.000938869308312154,0.000540695662756587,-0.0468259243665641,-0.027072501220078,0.00108195761457562,5.65251985946433e-05,-0.0540197255950418,-0.00273070718508816,-0.996089276776285,-0.000145608689037841,0
0.37,0.000938790611551689,0.000540695496044155,-0.0468237277658808,-0.0270724985937725,0.00108189149949458,5.64819891770948e-05,-0.0540178818868685,-0.00272948684910889,-0.996089804241748,-0.000138867465024291,0
0.38,0.000938719157911136,0.000540695344234303,-0.0468217352538016,-0.0270724764789204,0.00108183146933498,5.64427556252419e-05,-0.0540161987571907,-0.00272839636095216,-0.996090284536198,-0.000132729102566509,0
0.39,0.00093865384891568,0.000540695205995932,-0.0468199060751949,-0.0270724767298688,0.00108177660161498,5.64068973578525e-05,-0.0540146647614453,-0.00272737820773638,-0.996090721878447,-0.000127139688307883,0
0.4,0.000938594360686308,0.000540695080115973,-0.0468182368939291,-0.0270724769656196,0.00108172662405203,5.6374235167763e-05,-0.0540132649441091,-0.00272644915366999,-0.996091120109543,-0.000122050130306212,0
0.41,0.000938540227561732,0.000540694965490168,-0.0468167161562146,-0.0270724771873853,0.00108168114539644,5.63445130593394e-05,-0.0540119896178816,-0.00272560272800553,-0.996091482727124,-0.0001174157268698,0
0.42,0.000938491242078055,0.000540694861112497,-0.0468153441237961,-0.0270724550209651,0.00108163999115159,5.63176156478238e-05,-0.0540108268489953,-0.00272485768059188,-0.996091812915957,-0.000113195773937961,0
0.43,0.000938446422179214,0.000540694766067287,-0.0468140814399485,-0.027072455219423,0.00108160233669658,5.62930067240525e-05,-0.0540097679384955,-0.00272415489714885,-0.996092113576353,-0.000109353207577136,0
0.44,0.00093840556040131,0.000540694679519959,-0.0468129265994894,-0.0270724554074461,0.00108156800759502,5.62705713515102e-05,-0.0540087994673792,-0.00272351219746867,-0.996092387348916,-0.000105854278448575,0
0.45,0.000938368307498377,0.000540694600710825,-0.0468118701536209,-0.0270724555859562,0.00108153671043201,5.62501177164666e-05,-0.0540079135119142,-0.00272292431452459,-0.996092636638205,-0.00010266825538487,0
0.46,0.000938334430639773,0.000540694528948257,-0.0468109078128307,-0.0270724557555554,0.00108150824953044,5.62315174634502e-05,-0.0540071064780544,-0.00272238879771717,-0.996092863633723,-9.97671554799316e-05,0
0.47,0.000938303838776711,0.000540694463602103,-0.046810041715998,-0.0270724335460998,0.00108148254824022,5.62147194684831e-05,-0.054006368006482,-0.00272192547838779,-0.996093070329254,-9.71254983139423e-05,0
0.48,0.000938275666268869,0.000540694404099429,-0.0468092346450511,-0.0270724337013103,0.00108145887977559,5.61992516964971e-05,-0.0540056911851234,-0.00272147647139974,-0.996093258540014,-9.47200821571471e-05,0
0.49,0.000938250054898103,0.000540694349916825,-0.0468084992403386,-0.027072433849695,0.00108143736295168,5.6185189866911e-05,-0.0540050744674175,-0.00272106733609821,-0.996093429919359,-9.25297801904261e-05,0
0.5,0.000938226771833771,0.000540694300579574,-0.0468078288871102,-0.0270724339918763,0.00108141780216908,5.61724061852747e-05,-0.0540045123057212,-0.00272069439494773,-0.996093585972161,-9.05353549460355e-05,0
0.51,2.42661858193404,0.000229480164409955,3.57698430816772,-0.00933942371470536,-0.138986743131427,2.42263502824557,-0.214536717951528,3.57055709411907,0.0574018215124748,17.4686112440251,404.097733805611
0.52,2.31097581484942,-0.00524245214559205,5.37662145663301,0.267124369053369,-0.589138027957838,2.23462593830318,-1.100411161018,5.26958337946897,0.255506565826637,36.4704308507914,404.097733805611
0.53,2.21161391467176,-0.0766124919948133,6.41070347157497,3.84380991400246,-1.29588676228244,1.79381801776003,-0.380053322896822,7.46508895641586,0.590986675225953,55.0005030606813,404.097733805611
0.54,2.16884845798111,-0.00708218538534044,4.5348101397974,0.365639040230629,-1.89754395428301,1.05037171163397,-3.78220877211962,2.52845638994456,1.06197181750822,73.5520370192315,404.097733805611
0.55,2.0495152987031,0.0453002781285978,6.19880710999705,-2.26230081723112,-2.04375338805744,-0.160116094195136,-5.94117108299642,-2.87153282014357,1.67108008825395,92.6838831288819,404.097733805611
0.56,2.00331359099976,-0.0567842067974115,4.46594595517914,2.85032400882887,-1.28522340982435,-1.53775504449357,-5.09429137680291,-1.45506549616117,2.41707520042755,110.407314282782,404.097733805611
0.57,1.91492177257405,-0.004738056860632,5.40574645617171,0.250200565794974,0.278165743583174,-1.89461649506114,0.524376443629612,-5.38606762089964,-2.99828940501846,126.162371676696,404.097733805611
0.58,1.84762610833268,0.00835971430837618,5.3439798439542,-0.399679078110701,1.66309786624348,-0.804920870839027,4.99318419971328,-1.9457583318084,-2.01702865036316,141.696953533704,404.097733805611
0.59,1.70997242365794,-0.021174939240237,8.48299351860719,1.06699057304912,1.34594909223623,1.05492895913939,7.3886409795638,4.30204978990454,-0.918406297207746,157.785514144261,404.097733805611
0.6,1.66371800966148,0.024729373064958,7.59937890890457,-1.221400874863,-0.452951116894255,1.6010635350505,-3.34737288679393,6.93090720288308,0.290564592350769,171.852816588414,404.097733805611
0.61,1.61334344972841,0.0115272847368031,6.8500455288803,-0.56826109374964,-1.61292329399597,-0.038579952827235,-6.82909458761306,-0.780712195265706,1.60185588466222,186.161154557797,404.097733805611
0.62,1.61376905386025,0.00504551330193205,3.6610916789583,-0.237907262742294,-0.205254401637006,-1.60067068662174,-0.218225605214011,-3.66231753574594,3.0171849100034,199.561633772283,404.097733805611
0.63,1.42670854190417,0.00563524987708375,10.0678300286945,-0.260834514751023,1.40100475364286,-0.269656633246085,9.94209511033477,-1.60747657769113,-1.7569949365191,212.378428455585,404.097733805611
0.64,1.44328252609861,-0.0137304496277733,6.20966114846154,0.70211777352691,0.205678478401318,1.42861798214606,1.63728108227635,6.03093455479622,-0.152500784092543,224.929628942437,404.097733805611
0.65,1.33364220856949,0.036741421948809,8.89382973047555,-1.83063660357353,-1.33181450611751,0.0788770807009734,-8.94724891737708,-1.54860403574595,1.5391828706647,236.857315978038,404.097733805611
0.66,1.27985445235988,0.0144994785041431,8.82782555136214,-0.707196137385458,0.210375271769761,-1.26252916763539,2.24574264255898,-8.56663704877284,-2.96515110273163,248.128406983332,404.097733805611
0.67,1.22982200696909,0.0117646210711498,8.62258537538943,-0.585151033073309,1.10452748403523,0.540943261484267,7.44474312267138,4.38943961398532,-1.10581578872634,259.292323709785,404.097733805611
0.68,1.2003795732981,-0.00740869824744639,7.63712597739932,0.397408012621533,-0.892596040716118,0.80264457694484,-5.37965017577134,5.43534638357912,0.832237742827033,269.402684521564,404.097733805611
0.69,1.16759745305352,-0.0203189817733475,6.70547937462482,1.03053652169188,-0.320937472472931,-1.12280711262445,-2.94053383044506,-6.1138138635444,2.8457808457612,279.655466922656,404.097733805611
0.7,1.06559610988756,0.0371055631003364,9.42472881684815,-1.85666337716887,1.04839013443812,0.194293639199338,8.7999015503877,3.85155096950985,-1.35274230370832,289.29834684026,404.097733805611
0.71,1.02920515534532,0.0356228446842037,8.97068477017987,-1.75704393292648,-0.714436223315462,0.741696111401104,-7.66568892333506,4.9797190642474,0.801277785122214,298.296532826908,404.097733805611
0.72,1.01058939718876,0.0445450265763046,7.60323896826341,-2.21482088940214,-0.165270994647851,-0.997978300080285,1.2881727475742,-7.81378815639754,3.02152609922451,307.201309122712,404.097733805611
0.73,0.942467897814333,0.0363606574081489,8.81339896512111,-1.81878995466315,0.802293506656968,0.495875957265308,6.29761338068813,6.42837957225296,-0.978632600551726,315.739363336024,404.097733805611
0.74,0.876661005928646,0.0246321370167201,10.0683896732875,-1.22528085930401,-0.853017839752963,0.203719970923385,-10.1058454179323,0.863523124297142,1.36445516779191,323.675132814267,404.097733805611
0.75,0.924969599714662,-0.02823360372725,5.62571931035847,1.44067354644908,0.563394764129721,-0.734133663937941,2.11811175842252,-5.40720450928302,-2.51754492312559,331.272523750638,404.097733805611
0.76,0.852629492773008,0.000221439595477824,7.26997324558996,0.00582919014460796,0.0525432728603246,0.851008992584084,0.451945584494474,7.25591415051939,-0.0614043328554267,338.646891035797,404.097733805611
0.77,0.816158283497641,-0.00154312849730082,7.16846446427464,0.0822963844177647,-0.521074938749111,-0.628170067079756,-4.65035114663462,-5.45599575544654,2.44722280186294,345.767339684234,404.097733805611
0.78,0.760032395749905,-0.0385826248924179,8.16050994923739,1.92867876920994,0.716337530212239,0.25690154601006,8.36945518749222,0.515697867906404,-1.27717324867103,352.45075514098,404.097733805611
0.79,0.743462969176825,0.00139646435613838,7.2720671806327,-0.0703310436965966,-0.721529770811203,0.179259383249668,-7.07762909415598,1.67184746340671,1.32916146018595,358.73364656923,404.097733805611
0.8,0.732221718387799,-0.0126832515295059,6.1521119686112,0.662589189222333,0.553424042208159,-0.479615824649399,4.13613522242998,-4.60216161491288,-2.30218796270236,364.729482513724,404.097733805611
0.81,0.684819980980582,0.0163585474321965,6.87047621931005,-0.794575085859629,-0.247295591467554,0.638819926790836,-3.36652153525997,6.04163270977346,0.393230722622274,370.51556317843,404.097733805611
0.82,0.630673197163471,0.0648452938676195,7.991573371487,-3.22905834791387,-0.0722179471984175,-0.629871543935443,3.1353586666678,-8.02879746895159,3.12989521989533,376.016824655448,404.097733805611
0.83,0.6065820017179,0.00803587300195028,7.67851939556492,-0.391783583027316,0.231084697034014,0.560897640269324,2.46647515730055,7.28214630328282,-0.377553372025575,381.235244053466,404.097733805611
0.84,0.557362806181655,-0.00101101197592074,8.66176162487472,0.0538413090477162,-0.360898905301999,-0.424742627966306,-5.66151306263532,-6.55562988387248,2.43546556906233,386.232688023142,404.097733805611
0.85,0.509139019225709,0.0265052018197635,9.65649706102824,-1.33010937674079,0.442533155786555,0.253158986905889,7.40165341729569,6.34292149832992,-0.999156517265774,390.954195186395,404.097733805611
0.86,0.484984149672401,0.0158471730056506,9.52654440791981,-0.800582800543125,-0.466451445130296,-0.133730354301451,-8.82133940048992,-3.68509869039594,1.88266857284174,395.37473764732,404.097733805611
0.87,0.441047713325605,0.0276456080055102,10.440825480447,-1.39447000324851,0.441816979137051,0.00922615943664334,10.288192970132,2.26019218484565,-1.48731727784519,399.520543664616,404.097733805611
0.88,0.432108724955569,-0.0296232585098584,9.64983660799199,1.47204356535255,-0.432652453642107,0.0201827150040379,-9.41702330895643,2.57020054038776,1.45573331953078,403.484380579472,404.097733805611
0.89,0.410567992987885,-0.0282674628100885,9.51251044261727,1.40360346914478,0.401948193994289,-0.0883333213716621,8.73389506019351,-4.02206846001225,-1.85586168538655,407.285153367527,404.097733805611
0.9,0.368940002035203,0.0137962840580063,10.4411593244717,-0.702830103959836,-0.32992469959986,0.165700800087045,-9.79083322708374,3.69477508293367,1.14273669873083,410.836680685241,404.097733805611
0.91,0.344185561467742,-0.0176159996754622,10.5696934444314,0.879087520136766,0.303318403863787,-0.163621422940138,8.57749244986818,-6.23841627737126,-2.11663131224054,414.18312810465,404.097733805611
0.92,0.315928457118283,0.0187386140812695,10.8954087051437,-0.932617713962364,-0.242336329159917,0.203555960964355,-9.29956659970515,5.75306594001546,0.93139579477761,417.400322234089,404.097733805611
0.93,0.318481370319116,0.0263229593850275,9.73718193339191,-1.3059719834488,0.224315433626895,-0.22760902369613,8.23439533851863,-5.35845203715679,-2.28101823135022,420.416298248265,404.097733805611
0.94,0.28924839799962,-0.0125562520286334,10.2065859956782,0.643788387582348,-0.218389607454489,0.190074392189551,-6.95780222738053,7.495188412563,0.811225953789747,423.223261633565,404.097733805611
0.95,0.218420386078367,-0.00712636725606831,12.785499537015,0.371252819678114,0.158969192416502,-0.149956813874316,8.74604707002256,-9.33346065058826,-2.35964477413923,425.881669645812,404.097733805611
0.96,0.285201317706802,0.0254464309339692,8.51930134317009,-1.26011652099457,-0.180657568145207,0.222148948997814,-6.84435009318005,5.22697434700127,0.771741495088428,428.399980552275,404.097733805611
