t,iq,id,vq,vd,ia,ib,va,vb,theta_e,omega,r
0,0,0,0,0,0,0,0,0,0,0,0
0.01,0.000923914221563492,0.000512089262588038,-0.045569927277637,-0.025635417691192,-0.000378927797018869,0.000986035813909242,0.018446986610468,-0.0489234258539221,0.873002395784696,-0.00145968180218043,0
0.02,0.00102257822837254,0.000568371156631455,-0.0505814600500744,-0.0284529307880323,-0.000418356134450219,0.00109256127956283,0.0204762335747236,-0.0543026447773881,0.87299200326298,-0.00141933043708605,0
0.03,0.00105846168140863,0.000590514822480335,-0.0524157055945549,-0.0295614450283054,-0.000431612995883578,0.00113258955865034,0.0211689303823295,-0.0563308229267482,0.872982389855416,-0.0012839572014968,0
0.04,0.00103011451519273,0.000577908968449931,-0.0510893156556805,-0.0289303868920779,-0.000417983068908449,0.00110471935093556,0.0205576321630279,-0.0549951745132308,0.872974454152672,-0.00106958641167148,0
0.05,0.00105012974952663,0.000590904369735602,-0.0521260747210269,-0.0295809403469551,-0.000424961419738158,0.00112754080048024,0.0209336306124896,-0.0561599751336487,0.872967363127651,-0.000958308519285607,0
0.06,0.00104755360505481,0.000591442531294719,-0.0520482590254646,-0.0296078800100465,-0.000422634770273347,0.00112630043693662,0.0208563506719636,-0.056130744364557,0.872961229472874,-0.000826844520276101,0
0.07,0.00107265863453591,0.000607293313840366,-0.0533189360268093,-0.030401368858586,-0.000431680111968099,0.00115457957552127,0.021319827974761,-0.0575553394797857,0.872956095615759,-0.000765070387646467,0
0.08,0.00104302806051951,0.000592120190665984,-0.0519031292041534,-0.0296417987514482,-0.000418720786341042,0.0011239158146015,0.0207228077595308,-0.0560636806940637,0.872951517005152,-0.000617884896807344,0
0.09,0.00103938211081934,0.000591486152490175,-0.051754506471677,-0.0296100658108734,-0.000416330300970989,0.00112108881065342,0.0206291064174807,-0.0559439443181062,0.872947711638373,-0.000532698565884724,0
0.1,0.0010373294403761,0.000591458052792632,-0.0516794863236902,-0.0296086491922282,-0.000414771919722974,0.00111974963750544,0.0205723532267035,-0.0558947197540578,0.872944472469925,-0.000462047158536307,0
0.11,0.00103563108945929,0.000591455442071289,-0.0516180529550193,-0.0296085200183139,-0.000413469190908599,0.00111865746391814,0.0205252102722494,-0.0558552020121852,0.872941711426615,-0.000401915371253448,0
0.12,0.00103418565951849,0.000591454104609234,-0.0515657963319046,-0.0296084705514563,-0.000412359898581129,0.00111772861207673,0.0204850704707159,-0.0558216335084323,0.872939357746273,-0.000350659839377342,0
0.13,0.00108372291833952,0.000619590579100383,-0.05401149092442,-0.0310169841928485,-0.000432233815049582,0.00117111988223749,0.0214537987425737,-0.05847246343204,0.872937037788892,-0.000390357160905623,0
0.14,0.00113174844155444,0.000648459267745885,-0.0564812992280588,-0.0324621689628664,-0.000450479091118445,0.00122410070882731,0.022417448556387,-0.0611668830044898,0.872935071621453,-0.000434698300888519,0
0.15,0.00103537831393729,0.000593825537018305,-0.0516717763616246,-0.0297271773968702,-0.000411743156964006,0.00112031450677032,0.0204896589894185,-0.0559808129884524,0.872933332413532,-0.000228108765385248,0
0.16,0.0010300278212084,0.000591549090777682,-0.0514185445511801,-0.0296132238285269,-0.000409105054528066,0.00111513259015366,0.0203687896480669,-0.0557308007977001,0.872932197107591,-0.000195147854086786,0
0.17,0.0010292168012503,0.000591453764113025,-0.0513862980958881,-0.0296084545296955,-0.000408543833227725,0.00111453879043798,0.0203470935849828,-0.0557064448181759,0.872931246257207,-0.000174039300613561,0
0.18,0.00102870858133925,0.000591449369112075,-0.0513677751558007,-0.0296082303543548,-0.000408156349040702,0.00111420917976915,0.0203329999691671,-0.0556943869831358,0.872930436518922,-0.000156386275191459,0
0.19,0.00102828441345245,0.000591448824502536,-0.0513524273755844,-0.0296081980948802,-0.000407830926208378,0.00111393648049729,0.0203212225596678,-0.0556845140543651,0.872929746286187,-0.000141354358650221,0
0.2,0.00102792322626196,0.000591448493563269,-0.0513393615690812,-0.029608174448671,-0.000407553736582028,0.00111370437344256,0.0203111937799644,-0.055676112002694,0.872929157889202,-0.000128540995338364,0
0.21,0.00102761507490538,0.00059144821695771,-0.0513282088463443,-0.0296081752021289,-0.000407317245780186,0.00111350635238659,0.0203026199955837,-0.0556689561918384,0.872928656301595,-0.000117618096281639,0
0.22,0.00102735272432023,0.000591447981357394,-0.0513187164654082,-0.0296081484517616,-0.000407115904400601,0.00111333776330636,0.0202953401879354,-0.0556628447086069,0.872928228716086,-0.000108306713317572,0
0.23,0.00102712874124125,0.000591447780500819,-0.0513106056662415,-0.0296081490266359,-0.000406944008768481,0.00111319382942532,0.020289104924523,-0.0556576406612939,0.872927864214569,-0.000100369088950252,0
0.24,0.00102693782011364,0.000591447609259255,-0.0513036903583075,-0.0296081495284717,-0.000406797486578481,0.0011130711413884,0.0202837887060871,-0.0556532036688657,0.872927553489976,-9.36025450815028e-05,0
0.25,0.00102677547029218,0.00059144746326849,-0.0512978135220712,-0.0296081254875735,-0.000406672890973077,0.00111296681349808,0.0202792865031115,-0.0556494142463136,0.872927288608212,-8.78343058903648e-05,0
0.26,0.00103758268935025,0.000597449102320523,-0.0518288939002259,-0.0299085766613794,-0.000411096737202795,0.00112450999985065,0.0204931306596021,-0.0562208928833308,0.872927095857532,-0.000102978656850849,0
0.27,0.00100303370971418,0.00057798334776793,-0.0501385180222559,-0.0289341181694715,-0.000397132929626083,0.00108739450491835,0.0198240984909886,-0.0543880437479839,0.872926767240082,-3.50170047304885e-05,0
0.28,0.00100010046177186,0.000575977679887627,-0.0499013549035005,-0.0288336961506227,-0.00039617407024863,0.00108397293666754,0.0197069017853252,-0.0541587045352369,0.872926598814305,-2.63391739717864e-05,0
0.29,0.00102505277679512,0.000590802661687341,-0.0512190163668357,-0.029575842739675,-0.000405766482958959,0.00111136607001444,0.0202396156214628,-0.055574059333862,0.872926570449314,-6.99260095181638e-05,0
0.3,0.00101885812631785,0.00058762755097259,-0.0509127497240515,-0.0294169085119829,-0.000403060728372884,0.00110495251910183,0.0201070983223965,-0.0552554720178894,0.872926915453034,-6.60978322726695e-05,0
0.31,0.00102608314125832,0.00059128806212321,-0.051267901190242,-0.0296001593856246,-0.000406244274424799,0.00111240000659881,0.0202614574909344,-0.0556240997091176,0.872926772722295,-7.59354061300474e-05,0
0.32,0.00102634932304944,0.000591440468832906,-0.0512821026496857,-0.0296077678558588,-0.00040635012678069,0.00111268788775768,0.020267441477829,-0.0556390580934123,0.872926624400037,-7.33375361330807e-05,0
0.33,0.00102628832170979,0.000591446750594646,-0.0512801088785622,-0.0296080881957036,-0.000406299208063233,0.00111265355416412,0.0202657008714108,-0.0556380249594848,0.872926496659558,-7.05866331797308e-05,0
0.34,0.00102622219781756,0.000591446955135307,-0.0512777157015058,-0.0296081000657124,-0.000406248290431399,0.00111261126479732,0.0202638534991039,-0.0556364984379189,0.872926387701686,-6.82153996929581e-05,0
0.35,0.00102616527072525,0.000591446914946201,-0.0512756464224696,-0.0296081002742345,-0.00040620459465445,0.00111257469112128,0.0202622626895726,-0.0556351707878209,0.872926294815944,-6.61927284913033e-05,0
0.36,0.00102611660912077,0.000591446871747621,-0.051273873835086,-0.0296081004641396,-0.000406167249184723,0.00111254342086198,0.0202608999835157,-0.0556340334957737,0.872926215633963,-6.44684104437681e-05,0
0.37,0.00102607516526625,0.000591446834549003,-0.0512723627383562,-0.0296081006377552,-0.000406135443191447,0.00111251678848361,0.0202597382954349,-0.0556330639849137,0.872926148134199,-6.29984872818294e-05,0
0.38,0.00102603977500845,0.000591446802822592,-0.0512710695618588,-0.029608100797697,-0.000406108283105587,0.00111249404621395,0.0202587441434904,-0.0556322342944461,0.872926090593008,-6.17454296556092e-05,0
0.39,0.00102600962344012,0.000591446775775637,-0.0512699660925588,-0.0296081009458172,-0.000406085143408721,0.00111247467039472,0.0202578958275328,-0.0556315263262717,0.872926041541235,-6.06772423658085e-05,0
0.4,0.00102598401206935,0.000591446752718892,-0.0512690280620989,-0.029608101083686,-0.000406065487956283,0.0011124582121655,0.0202571746821254,-0.055630924512468,0.87292599972643,-5.9766650502527e-05,0
0.41,0.00102596200957354,0.000591446733063662,-0.0512682179752473,-0.0296081012134091,-0.000406048602346983,0.00111244407305353,0.020256551917172,-0.0556304047823478,0.872925964080739,-5.89904031632744e-05,0
0.42,0.00102594338312207,0.000591446716308065,-0.0512675319378201,-0.0296081013355197,-0.000406034307492648,0.00111243210343037,0.0202560244979088,-0.0556299646524238,0.872925933694028,-5.83286797768289e-05,0
0.43,0.00102592755063832,0.000591446702024115,-0.0512669474558817,-0.0296081014513247,-0.000406022156810701,0.0011124219292484,0.0202555751451984,-0.0556295896851063,0.8729259077906,-5.77645840070345e-05,0
0.44,0.00102591393004568,0.000591446689847667,-0.051266441043001,-0.0296081015621412,-0.000406011703804495,0.00111241317646246,0.0202551858257813,-0.0556292648027334,0.87292588570876,-5.72837123263299e-05,0
0.45,0.00102590240492883,0.000591446679467729,-0.0512660116639436,-0.0296081016682338,-0.000406002858847838,0.00111240577025631,0.0202548557149169,-0.0556289893517037,0.87292586688488,-5.68737862358978e-05,0
0.46,0.00102589250962649,0.000591446670619168,-0.0512656401580268,-0.0296081017706463,-0.000405995264780665,0.00111239941139409,0.0202545701040298,-0.0556287510301479,0.872925850838133,-5.65243387495835e-05,0
0.47,0.00102588412772332,0.000591446663075935,-0.0512653241780795,-0.0296081018696449,-0.000405988832093637,0.00111239402506196,0.0202543271717288,-0.0556285483383075,0.872925837158928,-5.62264471340185e-05,0
0.48,0.00102587690997338,0.000591446656645751,-0.0512650492191654,-0.0296081019660166,-0.000405983292925133,0.00111238938683342,0.0202541157842137,-0.0556283719631732,0.872925825497966,-5.59725050736397e-05,0
0.49,0.00102587085637665,0.000591446651164265,-0.051264817833408,-0.0296081020597531,-0.000405978647049438,0.0011123854967035,0.0202539378803906,-0.0556282235507349,0.872925815557457,-5.57560284540758e-05,0
0.5,0.00102586561768717,0.000591446646491255,-0.05126461472198,-0.0296081021516514,-0.000405974626677612,0.0011123821302468,0.0202537817234713,-0.0556280932759128,0.872925807083485,-5.55714897967104e-05,0
0.51,2.74013623689714,0.0246392845430724,2.93157515654601,-1.23043003045799,-0.100528895157255,2.7384023868559,-1.36303168462766,2.87232233306635,0.0456860547879999,13.9387009938402,350.814843688019
0.52,2.63437327670002,-0.0236667099818989,3.44638331685669,1.19181890965176,-0.554647777849195,2.57543171462175,0.472027749842279,3.6159618476265,0.203137700510103,28.9571960567033,350.814843688019
0.53,2.53877921234045,-0.0446115965286811,3.52080263545538,2.24522866957874,-1.18844616792926,2.2438774007265,0.409300834897121,4.1556679129931,0.469506858864722,43.6830296067356,350.814843688019
0.54,2.43845897324326,-0.0284541595228579,3.69480867054849,1.44080086107046,-1.84174871559905,1.59839090086686,-1.80502057812707,3.53120644337873,0.844352814019026,58.6701382717232,350.814843688019
0.55,2.25247885960157,0.0537850973490688,8.02533132875578,-2.68640697572889,-2.17484255259413,0.588739094229934,-8.43422103914849,-0.69759647242426,1.33030186623427,73.6339339272782,350.814843688019
0.56,2.19518100312586,-0.0444050651782529,6.63813304759808,2.23690868967664,-2.04854201712953,-0.790105720997531,-7.0030663320654,-0.160102443006667,1.91868179457993,86.6743714373653,350.814843688019
0.57,2.10256714025196,0.0924459433089277,7.26174885128897,-4.60354428939349,-1.16405763294364,-1.75336951578589,0.196551447145481,-8.59575383152805,2.59944944730512,99.1610209877136,350.814843688019
0.58,2.08309164001045,-0.0184204561788111,3.93744152892658,0.930576221995842,0.498464224387757,-2.02265753673052,0.00283673100689008,-4.04591273405853,-2.90880975593119,112.144539781037,350.814843688019
0.59,1.93769922373579,0.0238056218742861,7.49819945106856,-1.16713785234994,1.71341618076206,-0.90523476557292,7.20482504690398,-2.38237314833298,-2.04455877076757,123.498814314441,350.814843688019
0.6,1.80111597066347,0.00677814032385604,10.4825415200697,-0.333480038383031,1.60555690189732,0.816242438087577,9.17412744201157,5.08234899763046,-1.0966992690744,135.239306718136,350.814843688019
0.61,1.81334057943404,0.0435191584686222,6.39813225925603,-2.15090667828567,0.16304240621977,1.80652017645806,-1.72416537565008,6.5260822629688,-0.0660135004990257,145.765932416339,350.814843688019
0.62,1.64816191904823,-0.00384615502894881,11.0734420418535,0.198873772522957,-1.42506001484463,0.828043753916588,-9.46114538149242,5.75737765844405,1.0420869729914,156.59058004665,350.814843688019
0.63,1.57575081387416,-0.0274983274661512,11.5268996687469,1.41084270428565,-1.23322602541244,-0.981274862453918,-10.0028017167719,-5.89947886889495,2.22545911494949,166.24850968461,350.814843688019
0.64,1.5044650188554,0.064433438373653,11.8341076154768,-3.20831336177625,0.439886162018172,-1.44016208303272,6.96354738215454,-10.0919961126888,-2.80234861259814,175.954599482533,350.814843688019
0.65,1.47332769392369,0.0214527911432013,10.3514045826712,-1.07089791934861,1.46912216637506,0.11329067126544,10.2102078452713,2.01247483069289,-1.47927436264874,185.207676732366,350.814843688019
0.66,1.36792198563153,0.0524899159926172,12.7712389874319,-2.59095760119368,0.175095632391385,1.35768452505451,-1.43383855209465,12.9522860365192,-0.0899052157065874,193.781405939282,350.814843688019
0.67,1.38519823619382,0.0175487198829959,9.039016131152,-0.851828181220154,-1.35170096660709,0.3032929408962,-9.02003671578696,1.03361574842983,1.36274136543498,202.283724671488,350.814843688019
0.68,1.3119208190649,0.00901893229775491,9.9677840783414,-0.441871853967691,-0.353732079863085,-1.26336502734223,-2.19517623679181,-9.73309670439936,2.87546587703514,210.44593777872,350.814843688019
0.69,1.18563194371079,-0.0311756861394781,13.7044401096816,1.55966744280593,1.15199738621612,-0.282129494213049,12.8100795820279,-5.11332595813239,-1.83726214431703,218.184985357452,350.814843688019
0.7,1.17263891217539,0.0437629348044182,11.8986518770849,-2.16380306371362,0.288527408837863,1.13743094171026,0.377702547769204,12.0878989479562,-0.211123174798889,225.500026655738,350.814843688019
0.71,1.12331320963542,0.0867235099555736,11.9816205382964,-4.3021853642412,-1.10850580134836,0.201416043297152,-12.3595141008217,-3.05130149667422,1.46810723907732,232.51904895526,350.814843688019
0.72,1.07178196480131,0.0259548454207071,12.2431260236632,-1.26446846825277,0.0347018384697602,-1.0715344215101,1.95486048636214,-12.1520177673243,-3.08500698242962,239.314647174296,350.814843688019
0.73,1.02403004792159,0.00291409879039575,12.4084300502479,-0.117673015576103,0.989197714498656,0.264828081306891,11.9463739643459,3.35665493527225,-1.30636501702118,245.822148034435,350.814843688019
0.74,0.992044273482911,0.0213499441681239,11.8679347318969,-1.04672043196869,-0.473495510280398,0.872014714560783,-6.79516421108862,9.78617605643827,0.518963379180924,252.086436529806,350.814843688019
0.75,0.896250708735103,0.00685952100748138,14.6166355520506,-0.327308507931195,-0.617719408834409,-0.649411362609167,-9.7536467164703,-10.8912598651911,2.38885350108557,258.026558740207,350.814843688019
0.76,0.899231946357811,0.0332618072072255,12.5051929925861,-1.651329496338,0.811067138290196,-0.389736498617848,12.1236267891566,-3.48201297592992,-1.98176909029773,263.7621755645,350.814843688019
0.77,0.914029499870802,0.0773032397713852,9.86529466649149,-3.85621104363084,0.102998539143705,0.911491644749135,-3.57701853636669,9.96992180812944,-0.0281493344642097,269.25155650752,350.814843688019
0.78,0.811490388904738,0.0532798816169145,13.1733652707896,-2.65417678480752,-0.769758012599015,-0.262350908345083,-11.1448471845019,-7.50830128569423,1.96483471007465,274.482931694513,350.814843688019
0.79,0.760638941571152,-0.0121713671876838,13.9861504691772,0.624943290311608,0.581248561948345,-0.49078493339413,10.1297657796413,-9.66389177879075,-2.28800899843834,279.466948507538,350.814843688019
0.8,0.776571675601098,-0.0575563008643872,11.5250104654849,2.90283486438079,0.114704741508513,0.770207191209322,5.36728806535735,10.6039867645558,-0.221821140119927,284.217812446236,350.814843688019
0.81,0.72438531991486,0.0482562141247784,12.5315118615009,-2.38878325094011,-0.704961606765105,-0.17347013257899,-11.2188773655028,-6.07304418004005,1.87859156050682,288.795267757583,350.814843688019
0.82,0.715757359494523,-0.0460851264541174,11.426383766794,2.34148274683671,0.57689075941811,-0.426180112451132,7.22580914544542,-9.15600729758254,-2.27135855329442,293.15674317003,350.814843688019
0.83,0.593861822895347,0.0192289120003881,16.0482865765621,-0.925465450593328,0.0824476266447016,0.588425020380642,0.791172162513615,16.0554674473517,-0.106841358097805,297.328215934317,350.814843688019
0.84,0.576795989983467,-0.0178108119428802,15.4796959942446,0.928861935802023,-0.49266239236127,-0.300490609230875,-13.9169256291965,-6.84126842050721,2.08761778791297,301.32804289029,350.814843688019
0.85,0.582793221018187,-0.0238829301151221,13.8052514524383,1.17924514988579,0.545725899041867,-0.205916429481921,12.2448321118184,-6.4838008407075,-1.9725616350713,305.176956418105,350.814843688019
0.86,0.537482957171583,-0.0375922902206806,14.7506991381941,1.86604667837389,-0.183559922541747,0.506563781147462,-2.25100385590124,14.6968784751085,0.277818159401634,308.831367111291,350.814843688019
0.87,0.513994448267454,-0.0126171477368653,14.6749282771014,0.627229194611647,-0.274339799455476,-0.434841534011538,-8.65456885267893,-11.8678293876717,2.55422240738792,312.278633217693,350.814843688019
0.88,0.486586024751144,0.0139469995761092,14.8291686008349,-0.684461015215479,0.483595163008881,0.055643477557669,14.5796652682627,2.79393789099751,-1.42758288360673,315.616297875135,350.814843688019
0.89,0.464526513076931,-0.0288736077199036,14.7816246128509,1.47687374389645,-0.381182565259126,0.267055085172792,-10.6358737841479,10.370909849108,0.897593081547415,318.770778652602,350.814843688019
0.9,0.383790261985208,0.00550974583626948,17.691276608178,-0.240499632112641,0.0344046402480027,-0.382284767187054,2.07772414857764,-17.5704914690093,-3.03748189363971,321.840787145785,350.814843688019
0.91,0.459618698952423,-0.0336941307023857,12.8133083346563,1.66542111978759,0.258050011964442,0.381830897382151,9.23965994866329,9.0323408936042,-0.667492654552846,324.776703498685,350.814843688019
0.92,0.380613743356385,0.0101204276236272,15.7147104866703,-0.517909988323555,-0.377725829006791,-0.0478794610263935,-15.4531682144703,-2.90171476392053,1.72346458729767,327.560819005474,350.814843688019
0.93,0.384034561186835,0.0329211898855084,14.5733401958227,-1.63349881742863,0.303606709898109,-0.237464343921963,13.0968640475578,-6.5971747717876,-2.14903911665902,330.155307923448,350.814843688019
0.94,0.370563625204998,0.0348868957468159,14.2926125492781,-1.71161706637963,-0.0690818208225368,0.365735147137601,-5.60215293555052,13.2598751484472,0.280554226549273,332.696359438638,350.814843688019
0.95,0.342198885172937,0.0126262337437057,14.7740128877082,-0.655875181495482,-0.148948920386059,-0.308340263196325,-5.33072881862222,-13.7943814403612,2.72846382655073,335.172452418808,350.814843688019
0.96,0.373798337424739,-0.0358411441561528,12.3109867106531,1.77900932089463,0.31473382101982,0.204822866355749,11.7358078646286,4.12263043677572,-1.08946350661664,337.445874636746,350.814843688019
0.97,0.26893298317093,-0.0115269734151134,16.697227935877,0.588977484544033,-0.266708675355857,0.0363909747499621,-16.3275550585966,3.54334037716231,1.39235340662378,339.652448848021,350.814843688019
