t,iq,id,vq,vd,ia,ib,va,vb,theta_e,omega,r
0,0,0,0,0,0,0,0,0,0,0,0
0.01,0.000547284715245484,0.000311004680567565,-0.0268494652133732,-0.0155615675558046,0.000424013478947602,-0.000465249439061473,-0.0207077169761161,0.0231137756473295,-1.88577155299655,-0.00107475569881214,0
0.02,0.000640901307575183,0.000363013558481322,-0.0314927922227059,-0.0181639070316602,0.000496907954505842,-0.000543705632159234,-0.0243161972204957,0.0270267651296132,-1.88577997299689,-0.00121341508948372,0
0.03,0.000676466531153094,0.000383007110055617,-0.0332502749696987,-0.0191643192470165,0.00052452432114963,-0.000573738311990733,-0.0256770332524734,0.028522655576112,-1.88578882485476,-0.00123199449269713,0
0.04,0.000662151539578055,0.000375087849380715,-0.0325717845606417,-0.0187680675043695,0.000513362372875444,-0.000561778096969197,-0.0251544525428901,0.0279359092313266,-1.88579725127464,-0.00115220036985433,0
0.05,0.000678342702166885,0.000384535936607944,-0.033381994736373,-0.0192408126007235,0.00052582494880379,-0.000575781930370789,-0.0257780969911191,0.0286366226645506,-1.88580547810883,-0.00113534345490368,0
0.06,0.000680039715017941,0.000385733394581598,-0.0334840305894756,-0.0193007230651924,0.000527062854639051,-0.000577450441992089,-0.0258563214033314,0.0287254044156703,-1.88581344488909,-0.00109072406384197,0
0.07,0.000693098190030007,0.000393528566838042,-0.0341396324348053,-0.0196907703470761,0.000537059099051204,-0.000588912012160377,-0.0263585915936049,0.0292995834244523,-1.88582097991642,-0.00107170058276161,0
0.08,0.00068115261253294,0.000386871451973362,-0.0335742739964479,-0.0193576729501442,0.000527759746549062,-0.000578885180182476,-0.0259240494403159,0.0288078988655778,-1.88582835929015,-0.0010030166683271,0
0.09,0.000679172250073166,0.000386024844329476,-0.0334944208082105,-0.0193153090977062,0.000526135131363244,-0.000577470301621153,-0.0258610517229367,0.0287430581984766,-1.8858353417698,-0.000956892562125368,0
0.1,0.000678531835973761,0.000385915857050363,-0.0334792116231014,-0.0193098644013709,0.000525556159208558,-0.000577171746251311,-0.0258480866326123,0.0287333411133601,-1.88584200633409,-0.000915398063248312,0
0.11,0.000678086254961993,0.000385900565728551,-0.0334728004439092,-0.0193090871844947,0.000525133571910424,-0.000577022484354463,-0.025842048844204,0.0287307801667473,-1.88584837518505,-0.000876080950876311,0
0.12,0.00067768234143662,0.000385897231591345,-0.0334677440504966,-0.0193089212936933,0.000524747060313001,-0.000576897349567276,-0.0258371178466507,0.0287292129153215,-1.88585446247121,-0.000838546674739263,0
0.13,0.000706218905632467,0.000402368706808087,-0.0348752331491908,-0.0201330950096909,0.000546771353902831,-0.000601404028455411,-0.0269197601352282,0.0299491221263902,-1.8858604642803,-0.000860093279982658,0
0.14,0.000725069673496648,0.000413481603272767,-0.0358647008826114,-0.0206891589112326,0.000561247000010028,-0.000617814594072767,-0.0276880325076988,0.030784589029351,-1.88586626709841,-0.000863239935798478,0
0.15,0.000682930449502325,0.000389394210980613,-0.0337658367951068,-0.019483905917942,0.000528643109091938,-0.000581857640331612,-0.0260658108197707,0.0289884085558509,-1.88587186157803,-0.000744220345473527,0
0.16,0.000677051154047661,0.000386335542955605,-0.0334910862188534,-0.0193308638882097,0.000523998142217981,-0.000577130283298473,-0.0258518649794036,0.0287578899064213,-1.88587695064406,-0.000701626913569692,0
0.17,0.000675997500250589,0.000385946188016261,-0.0334512793894033,-0.0193113827007305,0.000523114232601146,-0.000576436102304013,-0.0258199161206129,0.0287271565966161,-1.88588178058061,-0.000670361860647728,0
0.18,0.000675596485374069,0.000385895708663882,-0.0334428061799611,-0.0193088544119865,0.000522745945438916,-0.000576266245360743,-0.0258125110928143,0.028722245994648,-1.88588639256293,-0.000641732090928222,0
0.19,0.000675293726964255,0.000385888290689947,-0.0334386365815713,-0.0193084765215927,0.000522457851620359,-0.000576167669909655,-0.0258085372898981,0.0287207082951524,-1.88589080016692,-0.00061453372376061,0
0.2,0.000675014766209722,0.000385886383131418,-0.0334351585009321,-0.0193083897257494,0.000522190789175402,-0.000576081604451821,-0.0258051363544564,0.0287196566050465,-1.88589501294667,-0.000588559172139082,0
0.21,0.000674749843066279,0.000385885217540103,-0.0334319170740135,-0.0193083203125383,0.000521936951201538,-0.000576000495489704,-0.0258019603890578,0.0287186899530043,-1.88589903957952,-0.000563735204058049,0
0.22,0.000674496610133363,0.000385884186774176,-0.0334288169539502,-0.0193082728190106,0.00052169428919175,-0.000575923042869861,-0.0257989170971906,0.0287177833198584,-1.88590288829966,-0.000540008439396329,0
0.23,0.000674254669483689,0.000385883211984204,-0.0334258580097243,-0.0193082238750183,0.000521462444637129,-0.000575849052656053,-0.0257960133702,0.0287169146514478,-1.88590656696879,-0.000517330062122737,0
0.24,0.00067402343904384,0.000385882281456546,-0.0334230298775738,-0.0193081763903901,0.000521240863351997,-0.000575778337465608,-0.0257932382361182,0.0287160836991129,-1.88591008310075,-0.000495653705831628,0
0.25,0.000673802394943292,0.000385881392074326,-0.0334203242842407,-0.0193081289091176,0.000521029044022673,-0.000575710735930254,-0.0257905840732478,0.0287152867023063,-1.8859134438772,-0.000474935091612513,0
0.26,0.000679486651147415,0.00038925712851352,-0.0337054356308203,-0.0194770491626248,0.00052538533161209,-0.000580683626868344,-0.0260092116126111,0.0289643357672344,-1.88591661547016,-0.000467308106343694,0
0.27,0.000664204488558056,0.000380533410940608,-0.0329670693346942,-0.0190405392788344,0.000513557620475474,-0.000567654692497412,-0.0254424009550925,0.0283205584370732,-1.88591979526565,-0.000417202563014242,0
0.28,0.000663720961124759,0.000380365303843934,-0.0328974899647589,-0.0190321353676605,0.000513148339731656,-0.000567346507907916,-0.0253787694250151,0.0282910778357114,-1.88592273032338,-0.000398520750664636,0
0.29,0.000671754060153242,0.000385178338185554,-0.0333492635926675,-0.0192729505468843,0.00051929255493209,-0.000574413711476191,-0.0257335803812607,0.0286601264079044,-1.88592547375259,-0.000398229076248137,0
0.3,0.000664415110838272,0.000381210224665279,-0.032996648080269,-0.0190744149009134,0.000513543543520156,-0.000568367578076325,-0.0254597964211311,0.0283621376934086,-1.88592781881115,-0.000369233112139001,0
0.31,0.000671570284147672,0.000385284468952316,-0.0333520044171573,-0.0192782622018732,0.000519082137008368,-0.000574460184525333,-0.0257344003427307,0.02866615131416,-1.88593034377243,-0.000368482617527337,0
0.32,0.000672380354672858,0.000385801064442279,-0.0333974579026735,-0.0193041114762042,0.000519690785644538,-0.000575203694347452,-0.0257695330644316,0.0287048790258334,-1.88593280243091,-0.000355291942516517,0
0.33,0.000672354359239515,0.000385866096749196,-0.0334018503841877,-0.0193073636322674,0.000519644558534627,-0.000575258691193963,-0.0257726336004676,0.0287093931808443,-1.88593515846408,-0.000341028426488522,0
0.34,0.000672223169260366,0.000385873834004954,-0.0334008583853811,-0.0193077657257196,0.000519516135240768,-0.000575226555614942,-0.0257715011512093,0.0287095260603998,-1.88593741119642,-0.000327175361301091,0
0.35,0.000672083839248014,0.000385874321364251,-0.0333992294272434,-0.019307786612252,0.000519382277256767,-0.000575184951940023,-0.0257698841217777,0.0287090965122215,-1.88593956450058,-0.000313905205104701,0
0.36,0.00067194881653929,0.000385873910277357,-0.0333975812823529,-0.0193077609355567,0.000519252847818208,-0.000575143779166541,-0.0257682660159361,0.0287086142888843,-1.88594162267789,-0.000301217501319064,0
0.37,0.000671819614590126,0.000385873406002163,-0.0333959981114974,-0.0193077308862595,0.00051912903382464,-0.000575104274239056,-0.0257667136522186,0.028708145697762,-1.88594358991925,-0.000289089873057903,0
0.38,0.000671695758213587,0.000385872909835592,-0.0333944658321796,-0.0193077139336176,0.000519010349763742,-0.00057506638832854,-0.0257652081114318,0.0287077030870398,-1.88594547024078,-0.000277498019850139,0
0.39,0.000671577673924693,0.000385872433758417,-0.0333930153107263,-0.0193076824105516,0.000518897195203446,-0.000575030267080561,-0.0257637872048949,0.0287072698191594,-1.88594726748267,-0.000266418328345883,0
0.4,0.000671464585967006,0.000385871978451945,-0.0333916168789573,-0.0193076668888627,0.000518788830253221,-0.000574995672650461,-0.0257624131439716,0.0287068658596105,-1.88594898531607,-0.000255828177210078,0
0.41,0.000671356562075661,0.000385871543200277,-0.0333902826675356,-0.0193076513541149,0.000518685317500729,-0.000574962627222833,-0.0257611023247961,0.0287064798336781,-1.88595062724902,-0.000245705937790436,0
0.42,0.000671253437152253,0.000385871127145621,-0.033389012800756,-0.0193076183481037,0.000518586498301317,-0.000574931080593947,-0.0257598601805078,0.0287060952685273,-1.88595219663531,-0.000236030936162782,0
0.43,0.000671154726486175,0.000385870729445557,-0.0333877909900758,-0.0193076027915127,0.00051849191022171,-0.000574900883424456,-0.0257586603084704,0.0287057403991719,-1.88595369668044,-0.000226783411734323,0
0.44,0.000671060381394508,0.000385870349291799,-0.0333866224181547,-0.0193075872233911,0.000518401505453697,-0.000574872021482397,-0.0257575129602562,0.0287054003104558,-1.88595513044786,-0.000217944476991753,0
0.45,0.000670970227254268,0.000385869985911564,-0.0333855057085679,-0.019307571643921,0.000518315116519438,-0.000574844441459145,-0.0257564167429721,0.0287050746517808,-1.88595650086622,-0.000209496078938979,0
0.46,0.000670884089440273,0.000385869638565507,-0.033384439029479,-0.0193075545984123,0.000518232576004352,-0.000574818090006458,-0.0257553702854469,0.0287047615447889,-1.8859578107344,-0.000201420962227095,0
0.47,0.000670801735126268,0.000385869306547183,-0.0333834174455072,-0.019307538997826,0.000518153661221224,-0.000574792895699535,-0.0257543679161634,0.0287044622965221,-1.88595906272787,-0.000193702633912507,0
0.48,0.000670722989687081,0.000385868989181029,-0.0333824385668882,-0.0193075233872452,0.000518078204876871,-0.000574768805119001,-0.0257534077405434,0.028704174849147,-1.88596025940355,-0.000186325329770254,0
0.49,0.000670647794915054,0.000385868685820904,-0.0333815055743367,-0.0193075077667447,0.000518006150418036,-0.000574745800898678,-0.0257524927123581,0.0287039002519226,-1.88596140320572,-0.000179273982096573,0
0.5,0.000670575917979541,0.000385868395849795,-0.0333806126214693,-0.0193074921370442,0.000517937275323367,-0.000574723811513326,-0.0257516172058193,0.028703636753756,-1.88596249647043,-0.000172534188934444,0
0.51,3.83597171809342,-0.026982039579123,5.12189358226165,1.35350118471061,-0.207946736122039,3.83042624356724,1.11032460252542,5.18005198835426,0.0472010709531006,14.519206562313,425.782391599485
0.52,3.71693700348974,-0.0365639637462158,4.83343801627971,1.83648317076383,-0.818888625198234,3.62579357256823,0.776868664483475,5.11187525002913,0.212287357969897,30.4419891918009,425.782391599485
0.53,3.61030957788663,0.0361399630523063,4.04735369383922,-1.79815566372325,-1.67578893832499,3.19802638814894,-3.49864669175626,2.71549388514815,0.492678296651652,46.0189265783531,425.782391599485
0.54,3.45910992739858,-0.00319319890956948,5.44740546165091,0.173448105053664,-2.68357018436885,2.18263665137219,-4.11334229589998,3.57557347365862,0.887054985616787,61.630073028322,425.782391599485
0.55,3.39809743296309,0.00901729811696739,2.01854363773168,-0.437206834599715,-3.34584471826082,0.593692341926233,-2.06366914730312,-0.0832939620677626,1.39783613637516,77.8239904411758,425.782391599485
0.56,3.24017206084298,-0.032047124664019,3.7609203045256,1.6191574694794,-2.8973845929681,-1.45082890876138,-4.08997545568478,-0.195686534692381,2.02514346396512,92.9587275665606,425.782391599485
0.57,3.13746257359555,0.000426336035456387,3.53144814963843,-0.0018908492365725,-1.17878941128098,-2.90759816796047,-1.32461825456829,-3.27360903110924,2.75656116801138,106.434413392982,425.782391599485
0.58,3.02235922151903,-0.0194141012907543,4.03539191971649,0.994819738806228,1.31453633828514,-2.72158527085923,0.833167488777999,-4.0718406395726,-2.69805753234342,119.752593520397,425.782391599485
0.59,2.9182115503487,-0.033059328566092,3.59892721592465,1.67356856566997,2.86778895705948,-0.541145146482417,3.19979810445948,-2.34827616353344,-1.76862917919811,133.668369397558,425.782391599485
0.6,2.79756637120989,0.042659609743368,4.74513285274016,-2.11043452219273,1.92491045180071,2.03049678556168,1.65814752557123,4.92145978811763,-0.743462679342506,145.83864225145,425.782391599485
0.61,2.69655244844008,-0.0275942066561763,4.87425520983047,1.40385635916082,-1.00129497264146,2.50390992753176,-0.454666517413008,5.05197534491799,0.370180974697666,158.258903701021,425.782391599485
0.62,2.61490110071362,-0.0168039073426562,4.09382194816964,0.865418480583327,-2.61480196533627,-0.0282987612600714,-4.09758674261262,0.847413816630292,1.57519230693414,170.127129386286,425.782391599485
0.63,2.52246031552515,0.0447964780861698,4.24519122390723,-2.21207633332551,-0.73716099685784,-2.41275909128113,0.958553592202186,-4.69000055894177,2.86283091414093,181.394200135853,425.782391599485
0.64,2.42065342496527,0.0416211810490439,4.77001364149044,-2.05722551319285,2.13054316610152,-1.14981787422449,5.18181907781932,-0.366002727973773,-2.04849160794081,192.509479609766,425.782391599485
0.65,2.3463373781638,0.0134460825432598,4.26888255204766,-0.648375415378352,1.33477255232359,1.92973110118169,1.8729127307404,3.89049441915479,-0.599395271580991,203.102560986378,425.782391599485
0.66,2.28724445361159,-0.0109301300109788,3.06677508529534,0.575850376939786,-1.83675157944978,1.36306650377293,-2.10858130811039,2.30012998491333,0.927587104211929,213.199994656898,425.782391599485
0.67,2.20258572367274,0.0184910696900779,3.21057368832691,-0.902964179180844,-1.28516415323243,-1.7888764320186,-1.11355106172947,-3.14374486082792,2.52700608387109,223.314350110134,425.782391599485
0.68,2.11036358275896,0.0206105238624722,4.09157170704847,-0.999136336667415,1.8269237105302,-1.05660257477999,4.05345225422723,-1.14400929885596,-2.08537905989595,232.507464555807,425.782391599485
0.69,2.00544907125378,-0.0116722968834169,5.49248408871641,0.610363622986886,0.668698356248174,1.89071540117972,2.43573379577561,4.96055703456629,-0.345765033429463,241.843992958592,425.782391599485
0.7,1.94334510453259,-0.015596789100805,4.96918871867993,0.801329090145031,-1.93298784427725,0.200976239932594,-4.84899954775408,1.34987711235108,1.45917118670569,250.789573609714,425.782391599485
0.71,1.88722028023497,-0.00605706080793567,4.38233556222819,0.335659849774705,0.355836031889188,-1.85338009931184,0.482628757859289,-4.36859267920549,-2.95511734237733,259.096220783325,425.782391599485
0.72,1.82426236196062,-0.00841724022957674,4.09503240671021,0.450075824699795,1.55428145845383,0.955098509634401,3.73267213135778,1.74327778043861,-1.02440072492255,267.379143482573,425.782391599485
0.73,1.76027099716516,-0.0260065652138688,3.98695517438585,1.32410722941384,-1.46202246664322,0.980673560327557,-2.5241367342925,3.35824437230874,0.965188643502686,275.430736778043,425.782391599485
0.74,1.70450003783794,0.0219063175168071,3.64535266716228,-1.07687935543413,-0.242596502589848,-1.68728989882233,0.59542253297732,-3.7541626524926,3.01164384124268,283.096539513657,425.782391599485
0.75,1.57099587991967,-0.0280797315278472,7.32912716564102,1.43612101822543,1.43539461829083,0.639107828014154,7.30825320812099,1.53882540761296,-1.16977240176386,290.327795072306,425.782391599485
0.76,1.55529150695368,0.0426557137934042,5.17493037344123,-2.10430659561748,-1.27240904003833,0.895391766965841,-5.47553191391982,1.10750208937473,0.985012067904044,297.378395050019,425.782391599485
0.77,1.53194591677653,0.00196083029036243,3.46372341104364,-0.0714835198321598,0.0734825176199644,-1.5301837982373,0.241968510320037,-3.45600072364473,-3.09232753710497,304.276843763457,425.782391599485
0.78,1.43866641678984,0.0197512883954304,5.35828485715327,-0.967091063067394,1.08198087016092,0.948403167855326,3.33317883054312,4.30539204002168,-0.837364844998025,310.914327559285,425.782391599485
0.79,1.38472507840502,0.0212070395428217,5.39366387167605,-1.04373606546314,-1.37472337243726,0.167478149514119,-5.47378014027531,-0.467681420306116,1.46488070890781,317.308625836198,425.782391599485
0.8,1.36810783914829,-0.0296086820849129,3.68733431734753,1.49739493086689,0.874008678319871,-1.05295040900099,1.12053355449253,-3.81877342875052,-2.47042985965951,323.401336957957,425.782391599485
0.81,1.30202815157047,-0.0124878857699408,4.54033564206162,0.639441549540549,0.089714739678026,1.2989936567426,0.993729174033579,4.4761630406553,-0.0785461120422083,329.286700620938,425.782391599485
0.82,1.26658902419636,-0.0175529550189394,3.92075765515809,0.900106024965987,-0.883436122165004,-0.907797598861467,-3.40941636946722,-2.13504366846905,2.35593648300903,334.942838404163,425.782391599485
0.83,1.18468240724691,-0.0198474249514101,5.70479292651608,1.02130971283005,1.17394492206261,0.160373458779617,5.78570321935205,-0.336710738658983,-1.4517778544922,340.399669215086,425.782391599485
0.84,1.17884140961214,-0.00355972540069732,3.7755303663284,0.206769578967995,-1.03183010629517,0.570093301490342,-3.19860645019214,2.01650687641865,1.06301076230778,345.634286320549,425.782391599485
0.85,1.12199806910361,-0.0112145599744068,4.46583070359071,0.588973571247114,0.5221299542686,-0.993169544580943,1.51445719284203,-4.2422815974202,-2.66757554651701,350.688184407526,425.782391599485
0.86,1.06150731613194,-0.00109171087091459,5.41290907936832,0.0812949141546643,0.0822992617831725,1.05831271632925,0.506259309644377,5.38979545771208,-0.0786368602027335,355.548549871885,425.782391599485
0.87,1.04966565290289,0.0232422930510021,3.99888176897282,-1.13638857889999,-0.608727257891621,-0.855446849646468,-1.30553314737347,-3.9468997460775,2.54526952342383,360.237195247818,425.782391599485
0.88,1.01897727457129,0.00153415443785798,3.59679552152133,-0.0504018121556003,0.899566423842646,0.478641085592875,3.14900506442692,1.7387482481711,-1.08030989358604,364.750374028728,425.782391599485
0.89,0.92041605994812,0.00307314077183324,6.65697298108687,-0.129142587751905,-0.919838559303844,-0.0327443494736708,-6.64690609676773,-0.388080429349128,1.60971808043522,369.088221342166,425.782391599485
0.9,0.938622676107352,0.0506571952644272,3.94614149169823,-2.5095495074258,0.852275227078243,-0.396491635275847,4.59679538886642,0.859850891503746,-1.9523137590131,373.255720660183,425.782391599485
0.91,0.911299975332461,0.00789953625024353,3.56940393412463,-0.370285915317892,-0.647443998627914,0.641362858571191,-2.81581296937366,2.22462433357506,0.798784763318909,377.278157671148,425.782391599485
0.92,0.834109625602305,0.0146140676175261,5.74881222024436,-0.708172044263214,0.339876208573783,-0.76186389948616,3.07531221692562,-4.90844215167448,-2.70445838297754,381.138065718004,425.782391599485
0.93,0.831631705460233,0.0117976836822718,4.22826761296808,-0.578322150048514,-0.0740254260462446,0.828414579281192,-1.01126980704945,4.14608693751852,0.103306480003856,384.903786857601,425.782391599485
0.94,0.76850968754659,0.00383588342515523,5.80825965349044,-0.1873423668258,-0.159224280173629,-0.751844054613587,-0.991528412364649,-5.72606747884152,2.93788913544214,388.483295780192,425.782391599485
0.95,0.779983212416571,-0.00942502082526342,3.71217365087559,0.476609907465194,0.355340959616188,0.694402941445582,2.1524867611021,3.06173006018316,-0.485063860403961,391.918369388368,425.782391599485
0.96,0.715160259363113,-0.025299664754356,5.47469525028718,1.27078201808861,-0.464453065200808,-0.54440574926664,-4.63528128013716,-3.17826091990957,2.39991834389247,395.247694574642,425.782391599485
0.97,0.671957204695496,0.0283976908297833,6.22456443300115,-1.4147178055525,0.571956437064929,0.353834350913872,4.3560832057544,4.6659584175681,-0.974548531080542,398.40007296881,425.782391599485
