t,iq,id,vq,vd,ia,ib,va,vb,theta_e,omega,r
0,0,0,0,0,0,0,0,0,0,0,0
0.01,0.00121383923107986,0.00068941057789204,-0.0602017843281719,-0.0345410657557979,-0.000721727026877601,-0.00119490699323939,0.0361437124596836,0.059253456519209,3.11476167412464,-0.00124198868021068,0
0.02,0.00135801914026071,0.000772807587952291,-0.0674589006623188,-0.0387194497603047,-0.000808974068299062,-0.00133679037628595,0.0405158819421923,0.0663954996875217,3.11475267922291,-0.00130204642441022,0
0.03,0.00139077596355258,0.000791806214878773,-0.069103606726895,-0.0396713531157043,-0.000828857087354114,-0.00136901818521856,0.0415121845457597,0.0680136990240574,3.11474380563824,-0.00124136458755021,0
0.04,0.00137177960877841,0.000781977349053336,-0.0681931118698483,-0.039178905796501,-0.000818532389127808,-0.00135028611688096,0.040995998493941,0.0671164307259372,3.11473595979597,-0.00113517290946483,0
0.05,0.00138847821699248,0.000791847500005876,-0.0690417736231449,-0.0396734142717294,-0.000828857778102351,-0.00136670735931559,0.0415136343251478,0.0679511918226882,3.11472836353346,-0.00107079978043482,0
0.06,0.00138749363562377,0.000791897474706842,-0.0690166418261088,-0.0396759261942236,-0.00082889089043703,-0.00136571596281732,0.0415159478709642,0.0679257097180313,3.11472133239107,-0.000993205464699082,0
0.07,0.00142383322561118,0.000812927868410278,-0.070829820427562,-0.040729590884846,-0.000850899087392598,-0.00140147191076627,0.0426183974845272,0.0697096494848343,3.11471489617185,-0.00096297246536874,0
0.08,0.00138578151900448,0.000792005675211684,-0.068973698807754,-0.0396813172450459,-0.000828970064853076,-0.001363991216819,0.0415210299326712,0.067882119434023,3.11470885855155,-0.000855583808871151,0
0.09,0.00138470583860221,0.000791887940571773,-0.0689390163946523,-0.0396754505283987,-0.000828830972581682,-0.00136291451997965,0.0415146071440521,0.0678473783558994,3.11470334485214,-0.000794403369401424,0
0.1,0.00138391622275172,0.000791884354618074,-0.0689170079281511,-0.0396752547270272,-0.000828813083688067,-0.00136212107207537,0.0415141645357233,0.0678251720405059,3.11469826056185,-0.000738208683758134,0
0.11,0.00138318885996864,0.000791881621845621,-0.0688967496867451,-0.0396751240019758,-0.00082879717532862,-0.00136139015991945,0.0415138070014344,0.0678047299988564,3.1146935719441,-0.000686388524139156,0
0.12,0.00138251842427296,0.000791879104316815,-0.0688780822066224,-0.0396749933189853,-0.000828782510171423,-0.00136071645104399,0.0415134673771054,0.0677858932939131,3.114689248205,-0.000638601131095411,0
0.13,0.00144546467270421,0.000827810476348505,-0.0719960955611928,-0.0414752309569083,-0.000866400273191055,-0.00142266962834057,0.0433972338836843,0.0708541646639779,3.11468493977129,-0.000660670382258337,0
0.14,0.00156790182454787,0.000898858803243474,-0.0781769697629026,-0.0450349367873966,-0.00094072296949806,-0.00154314729505889,0.0471222425016436,0.0769368467924888,3.11468106332251,-0.000752611326132744,0
0.15,0.00138179478102053,0.000792457952199121,-0.0688816913362363,-0.0397039766782079,-0.000829357739710867,-0.00135996770639632,0.0415433377151967,0.067788230961468,3.11467744116794,-0.000509318741579526,0
0.16,0.0013802176215129,0.000791873644667312,-0.0688141360612777,-0.0396747269440228,-0.000828735369682092,-0.00135840429876061,0.041512488435973,0.06772135987852,3.11467437115011,-0.00047418201435412,0
0.17,0.00137977242018087,0.000791868806434084,-0.0688015930154978,-0.0396744691713587,-0.000828722392934894,-0.00135795704407149,0.0415120847421055,0.0677087108566065,3.11467154165123,-0.000442902299246227,0
0.18,0.00137936758595639,0.000791867268078441,-0.0687903060841705,-0.03967440141536,-0.00082871350011265,-0.00135755023559801,0.041511889832802,0.0676973215225706,3.11466893235978,-0.000414063500490056,0
0.19,0.00137899430028531,0.000791865865269836,-0.0687798977689996,-0.0396743365393329,-0.000828705314465798,-0.00135717512892591,0.0415117076537707,0.0676868188395507,3.11466652612933,-0.00038746904013528,0
0.2,0.00137865011844344,0.000791864571567003,-0.068770300300469,-0.0396742716340085,-0.000828697765636137,-0.00135682926782141,0.0415115345543252,0.0676771344846311,3.11466430715706,-0.000362944219556208,0
0.21,0.00137833282853966,0.000791863378415333,-0.0687614531948161,-0.0396742067000843,-0.000828690805668354,-0.00135651042933927,0.0415113699034582,0.067668207390784,3.11466226087021,-0.000340327974599891,0
0.22,0.00137804033509546,0.000791862278007882,-0.0687532979338611,-0.0396741388283829,-0.00082868438888519,-0.00135621650782602,0.0415112101357046,0.0676599785813256,3.11466037383003,-0.000319471775709933,0
0.23,0.0013777702806796,0.000791861263143579,-0.0687457592754996,-0.0396741066892879,-0.000828678461685719,-0.00135594513662223,0.041511092727357,0.0676523712854081,3.11465863364356,-0.000300238652225294,0
0.24,0.00137752144298186,0.000791860327179502,-0.0687388154489894,-0.0396740416710298,-0.000828673000239994,-0.00135569508456323,0.0415109492848489,0.0676453651133286,3.11465702888226,-0.000282502292842591,0
0.25,0.00137729190109704,0.000791859463986909,-0.0687324066749847,-0.0396740094656565,-0.000828667961173196,-0.00135546442286701,0.0415108445848749,0.0676388981006258,3.11465554900703,-0.000266146216081281,0
0.26,0.00138794062004636,0.000797909392852426,-0.0692619556970051,-0.0399771310615918,-0.000835004355840043,-0.00136594520011052,0.0418282113022556,0.0681600341413019,3.11465419489902,-0.000263075666547228,0
0.27,0.00133575439580389,0.000768457955800114,-0.0666932189033222,-0.0385015507161623,-0.000804159711274249,-0.00131457011775912,0.0402840644239656,0.0656319206539125,3.11465286108838,-0.000191392097066889,0
0.28,0.0013075926021424,0.000751880118566022,-0.0651906467758173,-0.0376709658000346,-0.000786830854578666,-0.00128686414673632,0.0394133838900237,0.0641522194603926,3.11465165947596,-0.000147465230734604,0
0.29,0.00137612959957479,0.000791637764489865,-0.0686911716921166,-0.0396629125564464,-0.000828421606466888,-0.00135430449564756,0.0414989689956474,0.0675977756527125,3.11465069810097,-0.000212083248476473,0
0.3,0.00137413317032825,0.000790618576236596,-0.0685947014877103,-0.0396118329267464,-0.000827349802108836,-0.00135233576002309,0.0414453488157633,0.0675026921059024,3.11465011006662,-0.000203496808059498,0
0.31,0.0013762892739344,0.000791848967285733,-0.068704116168907,-0.0396734720899705,-0.000828639101070057,-0.00135445715794785,0.04150997658446,0.0676103676234786,3.11464917200219,-0.000195650292580689,0
0.32,0.00137616796951576,0.000791855199794399,-0.0687010056986277,-0.0396738100727538,-0.000828643239473046,-0.00135433501004669,0.041510289358907,0.067607213128716,3.11464830358777,-0.000186067238267794,0
0.33,0.00137604401632853,0.000791854769365831,-0.0686975397170678,-0.0396737805746511,-0.0008286405542897,-0.0013542104498295,0.0415102206348016,0.0676037159564011,3.11464750273537,-0.000177216033393647,0
0.34,0.00137592949277603,0.000791854338594716,-0.0686943308150396,-0.039673745237111,-0.000828638038231844,-0.00135409536748246,0.0415101487810758,0.0676004785148614,3.11464676420714,-0.000169053566208394,0
0.35,0.00137582367124863,0.00079185394114718,-0.0686913592284348,-0.03967374559362,-0.000828635711958698,-0.00135398903073292,0.041510115112664,0.067597479726766,3.11464608315285,-0.000161526319748107,0
0.36,0.00137572637716644,0.000791853574617113,-0.0686886316355136,-0.039673713128925,-0.000828633574452827,-0.00135389126142203,0.0415100516224579,0.0675947279282667,3.1146454550998,-0.000154584860222039,0
0.37,0.00137563638812279,0.000791853236601037,-0.0686861011027186,-0.0396737134461404,-0.000828631595990286,-0.00135380083423288,0.041510022904857,0.0675921742640195,3.11464487592315,-0.000148183600399669,0
0.38,0.00137555376237083,0.00079185292488145,-0.0686837836292083,-0.0396736809491622,-0.000828629781098558,-0.00135371780430502,0.0415099640764522,0.0675898363369188,3.1146443418196,-0.000142280500748471,0
0.39,0.00137547716108917,0.000791852637412966,-0.0686816243566036,-0.0396736812328956,-0.000828628096429309,-0.00135364083045087,0.041509939467898,0.0675876573954333,3.11464384928116,-0.000136836793344214,0
0.4,0.00137540699177632,0.000791852372309756,-0.068679654767931,-0.0396736487082702,-0.000828626555474682,-0.00135357031739099,0.0415098845814022,0.0675856705441922,3.11464339507318,-0.000131816727267558,0
0.41,0.00137534179919619,0.000791852127832211,-0.0686778123995404,-0.0396736489631655,-0.000828625121336547,-0.00135350480799242,0.0415098634999406,0.0675838114510809,3.11464297621275,-0.000127187333815542,0
0.42,0.0013752822236773,0.000791851902375667,-0.0686761386991057,-0.0396736164146898,-0.00082862381340192,-0.00135344494011467,0.0415098119675816,0.0675821232017371,3.11464258994904,-0.000122918209982922,0
0.43,0.00137522692639951,0.00079185169446102,-0.0686745754837796,-0.0396736166443424,-0.000828622597560379,-0.00135338937336131,0.0415097941459416,0.0675805457619361,3.11464223374533,-0.000118981318792551,0
0.44,0.0013751758200733,0.000791851502723388,-0.0686731264296199,-0.0396736168626454,-0.000828621473270837,-0.00135333801857261,0.0415097775148623,0.0675790835928483,3.11464190526225,-0.000115350805165816,0
0.45,0.00137512878828336,0.000791851325904439,-0.0686717931340036,-0.0396736170699027,-0.000828620439066091,-0.00135329075762166,0.0415097622637106,0.0675777382017103,3.11464160234254,-0.000112002826124337,0
0.46,0.00137508574373983,0.000791851162843652,-0.0686705780752118,-0.0396735844825734,-0.000828619494133311,-0.00135324750163288,0.0415097158222854,0.0675765128667702,3.11464132299673,-0.000108915394203556,0
0.47,0.00137504569686918,0.000791851012470423,-0.0686694381041841,-0.0396735846718455,-0.000828618613223776,-0.00135320725990071,0.0415097026993192,0.067575362611477,3.11464106539033,-0.000106068233050619,0
0.48,0.0013750086767969,0.000791850873798137,-0.0686683804702023,-0.0396735848528394,-0.000828617798430419,-0.00135317006016463,0.0415096904316545,0.0675742954957291,3.1146408278315,-0.000103442644265059,0
0.49,0.00137497468351979,0.000791850745915971,-0.0686674105845637,-0.039673582115179,-0.000828617050958098,-0.00135313590115314,0.0415096763613449,0.0675733169425277,3.11464060876012,-0.000101021384595459,0
0.5,0.00137494325138295,0.000791850627984812,-0.0686665100743454,-0.0396735822809033,-0.000828616359369797,-0.00135310431621077,0.0415096659105179,0.0675724083690005,3.1146404067374,-9.87885526987799e-05,0
0.51,0.868766608958937,0.0844218800759046,-1.64017192457095,-4.22966866971591,0.0724824879975987,0.869844103050218,-4.2067440354284,-1.69810648020516,0.0137341893961486,4.202810140907,113.832452557332
0.52,0.796342604762009,-0.0560185028934407,0.84576137297061,2.80725857303867,-0.104757348390071,0.791407300183569,2.75009757147526,1.01635443781888,0.0613743326015622,8.78820952643723,113.832452557332
0.53,0.772544607391048,-0.0438668060723713,0.918385128616759,2.19877431379174,-0.152887860294748,0.758534619683554,2.04646220358386,1.22066874161562,0.142170774449824,13.2573452432094,113.832452557332
0.54,0.828572441015243,0.0354653442776442,-2.97849557441003,-1.77557348706577,-0.174947915020498,0.810668432643501,-0.965765781460283,-3.33037438587788,0.255324206271662,17.5935856220027,113.832452557332
0.55,0.742012883018193,0.0357950937406904,0.279799272220861,-1.79145612646912,-0.25587666626994,0.697417765015673,-1.75906699004118,-0.439643048786761,0.399846148148791,21.8228058775353,113.832452557332
0.56,0.63243187329114,-0.00845113169944509,4.67684021431477,0.425993336592557,-0.351088249787253,0.526097459452966,-2.18639368019899,4.15619867044863,0.57510961386577,25.9940420659564,113.832452557332
0.57,0.731404579317805,-0.0320416982199917,-1.34033802670633,1.60895171111698,-0.537520248455007,0.497042565151863,2.08632794326088,0.180186979857344,0.780723163709833,30.0969661300365,113.832452557332
0.58,0.660428356357275,0.0972594517470856,1.09761516651381,-4.86916177859411,-0.510368787880801,0.430289106522577,-3.4959831199543,-3.56252684268869,1.01654120265606,34.2571316139146,113.832452557332
0.59,0.686515387320711,0.0155115583867879,-1.3351136417055,-0.776985101523636,-0.65383858987364,0.209854911459661,1.05945552099251,-1.12418338508284,1.28281513617008,38.3994321493405,113.832452557332
0.6,0.645462567737433,0.0487988336241952,-0.371017423123326,-2.44678390758752,-0.645835432770064,0.043587226247912,0.390755184019852,-2.44370943543866,1.57886817245327,42.3298501298298,113.832452557332
0.61,0.601932824078114,-0.0783005070085675,0.832904296988977,3.92192455613579,-0.543627493044313,-0.270043038989728,-2.06462234441379,3.43693997138602,1.90247932964297,45.9273613207562,113.832452557332
0.62,0.553043739024521,0.0470294459208195,2.38773860942017,-2.35613695759551,-0.459420926927711,-0.311450731189902,-0.373162806953188,-3.33368063097982,2.25138281877764,49.2152084056416,113.832452557332
0.63,0.537222634011145,-0.0360028914395634,2.33735292868454,1.80664937892067,-0.23462484007473,-0.484618975181316,-2.72673312554101,-1.13671771063092,2.62379435479717,52.370649110345,113.832452557332
0.64,0.513473272949911,-0.041853432356747,2.71397618246255,2.10217914996111,-0.0213251272909637,-0.514734641130708,-2.41863294816835,-2.43619345691997,3.01885633220036,55.4052547519831,113.832452557332
0.65,0.486065709095471,0.00463752420343685,3.25513034144399,-0.226097693795145,0.136661986421477,-0.466481384040732,1.16129210567186,-3.04932686870938,-2.84706321263915,58.4495186137532,113.832452557332
0.66,0.406777010744157,-0.080533533074715,6.33081732757273,4.03179412550583,0.332420098087768,-0.247891235840977,1.25142223983203,-7.40057796953807,-2.40700259133906,61.6060661460691,113.832452557332
0.67,0.538039660128238,-0.00786653797684866,-1.0425420603402,0.391969935361128,0.503714509491217,-0.189262387226501,-1.11367718687053,0.0160468454698962,-1.94482955930168,64.4739512780754,113.832452557332
0.68,0.446976506928869,-0.0421145585066031,2.76753843696733,2.1108725749326,0.439789666556712,0.0902589772514376,2.97980487815074,-1.79883710097474,-1.46231858008942,67.1589075687988,113.832452557332
0.69,0.433356431237764,-0.0509815585442293,2.7481966366135,2.55918194536413,0.325993567443289,0.290043289514389,3.71862688254689,-0.523269616327082,-0.960794615027604,69.6722511174342,113.832452557332
0.7,0.40321528028328,-0.0520665197680161,3.53711841526665,2.61586033202629,0.124937917156967,0.386890167348766,3.87491786092066,2.08301308959045,-0.440775024173327,72.2276234639186,113.832452557332
0.71,0.362133873445916,0.0392917350609142,4.84029929699203,-1.97302480410441,0.00361609713019136,0.364241275231933,-2.43784360742368,4.6236611800408,0.098150365711972,74.8098858143111,113.832452557332
0.72,0.449434441957634,-0.0287704599993943,-0.230656669501294,1.43936349801473,-0.296787281564287,0.338727569719424,1.28159380893227,0.694612904795968,0.655571948570868,77.2179461949887,113.832452557332
0.73,0.37990247342244,0.0473826128129468,2.61137853237372,-2.37128447172691,-0.342169829847378,0.171728881821567,-3.25414004943559,-1.3611981574535,1.22972658555029,79.418134029319,113.832452557332
0.74,0.394629878896658,0.0548734194037918,1.24932257980726,-2.74186267033513,-0.395985780480632,-0.0440351579104671,-0.535359064587372,-2.96513211903916,1.81970960854808,81.5662804931919,113.832452557332
0.75,0.340842611616048,0.0395832793371634,3.27449864169022,-1.98610114700674,-0.253542219287785,-0.231207406747615,-0.650240146830106,-3.77413922266031,2.42576779318757,83.8179553722623,113.832452557332
0.76,0.358995417687931,0.036693009508728,1.72212807259065,-1.84193802287636,-0.0700726032344317,-0.353997058100332,1.67298720227998,-1.88668349214432,3.04802858317767,85.9208063861954,113.832452557332
0.77,0.313505435776111,-0.0911132493501681,3.41751231466308,4.5676156952588,0.240096190703644,-0.221226358461,-2.14242629698401,-5.28701362987081,-2.59814950177193,87.8530912676072,113.832452557332
0.78,0.212729764645744,0.0478272015223231,7.88449727659903,-2.38893433599834,0.180259726865461,-0.122669575861661,8.21066016691893,-0.676287061668486,-1.9471766385613,89.7399005051722,113.832452557332
0.79,0.254151431757763,0.033313451769403,5.22221608706994,-1.67510184812742,0.253127479213007,0.0403635429636938,4.5299169628601,3.09149791706938,-1.28233413380145,91.6679731150548,113.832452557332
0.8,0.336818653620228,-0.0372049997353645,0.538942465492425,1.86146079411646,0.160619715978261,0.298382848486495,1.83830379074104,-0.613298004310186,-0.603830762803997,93.4313326844429,113.832452557332
0.81,0.22839679341963,0.0268891012770708,5.42699046152428,-1.34275888747855,0.00685519090911786,0.229871976042008,-1.81122934108247,5.28910910961195,0.0873773812534018,95.1307010309701,113.832452557332
0.82,0.222171545823313,0.0197192275455003,5.234690157325,-0.979712648394871,-0.144044586477263,0.170294453271697,-4.40986200478059,2.9857888430719,0.790608130028495,96.7333284543309,113.832452557332
0.83,0.232320330594143,-0.0408139176133531,4.21256243675364,2.03879668028881,-0.234482006786842,-0.0256261657595669,-4.0711260943458,2.30831248123844,1.50574782586435,98.3308502428863,113.832452557332
0.84,0.137243436270063,0.013207424392714,8.49299430615116,-0.661381824635912,-0.116430814041403,-0.0738516242201915,-6.29704687209139,-5.73721002691716,2.23199077553669,99.807007465091,113.832452557332
0.85,0.248812162758715,0.0854442278719413,2.45844658883592,-4.27267346362584,-0.126951638167288,-0.230415906525447,3.7863489367307,-3.15646319260176,2.96879776153371,101.204842264885,113.832452557332
0.86,0.195892739112683,0.017136092350071,4.65604548259747,-0.865743748005439,0.0919955866490194,-0.17379419706999,3.25553409670422,-3.43944319889471,-2.56749752277176,102.590793020262,113.832452557332
0.87,0.271157902490684,0.0538852473584022,0.466777293734382,-2.70150266224688,0.250580851318253,-0.116788119766709,1.09547643745262,2.51315121929801,-1.81076594566573,103.869755249015,113.832452557332
0.88,0.250409177905923,0.0152113215319232,1.09731272071739,-0.754742721672486,0.224206412454095,0.112550545519477,0.570144468545627,1.20360586071713,-1.04488251348335,105.091656151581,113.832452557332
0.89,0.226081336605134,-0.054557626011629,1.89437380230962,2.72927278303022,0.00772781217536479,0.232442651499614,3.13571041814625,1.09768037269306,-0.270025230208277,106.323232683105,113.832452557332
0.9,0.185971820085359,0.0254759432515323,3.49569348983577,-1.28035023191692,-0.0692177763099279,0.174480488860861,-2.83314856667746,2.41504428331726,0.513805898503434,107.50111458791,113.832452557332
0.91,0.122402999168595,0.0269264930529236,6.28549532595978,-1.34353999844682,-0.111090426302203,0.0580210945914579,-6.41804517865385,0.348205836893602,1.30601185579328,108.612715097891,113.832452557332
0.92,0.185604571682101,-0.0649786102241657,2.7427452615736,3.25804428981641,-0.126480134870208,-0.150579056641932,-4.02115010564805,1.40280290566295,2.10620079053029,109.71283497981,113.832452557332
0.93,0.19489373900994,0.0079570321250851,1.91097978050038,-0.403449235677705,-0.0516830591294609,-0.188084409945468,-0.0376859312813768,-1.9527403252439,2.91422980952927,110.730109906811,113.832452557332
0.94,0.147423858090178,0.0163239320633004,3.92862706828229,-0.812516265943927,0.0681929926040611,-0.131719324519611,2.85524924387668,-2.81812793879295,-2.55359550049406,111.727728874188,113.832452557332
0.95,0.14202710645524,0.0238032850912442,3.84761243695334,-1.18891825416684,0.136409202008414,-0.0461608595740039,3.98802435531563,0.559740852090079,-1.73104632286753,112.697375845935,113.832452557332
0.96,0.135088322706519,-0.0957557977361786,3.86398069409296,4.79231792284176,0.0465704971081442,0.158900020550197,6.00336484572683,-1.36244941447553,-0.901729814815932,113.566577470355,113.832452557332
0.97,0.159843719839319,0.0733698854832104,2.3087269296284,-3.67035307517523,0.0837740096689633,0.154644981075606,-3.50973705747084,2.54626344266566,-0.0661412063717577,114.41881857526,113.832452557332
