t,iq,id,vq,vd,ia,ib,va,vb,theta_e,omega,r
0,0,0,0,0,0,0,0,0,0,0,0
0.01,0.000802093604055361,0.000458437693299569,-0.0393309314504285,-0.0229585614053122,0.000907617334380289,0.000172482006704369,-0.044816418239989,-0.00809360035448863,-0.863758790734268,-0.001541569561181,0
0.02,0.000888064075495454,0.000507836441465208,-0.0436720067394814,-0.0254324475944006,0.00100507061856379,0.00019075823747728,-0.0497239933623536,-0.00903205665371185,-0.863770216589883,-0.00165279512229551,0
0.03,0.000916250248704713,0.000523967588988811,-0.0450642547141795,-0.026240291571092,0.00103698118438828,0.000196790690295217,-0.0513073801490808,-0.00932162522943745,-0.863781918521506,-0.00164806179170253,0
0.04,0.000899922178192986,0.000514875241852189,-0.0442936950771136,-0.0257849563881352,0.00101866289801273,0.000193086358110187,-0.0504258495538376,-0.00916673858556509,-0.863792829418433,-0.00155919702827106,0
0.05,0.000915941726129809,0.000524076590301533,-0.0450935956710837,-0.0262457717321362,0.00103682170149674,0.000196484802142922,-0.0513334515153779,-0.00933539821758685,-0.863803723625681,-0.00153453222346673,0
0.06,0.00091596658950772,0.000524223588197769,-0.0451162156892487,-0.0262531157094975,0.0010369381579884,0.000196378257515894,-0.0513555187099503,-0.00934396599988544,-0.863814263684526,-0.00147999891568281,0
0.07,0.000941621687456703,0.000539013286755757,-0.0463821970363699,-0.0269937827455248,0.00106605294791027,0.000201786614620189,-0.0527992677792524,-0.00960259500385343,-0.863824322230807,-0.00147875911745045,0
0.08,0.000915935589008168,0.000524461507871603,-0.0451551251396764,-0.0262650463183138,0.00103707303270069,0.000196156573419519,-0.0513930383765818,-0.00935914477429426,-0.863834177020155,-0.00137681565435674,0
0.09,0.000915282947994599,0.000524222489425097,-0.0451425276139694,-0.0262530657368823,0.00103642339681583,0.000195904660081021,-0.0513757662453385,-0.00935958880867037,-0.863843575052732,-0.00132685377688731,0
0.1,0.00091506103161361,0.000524216331328315,-0.0451501204608233,-0.0262527649538283,0.00103625243441515,0.000195755832040224,-0.0513814287482471,-0.00936428455017319,-0.863852618442251,-0.00127958237897569,0
0.11,0.000914854249319372,0.000524214045416411,-0.0451577564126084,-0.0262526533656708,0.00103609542522924,0.000195614244697558,-0.0513872438143317,-0.00936888179693674,-0.863861321950787,-0.00123410119346654,0
0.12,0.000914655499680809,0.000524211904415693,-0.0451651170994128,-0.0262525476343385,0.00103594455156401,0.000195478105966667,-0.0513928504014934,-0.00937331251514672,-0.863869698375032,-0.00119032945170172,0
0.13,0.000958216833146177,0.000549189766161132,-0.0472971400134548,-0.0275034380789672,0.00108529176133124,0.00020476984975171,-0.0538264946303711,-0.00980647925723415,-0.863878114124439,-0.00123308775234565,0
0.14,0.00101979280535112,0.0005848789187695,-0.0504592541055757,-0.0292907458062005,0.00115529372687371,0.000217616911367528,-0.0573917913243744,-0.0105007810830423,-0.863886146230786,-0.00131353806803021,0
0.15,0.000915861691307826,0.000525192420091755,-0.0452729188500004,-0.0263016371263897,0.00103750327916607,0.000195490821898926,-0.0515069304154923,-0.00940475496228565,-0.863893947996967,-0.0010671417098649,0
0.16,0.00091394022870837,0.000524219926232542,-0.0451941569163447,-0.02625293838552,0.00103541202102927,0.000194974919973913,-0.0514154798923548,-0.00939026201402056,-0.863901104358963,-0.00102627409096649,0
0.17,0.00091374733980026,0.000524202381205407,-0.0451987601859996,-0.0262520601528693,0.00103525529761701,0.000194855860084778,-0.0514184743875149,-0.00939356568518269,-0.86390798583389,-0.000990255731825947,0
0.18,0.000913589725397183,0.000524200431620588,-0.0452045497634039,-0.0262519618198217,0.00103513547335001,0.000194748121107677,-0.0514228750751232,-0.00939706005672594,-0.863914608598041,-0.000955646903597406,0
0.19,0.000913438513843899,0.0005241987980934,-0.0452101437536021,-0.026251875142247,0.00103502067321894,0.000194644559403362,-0.0514271323178246,-0.00940043128108767,-0.863920982472554,-0.000922339642045503,0
0.2,0.000913292698061601,0.000524197229793394,-0.0452155119519111,-0.0262518102538248,0.00103490997051102,0.000194544701784908,-0.0514312298122498,-0.00940365156073888,-0.86392711681255,-0.000890284105086339,0
0.21,0.000913152778788757,0.000524195720391705,-0.0452206979531517,-0.0262517236006386,0.00103480374376463,0.000194448868799254,-0.0514351725012102,-0.00940678186976043,-0.863933020619959,-0.000859433236454431,0
0.22,0.000913017847834719,0.000524194267619297,-0.0452256742251484,-0.0262516587284166,0.00103470130272928,0.000194356463231889,-0.0514389678072814,-0.0094097707747835,-0.863938702558349,-0.000829741763694403,0
0.23,0.000912887980945325,0.000524192869353797,-0.0452304618886576,-0.0262515938615994,0.00103460270536024,0.000194267527129636,-0.0514426177227913,-0.00941264812698498,-0.863944170965432,-0.000801166115972891,0
0.24,0.000912763061705253,0.000524191523553495,-0.0452350717752388,-0.0262515289996721,0.00103450786347637,0.00019418197801145,-0.0514461305555746,-0.0094154205530294,-0.863949433866272,-0.000773664359878019,0
0.25,0.000912642799076199,0.000524190228253122,-0.0452395052139708,-0.0262514641421946,0.00103441655609276,0.000194099620254385,-0.0514495073851986,-0.00941808852337948,-0.863954498983445,-0.000747196137879653,0
0.26,0.000921206130143731,0.000529121149206645,-0.0456650944556408,-0.0264984008357416,0.00104413152070555,0.000195906335327011,-0.0519335480840279,-0.00950645474917895,-0.863959346458758,-0.000739065883706832,0
0.27,0.000887481486144943,0.000509875953034904,-0.0440374737646109,-0.0255345968340695,0.00100598909683889,0.000188634071086198,-0.0500699921967072,-0.00918208105327699,-0.863964154653769,-0.000647323179770579,0
0.28,0.000878470646909839,0.000504619277073274,-0.043465344435209,-0.0252713357536858,0.000995724063388623,0.000186774949779121,-0.0494640037164563,-0.00901048910910332,-0.863968699911383,-0.000605925400563948,0
0.29,0.00091163429138387,0.000523867286090199,-0.045227900339711,-0.0262352888932465,0.00103344350888948,0.000193671186800433,-0.0514303516919396,-0.00942190412254015,-0.863972926129486,-0.000649771248463517,0
0.3,0.000908873965724947,0.000522379084533343,-0.0451013825900764,-0.0261607637549208,0.00103037872074193,0.000193006438682029,-0.0512857804378876,-0.00939622246724748,-0.863976618439253,-0.000625179523118075,0
0.31,0.000911967461371562,0.00052415417606717,-0.0452597467946993,-0.0262496461086637,0.00103388466943537,0.000193661408638038,-0.0514639653892807,-0.00943127070766698,-0.863980650929001,-0.000610428267864214,0
0.32,0.000911928848432033,0.000524182066100234,-0.0452657569055423,-0.0262510492222688,0.00103387417257662,0.000193611100670135,-0.051469483598849,-0.0094339064850909,-0.863984542702061,-0.000590198168056503,0
0.33,0.000911840873541771,0.000524181577612112,-0.0452690733403829,-0.0262510293968854,0.00103380768104382,0.00019355046779621,-0.0514720280054657,-0.00943588249702474,-0.863988288402148,-0.000570626475837534,0
0.34,0.000911755343341662,0.000524180662961053,-0.0452722220484607,-0.0262509862897635,0.00103374274412448,0.000193491892606253,-0.0514744284334785,-0.00943777451718261,-0.863991893339387,-0.000551788581307846,0
0.35,0.000911673206714957,0.000524179775418729,-0.045275260156563,-0.0262509214439941,0.00103368037881516,0.00019343564111225,-0.0514767293747778,-0.00943961820091773,-0.863995362800793,-0.000533658598331667,0
0.36,0.000911593962940163,0.000524178921080099,-0.0452781731328324,-0.0262508783328525,0.00103362020933268,0.000193381378195284,-0.0514789480570473,-0.00944137079204032,-0.863998701877371,-0.000516209951667622,0
0.37,0.000911517495603193,0.000524178098815397,-0.0452809652977,-0.0262508569507752,0.00103356214740366,0.000193329024005118,-0.0514810878067397,-0.00944303484989475,-0.864001915469008,-0.000499417036732378,0
0.38,0.00091144407259325,0.000524177307423241,-0.0452836597555907,-0.0262508138318735,0.00103350639691254,0.000193278748505112,-0.0514831380099832,-0.0094446581907874,-0.864005008291963,-0.000483255210704438,0
0.39,0.000911373443550205,0.000524176545745964,-0.0452862534264956,-0.0262507707099298,0.00103345276763405,0.000193230385261374,-0.0514851104802296,-0.00944622205501438,-0.864007984884236,-0.000467700756848662,0
0.4,0.000911305608474057,0.000524175812668504,-0.0452887553171588,-0.0262507275844513,0.0010334012597208,0.000193183930569862,-0.0514870121065074,-0.00944773206832805,-0.864010849614072,-0.000452730849719631,0
0.41,0.000911239967760565,0.000524175107118047,-0.0452911441821272,-0.0262507061819655,0.00103335141734698,0.000193138991489248,-0.0514888408803098,-0.0094491576968669,-0.864013606685391,-0.00043832352166543,0
0.42,0.000911177138542015,0.000524174428061436,-0.0452934592268369,-0.0262506630487823,0.00103330370995149,0.00019309596535309,-0.0514905984343818,-0.00945055723770201,-0.86401626014414,-0.000424457630593533,0
0.43,0.000911116387267013,0.000524173774505193,-0.0452956718731597,-0.0262506387251276,0.00103325757983325,0.000193054372503319,-0.0514922893986401,-0.00945188110403499,-0.864018813883974,-0.000411112828944958,0
0.44,0.000911058098244718,0.00052417314549166,-0.0452978090045872,-0.0262505955849769,0.00103321331936816,0.000193014459334343,-0.051493909817555,-0.00945317517470094,-0.864021271652731,-0.000398269533834017,0
0.45,0.000911001887171019,0.000524172540100424,-0.0452998589153714,-0.0262505741614818,0.00103317063642903,0.000192975973233271,-0.0514954771443549,-0.00945440083956832,-0.864023637056434,-0.000385908898312858,0
0.46,0.000910948021929712,0.000524171957444834,-0.0453018422374018,-0.0262505310137687,0.00103312973484577,0.00019293908522307,-0.0514969788911134,-0.00945560435379425,-0.864025913566911,-0.000374012783715078,0
0.47,0.000910896001806974,0.000524171396671412,-0.0453037407405834,-0.0262505095804562,0.00103309023395354,0.000192903467325522,-0.051498429433724,-0.00945674067442727,-0.864028104524395,-0.000362563733037021,0
0.48,0.000910845844329177,0.000524170856959005,-0.0453055620397251,-0.0262504881422275,0.00103305214718435,0.000192869128205325,-0.0514998204885916,-0.00945783109827242,-0.864030213144164,-0.00035154494532084,0
0.49,0.000910797665911641,0.000524170337517075,-0.045307318307898,-0.0262504666984309,0.00103301556316759,0.000192836140846046,-0.0515011613411966,-0.00945888337208236,-0.864032242520569,-0.00034094025099752,0
0.5,0.000910751233723724,0.000524169837584966,-0.0453090040972725,-0.0262504452499625,0.00103298030493869,0.000192804351537781,-0.0515024478768812,-0.0094598938047458,-0.864034195631448,-0.000330734088163406,0
0.51,4.5948227174007,-0.0394335016345968,10.2603100389366,1.9814897759781,-0.540709014260885,4.56306745153846,0.849769569313009,10.4152847059732,0.109364880094939,33.6882310862581,622.995181019632
0.52,4.61720293680439,-0.018124156314709,9.14296620382921,0.922168802981217,-2.21229094197251,4.05273490778062,-3.538048002645,8.48094585742267,0.495746187612135,71.7962945303805,622.995181019632
0.53,4.57341779743335,-0.0482344148100839,11.3339957209845,2.43877007465807,-4.22039357596894,1.76259892561305,-9.4483595958442,6.71830033773138,1.16463110721517,111.052338095715,622.995181019632
0.54,4.3638285611449,0.0263516768925429,11.7783196741899,-1.29531514577863,-3.70844100553678,-2.30025203627611,-9.28211578138528,-7.36539084470408,2.13202902293941,153.073875418373,622.995181019632
0.55,4.10941399279841,0.015617495859569,7.90185199548686,-0.751496992957314,1.00876602409886,-3.9837066130688,2.6966020930874,-7.4654102258724,-2.88978251299164,189.842991033778,622.995181019632
0.56,3.78639708506418,-0.00842008884948475,9.54102290755435,0.460351489405973,3.71417737281472,0.736043631145545,9.45160447315338,1.3821050970683,-1.37738344810745,222.749650981894,622.995181019632
0.57,3.55046751462284,0.0527726722621833,6.52486287130543,-2.60988394032268,-1.26591095039445,3.31754035288212,-4.84080772251895,5.09430174458632,0.379390437672118,255.783185713151,622.995181019632
0.58,3.24685110732256,0.0365005817916737,9.18057441948799,-1.78521939960542,-2.31659457247186,-2.27525031422628,-5.21194100093384,-7.76566970578002,2.35843225560162,284.036127843,622.995181019632
0.59,2.99507350398944,0.00935321917189347,9.19393921294136,-0.4330206820945,2.95236304263948,-0.504088525424864,9.13912158120757,-1.09200818966179,-1.7367834305758,311.987921462067,622.995181019632
0.6,2.75400958347545,0.0298192468399527,10.1707657323714,-1.4627729654586,-1.62277872257581,2.22531957051385,-7.2538085222258,7.27780476889435,0.64090502998267,337.120228030804,622.995181019632
0.61,2.60281131679736,0.0964925373511609,7.428305696692,-4.78933743045048,0.0511411070603645,-2.60409718478046,5.20254048549379,-7.14500182246435,-3.08490100950009,359.968299851413,622.995181019632
0.62,2.37637253351412,-0.0187090076837089,8.85665563830398,0.972125083101161,0.826607120958019,2.22805231370144,4.05464782045732,7.93380156827462,-0.363131868601896,381.969988770592,622.995181019632
0.63,2.23312016420129,0.0120231366992624,7.00936511505259,-0.573691161395944,-1.32735971408394,-1.79585255881586,-3.67269701333709,-5.99763432638276,2.51047183942208,402.226417747442,622.995181019632
0.64,2.02218691224389,0.0349977311146927,9.38945059262057,-1.72758164549824,1.41502630248734,1.44504855022337,5.19714621049144,8.00849499218796,-0.757596389357017,420.617602263683,622.995181019632
0.65,1.90690883639293,0.0405560702937912,7.50022678938696,-1.98998722102124,-1.33309628903578,-1.36411157509573,-3.67441492286586,-6.83462698372679,2.38895777695146,437.593781417095,622.995181019632
0.66,1.71180626501793,0.0700275414987863,10.0607527034701,-3.46910495266621,1.05972283991566,1.34616939798975,3.08348979283785,10.1855547139299,-0.626009805211786,453.506249274846,622.995181019632
0.67,1.61185123537422,0.0386684717152423,8.39393579075694,-1.90147500451019,-0.644259135989398,-1.47800196934117,-1.40779983482195,-8.49069283846746,2.7545125434413,468.315095208656,622.995181019632
0.68,1.53331916458795,0.00279265634477266,6.16162447960204,-0.107330154857869,0.0704825674711321,1.53170090654306,0.164796519856014,6.16035535475156,-0.0441621313596687,481.993494514452,622.995181019632
0.69,1.3818937034641,0.0269941606428986,8.00205036867163,-1.32299514003964,0.506974814566837,-1.2858209166822,4.30105001711053,-6.87634314106268,-2.74649441557329,494.692442304647,622.995181019632
0.7,1.26192091791823,-0.0570862614694235,8.69251305830023,2.88554406650831,-1.04126455054138,0.71517227303217,-5.19602971980412,7.54237515504192,0.923756960187979,506.441469989837,622.995181019632
0.71,1.19302008029179,0.0561087292447296,7.24994331234433,-2.78415161764717,1.19025434328591,-0.098689917245449,7.34477147647673,2.52339260135783,-1.60652587396956,517.268399396525,622.995181019632
0.72,1.12362504210909,0.0679623126526257,6.19329041068381,-3.37765824117533,-0.934431857871324,-0.627685601388859,-2.87395996227851,-6.44249760888336,2.222707169096,527.301827275816,622.995181019632
0.73,1.08111259712538,0.0266713749576104,4.12140391676047,-1.30844385548284,0.199036379283767,1.06296769923969,-0.633246723775359,4.27749858619113,-0.160437201535948,536.557385798243,622.995181019632
0.74,0.948313006575007,-0.0274776241873023,6.87009170715973,1.40299510256921,0.605624253819352,-0.730254641516273,3.12520847217927,-6.27691224472965,-2.47818705843819,545.140382206594,622.995181019632
0.75,0.884409619684154,0.00155865077827433,6.43120388578676,-0.0504667892077067,-0.884143769098561,0.0217393731811451,-6.43068090715627,0.0962984304517027,1.54797558900623,553.133637644298,622.995181019632
0.76,0.816631534255939,-0.0275374047030958,6.44466887194294,1.40595080301325,0.47408991304985,0.665495398739448,5.0310117716684,4.26607255948817,-0.652698692674278,560.564829802963,622.995181019632
0.77,0.720193090679977,0.0734861621405746,8.1433975642377,-3.67156133362549,0.171142133925989,-0.703412165010378,6.1793599642332,-6.45064314221754,-2.80124229563693,567.393927829035,622.995181019632
0.78,0.712257786107623,-0.00186999564305235,5.6580589074956,0.0956677148076747,-0.699833235658416,0.132469215376665,-5.5385198045766,1.16085368873928,1.38109734909444,573.695174827931,622.995181019632
0.79,0.590592122267227,-0.0333055864847809,9.02754347009884,1.66966259313929,0.343198640488495,0.481791459183381,6.94656304720649,6.00246416987541,-0.675292857346134,579.540033091273,622.995181019632
0.8,0.582259752745263,0.000975660984704974,6.93956730352514,-0.0417005300465785,0.253042896245555,-0.524401243554011,3.0638408231394,-6.2267337107689,-2.69033730989027,584.970786756487,622.995181019632
0.81,0.532089885763686,0.0018211360412352,7.16939491707392,-0.0778862564705177,-0.531631559438775,-0.022155091450706,-7.1586044822217,-0.400838637144317,1.61586859354042,589.884805624201,622.995181019632
0.82,0.478886995751198,0.0427647853793078,7.72172057631473,-2.12354988509395,0.193940875010274,0.439941494483523,0.462349918508518,7.99504004530434,-0.326140705845735,594.445819265349,622.995181019632
0.83,0.421723797827626,-0.00225649035456782,8.62373402991054,0.131504087795771,0.333213011411889,-0.258505594579106,6.70415653991987,-5.42589780884175,-2.23595460554344,598.677952834811,622.995181019632
0.84,0.42493066194143,0.0166203166592336,6.62361689149235,-0.837632729832157,-0.360939162124373,-0.224867124384136,-5.01029549055198,-4.41258069758541,2.16705327293536,602.626533899089,622.995181019632
0.85,0.387849836199965,0.00256346307650557,6.76667111620806,-0.131046186759073,-0.117590336698584,0.369603273116456,-2.21869592133472,6.39393458729765,0.314635805958252,606.240517091946,622.995181019632
0.86,0.360822379306488,0.0111104867932239,6.53244247194577,-0.551045107250403,0.36085330673601,0.010056010285629,6.48891720405049,0.932957061435925,-1.51215383328335,609.586339066984,622.995181019632
0.87,0.298726947945723,0.0221022075048756,8.17247881822192,-1.09420068964462,-0.0733627495752139,-0.290420736140379,-0.333698137951128,-8.2386485989046,2.96801385895355,612.700727861256,622.995181019632
0.88,0.302914133699647,0.0305768373141045,6.58630890650109,-1.51527464028861,-0.269406934682509,0.141816144779483,-6.6743820502888,1.06214240765544,1.18685298075074,615.597697706835,622.995181019632
0.89,0.230034627738112,0.00460040563396046,8.96374413451125,-0.240771569083269,0.128755914227411,0.19068038242586,4.66448671167513,7.65827941342373,-0.573921654696078,618.255439996986,622.995181019632
0.9,0.250213067748354,-0.0113338273566005,6.77960821972849,0.563264976997448,0.191528855192253,-0.161405491056955,4.59912868606362,-5.01282060085425,-2.31631542430355,620.66142578632,622.995181019632
0.91,0.234316158534704,-0.0359202520092818,6.50994027044815,1.80484856729298,-0.161233612659802,-0.173775857942178,-6.22156331501029,-2.63228999028986,2.24150146508613,622.86467294081,622.995181019632
0.92,0.208208282491716,0.0239665471344559,6.81420919077534,-1.18708837661282,-0.0849356333609522,0.191601206847118,-4.47888792298821,5.27088120553354,0.53186722786308,624.920926854858,622.995181019632
0.93,0.180534585019577,-0.0050654037055663,7.26811668459751,0.242770564903747,0.163747702775582,0.0761911053772738,6.76930879275501,2.65723844553667,-1.16334597813901,626.831086656867,622.995181019632
0.94,0.220991585877431,-0.0145893870435574,4.40422813022597,0.72258858293279,0.0784565299070046,-0.207110367094165,0.594370175137762,-4.42335661892248,-2.84540363937324,628.52904338329,622.995181019632
0.95,0.179227403517577,-0.0273726525713151,5.67728825354299,1.37245487521538,-0.170395751133427,-0.0619436217549279,-5.83613556605657,0.233999899421323,1.76791687726041,630.151025581314,622.995181019632
0.96,0.179632317779524,0.0265643460139409,4.90749549576099,-1.31876817367519,-0.1335584909494,0.123026678266591,-4.79905878628964,1.67083700657759,0.973238897972123,631.638901658774,622.995181019632
0.97,0.128510749054914,0.0281389278470598,6.75049577398874,-1.41234589600765,0.102241848224208,0.08278536316726,3.11332732494383,6.15395052729282,-0.674608162034564,633.047316945468,622.995181019632
