t,iq,id,vq,vd,ia,ib,va,vb,theta_e,omega,r
0,0,0,0,0,0,0,0,0,0,0,0
0.01,0.000471201794376851,0.000268164778485236,-0.0227861646590505,-0.0134176057804208,0.000466150365368766,-0.000276852517255246,-0.0225335525457683,0.0138376462743938,-1.58933256192302,-0.00142201285325346,0
0.02,0.000555172181636334,0.000314930879545934,-0.0269193793560092,-0.0157575537421414,0.00054923586335996,-0.000325173148574205,-0.0266225035975166,0.0162541006225945,-1.589343774823,-0.00162204448566267,0
0.03,0.000587096735986425,0.000332870046453688,-0.0284808855405381,-0.0166551396739175,0.000580818136859995,-0.00034370821509891,-0.0281668901265443,0.0171808270851585,-1.58935565469803,-0.00165720669027829,0
0.04,0.000575113510429194,0.000326179796875319,-0.0279359984229685,-0.0163203897438847,0.000568957298743455,-0.000336803209566603,-0.0276281174841148,0.016836337296584,-1.58936704338864,-0.00155893638243481,0
0.05,0.000589237998074715,0.000334393483471034,-0.0286422362244895,-0.0167313554388819,0.000582922970309144,-0.000345284275415135,-0.0283264092940728,0.0172606630019339,-1.58937820908904,-0.00154276990094328,0
0.06,0.000590907032507339,0.000335506648953192,-0.0287505300962718,-0.0167870590954249,0.000584567268342384,-0.000346434613370479,-0.0284334612470637,0.0173186782232839,-1.58938907629173,-0.00148960727675132,0
0.07,0.000602000065909085,0.000342098406255367,-0.0293092502351166,-0.0171168801798871,0.000595532182101895,-0.000353237623984139,-0.0289857703930588,0.0176591293997799,-1.58939941075405,-0.00146850891040716,0
0.08,0.000592096182049188,0.000336549412962615,-0.028860859593248,-0.0168392369723957,0.000585729702299211,-0.000347511312056433,-0.0285424454769328,0.0173734833717937,-1.58940957473885,-0.00138325648656659,0
0.09,0.00059040927816117,0.000335794985438079,-0.0288051426400347,-0.0168014849121311,0.000584053778813847,-0.000346731266887513,-0.0284872731712369,0.0173349763493534,-1.58941924611478,-0.0013261125946475,0
0.1,0.000589893992894508,0.000335691293239007,-0.0288045729108155,-0.0167962897168669,0.000583537297986092,-0.000346623411022097,-0.0284866395028086,0.0173300357375408,-1.58942852384158,-0.00127471277316835,0
0.11,0.000589555093533458,0.000335675965034082,-0.028811504530882,-0.016795527414482,0.000583195654507179,-0.000346606968159541,-0.0284934297022223,0.0173296566113747,-1.58943743464589,-0.00122582910791239,0
0.12,0.000589251526562777,0.00033567267805122,-0.0288192165055178,-0.016795364611431,0.000582889234679704,-0.000346603012741018,-0.0285009950305046,0.017329881554528,-1.58944599455261,-0.00117893869441192,0
0.13,0.000613764265494868,0.000349817472871255,-0.03001646404441,-0.0175030988649861,0.000607130873769654,-0.000361207613485903,-0.0296846832948452,0.0180600709104802,-1.5894544569044,-0.00120947734119759,0
0.14,0.000629643931731615,0.000359152251901761,-0.0308805196425274,-0.0179701620490781,0.000622830566965733,-0.00037084215734689,-0.0305397219842254,0.0185434246726129,-1.58946268052342,-0.00121454358126447,0
0.15,0.00059417406367192,0.00033885521990292,-0.029119339955104,-0.0169545966007738,0.000587742941177752,-0.00034989128753312,-0.0287976655827564,0.0174953926020428,-1.58947064464564,-0.00106187132068661,0
0.16,0.000588948823985135,0.000336099633692728,-0.0288878301155782,-0.0168167264650203,0.000582567531669336,-0.000347042867793817,-0.02856864375113,0.0173534322831779,-1.58947795386359,-0.00100644232111313,0
0.17,0.000588002817484538,0.000335724682804599,-0.0288606099148064,-0.0167979679015728,0.000581626277191282,-0.000346654366328499,-0.0285416578419015,0.0173343675371418,-1.58948492724082,-0.000966077762999176,0
0.18,0.000587669402185053,0.000335672852727953,-0.028862027862558,-0.0167953736364718,0.000581291569196466,-0.000346600204708781,-0.0285430080344447,0.0173319912379793,-1.58949161940884,-0.000929120780729893,0
0.19,0.000587430343455865,0.000335664911236055,-0.0288672816700109,-0.0167949734132443,0.000581050472869108,-0.000346591530517365,-0.0285481569991686,0.0173318728046957,-1.58949804728088,-0.000893874934997927,0
0.2,0.000587212021367403,0.000335662961539511,-0.0288728703235281,-0.0167948854670118,0.000580830085311638,-0.000346589084918643,-0.0285536392985018,0.0173320656985937,-1.58950422208316,-0.000860052274507268,0
0.21,0.00058700410404965,0.000335661859175914,-0.0288783256197691,-0.0167948242717344,0.00058062016911838,-0.000346587537412278,-0.0285589919736891,0.0173322759719147,-1.58951015389012,-0.000827565644095538,0
0.22,0.000586804408453768,0.000335660904643188,-0.0288835669734267,-0.0167947814488647,0.000580418551377046,-0.000346586153653072,-0.028564134444073,0.0173324940064746,-1.58951585228049,-0.00079635807239804,0
0.23,0.000586612847490857,0.000335660001727911,-0.0288886150454554,-0.0167947261019204,0.000580225143625417,-0.000346584841425844,-0.0285690877861648,0.017332689553253,-1.58952132644099,-0.000766378607800221,0
0.24,0.000586428693339201,0.000335659136139786,-0.0288934570515794,-0.0167946847513223,0.000580039215374721,-0.000346583578193065,-0.0285738385686822,0.0173328891342053,-1.58952658519531,-0.000737578837092834,0
0.25,0.000586251756936315,0.000335658304754867,-0.0288981062824664,-0.0167946434059879,0.000579860574712802,-0.000346582362441551,-0.0285784001951171,0.0173330792456143,-1.58953163701993,-0.000709912327437093,0
0.26,0.0005910886513742,0.000338529175908665,-0.029142478554758,-0.0169382844767633,0.000584641159645299,-0.000349546150276857,-0.0288199547020256,0.0174814115077555,-1.58953643500785,-0.000699146120798209,0
0.27,0.000578296115239565,0.000331219744074424,-0.028541646324554,-0.0165725695488064,0.000571986197244684,-0.000342001032056139,-0.0282259988843875,0.0171046374806514,-1.58954124215367,-0.00063369767751172,0
0.28,0.00057788790459256,0.000331077037845314,-0.0284555766666319,-0.016565424550615,0.000571579201862917,-0.000341853259836085,-0.0281400016913587,0.0170960065156461,-1.58954572160429,-0.000608386658083499,0
0.29,0.000584499275024274,0.000335033868733255,-0.028861666778302,-0.0167633983279586,0.000578113765725507,-0.00034593578823381,-0.0285422357007451,0.0173016795117312,-1.58954994403668,-0.00060620901841504,0
0.3,0.000577942678385551,0.000331466823532949,-0.0285569070763691,-0.0165849231026703,0.000571623950602711,-0.00034224852622011,-0.0282408133045959,0.0171176248347961,-1.589553632891,-0.000566088537577565,0
0.31,0.000584279776670919,0.000335085692331159,-0.0288709045028268,-0.0167659974723413,0.000577890703547851,-0.000345987880401381,-0.0285512914903173,0.0173046685113825,-1.58955754723799,-0.0005647150503148,0
0.32,0.000585060111880404,0.000335576277391234,-0.0289182503027916,-0.0167905486385291,0.000578660373295349,-0.000346495230615021,-0.0285981021194461,0.0173302129047351,-1.58956137038787,-0.000546610587725358,0
0.33,0.000585060364015538,0.000335642335155446,-0.0289278272533665,-0.0167938418378019,0.00057865810998409,-0.000346563411860276,-0.0286075517749298,0.0173337905467452,-1.58956505197052,-0.00052684832743058,0
0.34,0.000584954688838395,0.000335650799522356,-0.0289319515226264,-0.0167942669051276,0.000578551068406862,-0.000346571938360997,-0.0286116060119609,0.0173343941689518,-1.58956858993713,-0.000507529009580369,0
0.35,0.000584838244713355,0.000335651467369215,-0.0289351975213631,-0.0167943006129087,0.00057843345429164,-0.000346572386353482,-0.028614791887224,0.0173345860616256,-1.58957198886341,-0.000488922636973018,0
0.36,0.000584724303445286,0.000335651096007027,-0.0289382153789029,-0.0167942819413037,0.000578318408454113,-0.00034657176418946,-0.0286177529621483,0.0173347174951663,-1.58957525406799,-0.00047104174362991,0
0.37,0.000584614334729826,0.000335650601751325,-0.0289410887555574,-0.0167942684735975,0.000578207381314597,-0.000346571018726235,-0.0286205717105805,0.0173348477605038,-1.58957839079163,-0.000453863513662098,0
0.38,0.000584508833559586,0.000335650108246943,-0.0289438553142047,-0.0167942410599341,0.000578100863704863,-0.000346570285885943,-0.0286232860609014,0.0173349585607985,-1.58958140408708,-0.00043736110688797,0
0.39,0.000584407523340404,0.000335649631590956,-0.0289465142085343,-0.0167942136409947,0.000577998577093128,-0.000346569579453143,-0.0286258948210518,0.017335063955415,-1.58958429881049,-0.000421508044230364,0
0.4,0.000584310229449297,0.000335649173311503,-0.0289490691459315,-0.0167941862168833,0.0005779003452403,-0.000346568900443948,-0.028628401616927,0.0173351641458397,-1.589587079628,-0.000406278790405804,0
0.41,0.000584216558875785,0.000335648732985625,-0.028951512437925,-0.0167941712614395,0.000577805773659094,-0.000346568243706394,-0.0286307984493638,0.01733527158581,-1.58958975102112,-0.000391648801074678,0
0.42,0.000584126773772113,0.000335648309949182,-0.028953868745859,-0.0167941438249885,0.000577715122974635,-0.000346567616051415,-0.0286331103695787,0.0173353619151823,-1.58959231729604,-0.000377594495749174,0
0.43,0.000584040379157971,0.000335647903530146,-0.0289561244202848,-0.0167941303080491,0.000577627896872295,-0.000346567009950541,-0.028635323162707,0.0173354613902856,-1.58959478258912,-0.000364093221547019,0
0.44,0.000583957520765154,0.000335647513077263,-0.0289582973252838,-0.0167941028597317,0.000577544239692453,-0.000346566429838787,-0.0286374551443178,0.0173355426133702,-1.58959715087395,-0.000351123216929745,0
0.45,0.000583877820031615,0.000335647137964505,-0.0289603787696912,-0.0167940893271206,0.000577463771628143,-0.000346565870226187,-0.0286394970351648,0.0173356333712984,-1.58959942596761,-0.000338663576659911,0
0.46,0.000583801204301697,0.000335646777590008,-0.0289623749264859,-0.0167940743310674,0.00057738641877626,-0.000346565331306225,-0.0286414552326951,0.0173357185075578,-1.58960161153735,-0.000326694218111059,0
0.47,0.000583727615372267,0.000335646431375459,-0.0289642923282155,-0.0167940607819223,0.000577312121733479,-0.000346564813480629,-0.0286433361525474,0.0173358011546451,-1.58960371110556,-0.000315195848900071,0
0.48,0.000583657097002207,0.000335646098765614,-0.0289661421740627,-0.0167940333093597,0.000577240923087838,-0.000346564319009214,-0.0286451512223603,0.0173358662515608,-1.58960572805682,-0.000304149935791664,0
0.49,0.000583589270630805,0.000335645779226164,-0.0289679142749056,-0.0167940197458581,0.000577172443228546,-0.000346563842149356,-0.0286468896750346,0.0173359415264632,-1.58960766564175,-0.000293538674824055,0
0.5,0.000583524063604009,0.000335645472244612,-0.0289696133511061,-0.0167940061750901,0.000577106608441286,-0.000346563382856065,-0.0286485564376989,0.0173360132428864,-1.58960952698325,-0.000283344962614723,0
0.51,2.63666043599878,0.0300957258192968,1.21191354799364,-1.50434066321533,-0.0967373399582628,2.63505709511799,-1.56088161126321,1.13816689217094,0.0481090276118364,14.7448904032144,257.75217205605
0.52,2.44292256317657,-0.0565022458685641,2.86101765211179,2.83062765111075,-0.574642157090585,2.37504727211053,2.15757043528602,3.39746445481151,0.214262917411246,30.4341836940303,257.75217205605
0.53,2.32679924218954,0.00522968951715735,1.06357491197813,-0.25696166486655,-1.09515523707755,2.05296299767139,-0.729147100111854,0.815821915002747,0.492296544161295,45.2762374385291,257.75217205605
0.54,2.18393659445375,-0.0100508177997213,0.942249256792111,0.50899603806217,-1.68479257054256,1.38965969279435,-0.398442042430897,0.994059639816328,0.87649806160185,59.4724057002591,257.75217205605
0.55,2.01223541790114,0.0217042902759078,2.4421922265555,-1.07904507452762,-1.96457548165462,0.43589635253543,-2.61213391834104,-0.552627846713047,1.36324103581057,73.297825962578,257.75217205605
0.56,1.87021822880547,0.0374911701705791,2.48302639680465,-1.87010206484804,-1.75056302651379,-0.65928059382929,-1.61163982072602,-2.65806676146928,1.95102201280977,87.0223501603213,257.75217205605
0.57,1.76770094255934,-0.00197524150451744,1.10521257599256,0.104801749863282,-0.854498676025971,-1.54745033412192,-0.627022233443083,-0.916144837716485,2.6359462288169,99.5064380720046,257.75217205605
0.58,1.62772907604754,0.0247576945249429,2.51507416566771,-1.23195494339199,0.401106259972667,-1.57772895538477,1.84591325402286,-2.10616127112333,-2.87742787044216,110.302347470947,257.75217205605
0.59,1.5217774544714,0.0526192188060987,2.74242049878047,-2.62472130008018,1.33910302135441,-0.724829980978088,3.62435828803954,1.12874226249619,-2.03235654808095,120.188724414839,257.75217205605
0.6,1.47765812427946,0.00870667568785596,-0.0492768626440117,-0.426238170736959,1.33103219730092,0.641796407125271,-0.231644824400091,0.361175667388982,-1.11561435850976,129.972714783321,257.75217205605
0.61,1.32469244926915,-0.000493141388089008,2.55197770124396,0.0302628695022668,0.166681482478239,1.31416422555858,0.352069907662496,2.52775647739956,-0.126533220216245,139.695013393686,257.75217205605
0.62,1.24910051728147,0.00125466463596557,2.01455317281899,-0.0558048014338493,-0.99956441386476,0.749082544844948,-1.64673356554447,1.16181204421684,0.928678034200846,148.000132255277,257.75217205605
0.63,1.20593090958754,-0.0111693417559307,0.277143663425552,0.568117953837731,-1.06972201914928,-0.55685627826315,-0.504651743504974,0.380648443353045,2.04149589273226,155.603250002923,257.75217205605
0.64,1.10640493475534,-0.00334205831053214,1.22454593085357,0.172250350327828,0.0797896856687935,-1.10352918179158,-0.0872191108490809,-1.23352168471446,-3.07243479515303,163.458930029043,257.75217205605
0.65,1.05695673534827,0.0103872121858823,0.051960772127824,-0.513617572322322,1.0137913186867,-0.299153132576868,0.190493914189497,0.479807254108522,-1.84790937270303,170.41242376136,257.75217205605
0.66,0.990734154654059,-0.00563237671065528,0.174798617452641,0.290663939158213,0.534811410400779,0.834003983306215,0.338974245961677,-0.0116851514768228,-0.575889857039131,176.606854594553,257.75217205605
0.67,0.871574578168677,-0.0391380353251812,2.84559931229759,1.96220355370383,-0.617851902039994,0.615981378180043,-0.4767103425691,3.42351069541255,0.742039359398067,183.010138627544,257.75217205605
0.68,0.863696699319844,0.000818536765929578,0.316648553746501,-0.0349829396017328,-0.743952927683824,-0.438755854444243,-0.254795600792208,-0.19123104996278,2.10460227278174,188.58869214179,257.75217205605
0.69,0.780333244066349,0.0344701701743901,1.82856512654351,-1.71645376921458,0.245850387186272,-0.741394464200619,2.25536130855868,-1.09690898971541,-2.77725311493546,193.769642533576,257.75217205605
0.7,0.748981854906213,0.012452415421134,0.662489522564013,-0.619723621779967,0.731534243202415,0.16120338907989,0.501101102055049,0.756205937835977,-1.33727514504881,199.007474039235,257.75217205605
0.71,0.673391322362724,0.0365599868222585,2.13482760672595,-1.82287611105706,-0.0565117727156407,0.67201110497848,-2.09947019962207,1.86348896095486,0.138135201956377,203.445240345615,257.75217205605
0.72,0.635000756079936,0.0437422923719536,1.77000624166979,-2.18612244871073,-0.636494125079699,-0.00381799725928541,-1.60174480383054,-2.31224285915405,1.6455715033882,207.899019231991,257.75217205605
0.73,0.599110539640173,-0.0175345941291945,1.41929225415237,0.881694330539678,0.0434934446091843,-0.597786936102858,-0.819329691010333,-1.45618482777141,-3.09822255397279,211.969119166498,257.75217205605
0.74,0.570695969223687,0.0452203678135474,0.940129015025578,-2.25533602543796,0.572044110647595,-0.022456767949967,0.849565393590612,2.2909870786507,-1.53096121466467,215.670648909484,257.75217205605
0.75,0.524385951653283,-0.0312697433162203,1.32510577041592,1.56691011416795,-0.0646629726110509,0.52132247516435,1.47917307540948,1.42237815705073,0.0638454934735174,219.340402863512,257.75217205605
0.76,0.457769478041358,0.0555622653357221,3.01767446566378,-2.77421627416778,-0.461113657674882,0.00377558752862743,-2.68685527325099,-3.09571378799461,1.68339378515902,222.495608930942,257.75217205605
0.77,0.439198610969721,-0.039334745460293,2.24788676364794,1.96889116558128,0.119362349882072,-0.424494136012252,-1.5223503197671,-2.57137644618454,-2.95680528799339,225.765698710222,257.75217205605
0.78,0.430143728259889,-0.00528380713647617,1.253388757696,0.269440190342801,0.412025660530111,0.123638184408775,1.27910335344729,0.0864638958791125,-1.2915548518139,228.516877906883,257.75217205605
0.79,0.390524956086684,0.0128516695639621,1.7918102298759,-0.643079569174709,-0.137918730176382,0.365586283390969,-1.28115211781469,1.40811380335425,0.393641766944956,231.317010517266,257.75217205605
0.8,0.333247514019296,-0.0203375579415256,3.33895695036253,1.02090471894875,-0.277646709931246,-0.185417977357699,-3.39870628816361,-0.799797179504416,2.09864405725965,233.794551477331,257.75217205605
0.81,0.358380565995372,-0.0271632220434208,0.849690625681149,1.36076362754348,0.246323578103747,-0.261723452493487,-0.524653366337285,-1.51604441049946,-2.46214682625641,236.178297015151,257.75217205605
0.82,0.357026049213614,-0.022231718752644,-0.253869709045612,1.11518539112746,0.219422902296803,0.282516263396333,0.668646882736186,-0.927900658455522,-0.722543649680287,238.370073413619,257.75217205605
0.83,0.327204755839808,0.00863232667238955,0.196104957748747,-0.426577819276429,-0.276434243888572,0.175275720263021,-0.387178087201065,-0.26555398536568,1.03208483749719,240.381793320328,257.75217205605
0.84,0.283645122750946,0.0207529295671465,1.33088748514669,-1.03705026268537,-0.114151811240459,-0.260489162416675,0.533881494788568,-1.60053281596417,2.80161222116141,242.344109492805,257.75217205605
0.85,0.249271502075867,0.00759466961479209,2.12634562323955,-0.37498424634224,0.246266496827349,-0.0393290388148792,2.15680791904235,0.10069009301338,-1.69870213108812,244.112029008178,257.75217205605
0.86,0.254499745422482,-0.0110176666454284,0.958144889024196,0.552014717503534,-0.0356519923432157,0.25223093553404,0.456472349068062,1.0071717188444,0.0971519887477109,245.809659221221,257.75217205605
0.87,0.201875998883242,-0.0128928922040944,2.80022065925474,0.649824960283433,-0.186517250803493,-0.0783036445333175,-2.85859745370457,-0.3031976536818,1.90449238846496,247.303625125957,257.75217205605
0.88,0.207183628361515,0.0368442749402518,1.73792721002581,-1.84376416750935,0.0829864179930627,-0.193379965057386,2.49526753444198,-0.439883193926988,-2.5602294660132,248.797840857119,257.75217205605
0.89,0.21722454415276,-0.010341926181963,0.53751977768302,0.522340462459579,0.137423139964546,0.168547733956326,0.747772754341407,0.0510193883494921,-0.731596290702336,250.128550139642,257.75217205605
0.9,0.179773220513187,-0.0179743131412611,1.70246829408493,0.898889053167628,-0.168818392359463,0.0643571064277243,-1.1203973598786,1.56560198589747,1.10693078542323,251.441015072227,257.75217205605
0.91,0.161238394844725,-0.0107020530405729,2.0258683398714,0.539809208263669,-0.0195243768703129,-0.160409328342253,-0.907782172894091,-1.88983280699517,2.954195578334,252.583488976355,257.75217205605
0.92,0.161973113823866,0.0222756893222569,1.37531199383896,-1.11540703492118,0.16337289918859,-0.00638684173090931,1.2600807553994,1.24411109786105,-1.47320033231534,253.708882410105,257.75217205605
0.93,0.106250445900772,-0.0273684184800382,3.64389179374872,1.37321658698282,-0.0657192926921279,0.0878587625240522,-0.115743685272842,3.89233536564277,0.390122985522796,254.683074882551,257.75217205605
0.94,0.131260158259566,0.0131750257535799,1.85809671398354,-0.660239233417469,-0.109624528297042,-0.0733844210005421,-1.01288109020298,-1.6918957240236,2.26073827145044,255.672088601865,257.75217205605
0.95,0.142020703175627,-0.00930812541313287,0.854729842526644,0.469899546957893,0.124291559941161,-0.0693406767820946,0.462314362411071,-0.858856284977469,-2.14512185474011,256.539287736957,257.75217205605
0.96,0.100244533664498,0.00901506944564468,2.47755805157039,-0.452186432683563,0.0346118433008448,0.094510625381701,0.203365238447204,2.51026075310826,-0.261363004281374,257.382411071083,257.75217205605
0.97,0.1336288516678,-0.0109423105313587,0.408131868093297,0.551610450924015,-0.132784096541837,-0.0185684642172589,-0.439017748721175,0.527360529078268,1.62803132068175,258.126098339954,257.75217205605
