t,iq,id,vq,vd,ia,ib,va,vb,theta_e,omega,r
0,0,0,0,0,0,0,0,0,0,0,0
0.01,0.000354513741425617,0.0001950452762263,-0.0171350331132803,-0.00975432781293775,0.000398299195487638,-7.12769493713286e-05,-0.0193560569302193,0.00375490758735458,-1.24489618711933,-0.0019615494873308,0
0.02,0.000500544501437468,0.000268763316491965,-0.0242592702535818,-0.013441006934754,0.000560243418893603,-9.43707041271306e-05,-0.0272855444389626,0.00496708418751094,-1.24491308958754,-0.00255720183995881,0
0.03,0.000571592054199752,0.000303974413636772,-0.0277550847432022,-0.0152019317814022,0.000638822286106736,-0.000104995272957761,-0.0311610149919274,0.00551675662519363,-1.24493227527502,-0.00267232154135436,0
0.04,0.000582453242774964,0.000309066720417772,-0.0283604087196454,-0.0154566034319774,0.000650740121408663,-0.000106354652356666,-0.0318159080614769,0.00556483302736051,-1.24495075102955,-0.00244224985485447,0
0.05,0.000597272174541224,0.000318516856408354,-0.0291490454278014,-0.0159292066416053,0.000667802485235091,-0.000110575218793807,-0.0327142338464158,0.0057606750841387,-1.24496779334871,-0.00225846242346323,0
0.06,0.000599954443151814,0.000321925690410637,-0.0293483277025263,-0.0160996898003331,0.000671433026963223,-0.000112956515115206,-0.0329575109765085,0.00585890952611033,-1.2449832720071,-0.00202770239390045,0
0.07,0.000602456706369949,0.000325832555990236,-0.0295302841767908,-0.0162950692282106,0.000675052581357409,-0.000115866086478986,-0.0331923504794372,0.00598622037385862,-1.24499684901566,-0.00182617769060033,0
0.08,0.000596459466518352,0.000324562609711473,-0.0292985841147169,-0.0162315648131229,0.000668962927120804,-0.000116590672697456,-0.0329524396762522,0.00600062053397077,-1.24500912581017,-0.00159502653768541,0
0.09,0.000591692965693271,0.000324102669828294,-0.029118755250618,-0.0162085625980283,0.000664298682895428,-0.000117687578546445,-0.0327746433869408,0.00603673419146917,-1.24501983119377,-0.00139620513555633,0
0.1,0.000587722605253639,0.000323935297113061,-0.0289709229061675,-0.0162001872247173,0.000660482476264961,-0.000118805875228279,-0.0326318493642242,0.00607641730146768,-1.24502917866371,-0.0012237376532356,0
0.11,0.000584332950212844,0.000323873694337892,-0.028845561924264,-0.0161971010281978,0.000657250404700603,-0.000119837690687919,-0.0325120440582528,0.00611387893226761,-1.24503734557548,-0.0010735210494192,0
0.12,0.000581402945351374,0.000323850415542256,-0.0287375540907493,-0.0161959452461085,0.000654466182583095,-0.000120757990896073,-0.0324093028009648,0.0061475807834517,-1.24504448314236,-0.000942431040714925,0
0.13,0.000595787783439101,0.000333273147642689,-0.0294572871928043,-0.0166671822042894,0.00067110918759685,-0.000125086098980019,-0.0332419498193164,0.00636392202972211,-1.2450509897921,-0.000923955769261157,0
0.14,0.000603545436948898,0.000338755449983177,-0.0298993409895037,-0.0169413496736418,0.000680212539091395,-0.000127801608041441,-0.033748455990485,0.00648240993994637,-1.24505697772697,-0.000874490027874866,0
0.15,0.000585353457455838,0.000329219461586851,-0.0290086365221144,-0.0164644491117406,0.000659924918640668,-0.000124592238121589,-0.0327519430647063,0.00631579788399533,-1.24506237117083,-0.00068078926323938,0
0.16,0.000577008637911323,0.000325776741410729,-0.0286278671597493,-0.0162922762385331,0.000650916685411573,-0.00012400371817524,-0.032336073082705,0.00627466499017136,-1.24506665902829,-0.000563034021758519,0
0.17,0.000572832545711276,0.000324533537165803,-0.0284438144220386,-0.0162301085440862,0.000646561913535997,-0.000124164544601423,-0.0321417822134788,0.00627477795379946,-1.24507023122479,-0.000481375697633857,0
0.18,0.00057046886906383,0.000324084341102192,-0.0283443246362213,-0.0162076412787398,0.000644178401229799,-0.000124497301607815,-0.0320403151135208,0.00628542618524025,-1.24507328129955,-0.000418772524803122,0
0.19,0.000568933530261398,0.000323921808761347,-0.0282826839490877,-0.0161995196347396,0.000642671452682667,-0.00012483630863523,-0.0319793000392109,0.00629754053281281,-1.24507591764894,-0.000367669039883713,0
0.2,0.000567810697427587,0.000323862800316291,-0.0282392626355388,-0.0161965565082783,0.000641588488842788,-0.000125141170389044,-0.0319371991625806,0.00630870086265397,-1.24507820994593,-0.000324490035718696,0
0.21,0.000566919283376525,0.000323841202824581,-0.0282056032123528,-0.0161954876764624,0.000640736782662209,-0.000125407232066995,-0.0319049548680393,0.00631852265324019,-1.24508020874688,-0.000287360271533037,0
0.22,0.000566177502213284,0.000323833146573547,-0.0281779653817952,-0.0161950798246693,0.00064003120583735,-0.000125638076977427,-0.0318786286348018,0.00632703563680913,-1.24508195397685,-0.000255156296776172,0
0.23,0.000565544298891321,0.000323830010805206,-0.0281545301822564,-0.0161949280228676,0.0006394300995608,-0.000125838697077811,-0.0318563673691948,0.00633443931917832,-1.24508347877468,-0.000227108867061113,0
0.24,0.000564997397538083,0.000323828679668932,-0.0281343587625163,-0.0161948526103355,0.000638911358844304,-0.000126013287159153,-0.0318372239241892,0.00634086483450837,-1.24508481138317,-0.000202633351793873,0
0.25,0.000564521646144824,0.000323828024895699,-0.0281168342987458,-0.0161948209459605,0.000638460264417706,-0.000126165642841404,-0.0318206033145318,0.006346479429893,-1.24508597619226,-0.00018125491604908,0
0.26,0.00056639126068049,0.000325194455823021,-0.028210707791014,-0.0162631551364482,0.000640668697803738,-0.000126862578910128,-0.0319314011099776,0.0063812124408989,-1.24508689683087,-0.000177659070697313,0
0.27,0.000561802960552731,0.000322539295952007,-0.0279955655509828,-0.0161303685040588,0.000635471894193933,-0.000125815879795059,-0.0316850740898558,0.00632428324132121,-1.24508798911459,-0.000133075609000959,0
0.28,0.000560822015507524,0.000322207289110966,-0.0279104041980344,-0.0161137753826105,0.000634436186898717,-0.000125815718364501,-0.0315990756225947,0.00633583770123725,-1.24508878850638,-0.000114527369528349,0
0.29,0.000562080536869923,0.000323242257716038,-0.0280152164072648,-0.0161655278333428,0.000635959634035157,-0.00012639395151356,-0.0317149332060808,0.00635135042414534,-1.24508938466464,-0.00011248219587286,0
0.3,0.000552766309095692,0.000318550835851086,-0.0275682955438708,-0.0159309078076314,0.000625633951739626,-0.000124929523825871,-0.0312164360433477,0.00627207011448703,-1.2450893648347,-5.76267696747312e-05,0
0.31,0.000558733128978656,0.000321922385029958,-0.0278559560951252,-0.016099525157444,0.000632365848619445,-0.000126214757066932,-0.0315429247264747,0.00633978706019898,-1.24508967972583,-8.79528582833778e-05,0
0.32,0.000561070196823259,0.000323139311323528,-0.0279700520370403,-0.0161603761242675,0.00063496937940163,-0.000126620170226719,-0.0316704902641048,0.00636094441602683,-1.2450901176759,-9.48169604993872e-05,0
0.33,0.000561925015857149,0.000323578503970089,-0.0280130961096671,-0.0161823458038299,0.000635919731237681,-0.000126763035227838,-0.0317182982417162,0.00636800015811236,-1.24509056765439,-9.27105219024288e-05,0
0.34,0.000562182075159021,0.00032373697093912,-0.0280273326201412,-0.0161902768750662,0.000636213928144868,-0.000126831185508204,-0.0317343213514776,0.0063709722533132,-1.24509098872115,-8.75238395774892e-05,0
0.35,0.00056220458651,0.000323794113812306,-0.0280301280434329,-0.0161931252504659,0.000636253492226458,-0.000126878362465842,-0.0317378788024857,0.00637278844990541,-1.24509136824415,-8.16093028774797e-05,0
0.36,0.0005621407927824,0.000323814689402225,-0.0280285868934333,-0.0161941586021901,0.000636199593432633,-0.000126918482888967,-0.0317367471814883,0.00637427128493331,-1.24509170473675,-7.58692615295165e-05,0
0.37,0.000562050455166745,0.000323822071823138,-0.0280255878321713,-0.0161945315465904,0.000636116329880879,-0.00012695457144922,-0.0317340232399501,0.00637559364754119,-1.24509200084231,-7.06163213381509e-05,0
0.38,0.000561957477626386,0.000323824697551725,-0.0280222962618289,-0.0161946525009034,0.000636029047777089,-0.000126986974877133,-0.0317309417686928,0.00637676970593672,-1.24509226049863,-6.59272530018924e-05,0
0.39,0.00056187016622268,0.000323825611176972,-0.0280191286182563,-0.0161947009896442,0.00063594659017599,-0.0001270159225797,-0.0317279547272486,0.00637783642750712,-1.24509248781993,-6.17880827051157e-05,0
0.4,0.000561791469497197,0.000323825911081877,-0.0280162444693619,-0.016194718886233,0.000635872101570764,-0.000127041514206214,-0.0317252266683143,0.00637878254961269,-1.24509268667916,-5.81531354137943e-05,0
0.41,0.000561721620314972,0.00032382599320925,-0.0280136707532727,-0.0161947251032458,0.000635805928835072,-0.000127064052608934,-0.0317227891431456,0.00637961748241934,-1.24509286057703,-5.49686757996843e-05,0
0.42,0.000561660153027947,0.00032382600001043,-0.0280113994497092,-0.0161947269173679,0.000635747675991192,-0.000127083823730365,-0.0317206368617768,0.00638035078522905,-1.24509301262055,-5.21820317201305e-05,0
0.43,0.00056160631094447,0.000323825982493363,-0.0280094068453519,-0.0161947286970923,0.000635696642105907,-0.000127101119765809,-0.0317187487380394,0.00638099427158448,-1.24509314554555,-4.97448067215652e-05,0
0.44,0.000561559259006868,0.000323825958709567,-0.0280076638644933,-0.016194715602835,0.00063565204149684,-0.000127116226546466,-0.0317170924613155,0.00638154326190126,-1.24509326175171,-4.76137229192033e-05,0
0.45,0.000561517989775452,0.000323825934859295,-0.0280061313511511,-0.0161947158713173,0.000635612921407768,-0.000127129473641811,-0.0317156399559021,0.00638203710410824,-1.24509336333987,-4.57505468136864e-05,0
0.46,0.000561481901025837,0.000323825912904747,-0.0280047890406051,-0.0161947161161492,0.000635578711670898,-0.000127141056779242,-0.0317143677274737,0.00638246965821501,-1.2450934521483,-4.41216897782248e-05,0
0.47,0.000561450352473753,0.000323825893313063,-0.0280036135716314,-0.0161947163402469,0.000635548805610218,-0.000127151182300164,-0.0317132536337051,0.00638284845305054,-1.24509352978416,-4.26977207160303e-05,0
0.48,0.000561422703832275,0.000323825876041516,-0.0280025804874744,-0.0161947150913364,0.000635522596409452,-0.000127160055934977,-0.0317122740299897,0.0063831799828832,-1.24509359765303,-4.14528830436454e-05,0
0.49,0.000561398605860758,0.000323825860890431,-0.0280016789416558,-0.0161947152813888,0.000635499752969254,-0.000127167790025026,-0.031711419564023,0.00638347051620946,-1.24509365698368,-4.03646489308267e-05,0
0.5,0.000561377534687595,0.00032382584762622,-0.0280008885283732,-0.0161947154576224,0.000635479778749054,-0.00012717455265821,-0.0317106704311204,0.00638372524006157,-1.24509370885,-3.9413319919074e-05,0
0.51,4.44869235612324,-0.0181895738245815,3.68374192385478,0.916899503306734,-0.364616505139697,4.43376243659998,0.627209606390614,3.74396412514607,0.0779630067866672,24.1140637154424,750.191594933898
0.52,4.34594407307973,-0.0165305036765308,2.42622628346244,0.841781800804961,-1.51892596476002,4.07189968656725,-0.0495088847821499,2.56762914944079,0.353235600040145,50.9042339947235,750.191594933898
0.53,4.2059820111986,-0.0249567569977198,2.92467515962747,1.27110970613163,-3.10634694038174,2.83575672514887,-1.28570850880532,2.9182868784185,0.824970942244767,77.9642652178831,750.191594933898
0.54,4.07356237683254,0.0597676202563515,2.55967628270989,-2.96401642966468,-4.05925532438829,0.34630740361997,-2.76193002959736,-2.77652274962731,1.50036039216737,106.215003744837,750.191594933898
0.55,3.94705495234039,0.0286089620506504,2.72639708472385,-1.39773797612234,-2.76489204791787,-2.81699010166257,-0.891022767084725,-2.93138038166697,2.37277569215528,131.251226888628,750.191594933898
0.56,3.83190888056288,0.0196699593883986,2.5848863895675,-0.9425976787438,1.04646808294775,-3.68630128009237,1.62409533812126,-2.22091025564683,-2.85985628814897,155.803945954076,750.191594933898
0.57,3.69590532990604,0.00310114815887963,3.2908285547618,-0.113009718435487,3.69026252983702,-0.204177093790248,3.29210288465807,-0.0661994722223953,-1.62522950472499,180.187785144277,750.191594933898
0.58,3.57830844147128,0.00357237255091314,3.50274374004929,-0.136397823762822,0.786499851167593,3.49080535811775,0.633386624509301,3.4477006045587,-0.220607462822193,203.603774835095,750.191594933898
0.59,3.48644099008364,0.0362627149047736,2.61037082305575,-1.76001995167539,-3.39745640798129,0.783502212948067,-2.92721862351017,-1.15892070234827,1.35454522457402,225.6521678401,750.191594933898
0.6,3.35236975045031,0.0436658765502846,3.78147273057154,-2.13224109082377,-0.210440305922226,-3.3460431154055,1.94141664901618,-3.88289704684226,3.09180773143442,247.864435301834,750.191594933898
0.61,3.2525387183289,0.0551923440742198,3.50305751529,-2.70990415928302,3.14646811324903,0.82570740663995,2.64053016412704,3.55564241175408,-1.2971921212562,269.219520286633,750.191594933898
0.62,3.14020759836251,0.0372995932462368,4.08758357988526,-1.81451728907456,-2.11250381124371,2.32370881737596,-4.11339513620215,1.75521878076969,0.749702286813159,289.628069625522,750.191594933898
0.63,3.0115482762354,0.00103486202168646,5.62709658747891,0.000469299258061659,-0.591060807106859,-2.95297666996168,-1.10296480980687,-5.51794208499747,2.94438916373579,309.34856907776,750.191594933898
0.64,2.93738601250629,0.032727601032231,4.55859431870887,-1.58322087097999,2.49129742831327,1.55651688266353,2.98510754156892,3.79163598650237,-1.00121277043261,328.454320644635,750.191594933898
0.65,2.83297054104815,0.0106832861078534,5.1164654612437,-0.480376022902284,-2.81877078365723,0.283491601725861,-5.13894593317853,0.0146504384561356,1.47433163844099,347.032640643136,750.191594933898
0.66,2.73810472572054,0.0623462839297662,5.32558374243247,-3.06372358986524,2.17751608712336,-1.66118278297482,6.10890140470768,-0.655414418759841,-2.19972366814777,364.990236902422,750.191594933898
0.67,2.67388383706568,0.0102319256388888,4.15372244396819,-0.452804814381782,-1.36304728580119,2.30040465203263,-2.51972734530899,3.33307912398649,0.538731650085668,382.263512801816,750.191594933898
0.68,2.57887416182166,0.0533151192258272,4.69982359093572,-2.60112577563108,0.61257081165525,-2.50563194526999,3.72365916129884,-3.87150610706525,-2.88114743452892,398.881823309127,750.191594933898
0.69,2.48453902103299,0.00870262507231301,5.34821247908859,-0.363495393416759,-0.246779439771308,2.47226814703116,-0.911420014147419,5.28250122388302,0.10299218150203,415.058103217553,750.191594933898
0.7,2.39502213039315,0.0221311898209601,5.78903311876327,-1.05302522701451,0.128320038417236,-2.39168450310162,1.41449834270912,-5.71147625551749,-3.07875123674276,431.00799732788,750.191594933898
0.71,2.31241865338835,0.063214010777449,6.01975349092454,-3.09916930565318,-0.251265969905817,2.29959593234643,-3.88762360855123,5.54334422121124,0.13616346619843,446.091140847898,750.191594933898
0.72,2.26125874411798,0.0502808855177048,4.87563351351568,-2.44245226660384,0.660706873246273,-2.16316566701295,3.84702812736442,-3.86493852732776,-2.82292482261136,460.711315823974,750.191594933898
0.73,2.19650319625102,-0.00252373498207148,4.40670388115531,0.183892902793253,-1.25560040763366,1.80224867227844,-2.3638668722724,3.7235720895479,0.607348983156966,475.042521363898,750.191594933898
0.74,2.09847226951838,0.0385871206858388,5.82833798048622,-1.85849626982111,1.74275471580081,-1.16956437718258,5.90553049220257,-1.59632127260862,-2.14347642728985,488.623941166052,750.191594933898
0.75,1.99336065424158,0.0251057150025634,7.60628264656096,-1.20064236502234,-1.98444704811154,0.189965544364234,-7.6795474876694,-0.567122713961793,1.48795394388542,502.007744348916,750.191594933898
0.76,1.96075882706882,0.0644123539471466,5.95948074878983,-3.15467698035999,1.74947961582143,0.887719101458685,3.70396866097601,5.63453758565132,-1.068392273582,514.770610886923,750.191594933898
0.77,1.88687600593653,0.0685275368895467,6.39148276945747,-3.36559242062113,-0.781477581712107,-1.71880478076265,0.679855984797506,-7.19138791708173,2.75116946777123,527.145673012659,750.191594933898
0.78,1.80915091900966,0.0116773546508275,7.14965435504165,-0.537010581341606,-0.654480037956807,1.68665920928953,-3.1287560032359,6.45111026360999,0.376602448023448,539.211949303558,750.191594933898
0.79,1.7354095652673,0.0658174500439754,7.82948338050098,-3.22548905634118,1.61357589847988,-0.642145712277495,8.45729997609024,0.422689924816906,-1.91163860943005,550.695750464903,750.191594933898
0.8,1.68833028440745,0.0292392307463376,7.21359325476872,-1.4010238602459,-1.41355219418347,-0.923679747629602,-5.18285874753612,-5.20929656530624,2.16690679063502,561.874549388815,750.191594933898
0.81,1.62314439475909,0.0182681487018295,7.59916234811312,-0.86466002568692,-0.0512537730649922,1.62243782692633,-1.18927298150017,7.55516612183178,0.042834404967551,572.752671637404,750.191594933898
0.82,1.55216684198916,0.0249279033386492,8.38688339136597,-1.20695348211295,1.39870288149463,-0.673404451302547,8.12017495567376,-2.42060083813991,-2.00343481733317,583.233208347931,750.191594933898
0.83,1.54856913640999,-0.0093313431312505,5.90141866874632,0.510441302546217,-1.13941590994454,-1.04875394081332,-4.70952341734439,-3.59272623625256,2.30875967945216,593.266756075164,750.191594933898
0.84,1.49431688060813,-0.00266718354098641,5.9939260327247,0.196741392286504,-0.598755258161981,1.36911730482155,-2.21148839488874,5.57451123781145,0.410482362898481,602.978419575906,750.191594933898
0.85,1.42708107832074,0.0238074395177684,6.82444830965454,-1.13085441605208,1.41400046878357,0.194241788905762,6.5719555481336,2.15901058700674,-1.4175993120512,612.352768772853,750.191594933898
0.86,1.43440484156166,0.0168033125861895,3.99357326810189,-0.782273735432771,-0.0690255751108376,-1.43284160701385,0.636330173357108,-4.0194108467935,3.10516991135811,621.452156935397,750.191594933898
0.87,1.30428775752498,0.042743311705419,8.12417370811722,-2.0870147588439,-0.647754772979173,-1.13287567685417,-1.95469590891393,-8.15702108290585,2.65494190010219,630.196583511059,750.191594933898
0.88,1.31378188752702,0.0329222699512507,5.34881212478735,-1.59634829480083,-1.10420009141727,0.712635167506422,-5.39714239223392,1.42442024084792,1.02272552118345,638.633077431061,750.191594933898
0.89,1.27821110824652,0.0606423969634893,4.89268087316649,-2.98425322406917,0.718448009601807,1.05893040142092,0.00585223381902544,5.73097366800579,-0.548719148351191,646.780180845679,750.191594933898
0.9,1.23988260531603,0.0115914955849667,4.63818281387119,-0.530895997150842,1.08813897040835,-0.594471882273512,4.341133878528,-1.7173080746847,-2.061461077539,654.659199403707,750.191594933898
0.91,1.12478526649992,0.0541397462248504,8.30254474159798,-2.66162006529251,-0.463412005631276,-1.02631492286402,-0.573291246715466,-8.69987400510165,2.76556336952822,662.207148246375,750.191594933898
0.92,1.10680463318318,0.0446085862378109,7.17511891938641,-2.18244696132386,-1.07401297084377,0.271113556395163,-7.47047939009971,-0.661319838220478,1.36381364793912,669.491584551578,750.191594933898
0.93,1.06411412784845,0.0253843022314906,7.34040641713631,-1.21959629829876,0.00985114062375712,1.06437126742263,-1.32659764743618,7.321824921519,0.0145952477758403,676.527626496048,750.191594933898
0.94,0.997206516204717,0.00277649554387954,8.78924443829441,-0.0904052751883796,0.957283717851437,0.279350010605304,8.4048826888564,2.57234093705191,-1.28408100019006,683.297641321339,750.191594933898
0.95,0.99171466498523,0.00245757281820796,7.2036414350275,-0.0997830276313696,0.564222465881933,-0.815571594285281,4.1949874249123,-5.85700325097025,-2.53390484865923,689.894220966234,750.191594933898
0.96,0.954541124075606,0.0242043429196607,7.26956535010907,-1.19213594991759,-0.55513460655687,-0.77689135429006,-3.08791594021381,-6.68823920391352,2.54651393214602,696.181485607357,750.191594933898
0.97,0.951010055973642,0.0080866853434714,5.69100951338841,-0.380055841578171,-0.933889701531618,0.179820873137741,-5.66598781502011,0.654686034858449,1.38907701333408,702.270847648881,750.191594933898
