t,iq,id,vq,vd,ia,ib,va,vb,theta_e,omega,r
0,0,0,0,0,0,0,0,0,0,0,0
0.01,0.000525504708156334,0.000281358568099092,-0.0241810594653843,-0.0140776821177849,0.000462888127196719,0.000375569466061286,-0.0223425276169426,-0.0168438781272013,-0.397596221731692,-0.00412819790530577,0
0.02,0.000622930110254181,0.000330846644141659,-0.0291882261367734,-0.0165537957434431,0.000546252812524254,0.000446216639100813,-0.0265649030391598,-0.0205008932743697,-0.397626540996897,-0.00407031003738177,0
0.03,0.000652472982442908,0.000349822740341562,-0.030910153224025,-0.0175032531853664,0.000575201057483727,0.000466090855893597,-0.0281076616400361,-0.0217200552838381,-0.397653773184687,-0.00348928504073131,0
0.04,0.000630180540008569,0.000342835296629916,-0.0302352897864825,-0.0171536387907299,0.000560135388515998,0.000448231971363988,-0.0275244293350487,-0.0212326602670348,-0.39767484926386,-0.00262745748683053,0
0.05,0.000638452964926421,0.000351466159923393,-0.0308566586615167,-0.0175854860209372,0.000571304092346164,0.000452506667423983,-0.0281635837752078,-0.0216378199290683,-0.397691754685499,-0.0021748782238392,0
0.06,0.000634491457882791,0.000352651284336946,-0.0308822476500671,-0.0176447871482968,0.000570868498848538,0.000448387662066145,-0.0282284582432738,-0.0216380655012532,-0.397705201342495,-0.00171868216266641,0
0.07,0.00064133558361058,0.00035953959356511,-0.0313372291268792,-0.0179894437106618,0.000579874489382053,0.000452023922718689,-0.028722651489163,-0.0219237612147568,-0.397715253061062,-0.00146715923119551,0
0.08,0.000627565766556857,0.000353758988022646,-0.0308511447175666,-0.0177002007147905,0.000569215553398942,0.000441562981611501,-0.0282678990830509,-0.0215874064481715,-0.397723659096827,-0.00107889618547524,0
0.09,0.000622649668825405,0.000352962991788517,-0.0307256162199543,-0.0176603846218624,0.000566580294905141,0.000437335401134976,-0.0281827043254365,-0.0214869228600341,-0.397729861739954,-0.000840272913666378,0
0.1,0.000619886352892256,0.000352852804489639,-0.0306735319511429,-0.0176548712669308,0.000565410455100858,0.000434827792811024,-0.0281575488875232,-0.0214409067545294,-0.397734580357392,-0.000667653737739927,0
0.11,0.000617945166174341,0.000352837107485412,-0.0306414569891658,-0.0176540735897523,0.000564645667983345,0.00043304217166986,-0.0281444672826656,-0.0214115427306454,-0.397738196414396,-0.000536978342425398,0
0.12,0.000616486301222495,0.000352834531768412,-0.0306182183226623,-0.0176539547989823,0.000564079423545963,0.000431696618396857,-0.0281354160136962,-0.0213900859987745,-0.397740972304817,-0.000436952978940095,0
0.13,0.000642763997566118,0.0003676634638702,-0.0318293350408415,-0.0183959115651378,0.000587930387961547,0.000450177562905566,-0.0292886278914423,-0.0222191900772989,-0.397743834281966,-0.00058739054065394,0
0.14,0.000658393363866277,0.000377408037420712,-0.0327914710483897,-0.0188834707890506,0.000602969289618478,0.00046081089838446,-0.0301108571052058,-0.0229172931854568,-0.397746327286032,-0.000652165310648375,0
0.15,0.000620589208967784,0.000356212945230554,-0.0309123671630198,-0.0178229866085586,0.000568786555068506,0.000434166423633135,-0.0284053485097465,-0.0215955891633001,-0.397748425761188,-0.000241572162705165,0
0.16,0.000613700242151462,0.000353297634702998,-0.0306153641741199,-0.0176771257784574,0.000563430695839385,0.000428944118609223,-0.0281558452913222,-0.0213782523895784,-0.397749044922375,-0.000159355608026414,0
0.17,0.000612370293109711,0.000352896612154749,-0.0305606832602527,-0.0176570641722023,0.000562545958638826,0.000427873157808126,-0.0281161758194294,-0.0213356024945557,-0.397749342940567,-0.000137908143101854,0
0.18,0.000612057534299269,0.000352841425053153,-0.0305497119922586,-0.0176542902350546,0.000562374018648621,0.000427606080025813,-0.0281093729749116,-0.0213265566248001,-0.397749540082683,-0.000128893583300383,0
0.19,0.000611943854347796,0.000352833812525262,-0.0305468188015405,-0.0176539108401577,0.000562323029386365,0.00042750414121607,-0.028107905643519,-0.0213240321511063,-0.397749685819738,-0.000123303866147833,0
0.2,0.000611879243790494,0.000352832748729234,-0.0305455850034794,-0.0176538587042547,0.000562297069491618,0.000427444924169877,-0.0281073820376052,-0.021322911746445,-0.397749796738707,-0.000119249233972615,0
0.21,0.000611833608976929,0.000352832589566287,-0.0305448057574216,-0.0176538516260931,0.00056227928268041,0.000427402865692533,-0.028107075487712,-0.021322193684581,-0.397749881749042,-0.000116177715708619,0
0.22,0.000611799324663203,0.000352832557811219,-0.030544235119269,-0.017653850338949,0.000562266001441939,0.0004273712333937,-0.0281068546587523,-0.0213216662576585,-0.397749947009411,-0.000113826243968755,0
0.23,0.000611773131215826,0.00035283254586817,-0.0305437970601257,-0.0176538504861414,0.000562255865950151,0.000427347061188065,-0.0281066861830474,-0.0213212609299935,-0.397749997127372,-0.000112021542219068,0
0.24,0.000611753049572837,0.000352832538406952,-0.0305434563660586,-0.0176538506176417,0.000562248096996924,0.000427328528469253,-0.0281065551588438,-0.0213209456994338,-0.397750035619769,-0.000110635670582062,0
0.25,0.000611737624542716,0.000352832532911973,-0.0305431886799044,-0.0176538507371965,0.000562242129755784,0.000427314293102774,-0.0281064522125015,-0.0213206980329872,-0.397750065184016,-0.000109571284310053,0
0.26,0.000617149286887443,0.000355836783344889,-0.0307818661942288,-0.0178041663356167,0.000567107979193837,0.000431139882893707,-0.0283374812470768,-0.0214825227074774,-0.397749939499955,-0.000162890419081224,0
0.27,0.000604147282932794,0.000348213710785145,-0.0302109516335981,-0.017422752518458,0.000555043943701245,0.000422105375960088,-0.0277647117482229,-0.0211039021383518,-0.397750415891513,-2.93385534449865e-05,0
0.28,0.000603793198070672,0.000348064592851182,-0.0299739278591711,-0.0174152905823062,0.000554769305695945,0.000421836703347052,-0.0276660218821647,-0.0208882725611415,-0.397750397205783,-2.66911144523151e-05,0
0.29,0.000610312376277937,0.000352176728250351,-0.0304807375494339,-0.0176210376343427,0.000561085486576391,0.000426254291840538,-0.0280520119731976,-0.0212758302569834,-0.397750132777498,-9.4451818759174e-05,0
0.3,0.000602528778812426,0.000348403663090019,-0.0301152065529718,-0.0174322567126013,0.000554591481569998,0.000420540521616802,-0.0277363543211876,-0.021011993927082,-0.397748832930339,-6.40144554170246e-05,0
0.31,0.000610596671424319,0.000352223556204477,-0.030474490962548,-0.0176233840585029,0.000561238242808999,0.00042649896073549,-0.0280517288877248,-0.0212691977166395,-0.397748875052284,-0.000136335226464123,0
0.32,0.000611912482338179,0.000352748914366797,-0.0305367298895301,-0.0176496734525816,0.000562232367761269,0.000427508417776519,-0.0281000792312188,-0.021316387886509,-0.39774912615233,-0.000140501542490625,0
0.33,0.000612050205341111,0.000352821138007535,-0.0305463076819038,-0.0176532889687367,0.000562352398677117,0.000427607283596902,-0.0281071273515801,-0.0213238110208592,-0.397749358136533,-0.000134511714905815,0
0.34,0.000612000024597107,0.000352831043766117,-0.0305468304448121,-0.0176537722107921,0.000562342173087609,0.000427557079135701,-0.0281077793073685,-0.0213241005883696,-0.397749543311992,-0.000128267503905067,0
0.35,0.000611933318686499,0.000352832384530856,-0.0305459913880175,-0.017653839393932,0.000562317632350344,0.000427494980602469,-0.0281075193011841,-0.0213232969767142,-0.397749686788953,-0.000123177601455042,0
0.36,0.000611877148304248,0.000352832552251751,-0.0305451252478376,-0.0176538498034528,0.00056229607687857,0.00042744306810661,-0.0281071957577756,-0.0213224913160502,-0.397749797211457,-0.000119215678748668,0
0.37,0.000611833143314149,0.000352832562495715,-0.0305444164952597,-0.0176538514514128,0.000562279077484931,0.000427402446691241,-0.0281069245546502,-0.0213218348690643,-0.397749882062357,-0.00011616328717136,0
0.38,0.00061179915004022,0.000352832554053229,-0.0305438574640921,-0.0176538516185923,0.000562265930436494,0.000427371073728727,-0.0281067095605992,-0.0213213175820391,-0.397749947239897,-0.000113817190955143,0
0.39,0.000611773014800504,0.000352832545324997,-0.0305434210257098,-0.0176538517656196,0.000562255820430867,0.000427346953973263,-0.0281065417113147,-0.0213209137502681,-0.397749997301411,-0.000112014951873563,0
0.4,0.000611752933157516,0.000352832538312504,-0.0305430795084042,-0.0176538518971194,0.000562248051873325,0.00042732842110433,-0.0281064103673216,-0.0213205977619259,-0.397750035751679,-0.000110630673722402,0
0.41,0.000611737508127394,0.000352832532883724,-0.0305428112264909,-0.0176538520166739,0.000562242084679509,0.000427314185730239,-0.0281063071895208,-0.0213203495471339,-0.397750065283861,-0.000109567458039262,0
0.42,0.000611725691972244,0.000352832528708551,-0.0305426008112055,-0.0176538521269641,0.00056223751359347,0.000427303280869716,-0.0281062262714742,-0.0213201548777222,-0.397750087966076,-0.000108750844893968,0
0.43,0.000611716611577153,0.000352832525500582,-0.0305424330389487,-0.0176538522302318,0.00056223400083388,0.000427294900785021,-0.0281061617523501,-0.0213199996729892,-0.397750105387437,-0.000108123638237336,0
0.44,0.000611709626656359,0.000352832523036751,-0.0305422977254879,-0.017653850872928,0.000562231298705151,0.000427288454574729,-0.0281061083732759,-0.0213198750724668,-0.397750118768057,-0.000107641907025969,0
0.45,0.000611704213343901,0.00035283252114433,-0.0305421854464056,-0.0176538509667812,0.000562229204531799,0.000427283458808418,-0.0281060651881603,-0.0213197712332669,-0.397750129045279,-0.000107271909453218,0
0.46,0.000611700080599982,0.000352832519690901,-0.0305420945348496,-0.017653851057343,0.000562227605766446,0.000427279644813071,-0.0281060302257918,-0.0213196871618093,-0.397750136938656,-0.000106987729816264,0
0.47,0.000611696937386297,0.000352832518574316,-0.030542020345226,-0.0176538511453644,0.000562226389818971,0.000427276743999012,-0.0281060016992045,-0.0213196185593269,-0.39775014300113,-0.00010676946334089,0
0.48,0.000611694492664542,0.00035283251771697,-0.0305419559106987,-0.0176538512315947,0.000562225444067122,0.000427274487839088,-0.0281059769195773,-0.02131955899062,-0.397750147657547,-0.000106601822003763,0
0.49,0.000611692630019395,0.000352832517058398,-0.0305419012391909,-0.0176538513163325,0.000562224723501577,0.000427272768846067,-0.0281059558972062,-0.0213195084537136,-0.39775015123395,-0.000106473063715896,0
0.5,0.000611691233035535,0.000352832516552559,-0.0305418550194379,-0.0176538513998742,0.000562224183093939,0.00042727147956972,-0.0281059381297887,-0.0213194657325575,-0.397750153980635,-0.0001063741698693,0
0.51,4.63437259282193,0.0134162406954731,4.22543673795626,-0.655835888763391,-1.10199391860223,4.50146628644236,-1.65319810384144,3.9435228373772,0.2429808530509,75.2038660691531,539.839812108102
0.52,3.88092232398485,-0.00283098855435493,4.10501466093933,0.170954127472753,-3.43561918646325,1.80501714809189,-3.55298303556735,2.06317285490029,1.08631938361985,153.358260020662,539.839812108102
0.53,3.13618152298653,0.0305592797516803,6.94537635212373,-1.50501404344964,-1.95849684051092,-2.44966498534183,-3.09940237287111,-6.39507817580529,2.47690302854692,223.895198464972,539.839812108102
0.54,2.62664586258862,0.0527489888781408,6.3895189733628,-2.60332025058345,2.40749631480938,-1.05167125921593,6.89942752476175,-0.0335986401669093,-1.96256632690889,277.07699303171,539.839812108102
0.55,2.16837013912694,0.0130872774804516,6.25678226523456,-0.630946106200894,-0.518694176666769,2.10545878330145,-2.14499882436084,5.91137863336248,0.24758234354251,324.394718665895,539.839812108102
0.56,1.77424901519868,-0.0109732329478099,7.78930142053071,0.570059707262491,-0.643055788041186,-1.6536502753731,-3.39794522576813,-7.03222247460968,2.7645327083837,362.089050079744,539.839812108102
0.57,1.48873922726705,0.0540984741518169,6.69087313247426,-2.67291982019453,1.04912278546043,1.05764479516376,2.57159866947406,6.73046535710674,-0.745030654785679,393.293068094625,539.839812108102
0.58,1.25054862162937,0.00285255584487165,5.66288772274583,-0.115425627692591,-0.982414687256577,-0.773783803395061,-4.36904828297673,-3.6045856262505,2.2402328228498,419.68648161683,539.839812108102
0.59,1.00697903287334,0.0538311561810111,7.12167350279361,-2.67486238961867,0.812073694072477,0.597863597669061,3.80290258348841,6.58870656686775,-0.882766708801486,441.642575167315,539.839812108102
0.6,0.824546531389523,-0.0216889006770374,7.42836007110426,1.09756961435307,-0.526716967704088,-0.634757139992677,-5.71816548223365,-4.86700892973486,2.42264948439805,459.720110297596,539.839812108102
0.61,0.72697075780775,-0.0247938052011863,5.05232355700844,1.24921614296433,0.283974674729152,0.66967126233429,3.26262263451298,4.05484991600289,-0.435158871216066,474.585403769838,539.839812108102
0.62,0.617949001406822,-0.0224007712216033,4.48620712465565,1.12663666026474,-0.00967302373612736,-0.618279221309281,-1.35775255225809,-4.42174994051,3.08971452851725,486.888567787725,539.839812108102
0.63,0.504515818679692,0.00701119129347997,5.14804816038147,-0.347107162698876,-0.196494054442001,0.464731594224384,-2.38830907228168,4.57371435698174,0.413911835925036,497.147548402844,539.839812108102
0.64,0.390399526863063,0.0224978844065131,6.64979690889746,-1.12320075388357,0.30412516509329,-0.245816657968193,6.05823597929018,-2.9629640028763,-2.19299827340583,505.703461653519,539.839812108102
0.65,0.344558772675158,0.0101840051142052,5.50401426605413,-0.505731844354742,-0.344088734503032,0.0206737653967297,-5.51686416098217,-0.337857319873899,1.54033386527106,512.729239983123,539.839812108102
0.66,0.286199477820038,0.0042089914151533,5.58990520121232,-0.204995359278653,0.237298127758558,0.16005453844074,4.47070598532421,3.36182260814764,-0.962693629494243,518.496010804781,539.839812108102
0.67,0.21978790035197,-0.00879913294780733,6.55410123862514,0.44810212136247,-0.0534815748488999,-0.213363227931718,-2.27653754211794,-6.1623384665762,2.85597985168092,523.303219339928,539.839812108102
0.68,0.155462353917295,-0.0184263319648915,7.79655177473821,0.932303495879479,-0.0807404883219942,0.134123252050912,-2.35710689225977,7.48995704146987,0.423903831821851,527.284709969194,539.839812108102
0.69,0.169860950979564,0.0118823859981914,5.44967187630124,-0.580598824239218,0.150978288465795,-0.0787368412919329,5.2280141262333,-1.64434997794315,-1.98166445489078,530.59841433738,539.839812108102
0.7,0.155517123344728,0.0096081699036556,4.79711944765047,-0.46486924358981,-0.149495105640992,-0.0439215889023311,-4.35214905687185,-2.07056924429771,1.91825857866514,533.351246571521,539.839812108102
0.71,0.102139821982265,0.0220210590338313,6.3496440661156,-1.08702591317622,0.0639973273109024,0.0825942635574741,1.76363984923952,6.19590022389387,-0.446863111407828,535.590348272814,539.839812108102
0.72,0.0572088707886318,0.0254489796645138,7.68254182813757,-1.28012485256619,-0.00464320994679637,-0.0624415411746473,3.79836976500981,-6.79945260351892,-2.79725965939849,537.41542641925,539.839812108102
0.73,0.05965805219524,0.00181623373948867,6.7842088359501,-0.105537213089489,-0.0536573598847457,0.0261394266755282,-6.22989419231835,2.68794456521116,1.14791245660238,538.938788927555,539.839812108102
0.74,0.0686804141919939,0.0154012937755738,5.71099316509995,-0.783639135782417,0.0693693726646108,0.0119201207906512,4.98198731461123,2.8998854501516,-1.18002630992867,540.176663829829,539.839812108102
0.75,0.0135432460818034,-0.0321116314018003,7.93116620993376,1.59659975814712,0.0253312499905115,-0.023935416429124,-4.27415642672825,-6.86906944768853,2.78363815083678,541.236647463249,539.839812108102
0.76,0.018963535834543,0.00472252662020617,7.20970892800495,-0.240772337618236,-0.00440086807555054,0.0190407539033556,-3.48747175550535,6.31469832214247,0.471207648871689,542.131885439587,539.839812108102
0.77,0.00806165938468127,0.0306725682297697,7.42156685071251,-1.53328389630665,-0.000247637996219159,-0.0317133326736142,7.56416079044698,-0.462693810778437,-1.83562148272659,542.741954183396,539.839812108102
0.78,0.00384710141710065,0.0119002906979563,7.31246320501909,-0.588190596134917,-0.00969484865692237,0.00790107698536684,-5.81974028832524,-4.46639779672429,2.14511241908796,543.355066941737,539.839812108102
0.79,0.0413913807947499,-0.00349977475968414,5.19248806345032,0.187504918989541,0.0028673231988337,0.0414399962009885,0.978887345176655,5.1028296022082,-0.153434652371286,543.828249140216,539.839812108102
0.8,-0.00171156570283407,0.0341985342858367,7.12621985463213,-1.69846802996949,-0.0274092594245539,-0.0205231991232402,5.85802272156215,-4.39901953383288,-2.44887375727017,544.211219246159,539.839812108102
0.81,0.0158957279491839,0.00110164086791807,6.1188441432902,-0.0579149598433139,-0.0158559051509526,0.00157418279762172,-6.11785770327514,0.124197080994021,1.54103363424143,544.437227721323,539.839812108102
0.82,-0.00963731257668207,-0.0187778846105505,7.22218454764276,0.923046202207352,-0.0203083911152256,0.0057494342729392,5.59858196338894,4.65487313799585,-0.750059808729751,544.726662881139,539.839812108102
0.83,0.0172206828400536,-0.0238638093830862,5.75409928347666,1.17998341788804,0.0254966711586593,-0.0146953419687049,-0.586586358061688,-5.84447909356628,-3.03935941091691,544.965567607423,539.839812108102
0.84,0.0324539599894645,-0.0373538084161331,4.90301297909914,1.85998215321228,-0.0480577801819598,-0.0117905167897496,-2.93201645095926,4.34768322383164,0.955910910848754,545.108613861363,539.839812108102
0.85,-0.00841909076260425,-0.0228176305673673,6.87985882378815,1.13789474466453,-0.013595368623699,0.020166588852941,6.95331200797528,0.527933712635985,-1.33110502105955,545.183658879384,539.839812108102
0.86,0.00820213902261355,0.00935282298587604,5.98701658954661,-0.46489413494276,-0.0120712861663397,-0.00300573329517884,-2.32969430837431,-5.53471034741104,2.66568430466648,545.27612208483,539.839812108102
0.87,-0.0285431973443302,0.00289982464298987,7.76199231468862,-0.137132873641628,0.0132691715654299,-0.0254372204370811,-3.00332267134172,7.15872775359723,0.379565579900769,545.368914270737,539.839812108102
0.88,0.0137351280788762,-0.00262256899574011,5.60754518654394,0.143804261608098,0.0138330108530826,-0.00204436352419255,5.24776368502687,-1.98146889728351,-1.90619088340734,545.373284849106,539.839812108102
0.89,0.031086136117822,-0.00593118335646039,4.69780622265515,0.310020998301736,-0.0240118842371242,-0.0206144660402994,-4.22906635383408,-2.0689354992058,2.09167837959256,545.427523468818,539.839812108102
0.9,-0.0248259231795336,-0.0221182393932613,7.44948920195824,1.09059758135669,-0.026471730950238,-0.020119404466135,2.50005317984344,7.10169180917534,-0.193121410314831,545.456044767646,539.839812108102
0.91,0.024041663166098,0.00778890388269381,4.99349794045738,-0.405273335093709,0.00867864629443531,-0.023734988729343,3.39597057041167,-3.6832936405326,-2.477741508505,545.456637536632,539.839812108102
0.92,-0.0142111046597971,-0.0217322820342847,6.87375134358078,1.0741620025829,0.0131080174784743,-0.0224148936168212,-6.811527939039,1.41611040419264,1.52083355170277,545.459341655201,539.839812108102
0.93,0.0135412322490754,-0.0120901274003712,5.51107992803902,0.597791200438751,0.000640605172790389,0.0181418239544209,4.24479963735767,3.56525347363196,-0.764140395216966,545.419464791179,539.839812108102
0.94,0.00507669912251135,-0.0136277076089265,5.86717089308029,0.681099063802726,0.0144132887226656,0.00193504440568703,2.16060331937486,-5.49721597898681,-2.65153500856724,545.499906102492,539.839812108102
0.95,-0.00608969639337117,0.0316383116551214,6.35731666661495,-1.57780837209836,0.0129499716885803,0.0295019558642304,-6.54890394988775,-0.129659221918614,1.3473200270272,545.601083990736,539.839812108102
0.96,-0.0361847979498728,0.0287350357950989,7.8762845310617,-1.42824316451534,-0.0121402173367088,-0.0445831471279923,5.50079724395129,5.81523569876274,-0.937003709858199,545.511609503656,539.839812108102
