t,iq,id,vq,vd,ia,ib,va,vb,theta_e,omega,r
0,0,0,0,0,0,0,0,0,0,0,0
0.01,0.00109545084959061,0.000610321416616031,-0.0526295918331904,-0.0305729060891684,-0.00120462174051328,0.00034841248216982,0.0581557754639296,-0.0179577922767343,1.797559309065,-0.00432394274153628,0
0.02,0.0012125035209693,0.00068028119578372,-0.0588972864531525,-0.034077395162437,-0.00133439482145067,0.000390304694034681,0.0650503126607024,-0.0199653709043046,1.7975295053639,-0.00412094777410275,0
0.03,0.00124170787400973,0.000698944423646576,-0.0605451632150106,-0.0350122928997668,-0.00136703637930682,0.000401961800891701,0.0668656260778333,-0.0205076934844151,1.79750276581692,-0.00359037513207381,0
0.04,0.00121782649933943,0.00068888863960494,-0.0596594817301983,-0.0345085716324037,-0.00134149751852827,0.000397559238419359,0.0658889626546416,-0.0202173162590845,1.79748181160803,-0.00295965178923924,0
0.05,0.00123306595911054,0.000699007474731042,-0.0605694363621704,-0.0350154565681756,-0.0013586137876468,0.00040401941198793,0.0668891781616727,-0.0205079658855971,1.79746321485959,-0.00256734132629789,0
0.06,0.00122981437488743,0.000699090150711246,-0.0605852348665668,-0.0350196127661159,-0.00135545767919677,0.00040485172027268,0.0669051886013595,-0.0205095026839338,1.79744771049564,-0.0021669279402698,0
0.07,0.00126212894408861,0.000718353819610106,-0.0622257896061693,-0.0359845943032588,-0.001391269363929,0.000416378720214234,0.0687203648994973,-0.0210820152585399,1.79743505530641,-0.00200081606530158,0
0.08,0.00122494489442201,0.0006992499068692,-0.0606118528512697,-0.0350275965834841,-0.00135073908893395,0.000406133402040536,0.0669324375701496,-0.0205128747228979,1.79742419589629,-0.00155992649425487,0
0.09,0.00122263246959101,0.00069908327166877,-0.0605986786016981,-0.0350192571512629,-0.00134844478927174,0.000406502431371842,0.0669175466419986,-0.0205082951781498,1.79741543161926,-0.00133140099059159,0
0.1,0.00122101471643215,0.000699079823386617,-0.0606014814383,-0.0350191003699109,-0.00134686467601995,0.000406872316212117,0.0669200939627597,-0.0205079976411624,1.79740818433814,-0.00114378449442061,0
0.11,0.001219679736143,0.000699078125112418,-0.0606039392393623,-0.0350190130617018,-0.00134556100441412,0.000407178667379112,0.0669223463727468,-0.0205077615333821,1.79740218962932,-0.000988608429836068,0
0.12,0.00121857572384962,0.00069907672956501,-0.0606059757481602,-0.0350189254342411,-0.00134448288283462,0.000407432014377415,0.0669242094411508,-0.020507550454223,1.79739723098697,-0.000860251606401922,0
0.13,0.00127659588289754,0.000731604636623468,-0.0633633308609901,-0.0366483660112157,-0.00140832549797538,0.000426100556573557,0.069977043007764,-0.0214762166356385,1.79739198914561,-0.00099659592879516,0
0.14,0.00137309329484182,0.000788218056907016,-0.0684453178396147,-0.0394843064378823,-0.00151507314502328,0.000459593588731497,0.0755661523986503,-0.0230982380434185,1.79738797372397,-0.00134027629398934,0
0.15,0.00121736296994705,0.000699839343113004,-0.0606868036366244,-0.03505713181932,-0.00134346726136107,0.000408464716246261,0.0670112931612394,-0.0205274746592418,1.7973844888451,-0.000537882138136634,0
0.16,0.0012153298417049,0.000699079188147421,-0.0606127024749575,-0.0350190502281978,-0.00134131455134409,0.000408183304156269,0.0669304917824396,-0.0205071414381317,1.79738257923377,-0.000481060832402662,0
0.17,0.00121496381635629,0.000699072216729775,-0.0606125411054062,-0.035018696262662,-0.00134095567507798,0.000408260843989101,0.0669302228333926,-0.0205069378178105,1.79738100975716,-0.000440357464465407,0
0.18,0.00121467429144566,0.000699071794639797,-0.0606130128664824,-0.0350186912171168,-0.00134067292573902,0.000408327215049752,0.0669306547821032,-0.0205069138036678,1.79737971163852,-0.000406754209198271,0
0.19,0.00121443539193775,0.000699071491402815,-0.0606134233258783,-0.0350186629171466,-0.00134043962596596,0.000408382027546989,0.0669310263729467,-0.0205068658856195,1.79737863787532,-0.000378959284994942,0
0.2,0.00121423748589088,0.000699071240946408,-0.06061373947686,-0.035018663477105,-0.00134024635940174,0.00040842743317675,0.0669313163550191,-0.0205068548557729,1.79737774969099,-0.000355968166553208,0
0.21,0.00121407402351117,0.00069907103376424,-0.060614004381852,-0.0350186350085795,-0.00134008672847703,0.000408464937262119,0.066931553027763,-0.0205068167778189,1.79737701501216,-0.000336950604820403,0
0.22,0.00121393863249205,0.000699070862378631,-0.0606142059223317,-0.0350186354202833,-0.0013399545112758,0.000408495999729633,0.0669317370473394,-0.0205068125782474,1.79737640730802,-0.000321219849634743,0
0.23,0.00121382664094973,0.000699070720606409,-0.0606143640360692,-0.0350186328643162,-0.0013398451449948,0.000408521693576156,0.0669318802373269,-0.0205068082128599,1.79737590463397,-0.000308207841989475,0
0.24,0.00121373397435367,0.000699070603331914,-0.060614484691462,-0.0350186331714271,-0.00133975465069682,0.000408542953530531,0.0669319893511604,-0.0205068092374852,1.79737548883735,-0.000297444700552968,0
0.25,0.00121365725665668,0.000699070506322364,-0.0606145725906431,-0.0350186334394867,-0.00133967973154997,0.000408560554042395,0.0669320680109271,-0.0205068127727374,1.79737514490366,-0.000288541753617819,0
0.26,0.00122462280870089,0.000704962515798957,-0.0611277653487255,-0.0353137593993339,-0.00135168851660048,0.000411838956829556,0.0674984371906988,-0.0206791265834941,1.79737488829377,-0.000332558727249679,0
0.27,0.00117744816362996,0.000678827142623589,-0.0589373090647276,-0.0340045643596126,-0.00129984823562053,0.000396969812394161,0.0650698529974012,-0.0198955027072667,1.79737436077452,-0.00010262424506447,0
0.28,0.00115945294023291,0.000667560022862905,-0.0576058213128705,-0.0334401638650218,-0.00127978174230462,0.000390033584199134,0.0636456016394053,-0.0196446583174157,1.79737405747929,-1.23755738082814e-05,0
0.29,0.00121290937595203,0.000698799433860957,-0.0605886742158321,-0.0350050390369087,-0.00133888972588117,0.000408465549301995,0.0669037603409919,-0.0204994403202345,1.79737429976744,-0.000264090826431709,0
0.3,0.00121059534247835,0.000697545203562458,-0.0604673787859291,-0.0349422207986055,-0.00133635359688124,0.000407761521413973,0.0667714792294234,-0.0204653915939618,1.79737556369552,-0.00028487950125311,0
0.31,0.00121364282051584,0.000699057418180967,-0.0606128318262555,-0.0350179791454279,-0.00133966275759485,0.000408550933932182,0.0669302264315607,-0.0205065607854552,1.79737522664186,-0.000290506265213658,0
0.32,0.00121360892902407,0.000699070332515192,-0.0606144233508191,-0.0350185993621961,-0.00133963251157058,0.000408571531500865,0.0669319104870837,-0.0205068275945193,1.79737492823448,-0.000282930723230595,0
0.33,0.00121355421382864,0.000699070374557181,-0.0606144907256602,-0.0350186053982622,-0.00133957910336681,0.00040858419488245,0.0669319724299093,-0.0205068348755289,1.79737468119806,-0.000276537558668344,0
0.34,0.00121350881185318,0.000699070317876811,-0.0606145316789131,-0.0350186055907748,-0.00133953476560532,0.000408594612686451,0.0669320081892466,-0.0205068395402808,1.79737447685504,-0.000271248008361397,0
0.35,0.00121347109328895,0.000699070270206034,-0.0606145488341496,-0.0350186057643051,-0.00133949793132407,0.000408603265910041,0.0669320214788076,-0.0205068471687817,1.7973743078293,-0.000266872637746394,0
0.36,0.00121343989398274,0.00069907023076688,-0.0606145543991882,-0.0350186059217162,-0.0013394674634572,0.000408610423499973,0.0669320240698443,-0.0205068554299868,1.79737416801624,-0.000263253462604489,0
0.37,0.00121341416619665,0.000699070198143293,-0.0606145544089751,-0.0350186060655981,-0.00133944233866639,0.000408616326211672,0.0669320217401125,-0.0205068633085913,1.79737405236758,-0.000260259789760546,0
0.38,0.00121339286219278,0.000699070171158241,-0.0606145446788414,-0.0350186061985547,-0.00133942153402292,0.000408621213863501,0.0669320103268444,-0.0205068720267111,1.79737395670715,-0.000257783513606678,0
0.39,0.00121337516706388,0.000699070148836797,-0.0606145243666606,-0.0350186063225894,-0.00133940425381753,0.000408625273199674,0.0669319889390334,-0.0205068820067336,1.79737387757982,-0.000255735212435597,0
0.4,0.001213360731564,0.000699070130373158,-0.0606145090570553,-0.0350186064385676,-0.00133939015638246,0.000408628585719645,0.0669319727045742,-0.0205068899397559,1.7973738121283,-0.00025404091930442,0
0.41,0.00121334862437054,0.000699070115100552,-0.0606144794688578,-0.0350186065487996,-0.00133937833308368,0.000408631363155798,0.0669319427871665,-0.0205069003175927,1.79737375798948,-0.000252639450977028,0
0.42,0.00121333861265288,0.000699070102467831,-0.0606144465268058,-0.0350186066538595,-0.00133936855611864,0.000408633659895352,0.0669319097923432,-0.0205069108175358,1.79737371320752,-0.000251480198519811,0
0.43,0.00121333034716504,0.00069907009201807,-0.0606144114689651,-0.0350186067546093,-0.00133936048440463,0.00040863555611473,0.0669318748935685,-0.0205069212705045,1.79737367616582,-0.000250521299748169,0
0.44,0.00121332347866106,0.000699070083374601,-0.060614372306107,-0.0350186068519111,-0.00133935377699073,0.000408637131695367,0.0669318361252096,-0.0205069322137699,1.79737364552625,-0.000249728127518762,0
0.45,0.00121331789072562,0.000699070076225224,-0.0606143359952338,-0.0350186069460447,-0.00133934831991496,0.000408638413966894,0.0669318002438322,-0.0205069421588011,1.79737362018259,-0.000249072039301076,0
0.46,0.00121331323411275,0.000699070070311495,-0.0606142956232194,-0.0350186070378753,-0.00133934377242566,0.000408639482359521,0.0669317604944258,-0.0205069527206991,1.79737359921947,-0.000248529342856432,0
0.47,0.00121330927599181,0.000699070065419626,-0.0606142483138192,-0.0350186071279752,-0.00133933990728559,0.000408640389983405,0.0669317140588559,-0.0205069645968476,1.79737358187944,-0.000248080440678706,0
0.48,0.00121330613277813,0.000699070061373795,-0.060614207117842,-0.0350186072160588,-0.00133933683763947,0.000408641111353334,0.0669316736414708,-0.0205069748970659,1.79737356753685,-0.000247709122298248,0
0.49,0.00121330345522573,0.000699070058026981,-0.0606141605762781,-0.0350186073029932,-0.00133933422292294,0.000408641725475939,0.066931628065711,-0.0205069862310726,1.79737355567353,-0.000247401978898057,0
0.5,0.00121330135974994,0.0006990700552588,-0.0606141194323379,-0.0350186073884871,-0.00133933217637365,0.000408642206656145,0.0669315877913447,-0.0205069962138838,1.7973735458608,-0.00024714791911391,0
0.51,2.67384510919484,-0.0333937905673981,7.25481054141177,1.67838650397276,-0.542794725238156,2.61838436816814,0.263776092105761,7.44175244292167,0.19191776799403,57.1008222637994,349.556253436732
0.52,2.2351263664747,0.0565850661465896,5.15905380495537,-2.82330623727748,-1.58418692486244,1.57776535990498,-5.68742389165493,1.49669761425183,0.812739911870832,110.780271767075,349.556253436732
0.53,1.82786620060721,-0.048070144885252,4.91455509493137,2.42421630652992,-1.77039141399299,-0.457296214079497,-5.33341223329233,1.25872571743379,1.79728110497085,156.955095602408,349.556253436732
0.54,1.41287281575707,0.0302944424850086,7.66030789179283,-1.51646551829328,-0.0896936407699881,-1.41034832490283,1.19292787811057,-7.71731220975688,3.0995198345782,196.593851628277,349.556253436732
0.55,1.2020110927697,0.0815640941193539,5.06401744116006,-4.07610532107217,1.19483354172071,-0.154454446909299,5.30234692490729,3.76085420094589,-1.63159951269037,225.579933483137,349.556253436732
0.56,0.999572000727787,0.00601796042141596,4.34086732978432,-0.283002726913712,-0.106249858835101,0.99392724481428,-0.768596387261978,4.28164446348798,0.112515071491749,249.943184826415,349.556253436732
0.57,0.748295967127257,-0.00757146366233002,7.43631249788386,0.3786936132239,-0.669255014499834,-0.334816228769954,-6.84981038803731,-2.9192893085161,2.02455157155017,270.658469809481,349.556253436732
0.58,0.694894284707465,0.0242553097404906,3.03920076983343,-1.19774999034948,0.540906952102607,-0.43690508824775,3.14910658240016,-0.868604680750832,-2.2153401883208,286.426431370907,349.556253436732
0.59,0.573074688824908,-0.0262887957766615,2.80590088302116,1.31177255372538,0.00977745049002423,0.573594021252895,1.4855135811891,2.71791765845635,-0.062885399443914,300.271438600452,349.556253436732
0.6,0.376201659807107,-0.0283521558515578,7.96261356333568,1.43489639991268,-0.292959263066075,-0.237710756523207,-7.36055474513959,-3.35922257096829,2.17723531789149,310.61318135369,349.556253436732
0.61,0.28756816552796,0.00293173558695131,8.38013720152821,-0.155306782897202,0.279705869227784,-0.0668481235203938,8.20458894622193,-1.71334174547398,-1.79519564437193,319.398388748978,349.556253436732
0.62,0.24254233458376,0.027399140345211,7.55046563761807,-1.35786818778339,-0.108228767371723,0.218778497275657,-5.22825379693634,5.61415172533359,0.571884652606971,326.257235978826,349.556253436732
0.63,0.264356921920003,0.046784741082193,3.791928170505,-2.35060567021174,-0.0873021746703783,-0.253873441822829,1.73270746482551,-4.11117879791659,2.98554167718631,332.069386404624,349.556253436732
0.64,0.173844734814587,0.0199837726115333,6.28965618105526,-0.985624919053141,0.143452403130589,0.100213527163764,4.05800726015998,4.90548758365914,-0.846571956319235,336.483412449256,349.556253436732
0.65,0.133570682066225,-0.00469246921970122,6.57817414486023,0.230768494146253,-0.133004817031711,-0.0131478143193213,-6.57957591894313,-0.186574126989129,1.63421184188416,340.285012595022,349.556253436732
0.66,0.109287969293901,-0.0130002473120741,6.42996477229515,0.664571629650711,0.0988961225161141,-0.0482951717445698,5.04396960437549,-4.04282983243537,-2.14347215748143,343.174117862422,349.556253436732
0.67,0.0976792054927637,0.0286289780495863,5.9003084763493,-1.4327755361197,-0.00975874256256643,0.101319359026095,-3.52468982421327,4.94399104935172,0.381127515006588,345.546042559069,349.556253436732
0.68,0.0132580408695286,-0.030756611452534,9.23102956587872,1.52564617358262,0.0271165630522712,-0.0196579959297085,-3.50575872599067,-8.67462730313151,2.92131595240824,347.502202789155,349.556253436732
0.69,0.0955477526159888,0.0350650962783041,4.32730253943063,-1.74843180549279,0.0933125132703281,0.0406412213663392,1.9214543212732,4.25330158082896,-0.808303156460546,349.177338621482,349.556253436732
0.7,0.0386796512675905,0.0149773451368577,6.63386851638729,-0.764440862203402,-0.040773007111293,0.00761565365765937,-6.38048217427039,-1.9702864127681,1.75557888457398,350.325120415106,349.556253436732
0.71,0.0944835641139856,0.025660096365502,3.30487255927854,-1.27193584827545,0.0779435910591317,-0.0592484687226204,3.54065169544184,-0.0615549085394109,-1.95557263131281,351.471794804594,349.556253436732
0.72,0.0523309287048447,-0.0630210156215538,5.04751919607811,3.14813457059498,-0.0817158112990664,0.00571845196001898,-0.389125029469962,5.93605786871997,0.623122601256418,352.179266650887,349.556253436732
0.73,0.0312967980562762,0.0593449427723921,5.74266988690838,-2.95868511870041,-0.0571646434852277,-0.0351214369928203,3.32893673149688,-5.53626727130423,-3.07596258594178,352.869731956595,349.556253436732
0.74,0.0161574578607004,-0.0769986279491051,6.1984539495716,3.85579452800834,-0.0604736236611585,0.0503268615339123,6.30912292649447,3.67191376608447,-0.487236240782331,353.453000219693,349.556253436732
0.75,-0.032450328928561,0.0371447893157129,8.35487684904658,-1.87656042162362,0.00896024113708539,0.0485023020035728,-6.22853220100527,-5.87629413829661,2.10616376215858,353.932061615551,349.556253436732
0.76,0.0759064473056711,0.00446355014160849,2.82288540472052,-0.216136325436059,0.0758521435202749,-0.0053070091214257,2.8251134645518,0.184745315949493,-1.58191201112621,354.248615918212,349.556253436732
0.77,0.00817517468719931,-0.00926531636363679,6.08591491366686,0.449323740511722,-0.0118316613773239,-0.00356249316305895,-4.93436419141309,3.59058521507016,1.01543712160713,354.402169185374,349.556253436732
0.78,-0.0291362171441148,0.0484423345124025,7.76499361208833,-2.41451262539364,-0.0563971595263129,0.00386514163312656,5.68721085037454,-5.81211061124442,-2.66852627361727,354.765808133015,349.556253436732
0.79,-0.0693869374112477,-0.0542875345810387,9.68237432256554,2.70943820378543,-0.0588774483177489,-0.0655372380695943,3.36117203346722,9.47586146288802,-0.0680107086827909,354.867540208883,349.556253436732
0.8,-0.0662588113376404,0.0198137431238635,9.40327872004756,-0.979691871016716,0.021567204306063,0.0657089810823148,-4.56493314643425,-8.27905986315001,2.53387656904224,355.023650813692,349.556253436732
0.81,-0.0324317545422201,0.0634700853248837,7.68150186416535,-3.18078750999579,-0.00348493832884229,-0.0711907693361927,5.69586814392326,6.05639877814871,-1.14731878491341,355.029298535031,349.556253436732
0.82,0.0345134237090059,0.0183160422842197,4.38432774105989,-0.932898603894709,-0.0321618158330464,0.0221871905250732,-4.46283226928011,-0.419234638893486,1.45480702560673,354.849388456618,349.556253436732
0.83,0.0511453135739489,-0.00465755016689892,3.53061674390569,0.241403328537131,0.0433641332771139,-0.0275152288607498,2.65001830712549,-2.34540681573065,-2.2270237960212,354.850360389558,349.556253436732
0.84,-0.0258785102022724,-0.0205791029808732,7.38434619273706,1.01615939819293,-0.00969990163744888,-0.0316086804218448,-1.75238443815539,7.24501879898437,0.37406757796684,354.738739688525,349.556253436732
0.85,-0.0423517570676533,0.0406859920163578,8.12635105832608,-2.02571949811917,-0.0331169540269971,0.0485003982359569,0.653087833220735,-8.34952677044134,2.97535336624094,354.942777693197,349.556253436732
0.86,-0.0349185565373358,0.0189905011014591,7.76261551942794,-0.960008117198494,-0.00821513049526888,-0.0388903118228864,4.30769871726322,6.52867115490123,-0.706288310305385,354.901698850269,349.556253436732
0.87,-0.0426247047579582,0.00855792777908833,8.02228858028045,-0.415949162791943,0.0376537124099377,0.0217324992885057,-7.46855888513219,-2.95816766776978,1.89611844539138,354.996879679863,349.556253436732
0.88,-0.0211398376724492,-0.0435900161379081,6.94635756554395,2.18364306853421,-0.0113666277159594,0.0470933330534947,6.32157526659735,-3.613567022748,-1.78551342644176,355.037674560143,349.556253436732
0.89,-0.0501501060547119,-0.0383490017409762,8.35594057850841,1.90451647734631,0.0103309227953285,-0.0622812259515274,-4.79031355893538,7.10646339406086,0.817211740430866,354.981656943541,349.556253436732
0.9,-0.0982252606362297,0.0159761107694747,10.7680647954693,-0.793118200208894,-0.0422813809897499,0.090087306342089,3.71354814004995,-10.1385312610091,-2.86401004755498,354.894404386323,349.556253436732
0.91,-0.0498260435531341,-0.0114073351111164,8.45113890437229,0.556997939671193,-0.0239839202549174,-0.045139046065484,2.73764657033825,8.0148167004435,-0.263335162196778,354.649246579729,349.556253436732
0.92,-0.040493622311359,0.0476228984866512,7.91646623710688,-2.37269350102693,-0.00383072883202922,0.062393905349644,-4.0605289315192,-7.19807036151802,2.33678188018344,354.746680583452,349.556253436732
0.93,0.021778424029518,0.0292906444153512,4.78318230481137,-1.47424447272705,0.0277576600702242,-0.0237013482929117,4.33441757577509,2.50300899024331,-1.3460811030257,354.715890957332,349.556253436732
0.94,-0.0778253009372482,0.0113393062889751,9.7193955959809,-0.558278720413933,0.0774943170492941,-0.0134159665381185,-9.41137902316941,2.4908373618297,1.25468954126352,354.686533762069,349.556253436732
0.95,-0.0259858681949077,0.0788046693453686,7.17580242768452,-3.94666910581988,-0.0766189632509041,-0.0318586836958561,7.67781273637448,-2.84947874130725,-2.42901202885154,354.643050801245,349.556253436732
0.96,-0.0106494414213776,-0.0436577472341853,6.36716050210908,2.17092689559161,-0.0412060031183403,-0.0179297184351205,1.05473768068746,6.64388326737903,0.171156602837467,354.639696478111,349.556253436732
0.97,-0.0894234729931124,0.0475984698922214,10.2433006810929,-2.37633554996207,-0.0119935122957081,0.100589897708683,-1.49346996998186,-10.4087332052491,2.77112604324401,354.719937475789,349.556253436732
