t,iq,id,vq,vd,ia,ib,va,vb,theta_e,omega,r
0,0,0,0,0,0,0,0,0,0,0,0
0.01,0.000512370514646796,0.000290466433120227,-0.0247177916429355,-0.0145336305676692,-0.000399601280158013,0.00043268130297609,0.0191189590674518,-0.0213696290411922,1.26140383891581,-0.00167744919376579,0
0.02,0.000602731238735165,0.00034036221098023,-0.0291724786679514,-0.0170301920133904,-0.000470472618524022,0.000507727186616717,0.0226016487076255,-0.025104310931434,1.2613906915643,-0.00189205610602351,0
0.03,0.000636905932793188,0.000359513660005786,-0.0308527554769547,-0.0179884375252134,-0.000497185655465947,0.000536382012148817,0.0239099930458524,-0.0265290150150086,1.26137691660855,-0.00191189136365312,0
0.04,0.000623543462828891,0.000352208984716818,-0.0302591893929774,-0.0176229448750725,-0.000486675228133525,0.000525361629045249,0.0234555707222076,-0.0260004409748265,1.26136387957412,-0.00177577856299425,0
0.05,0.000638628390843774,0.000361079118755658,-0.0310234526550087,-0.0180667628169047,-0.000498335799603616,0.000538410421914821,0.0240480489841004,-0.026656216411527,1.26135124032172,-0.00173883689329234,0
0.06,0.00064017334852676,0.00036225249264819,-0.0311391273606988,-0.0181254784346655,-0.00049944348230043,0.00054000462274078,0.0241400235518298,-0.0267476631537868,1.26133908114586,-0.0016593574082747,0
0.07,0.000652062508732533,0.000369442030255977,-0.0317464666638633,-0.018485209407387,-0.000508572098015649,0.000550479200455552,0.0246086492099452,-0.0272755475937073,1.26132766658672,-0.00162011884091097,0
0.08,0.000641011662542774,0.000363356803581348,-0.0312567040666455,-0.0181807271168495,-0.000499893474087555,0.000541323039219079,0.0242345852512622,-0.0268366403505824,1.26131655695259,-0.00150526761149984,0
0.09,0.000638990481056068,0.000362548489509001,-0.0311960444962088,-0.0181402869419883,-0.000498208864226879,0.000539942746716063,0.0241888446876162,-0.0267798990891581,1.26130612418919,-0.00142573146760106,0
0.1,0.000638254138785034,0.000362439607227454,-0.0311948869472939,-0.0181348359530651,-0.000497535334972533,0.000539619685535272,0.024189137700664,-0.0267745936289862,1.26129623943937,-0.00135436700962833,0
0.11,0.000637720072958134,0.000362423508287313,-0.0312016479947201,-0.0181340386831738,-0.000497026489388836,0.000539446345486575,0.0241955692356697,-0.0267761204417515,1.26128686155985,-0.00128722025405164,0
0.12,0.000637236473629669,0.00036241979036566,-0.0312091705751791,-0.0181338554847999,-0.000496562202586178,0.000539299922803099,0.0242025518738554,-0.0267784526350491,1.26127796283191,-0.00122358221701587,0
0.13,0.000663772777980219,0.00037776295275165,-0.0325071015705347,-0.0189015582023574,-0.000517159080321823,0.000562001454535403,0.0252047199215547,-0.0279052441069801,1.26126923397148,-0.00125269088297691,0
0.14,0.0006809853850846,0.000387967128093973,-0.0334542067935751,-0.0194121260489624,-0.000530440587622242,0.00057696825751793,0.0259510527046737,-0.0286802624368631,1.26126084224128,-0.00125255265267166,0
0.15,0.000642114715384125,0.00036580054254301,-0.0315288429185138,-0.0183030038524625,-0.00050016516848877,0.000544018518865118,0.0244548306996187,-0.0270375505779751,1.26125280377003,-0.0010648245434254,0
0.16,0.000636360551099944,0.000362861570054092,-0.0312787756160498,-0.0181559514479034,-0.00049557586753402,0.000539469952394245,0.0242612503057541,-0.0268214859882775,1.26124557877954,-0.000994987364947339,0
0.17,0.000635245320823681,0.000362470862371828,-0.0312488906696723,-0.0181363972479527,-0.000494629001683561,0.000538761444788398,0.0242385603929896,-0.0267939221335002,1.26123877896145,-0.000943832342915356,0
0.18,0.000634793328693134,0.000362417933183941,-0.0312494719717956,-0.0181337568380494,-0.00049421114665791,0.00053857652285047,0.0242397457664243,-0.0267917405324226,1.26123233420663,-0.000897399154744236,0
0.19,0.000634449139696791,0.000362409827595441,-0.0312540671377232,-0.0181333540464315,-0.000493882494999206,0.000538466967541292,0.0242440813889555,-0.0267929050165943,1.26122621962995,-0.000853631397471972,0
0.2,0.000634134345918057,0.000362407717858488,-0.0312589909708657,-0.0181332495125621,-0.000493580184056821,0.000538371920277009,0.0242486475456433,-0.0267944461896242,1.26122041742884,-0.000812139608351311,0
0.21,0.000633837305519491,0.000362406455392732,-0.0312637427796188,-0.0181331828118478,-0.000493294684997908,0.000538282939104843,0.0242530462519456,-0.0267959638561304,1.26121491152153,-0.000772772210417417,0
0.22,0.000633555690156053,0.000362405355199342,-0.031268263357395,-0.0181331219363479,-0.000493023980528776,0.000538198670223027,0.0242572304633756,-0.0267974098523076,1.26120968676024,-0.000735415792588215,0
0.23,0.000633288395552272,0.000362404323964629,-0.0312725492402855,-0.01813307761866,-0.000492767039429251,0.00053811869584838,0.0242611932282439,-0.0267987936865121,1.26120472878609,-0.000699966981331021,0
0.24,0.000633034721539868,0.000362403346916723,-0.0312766139199062,-0.0181330332916263,-0.000492523191860698,0.000538042795705742,0.024264952081168,-0.0268001040137668,1.26120002397664,-0.000666328274260525,0
0.25,0.000632794027832494,0.000362402419814355,-0.0312804715189462,-0.0181329874993448,-0.000492291822199561,0.000537970777406363,0.0242685205724261,-0.0268013440581761,1.26119555940418,-0.000634407230375231,0
0.26,0.000638027759527216,0.000365527688096511,-0.0315448891880392,-0.0182893612493462,-0.000496322252114394,0.000542544131613821,0.0244726100885587,-0.0270309475277529,1.26119138698014,-0.000623072768279575,0
0.27,0.000623996848469013,0.000357528024987421,-0.0308889173965026,-0.0178890914735433,-0.000485393586438401,0.000530651883813798,0.0239696713912656,-0.026449946409615,1.26118719482792,-0.000546317872445172,0
0.28,0.000623518648864585,0.000357373204880613,-0.0307871778313039,-0.0178813398912986,-0.00048498327207551,0.000530360574378875,0.0238750303005287,-0.0264116558222561,1.26118337964475,-0.000518116180177923,0
0.29,0.000630744641194997,0.00036173297821086,-0.0312365655963698,-0.0180994902174664,-0.000490535408901407,0.000536716463819989,0.024236487861089,-0.0267564428231363,1.26117985533744,-0.00051804892830165,0
0.3,0.000623646732423064,0.000357926035030827,-0.0309074441906661,-0.0179090089347093,-0.00048493340714256,0.000530929264640745,0.0239809773388068,-0.0264748075214584,1.26117694469044,-0.000473716917036804,0
0.31,0.000630481654807433,0.000361805150985547,-0.0312450198450474,-0.0181030902247042,-0.000490259656816358,0.000536708070767247,0.0242432796609102,-0.0267625957650614,1.26117374398432,-0.000474578353072538,0
0.32,0.000631291942661396,0.00036231868628378,-0.0312944304848432,-0.0181287880640026,-0.000490873268736317,0.00053744560779648,0.0242824272719701,-0.0268022025554187,1.26117063324008,-0.000455651205797903,0
0.33,0.000631268778095299,0.000362386214282451,-0.0313035075154051,-0.0181321673134417,-0.000490829037602058,0.000537504320304996,0.0242899635939929,-0.0268082588552887,1.26116767108238,-0.000434934770910778,0
0.34,0.00063113623662182,0.000362394660557235,-0.0313068425549933,-0.0181325889012132,-0.00049069871372646,0.000537473358897671,0.0242929361839493,-0.0268097449183334,1.26116485874728,-0.000414891541005365,0
0.35,0.000630995021575355,0.000362395302448978,-0.031309269276609,-0.018132619129632,-0.000490562584073043,0.000537432250239551,0.0242951667387406,-0.026810577992134,1.26116218981606,-0.000395818078340986,0
0.36,0.000630858813981583,0.000362394934370036,-0.0313114659090187,-0.0181326120089028,-0.000490431604934623,0.00053739163792951,0.0242971931759926,-0.0268113020833667,1.26115965713807,-0.000377711053447515,0
0.37,0.00063072935678424,0.000362394455536877,-0.0313135399398695,-0.0181325825540211,-0.000490307158615706,0.000537352913012969,0.0242991131115407,-0.0268119644121192,1.26115725378007,-0.000360527564596304,0
0.38,0.000630606477052003,0.000362393983946708,-0.0313155055960155,-0.0181325530836634,-0.0004901890408778,0.000537316138510661,0.0243009331184794,-0.0268125907296766,1.2611549731418,-0.000344221353895943,0
0.39,0.000630489769011843,0.000362393534121637,-0.031317364873659,-0.018132538629648,-0.00049007685742665,0.000537281207764236,0.0243026503500486,-0.0268131961121543,1.26115280895763,-0.000328747751309265,0
0.4,0.000630378998150433,0.000362393106927374,-0.0313191271960893,-0.0181325227004307,-0.000489970381418967,0.000537248053127948,0.0243042786475863,-0.0268137678670293,1.26115075528115,-0.000314064259692232,0
0.41,0.000630274046376564,0.000362392701473765,-0.0313208067969896,-0.0181324931803337,-0.000489869497597391,0.00053721664060323,0.0243058351088329,-0.0268142989282104,1.26114880646953,-0.000300130536810687,0
0.42,0.000630174334972771,0.000362392316688583,-0.0313223937883108,-0.0181324786709905,-0.000489773652198039,0.00053718679550589,0.024307301457199,-0.0268148136531431,1.26114695716837,-0.000286908298282036,0
0.43,0.000630079745842984,0.000362391951523623,-0.0313239003816439,-0.0181324641438272,-0.000489682730313491,0.000537158483395156,0.0243086937670647,-0.026815301571778,1.26114520229622,-0.0002743612143087,0
0.44,0.000629989871531,0.000362391604980795,-0.0313253234120289,-0.0181324481450966,-0.000489596341564464,0.000537131581569075,0.0243100093379718,-0.0268157604514686,1.26114353703167,-0.000262454810125654,0
0.45,0.000629904884983339,0.000362391276111488,-0.0313266877917424,-0.01813241856673,-0.000489514648488844,0.000537106144111599,0.0243112754645804,-0.0268161864620175,1.26114195679891,-0.000251156371312585,0
0.46,0.000629824091068573,0.00036239096401536,-0.0313279742569551,-0.0181324039928968,-0.000489436986945567,0.00053708196050508,0.0243124649726226,-0.0268166010627943,1.26114045725621,-0.000240434853916613,0
0.47,0.000629747371687286,0.000362390667838053,-0.0313291916001802,-0.0181323879493188,-0.000489363242487942,0.000537058996000293,0.0243135911463082,-0.0268169913419751,1.261139034283,-0.000230260799149579,0
0.48,0.000629674552221746,0.00036239038676819,-0.0313303450159479,-0.0181323733468379,-0.000489293246940621,0.00053703719855887,0.0243146579414195,-0.0268173617494193,1.26113768396994,-0.000220606252448091,0
0.49,0.000629605343313206,0.000362390120036183,-0.0313314332344544,-0.0181323737415211,-0.000489226722939882,0.000537016481115695,0.0243156599181918,-0.0268177248992176,1.2611364026066,-0.000211444686668202,0
0.5,0.000629539858012776,0.000362389866911021,-0.0313324744706233,-0.0181323591106539,-0.00048916377648344,0.000536996879174352,0.0243166234798717,-0.0268180578325152,1.26113518667241,-0.000202750929195487,0
0.51,4.71137029555667,0.0204494927576508,4.43227408194343,-1.01673690078413,-0.411579358246153,4.69340288868039,-1.41880977999102,4.3203919117466,0.091809836129765,28.5122793147204,688.114700548016
0.52,4.69335947878638,-0.0177994864705853,5.33368565000438,0.905034610948841,-1.92865531855318,4.27881159681624,-1.3468191631847,5.23959620598348,0.419681294427243,60.9865213913308,688.114700548016
0.53,4.68525407282303,-0.00637197246175281,5.73984118503151,0.341605454097024,-3.91640756507143,2.5716527979471,-4.60575503133103,3.44230906616789,0.988410461077011,94.4942962939016,688.114700548016
0.54,4.70782584299675,0.0235074297763238,4.61220912849564,-1.14881282998871,-4.57647429347009,-1.10456317540023,-4.20290326212715,-2.21987570204418,1.81261703860323,130.827780452507,688.114700548016
0.55,4.66677786369521,0.0337087317305489,6.66565178054949,-1.65082822097407,-1.15228437503073,-4.52241004628401,0.00353020672172444,-6.867032474974,2.89932980984493,164.940526294521,688.114700548016
0.56,4.69185881271585,0.0345646986356219,5.4126698494582,-1.68224181161353,4.13483023726212,-2.21763674795355,5.57281011406785,-1.03475593475839,-2.05571758552852,197.810986737624,688.114700548016
0.57,4.67038857067573,0.0520794630656352,6.48726409970824,-2.55651528123007,2.17658856459973,4.13251786348533,0.683855130096162,6.93921523254376,-0.473626591764999,233.269354834626,688.114700548016
0.58,4.41882572893225,0.0381357732037499,7.13899513796708,-1.84844981041413,-4.30783754506122,0.984891285996761,-7.36930787753661,-0.274444325163656,1.35466169777132,265.709376113982,688.114700548016
0.59,4.09126639042452,0.0474257936892323,7.2919704677511,-2.31464109829758,1.08813035116275,-3.94419601721349,4.24462194193712,-6.36502798788099,-2.86081574918711,297.065845759854,688.114700548016
0.6,3.8459272884585,0.0478504270351301,4.6025419614412,-2.33937715780985,2.13405989472248,3.19988042545565,0.543613189267929,5.13425385949735,-0.575735822891937,326.422996007423,688.114700548016
0.61,3.56451677682288,0.0380856743121429,5.17303689067357,-1.85226962566405,-3.3701249025307,-1.16167487369833,-4.25005990289347,-3.48255714385916,1.91342411824387,353.047172430658,688.114700548016
0.62,3.31397707597324,-0.0119301206742184,5.10719838545459,0.661328170455762,3.29163520091622,-0.384348919531069,4.99150580661578,-1.26716221532574,-1.69063523078527,377.522796286086,688.114700548016
0.63,3.07942371189316,0.0483718435095751,4.95853583726448,-2.35709727330683,-2.80933815388798,1.26206551720726,-5.48645849366451,-0.204348727823731,1.16428184890175,400.598299899417,688.114700548016
0.64,2.84451052320772,0.058711207585339,5.6937592916471,-2.8765759103374,2.42456195782398,-1.48868614395658,6.36681511645879,-0.396546481491041,-2.10081067573351,422.060169540695,688.114700548016
0.65,2.63871061287832,-0.000860231239757425,5.75888991722542,0.102764651990071,-2.31332383458334,1.26938066586154,-4.99837599185208,2.86209907174717,1.06860584589491,442.010336976974,688.114700548016
0.66,2.44786937585879,-0.00720927929966797,5.81822361476539,0.419141949321342,2.31533022707985,-0.794583157728437,5.36036709783791,-2.30084127690533,-1.90433080723593,460.539447058054,688.114700548016
0.67,2.2929734456523,0.0322283898661556,4.76299034805722,-1.55543441762688,-2.29052949199382,0.110636964376557,-4.81340459817984,-1.39161397572952,1.53658627895475,477.770853679305,688.114700548016
0.68,2.13053000766732,0.000408193840174542,4.68858914321072,0.0246232474438996,1.97357065036518,0.802606484032044,4.35211551063594,1.74429499805228,-1.18435530687932,493.823819430578,688.114700548016
0.69,1.95506140412926,0.0169861919199199,5.7958139395837,-0.813542515018107,-1.19833362226249,-1.54484632063746,-2.86529896335473,-5.10327076457962,2.49053498465888,508.724701077327,688.114700548016
0.7,1.81071957410432,0.0387467882432156,5.90646924886925,-1.90141054901857,0.0623244396218096,1.81006142267867,-1.82432956396894,5.93073036866338,-0.0130233328962165,522.476280214425,688.114700548016
0.71,1.70169227849637,0.0371748369723479,4.85467312661033,-1.81754082232507,1.09704426154823,-1.30139635292335,4.5730231777405,-2.44105813591131,-2.41934894576624,535.125047398828,688.114700548016
0.72,1.5633100512605,0.0621835552926366,5.72514475322471,-3.06613240226694,-1.56146299901834,0.098175422675909,-5.79424933983087,-2.93344932485243,1.54776087733734,546.98089874039,688.114700548016
0.73,1.45170860908345,0.0491988882197789,5.60654388656764,-2.43628689061274,0.955721601866946,1.09383483031669,1.65590463460055,5.8844547756346,-0.684235633140498,558.145718281635,688.114700548016
0.74,1.33382832537603,0.0386997434622524,6.2013548272022,-1.90757213013047,0.36141819740337,-1.28451257615687,3.67256681117462,-5.34863404449895,-2.83831178693344,568.351851574407,688.114700548016
0.75,1.23531043504303,0.0384058944925271,6.31444204278454,-1.88458896285786,-1.2007676077219,0.292615850397416,-6.56748773652342,-0.540332028687154,1.36284468891987,577.728454145284,688.114700548016
0.76,1.21069749178628,0.0120339073957145,2.98890208769082,-0.582109458236207,0.744185863706455,0.955050067695027,1.35088605134904,2.72900970819842,-0.65199646042774,586.692215003583,688.114700548016
0.77,1.12949861888034,-0.0159601509527982,2.80235142402858,0.824189703591495,0.591830175659948,-0.962163655335903,0.726299841692862,-2.82930215975922,-2.60427099492289,594.851987432133,688.114700548016
0.78,1.00852887628143,0.0429611593701571,4.9881526907258,-2.11629498412737,-0.994726707351304,-0.171740889685434,-4.42637529540148,-3.12531173966649,1.78433431927429,602.386530108556,688.114700548016
0.79,0.925151623595662,-0.0212473066313487,5.46561938417492,1.0765376959544,0.0308768089456319,0.924880315148999,1.38257011619222,5.39633473176856,-0.0563345191623049,609.567476656335,688.114700548016
0.8,0.834076232832821,0.0287756193614634,6.66467913440425,-1.41503728385875,0.794591790409232,-0.255215761779083,6.79791767397877,-0.456720677308134,-1.84709299278518,616.041516254779,688.114700548016
0.81,0.8367870404421,0.0156891082065658,3.39636949291812,-0.775411559260557,-0.37807337183214,-0.746672099840112,-0.778962146338687,-3.39555691945095,2.69162929943217,622.198126680722,688.114700548016
0.82,0.77631553145781,0.0429530733649071,3.48739702764296,-2.13042857807519,-0.625607573422664,0.461655645444002,-4.08454343949744,0.131029941428826,0.990336835222099,627.809136235525,688.114700548016
0.83,0.67641831630936,0.0183709811968713,5.81599480280963,-0.901126457169665,0.43508466610402,0.518247590356268,2.91163222224256,5.11470646670155,-0.671231973311998,633.023334118813,688.114700548016
0.84,0.653722816673467,0.0240624692752267,4.42561868203349,-1.19170206934352,0.473272416976183,-0.451603523897495,4.10246162157774,-2.04354182348274,-2.295978045993,637.873513247739,688.114700548016
0.85,0.606460641299949,0.0359515655321282,4.50852712448112,-1.77627184766498,-0.437644537677415,-0.421371905982445,-1.75151475032202,-4.51820258381511,2.39646508393201,642.342575917742,688.114700548016
0.86,0.577890762195443,0.016581225218001,3.73081500659209,-0.82084712618291,-0.418355073380035,0.399013411601347,-3.32175930372021,1.8864479176812,0.837741873563175,646.569548093089,688.114700548016
0.87,0.520043627804128,-0.0218700443162237,4.62980787348435,1.11478668881326,0.314726885097546,0.414572866279099,3.81072688922317,2.85591156772831,-0.6913668774811,650.44467066563,688.114700548016
0.88,0.456795978488162,0.0459178552166325,5.91784320780848,-2.29240847765272,0.344412354405554,-0.303564071529349,6.14481024917406,-1.58660387692215,-2.19305298628149,654.040220885404,688.114700548016
0.89,0.409709275624291,0.0444898907112174,6.56385077457525,-2.20949542946297,-0.244820303390956,-0.331517812425875,-1.39780053451398,-6.78322642327545,2.61366830612475,657.355595026903,688.114700548016
0.9,0.387234999147027,-0.0241385980490629,6.07186213250464,1.21267588263073,-0.364758029680341,0.13223160085202,-5.08511044252943,3.53266816156515,1.16075759186921,660.460566307636,688.114700548016
0.91,0.355547087351185,-0.0247887826012098,6.16303794922997,1.24588563094043,0.354304948182944,0.0386809870587919,6.2070654816222,-1.0037957341445,-1.53166019541528,663.352616726486,688.114700548016
0.92,0.349262223157793,0.0229894695742393,5.08303580360357,-1.1441347686174,0.0466285292432601,-0.346898250928193,2.12804677595178,-4.75580847688763,-2.94224979791174,666.001328329189,688.114700548016
0.93,0.293142582268715,0.0228338678170677,6.61406630553421,-1.15015272483882,-0.280854184739393,-0.0870338208573463,-5.7218179580959,-3.51134214209728,1.94903778915156,668.483033677823,688.114700548016
0.94,0.343325553169352,-0.013306223499055,2.90877669554118,0.675519091903579,-0.19776512819869,0.280959863879886,-1.01386646102645,2.80880449787012,0.574595142560439,670.750186832742,688.114700548016
0.95,0.268496509178418,-0.0298390556717234,5.52766618233874,1.48490033757492,0.168376347563129,0.211258491582414,4.95348019965017,2.86758719964627,-0.783598334607958,672.924205129672,688.114700548016
0.96,0.282590632061608,0.0113766703555727,3.77574623379358,-0.557972385808148,0.234062370850381,-0.158750434674231,3.50191293486794,-1.51795869572774,-2.12653166225443,674.904228190917,688.114700548016
0.97,0.220132466690743,0.0324380070228676,5.91195802355103,-1.63050250419551,-0.0987876358373356,-0.199377857839422,-0.273509061320328,-6.12657970500612,2.82787187643256,676.778347878896,688.114700548016
