t,iq,id,vq,vd,ia,ib,va,vb,theta_e,omega,r
0,0,0,0,0,0,0,0,0,0,0,0
0.01,0.000462149318919091,0.00023469580760569,-0.0201510021659042,-0.0117384849068305,0.000478980469802742,0.000198095493721112,-0.0220275227698195,-0.00765788200635439,-0.708744068883174,-0.00688771315513293,0
0.02,0.000635468033498579,0.00031008846526525,-0.0285858216414668,-0.0155093047400891,0.000649042088506506,0.000280568788777765,-0.0303809444095566,-0.0116054275760152,-0.708798244325862,-0.00748894979322635,0
0.03,0.000698078642585449,0.000343111841092,-0.0321544284768647,-0.0171609864756357,0.000714881633945161,0.000306567735059289,-0.033958359540563,-0.0132376940894028,-0.708848497100552,-0.00626199552495988,0
0.04,0.000680162770731073,0.000344055086367539,-0.0321453399156028,-0.0172081596150308,0.000703945914955731,0.000292327634617537,-0.0339887392054341,-0.0131988349050593,-0.708885336566175,-0.00420230014283192,0
0.05,0.000673643939541729,0.000353314054381935,-0.0323711654781808,-0.0176712663366765,0.000706737639387627,0.000281334120536251,-0.0344876144357201,-0.0130679171596177,-0.708910339133823,-0.00290696184911698,0
0.06,0.000659004762096157,0.000356095191447546,-0.0320920411347934,-0.017810361019039,0.000699322903870475,0.000268399958941211,-0.0344116941223156,-0.0127649273972853,-0.708926692807654,-0.00187106633145928,0
0.07,0.000651205429474284,0.000360670017002165,-0.0319543961808459,-0.0180391652142042,0.000697720366259551,0.000259495015458421,-0.0344958770158969,-0.0125111704413268,-0.708935970819644,-0.00129256509291072,0
0.08,0.000637788693977635,0.000358304493035431,-0.0315278361554088,-0.0179208645304112,0.000687191745475467,0.000250846632119022,-0.0341284562585048,-0.0122641881741506,-0.708942317965552,-0.000749885554070999,0
0.09,0.000629437761434533,0.000357593282083262,-0.0312494746798678,-0.0178852909963946,0.000681215990225493,0.000244968621606722,-0.0339202719596793,-0.0120759451793558,-0.708945618491984,-0.000442705956510797,0
0.1,0.000624553771274743,0.000357379401203595,-0.0310804681770616,-0.0178745939682279,0.000677874391818926,0.000241399582713527,-0.0338021427759687,-0.011954570481091,-0.708947235340539,-0.000277806955747851,0
0.11,0.000621848794650861,0.000357315063437479,-0.0309836714688857,-0.0178713669041665,0.000676064697711999,0.000239387765927253,-0.0337366839625911,-0.0118831733103338,-0.708947970013808,-0.000194046112375042,0
0.12,0.000620428235396903,0.000357295706106185,-0.0309310975907189,-0.0178704012614698,0.000675125241130799,0.000238321895065714,-0.0337017270658144,-0.0118438858570096,-0.708948268687423,-0.00015416034848351,0
0.13,0.000641884117624894,0.000368872544128271,-0.031835876524624,-0.018449436149987,0.000697881430961643,0.000247070197696286,-0.0347302989207543,-0.012153644112718,-0.708949392692624,-0.000491355033014684,0
0.14,0.000653835876724721,0.000375495522549591,-0.0326009981670184,-0.0187806888375448,0.000710690038079593,0.00025182913040711,-0.0354798784910816,-0.0125186891069594,-0.70895108644762,-0.000628932012700308,0
0.15,0.000631527691275095,0.000362759038447213,-0.0314747652801338,-0.0181436626897278,0.000686499383392071,0.000243187050281682,-0.0342631457604081,-0.0120785010592857,-0.708952680271755,-0.00014832079294411,0
0.16,0.000621968104881279,0.000358931383002688,-0.0310707667628531,-0.0179522149774723,0.000677370229693165,0.000238423222692885,-0.0338548031963904,-0.0118965066453424,-0.708952138738404,-1.4497049595289e-09,0
0.17,0.000618462532910344,0.000357781172946271,-0.0309056486422609,-0.017894692569957,0.000674214656093364,0.000236511880964983,-0.0337036303630127,-0.0118086595566799,-0.708951082634921,1.40232468370217e-05,0
0.18,0.000617591257444137,0.000357435605842424,-0.0308507160857098,-0.0178774005873464,0.000673384893997834,0.000236076170188557,-0.0336547304296771,-0.0117782534557249,-0.708950118305229,-1.55225799671282e-05,0
0.19,0.000617713316091282,0.000357331828535756,-0.030841631145261,-0.0178722193607068,0.000673385418793099,0.000236236860625175,-0.0336448746234505,-0.0117747546959525,-0.708949406316366,-5.12561238977458e-05,0
0.2,0.000618105226192083,0.000357300689032034,-0.0308484246678358,-0.0178706569753113,0.000673616819071629,0.000236554928277881,-0.0336481059926107,-0.0117809442884016,-0.708948936029094,-8.05165407807692e-05,0
0.21,0.00061848671857883,0.000357291359603448,-0.0308583891274195,-0.0178701887468199,0.000673858034760023,0.000236850766718304,-0.0336542344138957,-0.0117888223076256,-0.70894864790668,-0.000101013358237043,0
0.22,0.000618776126880283,0.000357288572015983,-0.0308669724647054,-0.017870046733255,0.00067404429468156,0.000237072368059677,-0.0336597127199776,-0.0117954355152397,-0.708948481616832,-0.000114102144584654,0
0.23,0.000618970482205384,0.000357287742833207,-0.0308731342217151,-0.0178700054278057,0.000674170176023937,0.000237220494014043,-0.0336636918193304,-0.0118001425311302,-0.708948390653139,-0.000121916623333076,0
0.24,0.000619090972045768,0.000357287497922403,-0.0308771227014126,-0.0178699920120379,0.000674248422147898,0.000237312142696692,-0.0336662777230792,-0.0118031802960427,-0.708948343499365,-0.000126326635253028,0
0.25,0.000619161228688459,0.00035728742631656,-0.0308795217669316,-0.0178699889483839,0.000674294101927791,0.000237365532924027,-0.0336678370036601,-0.0118050040688152,-0.70894832048539,-0.000128686943033268,0
0.26,0.000622301132080002,0.000359148148653411,-0.0310022237927657,-0.0179630516882339,0.000677750589645955,0.000238537690740447,-0.0338183555605268,-0.0118375644975085,-0.708947994995134,-0.000201093523743889,0
0.27,0.000616817597868542,0.000355303107171673,-0.0307922539376535,-0.0177707460824624,0.000671262233285042,0.000236878156805015,-0.0335356980266019,-0.0118033587066081,-0.708948786988346,-6.41195582328503e-05,0
0.28,0.000615768265848388,0.000354965128622467,-0.0305146930198924,-0.0177538416884229,0.000670322538030242,0.000236301702855885,-0.0333421645638978,-0.0116036824753959,-0.708948784369443,-4.51644520179897e-05,0
0.29,0.000617639110067119,0.000356589471782504,-0.0308178703443154,-0.0178350813692805,0.000672773381164656,0.000236664528957983,-0.0336012038874233,-0.0117809319378265,-0.708948376754845,-9.83644022658527e-05,0
0.3,0.000606126701404161,0.000351527692511088,-0.0303006607257675,-0.0175819075546595,0.000661435751318637,0.000231222930599042,-0.033072285543877,-0.0115532438121477,-0.708946169153271,7.03896963393965e-06,0
0.31,0.000615102477784745,0.000355556686779673,-0.0306649316960209,-0.0177834336792128,0.000670337431662806,0.000235413133453477,-0.0334624035667453,-0.0116985510590354,-0.708945919256354,-0.000167915867036965,0
0.32,0.000618760031250164,0.000356767469685369,-0.0308248702671007,-0.0178439809147821,0.000673637780702382,0.000237400808989301,-0.0336124929803131,-0.0117805177101476,-0.708946400527131,-0.000211760752948789,0
0.33,0.000619968795608111,0.000357131280220834,-0.0308861877738495,-0.0178621827819848,0.00067470101773293,0.000238081069197222,-0.0336662358347673,-0.0118151908006749,-0.708946989026184,-0.000206039286390351,0
0.34,0.00062016094633032,0.000357240563492697,-0.0309036088950331,-0.0178676528367662,0.000674909180926474,0.00023815544725883,-0.0336817353421977,-0.0118248367840962,-0.708947472515879,-0.000186776962737361,0
0.35,0.000620003434394453,0.000357273370666837,-0.0309037978211959,-0.0178692827488506,0.000674831618064903,0.000238014300638565,-0.0336830995320015,-0.0118239076302635,-0.708947811784201,-0.000167941433860648,0
0.36,0.000619777472912203,0.00035728320809601,-0.0308987510908048,-0.017869776808955,0.000674692027785704,0.000237836234327799,-0.0336801915102001,-0.0118197479672631,-0.708948028684125,-0.000153624830744725,0
0.37,0.000619583699805169,0.000357286151725338,-0.0308933038461769,-0.0178699244838034,0.000674568139749166,0.000237687147558113,-0.0336767587834763,-0.0118155127450566,-0.708948158299238,-0.000144001751688216,0
0.38,0.000619444816384672,0.000357287029355611,-0.0308890006574566,-0.017869968674592,0.000674478405234679,0.000237581107758342,-0.0336739916614661,-0.0118122151872867,-0.70894823150543,-0.000138030461294885,0
0.39,0.000619354710943218,0.000357287289472164,-0.0308860319079611,-0.0178699821490994,0.000674419950121755,0.000237512517698946,-0.0336720695901837,-0.0118099516740141,-0.708948270718492,-0.000134547052737991,0
0.4,0.000619300286786197,0.000357287365871837,-0.0308841490508645,-0.0178699867752094,0.000674384580755748,0.000237471144065961,-0.033670847528849,-0.0118085188161418,-0.708948290589129,-0.000132622280438362,0
0.41,0.000619269262104937,0.00035728738803253,-0.030883022700861,-0.0178699884135001,0.000674364401637596,0.000237447574085455,-0.0336701155895684,-0.0118076624793237,-0.708948300023173,-0.000131613940707386,0
0.42,0.00061925244009097,0.000357287394371584,-0.030882374830283,-0.0178699885494411,0.000674353455689434,0.000237434798492502,-0.0336696939542329,-0.0118071704884593,-0.708948304126265,-0.000131115677095613,0
0.43,0.000619243883564835,0.000357287396174154,-0.0308820171367998,-0.0178699886579065,0.000674347886819703,0.000237428301470502,-0.0336694611835472,-0.0118068988596039,-0.708948305673059,-0.000130886637590748,0
0.44,0.000619239750820919,0.000357287396703064,-0.0308818188225676,-0.0178699887516582,0.000674345196756304,0.00023742516389656,-0.0336693321499864,-0.0118067482546286,-0.70894830609241,-0.000130791783479253,0
0.45,0.000619237946383435,0.000357287396879087,-0.0308817079087149,-0.0178699888376616,0.000674344022132457,0.000237423794140411,-0.0336692600061755,-0.011806664010375,-0.708948306075679,-0.000130759309669433,0
0.46,0.000619237189683845,0.000357287396953588,-0.0308816369605889,-0.0178699889201777,0.000674343529516357,0.000237423219818197,-0.0336692138773405,-0.0118066101085275,-0.708948305932086,-0.000130753126015348,0
0.47,0.000619237015060863,0.000357287396994418,-0.0308815905627142,-0.0178699890007563,0.00067434341582638,0.000237423087344395,-0.033669183730076,-0.0118065748428853,-0.708948305784048,-0.000130756273408167,0
0.48,0.000619236956853202,0.000357287397019582,-0.0308815488852412,-0.0178699890809474,0.000674343377922959,0.000237423043223055,-0.033669156656061,-0.0118065431593819,-0.708948305669281,-0.000130761487300316,0
0.49,0.000619237015060863,0.00035728739703564,-0.0308815132253482,-0.017869989160751,0.000674343415811939,0.000237423087447444,-0.033669133499848,-0.0118065160425135,-0.708948305591437,-0.000130766105900348,0
0.5,0.000619237073268523,0.000357287397045298,-0.0308814780980394,-0.0178699892405544,0.000674343453703018,0.000237423131656239,-0.0336691106907122,-0.0118064893289151,-0.708948305542895,-0.000130769469189637,0
0.51,1.05335414776864,0.0302781251136695,-0.0332860551806278,-1.51366450365376,-0.0472523683779443,1.0527292810426,-1.50712013007634,-0.144489115886144,0.0735920510399226,21.9013903930312,140.17602267811
0.52,0.895595753770229,-0.0259158696720192,-0.844053309766715,1.29827659474125,-0.300145203151135,0.844201541989522,1.49496172039596,-0.403779098928891,0.312670409146836,42.6782782021966,140.17602267811
0.53,0.709978023728694,-0.0247082786874757,1.12712639860132,1.23860914084535,-0.471707298777317,0.531198190408821,0.235557109505594,1.65803479166482,0.691361619073266,60.0871917722225,140.17602267811
0.54,0.590362652497843,-0.0250707678540225,0.853108582446025,1.25751038644173,-0.557003293394585,0.197240807168966,-0.32169778407447,1.48513876832216,1.18802292507837,75.0941161438951,140.17602267811
0.55,0.481206670445937,0.0211519446714415,0.818746557966363,-1.05552721155946,-0.47451961446304,-0.082694618536495,-0.572934516459218,-1.20674341115827,1.78726154553762,88.1708192254113,140.17602267811
0.56,0.393766417168602,0.0318156735763328,0.576606721746465,-1.59188614598224,-0.268471157246177,-0.289805911088459,0.894614027246008,-1.4374430616856,2.47501445372161,98.9789011145985,140.17602267811
0.57,0.321720451580122,0.0071519793600357,0.726988918058422,-0.357410571353382,0.0218210332419503,-0.321059250422625,0.421365731092931,-0.691885918454355,-3.05150451063205,107.136491561719,140.17602267811
0.58,0.2632556750608,0.0363408922473033,0.931660816240852,-1.8159118723698,0.183578149948077,-0.192154296758332,1.85879121915676,0.842865949198262,-2.24183854511294,113.555643057884,140.17602267811
0.59,0.246576433871417,-0.00447023388479182,-0.521184480564107,0.227128105793361,0.241709515454047,0.0489533540291153,-0.471562373658398,-0.317567893483922,-1.38909677293186,118.979594771983,140.17602267811
0.6,0.227293601653222,-0.0100561317440128,-1.49142375850797,0.501774426191895,0.100057047192536,0.204333292552284,-0.274009071644096,-1.54952942239861,-0.499568187480402,123.549801751625,140.17602267811
0.61,0.155774926187256,-0.0175838547719599,0.407048689647464,0.878549915789506,-0.0797248246156595,0.13497767192128,0.63540270611349,0.730617541085019,0.421113498419817,127.454833498282,140.17602267811
0.62,0.126708320726735,-0.00341276670119849,0.588886618961797,0.171914285046025,-0.12476940822888,0.0223436856440698,-0.54181060878258,0.287720759775503,1.36666728631996,130.441895645691,140.17602267811
0.63,0.124388046273109,0.0328013973045779,-0.398155190311812,-1.63766837147172,-0.112638352360465,-0.0621362961423804,1.41858773338717,-0.909996754485703,2.33273368685313,133.070373424204,140.17602267811
0.64,0.0717755162047383,0.0130015088516355,1.23432600086083,-0.652781112933036,-0.000276431407702775,-0.0729430431539063,0.858167119938431,-1.1014685887758,-2.96618414339211,135.372974488804,140.17602267811
0.65,0.0886771291974276,-0.0116689434462245,-0.372703641233939,0.582555960217798,0.0863064971196464,-0.0234730918028478,-0.568723126185249,-0.393488826672874,-1.96718415361448,137.129550373164,140.17602267811
0.66,0.0389523857327946,0.0500459084553832,1.542659415456,-2.50212445863232,0.0606657112357544,-0.0184811468167177,-0.17980442753238,2.9339555631299,-0.957096451317795,138.435834992381,140.17602267811
0.67,-0.0147765804312324,0.0156813679769083,3.73434980672659,-0.781815114928152,0.0165679854646199,-0.0137751402356575,-1.0120111108901,3.67864606402465,0.0620861122266431,139.523939439743,140.17602267811
0.68,-0.00801696852581358,-0.0505045095021849,3.00509818303586,2.52348600874267,-0.0163284669594492,-0.0484598641264536,-1.49141729683923,3.6296378845133,1.08837166674238,140.437204266413,140.17602267811
0.69,0.0650463022322945,0.0370758504541828,-0.947497571184648,-1.85499151360908,-0.0748336416914605,-0.00235927789588816,1.7768875995326,-1.08692944646366,2.12037509790343,141.163684951816,140.17602267811
0.7,0.0492614149882111,-0.0189538654314856,-0.478840848957025,0.950589109563276,0.0197414053339976,-0.0489511280449636,-0.958145769165513,0.463535218597697,-3.12555553655308,141.849051615927,140.17602267811
0.71,0.0258952002138961,0.00738122436931129,0.451027106338172,-0.36939812473422,0.0189393779394047,-0.0191401105163024,0.574266364344221,0.100491631451646,-2.08378768112268,142.339863826667,140.17602267811
0.72,0.00441792073963998,0.00953196717272723,1.36401806009914,-0.479133973414531,0.00864209418012968,-0.00597416354190771,0.932534400471369,1.10475980407242,-1.03886507622346,142.684113942874,140.17602267811
0.73,0.0325907657140545,0.000996739717714887,-0.231051932437314,-0.0490544897170448,0.000720783906323039,0.032598036297508,-0.0470965987316658,-0.231458957122694,0.00846630570088524,143.086149604516,140.17602267811
0.74,-0.0146056614763195,0.0623366794071413,2.04169294281704,-3.11569772357636,0.0433010098763762,0.0471615255304101,-3.30735217642467,-1.71391480492666,1.05819877372616,143.246431165199,140.17602267811
0.75,-0.024102136421813,-0.0284912993513273,2.41884232442798,1.42205602985628,0.0352972485706187,-0.0121149231184759,-2.80583384475718,-0.0183841809689729,2.10882901390247,143.445763602184,140.17602267811
0.76,-0.0404261971611511,0.0383813355052142,3.13912516886274,-1.92129363494117,-0.0391562758012452,0.0396760683215071,1.98166656412096,-3.10136642241738,-3.12224448369237,143.63416095295,140.17602267811
0.77,-0.0111672499904746,-0.0359410686082588,1.59420471307641,1.79980719981751,0.0073531944342855,0.0369106816066151,0.541105649686334,-2.34264792480379,-2.06869113031866,143.840931433716,140.17602267811
0.78,0.00294560244684507,0.0268697759964122,0.844136852232261,-1.34276808525488,0.0166989576131852,-0.021255734532245,0.00713748991673968,1.58604609400652,-1.01407370464467,143.856439334361,140.17602267811
0.79,0.0216236019812,-0.019052480535912,-0.0715864765543092,0.950747438615475,-0.0198966300927868,0.0208494913166598,0.952841048820253,-0.0337527975502453,0.0397446179571667,143.800947967335,140.17602267811
0.8,-0.0113700113394251,0.00484865091667628,1.49931833354272,-0.24218111113241,0.0123276231927013,-0.000903482146594411,-1.44350263447557,0.472130596497143,1.09454644397773,143.967028762153,140.17602267811
0.81,0.00606931541808602,0.0442727865477001,0.590796491839227,-2.21192384932661,-0.0293142136915693,0.0337282239969353,0.716390192749217,-2.1744959649818,2.15005223601902,143.956460645261,140.17602267811
0.82,-0.0201313939143842,-0.0172745569379522,2.01011463064309,0.861044078217627,0.0159779412054771,0.0211751914554031,-0.733277943773065,-2.0601604767918,-3.07883316352587,143.647932301512,140.17602267811
0.83,0.0240859694940965,0.00671067339735338,-0.222294920869305,-0.336829358864289,0.0186879690614972,-0.0166110468144851,-0.0516928678987229,0.400246044634577,-2.02570185267353,143.727307319225,140.17602267811
0.84,-0.00620371969799793,-0.00701596136696179,1.24228441149945,0.352772009557804,-0.00907874190193979,0.00229919496171824,1.225012789007,0.408732573391561,-0.972068964414693,143.827900235815,140.17602267811
0.85,0.0280937203656809,-0.000138700753606513,-0.50664325582939,0.00963751540177966,-0.00244766287779346,0.0279872347387304,0.0512532764274297,-0.504136263361383,0.0822974138782134,143.860639751375,140.17602267811
0.86,0.00964567892402219,0.0298677194287094,0.405987822100028,-1.49666499023296,0.00380755549850099,0.0311548119381784,-0.997683326543592,-1.18720688366412,1.13681179909719,143.801962526059,140.17602267811
0.87,0.0319320180756144,0.026493573331584,-0.724696797389124,-1.32493016732905,-0.0413835017929987,0.0029948264734807,1.35986993527542,-0.656794606843468,2.1911369704253,143.867325166182,140.17602267811
0.88,-0.00571877185919688,0.0361170407603667,1.12295005090492,-1.80408448642743,-0.0365161336340178,0.00192794431612699,1.91118100083665,-0.92904511894553,-3.03730446324381,143.851581057288,140.17602267811
0.89,-0.0324929191773042,0.050051490163002,2.53371903314181,-2.50699480474961,-0.0498359743760535,-0.03282250938288,3.32636109430841,1.28065489505096,-1.98338248445014,143.636364139086,140.17602267811
0.9,-0.0072827198416385,0.0108339694826029,1.29470280268888,-0.54348964872166,0.000629898399024361,-0.0130390233932098,0.71378183114147,1.20919470851074,-0.930693566056703,143.573560248194,140.17602267811
0.91,0.0178664865309952,0.0387251784194997,-0.0134329260427534,-1.93545150064281,0.0362604192158226,0.0224506744414755,-1.919401963395,-0.24909648282944,0.12211650909495,143.695330262025,140.17602267811
0.92,0.0026075766894444,-0.00163565312059292,0.752181347723809,0.0845287270781566,-0.00303642943951132,-0.000504889672213776,-0.661564473914601,0.367769401145822,1.17533666555289,143.645168889941,140.17602267811
0.93,-0.00174868581016142,0.047242650818811,0.960958348437818,-2.36602429723927,-0.0274943449735688,0.0384575994170873,0.685773780916136,-2.45992403215362,2.22846787194343,143.597583637697,140.17602267811
0.94,0.0235254775776372,-0.0278181118120848,-0.306933721187561,1.3916481844168,0.0308172867373545,-0.0194316823304942,-1.42079772300373,0.110574900859304,-3.00218325368388,143.621030912854,140.17602267811
0.95,-0.0149719933885481,0.0467516748504681,1.59024900656253,-2.33630064196697,-0.0311813738497418,-0.0379157172185,2.34072881586646,1.5837238405419,-1.94911406222801,143.605113359421,140.17602267811
