t,iq,id,vq,vd,ia,ib,va,vb,theta_e,omega,r
0,0,0,0,0,0,0,0,0,0,0,0
0.01,0.00103641635317391,0.000592176506472007,-0.0516063597517241,-0.0296502671524001,-0.000406480073477694,-0.00112232162137654,0.0204014613900522,0.0559118509994373,-2.96997346441075,-0.00103016065016042,0
0.02,0.00114613328405839,0.000655011699396227,-0.057096885550789,-0.0327964194921353,-0.000449664479217852,-0.00124115417547625,0.0225642091998455,0.0618588387725604,-2.96998113964329,-0.00110438160194218,0
0.03,0.00118654275002484,0.000678125453775753,-0.0591078216372918,-0.033953724303,-0.000465548095154511,-0.00128491353786669,0.0233616103696345,0.0640376852617849,-2.9699890189037,-0.00110671188411464,0
0.04,0.00116277485020959,0.000664858395786131,-0.0579284642605081,-0.0332894592408112,-0.000456543871899591,-0.00125922584620797,0.022908955683252,0.0627620491828413,-2.96999640535282,-0.00104584729719731,0
0.05,0.00118630901087261,0.000678378118042812,-0.0591004034703064,-0.033966380133841,-0.000465855912833683,-0.00128471950588241,0.0233762915829514,0.0640321923846,-2.97000376961665,-0.00103346794633979,0
0.06,0.00118661887965558,0.000678731368085505,-0.0591178319202518,-0.0339840760855468,-0.000466160249468783,-0.00128508180961116,0.0233912095309713,0.0640522192825321,-2.97001091598633,-0.00099841567823568,0
0.07,0.00121940098876205,0.000697671213947762,-0.0607492864799043,-0.0349323975443916,-0.000479233742326385,-0.00132061308276916,0.0240474987164433,0.0658214707485298,-2.9700177411959,-0.000998162295196802,0
0.08,0.00118689181714153,0.000679233852971469,-0.0591351994347808,-0.0340092357989696,-0.000466626153076982,-0.00128543021820889,0.0234139017108519,0.0640733106565892,-2.97002445140875,-0.000931704552229714,0
0.09,0.00118570375269501,0.000678744300487388,-0.0590779540558275,-0.0339847149558312,-0.000466354849283027,-0.00128417302928747,0.0233999242770538,0.0640125694678765,-2.9700308568042,-0.000898787455962169,0
0.1,0.00118538278606535,0.000678728397373047,-0.0590637438598415,-0.0339839339148103,-0.000466401901010288,-0.00128385118048574,0.0234019757625265,0.0639982900824489,-2.970037030015,-0.000867906610822256,0
0.11,0.0011850960458683,0.000678725098251718,-0.059051170991744,-0.0339837756838647,-0.000466455239860546,-0.00128356531042878,0.0234043470196163,0.0639857354870036,-2.97004298108151,-0.00083816008458335,0
0.12,0.0011848206892413,0.000678722234983324,-0.0590391023998971,-0.0339836067154359,-0.00046650678680363,-0.0012832908305529,0.023406607769294,0.0639736809188699,-2.97004871804195,-0.000809484402241906,0
0.13,0.00124152313281209,0.000711254309265468,-0.0618593093743867,-0.0356124916932614,-0.000488889781945779,-0.00134471155377845,0.0245305502083697,0.0670304097209121,-2.97005447255652,-0.000838993700017785,0
0.14,0.00130945356347676,0.000750690217380205,-0.0652746393642054,-0.0375870434904951,-0.00051615913622718,-0.00141837378129375,0.0258935222625993,0.0707325235469492,-2.97005999418241,-0.000881138290814379,0
0.15,0.0011874439515815,0.000680612917062417,-0.0591741937347162,-0.0340782976012349,-0.000467943329282622,-0.0012861905463809,0.0234779156995977,0.0641225626901689,-2.97006536561879,-0.000729774254061994,0
0.16,0.00118387678405162,0.000678761595115066,-0.0589982633716646,-0.0339855839161497,-0.000466734378447645,-0.00128235742396363,0.0234169073929801,0.0639332733648336,-2.97007030398081,-0.000701684683738799,0
0.17,0.001183557121299,0.000678710447795305,-0.0589837088071933,-0.0339830301486173,-0.000466744637469102,-0.00128203150301306,0.0234171791862767,0.0639183851617937,-2.97007505811341,-0.000677828443942177,0
0.18,0.00118333443457536,0.000678706879304818,-0.0589739254837246,-0.0339828509535363,-0.000466785003458834,-0.001281809335515,0.0234189653050932,0.0639086074791886,-2.97007964102446,-0.000654918638047803,0
0.19,0.00118312199245681,0.000678704645806407,-0.0589646038110004,-0.0339827387111659,-0.000466824723074388,-0.00128159756678947,0.0234207279796476,0.0638992999476753,-2.97008405904879,-0.000632835481438528,0
0.2,0.00118291746657587,0.000678702524339031,-0.0589556298671711,-0.0339826264890168,-0.000466862996515913,-0.00128139369116546,0.0234224210919454,0.0638903387557031,-2.97008831812317,-0.000611546888406719,0
0.21,0.00118271983434014,0.000678700479883058,-0.0589469542835135,-0.0339825424848343,-0.000466899971318109,-0.00128119669243962,0.023424081225356,0.06388167993865,-2.97009242396651,-0.000591024208391159,0
0.22,0.00118252974395163,0.000678698508861563,-0.0589386111255541,-0.0339824302957017,-0.000466935540572622,-0.00128100720615123,0.023425647350625,0.0638733473086832,-2.97009638209154,-0.000571239883986773,0
0.23,0.00118234631437956,0.000678696608620113,-0.0589305579495187,-0.033982346312602,-0.000466969858994273,-0.00128082436128856,0.0234271826216634,0.0638653085451126,-2.97010019781305,-0.0005521673509395,0
0.24,0.00118216972816091,0.000678694776621934,-0.058922805431239,-0.0339822341521588,-0.000467002899647845,-0.00128064833491261,0.0234286299942171,0.0638575644262594,-2.97010387625408,-0.000533781000756706,0
0.25,0.00118199933709927,0.000678693010419874,-0.0589153226504653,-0.0339821501870102,-0.000467034777205738,-0.00128047848563585,0.0234300506122619,0.0638500939909081,-2.97010742235381,-0.000516056146276595,0
0.26,0.00119368229950697,0.000685435384242805,-0.0594970106225917,-0.0343197411624709,-0.000471688997641579,-0.00129313904419912,0.0236636462072079,0.0644807781797326,-2.97011081845062,-0.000511196259847047,0
0.27,0.00115180044592599,0.000661514725183556,-0.0574160603288579,-0.033122034634629,-0.000455270231543992,-0.00124778804896499,0.0228388156697397,0.0622258922059641,-2.97011419911209,-0.000451631589751828,0
0.28,0.00114458011565003,0.000657307835364579,-0.0570235989291562,-0.0329113916161959,-0.000452361070115294,-0.00123995431118136,0.0226984285619507,0.0618031704184008,-2.97011738967372,-0.000428456463216259,0
0.29,0.00118036618259961,0.000678122456004422,-0.0588377345746203,-0.0339535962771077,-0.000466767848487198,-0.0012787658761403,0.0234159817020603,0.0637684679990908,-2.97012037682941,-0.00045027107371641,0
0.3,0.0011754089637208,0.000675429366595708,-0.0585920579933267,-0.0338187355294083,-0.000464963464968544,-0.00127342060510247,0.0233251861087034,0.063503321375309,-2.97012300320734,-0.00043220247065119,0
0.31,0.00118095375214921,0.00067859792646094,-0.0588684671709189,-0.0339773990766899,-0.000467143089177134,-0.00127942340323539,0.0234345406042065,0.0638026831860542,-2.97012584965952,-0.000423785554433708,0
0.32,0.00118097696536582,0.000678680191197666,-0.0588703802245684,-0.0339815024233619,-0.000467223711938844,-0.00127945902538958,0.0234384331558268,0.0638052037527821,-2.97012860489513,-0.00041017269198762,0
0.33,0.00118085339855217,0.000678681074259596,-0.0588649684136627,-0.0339815572104993,-0.000467249064102393,-0.00127933618002689,0.0234395800092832,0.0637998183836001,-2.97013126131015,-0.000396899190165876,0
0.34,0.00118073041366666,0.000678679856385859,-0.0588595580204534,-0.0339815043290611,-0.000467272123953224,-0.00127921359412633,0.0234406144062033,0.0637944182753382,-2.97013382216226,-0.000384099122872887,0
0.35,0.00118061173614296,0.00067867862768109,-0.0588543351406341,-0.0339814485339217,-0.000467294319749031,-0.00127909529352581,0.0234416080344914,0.0637892045887618,-2.97013629088133,-0.000371759458094766,0
0.36,0.00118049724956977,0.000678677441690092,-0.0588492949694416,-0.0339813927350016,-0.000467315728414515,-0.00127898117111911,0.0234425647953931,0.0637841730088629,-2.97013867078197,-0.000359863741112014,0
0.37,0.00118038695394709,0.000678676298282411,-0.0588444384765771,-0.0339813369316431,-0.000467336353967566,-0.00127887122540118,0.0234434847292426,0.0637793244165794,-2.97014096505957,-0.000348396002767434,0
0.38,0.00118028073285962,0.000678675195965912,-0.058839760729539,-0.0339812811236033,-0.000467356218795529,-0.00127876533997921,0.0234443688762849,0.0637746538799188,-2.97014317679459,-0.000337340845524694,0
0.39,0.00118017823705699,0.000678674133266809,-0.0588352451979639,-0.0339812224016449,-0.000467375384881711,-0.00127866316909305,0.0234452173818714,0.0637701445453229,-2.97014530895687,-0.000326683425732232,0
0.4,0.00118007958296324,0.000678673108762515,-0.0588308985438661,-0.0339811665851288,-0.000467393834669735,-0.00127856482588752,0.0234460350281015,0.0637658039032362,-2.97014736440914,-0.000316409433773737,0
0.41,0.00117998442132807,0.000678672121081872,-0.0588267041441154,-0.0339811107644984,-0.00046741162996651,-0.00127846996471671,0.0234468219620498,0.0637616150134886,-2.97014934591111,-0.000306505074858199,0
0.42,0.00117989275215149,0.000678671168902136,-0.0588226628250197,-0.0339810549393094,-0.000467428772911804,-0.00127837858411848,0.023447578213779,0.0637575786281367,-2.97015125612363,-0.00029695705049584,0
0.43,0.00117980390210152,0.000678670250948623,-0.0588187416890686,-0.0339810272391756,-0.000467445380438072,-0.00127829001922246,0.023448337278094,0.0637536670710612,-2.97015309761111,-0.00028775254064522,0
0.44,0.00117971886859668,0.000678669365992127,-0.0588149913290978,-0.0339809714030274,-0.000467461284369903,-0.00127820525146567,0.0234490352467245,0.0637499205374649,-2.97015487284653,-0.000278879186497811,0
0.45,0.00117963630497328,0.000678668512847599,-0.0588113451560321,-0.0339809436883973,-0.000467476716360324,-0.00127812295261557,0.0234497390659932,0.0637462829563638,-2.9701565842133,-0.000270325073884545,0
0.46,0.00117955732506356,0.000678667690372305,-0.0588078595589788,-0.0339808878417087,-0.000467491488233152,-0.00127804421891261,0.0234503838349084,0.0637428002398297,-2.97015823400924,-0.000262078717278625,0
0.47,0.00117948069862076,0.00067866689746465,-0.0588044736991163,-0.033980860112485,-0.000467505811638953,-0.00127796783692588,0.0234510354998019,0.0637394219851527,-2.97015982444946,-0.000254129044373527,0
0.48,0.00117940719022478,0.000678666133062666,-0.0588012264214497,-0.0339808013460505,-0.000467519557853082,-0.00127789455885257,0.0234516292836316,0.063736176326553,-2.97016135766943,-0.000246465381218233,0
0.49,0.00117933603530127,0.000678665396142116,-0.0587980801351235,-0.0339807736032775,-0.00046753285895373,-0.00127782363019292,0.0234522328826286,0.0637330367633032,-2.97016283572805,-0.000239077437883599,0
0.5,0.00117926744151457,0.000678664685715474,-0.0587950458375412,-0.0339807458533365,-0.000467545681099788,-0.00127775525447503,0.0234528139722022,0.0637300087915645,-2.97016426060953,-0.000231955294646602,0
0.51,0.738985584885553,-0.035020286034748,2.70500268198728,1.75375021507823,-0.0411156232762894,0.73867152417377,1.73137463523985,2.71937882592577,0.00824995546330069,2.57684108739902,199.760162289853
0.52,0.72902304383402,0.00549027381369909,3.6299606537684,-0.274572398272135,-0.0220258756909262,0.728710918230005,-0.411366088236346,3.61701289619608,0.037747466815613,5.46736267945896,199.760162289853
0.53,0.816032716637964,-0.0167470292558924,-0.311841814592951,0.839141666951343,-0.0887973517563741,0.811359900373125,0.86341705294764,-0.236463627692959,0.0884891584086588,8.39180091109543,199.760162289853
0.54,0.772080110373521,-0.0829672818209115,2.2680052010909,4.15515997020442,-0.20557368966625,0.748819554234625,3.73819583122919,2.90432331146952,0.160880889395003,11.3571205987551,199.760162289853
0.55,0.825238359638331,-0.0130858970465099,-0.0285053294022584,0.656286538719642,-0.220887065537992,0.795234867946627,0.642244021312478,0.138011563998516,0.255077631608138,14.3589393561405,199.760162289853
0.56,0.791902287843445,0.00494003364340585,1.9770583482027,-0.245952244670632,-0.282805188438818,0.739699170484978,-0.94672393298581,1.75298773913807,0.371414826919693,17.38738815619,199.760162289853
0.57,0.871973620079717,-0.0227970452263193,-1.71294495585227,1.14337255001913,-0.445707003033388,0.749801951739907,1.83425940393978,-0.936468712224524,0.510177805314413,20.4950353068829,199.760162289853
0.58,0.870209280455589,-0.0418581101436445,-1.34622206815017,2.09822393780087,-0.574550024523828,0.654911110377203,2.48010174108689,0.252889113630663,0.672064003898157,23.6824358485007,199.760162289853
0.59,0.785903126852259,-0.0285777835309211,3.11022943741431,1.43346579928686,-0.613092843696953,0.492521653854206,-1.41457144690459,3.11886821983326,0.857675492496226,26.9800315181267,199.760162289853
0.6,0.891514367369875,0.0332618475271136,-1.96885369716715,-1.66262068521203,-0.76512022383914,0.458797625103018,0.923843876956586,-2.40566101409852,1.06793275864025,30.4013269045177,199.760162289853
0.61,0.786918112750025,0.0262568248150741,3.41690284940948,-1.3138322921547,-0.752115502195036,0.232920175985978,-3.6424583832579,-0.365892471151449,1.30383078390072,33.9468538652202,199.760162289853
0.62,0.855344969820599,-0.0129972420552133,0.143562940730584,0.651481212581266,-0.85540134183788,-0.00851411066397232,-0.140146487437009,0.652224693151554,1.56555519770608,37.4294452586786,199.760162289853
0.63,0.802575089226367,-0.0190277382505552,2.94667207827832,0.95357921170721,-0.765737161012537,-0.241112896615056,-3.09557675550894,0.0979499905970961,1.85214118545548,40.7466482351374,199.760162289853
0.64,0.858369783289321,0.0344034767127144,0.320605878847173,-1.72108172798517,-0.731526123537071,-0.450390735536272,0.694245390863153,-1.60715082715377,2.16272879786616,43.9727085668571,199.760162289853
0.65,0.75516127043097,-0.0234258020745979,5.64635072314646,1.17529885614331,-0.435247642365928,-0.61755712478819,-4.33354517806318,-3.80565238555936,2.49664865156348,47.1139357251426,199.760162289853
0.66,0.787562556189428,0.00155062818486634,4.1754879064745,-0.0740919765475691,-0.225226299437011,-0.75467231193499,-1.11518002416858,-4.02449529653085,2.85353425301416,50.27246278104,199.760162289853
0.67,0.803706052024661,0.0633696842048445,3.48493933452845,-3.16853716270023,0.0109955566757368,-0.806125444748322,3.47632706103882,-3.17798365027972,-3.04926943586289,53.5204100574485,199.760162289853
0.68,0.813594191537525,0.0215596818770553,3.05368543696174,-1.07539273712228,0.369089883633279,-0.725377823058998,2.40163748191401,-2.171083068985,-2.64441742186346,56.9733989563935,199.760162289853
0.69,0.793766858343249,0.080539816323771,4.07272810638788,-4.0321918747666,0.586926095326427,-0.540435237602483,5.67715488789017,0.784600485852764,-2.21385993213608,60.4780541614575,199.760162289853
0.7,0.864971386870121,-0.0268528687899362,0.565042777120969,1.34642136666963,0.854804037844109,-0.134931958970726,0.304027293004455,-1.42817759459721,-1.75839069604814,63.7577693926972,199.760162289853
0.71,0.877420113425315,0.0268740581766481,0.00818107790646959,-1.34189931006561,0.848166903345079,0.226276765303452,-0.377592867191171,1.28770505747109,-1.27946612478783,66.9060947318842,199.760162289853
0.72,0.84070448658346,-0.0313957165901551,1.88839133669452,1.57762011732146,0.567345189297309,0.621199775404796,2.44901500669578,0.239233300481247,-0.777444964649815,70.0728951061819,199.760162289853
0.73,0.843399850771623,0.072036481583042,1.74826709591779,-3.6007562088682,0.279674466135527,0.798933511596721,-3.0523495316978,2.58941025152755,-0.251522827828928,73.4603639571165,199.760162289853
0.74,0.848006350449588,-0.0325257969272325,1.46018924458629,1.62974390854438,-0.281624467407899,0.800537542671047,1.12555941353006,1.8765217408964,0.299935511137876,76.9620989421333,199.760162289853
0.75,0.805221654341444,0.0343333760407444,3.57487954125079,-1.71647494489226,-0.5967008949403,0.541764464789056,-3.84532397598839,0.96929535776519,0.87622817688552,80.196931523892,199.760162289853
0.76,0.86761488399032,0.0761775772344938,0.45157155073685,-3.80846665062059,-0.856421123359203,0.158434433312379,-0.81211245653882,-3.74817401573867,1.47544504188932,83.2729529703571,199.760162289853
0.77,0.877069710671661,0.0437229324918317,-0.0663853885472628,-2.18159365073877,-0.780122861142767,-0.403201306701479,1.15430059025152,-1.8523898142943,2.0976375487713,86.5154403414312,199.760162289853
0.78,0.850376046404141,0.0502217397133852,1.14395752617811,-2.51352292588769,-0.374848899083373,-0.764950943717151,1.87642797924777,-2.02619208352976,2.74494257403908,90.0371718102247,199.760162289853
0.79,0.822223334972225,-0.0441094558298152,2.47308458712992,2.21222252334981,0.26588940633457,-0.779294347641185,-1.45690851905868,-2.98118993608425,-2.86638076893041,93.2049893924323,199.760162289853
0.8,0.816368303599529,-0.0544422975784901,2.69578994163517,2.73343176920762,0.704091692230501,-0.416744597828918,0.67764876964393,-3.77885231139495,-2.17182080736617,96.3037212326086,199.760162289853
0.81,0.871351057533279,0.00802036425471542,-0.182364821327625,-0.39583656505247,0.866334778301729,0.0937072228381371,-0.227306929389433,0.371853565455466,-1.45384582747462,99.6160029475995,199.760162289853
0.82,0.820947282484909,-0.0232197875185288,2.17693344440638,1.16499862493023,0.518183604633337,0.63716508931435,2.30342707924979,0.889092069497374,-0.711053347031489,102.977864230391,199.760162289853
0.83,0.815440908545808,-0.0253345992432643,2.33359695695885,1.2754044313609,-0.0701845154294603,0.812809849253047,1.14501088032622,2.4002669236977,0.055075765586279,106.040314639347,199.760162289853
0.84,0.835984076958979,-0.0197048928269914,1.16109463615548,0.996206807594016,-0.637717129870572,0.540901582545216,-0.205418660340044,1.51603823553029,0.843790852006379,109.18867949555,199.760162289853
0.85,0.834958834585759,-0.00543844472534566,1.01153474915658,0.274425314063852,-0.831423374979745,-0.0769480582674494,-1.03132563100795,0.186759858043333,1.65656988557004,112.513035939697,199.760162289853
0.86,0.875989211304088,-0.007061611668958,-1.19889330908563,0.361201269110004,-0.523947302863949,-0.702058536378638,0.437058291277596,1.17336762074061,2.49240169764437,115.534886576229,199.760162289853
0.87,0.852655627948471,-0.0230571408363549,-0.215636574102056,1.16488583742088,0.199418691800586,-0.829328304699829,-1.18427902827739,-0.0306810934709657,-2.93264956083231,118.638758685924,199.760162289853
0.88,0.847747794271447,-0.00498928185765835,-0.212994265562269,0.252609891143076,0.75427648990664,-0.386998956587323,-0.305566843456248,-0.12572676105711,-2.05073288318778,121.910087727473,199.760162289853
0.89,0.741203113622295,0.0766012192726597,4.92287793764268,-3.82748293328003,0.706955417541567,0.235507622055151,2.90927211036351,5.51547718527962,-1.1462478000276,124.854959329249,199.760162289853
0.9,0.738752463426064,0.00788574231522084,4.80442214306071,-0.393165847388604,0.168677584282142,0.719281071425268,0.663212647721551,4.77464139974795,-0.219672211256069,128.028363105494,199.760162289853
0.91,0.837862796075924,-0.0271964137539847,-0.401903658453739,1.36664921285215,-0.579175521150529,0.606060579207439,1.28624355899453,0.612236987295765,0.730270883046232,131.09368866517,199.760162289853
0.92,0.761458810979925,-0.0332794449053309,3.18544984050045,1.67705973119301,-0.750566784473563,-0.132576560210257,-3.37741613173519,1.24606592980805,1.70195116404836,134.03603162089,199.760162289853
0.93,0.808502816974158,-0.00426758045507133,0.534738438709664,0.215279363430206,-0.34445097036123,-0.731470126741548,-0.424643213526412,-0.38983142941344,2.69621464692794,137.223128014719,199.760162289853
0.94,0.731757171943663,0.00541022203876432,4.11756804078316,-0.26263307555762,0.390997500732615,-0.618561867248819,2.4466961627082,-3.32220116643238,-2.57050542344161,140.077292906559,199.760162289853
0.95,0.752331492250325,0.0201919637737648,2.8021820178496,-1.01012582731382,0.752556575430066,0.00830604656938245,2.76192924802635,1.11549319902125,-1.53292692621399,143.094982478797,199.760162289853
0.96,0.668750022420611,0.0489692081147396,6.68589584709584,-2.44724593040862,0.34832433370697,0.572970099026596,0.868212451286456,7.06657081345302,-0.473133705936141,145.980885820522,199.760162289853
0.97,0.701148838490304,0.0387081765671233,4.78206349185334,-1.92692684850813,-0.368265953450183,0.597903172912539,-4.31099107766764,2.8278143941723,0.607200607309215,148.828493985881,199.760162289853
