t,iq,id,vq,vd,ia,ib,va,vb,theta_e,omega,r
0,0,0,0,0,0,0,0,0,0,0,0
0.01,0.00124662828899975,0.000695801806442704,-0.0596942463188073,-0.0348301202337564,0.00141206072383728,0.000210491702875675,-0.0685393891942861,-0.00888214208074503,-0.913742380675831,-0.00729321777394668,0
0.02,0.00138569535646874,0.000774131954497533,-0.0668965011892434,-0.0387511366322475,0.00157002870709898,0.000233327586877977,-0.0766375423712714,-0.010172490400346,-0.913795261739016,-0.00731367757811093,0
0.03,0.00143800004483606,0.000805251176830463,-0.0696292080182169,-0.0403088901932402,0.00163046303742778,0.000240549101676006,-0.079753299666652,-0.010603981805719,-0.91384571267196,-0.0068189267998327,0
0.04,0.00140117575692313,0.000787715832248193,-0.0681365999872389,-0.039431121954275,0.00159060454051529,0.000231876971378635,-0.078035757930866,-0.0103841282999201,-0.913889004007186,-0.00587157980903413,0
0.05,0.00143031211869943,0.000805880451272075,-0.0697225299810168,-0.0403403930295053,0.00162477912773005,0.000235220842473008,-0.0798473192235853,-0.0106293983618834,-0.913928744793502,-0.00540466073838166,0
0.06,0.0014282417468968,0.000806740775628573,-0.0698196242395417,-0.0403834631565281,0.00162367321331539,0.000233217630128356,-0.079950887680671,-0.0106517409158404,-0.913964259128721,-0.00480754614225794,0
0.07,0.00146240268715004,0.000827943620152313,-0.0715926917633763,-0.0414448012487981,0.00166368031382886,0.000237234211092937,-0.0820034347314042,-0.0108913615645852,-0.913995087674981,-0.0045192972722737,0
0.08,0.00142391411895543,0.000807781738884385,-0.0699394372141266,-0.0404355550133569,0.00162089522176716,0.000229655036713945,-0.0800782099122124,-0.0106789177505313,-0.914023316223416,-0.00380893558604843,0
0.09,0.00141932649130182,0.00080681081649514,-0.0698574913814086,-0.0403869448875441,0.00161667471736146,0.000227583480878853,-0.0799838922306211,-0.0106654302816855,-0.914047719441115,-0.00337838302169304,0
0.1,0.00141687099435842,0.000806758951208938,-0.0698597702181846,-0.0403843663373956,0.00161470320327714,0.000226090657340182,-0.079984352017744,-0.010667144496637,-0.914069214696986,-0.00300928347768316,0
0.11,0.00141479210385629,0.000806751699520528,-0.0698658409217398,-0.0403839903513265,0.00161305656724829,0.000224796602889203,-0.0799891326990707,-0.0106696323483209,-0.9140881705694,-0.0026843387464228,0
0.12,0.00141296296893763,0.000806747142882644,-0.0698713911956664,-0.0403837834188385,0.00161160883835015,0.000223656558790565,-0.079993580635355,-0.0106718474488941,-0.914104888250171,-0.0023977912899156,0
0.13,0.00147968773788068,0.000844912084721569,-0.0730941959512719,-0.0422942087742291,0.0016877594470915,0.000234137312909288,-0.083712590091743,-0.0111249196730956,-0.914121146626032,-0.00255744635012131,0
0.14,0.00154170628357277,0.000882066608522934,-0.0764905595785502,-0.0441540628902059,0.00175956559857402,0.000242546224447552,-0.0875381843256213,-0.0117240462011005,-0.914135488190781,-0.00271850157536217,0
0.15,0.00141535532621781,0.000810340176037682,-0.0702220975819412,-0.0405636193666229,0.00161570685294213,0.00022220095794068,-0.0803816036605483,-0.0107400185235628,-0.914148456357751,-0.00169682214014423,0
0.16,0.00140752426797414,0.000806905429152084,-0.0699073410855345,-0.0403916804985599,0.00160740965929422,0.0002201252455737,-0.080027443888469,-0.0106832773915569,-0.914158155661703,-0.00148725379416052,0
0.17,0.00140623191846253,0.000806738931512783,-0.0698929084111597,-0.0403833585190837,0.00160628627209716,0.000219454606225053,-0.0800110226466657,-0.0106803813830009,-0.914166615605141,-0.00133990058129756,0
0.18,0.00140539651270299,0.00080672908115624,-0.0698944429761852,-0.0403828659950461,0.00160562020482302,0.000218940462603455,-0.0800120170838427,-0.0106811116977552,-0.914174071582601,-0.00121197589366999,0
0.19,0.00140467585720637,0.000806726948716125,-0.0698965464014947,-0.0403827790589039,0.00160504953834879,0.000218491677300583,-0.0800137002898635,-0.0106819384617425,-0.914180646958587,-0.00109926526755896,0
0.2,0.00140404173422767,0.000806725381364528,-0.0698984667836022,-0.0403826786926269,0.00160454758119514,0.000218096520081403,-0.0800152220358758,-0.0106827262269409,-0.914186445967123,-0.000999868309727962,0
0.21,0.00140348231398457,0.00080672401378177,-0.0699001477177515,-0.0403826115265395,0.00160410476214669,0.000217747909606387,-0.080016567085857,-0.010683396298061,-0.914191560287076,-0.00091220744026975,0
0.22,0.00140298901764269,0.000806722808154309,-0.0699016296836407,-0.0403825441019374,0.00160371428205794,0.000217440507600986,-0.0800177479382311,-0.0106839934232233,-0.9141960707614,-0.000834896677695141,0
0.23,0.00140255354381734,0.00080672174472804,-0.0699029114897335,-0.0403825098868657,0.00160336957013982,0.000217169146614533,-0.0800187848379508,-0.0106844846652548,-0.914200048684842,-0.000766713971893754,0
0.24,0.0014021701435368,0.000806720806721361,-0.0699040706383498,-0.0403824420160192,0.00160306607701604,0.000216930228745519,-0.0800196990260615,-0.0106849652674723,-0.914203556936054,-0.000706581575427288,0
0.25,0.00140183164367869,0.00080671997935572,-0.0699050704200278,-0.040382410295811,0.00160279812467739,0.000216719297343913,-0.0800205046283233,-0.0106853530946224,-0.91420665096906,-0.000653548990956047,0
0.26,0.00141626552604569,0.000814898116247044,-0.0705968919780394,-0.0407917857152122,0.00161922354256642,0.000219048166682807,-0.0808183997044485,-0.0107831909937066,-0.914209196723482,-0.000704054096596793,0
0.27,0.00137061649194461,0.000789083281333725,-0.0684697667207888,-0.0394995692617377,0.00156730868732,0.000211625781799424,-0.078344787519204,-0.0105080538270809,-0.914212290676929,-0.00036109495599727,0
0.28,0.0013671990500114,0.000786891880625348,-0.0679397827245615,-0.0393898682222409,0.0015632645825769,0.000211272144417681,-0.0778580556160062,-0.0102712691971838,-0.914214433416976,-0.000303999940275354,0
0.29,0.00139900276634281,0.000805768800582341,-0.069821990118616,-0.0403348181910808,0.00159997878189752,0.000215731309050122,-0.0799257447242942,-0.0106716068564492,-0.91421577339203,-0.000485474238799897,0
0.3,0.00138983180335971,0.00080103613217302,-0.0693876412759808,-0.0400979035828801,0.00158982558897194,0.000213882966425177,-0.0794370813903895,-0.0105941839592661,-0.914215112241855,-0.000437660282081778,0
0.31,0.00140013361025806,0.000806445412472036,-0.0698800808384851,-0.0403686657230159,0.00160128771481919,0.000215884191733865,-0.0799924281662894,-0.0106801828781556,-0.914216687906694,-0.000477672630337584,0
0.32,0.00140053294022538,0.000806703873490172,-0.0699072029851314,-0.0403816229280562,0.00160176211698248,0.000215920765004638,-0.0800218368335495,-0.0106863524784121,-0.914218223218392,-0.00045498874528878,0
0.33,0.0014004149321996,0.000806715896959992,-0.0699090797460049,-0.0403822100708858,0.00160167627772471,0.000215837026734255,-0.0800236963416502,-0.010686924017779,-0.914219585150551,-0.000431841634683708,0
0.34,0.0014002848963431,0.000806716168260868,-0.06990951238662,-0.0403822398938613,0.00160157370293226,0.000215755512411528,-0.0800240700758159,-0.0106870683295864,-0.914220786707966,-0.00041125725752006,0
0.35,0.00140016933182336,0.000806715913069588,-0.0699098500162666,-0.0403822071628882,0.00160148223854921,0.000215683475931278,-0.0800243288541077,-0.0106872155444217,-0.914221846420456,-0.000393094045728331,0
0.36,0.00140006688634065,0.000806715664337778,-0.0699101175652917,-0.0403822077505631,0.00160140114241829,0.000215619642836464,-0.0800245511234802,-0.0106873036023144,-0.914222781014306,-0.000377074858423333,0
0.37,0.00139997716602192,0.000806715443833379,-0.0699103808540677,-0.0403821748989546,0.00160133011907486,0.000215563731749439,-0.0800247484277339,-0.010687424376736,-0.914223605260703,-0.000362947024168002,0
0.38,0.00139989742152687,0.000806715249303869,-0.0699105780221439,-0.0403821753761557,0.00160126699226636,0.000215514045331661,-0.0800249126627191,-0.0106874861789407,-0.914224332188538,-0.00035048725715638,0
0.39,0.00139982722308815,0.000806715077735189,-0.0699107542819244,-0.040382175805862,0.00160121142224224,0.000215470305204619,-0.0800250593903036,-0.0106875421244332,-0.914224973288004,-0.000339498610629011,0
0.4,0.00139976529013725,0.000806714926419695,-0.0699109044329429,-0.0403821761944557,0.00160116239522969,0.000215431715593782,-0.080025184603413,-0.0106875882228783,-0.914225538692953,-0.00032980738995161,0
0.41,0.00139971107648538,0.000806714792967666,-0.0699110530371977,-0.0403821402642051,0.0016011194790814,0.000215397930665135,-0.0800252857087806,-0.0106876674871482,-0.914226037340199,-0.00032126040849481,0
0.42,0.00139966288054238,0.00080671467526935,-0.0699111607816198,-0.040382140585537,0.00160108132640734,0.000215367900794953,-0.0800253759484033,-0.0106876978073059,-0.914226477112264,-0.000313722566307924,0
0.43,0.00139962038895013,0.000806714571466388,-0.0699112523483425,-0.0403821408783475,0.00160104768937205,0.000215341425038332,-0.0800254528014996,-0.0106877224303069,-0.91422686496026,-0.000307074714653766,0
0.44,0.00139958290321669,0.000806714479917956,-0.0699113283823832,-0.0403821411461541,0.00160101801503301,0.000215318068506879,-0.0800255168466421,-0.0106877412564643,-0.914227207015334,-0.000301211772642457,0
0.45,0.00139954995768077,0.000806714399177824,-0.0699113969928208,-0.0403821413912843,0.00160099193483138,0.000215297539442443,-0.0800255745661459,-0.010687758801156,-0.914227508683296,-0.000296041066253398,0
0.46,0.00139952073743514,0.00080671432796999,-0.0699114451035846,-0.0403821416177918,0.001600968803539,0.000215279333792135,-0.0800256156560107,-0.0106877666978359,-0.914227774733648,-0.000291480863458649,0
0.47,0.00139949500964915,0.000806714265169142,-0.0699114855024796,-0.0403821418268291,0.00160094843695469,0.000215263303590285,-0.0800256502909831,-0.010687772414813,-0.914228009371295,-0.000287459082300084,0
0.48,0.00139947242507682,0.000806714209782072,-0.0699115222464935,-0.0403821420201457,0.00160093055863865,0.000215249230501899,-0.0800256817252711,-0.010687778130312,-0.91422821630493,-0.000283912151509143,0
0.49,0.00139945278678085,0.00080671416093461,-0.0699115644615771,-0.0403821088342747,0.00160091501277131,0.000215236989768365,-0.0800256968573025,-0.0106878155799764,-0.914228398805865,-0.000280784005665203,0
0.5,0.00139943520806735,0.000806714117854474,-0.0699115845630333,-0.0403821090029985,0.001600901097161,0.000215226036140914,-0.08002571460273,-0.0106878148359062,-0.914228559759046,-0.000278025198964371,0
0.51,0.83271906478581,0.014001726787382,3.61447132959211,-0.700558341797251,-0.0311622081102048,0.832253570732189,-0.895475762809138,3.57117741661297,0.0542385638907503,16.3962537803386,143.431654923742
0.52,0.839782469430986,-0.0422531991945771,-2.25018335233662,2.11606374644367,-0.236773510823275,0.806819827085454,2.58214477775009,-1.6951634861818,0.235178735685408,32.5646961295298,143.431654923742
0.53,0.740342106750921,-0.0318670559790779,-2.12764511741709,1.5965299421326,-0.400205256432244,0.623664731253233,2.45051429171539,-1.03477596990524,0.527500684030068,46.8094529808813,143.431654923742
0.54,0.690470161925883,0.0426940252285069,-3.86580379520805,-2.1355077830661,-0.522299951970667,0.453623835872418,1.77142328120396,-4.04560156631736,0.91740736044076,59.28474740956,143.431654923742
0.55,0.551555342833677,-0.0355484310378119,-0.759586713482107,1.78177257783253,-0.549212851639371,0.061985730227011,1.06104290219177,1.620454705977,1.39404683059847,70.5761129973974,143.431654923742
0.56,0.482789159535049,-0.0897537111258171,-0.781823868260203,4.49579948355106,-0.415398693204211,-0.261887431751983,-0.935723777696325,4.46630524809188,1.94949572323959,80.7684336925256,143.431654923742
0.57,0.40712874462691,0.0554835961328616,-0.128875487151148,-2.77517696724418,-0.265087676987517,-0.313943892520113,2.41181552792951,-1.37889881787937,2.57581666980397,89.9794220279545,143.431654923742
0.58,0.347521121695686,0.0195687650822334,0.0651265524646442,-0.980600283147183,0.023618055341072,-0.347269425739407,0.981117225760817,0.0568099679604244,-3.01743630179187,98.0773138776143,143.431654923742
0.59,0.271960152849231,0.0391541326545799,1.57019169342182,-1.96114634234909,0.182191232304409,-0.205673833321379,2.46575043664379,0.481322879563236,-2.27367631135403,104.660548484381,143.431654923742
0.6,0.286974613182392,-0.0608800629473125,-1.06318277840229,3.04751007012092,0.280774946956894,0.0850072928460004,-0.800801022916898,-3.12672240044985,-1.48585492563427,110.115017957256,143.431654923742
0.61,0.204569934182347,0.0901956745540053,1.47848543331785,-4.51448494873807,0.196846370890355,0.105998226149868,-2.6537205020726,3.94008388562924,-0.661575219509094,114.672400863987,143.431654923742
0.62,0.270236630924814,-0.0754737347870542,-3.16738510861451,3.78068127577011,-0.126208819044307,0.250590213958451,4.32089004647017,-2.3781901819549,0.19421239006998,118.777455672063,143.431654923742
0.63,0.175923350713792,0.00778320492706981,0.224780735618669,-0.386699755269878,-0.151409867199589,0.0899147135896422,-0.380715372646534,-0.234774114547716,1.0791245241067,122.57268970252,143.431654923742
0.64,0.143018238109572,0.00328196298025188,0.706876981023083,-0.163945304730249,-0.131947141150288,-0.0552715085304897,-0.578753576335576,-0.437718433610218,1.99042532412191,126.035576180189,143.431654923742
0.65,0.134283010324776,0.0527195956303275,0.166994793130229,-2.64133107084793,-0.0803594789078463,-0.119806664150908,2.54364535046886,-0.731016701449049,2.92488468152079,128.844078622664,143.431654923742
0.66,0.163095448264534,-0.0494367381143741,-2.12660709943073,2.47384305396507,0.14622753333089,-0.0875307078456575,-3.26107025633919,-0.088192937473959,-2.40449275471298,131.351053318773,143.431654923742
0.67,0.125705595255588,-0.0821287034985084,-0.924842845271194,4.1120995303464,0.113332325355946,0.0985028154233244,-0.355477123538265,-4.19980152513965,-1.43400988534305,133.246568416208,143.431654923742
0.68,0.0720334288495549,-0.0205501228052208,1.16315172317012,1.03091943328125,0.0128783852767879,0.0737920701145872,1.43462986842826,0.597958150411945,-0.450686007722729,135.027421186861,143.431654923742
0.69,0.0275473976819586,0.00883582954516854,2.84471369324474,-0.439554787695264,-0.00672018532473197,0.0281384099053324,-1.85022473890687,2.20505619507916,0.544817860686699,136.578162305022,143.431654923742
0.7,0.106931745773515,0.0791758280022793,-1.63120469802491,-3.96600389193128,-0.105387381941263,0.0812201312581091,1.55453644899513,-3.99667762853325,1.55154002984583,138.061710343396,143.431654923742
0.71,0.0624192422627673,0.00736207311244018,0.22719960426826,-0.370865268934977,-0.0400787661264882,-0.0484154358748241,0.188034459969608,-0.392178211717332,2.56752628112445,139.104169838694,143.431654923742
0.72,0.0261360709093877,-0.0814420312415507,1.71588619974817,4.07616225694264,0.0847161537587088,0.0117928769882956,-2.9278323166262,-3.31468884227905,-2.69274306154969,140.061912421748,143.431654923742
0.73,-0.000882935808102467,0.0160394335519158,2.78133168983751,-0.801871796218063,-0.00235549704530148,-0.0158900798606278,2.84333143114277,0.542467251675128,-1.66296926507408,140.888516642505,143.431654923742
0.74,-0.0504171900172545,0.0973366419640197,4.99130908674154,-4.87046793450685,0.0491829018743221,-0.0979661016948644,-1.0114303116487,6.90011833413937,-0.627600196317074,141.557873489689,143.431654923742
0.75,0.0715444305827578,0.00881277211369393,-1.38492799949216,-0.440751623006753,-0.020651763444688,0.0690635588886324,0.152338949584804,-1.44536514466063,0.41312411399422,142.445694909178,143.431654923742
0.76,0.00811401146969942,-0.0859866252279342,1.56609115296487,4.3016377483963,-0.0176056102972874,-0.0845551854487924,-1.07907757776093,4.44885607757729,1.45959993736513,143.00279849911,143.431654923742
0.77,0.0250781003929842,0.096016470133017,0.557988055216522,-4.80815757750289,-0.0922868330451318,0.03648580686548,3.54990782779595,-3.29057508256776,2.50962128888816,143.477986057581,143.431654923742
0.78,0.121112688487641,0.0367901125676193,-4.37270728649382,-1.84088201407088,0.0159743886389248,-0.125565180695347,-0.109005127438576,4.74315648964673,-2.72014279240061,143.872688876897,143.431654923742
0.79,0.074012271405826,-0.0109280617258713,-2.23344094417727,0.549525815522526,0.0747051938582254,0.00404633937517183,-2.27464523483292,-0.340919534061966,-1.6632779566629,144.434820852347,143.431654923742
0.8,0.0602909340964186,-0.0312579426260665,-1.67131757545704,1.56751392651043,0.00845714506652098,0.0673834728160917,0.34288269214463,-2.26557582244854,-0.603154697637476,144.845843034543,143.431654923742
0.81,0.0655585689366874,0.0665741024195142,-2.0630911639657,-3.33565071317288,0.0305605488023245,0.0882954694811184,-2.07343733156755,-3.32922940981635,0.459872469276321,145.179816540266,143.431654923742
0.82,-0.0213669104471207,-0.0270301488403679,2.1547809055035,1.35104379397814,0.0201182672208664,-0.027971934727822,-2.09125053077791,1.44743611309461,1.52540063603236,145.574522922507,143.431654923742
0.83,0.0826304517750141,-0.0348178010202055,-3.15344629989529,1.74341022983169,-0.0133506613529069,-0.0886669649298179,0.155624079876863,3.59992832450419,2.59335443868246,145.826118493999,143.431654923742
0.84,0.05614296758312,-0.0558375979572041,-1.91597011063977,2.79753086809648,0.076384681279406,-0.020862660916412,-3.3801641281329,0.267602110793544,-2.62009086875576,146.064736170024,143.431654923742
0.85,0.0634154485141002,-0.0455015235178951,-2.28777214436374,2.28074018694137,0.0624251343276326,0.0468509376306503,-2.23833802023059,-2.32927458493975,-1.5493507428009,146.045462802004,143.431654923742
0.86,0.0847752398204451,-0.0239494916689077,-3.35999934579891,1.19604170246623,0.0177978080249855,0.0862766333796053,-0.486330977418361,-3.53321292002205,-0.478764805577218,146.092259383354,143.431654923742
0.87,0.0517733496992814,-0.066881779107246,-1.77329310106682,3.34600475867438,-0.0843953225674122,0.00557509142319504,3.76582693696754,0.398577154604279,0.592785673720633,146.202091024185,143.431654923742
0.88,0.0389078337401588,0.0723921152766809,-1.17075469025889,-3.62418257379056,-0.0455498680492138,0.0684079483779721,1.50672726278708,-3.49787633121935,1.66507347092196,146.303318134122,143.431654923742
0.89,-0.122460164824459,0.00331746943941361,6.87020622724237,-0.164813770115056,0.0450847829833975,0.113907242595258,-2.54891350612789,-6.38200102804271,2.73762638373977,146.385681348084,143.431654923742
0.9,-0.0224123768134939,0.0332113463383135,1.82217684295411,-1.65996793905123,-0.0399509911790328,-0.00303750948085659,2.43247617669322,-0.398599618033073,-2.47206736067342,146.502612345697,143.431654923742
0.91,-0.026164487414877,0.0150616574361993,1.96354296571705,-0.757192194759603,-0.0231765700658784,-0.0193463310834407,1.80362944060311,1.08432552262293,-1.3975551216573,146.567026805893,143.431654923742
0.92,0.0468622302030883,-0.0902396494972852,-1.72604750937239,4.51521517266375,-0.0707098749440762,0.0730710376715237,3.73433201337248,-3.06939285103178,-0.322843699569507,146.71323889026,143.431654923742
0.93,0.0419588640868066,-0.0184388014219187,-1.51007810006683,0.922807967177608,-0.0421391829254206,0.0180229003134901,1.70576572752848,-0.471459113155273,0.752595983035694,146.730914043728,143.431654923742
0.94,0.0424108092804019,-0.0633383977323749,-1.51318675525227,3.17270219743499,-0.024898420227769,-0.0720451111546409,0.65608651996865,3.45330622276611,1.82807556611299,146.691157592127,143.431654923742
0.95,0.00980940746340347,-0.0833854010997783,0.031286930260304,4.17724308637108,0.0787435128412203,-0.0291343230018918,-4.06756437784125,0.951450843058673,2.90432258837171,146.906433011009,143.431654923742
0.96,-0.030036553247374,-0.0135632917301224,2.04782711604402,0.6759568244594,-0.0132998962194975,0.0301541070849285,1.0728791818685,-1.87068003326373,-2.30204449373136,146.819876719443,143.431654923742
