t,iq,id,vq,vd,ia,ib,va,vb,theta_e,omega,r
0,0,0,0,0,0,0,0,0,0,0,0
0.01,0.0014017714312445,0.000773554822430616,-0.0691751882193021,-0.0387248280375405,0.000531182427201559,-0.00151036268418919,-0.0258461499192978,0.0749452834143826,-2.29915582868221,-0.00215778011904844,0
0.02,0.00154942899903585,0.000858334536382802,-0.0766926613445784,-0.0429689473039319,0.000584915701028676,-0.00167192763661914,-0.0286298474317967,0.0831169451589404,-2.29917105289542,-0.00206292005065127,0
0.03,0.00160203721993967,0.000891630454856529,-0.0793973275605681,-0.0446357675717455,0.000601987324019201,-0.00173180235125718,-0.0295375004505456,0.0861616123201803,-2.29918488902839,-0.00183402996167126,0
0.04,0.00155755605541819,0.000872652646520985,-0.0773181296031391,-0.0436857408403242,0.000581407409775658,-0.0016880370052543,-0.0286173665580241,0.0840689208291594,-2.29919605640811,-0.00149724495073887,0
0.05,0.00158685743257431,0.00089220177318974,-0.0788436893830646,-0.0446643951660826,0.000590242996679121,-0.00172213638259881,-0.0291034920746572,0.0858150470497192,-2.29920587016902,-0.0013208842602601,0
0.06,0.00158210355369739,0.000892995115054238,-0.0786862525125738,-0.044704103757655,0.000586153055520405,-0.0017195687033779,-0.0289588599404105,0.085740116970992,-2.29921419785574,-0.00111943250015425,0
0.07,0.00161965600751306,0.000916984531892363,-0.0805890598199152,-0.045905050298442,0.000598194243486628,-0.00176247265552191,-0.0295787319634123,0.0879031786740216,-2.29922101436749,-0.00102701431597607,0
0.08,0.0015741949108459,0.000893999348056583,-0.0784147947686727,-0.044754379274591,0.00057956092827424,-0.00171506081002296,-0.0287217262920922,0.085597295177296,-2.29922700472283,-0.000808581360826373,0
0.09,0.00156837263256329,0.000893056905724077,-0.0781734767244662,-0.0447071831950294,0.000575835300774574,-0.0017104844512058,-0.0285726534250105,0.0854015700597993,-2.29923186310982,-0.000685722106867432,0
0.1,0.00156508168483423,0.000893015713036591,-0.0780489164631802,-0.0447051513447043,0.000573400043062202,-0.00170826524127551,-0.028480711496285,0.0853172490795078,-2.29923591364305,-0.000586026213118084,0
0.11,0.00156241049444469,0.000893011787537026,-0.0779486733596866,-0.0447049235476096,0.000571403604105801,-0.001706486017243,-0.0284057719616876,0.0852504427389872,-2.2992392962029,-0.000502905115400818,0
0.12,0.00156018292508013,0.000893009752826076,-0.0778651144902925,-0.044704845317611,0.000569737903351947,-0.0017050031964305,-0.028343230746329,0.0851948385779223,-2.29924212121659,-0.000433491387541852,0
0.13,0.00163538462242867,0.000935518623593622,-0.0815774053524431,-0.0468328650221365,0.000597550496752798,-0.00178678800147,-0.0296964813135382,0.0892541836992146,-2.29924494900909,-0.0004994214132123,0
0.14,0.00170829847982839,0.000979450191412937,-0.0853229409935249,-0.049032123962318,0.000622709225482464,-0.00186811123708998,-0.0310271367950673,0.0933888120833584,-2.29924729031262,-0.00057263379884746,0
0.15,0.00156193603277987,0.000896537052233907,-0.0780165637135655,-0.0448814164665056,0.000568685596944887,-0.00170880646895774,-0.0283380818595543,0.0854276236017012,-2.29924933792966,-0.000269184920242736,0
0.16,0.00155391435104109,0.000893148213631598,-0.0776341680643071,-0.0447117745844997,0.000564953746162096,-0.00170093821362864,-0.0281655678405336,0.0850465027249945,-2.29925053423554,-0.00022741159238593,0
0.17,0.0015528004432909,0.000893009088910261,-0.0775883958243231,-0.0447048053079083,0.000564213505146713,-0.00170009340042564,-0.0281359691609219,0.0850108582687263,-2.29925150823404,-0.000202874146486922,0
0.18,0.00155214312280894,0.000893002863339107,-0.0775635378325653,-0.0447044847761693,0.000563725774131338,-0.00169965162289069,-0.0281175643842137,0.0849940935201155,-2.29925232046467,-0.000182887242498743,0
0.19,0.00155160737948714,0.000893002157413723,-0.0775434235704435,-0.0447044745265603,0.000563325318093505,-0.00169929482410186,-0.0281025042395261,0.084980714501518,-2.2992529987597,-0.000166219425038994,0
0.2,0.00155116088742591,0.00089300175139477,-0.0775266697380642,-0.0447044358074996,0.00056299145233153,-0.00169899760190405,-0.0280899801257666,0.0849695481809558,-2.299253565252,-0.000152300084761015,0
0.21,0.00155078777631991,0.000893001419752511,-0.0775126651073021,-0.0447044368095623,0.000562712453020715,-0.0016987492334299,-0.0280794889740804,0.0849602390618777,-2.29925403837223,-0.000140675053689142,0
0.22,0.00155047655886499,0.000893001143046287,-0.0775009869564833,-0.044704400693453,0.000562479734976462,-0.00169854206565884,-0.0280707651895651,0.0849524488302845,-2.29925443351064,-0.000130966116877098,0
0.23,0.00155021613778749,0.000893000911936557,-0.0774912070421433,-0.0447043985128586,0.000562285001686712,-0.00169836871127987,-0.0280634408189658,0.0849459457810977,-2.29925476352042,-0.00012285745205635,0
0.24,0.00154999890679723,0.000893000718903784,-0.07748305080761,-0.0447043991348699,0.000562122564035675,-0.00169822410712993,-0.0280573307991571,0.0849405242089493,-2.29925503913644,-0.000116085294864618,0
0.25,0.00154981772525627,0.000893000557676089,-0.0774762495244534,-0.0447043627174474,0.000561987082574515,-0.00169810349995155,-0.0280522603650601,0.0849359757391374,-2.29925526932406,-0.000110429355929479,0
0.26,0.00156630422160915,0.000902060711551367,-0.0782857797768576,-0.0451579255607548,0.000568257547008808,-0.00171583967847312,-0.0283543742868929,0.0858133498648089,-2.29925541438594,-0.000135896858256435,0
0.27,0.00151384540782239,0.000872564128244053,-0.0757173558148899,-0.0436813141388234,0.000548748603955319,-0.00165890658155917,-0.0274207940409074,0.0830016579994602,-2.29925577681659,-3.5751202396066e-05,0
0.28,0.00150944684688258,0.000869446189823589,-0.0753624396417787,-0.0435252337608287,0.0005475418404752,-0.00165365183563275,-0.0272598497464242,0.0826489193788878,-2.29925591600695,-2.4830627296396e-05,0
0.29,0.00154740229161251,0.000892037663682629,-0.0773631630008827,-0.0446561791030541,0.000560824699403113,-0.00169577731499611,-0.0279999017662066,0.0848247535962703,-2.29925586016967,-9.25026721663461e-05,0
0.3,0.00153812654561457,0.000887303108503947,-0.0769030502098312,-0.0444191433978395,0.000557056023653949,-0.00168606899716347,-0.027814414929123,0.0843415541351013,-2.29925526651413,-9.00490090495476e-05,0
0.31,0.00154912876763733,0.000892767639521623,-0.0774437789524161,-0.0446927066667996,0.000561627788068434,-0.00169747112628401,-0.0280357778576282,0.0849056658153801,-2.29925541771554,-0.000105783049562708,0
0.32,0.0015495420532937,0.000892990824158561,-0.0774655351499208,-0.0447038866980323,0.000561787322229253,-0.0016979128928009,-0.028044555501587,0.084928496564419,-2.29925558347305,-0.00010266132976911,0
0.33,0.00154945776906112,0.00089299985054563,-0.0774626679336584,-0.0447043438919873,0.000561718181874323,-0.00169786359738649,-0.0280420996975381,0.0849269328939096,-2.29925572384005,-9.92588805797133e-05,0
0.34,0.00154936649946651,0.000893000141216693,-0.0774592491750384,-0.0447043616630205,0.000561649683719446,-0.00169780312011139,-0.0280395268224082,0.0849246735056089,-2.29925584116553,-9.63783486322468e-05,0
0.35,0.00154928943252356,0.000893000087803558,-0.0774563513053367,-0.0447043619371046,0.000561592045495607,-0.00169775183021029,-0.0280373559254501,0.0849227472851003,-2.29925593915747,-9.39706974667929e-05,0
0.36,0.00154922470560471,0.000893000031090137,-0.0774539113901593,-0.0447043621801568,0.000561543645033641,-0.00169770874377949,-0.028035528147099,0.0849211254581715,-2.29925602099808,-9.19597934945893e-05,0
0.37,0.00154917092172609,0.000892999983228763,-0.077451885738876,-0.0447043623956252,0.00056150342728992,-0.00169767294138474,-0.0280340106568742,0.0849197790164197,-2.29925608934936,-9.02803314635979e-05,0
0.38,0.00154912575258128,0.000892999943235378,-0.0774501798462372,-0.0447043625893804,0.000561469651758628,-0.00169764287354053,-0.0280327327420851,0.0849186451125317,-2.29925614643454,-8.88776859059135e-05,0
0.39,0.0015490882668477,0.000892999909832709,-0.0774487654340664,-0.0447043627637852,0.000561441621182119,-0.00169761792033744,-0.0280316731421986,0.0849177049750291,-2.29925619411066,-8.77062308634407e-05,0
0.4,0.00154905726107135,0.000892999881934772,-0.0774475976068896,-0.0447043259891653,0.000561418435631271,-0.00169759728067252,-0.0280308228093127,0.0849169012026297,-2.29925623392847,-8.6727860455679e-05,0
0.41,0.00154903095120865,0.000892999858635603,-0.0774465999231221,-0.0447043261360479,0.000561398762254843,-0.0016975797669224,-0.02803007541546,0.0849162380651304,-2.29925626718342,-8.59107495815489e-05,0
0.42,0.00154900906512818,0.000892999839176209,-0.0774457694302821,-0.0447043262716889,0.000561382396656818,-0.00169756519796497,-0.0280294532525405,0.0849156860681092,-2.29925629495705,-8.52283186991196e-05,0
0.43,0.001548990904338,0.000892999822924196,-0.0774450801072287,-0.044704326397865,0.00056136881650896,-0.00169755310883513,-0.0280289368256451,0.0849152279154094,-2.29925631815286,-8.46583692308549e-05,0
0.44,0.00154897553751554,0.000892999809350825,-0.0774444928140109,-0.0447043265169413,0.000561357325928783,-0.001697542879561,-0.0280284968628683,0.0849148375736589,-2.29925633752533,-8.41823614678114e-05,0
0.45,0.00154896273183015,0.000892999798014482,-0.0774440021251614,-0.0447043266294959,0.000561347750401762,-0.00169753435516678,-0.0280281292618092,0.0849145114491155,-2.29925635370477,-8.37848115055722e-05,0
0.46,0.0015489522544512,0.000892999788546827,-0.0774436015809845,-0.0447043267361313,0.000561339915541466,-0.00169752738067285,-0.0280278291571552,0.0849142452566256,-2.29925636721731,-8.34527875657493e-05,0
0.47,0.00154894317405611,0.000892999780640121,-0.0774432489435008,-0.044704326839206,0.000561333125853035,-0.00169752133609518,-0.0280275649920015,0.0849140108915527,-2.29925637850259,-8.31754893467227e-05,0
0.48,0.00154893572347552,0.000892999774035828,-0.0774429594746712,-0.0447043269381321,0.000561327554623613,-0.00169751637644735,-0.0280273481240437,0.0849138185239637,-2.29925638792775,-8.29438967016307e-05,0
0.49,0.0015489296698788,0.000892999768520653,-0.0774427245499853,-0.04470432703351,0.000561323027736087,-0.00169751234674213,-0.0280271720912183,0.0849136624213863,-2.29925639579953,-8.27504762269851e-05,0
0.5,0.001548924314774,0.0008929997639142,-0.0774425117679575,-0.044704327127112,0.00056131902366149,-0.00169750878198748,-0.0280270126926303,0.0849135210219504,-2.29925640237363,-8.25889362088306e-05,0
0.51,2.89985859802721,-0.0077485686390881,0.924598579166311,0.390659349516226,-0.146742825365517,2.89615373764447,0.345890143815308,0.942261783355469,0.047952838322618,14.5726844949468,371.492413314521
0.52,2.77843469847235,-0.0173967835542083,1.42753053950898,0.877208380482424,-0.603038725760803,2.71225852694502,0.556375950933667,1.58043784605471,0.212518200154179,30.229012893064,371.492413314521
0.53,2.62515043637963,-0.0962392634752702,3.69739161404435,4.82898094904969,-1.32002623515902,2.27116876254283,2.52153963170581,5.53458215582959,0.489844749138358,45.3803013088326,371.492413314521
0.54,2.54339711548487,0.0122567026066315,2.35888736968468,-0.597736956780892,-1.94962858562701,1.63339140805919,-2.19710660665378,1.04611741757697,0.878248996592849,60.6092051353635,371.492413314521
0.55,2.28529204116094,0.015918781731683,9.66085008986431,-0.79390808347235,-2.24064193407266,0.449818679336999,-9.63571881290913,1.0560480398083,1.37964114930948,76.1150187429808,371.492413314521
0.56,2.27105369293352,-0.0835535360659641,5.34938362656627,4.19062078033804,-2.04095295097583,-0.999588476063611,-6.59100968848384,1.6540250890142,1.98944885590319,89.9241084147635,371.492413314521
0.57,2.10284945200026,0.0493638901598605,9.31073450046659,-2.45181827451493,-0.953180812675808,-1.87506238556913,-1.81216629378464,-9.45606911528755,2.69476086175227,102.389833112733,371.492413314521
0.58,2.12047194651758,-0.0335095396224959,3.89798800794653,1.6947311784488,0.758508343861949,-1.98045178116145,-0.255532897384434,-4.24277352867859,-2.79163041520191,115.187605022756,371.492413314521
0.59,1.91933021097822,0.00285828062358084,9.50254163593041,-0.134318553678807,1.81460109112306,-0.625347510298724,9.03219577815019,-2.95563503187035,-1.90118089369654,127.371254889431,371.492413314521
0.6,1.87621974686291,0.0032041974722814,7.74223799595629,-0.131086391162352,1.50264136862732,1.12351222631958,6.11405186201063,4.75161053292687,-0.9270664829229,138.377511671827,371.492413314521
0.61,1.80301806759569,-0.0793381250206612,7.30320291073402,3.97521969431241,-0.311320966474858,1.77770862235391,2.99964584865754,7.7550802159639,0.129392221037704,149.725823638839,371.492413314521
0.62,1.61702845806666,-0.00774031642209549,13.0073946709536,0.41645634162135,-1.54387898847485,0.480914353748796,-12.2744208194099,4.32485208515445,1.26403836570705,159.764923881996,371.492413314521
0.63,1.56834517644933,0.0448471425642489,11.7339382172275,-2.2441526247879,-1.00722792933549,-1.20300031465274,-5.51133934477771,-10.5993710056663,2.47312698102123,170.071051788989,371.492413314521
0.64,1.58698906507212,0.0645259081300695,7.51592957338884,-3.19581879571453,0.858968783511121,-1.33599046195395,6.93388224595529,-4.31552223101785,-2.52955585653178,179.257384554849,371.492413314521
0.65,1.49400068416205,-0.0216969915387817,8.77754291162651,1.0936048304594,1.37338582745057,0.588489738803009,8.53349287538614,2.32824621472534,-1.18049035675771,188.592424828817,371.492413314521
0.66,1.28665864518022,0.101053721878298,16.0956006475886,-5.03128692572806,-0.198771957716032,1.27522234639619,-8.61186532363038,14.4988959573931,0.233006868920386,197.183050152625,371.492413314521
0.67,1.40770862160058,0.0629840889378934,7.03874028085821,-3.12729143128283,-1.40287569273154,-0.132477732207931,-6.53810159234087,-4.07149161926936,1.70966255101978,205.437326245954,371.492413314521
0.68,1.29801271798547,0.0128949935274082,9.60145165020901,-0.647474432539912,0.121530977519689,-1.29237514616044,1.63783838397743,-9.48285728881672,-3.03789737483957,213.532179385452,371.492413314521
0.69,1.21363529686359,0.100566846830089,11.1977171111213,-4.99703906528736,1.2167013800625,0.051595312079109,10.4869899475564,6.35470768490235,-1.44574056474671,220.905635724856,371.492413314521
0.7,1.13558737310276,0.0600823108977706,12.4821504642971,-2.98003077831732,-0.167781835088985,1.12473011066985,-5.41141840328882,11.6362027533735,0.200942485734155,228.111559620145,371.492413314521
0.71,1.02311325562122,-0.0389787669258848,15.5434497219106,1.95309879055929,-0.955819348158542,-0.367000615509965,-15.3423309259741,-3.16643425656466,1.89932317710225,235.192311584774,371.492413314521
0.72,1.00978332067519,-0.0751339976717209,13.8670418025429,3.75018425012789,0.554757641265873,-0.847084075978927,3.43451260843025,-13.9485789027382,-2.63604782175715,241.782280070897,371.492413314521
0.73,0.968556898173607,0.0602561799110431,13.6929475106713,-2.97729289489121,0.761993457019405,0.600915338193965,8.21942616033387,11.349102083724,-0.840907204141339,247.935551208522,371.492413314521
0.74,0.878115165910328,0.0225791504617774,16.022153221262,-1.10120321025044,-0.726434777978406,0.4938507628634,-14.0728654943335,7.73799063932362,0.999444770762653,253.988972332572,371.492413314521
0.75,0.889222273704318,-0.0716528233901347,13.3645674958606,3.5977186194875,-0.158153945133269,-0.877973637867583,-6.89612847896176,-11.9999439839556,2.88296329411864,259.791350532997,371.492413314521
0.76,0.825643066978046,0.117639586197883,14.5486456869433,-5.89717083453894,0.833089799114144,-0.0385607689456345,13.9216512771722,7.2544704074633,-1.47551999934385,265.348122109694,371.492413314521
0.77,0.835993735825794,0.0181961331642487,12.1412807869022,-0.926599859297915,-0.376354683721835,0.746708629682781,-6.51737626253788,10.285576945323,0.488619376432011,270.583369528054,371.492413314521
0.78,0.76650699392059,-0.0684733421983937,13.8393009257212,3.44145426428378,-0.410311426754627,-0.651050000687796,-11.1279571075709,-8.91843193492478,2.49014590846879,275.549079343055,371.492413314521
0.79,0.712936044219399,0.0405983759428429,14.7842889033839,-1.99276568049876,0.693367984021086,-0.170783108096017,14.8988651106038,-0.755070759682142,-1.75541466258834,280.28441667034,371.492413314521
0.8,0.7040180486506,0.0809805060229012,13.6106496253109,-4.01823678939972,-0.141875183048654,0.694313104885998,-8.05003669001612,11.6872973525985,0.316086950192512,284.763807226758,371.492413314521
0.81,0.617504778653375,0.0850647679323336,16.3602283543565,-4.23235102980744,-0.471833697783262,-0.407334172442368,-7.63198169354632,-15.0772252910002,2.41985545491939,289.096389198116,371.492413314521
0.82,0.676073813138004,0.0800673559272866,11.9370743016085,-3.99027176550773,0.655066535982674,-0.185403386516555,12.4160949297615,2.06315252462845,-1.7287315664899,293.225078083823,371.492413314521
0.83,0.545797083646835,-0.0209666123435182,17.0021887406462,1.05652400654945,-0.249294954094552,0.485989795380056,-6.21578911053583,15.8604738479755,0.435568639712136,297.224363034548,371.492413314521
0.84,0.628781472828123,0.0407517230627214,11.4665334788297,-2.03920335728253,-0.344174122394681,-0.527798272996734,-3.8523712275187,-10.990858759845,2.62846685157353,301.042932049769,371.492413314521
0.85,0.529355398540793,0.106473413623367,15.1150056350547,-5.33742764452114,0.538912962381282,-0.0335640395412347,14.2496634941096,7.34156791924416,-1.43450756933878,304.687283021304,371.492413314521
0.86,0.537481336324269,0.00259037794783468,13.4650891440118,-0.140881938494759,-0.388124513885706,0.371822886164662,-9.86500662421367,9.16570333804226,0.81166530675053,308.127445822373,371.492413314521
0.87,0.423219427270053,-0.00940937415767,17.9855427718087,0.454561306782838,-0.0156357395015625,-0.423035156448102,-1.51740727284814,-17.9271818740842,3.08241943120237,311.410454580771,371.492413314521
0.88,0.4789008225265,-0.00456158941515515,14.0500550725961,0.211102415986332,0.374210793059882,0.298886413662524,11.191333260587,8.49721552177528,-0.906366466458167,314.565921083168,371.492413314521
0.89,0.359896929828144,-0.0370635343718685,18.9063301316829,1.83486262118038,-0.361200660274779,0.0208227927262995,-18.3715187410962,4.82735321188915,1.41058926403805,317.588103312089,371.492413314521
0.9,0.339205360922402,-0.0987452990158423,18.8836942373887,4.922184869281,0.274748608361078,-0.222090326578796,6.74150608147491,-18.3132167488948,-2.53388097299361,320.490801492445,371.492413314521
0.91,0.338935591305537,-0.0266428586546559,17.9008250137416,1.31305992531701,0.0326111221651638,0.338413492169055,4.40123165916168,17.4009431474982,-0.174514214799736,323.215249896019,371.492413314521
0.92,0.441157153545545,-0.0305465247098489,11.8328188758316,1.51207438435064,-0.337444498692616,-0.28580401431461,-10.4313165724017,-5.78702048193927,2.20439487333591,325.848899417359,371.492413314521
0.93,0.353706385909495,0.0843953692146812,15.2887146573052,-4.24181710867142,0.342274598204833,-0.122796112323472,15.6625747087145,2.53408005987422,-1.68103453006868,328.346757565409,371.492413314521
0.94,0.336618052415691,0.0134664468526482,15.2733191598432,-0.687544688456605,-0.215641523067267,0.258827726359054,-10.7479159962817,10.873329646154,0.734612054491495,330.731148057833,371.492413314521
0.95,0.295150515194097,0.0349469994548494,16.5006017510534,-1.75905859757356,-0.0272848590727874,-0.295957185848927,2.18616860885004,-16.4494623653858,-3.11566942073414,333.025102497685,371.492413314521
0.96,0.307650362836574,0.0411864701738493,15.0758365901671,-2.0648745187034,0.222534584162205,0.216387222198104,7.69513123270707,13.1274335261249,-0.666319854460261,335.206683558967,371.492413314521
0.97,0.20675927430547,0.00801161645810105,19.3586254617104,-0.398926665071235,-0.203227602773805,-0.0388860512318842,-18.7684800734491,-4.76021827056612,1.79858270023971,337.29427257259,371.492413314521
