t,iq,id,vq,vd,ia,ib,va,vb,theta_e,omega,r
0,0,0,0,0,0,0,0,0,0,0,0
0.01,0.00126692827525335,0.000707875228731642,-0.0585880302966534,-0.0354705850774882,0.00139912457209422,-0.000385545102226002,-0.0653532581590157,0.0204858816696268,-1.33016100935315,-0.00973262856038059,0
0.02,0.00141569873861757,0.000796662984022559,-0.0670560643970048,-0.0399195992250331,0.00156473930043389,-0.000436423819598298,-0.0746360713885468,0.0227935741468131,-1.33022757251231,-0.00929778351601091,0
0.03,0.00144346110374493,0.000814790858401901,-0.0689468576552975,-0.0408279687582585,0.00159599482775911,-0.000447509341495789,-0.0766874673484827,0.0232298206006974,-1.33028659864019,-0.00796334453159483,0
0.04,0.0014209282360017,0.000805668806869168,-0.0685253844677558,-0.0403708717067301,0.00157191759355575,-0.000444088231434677,-0.0761682108201213,0.0228897195106572,-1.33033183036977,-0.00654171801492164,0
0.05,0.00143415088234823,0.000814800983661935,-0.0695670353572034,-0.0408284544022817,0.00158691669461388,-0.00044987198253773,-0.0772879441087671,0.0230891488086867,-1.33037175253516,-0.00558857144620009,0
0.06,0.00143062794438157,0.000814827788504622,-0.0698076538946575,-0.0408297987917184,0.00158348671818134,-0.000450788701619791,-0.0775212080302518,0.0230356965854935,-1.33040447815044,-0.00467641938345981,0
0.07,0.00146622094251641,0.000835772504998992,-0.07164276003529,-0.041879314672994,0.00162303059573594,-0.000462699921861938,-0.0795527935104388,0.0236202266635882,-1.33043089158248,-0.004290326351235,0
0.08,0.0014254560359398,0.000814897537102131,-0.0701673462979985,-0.040833309291001,0.00157845815714487,-0.000452164519301507,-0.0778702773118414,0.0229572547473496,-1.33045308858907,-0.0033220694604378,0
0.09,0.00142331605471262,0.000814807617132012,-0.0702872848850479,-0.0408288119068989,0.00157635027770213,-0.000452614456825512,-0.0779852924196462,0.0229257162257384,-1.33047077513696,-0.00282694541050879,0
0.1,0.00142172528745657,0.000814802775995305,-0.0703915601186905,-0.0408285551168872,0.00157479754657528,-0.000453011086027253,-0.078086179628224,0.0229017728559309,-1.33048518879383,-0.00242483899900456,0
0.11,0.00142042959292068,0.000814799105138529,-0.0704765785012158,-0.0408283517737439,0.00157353288579664,-0.000453334388168206,-0.0781684377071277,0.0228822588969163,-1.33049693682683,-0.00209710384806066,0
0.12,0.001419373168007,0.000814796113026722,-0.0705458452020464,-0.0408282182903651,0.00157250175997938,-0.00045359796155122,-0.0782354634323845,0.0228663933657414,-1.33050651221702,-0.00182997890240468,0
0.13,0.00148425059256725,0.000851037248496412,-0.0734420575506407,-0.0426442019863996,0.00164413500983592,-0.00047337542109453,-0.0814803872792717,0.0239418100641612,-1.33051707313562,-0.00213694876463374,0
0.14,0.00161771003013051,0.000928731291474817,-0.0807058845236683,-0.0465373567329571,0.00179224554413368,-0.000517091348682505,-0.0894618051591423,0.0259952069833238,-1.33052475726798,-0.00314600794462756,0
0.15,0.00141762660914682,0.000815249203752501,-0.0707674334478278,-0.0408509361122271,0.00157090194103118,-0.000454492638933425,-0.0784555254745921,0.022837669332566,-1.33053130750454,-0.00114726746760325,0
0.16,0.00141628658841034,0.000814789213369778,-0.0707487516284562,-0.0408278693621585,0.00156948948578719,-0.00045436980174544,-0.0784318176316861,0.0228199639927061,-1.33053453693261,-0.00104821361076253,0
0.17,0.00141599256325997,0.000814786536633621,-0.0707674706137622,-0.0408277439831756,0.00156920207791391,-0.000454441281308821,-0.0784499092755989,0.0228155935814901,-1.33053715870836,-0.000975029325295588,0
0.18,0.00141575686236042,0.00081478586044608,-0.070782884725367,-0.0408277085505722,0.00156897201510658,-0.000454500063273774,-0.0784648234601354,0.0228120589799529,-1.33053929556775,-0.000915416754068488,0
0.19,0.00141556481721172,0.00081478531535916,-0.0707954402763326,-0.0408276758246395,0.00156878456472385,-0.000454547963736239,-0.0784769708628442,0.0228091762532962,-1.33054103724128,-0.000866828910757595,0
0.2,0.00141540839514525,0.000814784871076839,-0.0708056681527806,-0.04082764002103,0.00156863188449334,-0.000454586979723598,-0.078486864071338,0.0228068191665521,-1.33054245681273,-0.000827226737165806,0
0.21,0.00141528057112251,0.000814784508941037,-0.070813976946844,-0.0408276407341303,0.00156850711970331,-0.000454618858437684,-0.0784949080004331,0.0228049336097897,-1.33054361385092,-0.000794948453531963,0
0.22,0.00141517676878669,0.000814784213765975,-0.0708207571759076,-0.0408276075894931,0.00156840579979974,-0.000454644750404434,-0.0785014640953587,0.0228033621059616,-1.33054455690798,-0.000768639604830186,0
0.23,0.00141509178560218,0.000814783973172588,-0.0708262535369879,-0.0408276080925054,0.00156832285076754,-0.000454665943719194,-0.0785067851833916,0.0228021150950895,-1.33054532555664,-0.00074719622427443,0
0.24,0.00141502251848603,0.000814783777069078,-0.0708307222890983,-0.0408276085173379,0.00156825524160357,-0.000454683217614674,-0.0785111114015893,0.0228011013709339,-1.33054595205143,-0.000729718508892716,0
0.25,0.00141496617347055,0.000814783617229377,-0.0708343591888387,-0.0408276088778945,0.00156820024469012,-0.000454697270197585,-0.0785146322871437,0.022800276428025,-1.33054646268197,-0.000715473062193284,0
0.26,0.00142584382597249,0.000820568530843818,-0.071303691372771,-0.0411174543258954,0.00158014177986624,-0.0004577283969738,-0.0790394424787978,0.0229701542499456,-1.33054687453354,-0.00080347967061113,0
0.27,0.00137141921834924,0.000790567382928319,-0.0689902276413859,-0.0396141549218685,0.00152014131233491,-0.000441540315192694,-0.0764347027380297,0.022060575639205,-1.33054775185465,-0.000284124640088776,0
0.28,0.00133899428472931,0.000770745550993794,-0.0662932222598362,-0.0386209229999474,0.00148393090232186,-0.000430004041898129,-0.0735788111284241,0.0217376531366107,-1.33054838014165,2.81354297298064e-05,0
0.29,0.00141446258307013,0.000814605134670736,-0.0708266910386014,-0.040818649249706,0.00156766811374593,-0.000454645586673429,-0.0785050256386162,0.0227934911658621,-1.33054764008473,-0.000679217246297816,0
0.3,0.00141304673297438,0.000813770421858239,-0.0707307497289001,-0.0407768112011057,0.00156609566582347,-0.000454167077791711,-0.0784019525730545,0.0227754499774524,-1.33054466243406,-0.000746393278285676,0
0.31,0.00141507432289285,0.000814779853024438,-0.0708259502213637,-0.0408274021875238,0.00156830488034668,-0.000454666196770722,-0.0785064401359926,0.0228019922663509,-1.33054538911103,-0.000745321662763423,0
0.32,0.0014150168141295,0.000814783744317721,-0.0708307790771506,-0.0408276062732481,0.00156824966980836,-0.00045468462412926,-0.0785111648469894,0.0228010897337899,-1.33054600369977,-0.000728270854786721,0
0.33,0.00141496140044238,0.000814783603997761,-0.0708343397781272,-0.0408276095395193,0.00156819558648008,-0.000454698459014132,-0.0785146126325305,0.022800284991164,-1.33054650473566,-0.000714293528213274,0
0.34,0.00141491673708363,0.000814783476231097,-0.0708372563041546,-0.0408275731983484,0.00156815198982421,-0.000454709602745521,-0.0785174274337652,0.0227995877846595,-1.33054691310994,-0.000702900726436248,0
0.35,0.00141487994984211,0.000814783372038589,-0.0708396031603409,-0.0408275734624687,0.00156811608301723,-0.000454718776826389,-0.078519699359315,0.0227990557539263,-1.33054724595831,-0.00069361486836799,0
0.36,0.00141485003110455,0.000814783287114307,-0.0708415082210355,-0.0408275736922325,0.00156808688001382,-0.000454726238747963,-0.0785215435739032,0.0227986239803487,-1.33054751724802,-0.000686046305005514,0
0.37,0.00141482558388709,0.000814783217895762,-0.0708430467590105,-0.0408275738946461,0.00156806301793103,-0.000454732335317225,-0.0785230329303268,0.0227982754533089,-1.330547738364,-0.000679877445773405,0
0.38,0.00141480556045184,0.000814783161478844,-0.0708442848295733,-0.0408275740749507,0.00156804347421467,-0.000454737327572415,-0.0785242313763193,0.0227979951885592,-1.33054791858465,-0.000674849434185783,0
0.39,0.00141478949513751,0.000814783115495862,-0.0708452956061812,-0.0408275742354644,0.00156802779257603,-0.000454741335879782,-0.0785252098117623,0.022797766370815,-1.33054806547362,-0.000670751285800811,0
0.4,0.00141477622379088,0.000814783078017564,-0.0708460995209578,-0.0408275743820039,0.00156801483903636,-0.000454744645036667,-0.0785259879427634,0.0227975846278612,-1.3305481851948,-0.000667411034912064,0
0.41,0.00141476539716601,0.000814783047470808,-0.0708467431961694,-0.0408275745163247,0.0015680042717218,-0.000454747344496144,-0.0785266109383933,0.0227974392623432,-1.33054828277251,-0.000664688518552297,0
0.42,0.00141475666601691,0.000814783022574281,-0.0708472614360166,-0.0408275746401756,0.00156799574925034,-0.000454749522536791,-0.0785271125102823,0.022797322316006,-1.33054836230173,-0.000662469495026573,0
0.43,0.001414749448267,0.000814783002282514,-0.0708476676561833,-0.0408275747564609,0.0015679887044966,-0.000454751321879719,-0.0785275056133777,0.0227972308615836,-1.33054842712069,-0.000660660850094635,0
0.44,0.00141474362750094,0.000814782985744256,-0.0708479907708257,-0.0408275748657677,0.00156798302294936,-0.000454752773664368,-0.0785278182695085,0.0227971582332958,-1.33054847994968,-0.000659186689747495,0
0.45,0.00141473885447276,0.000814782972265399,-0.0708482416210208,-0.0408275749698432,0.00156797836421997,-0.000454753963794259,-0.0785280609582496,0.0227971020273662,-1.33054852300592,-0.000657985155554461,0
0.46,0.00141473501276716,0.00081478296128017,-0.0708484374072616,-0.0408275750692623,0.00156797461428011,-0.000454754922254746,-0.0785282503450032,0.0227970582935478,-1.33054855809706,-0.000657005828967252,0
0.47,0.00141473175313817,0.000814782952327025,-0.0708485794721117,-0.0408275751657738,0.00156797143313502,-0.000454755734007447,-0.0785283877006159,0.0227970268297161,-1.33054858669571,-0.000656207615684871,0
0.48,0.0014147291920011,0.000814782945030584,-0.0708486889528996,-0.040827575258789,0.001567968933221,-0.000454756372870772,-0.0785284935278112,0.0227970027001207,-1.33054861000287,-0.000655557021226681,0
0.49,0.00141472709652532,0.000814782939084093,-0.0708487666946451,-0.0408275753494761,0.00156796688787643,-0.000454756895482163,-0.0785285686253011,0.0227969857816945,-1.33054862899741,-0.000655026745469733,0
0.5,0.00141472546671082,0.000814782934238529,-0.0708488229122608,-0.040827575437829,0.00156796529667958,-0.000454757302849549,-0.0785286228964439,0.0227969737064511,-1.33054864447637,-0.000654594537096509,0
0.51,3.5209430975876,0.016817031395332,7.25164570914855,-0.819320743293501,-2.09871486587066,2.82713972430939,-5.00569762544099,5.31042778446879,0.643360546833656,187.056822209982,563.438796827586
0.52,2.12928736847123,-0.0540949925126457,7.40993118844198,2.7263434968303,-1.08449211099811,-1.8332124336609,-6.24405424021302,-4.83237164603798,2.5819874666425,333.609030842599,563.438796827586
0.53,1.34299807442263,-0.0109511861214764,4.23365541887091,0.571455953768389,1.04752364407188,0.840510542165131,3.67757466815505,2.17390079648926,-0.902760810173631,420.852336707044,563.438796827586
0.54,0.808193180976828,-0.0516167223280281,4.8006330394602,2.59173297578355,-0.508810946538726,-0.630041208559963,-5.1565200012958,-1.78142046512244,2.39846445409906,475.389956856898,563.438796827586
0.55,0.354748279639984,0.0198054060933722,11.9765865661486,-0.998338298798758,0.114585447410913,0.336316474856187,2.26306712157337,11.8031280743095,-0.272600730773593,508.146586068932,563.438796827586
0.56,0.230508156197483,-0.0649268789522941,8.49525423623678,3.26904137110208,0.147929560172637,-0.188325130854008,0.217898339515957,-9.09991738082891,-2.75031056495359,528.296235822043,563.438796827586
0.57,0.180296094306143,-0.0309876422784069,5.2176318373053,1.56473510540243,-0.178081695546033,0.0418786975379389,-4.19233052862394,3.47799405958497,1.16961950165441,540.222505087335,563.438796827586
0.58,0.107428790888197,-0.000303363131422645,5.14590687101008,0.0191894174724334,0.0966533585523881,0.0468952601169135,4.64439097560668,2.215932811381,-1.12189046191784,548.114174535461,563.438796827586
0.59,0.0706672222867183,0.00764322599887283,4.7344475242751,-0.386976072763549,-0.0233704775587198,-0.0671274607598684,-0.689815021578003,-4.69988287907385,2.9143053927611,552.723584163676,563.438796827586
0.6,0.0323505122742866,-0.0426540269624886,5.41107192664022,2.12709694581819,-0.0534795448428987,-0.00242073210452048,-1.82655996600624,5.51977531270669,0.694114503538294,555.33279510156,563.438796827586
0.61,-0.0110190024247817,-0.0452497262286538,6.70436529202528,2.25427599864682,-0.0137386528513541,0.0444995006268098,6.8285602010697,-1.84419083268389,-1.51020932157563,557.169171169908,563.438796827586
0.62,0.0241554653799559,0.0160067564176534,4.31321075952555,-0.793553391180926,-0.0264097650960017,-0.0119258989728383,-1.6245442132771,-4.07361880148961,2.58017702536223,558.617586520871,563.438796827586
0.63,-0.0352416033293667,-0.0178263778507033,6.90936595776174,0.904606637044855,-0.00291605002309641,-0.0393858731623824,-1.81979790689272,6.72651370950296,0.394400253573051,559.480074856531,563.438796827586
0.64,0.0639746011602694,0.0474389626530943,1.77635970717259,-2.36752307288028,0.0522725847870008,-0.0600897799205741,2.24404514330572,1.92999500120927,-1.78759687397192,559.898485011718,563.438796827586
0.65,-0.0224224490366017,-0.0358690218134246,6.03050920912348,1.79960281578722,0.0408062593559547,-0.0111446015642323,-5.65164454745403,-2.76848794925054,2.31629858992248,559.953806596612,563.438796827586
0.66,0.00268925038202441,-0.0363355371965008,4.71008741685976,1.81668332193952,-0.0363590280683392,-0.00235040611410794,1.14936072236329,4.91571273535816,0.138431418813887,560.120049148743,563.438796827586
0.67,0.043980475752511,0.0220114428410484,2.66065191188416,-1.11205208467787,0.0293263143489404,-0.0394810479859525,2.87623023919833,-0.207432028313773,-2.03868563839938,560.272335855853,563.438796827586
0.68,0.00228699570741793,-0.0605891737624873,4.60733816911445,3.02342419968295,0.0270004729143524,-0.0542886064380727,-5.49249329560583,0.448526803583002,2.07005023438734,560.400032756283,563.438796827586
0.69,0.00571245639320818,-0.0091928897256152,4.42350982670753,0.457182821591025,-0.00854856078858437,0.0066380334433855,0.914999890977266,4.35192262326062,-0.104246120222437,560.449569201022,563.438796827586
0.7,-0.114022812659869,-0.0395681758379219,10.3178239085242,1.99314253757011,-0.0608771427454719,0.104215238027631,6.54111230078232,-8.22459465572251,-2.27889303741616,560.454019266473,563.438796827586
0.71,-0.0265363573234864,0.039278705467648,6.00062030059822,-1.95860151488185,0.0156522079181259,0.044743752083411,-5.30350543318126,-3.42292185219964,1.82843876806473,560.470864542399,563.438796827586
0.72,0.0350220790824435,0.0442582938339136,2.99360143382928,-2.21237610149656,0.0535306679899509,0.0178832374277033,-1.06244392696425,3.56755805294807,-0.347002768169686,560.510117869341,563.438796827586
0.73,-0.0181796660671748,0.0208519866338693,5.53402028216654,-1.04717560964525,-0.0275368344141177,0.00265110455141163,4.07186233482428,-3.8912587124356,-2.52053232457753,560.767817446556,563.438796827586
0.74,-0.064296004419156,-0.0194352045474925,7.92577820819679,0.964500977264737,0.0646619677711814,-0.0181805743591806,-7.9430434054799,0.810113448434262,1.59025368308471,560.527773875449,563.438796827586
0.75,-0.0377581724982601,-0.0402814424118406,6.54376489655672,2.00543950700024,-0.0544137787666452,-0.00934959215802435,5.27633961196324,4.35923008533307,-0.582913859968886,560.734259125853,563.438796827586
0.76,-0.0090776354704052,0.000525617599947972,5.1858714170077,-0.0392448527274327,-0.00390494104018474,0.00821164874234247,1.98899538629967,-4.78943627846552,-2.75554433947544,560.450358291403,563.438796827586
0.77,-0.0133337350191823,-0.00977968279050469,5.47133951117072,0.501677367156273,0.010908738642621,-0.0124269910385277,-5.23411038598801,1.67072579871957,1.35325582588755,560.430514453808,563.438796827586
0.78,-0.0366580228637177,-0.00282248134196649,6.59259560777017,0.15189376389949,-0.028782320315243,-0.0228769551836198,4.93417604799206,4.3748480305633,-0.822374531543712,560.631455322233,563.438796827586
0.79,0.0307605742992905,0.0502574153734541,3.06389490115374,-2.51113980596124,-0.0452354268499904,-0.0377594609196323,2.93102541143855,-2.66502629028316,-2.99526975458987,560.916440535175,563.438796827586
0.8,0.00417829861676955,-0.0582110451712519,4.43974267343223,2.91733018939516,-0.0293304855979235,-0.0504549955291885,-2.70637874725831,4.57139415459224,1.11588111362352,560.982349566684,563.438796827586
0.81,0.0558992261908181,0.0204511492930269,1.92609152684001,-1.03017796110261,0.0587205093153784,0.0097403686727184,1.16865943321108,1.84535371418955,-1.05568498457981,560.816345276668,563.438796827586
0.82,0.0651817413635566,0.0491608257209486,1.40065915651328,-2.47374389925434,-0.0546076151354128,-0.0606914702571432,2.3435050212866,-1.60911129727781,3.05510254959805,560.931796818695,563.438796827586
0.83,-0.00497613038300793,-0.0651670792435254,4.94139811242087,3.25211371148677,-0.0374665680617817,-0.0535515300284921,-1.75962807957577,5.64777548415704,0.884103148799632,560.668349191084,563.438796827586
0.84,-0.0119531312213031,-0.0559101716183994,5.16134425163231,2.80784024077758,-0.0271091906307336,0.0503380216112941,5.74057194867649,-1.25270707017101,-1.28741275577026,560.987587306274,563.438796827586
0.85,0.00103966285814458,-0.0128954864490752,4.55376545505252,0.657997121359593,0.0119285448197062,-0.00500842171758211,-2.04498105983704,-4.12162498248627,2.82452456918636,561.100714720342,563.438796827586
0.86,-0.0244889444917094,0.0343445847282289,5.80250150577717,-1.71292450993682,0.0421548728273632,0.00149184428857587,-4.89235515557664,3.55921271252384,0.654796694979638,560.973946007816,563.438796827586
0.87,0.0654710721152663,0.0516739880889698,1.57589753286872,-2.58552744671389,0.0680965912935709,-0.0481613598555705,1.43782226210025,2.66478373501894,-1.51821146172813,560.607137230817,563.438796827586
0.88,0.0479961482952033,-0.0449527859839493,2.4341098597817,2.24938175513866,0.0132174767274834,-0.0644180217629534,-3.19019502545987,-0.898479153552418,2.59129921899256,560.698684578898,563.438796827586
0.89,-0.0396254031581996,0.0175266902087088,6.71319320830135,-0.888934002430019,0.0321340551919164,-0.0290647542918356,-3.54367988559216,5.77057185910627,0.419069041800615,560.863823224582,563.438796827586
0.9,-0.00171407284072479,0.0847039891986787,4.75868255333152,-4.25775227389072,-0.0169651787999583,-0.0830053404315568,5.44865192035397,3.32952043394036,-1.75217291237384,560.902857751856,563.438796827586
0.91,-0.0849116744606095,-0.0182698507364252,8.746936263386,0.905313782190757,0.0726905906120161,0.0475379631674734,-6.79345722459983,-5.58367495270758,2.36189409719106,561.143627272918,563.438796827586
0.92,0.00103219975047753,0.0559498757605654,4.47365711169728,-2.79172597614004,0.0547242208598834,0.011692462752829,-3.5942940552123,3.85854792941078,0.192049952020134,561.184465547268,563.438796827586
0.93,-0.066648796875326,0.0764270946502708,7.73380558895523,-3.82079194318016,-0.0913798008135479,-0.0439647008961306,8.61371807398723,0.46266716188986,-1.97600151006028,561.444650456971,563.438796827586
0.94,0.0375757983301271,0.0226606501817074,2.55868264199278,-1.12964244159091,-0.0438652436983103,-0.00113405559473227,-1.54802117343461,-2.32950195425476,2.1393138951562,561.586054650725,563.438796827586
0.95,-0.0525499606874412,-0.0349154600781439,7.3011105761997,1.74729751736894,-0.0364734945772484,-0.0514807916998516,1.96515749371269,7.24551035366065,-0.0299511056031026,560.963354629213,563.438796827586
0.96,-0.0755023399582663,0.0576159349204061,8.47027067015516,-2.89635046368945,-0.094953844856815,-0.00199164324968101,8.54829514455143,-2.65725071377229,-2.20165790363573,560.987296263741,563.438796827586
