t,iq,id,vq,vd,ia,ib,va,vb,theta_e,omega,r
0,0,0,0,0,0,0,0,0,0,0,0
0.01,0.00149362088801938,0.000810567843247314,-0.0744583381950562,-0.0406073410584498,0.000376646266075813,0.00165712436946825,-0.0189685236308643,-0.0826631440599253,0.273718733534219,0.00748237239906531,0
0.02,0.00156867748380721,0.000905829975700893,-0.0793026826301713,-0.0453797310931595,0.000448025007224094,0.00175514973320906,-0.0222513236374081,-0.0886177976639708,0.273746187849547,-0.0101082253803,0
0.03,0.00161758961273933,0.00092945863205458,-0.0825603001179461,-0.046563484292059,0.000457586330383648,0.00180861943321114,-0.0225121368349746,-0.092073692877529,0.273726621573136,-0.0048229110199973,0
0.04,0.00160272826600794,0.000916970949105245,-0.0804395703202743,-0.0459378663987116,0.000449554237479115,0.00179094237867341,-0.0224817510215324,-0.0898631343409635,0.27374150804963,-0.0104267740787896,0
0.05,0.00161482347218915,0.000929536341523105,-0.0824662747531717,-0.0465673707997631,0.000458408174065004,0.00180597746455917,-0.0225412590721966,-0.0919842276388096,0.273727019735563,-0.00480497995527447,0
0.06,0.00161404013940536,0.000929624280053801,-0.0823023245366771,-0.0465717941910101,0.000458702432186235,0.00180524761525494,-0.0225897272788331,-0.0918276040184991,0.27372821525771,-0.00528406181512228,0
0.07,0.00171982632676389,0.000954850658034575,-0.0854488290941499,-0.047835570995634,0.000454415263710118,0.00191390938695814,-0.0229569783501793,-0.0951983266190587,0.273716695740924,-0.00762393596376186,0
0.08,0.00160544601990081,0.000929800810197957,-0.0820506229767172,-0.0465806222470432,0.000461193976758571,0.001797021587311,-0.022666185815596,-0.0915876799594902,0.273729105104744,-0.00507330032637202,0
0.09,0.0016147898326734,0.000929626067624747,-0.0823345355039784,-0.0465718500942237,0.0004585018097495,0.00180596980034808,-0.0225810898005294,-0.0918586269289671,0.273728040466652,-0.00525886126995478,0
0.1,0.0016140273122519,0.000929624874874207,-0.0823106767338844,-0.0465717880650511,0.000458706623233166,0.00180523538810926,-0.0225874712688796,-0.0918356417173833,0.273728131667054,-0.00524563274231467,0
0.11,0.00161408947803367,0.000929624864473061,-0.0823125199793591,-0.0465717879850718,0.000458689822395298,0.00180529523307866,-0.0225869736327997,-0.0918374161417343,0.27372812391527,-0.00524655022953412,0
0.12,0.00161408458859016,0.000929624864595771,-0.0823122270757933,-0.0465717880739579,0.000458691142970217,0.00180529052602612,-0.0225870528322096,-0.0918371341829523,0.273728124619014,-0.00524648905521853,0
0.13,0.00172177754907356,0.000972404768513366,-0.0861237710672372,-0.0487149546229301,0.000470798240559645,0.00192053065036912,-0.0236216703665587,-0.0960857296160552,0.273711596430549,-0.00548187343557064,0
0.14,0.00185894037248774,0.00105152781216452,-0.0946075611517729,-0.0526788495908783,0.000509874872519966,0.00207398111432894,-0.025143513115865,-0.105325474456549,0.273723633692616,-0.020576714117553,0
0.15,0.00159373944519503,0.000930473822272166,-0.0819279511281602,-0.0466143499560133,0.000465007415581411,0.00178593254535512,-0.0227318660511707,-0.0914786809246368,0.273728589877981,-0.00401378118174616,0
0.16,0.00161577400804036,0.000929630779519889,-0.0823446013621707,-0.0465720838870843,0.000458240232308794,0.00180691862594394,-0.0225785903468038,-0.091868382096517,0.273728078716626,-0.00534544162818574,0
0.17,0.00161394489020415,0.000929624905951285,-0.0823088300441972,-0.046571788812466,0.000458728937792145,0.00180515604201219,-0.0225879713987429,-0.0918338639311613,0.273728129399435,-0.00523856496018728,0
0.18,0.00161409646295298,0.000929624864983751,-0.0823117281656735,-0.0465717885073777,0.00045868793354168,0.00180530195838166,-0.0225871881216306,-0.0918366539631846,0.273728124559773,-0.00524712658017829,0
0.19,0.00161408389009823,0.000929624864737225,-0.0823113325318356,-0.0465717886156149,0.000458691331129992,0.00180528985377931,-0.022587295128757,-0.0918362730994152,0.273728125059159,-0.00524644210694076,0
0.2,0.00161408505425145,0.000929624864744711,-0.082311224069759,-0.0465717886892546,0.000458691016446998,0.00180529097459117,-0.0225873245197533,-0.091836168695226,0.273728125055413,-0.00524649671041484,0
0.21,0.00161408482142081,0.000929624864757936,-0.0823110784782654,-0.0465717887664124,0.000458691079321635,0.00180529075045213,-0.0225873639467726,-0.0918360285459609,0.273728125098336,-0.00524649236454663,0
0.22,0.00161408482142081,0.000929624864770902,-0.0823109417757259,-0.0465717888429839,0.000458691079264712,0.00180529075047327,-0.022587400970753,-0.0918358969544526,0.273728125136782,-0.00524649270952561,0
0.23,0.00161408482142081,0.000929624864783735,-0.082310805231157,-0.0465717889195554,0.0004586910792064,0.00180529075049469,-0.0225874379519663,-0.0918357655150495,0.273728125175926,-0.00524649268214268,0
0.24,0.00161408482142081,0.000929624864796723,-0.082310668662643,-0.0465717889961269,0.000458691079148811,0.00180529075051601,-0.0225874749396816,-0.0918356340525856,0.273728125214753,-0.00524649268429978,0
0.25,0.00161408482142081,0.000929624864809651,-0.082310532070191,-0.0465717890726984,0.00045869107909059,0.00180529075053746,-0.0225875119338388,-0.0918355025670821,0.273728125253898,-0.00524649268404823,0
0.26,0.00164549867453544,0.000937121476236109,-0.0836747913506295,-0.0469473847167265,0.000457429237072686,0.00183755844592544,-0.0225809693881403,-0.0932503483146501,0.273721310537688,-0.0044237408624367,0
0.27,0.00151968070186908,0.000902398931184841,-0.080222230612527,-0.0452078425205205,0.000457990523997441,0.00170704362761043,-0.0218384508045277,-0.0894563434098883,0.273732705581798,-0.000609573878336066,0
0.28,0.00155406283688644,0.000885363476800751,-0.0750927489062807,-0.0443544417642965,0.000432314640298717,0.00173553560575047,-0.0224044195484121,-0.0842868876351643,0.273721333320701,0.00204078923440743,0
0.29,0.00161919452882516,0.000929316836639505,-0.0823239507647602,-0.0465563877989053,0.000457012280524607,0.00181012720008531,-0.02256900752039,-0.0918442704470197,0.273728660457905,-0.0058474219694251,0
0.3,0.00164178927437234,0.000927887473226842,-0.0826398409823435,-0.0464847738986237,0.00044952758684777,0.00183149450806661,-0.0224146340314352,-0.0921290491822749,0.273729022571116,-0.00760920036262624,0
0.31,0.00161176117098146,0.000929612715821532,-0.0822813494842281,-0.0465711813252968,0.000459307629841506,0.00180305029737664,-0.022594821235582,-0.091807240761889,0.273728063068196,-0.00505384439124244,0
0.32,0.00161427958424811,0.000929624784098291,-0.0823129574578438,-0.0465717833057864,0.000458638343640613,0.00180547824275803,-0.0225868502895481,-0.0918378362100037,0.273728130207247,-0.0052621834606511,0
0.33,0.00161406852327577,0.000929624864211682,-0.0823100203361942,-0.0465717897344132,0.00045869548343463,0.00180527505922695,-0.0225876508615833,-0.0918350100744063,0.273728125717949,-0.00524521615146766,0
0.34,0.00161408621840467,0.000929624865081634,-0.0823101306710931,-0.0465717897664129,0.000458690700285324,0.00180529209594838,-0.0225876210362043,-0.0918351163175841,0.273728126046439,-0.00524659641468852,0
0.35,0.00161408482142081,0.000929624865078143,-0.0823099767175496,-0.0465717898465025,0.000458691077878372,0.00180529075098372,-0.0225876627284074,-0.0918349681179128,0.273728126068567,-0.0052464842645598,0
0.36,0.00161408482142081,0.000929624865092463,-0.0823098356520743,-0.046571789923074,0.000458691077820231,0.00180529075100587,-0.02258770093166,-0.0918348323259334,0.273728126108409,-0.00524649336591133,0
0.37,0.00161408482142081,0.000929624865105504,-0.0823096992922964,-0.0465717899996455,0.00045869107776275,0.00180529075102719,-0.0225877378629524,-0.0918347010644336,0.273728126147205,-0.00524649262819973,0
0.38,0.00161408482142081,0.000929624865118301,-0.0823095625447537,-0.046571790076217,0.000458691077704403,0.00180529075104861,-0.0225877748990342,-0.0918345694296135,0.273728126186349,-0.00524649268789879,0
0.39,0.00161408482142081,0.000929624865131523,-0.0823094257732696,-0.0465717901527885,0.000458691077647039,0.00180529075106999,-0.0225878119416172,-0.0918344377717362,0.273728126225176,-0.00524649268303687,0
0.4,0.00161408482142081,0.000929624865144517,-0.0823092889778475,-0.04657179022936,0.000458691077588939,0.00180529075109144,-0.0225878489906449,-0.0918343060908185,0.273728126264289,-0.00524649268341805,0
0.41,0.00161408482142081,0.000929624865157301,-0.0823091521584875,-0.0465717903059315,0.000458691077531153,0.00180529075111271,-0.0225878860461698,-0.0918341743868477,0.273728126303116,-0.00524649268333465,0
0.42,0.00161408482142081,0.000929624865170114,-0.0823090153151897,-0.0465717903825029,0.000458691077472765,0.00180529075113414,-0.0225879231081335,-0.0918340426598381,0.273728126342292,-0.00524649268331375,0
0.43,0.00161408482142081,0.000929624865182952,-0.0823088784479575,-0.0465717904590744,0.000458691077415202,0.00180529075115538,-0.0225879601766081,-0.0918339109097753,0.273728126381024,-0.00524649268326261,0
0.44,0.00161408482142081,0.00092962486519573,-0.0823087415567875,-0.0465717905356459,0.00045869107735678,0.0018052907511768,-0.0225879972515128,-0.0918337791366759,0.2737281264202,-0.00524649268318756,0
0.45,0.00161408482142081,0.000929624865208502,-0.0823086046416796,-0.0465717906122174,0.000458691077298925,0.00180529075119808,-0.0225880343329176,-0.0918336473405226,0.273728126459059,-0.00524649268319244,0
0.46,0.00161408482142081,0.000929624865221336,-0.0823084677026337,-0.0465717906887889,0.000458691077240614,0.0018052907512195,-0.0225880714207673,-0.091833515521329,0.273728126498203,-0.00524649268313561,0
0.47,0.00161408482142081,0.000929624865234508,-0.0823083307396536,-0.0465717907653604,0.000458691077182686,0.001805290751241,-0.0225881085150897,-0.0918333836790916,0.273728126537316,-0.00524649268309864,0
0.48,0.00161408482142081,0.000929624865247652,-0.0823081937527356,-0.0465717908419318,0.000458691077125189,0.00180529075126238,-0.0225881456159064,-0.0918332518138017,0.273728126576175,-0.00524649268306517,0
0.49,0.00161408482142081,0.000929624865260722,-0.0823080567418797,-0.0465717909185033,0.000458691077067163,0.00180529075128386,-0.0225881827231708,-0.0918331199254709,0.273728126615288,-0.00524649268307337,0
0.5,0.00161408482142081,0.000929624865273828,-0.0823079197070859,-0.0465717909950748,0.00045869107700963,0.00180529075130522,-0.0225882198369296,-0.0918329880140877,0.273728126654146,-0.00524649268305647,0
0.51,0.338804849705409,-0.0218663425383388,4.37187183337169,1.11436004806532,-0.339496185938771,0.00303362043374759,-4.27840017971907,1.43190556473975,1.49741065920474,338.510517724023,394.983974272203
0.52,-0.023289090878589,0.101854884901506,8.84085163998418,-5.11563371727914,-0.0735952480773621,-0.0741656173215172,10.2089321663417,-0.328740129293855,-2.12754885508246,372.613387004451,394.983974272203
0.53,-0.028139841148186,0.0418785111697685,8.01492778673371,-2.08021032563784,0.0504314687512597,0.00152555472936213,-6.36000100953022,5.30252105929066,0.621885233582687,374.654920631016,394.983974272203
0.54,-0.0601109632543882,0.0238708472351716,9.39448943352741,-1.20435696502855,-0.0365887556816847,0.0533329936227219,3.25469902925591,-8.89459620470944,-2.91831012473998,375.317725407635,394.983974272203
0.55,-0.0506522839654455,0.0984406769207284,9.13101716051482,-4.91460034203143,0.0885781151283828,-0.0664088718759047,-3.3175647699724,9.8245882816813,-0.168105719202223,375.959769983497,394.983974272203
0.56,-0.0636182638178247,-0.0328990635884396,9.26401989840402,1.64541249554166,0.061495601757281,0.0367140687026164,-6.28223524635647,-7.00449621799789,2.5862807228113,377.700286130479,394.983974272203
0.57,-0.0540762849400807,-0.00981510995863444,9.14357325527116,0.483279297852232,-0.0492888692020408,-0.0243143650792077,7.63364299954444,5.05628176724247,-0.932970149135336,375.894075456958,394.983974272203
0.58,-0.0403034669713173,0.0458246584198272,8.19908731691932,-2.29220539723891,0.0273806935961824,0.0545395855080865,-7.35100234706213,-4.294415316092,1.82690468180067,377.100181536427,394.983974272203
0.59,0.0108636877974658,0.0550998306243441,6.14960375387459,-2.77931998005065,0.00395387135177641,-0.056021227661716,6.44654992026219,1.99605611312526,-1.69500196520456,375.924525849279,394.983974272203
0.6,-0.0125617821287447,0.0273726116504186,6.98992890061896,-1.36178490828321,0.0242677233198485,0.0178363629612644,-6.77244949652809,2.2017020663824,1.06406599891513,377.080062832414,394.983974272203
0.61,0.0690060927504429,-0.0197188623159863,3.28536395871497,0.97023141009305,0.0587410755617334,-0.0412330014620605,1.31274461781386,-3.16412182109905,-2.46116408789637,377.681528135249,394.983974272203
0.62,-0.0289097191472342,-0.080090772377037,8.00291535815481,4.02629753407456,-0.0682340053232852,-0.0509354905607495,1.52702298510758,8.82756630479988,0.29483922285189,376.071406413344,394.983974272203
0.63,-0.00358456865207758,0.088820511928834,6.92764327737983,-4.4656185310033,-0.0881282877809873,0.0116334588370391,3.81824158634014,-7.3044521650435,3.05068109250175,376.936949044175,394.983974272203
0.64,-0.0407239255923433,0.110775291824838,8.90357163887762,-5.53330792155711,0.0800841242981696,-0.0866956540428877,-0.872509701472183,10.4465214930248,-0.472729135127198,375.507461123819,394.983974272203
0.65,-0.0813128885116622,-0.0187293909120016,10.6564268579421,0.926208281486124,0.0741755123870579,0.0382173950467845,-8.73393610733949,-6.17540729282488,2.27294170530576,375.300187694436,394.983974272203
0.66,0.0151420879378117,0.0789717995740925,5.73183522107869,-3.93834477646603,0.0393743813865923,-0.0701105273515343,4.18941249946831,5.55097446303026,-1.24852866828522,377.532274640772,394.983974272203
0.67,-0.0470435334215416,0.0431082910448685,9.14106324337232,-2.16593904741213,0.0497502438634174,0.0399541240565138,-9.2626813098014,-1.56622607866581,1.50564645164633,376.234612227832,394.983974272203
0.68,0.0410421220823401,0.0379569341023822,4.69362694183313,-1.89145755396872,0.0209779152940485,-0.0518180634662279,5.05228163365502,-0.286698171949685,-2.01055813398567,375.531404058722,394.983974272203
0.69,0.0358645909032409,0.0498423838797723,4.75362621232626,-2.49622032176803,0.0125478384848135,0.0601089332864463,-5.0510035673589,1.82083525445075,0.741266781577494,378.048414987575,394.983974272203
0.7,-0.0419998308838527,0.113773659224351,9.09782401135563,-5.7191661868606,-0.121269035575973,-0.0015007791458027,8.59638329664403,-6.44836861785275,-2.77558340168162,375.455075880418,394.983974272203
0.71,-0.01659705237374,0.0756145967470856,7.06047666928638,-3.78188483804884,0.0754497111065623,-0.0173311996889228,-3.71308234642704,7.09690095847848,-0.00971958957087946,378.775083310101,394.983974272203
0.72,-0.0415024919123054,-0.12036740935984,9.6930744600923,6.01061113203974,0.127130026466625,-0.00698043276061509,-9.22361776758032,-6.70880123025495,2.75470651702856,375.861275028877,394.983974272203
0.73,-0.0250704854913184,0.0342076488181822,7.89034388931052,-1.70222387120352,0.00704501169832932,-0.0418217681430244,4.28061956700957,6.84334632484794,-0.771448608853406,378.418428776643,394.983974272203
0.74,0.0231850853424908,-0.0781540190810739,5.80010198896255,3.89825751767777,0.0108906661931821,-0.0807898030120889,-6.88839152593398,1.1779885151985,1.99317982335761,377.260715316153,394.983974272203
0.75,-0.0648348948469546,0.0162242641016664,9.33822697655725,-0.797685596279289,-0.0638566321055428,-0.019726146901857,9.28102774878706,1.30434247897458,-1.51638685744137,379.38660906336,394.983974272203
0.76,0.0698816742830296,-0.0151393947562028,3.61058495593212,0.745971978366545,-0.0711126752322198,0.00745902778520231,-3.19658609892322,1.83701802622682,1.25294190377631,376.648952780623,394.983974272203
0.77,-0.0227148532381483,0.0959227069964255,7.61993138312805,-4.78811308525595,-0.0786506540921017,-0.0594239420270759,8.92321545446462,-1.16859195358465,-2.26203293796515,377.775535973787,394.983974272203
0.78,0.0705925632874626,-0.0309185655317173,3.46254354644342,1.54206793027589,-0.061022622621129,0.0470691747800276,-0.310361501569341,3.77767879139373,0.500958652092232,377.589162120228,394.983974272203
0.79,-0.0282648840578994,0.0246992204253977,7.89563606928064,-1.22049014198618,-0.0281945842124169,0.0247794386844781,2.24600632152639,-7.66721075286668,-3.00999260327661,379.311240719421,394.983974272203
0.8,0.0428938801917357,0.0762068914718889,4.12185321464989,-3.81866741326902,0.0841251211933884,0.023881776523302,-2.74878637466308,4.9006191652432,-0.23605688223556,379.088875724017,394.983974272203
0.81,-0.0406903779586781,-0.0377226694897984,8.76855737369803,1.87288113070072,0.0540825604108639,0.0124009399346136,-6.48341289649416,-6.19359664162448,2.54376551748606,377.770135454163,394.983974272203
0.82,0.025707369199136,0.0253938808554463,5.14369983805306,-1.26652918278928,0.0356086469205092,-0.00614347463019082,3.49677014006845,3.97923897025167,-0.962378474947711,379.204690314179,394.983974272203
0.83,-0.0744760773413112,-0.0214910534611177,10.615498160429,1.05647850553986,0.077460055036391,-0.00291399189718652,-10.557320192736,-1.53229839613151,1.81412632562077,377.054885058487,394.983974272203
0.84,0.0287757429784634,-0.0310408729117871,5.17361803755957,1.5667680053688,0.0325769834428,0.0270244208976962,4.92520124048227,-2.22788651460547,-1.70153962851132,378.871369356205,394.983974272203
0.85,0.0591063981887743,0.00305915867322361,4.01538626875083,-0.170185061782811,-0.050415111954525,0.0310038908082616,-3.60605400911955,1.77444761146661,1.07115122508269,377.435612230297,394.983974272203
0.86,-0.050405492319962,-0.00545486629893079,8.74329713555528,0.288437522603831,-0.0283377599155263,0.0420409393963426,5.41814695767153,-6.86819660101032,-2.44069470312682,380.635542228567,394.983974272203
0.87,0.028285348565012,0.0625314787585247,5.60310296313343,-3.14632628414162,0.0501643669713118,0.0468378379682454,-4.7764254473865,4.29882447272666,0.326321961988098,379.189994094017,394.983974272203
0.88,-0.0237147254966703,0.088868915927888,7.64491249215938,-4.43471367859704,-0.0881122270266513,0.0263876462001503,4.20182369289212,-7.77534887177165,3.11138923802886,378.344599230694,394.983974272203
0.89,-0.0863385156648159,0.018803301853878,11.0015225055573,-0.951365777678361,-0.0163116748149169,-0.0868437258098944,3.40900044573729,10.5032047606521,-0.400102033606084,378.778281238039,394.983974272203
0.9,-0.063785477950885,-0.0418366795598262,9.8457271443833,2.11258684965976,0.0742062520170554,0.0176727789437788,-8.29419035494575,-5.71032158069284,2.38510778405588,378.302376582467,394.983974272203
0.91,0.0366814587560136,0.0546064767601724,4.79397385390972,-2.73707369203675,0.0566207591949205,-0.0334886002815763,3.14809891134117,4.53466988346696,-1.12562032106306,379.816510864538,394.983974272203
0.92,-0.0366333462002208,-0.0347485734970839,9.14251834289282,1.72650442638126,0.0393589962784761,-0.0316280702202707,-9.25329154275778,0.97111009117048,1.65287699477799,377.232496045847,394.983974272203
0.93,0.0539330897653235,-0.0564382516132933,3.97650977070488,2.83297925587725,0.0677956275033288,0.0387015155805264,3.00276561785723,-3.84990909827189,-1.86017407187586,379.547398246645,394.983974272203
0.94,0.071911041540579,-0.0241529018899985,3.31684476878485,1.19143604348252,-0.071910312509814,0.0241550723430849,-1.92506593622175,2.95213485584981,0.922699007200451,378.075489153062,394.983974272203
0.95,-0.063396353149617,-0.0871771580916188,9.62711220581006,4.37783726238731,0.0396976374135008,0.100215029159245,1.45576008967207,-10.475090027323,-2.57671452484081,379.575480729504,394.983974272203
0.96,0.0510380369398466,-0.00482652783240636,4.57344216024249,0.224547258396551,-0.0149741077903998,0.0490301201453925,-0.698137865464075,4.52541690732933,0.202122427638618,377.894841538899,394.983974272203
0.97,0.0489860849904579,-0.0269873109721058,4.11299313557166,1.36836843578256,0.0189607002797962,-0.0526159987180443,-1.9972202020552,-3.84711010679551,2.98391921946511,381.066171522773,394.983974272203
