t,iq,id,vq,vd,ia,ib,va,vb,theta_e,omega,r
0,0,0,0,0,0,0,0,0,0,0,0
0.01,0.000481687292399378,0.00027079524693831,-0.0232874256348985,-0.0135522349677815,0.000271128871321944,0.000481499583134932,-0.0135683641036783,-0.0232780317224825,-0.000692751072021517,-0.00264771593957506,0
0.02,0.00054703000435055,0.000306825036141045,-0.0265627315607984,-0.0153553862645432,0.000307214804886254,0.000546811203361286,-0.0153743125739711,-0.0265517816385679,-0.000712660532378075,-0.00280075230861493,0
0.03,0.000571870007342238,0.000321058406109953,-0.0278060132756965,-0.0160677127879907,0.000321477226184154,0.000571634672213309,-0.016088076937696,-0.027794235894738,-0.000732520055162469,-0.00271807600726904,0
0.04,0.000557802053139728,0.000313864628994857,-0.0271840559718946,-0.0157076908833522,0.000314283140086806,0.000557566358093951,-0.0157280865850415,-0.0271722605674147,-0.000750444549249912,-0.00243059297852287,0
0.05,0.000570645736003186,0.00032163010780836,-0.0278456151076396,-0.0160963138374658,0.00032206790384922,0.000570398761900484,-0.0161176767107307,-0.0278332552412643,-0.000767360116422611,-0.0023116688834582,0
0.06,0.000570805054386231,0.000322264109143342,-0.0278974866379099,-0.0161280515564424,0.000322710996021728,0.000570552520984251,-0.0161498925589243,-0.0278848485392126,-0.000783079492689792,-0.00213245583420904,0
0.07,0.000583052195840773,0.000329824331445532,-0.0285228773539229,-0.0165064079147045,0.000330289091729753,0.000582789042941418,-0.0165291438410064,-0.0285097077971148,-0.000797295968164646,-0.00204098337157805,0
0.08,0.000570176491318029,0.000322931475487955,-0.0279452643252169,-0.0161614498187279,0.000323393635146637,0.000569914489953721,-0.016184100895052,-0.0279321523815884,-0.000810741670549581,-0.00181178239326804,0
0.09,0.000568266975869299,0.000322364857961205,-0.0278881724016046,-0.016133086170457,0.000322832367721396,0.000568001513962229,-0.0161560294931732,-0.0278748872697403,-0.000822886030887126,-0.00166146825400687,0
0.1,0.000567399438692656,0.000322316780715132,-0.0278779908758573,-0.0161306904397808,0.000322789881164983,0.000567130428364414,-0.0161539351436798,-0.0278645281444385,-0.000834002587618874,-0.00152901288241723,0
0.11,0.000566683164218325,0.000322311330500599,-0.0278724270394957,-0.0161304069487875,0.000322789604817353,0.000566410869775128,-0.0161539308697617,-0.0278587999537034,-0.000844191698131463,-0.00140806743058781,0
0.12,0.000566033521017459,0.000322309498285055,-0.0278676561353083,-0.0161303251233658,0.000322792508508125,0.000565758213419141,-0.0161541051792972,-0.0278538782383616,-0.000853531933570713,-0.00129723918245951,0
0.13,0.000591431001354904,0.000336958234956957,-0.0291071264282407,-0.0168634305941567,0.000337468272314121,0.000591140124378556,-0.0168885318488589,-0.0290925693657952,-0.00086259052743719,-0.00134159290404082,0
0.14,0.000610786270971356,0.000348550930436596,-0.0301566438263671,-0.017443601496973,0.000349082781091483,0.000610482458274394,-0.0174698607258057,-0.0301414393530985,-0.000870980495166991,-0.00135835954405682,0
0.15,0.000568382226358199,0.000324455900382062,-0.028050978857539,-0.0162377373984898,0.00032495526204456,0.000568096879239967,-0.0162623819658023,-0.028036698512606,-0.000878787173298851,-0.00102151684021995,0
0.16,0.000564192298766605,0.000322480511033404,-0.0278690369965576,-0.0161388759523847,0.000322979868501311,0.0005639065831561,-0.0161635423036518,-0.0278547382023241,-0.000885307916342544,-0.000922346438719981,0
0.17,0.000563447285016412,0.000322317761120068,-0.027850072637307,-0.0161307404897212,0.000322819793463035,0.000563159802431159,-0.0161555548654591,-0.0278356853991266,-0.000891228743952906,-0.000850148517578432,0
0.18,0.000563040969799336,0.000322303618243617,-0.027845894813727,-0.016130023162814,0.00032280834003291,0.000562751749540329,-0.0161549847332556,-0.0278314206155263,-0.000896651304998943,-0.000785634974099116,0
0.19,0.000562693000189758,0.000322301719706167,-0.0278432316334236,-0.016129928813678,0.000322808924864016,0.000562402177286185,-0.0161550263164361,-0.0278286772240805,-0.000901621718131839,-0.000726644471834057,0
0.2,0.000562376288155657,0.000322300885925975,-0.0278408960035141,-0.0161298838828117,0.000322810366579223,0.00056208399530443,-0.0161551060658557,-0.0278262680277544,-0.000906178058715364,-0.000672581148888664,0
0.21,0.000562086023188519,0.000322300195724275,-0.0278387548373044,-0.0161298566732159,0.000322811759841651,0.000561792382767626,-0.0161551931315822,-0.0278240594103612,-0.000910354855711597,-0.000623022452484701,0
0.22,0.000561819972609729,0.000322299568950217,-0.0278367908770098,-0.0161298308635062,0.000322813040877516,0.000561525096863981,-0.0161552720611055,-0.027822033618112,-0.000914183727675673,-0.000577592068242318,0
0.23,0.000561576311192876,0.000322298994755194,-0.0278349989796536,-0.0161297901578829,0.000322814213987728,0.000561280303022199,-0.016155327364363,-0.0278201850548287,-0.000917693657148166,-0.000535946014004822,0
0.24,0.000561352752205218,0.000322298468322123,-0.0278333436938766,-0.0161297642535608,0.000322815287625314,0.000561055705938853,-0.0161553894485633,-0.0278184778128164,-0.000920911211807153,-0.000497769049050999,0
0.25,0.000561147724036587,0.000322297985652166,-0.0278318188867853,-0.0161297502271261,0.00032281627038968,0.00056084972614648,-0.0161554560649057,-0.0278169053683402,-0.000923860745968677,-0.000462772199836684,0
0.26,0.000566488636061522,0.000325421083266291,-0.0280944607122341,-0.0162860433364331,0.000325945783747912,0.000566186896950123,-0.0163120652905643,-0.028079359968201,-0.000926479700137995,-0.000463916748537396,0
0.27,0.000550917515312676,0.000316567148869969,-0.0273578493021771,-0.0158429346698815,0.00031707893699573,0.000550623116237969,-0.0158683493515085,-0.0273431158841352,-0.000929222353269396,-0.000341646174756413,0
0.28,0.000550314030802647,0.000316266434828612,-0.0272395771921363,-0.01582789145935,0.000316778911878043,0.000550019191744088,-0.0158532580973067,-0.0272248217873964,-0.00093149420898067,-0.000312090440277459,0
0.29,0.000559564896308565,0.000321802277663407,-0.0277829141263727,-0.016104939874102,0.000322324438485765,0.000559264280501632,-0.0161308655860027,-0.0277678695824537,-0.000933405733904944,-0.000344153061030116,0
0.3,0.000554559053498664,0.000319183615029399,-0.0275466571019254,-0.0159738823237345,0.000319701701006606,0.00055426054008386,-0.0159996171987626,-0.0275317177719923,-0.000934481934669533,-0.000302616204441043,0
0.31,0.000559767493122131,0.000322040902725145,-0.0278004626278342,-0.0161168791300771,0.000322564822667934,0.000559465749229982,-0.0161428991952091,-0.0277853616278147,-0.0009362121936624,-0.000313172612955193,0
0.32,0.000560127271495688,0.000322274789789492,-0.027822322239732,-0.0161285836794077,0.000322799979710153,0.000559824770357824,-0.0161546705603909,-0.0278071833417263,-0.00093787923506962,-0.000296167801707024,0
0.33,0.000560063107319078,0.000322293726243631,-0.0278235466200712,-0.0161295309994971,0.000322819715433904,0.00055976009279251,-0.0161556617254008,-0.0278083820276807,-0.000939414635342665,-0.000278197660941099,0
0.34,0.000559969139487448,0.000322295067893381,-0.027822987880243,-0.0161295966612079,0.000322821756900369,0.00055966566916193,-0.016155766019691,-0.0278078004767438,-0.000940822782696067,-0.000261511802446575,0
0.35,0.000559879769950238,0.000322294985240627,-0.027822318423659,-0.0161295895558247,0.000322822312527413,0.000559575883008945,-0.0161557941808753,-0.0278071101715378,-0.000942113689610379,-0.000246196885011606,0
0.36,0.000559797522525612,0.000322294801904456,-0.0278216863251809,-0.0161295899527979,0.000322822713798506,0.000559493253771851,-0.0161558268879706,-0.0278064589544962,-0.000943297070045781,-0.000232155995754796,0
0.37,0.000559722181025605,0.000322294625014657,-0.0278211067852455,-0.0161295769789655,0.00032282307269907,0.000559417562272163,-0.0161558435314396,-0.027805861901118,-0.000944381875994208,-0.000219284552016192,0
0.38,0.000559653184160498,0.00032229446212668,-0.0278205760439463,-0.0161295639839462,0.000322823400891436,0.000559348244562721,-0.01615585768599,-0.0278053151062751,-0.000945376318178621,-0.000207485277501902,0
0.39,0.000559589796017956,0.000322294312739393,-0.0278200796768979,-0.0161295643112703,0.000322823701425839,0.000559284562301961,-0.0161558828910916,-0.0278048040113518,-0.000946287924118922,-0.000196668873525788,0
0.4,0.000559531800398323,0.000322294175783775,-0.0278196273915249,-0.0161295498226701,0.000322823976918213,0.000559226297063935,-0.016155891209749,-0.0278043382389158,-0.000947123593626323,-0.000186753468721062,0
0.41,0.00055947848218109,0.000322294050229873,-0.0278192022090396,-0.0161295501119687,0.000322824229224719,0.000559172731687355,-0.0161559123957747,-0.0278039006799765,-0.000947889652424636,-0.000177664010554391,0
0.42,0.000559429799789324,0.000322293935129308,-0.0278188192584747,-0.0161295370458119,0.000322824460621605,0.000559123822724294,-0.016155918491553,-0.0278035063965356,-0.000948591899104601,-0.000169331698226836,0
0.43,0.000559385038098221,0.000322293829612206,-0.0278184585582386,-0.0161295373025836,0.000322824672550946,0.00055907885333522,-0.0161559363044334,-0.0278031352958433,-0.000949235648903491,-0.000161693461993084,0
0.44,0.000559344001697405,0.000322293732880891,-0.0278181248501594,-0.0161295375446329,0.000322824866768988,0.000559037626537562,-0.0161559526368598,-0.0278027920536468,-0.000949825774595706,-0.00015469148577493,0
0.45,0.000559306495176379,0.00032229364420436,-0.0278178216249178,-0.016129524438413,0.000322825044869305,0.000558999945479552,-0.0161559542829057,-0.0278024801011307,-0.000950366743192711,-0.000148272769535334,0
0.46,0.000559272036241227,0.000322293562911691,-0.0278175369144943,-0.016129524655295,0.000322825208022434,0.000558965326546283,-0.0161559680164859,-0.0278021873787892,-0.000950862649341256,-0.000142388728104839,0
0.47,0.000559240429481451,0.000322293488388366,-0.027817272116913,-0.0161295248608414,0.000322825357535338,0.000558933573116091,-0.016155980608931,-0.0278019152366655,-0.00095131724691199,-0.000136994823426654,0
0.48,0.000559211383856434,0.000322293420071158,-0.0278170228933602,-0.0161295236010211,0.000322825494498565,0.000558904393038335,-0.0161559906977949,-0.0278016592817477,-0.000951733976460925,-0.000132050227433785,0
0.49,0.000559184994998472,0.000322293357443319,-0.0278168033856578,-0.0161295104544294,0.000322825620256118,0.000558877880927292,-0.0161559879629007,-0.0278014336148066,-0.000952115992849632,-0.000127517513010896,0
0.5,0.000559160547780966,0.000322293300031023,-0.0278165864357002,-0.0161295106320989,0.000322825735274728,0.000558853320723719,-0.016155997669845,-0.0278012110070359,-0.000952466187500136,-0.000123362370695404,0
0.51,3.08234678761387,0.00770586392404897,4.0938564959036,-0.380112776845057,-0.408466026725394,3.05517210717556,-0.92928342125653,4.00506916983349,0.135408399492802,41.3059828229999,569.715412798344
0.52,2.87846751499101,0.034987359306681,3.37355781594514,-1.73984159922148,-1.59741721250642,2.39479802892812,-3.34155066694745,1.80054999045546,0.600412716617504,85.1448204220087,569.715412798344
0.53,2.66382891064473,-0.0440420282660955,3.43095821229721,2.22069230855249,-2.62416252529048,0.460103473472617,-2.94953217346867,2.82899426324393,1.38069528696541,127.808810407527,569.715412798344
0.54,2.47770730780826,0.0220146577272242,1.97714584056212,-1.08646376194386,-1.54982675600171,-1.93327576271532,-0.369213974975937,-2.22557637962658,2.47472616751861,169.747479988525,569.715412798344
0.55,2.30231506480314,-0.0183128929126716,1.82934473498553,0.937382803943101,1.51289346481901,-1.73555276029692,0.479570581526514,-1.99879982436507,-2.43258472400956,204.797201855459,569.715412798344
0.56,2.06361217076819,-0.0222435778578238,5.22961896893732,1.13199209611791,1.4767912933443,1.44155382972714,4.56337197699934,2.79391425521249,-0.808250579469081,238.820791705642,569.715412798344
0.57,1.9048445794219,-0.0177370736107234,5.15823227407952,0.91001700412845,-1.6701311186911,0.916192950154539,-4.05405543529381,3.31664373557414,1.05973617848759,269.679663244369,569.715412798344
0.58,1.82169882415641,0.0128392450690948,1.9316849078727,-0.624382136362922,-0.0121248411060488,-1.82170371915275,0.625139623804808,-1.93143989972804,-3.14120049052497,298.84897982874,569.715412798344
0.59,1.67547558161478,0.0515654704503857,2.59964314765742,-2.55397114591886,1.29730659862234,1.0615427506705,0.282923754388842,3.63329977548657,-0.854249085387186,324.542538531166,569.715412798344
0.6,1.51431982113685,0.00510810749484125,4.17868071564964,-0.234800427926826,-1.51279872525744,-0.068048734812478,-4.162460144374,-0.436382069744829,1.6191212296515,349.527046959754,569.715412798344
0.61,1.40022179436502,0.0183292040531167,4.0420359575485,-0.901369623067113,1.25361325020333,-0.624027925697774,4.03285289361077,-0.941604703683248,-2.01957965499626,372.275827408763,569.715412798344
0.62,1.28951216343233,-0.00709192993135632,4.28156994003781,0.379872284442287,-0.916047670076015,0.907605961449342,-2.75604598115101,3.29853826015466,0.784527494626532,392.784711920274,569.715412798344
0.63,1.23255854436682,0.00682054372716606,2.09506615442177,-0.314896592420699,0.684705969437263,-1.02490234682401,1.43431512609359,-1.55923127674535,-2.54708591558956,411.898878997948,569.715412798344
0.64,1.08250124041436,0.0262700908807068,4.91010963264537,-1.292304318005,-0.533893808279372,0.942049072317603,-3.63240665109418,3.54751306918213,0.539865229667038,429.703482644017,569.715412798344
0.65,1.01744966909895,0.0403647347156558,3.83132824168881,-2.00077709828188,0.549634904832894,-0.857166618778149,3.83444111417923,-1.99480486124921,-2.53176069074938,446.128302880669,569.715412798344
0.66,0.901641200002855,0.0270313894412775,5.59633415471325,-1.3371786386526,-0.624611246033376,0.650805916450018,-4.93093340934768,2.96528217804946,0.79483415990074,461.297750099171,569.715412798344
0.67,0.86171704225585,-0.00476006783671229,3.90488492058509,0.252345122276393,0.764571556330821,-0.397503779113918,3.33697474437941,-2.0436251757902,-2.05576389437859,475.159433113453,569.715412798344
0.68,0.776617631179273,0.0532260815168861,4.74015646730783,-2.65178420944498,-0.767882755437903,0.127765545876972,-4.97348863390269,-2.18299190022838,1.47434873160343,487.923237232872,569.715412798344
0.69,0.701104811367655,-0.0068847649960373,5.34860676727811,0.355644411751703,0.64803505863774,0.267667553671166,5.09585731156614,1.6632244462914,-1.1889147664524,499.651977835669,569.715412798344
0.7,0.634169523791693,0.0146331530214327,5.76822572973901,-0.721647042423028,-0.384526488603403,-0.504504205766284,-2.80597237533942,-5.09114147828295,2.51340787368938,510.419320314049,569.715412798344
0.71,0.622905975995947,0.00217134726440477,3.62631968631857,-0.096339069995004,-0.00303157332136834,0.622902383398557,-0.126624676598325,3.62538851367208,0.00835263352887189,520.309042580201,569.715412798344
0.72,0.559438708258832,0.0198222595027148,4.29162794424874,-0.978775427368795,0.351626053799769,-0.435572851035628,3.55163406746399,-2.60037828015596,-2.42701527896836,529.399571534949,569.715412798344
0.73,0.539795111085692,0.0072478598403618,2.96296580141674,-0.347114905138321,-0.537177388179286,0.0535886840028874,-2.98183101704111,-0.0913174876238409,1.48479179785995,537.705605157807,569.715412798344
0.74,0.450653625665494,0.0466662258380124,5.2757650807619,-2.31957435731832,0.363510308767041,0.270419456362721,2.31727821360651,5.2767740208635,-0.828018790774019,545.342468732727,569.715412798344
0.75,0.454525582163147,0.0195698824210969,3.08050763611656,-0.962206525003763,0.00528675985083715,-0.454915965106747,1.12903573302574,-3.02335029503418,-3.08694273000695,552.43591319158,569.715412798344
0.76,0.396182787667381,0.02307261193346,4.14833611289668,-1.15199782211582,-0.317791163923798,0.237701331080175,-4.09593190159486,1.32632324311226,0.986761066160918,558.920070719456,569.715412798344
0.77,0.340069614775298,0.0126919106252475,5.22198821402456,-0.637309808510468,0.31897242232938,0.118596042438466,4.57911659574107,2.58979070622392,-1.177524117178,564.845368247636,569.715412798344
0.78,0.320165640988947,-0.0146159012317998,4.63387696669927,0.731976444785323,-0.0362773808037399,-0.318439340975171,-1.45666461731382,-4.45945438937238,2.9825398820005,570.214419209812,569.715412798344
0.79,0.317298105771067,0.00340549448223507,3.31574199962678,-0.164646883903824,-0.245892697572061,0.200565367397542,-2.69444960424679,1.93938003873469,0.897310364180673,575.113704241976,569.715412798344
0.8,0.282653911340685,0.00170326954515399,3.70469310101993,-0.0744787138635936,0.259099949390637,0.112975001434392,3.35675071451965,1.56924271294637,-1.15359560371811,579.556164293864,569.715412798344
0.81,0.213084873476629,0.0324559702512575,5.94038071321009,-1.61231536207369,-0.0391845400407122,-0.211950761101015,1.42347496825216,-5.98843910041813,3.10993409487645,583.600172268244,569.715412798344
0.82,0.191668370135646,-0.016409830091462,5.83864401041197,0.815386111480562,-0.179589101850516,0.0689478145455724,-4.89624912593713,3.28349857436772,1.11882109979279,587.37510097627,569.715412798344
0.83,0.200665933303619,-0.00457938933825963,4.32525406957292,0.224851630889931,0.147238824649343,0.136413034975415,3.38808510232054,2.69801044506959,-0.846362411640711,590.715660333052,569.715412798344
0.84,0.216631734479096,-0.0264302003835556,2.53189592043168,1.32525178791191,0.0997658816500232,-0.194099543364558,-0.367162765174202,-2.83407493851732,-2.78821830715528,593.769121096741,569.715412798344
0.85,0.178638453832897,-0.000453719941460429,3.5284020790861,0.031292690348837,-0.178635691495139,-0.00109214177043236,-3.52849138106568,0.018682556398188,1.57437017146184,596.488574369908,569.715412798344
0.86,0.136816266754309,0.00879711222332974,4.78692348999583,-0.429976961058846,0.0523123831185288,0.126726061268061,1.13169486759313,4.67105806137952,-0.327280679311539,598.922194150551,569.715412798344
0.87,0.114418255075947,-0.00876850641351756,5.11471572488693,0.430423780684057,0.0969585141729555,-0.0613797224555566,3.84253923269859,-3.4030095243117,-2.21165052233148,601.197610978648,569.715412798344
0.88,0.137141706708977,-0.00707457623084291,3.27209509006018,0.350619915899437,-0.106491927284456,-0.0867027495016116,-2.84757269743912,-1.64950608868854,2.20257901615135,603.149218374175,569.715412798344
0.89,0.136337135178974,-0.0228628009350841,2.65871251175927,1.14900419814905,-0.0678821989131006,0.120426447120761,0.175946867011963,2.89102154394223,0.347139537498344,604.91201264295,569.715412798344
0.9,0.0790350856652052,0.000239184110075754,4.90763061500921,-0.00317546939822889,0.0788308760298279,0.00568286543169414,4.89359972277698,0.370850495777864,-1.49580518984065,606.512810140288,569.715412798344
0.91,0.0860162925800687,0.0318022405805132,3.99451032365066,-1.60081069990822,-0.0471747653900871,-0.0786430327845452,0.833739553749491,-4.2217989032172,2.95541316408175,607.912637049261,569.715412798344
0.92,0.0839050302280935,-0.00683966105184971,3.58500451743454,0.336029083886525,-0.0788887104607062,0.0293837782241892,-3.10426963475307,1.82446785940276,1.13290760947451,609.141159785571,569.715412798344
0.93,0.0781948561101182,0.018502405055495,3.39117324179294,-0.92409755341515,0.0636028044181332,0.0491065961462245,1.41690040898479,3.21658288795719,-0.680965844194712,610.23719632688,569.715412798344
0.94,0.0722862301248812,0.00196819380523452,3.23131682386035,-0.0901202635431928,0.0424344134934086,-0.0585533381114405,2.0382048043479,-2.50903392834716,-2.48725100943267,611.214516871144,569.715412798344
0.95,0.028748122374109,-0.0107018443073218,4.9933590616639,0.525099764355052,-0.0217541079244216,-0.021627362299354,-4.76389877919893,-1.58575940885548,1.99690444196484,612.051988870919,569.715412798344
0.96,0.0670831996309889,-0.0370340294445555,2.69928945213597,1.84646883319063,-0.0497955042281736,0.0582415896786245,1.2644897034998,3.01606970876004,0.202954902272318,612.780206071828,569.715412798344
