t,iq,id,vq,vd,ia,ib,va,vb,theta_e,omega,r
0,0,0,0,0,0,0,0,0,0,0,0
0.01,0.00137641254225969,0.00073021857180145,-0.0622699338837016,-0.0365509206056406,-0.00151924721529385,0.000345859144617291,0.0696489365640382,-0.0190404857737137,1.83472626994813,-0.0118596745364168,0
0.02,0.00151564096018289,0.000814850181035988,-0.0709089724674795,-0.0407871361468852,-0.00167570213587288,0.000391370271673195,0.0790923141093586,-0.0208824974628245,1.83464777568155,-0.00989407561811153,0
0.03,0.00155283344232995,0.00084862623904748,-0.0738584048822651,-0.042477818475979,-0.0017203908773656,0.000414383182930231,0.0823792710059036,-0.0217505113219599,1.83458640918809,-0.00757678013714625,0
0.04,0.00149122834600398,0.000829872534284594,-0.0721521465678101,-0.0415390923906029,-0.00165601021986048,0.000412408238040112,0.080486407683613,-0.0212924077822364,1.83454592303948,-0.00510954472492288,0
0.05,0.00151361734147037,0.00084942263153678,-0.0737835135121347,-0.0425176580352837,-0.00168270876574739,0.000425496736818974,0.0823158097563867,-0.021814343335316,1.83451542377634,-0.00400037027267302,0
0.06,0.00150382116367988,0.000850481007044912,-0.0738584631919271,-0.0425706576958289,-0.00167351775198469,0.000429108808424809,0.0824015048293592,-0.0218477798319594,1.83449350032066,-0.00292104134242421,0
0.07,0.00153523772444933,0.000872361284947538,-0.0755111879509092,-0.0436658708353352,-0.00170954511772676,0.000442068515622029,0.0842822461467872,-0.0224755593037879,1.83447914162993,-0.00262627237693867,0
0.08,0.00149183925141783,0.000851722709392373,-0.0739307511316054,-0.0426327975817063,-0.00166226241571784,0.000433473859716477,0.0824869224195911,-0.021891071747872,1.83446753266151,-0.00163847930212474,0
0.09,0.00148470622015351,0.000850595758670675,-0.073788795750086,-0.0425764036704557,-0.00165507907382162,0.000434256795259245,0.0823350182910626,-0.021874215203474,1.83446035440581,-0.00124232018633335,0
0.1,0.00148158785212329,0.000850532780500582,-0.0737656801108861,-0.0425732309022113,-0.00165204993503012,0.000435016765691072,0.0823117678182887,-0.0218775782549788,1.83445547317655,-0.000991794556634621,0
0.11,0.00147958044282968,0.000850528268656242,-0.0737555950690102,-0.0425730261144633,-0.00165010925769354,0.000435541112022211,0.0823019044395182,-0.0218802852393427,1.83445211502753,-0.000820947429534115,0
0.12,0.00147820895106821,0.000850527278118402,-0.073749107690027,-0.0425729466096285,-0.0016487838930609,0.000435901396906019,0.0822955698982383,-0.0218820895534602,1.83444980160586,-0.000703370273505117,0
0.13,0.00155256317794888,0.000890495380213249,-0.0769954821660302,-0.0445735427398242,-0.0017309829085321,0.000455118241859873,0.0859510412920204,-0.0229678794662418,1.83444559157951,-0.00132658990579104,0
0.14,0.00161253147044471,0.000927515720642351,-0.0806424489427567,-0.0464266016723951,-0.0017985253218628,0.000475236595635904,0.0899548356448724,-0.0238067523706269,1.83444264454438,-0.0018491257779766,0
0.15,0.00148342772438593,0.000854719443662846,-0.0741857037728849,-0.0427828064852082,-0.00165491061883594,0.000438604587887759,0.0827715588068585,-0.0219717142642937,1.83444016325102,-0.000332626903093503,0
0.16,0.00147404711645731,0.000850752932986992,-0.0737619986111124,-0.042584245561237,-0.00164482097363542,0.000437217816667059,0.0823107743411893,-0.0218903366004109,1.83444132113119,-0.000281802634617013,0
0.17,0.00147385949676559,0.000850537116842426,-0.0737310512363277,-0.0425734614909487,-0.00164458404242091,0.000437056667661356,0.0822781083760254,-0.0218879058340056,1.83444234510048,-0.000325188387048297,0
0.18,0.00147422550557391,0.000850525589887958,-0.0737303029159705,-0.0425728722164513,-0.0016449347163736,0.00043694896636542,0.0822772481794669,-0.0218874724181089,1.83444306847264,-0.000361265889338319,0
0.19,0.00147451677665574,0.000850525123028154,-0.0737313861664319,-0.0425728390929079,-0.00164521601958235,0.000436871787199529,0.0822782963069534,-0.0218871170161652,1.83444356829609,-0.000386611673922293,0
0.2,0.00147472009743395,0.000850525208727445,-0.0737322110115452,-0.0425728734988078,-0.0016454124876146,0.000436818316990467,0.0822791091566129,-0.0218869069306445,1.83444391279473,-0.000404113841176332,0
0.21,0.00147486072714225,0.000850525289970434,-0.0737327770533577,-0.0425728730071323,-0.00164554838283299,0.000436781356174434,0.0822796607065524,-0.0218867394121689,1.83444415016966,-0.000416176180975203,0
0.22,0.00147495758468969,0.000850525347154747,-0.0737331377848351,-0.042572872693567,-0.00164564197987886,0.000436755900757769,0.0822800124712168,-0.0218866316439179,1.83444431372622,-0.000424487587719598,0
0.23,0.0014750244070842,0.000850525386620609,-0.0737333635379221,-0.0425728725022038,-0.00164570655277647,0.000436738339201868,0.0822802328401756,-0.0218865633545052,1.83444442641984,-0.000430214314194559,0
0.24,0.00147507050755149,0.000850525413815955,-0.0737334948485346,-0.0425728723951614,-0.00164575110127244,0.000436726223686601,0.0822803612849992,-0.0218865226421095,1.83444450406825,-0.00043416013243887,0
0.25,0.00147510217251892,0.000850525432553593,-0.0737335532981168,-0.0425728723468302,-0.00164578170032643,0.000436717901695298,0.082280418873261,-0.0218865029611047,1.83444455756975,-0.000436878871759392,0
0.26,0.00149168344050215,0.000859110222583021,-0.0744301597765022,-0.043002577873941,-0.00166402737257922,0.000440684427365076,0.0830649439991584,-0.0221197980681717,1.83444484027755,-0.000630050292931037,0
0.27,0.0014440877269771,0.000832700396866429,-0.0724388223296961,-0.0416806265044697,-0.00161119326499356,0.000427592770035694,0.0807978837641739,-0.0213625744129642,1.83444364566459,-5.85562304253323e-05,0
0.28,0.00144245415291408,0.000830861506715944,-0.0713866577959553,-0.041588578363149,-0.00160913697000173,0.000426242933519158,0.0797580904731716,-0.0215478946910827,1.83444377168971,-4.63498707396182e-05,0
0.29,0.0014726933358038,0.000849453956554061,-0.0736261895835562,-0.0425192390640741,-0.00164317696327108,0.000436310844469281,0.0821627927446621,-0.0218626844550101,1.83444477600783,-0.000420325580237133,0
0.3,0.00146155847675398,0.00084404147813794,-0.0730692843377849,-0.0422483229749019,-0.0016310179929452,0.000433980995525955,0.0815546115806459,-0.0217459522154734,1.83444857215891,-0.000467439209717029,0
0.31,0.00147571897190644,0.000850173123645652,-0.0736886780623976,-0.042555220316697,-0.00164628675210022,0.000436211822482286,0.0822325632338688,-0.0218808956574922,1.83444771828632,-0.000583814877268722,0
0.32,0.00147633180922167,0.000850506958514977,-0.0737351023093816,-0.0425719456498937,-0.00164696501207245,0.000436375923271804,0.082281721943888,-0.0218850200580483,1.83444680045368,-0.000549774304503031,0
0.33,0.00147603285614989,0.000850524937807155,-0.0737370653441451,-0.0425728578264,-0.00164668078745491,0.000436472274597988,0.0822838404562025,-0.0218854433094652,1.83444614206273,-0.000517310521212442,0
0.34,0.00147577039646873,0.000850525770625025,-0.0737360452674369,-0.0425728732571548,-0.00164642741511167,0.000436542227464262,0.0822828496761709,-0.021885761540781,1.83444568637022,-0.000494231817548844,0
0.35,0.00147558483044635,0.000850525714716877,-0.0737351166797792,-0.0425728740924785,-0.00164624810953404,0.000436591050175831,0.0822819465179024,-0.0218860301905056,1.83444537222866,-0.000478274133939518,0
0.36,0.00147545654076212,0.000850525641870018,-0.0737344310921132,-0.0425728746949438,-0.00164612413934569,0.000436624769131974,0.0822812800398907,-0.0218862272506263,1.83444515576704,-0.00046727458471423,0
0.37,0.00147536829794847,0.000850525589803427,-0.0737339393746198,-0.0425728751344597,-0.00164603886702473,0.000436647960885855,0.0822808021637161,-0.0218863680908877,1.83444500662067,-0.000459695350314685,0
0.38,0.00147530729632004,0.000850525553825822,-0.0737335633703568,-0.0425728754631422,-0.00164597991902499,0.000436663992621727,0.0822804369885816,-0.0218864748522618,1.83444490385623,-0.000454473095030205,0
0.39,0.00147526538680432,0.000850525529030348,-0.0737332831865499,-0.0425728757141508,-0.00164593942028765,0.000436675007045761,0.0822801650020794,-0.0218865539377737,1.83444483305014,-0.000450874865750485,0
0.4,0.0014752365158046,0.000850525511945145,-0.0737330632563199,-0.0425728759121125,-0.00164591152115178,0.000436682594767274,0.0822799516552344,-0.0218866154578748,1.83444478426395,-0.000448395621380236,0
0.41,0.00147521649236931,0.000850525500173136,-0.073732878035745,-0.0425728760740785,-0.00164589217186741,0.000436687856928458,0.0822797721413461,-0.0218866666493793,1.8344447506495,-0.000446687377742827,0
0.42,0.00147520275536138,0.000850525492062326,-0.0737327262358292,-0.0425728762104746,-0.00164587889730576,0.000436691467144977,0.0822796251154253,-0.0218867082464496,1.83444472748914,-0.000445510367385068,0
0.43,0.00147519344213567,0.000850525486473854,-0.0737326020197617,-0.0425728763288781,-0.00164586989746776,0.000436693915083702,0.0822795048731589,-0.0218867420450448,1.8344447115313,-0.000444699386241575,0
0.44,0.00147518692287766,0.000850525482623423,-0.073732484108244,-0.042572876435914,-0.00164586359767399,0.000436695628410348,0.0822793908232608,-0.0218867737812855,1.83444470053681,-0.000444140605755167,0
0.45,0.00147518249909545,0.000850525479970439,-0.0737323791204556,-0.0425728765344255,-0.0016458593227534,0.000436696791174579,0.082279289323137,-0.0218868018599692,1.83444469296167,-0.000443755596025456,0
0.46,0.00147517923946645,0.000850525478142652,-0.0737322690282033,-0.0425728766281987,-0.00164585617300327,0.000436697647474348,0.0822791829452583,-0.0218868310704839,1.83444468774241,-0.000443490317450347,0
0.47,0.00147517714399066,0.000850525476883379,-0.0737321734780721,-0.0425728767172379,-0.00164585414803694,0.000436698198267115,0.0822790906413081,-0.0218868563530962,1.83444468414673,-0.000443307535780485,0
0.48,0.00147517574700681,0.000850525476015784,-0.0737320828302203,-0.042572876803437,-0.00164585279801721,0.000436698565566586,0.0822790030939869,-0.021886880263363,1.83444468166977,-0.000443181595947718,0
0.49,0.00147517458285359,0.000850525475418203,-0.0737319830789643,-0.0425728768886898,-0.00164585167318967,0.00043669887118171,0.0822789067744433,-0.0218869064817,1.83444467996341,-0.000443094821156708,0
0.5,0.00147517388436166,0.000850525475006112,-0.0737318923690955,-0.0425728769720489,-0.00164585099821289,0.000436699054749018,0.0822788191949891,-0.0218869302983171,1.83444467878775,-0.000443035031770142,0
0.51,4.71443175277179,-0.00444572758892259,4.27937450194044,0.245367322430575,-1.99299921254126,4.27245136366075,-1.58296086047632,3.98340133114589,0.435528188650862,133.189872854734,782.199818974771
0.52,4.54779496617262,0.00450715996897344,12.6127398707317,-0.172538167375105,-4.19225277309043,-1.76280346475483,-11.5547951514594,-5.05941552689216,1.96983246259413,288.395879579596,782.199818974771
0.53,3.55729503333215,0.0880256099054968,12.5858391159544,-4.353237100097,3.54605317002609,-0.295978677469786,12.8189511822975,3.60950274805561,-1.62933032615722,432.61895284723,782.199818974771
0.54,2.55745082957555,-0.0599095215488974,8.78024718828992,3.03315797368553,-2.36836340237185,-0.96695330330606,-9.28475820316384,-0.293348069001689,1.93499823064041,535.374719408397,782.199818974771
0.55,1.78398514618762,-0.0271221505587876,10.0459955471609,1.37681936213434,0.24538929026304,1.7672358951462,2.8934801546808,9.71830389954919,-0.153174591812673,606.699330618554,782.199818974771
0.56,1.16855422799177,-0.102291101718262,14.2561945260816,5.12848912006384,1.16178459208231,-0.161984612998667,12.7457130438993,-8.19068263471778,-1.79664453501929,657.134265059073,782.199818974771
0.57,0.889134726686271,-0.0480072465506115,9.31467682234409,2.41106575365852,0.0622210892951113,-0.888253226263643,-2.26178722407115,-9.35204581501864,-3.12559891431837,692.878621248529,782.199818974771
0.58,0.623430091779236,-0.0778031119245872,9.44083164340875,3.90873590768025,-0.517268005866584,-0.356584090598311,-10.1794824694162,-0.886371914054323,2.05018934134657,717.992623876558,782.199818974771
0.59,0.483565250265687,-0.0593627199526402,7.25178173205823,2.99773956397269,-0.457634138350884,0.16712354472227,-5.09415606530425,5.96861414108372,1.09850420037304,735.535582856998,782.199818974771
0.6,0.288494869424688,-0.0116412764023013,10.3541239626395,0.612907012057953,-0.0845496653355112,0.276072749637293,-2.03760086811251,10.1701386785728,0.256858848590964,748.270864131212,782.199818974771
0.61,0.165686040934269,-0.0338591227094146,11.8564588745715,1.67432091505847,0.0508918246764722,0.161270972379479,7.22315126756756,9.55013368162167,-0.507258284738416,757.115063958043,782.199818974771
0.62,0.0493117823432432,-0.0175982800584217,14.4577057005805,0.865497840792405,0.0401512946235541,0.0336039414196399,13.8609683920412,4.20093987958048,-1.21672628579095,763.166154090013,782.199818974771
0.63,0.0413906039942786,-0.0759684646620859,12.5459775734141,3.80873786041198,0.0630102404242423,0.0592798391007007,10.7334655046206,-7.52999041321203,-1.88781714542255,767.66896935611,782.199818974771
0.64,-0.0341715735362836,0.0773362779974084,14.7079981086882,-3.8502303429691,-0.0829658690398623,-0.016286832316276,11.5806242144456,-9.85081848695289,-2.53168838443408,770.800431780625,782.199818974771
0.65,0.0187067526413546,0.0875191021620751,10.9969470283929,-4.40539876660142,-0.0877919609535837,-0.0173812378605496,4.23861030224717,-11.0623037810276,3.12647108054985,772.879956517409,782.199818974771
0.66,-0.00683925689146587,-0.0127026385671635,11.4609720764576,0.617170183504442,0.0143010661106019,-0.00190051821765745,-7.2154165072831,-8.92594782637532,2.5155701322229,774.501693660391,782.199818974771
0.67,-0.003022855460949,-0.0134349864884237,10.6699881792464,0.676955781727602,0.00737318871826094,-0.0116306751827581,-10.2740879877944,-2.95804545176891,1.91448767878552,775.761367918373,782.199818974771
0.68,0.0329954502079214,-0.0132540582018758,8.33867637054423,0.686660076922589,-0.0352474465898594,-0.00468906196772256,-7.91035738859925,2.72603588724456,1.3210869906509,776.756108352768,782.199818974771
0.69,0.00293755206982594,-0.0620988949860129,9.44600670925831,3.08297609942895,-0.0480524565678114,-0.0394444341884301,-4.04371241912886,9.07635247510729,0.734602021853087,777.429270029488,782.199818974771
0.7,0.0553194300645955,0.00305832144938121,6.79202845567388,-0.168513227234443,-0.00531026781269102,0.0551488325217943,-1.18978641789469,6.68912965416503,0.151222352986613,777.629596334636,782.199818974771
0.71,-0.03332368360765,-0.0713939409039494,11.0307614325155,3.58013325446626,-0.0787863524885372,-0.000522827439365034,7.85318522656402,8.53361199598876,-0.430066130500533,777.996881599661,782.199818974771
0.72,-0.0111372177753172,0.00640289492740663,9.83962131092699,-0.297811825174397,-0.00601844819697093,-0.0113495799273201,8.17050509993894,5.49087295769389,-1.00934310699354,778.17711590477,782.199818974771
0.73,0.0371643354737829,-0.017849324096508,7.31306398980549,0.868242511276162,0.037457009593598,0.0172266837846165,7.2975575382542,-0.990153499840437,-1.58748393439701,778.435666399324,782.199818974771
0.74,-0.0640543543457989,-0.0303049791438978,12.2171507394731,1.50137549756933,-0.0362418860643205,0.0608923457100321,9.30014547701465,-8.06351007205135,-2.16281706546599,778.799829389925,782.199818974771
0.75,-0.0726063086107365,0.111642782939,12.711941086958,-5.58006421965157,-0.131200546246099,0.0228517766741965,10.1295472799075,-9.49330473533032,-2.73741953672297,778.72318477967,782.199818974771
0.76,-0.0398551730300357,0.0554000705107048,11.0820722213846,-2.75091439942586,-0.0478153111844082,0.048695981827902,0.826223049417589,-11.3884683002397,2.97070178787179,778.683301813689,782.199818974771
0.77,-0.0377238916419742,0.0172946139632828,11.0639838794378,-0.892751486513333,0.012919113134637,0.0394371929600578,-6.85731396467428,-8.72845860911388,2.39516186420693,778.556651092466,782.199818974771
0.78,-0.0113679492126992,-0.0102155352142515,9.6843330177734,0.500568601266682,0.0135344208285741,-0.00709978040865922,-9.50912596720389,-1.9008940695259,1.81974026885434,778.741666304785,782.199818974771
0.79,-0.0805157778506848,0.00352852205286774,13.0354883412119,-0.16508249912471,0.077436329451281,-0.0223350807451207,-12.407379644455,4.00101723112407,1.24619032494455,778.945971675675,782.199818974771
0.8,-0.0197162106834875,-0.0067602395221665,10.1903360633255,0.360737750482471,0.00696808889171194,-0.0196437150078576,-6.05508567004508,8.20420735577485,0.67119201479374,778.667845034774,782.199818974771
0.81,-0.06354316803888,-0.0566081219054516,12.381267353387,2.80687200303274,-0.050232149753446,-0.0686945762140446,1.60267095772887,12.5938777792508,0.0963573321147947,778.679149737619,782.199818974771
0.82,0.0164283108300176,0.0109826309641055,8.45930080646222,-0.556090812334233,0.0173138500506094,0.00952565882479602,3.40170435157876,7.76514099229531,-0.478534665435735,778.666231365665,782.199818974771
0.83,-0.0867857612348373,0.111328427017676,13.5098240087659,-5.55851794410187,-0.0202723421063608,-0.139695451468052,8.98484706520944,11.518897069491,-1.05276374295911,778.767008111544,782.199818974771
0.84,-0.0537808681736786,-0.0189855225542412,11.8846818201357,0.96832120755049,-0.0526076683443964,0.0220287330443261,11.8098972084099,-1.64609715802205,-1.62799009942494,778.880210477302,782.199818974771
0.85,-0.00253657726387877,0.0366251312321205,9.37689508174955,-1.85704222102176,-0.0236560826973472,-0.0280753310470588,8.66670325314797,-4.0327437194385,-2.20182719095345,778.699625070364,782.199818974771
0.86,0.0516011981332241,0.0400710489854953,6.57269153340814,-2.00740705258499,-0.0189172201460045,-0.062534081887638,4.2295275598788,-5.41673828870555,-2.77507173104927,779.030237798996,782.199818974771
0.87,-0.0104092219058706,-0.0375318738007039,9.72784053792184,1.89777378936248,-0.00775168825767341,-0.0381694220657514,-7.80803640580994,6.10466988234198,1.09989124799883,778.956762608308,782.199818974771
0.88,-0.095591366310094,0.0211098999670498,13.996425715028,-1.06195593546017,0.0662618474956114,-0.0720604243403948,-7.94750087055828,11.5700005668812,0.526155495593876,778.762854220896,782.199818974771
0.89,-0.0516200812874702,0.0261665161215534,11.9090630157476,-1.33263997684232,0.0236631622100254,-0.0528145255804364,-0.760503943478242,11.9592368056193,-0.0479319008732758,778.663512999016,782.199818974771
0.9,-0.0631805081255071,-0.00667943300927383,12.4890623942422,0.333644550838826,-0.0422742757904395,-0.0474265436092122,7.55496679011838,9.95040074438148,-0.622694254951107,778.805013422865,782.199818974771
0.91,0.0493671489274059,-0.0583029193050032,6.80855069401459,2.94102530369774,0.024639925484938,0.072313344998023,7.41242734197391,-0.248823812997403,-1.19660069945832,778.960828431258,782.199818974771
0.92,0.0029415562021439,-0.0859128079187546,9.09960112543637,4.27610156288075,0.019842771910146,0.0836416625868778,8.07645264604187,-5.98821324556478,-1.76950025305162,779.031613120169,782.199818974771
0.93,0.0283612600106264,-0.00425387088931239,7.94750494848192,0.19472454565609,0.0232866839219752,-0.0167387824781649,5.55800517095346,-5.68412975524664,-2.34291649501147,778.877779812546,782.199818974771
0.94,0.0345018440332602,0.00252976675518384,7.69216337893251,-0.121081364222745,0.00522292994626,-0.0341979233917428,1.83231028419318,-7.47172518013025,-2.91684557551937,778.817631820117,782.199818974771
0.95,0.00958829906462786,-0.0424457558300955,8.78349502851345,2.14765328713029,0.0366158264739352,-0.0235129521449667,-5.01930722638902,-7.52122028162724,2.79292026815847,779.142170533317,782.199818974771
0.96,-0.00439531615900371,-0.0773561352897864,9.50389089129394,3.84643945201292,0.0503143488114544,-0.0589216155140763,-9.89368692154894,-2.68960919651774,2.2208035796305,779.098392354297,782.199818974771
0.97,-0.0267227785713515,-0.0967779970597024,10.5399420297371,4.82805021192593,0.0342663813613037,-0.0943710904772375,-10.8876428666056,3.98242132983802,1.64968438521881,779.346139968753,782.199818974771
