t,iq,id,vq,vd,ia,ib,va,vb,theta_e,omega,r
0,0,0,0,0,0,0,0,0,0,0,0
0.01,0.000938627592040364,0.000506726991016274,-0.0453616492090436,-0.0253706139234958,0.00104839275874776,0.000196638305955786,-0.0512210416120567,-0.00881771886574778,-0.890364342062606,-0.00389008226462708,0
0.02,0.00102417754770108,0.000560665939600891,-0.0500448944021422,-0.0280711919544377,0.00114883073803891,0.000208503909748757,-0.0565605929787323,-0.00966346704649184,-0.89039005792114,-0.00331934719197188,0
0.03,0.00104977527319824,0.000580940011963706,-0.0515482840952764,-0.0290862805460464,0.00118148722697576,0.000208823739579501,-0.0583680088510543,-0.00981900463050582,-0.890410829581204,-0.00263346287103906,0
0.04,0.00101564342999008,0.000569285281313184,-0.0501392310787184,-0.0285027344665194,0.00114762641556307,0.00019639480314839,-0.0569057389675382,-0.00938537360963529,-0.890425134663005,-0.0018935463431056,0
0.05,0.00103127315962702,0.000581183549578697,-0.0510389905366051,-0.0290984567526951,0.00116726324538822,0.00019696488020392,-0.0579800234228941,-0.00948765641582681,-0.890436535141769,-0.00152527014868724,0
0.06,0.00102588199177735,0.000581531957454091,-0.050905172889431,-0.0291159122887067,0.00116329326120724,0.00019329269780122,-0.0578870615600999,-0.00938941314692945,-0.890445055795324,-0.00116177080302423,0
0.07,0.00105110762726559,0.000597644030134637,-0.0521812727559205,-0.0299226040682513,0.00119303919117537,0.000196629395490857,-0.0593865598466126,-0.00956472530906111,-0.890451045918154,-0.00105621267810861,0
0.08,0.00101901819882693,0.000582014370750886,-0.0507346084603609,-0.0291400585232043,0.00115826319455399,0.000188587352287007,-0.0577697630284451,-0.00926272022675826,-0.89045590052959,-0.00069911147735429,0
0.09,0.00101541211066425,0.000581550054556917,-0.0506107701659398,-0.0291168188609806,0.00115516850127923,0.000186676067269134,-0.0576589073502078,-0.00920269528740846,-0.890459179453599,-0.000551312681492079,0
0.1,0.00101358766712465,0.000581535206690099,-0.0505582927150787,-0.0291160589313396,0.00115374135161945,0.000185537190693998,-0.0576176572087681,-0.00917013782501214,-0.890461557047508,-0.000448226824305344,0
0.11,0.00101229119451466,0.000581533965881566,-0.0505215825794295,-0.0291160124143488,0.00115273306209913,0.000184720609325055,-0.0575891067111477,-0.00914698165815767,-0.890463288200745,-0.000373335268551536,0
0.12,0.00101134839167835,0.000581533345254746,-0.0504949055973322,-0.0291159882068537,0.00115200000354394,0.000184126567415768,-0.0575683652885106,-0.00913014668851186,-0.890464548963292,-0.000318800060726558,0
0.13,0.00106255739795455,0.000609393427676109,-0.0529395024155499,-0.0305108734455852,0.00120933381695882,0.000194679975350828,-0.0603461786560013,-0.00958347724140398,-0.890466401631987,-0.000510530316465448,0
0.14,0.00111614230373714,0.000641805414681502,-0.0557860706873695,-0.0321336428542019,0.00127137785403966,0.000203190021319068,-0.0635798165940766,-0.0101125470422227,-0.890467630530477,-0.000739111746887838,0
0.15,0.00101260635945617,0.000583316109564902,-0.0506127687491015,-0.0292052252019776,0.00115410010974992,0.000183527271990384,-0.0577161601951753,-0.00913468072091832,-0.890468677186726,-0.000162688501598585,0
0.16,0.00100856089299688,0.000581584277674858,-0.0504193570308183,-0.029118537153256,0.00114986586409471,0.000182328937667573,-0.0575112759599979,-0.00908041336061577,-0.890468512873691,-0.000148249850055174,0
0.17,0.00100850931790937,0.000581533069925451,-0.0504146630762078,-0.0291159705771003,0.00114979353054701,0.000182336482469051,-0.0575060111095995,-0.00907946485189186,-0.890468355619426,-0.000154177893178776,0
0.18,0.00100858929514393,0.00058153160749,-0.0504167664777534,-0.0291158947500888,0.00114985476105748,0.000182388062280055,-0.0575075974707168,-0.00908085361166966,-0.890468239567926,-0.000159162253320688,0
0.19,0.00100865227582941,0.000581531603438234,-0.0504185132941689,-0.0291158917298132,0.00114990370214616,0.000182427780570402,-0.0575089527190072,-0.00908195965524461,-0.890468154986942,-0.000162819366398718,0
0.2,0.00100869837629677,0.000581531631905299,-0.0504197888279817,-0.0291158916707607,0.00114993954576443,0.000182456828694591,-0.0575099436793726,-0.00908276561610686,-0.890468093384567,-0.000165483899503629,0
0.21,0.0010087319039094,0.00058153165356755,-0.0504207077283815,-0.0291158916496608,0.00114996561443996,0.000182477953932582,-0.0575106575807713,-0.00908334624535121,-0.890468048520095,-0.000167424494376462,0
0.22,0.00100875635112694,0.00058153166937127,-0.0504213707341045,-0.0291158916559826,0.00114998462286038,0.000182493357701992,-0.0575111726862175,-0.00908376518218049,-0.890468015845511,-0.000168837810227056,0
0.23,0.00100877416267114,0.000581531680881777,-0.0504218462456874,-0.0291158916823385,0.00114999847185109,0.000182504580441674,-0.0575115421332741,-0.00908406565002983,-0.890467992048615,-0.000169867112791006,0
0.24,0.00100878708477184,0.000581531689264612,-0.050422182354181,-0.0291158917234741,0.00115000851916574,0.00018251272248157,-0.0575118032810989,-0.00908427804327543,-0.890467974717417,-0.000170616742605642,0
0.25,0.00100879651441289,0.000581531695369924,-0.0504224203727237,-0.0291158917751562,0.00115001585098682,0.000182518663951047,-0.0575119882265162,-0.00908442845419205,-0.890467962095161,-0.000171162689809674,0
0.26,0.00102004980465436,0.00058735928051347,-0.0509529464234137,-0.0294076624845469,0.0011624295993917,0.000185067433220276,-0.0581079385393411,-0.00919134597001201,-0.890467898681425,-0.000231830515722808,0
0.27,0.000983256800835722,0.000567152595374867,-0.0492202262014685,-0.0283959724852713,0.00112111704242706,0.000177630459127208,-0.0561245816055364,-0.00888781527212937,-0.890468245151238,-2.79937028819197e-05,0
0.28,0.000979357163059219,0.000564008032399982,-0.0487577560939254,-0.0282385299276129,0.00111610751387303,0.000177621876251928,-0.0556660339555478,-0.00871928984764298,-0.890468245771295,-7.81119986645511e-06,0
0.29,0.00100766038590929,0.000581012837952475,-0.0503677139215175,-0.0290899131018723,0.00114880626464593,0.000182207402447612,-0.057453118839477,-0.00907021419654728,-0.890467895939914,-0.000167895099595849,0
0.3,0.00100276737215886,0.000578520194806557,-0.0501189201401105,-0.028965106437462,0.00114343438153171,0.00018106858810022,-0.0571811942627249,-0.00901080294051475,-0.890466643977828,-0.000191917532038193,0
0.31,0.00100928401157471,0.000581443001956745,-0.0504307011590753,-0.0291114505706088,0.00115033883353739,0.00018289545811927,-0.057515622309765,-0.00909314929171495,-0.890466929671697,-0.000214348826018351,0
0.32,0.00100935584502032,0.000581529423576977,-0.0504378754355003,-0.0291157837494909,0.00115044908697617,0.000182873154503754,-0.0575239275716434,-0.00909427834006025,-0.890467198428129,-0.000204134840975329,0
0.33,0.00100921882434021,0.000581531890638393,-0.0504341866241282,-0.0291159122896355,0.0011503441599253,0.000182784815993702,-0.0575211426761136,-0.00909184657422892,-0.890467396622242,-0.000195619090867763,0
0.34,0.0010091111401712,0.000581531896680746,-0.0504311204744615,-0.0291159156025662,0.00115026048012294,0.000182716906557836,-0.0575187625530399,-0.00908990693310039,-0.89046754106437,-0.000189373474045858,0
0.35,0.00100903272110045,0.000581531848053266,-0.0504288809538087,-0.0291158918605654,0.0011501995084359,0.00018266749394852,-0.0575170076471999,-0.00908851057112773,-0.890467646263926,-0.000184823087311132,0
0.36,0.00100897544476221,0.000581531811066996,-0.0504272340601319,-0.0291158921136996,0.00115015497448391,0.000182631404982468,-0.0575157282635167,-0.00908746999165488,-0.890467722879388,-0.000181509018477962,0
0.37,0.00100893365166175,0.000581531784082796,-0.0504260229685921,-0.0291158923200707,0.00115012247916102,0.00018260507189708,-0.0575147874389054,-0.0090867047866905,-0.890467778677521,-0.000179095415441307,0
0.38,0.00100890326726281,0.000581531764428831,-0.0504251358933664,-0.0291158924919844,0.0011500988544161,0.000182585927179663,-0.0575140983340816,-0.0090861443025549,-0.890467819314357,-0.000177337614602962,0
0.39,0.00100888114835171,0.000581531750114825,-0.050424482634276,-0.0291158926389377,0.00115008165632319,0.000182571990403738,-0.057513590873936,-0.00908573155458878,-0.890467848909542,-0.000176057427451998,0
0.4,0.00100886508303732,0.000581531739690008,-0.0504240013460166,-0.0291158927676172,0.00115006916506901,0.000182561867859256,-0.0575132170135115,-0.00908542746133616,-0.890467870463011,-0.000175125081136639,0
0.41,0.00100885332508984,0.000581531732097801,-0.0504236402454572,-0.0291158928832826,0.00115006002292839,0.000182554459390713,-0.0575129365215314,-0.00908519931891325,-0.890467886160062,-0.000174446063503148,0
0.42,0.00100884471035604,0.000581531726568692,-0.050423366970709,-0.0291158929894582,0.00115005332473469,0.000182549031457335,-0.0575127242576389,-0.0090850266758638,-0.890467897591887,-0.000173951542379807,0
0.43,0.00100883854034399,0.000581531722541902,-0.0504231654506294,-0.0291158930882478,0.00115004852736279,0.000182545143777173,-0.0575125677405254,-0.0090848993543844,-0.890467905917139,-0.000173591388047535,0
0.44,0.00100883400014645,0.000581531719609275,-0.0504230086502238,-0.0291158931821188,0.00115004499722882,0.000182542283080282,-0.0575124459633261,-0.00908480029767253,-0.890467911980201,-0.000173329091581863,0
0.45,0.00100883074051745,0.000581531717473535,-0.0504228890914138,-0.0291158932721199,0.00115004246276602,0.000182540229198327,-0.0575123531190797,-0.00908472476549356,-0.890467916395639,-0.000173138063930733,0
0.46,0.00100882829579569,0.000581531715918451,-0.0504227907680592,-0.0291158933596574,0.00115004056193075,0.000182538688861046,-0.0575122767701067,-0.00908466266236993,-0.890467919611138,-0.000172998940581651,0
0.47,0.00100882654956587,0.000581531714785792,-0.0504227131729003,-0.0291158934450831,0.00115003920418567,0.000182537588585702,-0.0575122165252635,-0.00908461365018981,-0.890467921952664,-0.000172897618565776,0
0.48,0.00100882526899733,0.00058153171396111,-0.0504226485045107,-0.0291158935291022,0.00115003820850748,0.000182536781726287,-0.0575121663225871,-0.00908457280726652,-0.890467923657798,-0.000172823826849371,0
0.49,0.00100882433767476,0.000581531713360611,-0.0504225937524637,-0.0291158936120675,0.00115003748437769,0.000182536194918349,-0.0575121238236656,-0.0090845382296836,-0.890467924899342,-0.000172770085148102,0
0.5,0.00100882363918283,0.00058153171292334,-0.0504225451667718,-0.0291158936943303,0.00115003694128364,0.000182535754833435,-0.0575120861147516,-0.00908450755099486,-0.890467925803348,-0.000172730945654177,0
0.51,3.87437940866819,-0.0053380836770624,8.96480703773527,0.286679792899644,-0.857632194866444,3.77826829589668,-1.69274464607876,8.80821015250297,0.221830727919069,66.8589300759615,589.228191427555
0.52,3.3811908711121,0.00163080123900317,9.51959518630534,-0.0420157576494207,-2.78440971835758,1.91820668508906,-7.86580645973275,5.36223335682486,0.968034719761305,136.505471136944,589.228191427555
0.53,2.94370774158054,0.0273436982897501,9.31079357657073,-1.32935522949775,-2.38175990000089,-1.73013951010464,-6.69066451149578,-6.61007342972185,2.2083181642606,198.58589809809,589.228191427555
0.54,2.51418689372226,0.0267172528622023,12.1018379456006,-1.30765911241071,1.63557723482491,-1.90964307059927,8.95357683912868,-8.24608487718067,-2.4227205724557,252.123855204202,589.228191427555
0.55,2.17205143566639,0.000694282130833557,13.1982958470229,-0.00853034511537458,0.859326166626669,1.99483494569321,5.20991582040585,12.1264942657231,-0.406432777715555,297.943826693088,589.228191427555
0.56,1.96064110973455,0.0524179093162455,9.67725667074707,-2.59898898063154,-1.85704415229166,-0.631069104645097,-8.17446326514693,-5.79501429849196,1.92510623198503,337.919007551581,589.228191427555
0.57,1.63377701343127,0.0180054375261695,13.7589699055224,-0.872141307994549,1.60358765172815,-0.313142409491139,13.6898560261395,-1.63025314161723,-1.75262531907095,372.580763481803,589.228191427555
0.58,1.46749800754992,0.0213225665395119,11.5009734645091,-1.01534152308096,-1.29179846711642,0.696607331545167,-10.6700515243959,4.41059060745518,1.0907697723407,402.57309836055,589.228191427555
0.59,1.19738094555437,-0.0184753939424748,15.7319754286339,0.949141870274888,1.0177330471163,-0.631095803951643,12.7279671060081,-9.29487894086981,-2.14129257252376,429.216394867694,589.228191427555
0.6,1.10171818011323,0.00180307064442976,12.2350888867818,-0.0607954649852194,-0.976920560473076,0.509325453890464,-10.8863992252932,5.5845687446346,1.09184518777138,452.379533057272,589.228191427555
0.61,0.81993844084713,-0.00829208265998691,19.4258478874731,0.442073177556483,0.800098389523605,-0.179472483950594,18.8097499774498,-4.87363320607804,-1.80156950345769,472.042205528981,589.228191427555
0.62,0.782978094954734,-0.00537676201966651,15.1074076666017,0.302715412054393,-0.773016982494861,-0.124612806417719,-14.9771402803131,-2.00266623515064,1.72375757136874,489.355192442817,589.228191427555
0.63,0.665031071581461,-0.0201871101271903,15.7042771316927,1.00431712615527,0.515267925610528,0.420919006961075,13.0694398640889,8.76485680190268,-0.916184852878598,504.411738058135,589.228191427555
0.64,0.558276503330617,0.0240454987100686,16.4176593647614,-1.15608296908381,-0.194082973657712,-0.524006335377213,-3.93410308841796,-15.9812045772039,2.82992034902038,517.398394814374,589.228191427555
0.65,0.49934575967908,0.0959031110788447,15.2963976504237,-4.7706115663525,-0.0973750329738277,0.499060815309542,-10.1343905787873,12.4109888161053,0.382442603756726,528.785606139966,589.228191427555
0.66,0.463800418270235,-0.0599712214420201,13.5291792224731,3.00396375539113,0.448435208738872,-0.132714878413151,11.158696155276,-8.21863667476122,-1.98712482778669,538.732867330101,589.228191427555
0.67,0.355311374448977,0.0396994660079292,15.8941491251986,-2.00857397660261,-0.34025321027187,-0.109772370448225,-13.6658441549302,-8.36080434926551,1.99414375703665,547.323543632807,589.228191427555
0.68,0.266161914901447,0.00640750728042831,17.6771578529772,-0.314891354755257,0.0718038560129277,0.2563736089289,4.05124819162481,17.2095454447301,-0.249009241954879,554.791837928652,589.228191427555
0.69,0.233528424441812,0.0241605555154704,17.0065028697454,-1.17087517466247,0.131971058641526,-0.19417233877699,11.8518619260661,-12.2525694210955,-2.44155696783849,561.121864042651,589.228191427555
0.7,0.224376354413056,-0.020708771512008,15.4809056131969,1.06686732596387,-0.220217977786072,-0.0477246675948902,-15.4961822122672,-0.815463880337313,1.69217762327467,566.630712871461,589.228191427555
0.71,0.190358390999196,-0.0287686174076702,15.3849479943751,1.45527055092697,0.0511805721564109,0.18559229349597,7.58970937775374,13.4614541832322,-0.419074491946167,571.55196963518,589.228191427555
0.72,0.16208164221388,0.0363302831124704,15.2653139356906,-1.81982415361618,0.0684051673017831,-0.151364068722387,10.631223996737,-11.1048928782082,-2.49663587523941,575.768337649842,589.228191427555
0.73,0.114320126756134,0.0250928848101326,16.2779248025377,-1.27149458566696,-0.116902051969635,0.00571441116142114,-15.8392112032425,-3.96319603571791,1.73802330301944,579.515830435877,589.228191427555
0.74,0.127513647521144,-0.00554759271498631,14.484641640315,0.253844441098231,0.0306016067423986,0.123911451262026,4.3243277383141,13.8264048132648,-0.28559720985904,582.58291418413,589.228191427555
0.75,0.0445226196312446,-0.0457049082919444,17.6249506105924,2.25510161338091,0.0635954683544015,0.00517867797684441,11.8001559245954,-13.2846033989627,-2.28804487866856,585.272156866162,589.228191427555
0.76,0.0813908103885132,0.0396192219765104,14.8459553242464,-2.01861205135088,-0.0905145944481198,0.00112024890774794,-12.5668939322698,-8.15784046169441,2.01143434616723,587.732524946284,589.228191427555
0.77,0.00316699286297213,0.0425067068417836,17.9586166372274,-2.16674746390564,0.0423242681037864,0.00505037620442847,-2.96163965811007,17.8447582396275,0.0443959057960901,589.793974986132,589.228191427555
0.78,-0.0332865090948503,-0.0259461171399572,19.1053935938874,1.26104896586695,-0.0228066352017085,0.0355112668478347,17.607774721996,-7.52147447054799,-1.90859242664875,591.55358995928,589.228191427555
0.79,-0.0899135179623393,0.0205227767845185,21.3844586349921,-1.03112074802376,-0.0364577185334019,0.0847139884473062,4.88457047519002,-20.8446456525794,-2.95959460566382,592.988812000673,589.228191427555
0.8,-0.0381669029544461,-0.034103867680119,18.292177189192,1.73585303107297,0.0314836586615661,-0.0403554892072834,-17.6906784633575,4.96556417463125,1.3917621958934,594.250546604173,589.228191427555
0.81,-0.0195268189420577,0.0467131228207823,16.9313826131974,-2.30834710667647,0.0303749793438642,-0.0405064578990217,6.5903044096775,15.766041714621,-0.531432029775144,595.342109585231,589.228191427555
0.82,-0.0522436181208285,0.03128881676546,18.16332647646,-1.53698513851463,-0.057474426047301,0.020126500924672,12.8035553843401,-12.9745027467963,-2.44724503119616,596.286018139604,589.228191427555
0.83,-0.0103980021887343,0.0285006301306969,15.7333591045935,-1.39600429878923,-0.000185880436680722,0.0303375973970743,-14.2606089679656,-6.79135101280395,1.92675178026377,597.099823536428,589.228191427555
0.84,-0.0205577995611295,0.053743734781114,15.9435375361229,-2.66132590234433,0.0542038857928839,-0.0193119371366598,-3.02858822337408,15.8778681849135,0.0230816965621985,597.775207926368,589.228191427555
0.85,-0.0657434657537332,0.00517188194584341,17.9558467290669,-0.232550369466292,-0.064256604701168,0.014833758945455,17.194980127843,-5.17679146143295,-1.87617959648831,598.340833914626,589.228191427555
0.86,0.0133493601420846,-0.03042719964307,13.748760735854,1.55152651178803,0.0167237017732685,-0.0287112816384273,-9.35283665337209,-10.1960827195488,2.51167599895565,598.890921732794,589.228191427555
0.87,-0.0198859066521082,0.0401942250397994,15.2438803998493,-1.98787134393404,0.0442711035218784,0.00714803489649593,-10.4696473397815,11.2567316173723,0.619514063804476,599.207517708755,589.228191427555
0.88,-0.0803560768904927,-0.0485233339699123,18.1145211927791,2.44968820044778,-0.0911166123621567,0.0225693594156082,18.028074024253,3.02082725409929,-1.27035831866527,599.486743215165,589.228191427555
0.89,-0.0856530354214208,0.0203643521490772,18.2658050165515,-1.00195393641383,-0.0189008832886719,0.0859878242907843,0.690349867172243,-18.2802341794154,3.12454038060076,599.652717362284,589.228191427555
0.9,-0.0405339653266189,-0.0324276281709588,15.8806194484165,1.64087289801229,0.027707178117692,-0.0438960783515793,-14.4718403112061,6.74183772719323,1.23779269221236,599.894146597544,589.228191427555
0.91,-0.102032879491918,0.0153680635100405,18.831521825259,-0.757355380389763,-0.0492736709104001,-0.0906586522537948,10.7525285545974,15.4784666911804,-0.647340034128133,600.068879104937,589.228191427555
0.92,-0.0492418562183814,-0.0059460022368679,16.0526790620228,0.309448979585045,-0.0233536756210791,0.0437575271401161,8.94797763909582,-13.3310899745487,-2.53117568677868,600.294881570513,589.228191427555
0.93,-0.0452745558044611,-0.0085391936964581,15.8077422417515,0.436871379097964,0.0457845015486553,0.00514612963479124,-15.2378228998099,-4.22898624466417,1.86914467223598,600.267334465961,589.228191427555
0.94,-0.0887080864089739,-0.00135597971802999,17.8923045874051,0.0727640584579024,-0.00254362747575717,-0.0886819780710955,0.312329047206449,17.8897263428749,-0.0133900398130474,600.389582375285,589.228191427555
0.95,-0.0462618847398571,0.00983827092653483,15.7131709521009,-0.488804318555914,-0.0469832401841406,0.0054340313126699,15.0480870653199,-4.54947763005138,-1.89548662900382,600.397949786688,589.228191427555
0.96,-0.114493475812702,0.00634002069190766,19.0495995818575,-0.319204697645126,0.0628766883470174,0.0958930337853571,-11.0534767193053,-15.5180471801023,2.50590554078942,600.46000992434,589.228191427555
