t,iq,id,vq,vd,ia,ib,va,vb,theta_e,omega,r
0,0,0,0,0,0,0,0,0,0,0,0
0.01,0.000668187134003078,0.000379974052385228,-0.0329576845680584,-0.0190160835039796,0.000131916936080981,-0.000757266299598963,-0.00629509415957796,0.0375258869773921,-2.45206218490835,-0.000969976179935536,0
0.02,0.000758959222965149,0.000430843128043673,-0.0374869748389312,-0.0215618646007661,0.000150409721426651,-0.000859663782421172,-0.00721201489843244,0.0426400531043433,-2.45206960204325,-0.00105999526880019,0
0.03,0.000794321996671776,0.00045092216697262,-0.0392416885475876,-0.0225667405304096,0.000157407567133702,-0.000899722786680969,-0.00755265643043461,0.0446332306591906,-2.4520772612488,-0.00106542852269045,0
0.04,0.000775999338434333,0.000440826335310114,-0.0383583081183907,-0.0220614831374721,0.000153534508364383,-0.000879164367962428,-0.00738020118311011,0.0436302815762995,-2.45208447072545,-0.000993159086681166,0
0.05,0.000794801826750298,0.000451746738330829,-0.0392981795577866,-0.0226079956357181,0.00015706376669336,-0.000900619804684667,-0.00755612560532259,0.0447031693401852,-2.45209152821652,-0.0009775000983399,0
0.06,0.000795958370073275,0.000452651945161561,-0.0393707088811245,-0.022653303815921,0.000157094932619038,-0.000902089071263847,-0.00756700195929476,0.0447880047884108,-2.45209834273636,-0.000936892360467595,0
0.07,0.000813897008551688,0.000463229525609391,-0.0402666896642453,-0.0231826651247578,0.000160339288560847,-0.000922659875831549,-0.00772824461295291,0.0458161160947288,-2.45210477651332,-0.000923813697114878,0
0.08,0.000796725047871214,0.000453601725344849,-0.0394377081839119,-0.0227008306054043,0.000156838335883822,-0.000903286811338683,-0.00757238213733898,0.0448700297051469,-2.4521110704608,-0.000858958112549574,0
0.09,0.000794813734921126,0.000452799273614444,-0.0393575274081722,-0.0226606803766695,0.00015623627518079,-0.000901302547274039,-0.00755208899900042,0.0447826679706533,-2.45211701266362,-0.000819170563626624,0
0.1,0.000794249367386453,0.000452730490285887,-0.0393428740424293,-0.0226572399554048,0.000155925229373427,-0.000900824221073748,-0.0075451683651002,0.0447692159263208,-2.45212267968888,-0.000783112171737277,0
0.11,0.000793820159883238,0.000452722784010356,-0.0393342652002697,-0.0226568507402332,0.000155653273080975,-0.000900488991591966,-0.00753975020248703,0.0447623666844644,-2.45212808928693,-0.000748856071165402,0
0.12,0.000793420056373092,0.000452720244231897,-0.0393265194752067,-0.022656716229092,0.000155396068444566,-0.000900179463942852,-0.00753469561171319,0.0447563435320429,-2.45213325358736,-0.000716167606927224,0
0.13,0.000829114584679207,0.00047326419074132,-0.0410916295166526,-0.0236848628311015,0.000162245766582741,-0.000940790252921335,-0.00786397106056391,0.0467723497680044,-2.45213836281689,-0.000737942711228225,0
0.14,0.000856651097540351,0.000489433778450555,-0.0425116661480618,-0.0244940869805033,0.00016728106957422,-0.00097232379903383,-0.00814264991128133,0.0483828410504699,-2.45214327299494,-0.000748722431354051,0
0.15,0.000797848502714159,0.000455766260776446,-0.0395780530017365,-0.0228091732282585,0.000155849459795249,-0.000905536340312689,-0.00757640240789427,0.0450475170161311,-2.45214800361274,-0.000631158663362562,0
0.16,0.000792432939450252,0.000452966216554902,-0.0393219103213223,-0.0226690361691213,0.000154561231495013,-0.000899577224358517,-0.00752140573477896,0.0447607672848431,-2.45215228721811,-0.000596422008737127,0
0.17,0.000791675870481508,0.000452731976819001,-0.03929410049643,-0.0226573205535484,0.000154256738114078,-0.000898844694863077,-0.00751257352549086,0.0447318873681167,-2.45215635638521,-0.000570003183726884,0
0.18,0.00079133736642783,0.000452711076887742,-0.0392864209377136,-0.0226562595382487,0.000154054052302356,-0.000898570807232806,-0.00750833355978828,0.0447253160247601,-2.45216023930887,-0.00054536880563344,0
0.19,0.000791047425201843,0.000452707974557154,-0.0392807196229587,-0.0226561049238988,0.000153868684737952,-0.000898345683466626,-0.0075046604907207,0.0447208463173409,-2.45216394604009,-0.000521902319260992,0
0.2,0.000790773449697521,0.000452706413258846,-0.0392754143315202,-0.0226560419259508,0.000153692436403775,-0.000898133832089894,-0.00750117618578653,0.0447167391755348,-2.45216748470678,-0.000499504169258563,0
0.21,0.000790512263134283,0.000452705038953018,-0.0392703667486965,-0.0226559659038623,0.000153524324273107,-0.00089793194191744,-0.00749787305916332,0.0447128213737712,-2.45217086294059,-0.000478121865490221,0
0.22,0.000790263067348,0.000452703736437495,-0.0392655544997196,-0.0226558913506475,0.000153363922805735,-0.000897739325071802,-0.00749472536642441,0.0447090849240361,-2.45217408801594,-0.000457708999946903,0
0.23,0.000790024947764933,0.000452702493601705,-0.0392609484313745,-0.0226558356455164,0.00015321065318755,-0.000897555269358958,-0.00749170083958377,0.0447055184407684,-2.45217716687679,-0.00043822159074796,0
0.24,0.00078979771301102,0.000452701307018548,-0.0392565546842409,-0.0226557784847911,0.000153064390224458,-0.000897379626077478,-0.0074888187518223,0.0447021137993616,-2.45218010615189,-0.000419617678035198,0
0.25,0.000789580781013291,0.000452700174090173,-0.0392523592251953,-0.0226557227785778,0.000152924759848999,-0.000897211945524555,-0.0074860676456831,0.044698862072404,-2.45218291216979,-0.00040185720671105,0
0.26,0.000797046327567882,0.000457076492098197,-0.0396251644951044,-0.0228747366396478,0.000154294199569249,-0.000905756627299809,-0.00755408704226947,0.0451258574052078,-2.45218555894307,-0.000396605435563866,0
0.27,0.000775366993414686,0.000444704151427471,-0.0385663668398881,-0.0222555503404533,0.000150048862032629,-0.000881158950346911,-0.00735826932886589,0.0439150321037016,-2.45218821145541,-0.000347617412982825,0
0.28,0.000774526172805835,0.000444294511639663,-0.0384773105760174,-0.0222350623475025,0.000149827972772661,-0.000880249955415628,-0.00731732459231971,0.0438332999849573,-2.45219065425187,-0.000331178478707529,0
0.29,0.000787549042276081,0.00045199770187407,-0.0391756016371755,-0.0226205635162371,0.000152165487434675,-0.000895198905787524,-0.00746392646003813,0.0446173448249213,-2.45219292452673,-0.000336598761453434,0
0.3,0.000780680939525903,0.000448288894258363,-0.0388426610343047,-0.0224349556335868,0.000150656979964892,-0.000887540498480092,-0.00739528681384597,0.0442423923793442,-2.45219484535576,-0.000314365624170525,0
0.31,0.000787801269812656,0.000452328233452843,-0.0391972599842181,-0.0226371118940813,0.000152067268944455,-0.00089560438655289,-0.00746475380448616,0.0446446130660123,-2.45219695140087,-0.000311956245055183,0
0.32,0.000788277282673633,0.000452663234729865,-0.0392253320123418,-0.0226538816990563,0.000152109721898269,-0.000896185087445369,-0.00746957839334261,0.0446769563213408,-2.45219899094731,-0.000299997294117523,0
0.33,0.000788181890290865,0.000452690361125816,-0.0392251286847477,-0.0226552226254339,0.00015202636703484,-0.000896129030310307,-0.00746832725776203,0.0446776669099222,-2.45220094054898,-0.000287740117202972,0
0.34,0.000788042857056969,0.000452691929146813,-0.0392225779249298,-0.0226553005973269,0.000151935054631229,-0.000896023027855523,-0.00746656147466406,0.0446757621532917,-2.45220280198144,-0.000275965517999105,0
0.35,0.000787905644858206,0.0004526914038072,-0.0392199214383639,-0.0226552911396566,0.00015184659182148,-0.000895917085913959,-0.0074647996825713,0.0446737195670242,-2.45220457904151,-0.000264718378780961,0
0.36,0.000787774585904559,0.000452690734142316,-0.0392173814034082,-0.0226552556087531,0.000151762226782371,-0.000895815787702731,-0.00746313568641948,0.0446717496474497,-2.45220627553721,-0.000253980595027937,0
0.37,0.000787649405919491,0.000452690080817537,-0.0392149524617796,-0.0226552171573169,0.000151681657763263,-0.000895719024367633,-0.00746154804858867,0.0446698630146033,-2.45220789511922,-0.000243729579627624,0
0.38,0.000787529930286707,0.000452689455906473,-0.0392126341477449,-0.0226551801505643,0.000151604761213485,-0.000895626669412923,-0.00746003294787184,0.0446680621123872,-2.45220944127463,-0.000233943308049334,0
0.39,0.000787415710099607,0.00045268885918997,-0.039210411916258,-0.0226551619068163,0.000151531248748467,-0.00089553837684329,-0.00745856761975571,0.0446663467582499,-2.45221091733236,-0.000224600714134474,0
0.4,0.000787306886467693,0.000452688289481699,-0.0392083004032244,-0.0226551248772005,0.00015146120815548,-0.000895454255301409,-0.00745719020509011,0.0446647043867542,-2.45221232647019,-0.000215681683301886,0
0.41,0.000787202794410704,0.00045268774556773,-0.0392062735648046,-0.022655105151053,0.00015139421465379,-0.000895373791376862,-0.00745585615430216,0.0446631378795749,-2.45221367172237,-0.000207167012596373,0
0.42,0.000787103633249396,0.000452687226282419,-0.0392043482523635,-0.0226550681001035,0.00015133039329906,-0.000895297138595685,-0.00745460277649208,0.044661638236384,-2.4522149559851,-0.000199038369636412,0
0.43,0.000787008796212271,0.000452686730511985,-0.0392025006939659,-0.0226550498035723,0.000151269356505808,-0.000895223828480586,-0.00745338698707895,0.0446602100832898,-2.45221618202353,-0.000191278253168353,0
0.44,0.000786918266539471,0.00045268625719272,-0.0392007363326782,-0.0226550300386854,0.0001512110920467,-0.000895153847842193,-0.00745222773453252,0.0446588447776088,-2.45221735247722,-0.00018386995538881,0
0.45,0.000786831753197471,0.000452685805308824,-0.0391990466247111,-0.0226550117166985,0.00015115541331333,-0.000895086971860266,-0.00745111722509365,0.0446575375974531,-2.45221846986626,-0.000176797525972808,0
0.46,0.000786749530463661,0.000452685373890934,-0.0391974509952102,-0.0226549746242716,0.000151102493334391,-0.000895023411943898,-0.00745008330387304,0.0446562906936262,-2.45221953659655,-0.000170045737731905,0
0.47,0.000786670816947676,0.000452684962012779,-0.0391959158353282,-0.0226549562796538,0.000151051833743497,-0.00089496256491116,-0.00744907554014395,0.0446551020131002,-2.45222055496464,-0.000163600053827737,0
0.48,0.000786595595891161,0.000452684568790289,-0.0391944454827991,-0.0226549379239133,0.000151003422584305,-0.000894904417613438,-0.00744811106992686,0.0446539629879646,-2.45222152716316,-0.000157446596475877,0
0.49,0.000786523809083975,0.000452684193379261,-0.0391930420769468,-0.0226549181019057,0.000150957221594602,-0.000894848924925228,-0.00744719228303027,0.044652874359317,-2.45222245528528,-0.000151572117066212,0
0.5,0.000786455340115742,0.000452683834973535,-0.0391917044943668,-0.0226548997242828,0.000150913155550684,-0.000894795996819749,-0.00744631612939928,0.0446518371267312,-2.45222334132937,-0.000145963967637685,0
0.51,2.19915432598269,0.0161361786450088,3.37604969471454,-0.806316453556253,-0.0374193969031284,2.19889515768375,-0.888286297371166,3.35541431396486,0.0243530359850716,7.47029710243315,253.759154346812
0.52,2.16841694910183,-0.0228428492106821,2.11537193992211,1.14594543025049,-0.259008464792704,2.15301381232863,0.908599719804223,2.22765255874732,0.10919111639345,15.6328787941083,253.759154346812
0.53,2.13452202517922,0.0636837345306605,1.06144593499157,-3.18316940198937,-0.472972395679328,2.0824353548056,-3.34756337150055,0.230335382560694,0.253162068581097,23.6269327930884,253.759154346812
0.54,2.04549059635547,-0.0220117589443683,2.79059242667004,1.10731806817166,-0.919156767365099,1.82747561798165,-0.232466746850474,2.99324549736509,0.455256310732495,31.5204011681425,253.759154346812
0.55,1.98523700227063,0.00299350307329349,2.99459935938681,-0.142669558610038,-1.30024017048374,1.50018346054925,-2.07240440173852,2.16636098604288,0.715629477623212,39.5486679318267,253.759154346812
0.56,1.95740468787111,-0.0108767410268068,1.44285239332848,0.551127922239915,-1.68925156161969,0.988929005116452,-0.960023358519147,1.20992568643856,1.03560649968136,47.8094916182245,253.759154346812
0.57,1.88608629601812,-0.0508136802960538,2.11887122277015,2.54942278143548,-1.87133388992942,0.24085891831987,-1.70005751649771,2.84587002826646,1.41585551970543,55.7749457487248,253.759154346812
0.58,1.84367344036427,0.0235296026208816,1.71681982160513,-1.16969316971193,-1.77818693738076,-0.487582416246268,-1.32609084101386,-1.59910459085895,1.85118214853629,62.8883895914899,253.759154346812
0.59,1.76464913011167,-0.00767700379918235,3.30867820099939,0.394635311777034,-1.26625403847745,-1.22908347919527,-2.65780645323785,-2.00976449471005,2.33694917253665,69.6314640806011,253.759154346812
0.6,1.75167501498608,0.00724023479677122,1.52245493895989,-0.350022286621085,-0.472794432774259,-1.68667815645548,-0.0674402033290238,-1.56071664989829,2.872428885228,76.5655795627151,253.759154346812
0.61,1.67701308777157,0.0125470503004539,2.66956009853692,-0.620103986492487,0.5131825253952,-1.59661329715664,1.42480252553586,-2.341157371257,-2.82312101961439,83.6498417157298,253.759154346812
0.62,1.61604482366437,0.0106216642277366,3.46320832620947,-0.520756100243108,1.31320343975601,-0.941918477181733,3.12809025361671,-1.57481751066438,-2.18644508561105,89.9503243195369,253.759154346812
0.63,1.58977193659259,0.0424383817415777,2.5903253718274,-2.10978809042284,1.58909633483717,0.0628384056867706,2.44506001966026,2.27654844417636,-1.50458513765429,96.1402136855566,253.759154346812
0.64,1.49839987438905,-0.000412113422916249,4.7779474991127,0.0287917481080096,1.04892840467988,1.07002409097287,3.36621100651606,3.3909047065122,-0.775717813373909,102.647043301307,253.759154346812
0.65,1.526012564471,-0.0401425512931007,1.32408994042068,2.0223242178295,-0.0372201751566676,1.52608663905723,2.02485613192804,1.32021477697242,-0.00191499361487106,108.403471538462,253.759154346812
0.66,1.46386402686601,0.0334722142511469,2.33546386263444,-1.66198599923456,-1.04111918987431,1.02960628919734,-2.83901540312506,0.395702484376511,0.813819619576209,114.26691699792,253.759154346812
0.67,1.43517984029458,-0.0137039003064486,1.63837904829611,0.697038036656222,-1.42626990070687,-0.160259605669038,-1.70101990098107,0.52600306739371,1.67314148123935,120.011026125606,253.759154346812
0.68,1.33802047372217,0.0307840986353563,4.59652800420185,-1.52466187589974,-0.747354911435864,-1.11027342811633,-1.19427881670625,-4.69322507847223,2.57213404298753,125.310793310019,253.759154346812
0.69,1.31797367335692,-0.0327839746940952,3.53751029947843,1.65035586858487,0.507010813280788,-1.21699195883746,-0.259947116789152,-3.89487883102434,-2.77171936445511,130.852599735511,253.759154346812
0.7,1.28134809218549,-0.0030224665928793,3.57789558767892,0.167768451357104,1.25013196499589,-0.281126552903144,3.45166592574789,-0.956810026407557,-1.79435298365259,135.799050229508,253.759154346812
0.71,1.26268493188558,-0.0109677967049315,2.57710445866333,0.558274599550295,0.879814668282441,0.905770213271838,2.20865992763968,1.44047188219838,-0.779548901463064,141.007446117924,253.759154346812
0.72,1.19159794119082,-0.0341797181675816,4.42111056404055,1.72744802468579,-0.352118229301789,1.13889712405361,0.480059437281906,4.72227045330298,0.271176521966504,145.691957719956,253.759154346812
0.73,1.17128350334593,0.0447922088123618,3.59464406507517,-2.23221664056605,-1.13524955185931,0.291753049999203,-3.98574984258215,-1.42058272457343,1.35746874569271,150.589588946409,253.759154346812
0.74,1.1776132904632,-0.00489000699586217,1.63918960134834,0.262639882814543,-0.721864395313814,-0.930434720344316,-1.21700653998822,-1.12907809244502,2.47760829096265,155.066647455203,253.759154346812
0.75,1.11628121576502,0.025993510354793,2.9954341646415,-1.28938924209834,0.502221473341014,-0.997262757233808,2.54700230259942,-2.03664668582788,-2.65178763382634,159.586615323349,253.759154346812
0.76,1.10413398322244,0.014206261903084,1.99879684717266,-0.702904300789571,1.09960067237963,0.10095559462544,1.9146456354824,0.907411363640577,-1.46637613488161,163.938088696679,253.759154346812
0.77,1.07763378126886,-0.0150327178988133,1.72215638424959,0.767743146894718,0.250849801494373,1.0481387914916,1.16825637239714,1.48000986475391,-0.248859083312907,168.125403807348,253.759154346812
0.78,1.00049688500393,0.04170786643663,4.00711210334278,-2.08030559602572,-0.818628304336252,0.576698588835465,-4.49533663319168,0.420199162180341,0.998740090027642,172.281655916905,253.759154346812
0.79,0.971531244679323,0.0344525162151172,4.03321357808508,-1.70695606703449,-0.762489604448159,-0.603050195564348,-1.96709351133791,-3.91293418023968,2.27540874327499,176.078397212214,253.759154346812
0.8,0.951951986915423,0.0406273382367432,3.52035495663318,-2.02132672849632,0.368062904573092,-0.878858842068306,3.32652786046887,-2.32655822139697,-2.70233619217749,179.958830461146,253.759154346812
0.81,0.952455774833455,-0.011820073875758,2.06692403610267,0.597682373345863,0.930881973546124,0.2019169841467,2.1446713783247,-0.172580037727752,-1.36960538047281,183.715468503887,253.759154346812
0.82,0.914897200317307,5.01946620540261e-05,2.61148636616576,0.0149328832467046,0.00924496360403231,0.914850490690097,0.0411777229591889,2.6112044015748,-0.0100502288837864,187.21444406946,253.759154346812
0.83,0.837819423537246,0.0330761697345896,5.09456209221271,-1.64434568698282,-0.815490760079781,0.194962149365191,-5.31675895547489,-0.624907880481036,1.3755860494922,190.729629698308,253.759154346812
0.84,0.829480198733729,0.017849664583415,4.18467505618692,-0.888463092367112,-0.305396391229323,-0.77142015454692,-0.623355837196775,-4.23229246302807,2.78615144012686,194.181869075709,253.759154346812
0.85,0.825590087739835,-0.0166012740821531,3.1569915261472,0.847942285808071,0.73580383865324,-0.374789682753643,2.38374025468222,-2.236824538142,-2.06201022118089,197.360961988246,253.759154346812
0.86,0.748111837610879,-0.0433850631600131,5.77739256838311,2.18450086042234,0.388689173857024,0.640682691669806,5.07654941274799,3.51837390825967,-0.603244431623376,200.53444114444,253.759154346812
0.87,0.748979584180386,0.0431973275403067,4.51271078186285,-2.15539429262559,-0.548846096869934,0.511472764256599,-4.84929172532855,1.22255998629278,0.878241919773464,203.649524482879,253.759154346812
0.88,0.724206524491933,-0.0258374359407398,4.59700400891933,1.29627995208817,-0.480123302296082,-0.542793034042425,-4.10624954233454,-2.43957009907145,2.38172199043069,206.629546936162,253.759154346812
0.89,0.70186118825353,-0.0235755274865934,4.59200153378925,1.19606455974156,0.503188684850436,-0.489863328400297,2.31829886353408,-4.14035492400461,-2.37635409681412,209.439497688151,253.759154346812
0.9,0.704660307285027,0.0209115717007304,3.33247561799804,-1.03411173939876,0.534328371454184,0.459865886920462,1.7627125855612,3.0112497695837,-0.830488507945517,212.246836012207,253.759154346812
0.91,0.661926014202689,0.00432557060209038,4.36520051808823,-0.210728362055226,-0.440921921811976,0.493713092499,-3.08515013949211,3.09535629976325,0.735509653793569,215.008202247125,253.759154346812
0.92,0.645059321703837,0.00926056528892952,4.15662768589257,-0.461606005484188,-0.478179636170842,-0.433049098992257,-2.72586404582702,-3.17179744420971,2.32106296289573,217.650230812912,253.759154346812
0.93,0.614453675220256,-0.0139497336365841,4.68227408996435,0.713372281031915,0.443758111846499,-0.42523717174142,2.8011354647431,-3.81919242419842,-2.35758342828092,220.141919378165,253.759154346812
0.94,0.629872912918185,-0.0242839351871955,2.90923610559093,1.23004116094749,0.404199968976824,0.483685828834534,2.86290946125584,1.33431832496999,-0.734648178251544,222.59487096483,253.759154346812
0.95,0.587119490113342,0.0202730180206689,4.06571758386545,-1.00519265202436,-0.449590443676093,0.378138498285683,-3.82003484541582,1.71691744683471,0.906023495802746,224.994098420183,253.759154346812
0.96,0.556462835477114,-0.0287195341847878,4.64549803023769,1.44133444922242,-0.279852828312404,-0.481827866978,-3.74451770881682,-3.10430089904551,2.5638341423081,227.307840268564,253.759154346812
0.97,0.59548922015436,0.0315128527915208,1.78584090570908,-1.57581008043496,0.515367287615112,-0.299995050071414,2.30839434324037,0.586276987609207,-2.04507976431734,229.534162785685,253.759154346812
