t,iq,id,vq,vd,ia,ib,va,vb,theta_e,omega,r
0,0,0,0,0,0,0,0,0,0,0,0
0.01,0.000558404967488133,0.000306581809647837,-0.0252779553098221,-0.0153389741135047,-0.00059018283720324,0.00023977642167882,0.0268858118188369,-0.0123049694978176,1.68699154898642,-0.00619078529767346,0
0.02,0.000670231961342056,0.000364448842390067,-0.0308039207115767,-0.0182341865361502,-0.000707951052360406,0.000284322261150395,0.0327094794782168,-0.0145415625743706,1.68694415683854,-0.00661443443530591,0
0.03,0.000709292800819162,0.000386629837985183,-0.0328729618474889,-0.0193439550504928,-0.000749305229117363,0.000301861860015002,0.0348924747425336,-0.0154056945303873,1.68689786429443,-0.00617269366681621,0
0.04,0.000691553112720559,0.000379370605240279,-0.0324046884739556,-0.0189807584984874,-0.000730832244670112,0.00029673556238563,0.0343846799870469,-0.0151005566275017,1.68685806983559,-0.00516727581168323,0
0.05,0.00070430493637974,0.000388902044554229,-0.033234113108907,-0.0194576475868646,-0.000744591372577111,0.000304752246178864,0.035263207517583,-0.0154794224479506,1.68682308888897,-0.00462907515577892,0
0.06,0.00070298643943751,0.000390355693196915,-0.0334130662316703,-0.0195303658158574,-0.000743440667678431,0.000306371465522036,0.0354489014157834,-0.0155320176512026,1.68679254666896,-0.00400734119242245,0
0.07,0.000711868827556313,0.000397618267995644,-0.0340005246808404,-0.0198937256654284,-0.000753095896384818,0.000312576527491433,0.0360740603487467,-0.0158258702566002,1.68676691088354,-0.00360727676958948,0
0.08,0.00069863153617532,0.000391682272250722,-0.0335984978373853,-0.0195967425882027,-0.000739253598681745,0.000308229042386122,0.0356400128144057,-0.0155782175997787,1.68674399523393,-0.00299146208318985,0
0.09,0.000694027833924843,0.000390771902275882,-0.0335454982716615,-0.0195511895746613,-0.000734569585286063,0.00030787146383415,0.0355818011993831,-0.015539784151846,1.6867248201153,-0.00255508459687449,0
0.1,0.000691296698424399,0.000390630502238641,-0.0335521616202227,-0.0195441168410043,-0.000731835406410072,0.000308058845768616,0.0355873486307994,-0.015532568039906,1.68670852530726,-0.00219865675457264,0
0.11,0.000689180406895593,0.000390607020730765,-0.0335671262630376,-0.0195429418646438,-0.000729726317212779,0.000308290414803985,0.0356018612144116,-0.0155301648527416,1.68669463259816,-0.00189735937709991,0
0.12,0.000687412827014653,0.000390601842821196,-0.0335815476791381,-0.0195426817688711,-0.000727966340167582,0.000308498301360976,0.0356159717472485,-0.0155286609771992,1.68668277969739,-0.00164076365389503,0
0.13,0.000714892961488728,0.000406645025216018,-0.034871146432521,-0.0203453681561807,-0.00075711360015832,0.000321264874168291,0.0369895526220152,-0.0161772635433816,1.68667161976666,-0.00175451183924075,0
0.14,0.000731169731642296,0.000416848364039551,-0.0359336046372862,-0.0208558652556045,-0.000774457592615825,0.0003295256777734,0.0381037420054748,-0.0165618810214583,1.68666161755625,-0.00175462057347112,0
0.15,0.000691357102806061,0.000394611056534013,-0.033986455756306,-0.019743273422381,-0.00073233837957427,0.000312046514708645,0.0360408876817966,-0.0156821693465657,1.68665279859075,-0.00109432169125867,0
0.16,0.000683571330233017,0.00039120936464633,-0.0336923164631607,-0.0195730794569405,-0.000724209704861388,0.000309572017288551,0.0357289523558942,-0.0155473339075136,1.68664675826171,-0.000879613291760508,0
0.17,0.000681613492357408,0.000390688466122487,-0.0336444248048247,-0.0195470252393363,-0.000722203267290833,0.000309284450367699,0.0356782941715633,-0.0155271646208232,1.68664186961973,-0.000758800574671036,0
0.18,0.000680781371944292,0.000390608246460038,-0.0336398962652361,-0.0195430127513674,-0.000721366176338475,0.000309303925328708,0.0356732681738755,-0.0155238495847748,1.68663774554585,-0.000666874063113011,0
0.19,0.000680221378453414,0.000390595504680941,-0.0336425284285262,-0.0195423718545994,-0.000720807377205597,0.00030935852493185,0.035675754123309,-0.0155230339979282,1.68663423485632,-0.000590428518166659,0
0.2,0.000679770467060783,0.000390593152109294,-0.0336459342654795,-0.0195422455826441,-0.000720358289332121,0.000309410460962795,0.0356790760623871,-0.0155226217612791,1.68663124059994,-0.000525552740113989,0
0.21,0.000679390324565041,0.00039059244755953,-0.0336490313054779,-0.0195422152427488,-0.000719979822280728,0.000309455535920343,0.0356821091848169,-0.0155223248424249,1.68662868578143,-0.000470256227055863,0
0.22,0.00067906681814474,0.000390592045527821,-0.033651703392948,-0.0195421962929939,-0.000719657762522655,0.00030949409425014,0.0356847273374409,-0.0155220749918737,1.68662650572526,-0.000423081463112488,0
0.23,0.000678790983803845,0.000390591732856243,-0.0336539847145113,-0.0195421800418588,-0.000719383164549787,0.000309527000488436,0.0356869626188572,-0.0155218615827251,1.68662464542507,-0.000382827837048401,0
0.24,0.000678555661994602,0.000390591470642599,-0.0336559250407216,-0.0195421636100253,-0.00071914889783256,0.000309555077667763,0.0356888634048568,-0.0155216776727628,1.68662305797549,-0.000348478548443593,0
0.25,0.000678354670939604,0.000390591247554565,-0.0336575625816685,-0.0195421631966913,-0.000718948808359208,0.000309579058094512,0.0356904689000899,-0.015521536361996,1.68662170335658,-0.00031916731132257,0
0.26,0.000683826801016151,0.000393783022592099,-0.0339042048617529,-0.0197018459747216,-0.000724752850066657,0.000312117716559009,0.035953898253413,-0.0156516785841835,1.68662078651265,-0.000367703482703761,0
0.27,0.000670204991580278,0.000385878095656454,-0.0333205389139983,-0.0193063424330526,-0.000710308264794,0.000305841142444749,0.0353284109745743,-0.0153263351677151,1.68661913212631,-0.000168813015335651,0
0.28,0.000669701245890869,0.000385706398000726,-0.0330425420373589,-0.0192977587763099,-0.000709787800956049,0.000305729393124791,0.0350512720957384,-0.0153499642523944,1.68661831062688,-0.000146381098732765,0
0.29,0.00067634215055983,0.000389843636607595,-0.033598163412298,-0.0195047566415778,-0.00071686221865969,0.000309071715117441,0.0356270868871376,-0.0154913781266549,1.68661796666614,-0.000220530642409391,0
0.3,0.00066766028620925,0.000385453622841954,-0.0332076588557001,-0.0192851041578123,-0.000707731607665208,0.000305713468225763,0.0352138354633505,-0.0153182780042114,1.68661930414112,-0.000141197400041068,0
0.31,0.00067608888528547,0.000389805105230946,-0.0335797829932199,-0.0195028213713035,-0.000716606485532341,0.000309062041932756,0.0356086204096618,-0.0154915467217876,1.68661889886805,-0.000235927150253353,0
0.32,0.000677507994210464,0.000390470514001671,-0.0336470752410405,-0.0195361189261533,-0.000718092775262296,0.00030955947835579,0.0356792993484152,-0.0155168686589538,1.68661822562093,-0.000239879576299402,0
0.33,0.000677686073045837,0.000390572193447226,-0.0336597191488872,-0.0195411960724435,-0.00071828121535796,0.000309640351954259,0.0356924354488438,-0.0155204732161671,1.68661759253075,-0.000229494776678721,0
0.34,0.000677653012606493,0.000390587669435393,-0.0336624787255973,-0.0195419747575682,-0.000718249994324791,0.000309659940357265,0.0356952579760916,-0.0155209474387677,1.68661704181174,-0.000218171333974704,0
0.35,0.000677591720168744,0.000390589972481003,-0.0336633906743484,-0.0195420929929856,-0.000718189232565341,0.000309669649903175,0.0356961701554325,-0.0155209763376764,1.68661656999069,-0.000208068182270075,0
0.36,0.000677533454337182,0.000390590270221046,-0.033663901050713,-0.0195421122716046,-0.00071813126671691,0.000309676968308899,0.0356966730860592,-0.0155209508914632,1.68661616703515,-0.000199368027696067,0
0.37,0.000677482697259931,0.000390590269258803,-0.0336642827565527,-0.0195421140531732,-0.00071808074307749,0.000309683079853477,0.035697047102635,-0.0155209208274709,1.68661582312124,-0.000191929813695377,0
0.38,0.000677439460735817,0.000390590229431079,-0.0336646045073271,-0.0195420996479105,-0.000718037700729329,0.000309688247468961,0.0356973604780158,-0.0155208798135353,1.68661552963812,-0.000185580033350646,0
0.39,0.00067740226603783,0.000390590189478034,-0.0336648553369895,-0.0195420984544223,-0.000718000673042672,0.000309692685835399,0.0356976056022698,-0.0155208585821648,1.68661527919813,-0.000180161119173861,0
0.4,0.000677370542862783,0.000390590154470938,-0.0336650611995934,-0.0195420986894215,-0.000717969092167475,0.000309696470435271,0.035697806795912,-0.0155208426549977,1.68661506548949,-0.000175536912500726,0
0.41,0.000677343534508248,0.00039059012445842,-0.0336652309089948,-0.0195420989013975,-0.000717942204808976,0.000309699692635617,0.0356979725624007,-0.0155208297639664,1.68661488312541,-0.000171590920495375,0
0.42,0.000677320426066975,0.00039059009882569,-0.0336653636851574,-0.019542099094339,-0.000717919200025112,0.000309702449301767,0.0356981020560286,-0.0155208201672543,1.68661472750858,-0.000168223681768074,0
0.43,0.00067730075187768,0.000390590076948925,-0.033665470231569,-0.0195420992705244,-0.00071789961398772,0.000309704796445454,0.0356982058479525,-0.0155208127702417,1.68661459471626,-0.000165350313103043,0
0.44,0.000677283929863756,0.000390590058279722,-0.0336655504294205,-0.0195420994327894,-0.000717882867419776,0.000309706803192648,0.0356982837685195,-0.0155208077089803,1.6866144814003,-0.000162898379311954,0
0.45,0.000677269552571579,0.00039059004234845,-0.0336656087994898,-0.0195420995831322,-0.000717868554658733,0.000309708518214226,0.0356983402641201,-0.0155208045649844,1.68661438470453,-0.000160806068907579,0
0.46,0.000677257328962846,0.000390590028753873,-0.0336656517496021,-0.0195420997229684,-0.000717856385814827,0.000309709976495292,0.0356983816619754,-0.0155208026861972,1.68661430219103,-0.000159020636188199,0
0.47,0.000677246909791592,0.000390590017152845,-0.0336656800273912,-0.0195420998540044,-0.000717846013298015,0.00030971121954793,0.0356984086726196,-0.0155208020621747,1.68661423177952,-0.000157497071629231,0
0.48,0.000677238004019514,0.000390590007253552,-0.033665694357678,-0.01954209997766,-0.00071783714743663,0.000309712281988794,0.0356984219886433,-0.015520802673902,1.68661417169575,-0.000156196967207647,0
0.49,0.000677230378815971,0.000390589998805723,-0.0336656962954469,-0.0195421000950713,-0.00071782955646157,0.000309713191563523,0.0356984231312199,-0.0155208043969195,1.68661412042403,-0.0001550875481833,0
0.5,0.00067722385955798,0.000390589991597258,-0.0336656883287113,-0.0195421002070889,-0.000717823066495176,0.000309713969168352,0.0356984145517436,-0.0155208069906721,1.68661407667258,-0.000154140846861398,0
0.51,4.71694153416168,0.0234894434911948,4.15368055022042,-1.15923643011404,-1.41224846124446,4.50062700902527,-2.36763237817669,3.60433185708424,0.309038765293734,95.5837573523273,782.969657404909
0.52,4.68599454115377,0.0457982757393973,5.70196789120618,-2.2553354148931,-4.61991221248053,0.785527511139422,-5.98666538646898,-1.32620255484277,1.41214933164096,206.55525846344,782.969657404909
0.53,3.93906153670944,-0.0068462440635122,5.7993849211245,0.382819354225175,0.819395040569505,-3.85290078103909,0.821929719215394,-5.75359432511592,-2.93378298860817,317.625906387232,782.969657404909
0.54,3.22677268064584,0.00231601888148047,7.17936956988403,-0.0659194461754824,0.925108988624598,3.09131697754724,1.99020675550267,6.89831645147658,-0.290060442875731,401.731749711011,782.969657404909
0.55,2.70541546865388,0.024709155686875,3.52420555115293,-1.18975882569875,-0.578541906288071,-2.64294772234999,0.442381608394695,-3.69321666608653,2.93522454012414,473.761084898755,782.969657404909
0.56,2.16061071350456,0.042382162253479,6.4895782049769,-2.08260906977073,-0.701461380170261,2.04401243516707,-4.18267546369756,5.38118126263973,0.350198304413663,533.093075465444,782.969657404909
0.57,1.82270700491174,0.0345803681711611,3.68650707715457,-1.69754869998336,1.74534040122018,-0.526539183238786,4.00833598698125,0.636591418570035,-1.84482655239222,581.25330397119,782.969657404909
0.58,1.49470290983206,0.00751442975011019,3.91751316613881,-0.348047045220639,-0.822713094767918,-1.24793285837512,-1.84823542755377,-3.47160941882765,2.56376212627758,620.792229784375,782.969657404909
0.59,1.2272613629035,0.0177292001894104,3.9271659549974,-0.861824849222342,-0.99037217650451,0.725015675293185,-3.70096084241166,1.57107076599475,0.953318662191823,653.311756055632,782.969657404909
0.6,1.01945140745083,0.0258718834742179,3.43785615665685,-1.26927789232707,0.458350044724334,0.910969682815615,0.318813616146952,3.65079158539254,-0.440787826220461,679.781862797233,782.969657404909
0.61,0.831326996379133,0.0543366004278446,3.94087972212222,-2.69291152686611,0.823391054715065,-0.126823546985643,4.16126438949908,2.33798720194301,-1.65835279322742,701.436580916585,782.969657404909
0.62,0.717780294914831,-0.00320738375060264,2.20825711409895,0.185922733309305,0.289499709567633,-0.656817141401472,0.711137769068152,-2.09886869959381,-2.73091641669065,719.516853517587,782.969657404909
0.63,0.543384010896729,0.00704214180901479,4.77281628401086,-0.349316540413575,-0.286264982410504,-0.461917887621803,-2.16213494049667,-4.26930554369317,2.59975008910348,734.369993912599,782.969657404909
0.64,0.441579006103985,0.000305834686333002,4.83905197254928,-0.00985229499695935,-0.434963973167117,-0.0761475817955743,-4.7642750886339,-0.847469138418767,1.74479902358624,746.359597730265,782.969657404909
0.65,0.376673165480641,0.011804730424663,4.02952128572213,-0.577538903158705,-0.303940824965122,0.222804847732553,-3.64958178233426,1.8030933949198,0.969558766992371,756.097851525022,782.969657404909
0.66,0.268864635205099,0.0375956936260633,6.02474300994642,-1.8661941225369,-0.0327856095362092,0.269493473113051,-3.352272779999,5.34251589116657,0.259991993400124,764.304759070059,782.969657404909
0.67,0.212340725208795,-0.0142371102137053,6.08554511398561,0.70702134812263,0.0687131387554562,0.201419421734369,2.99815237101652,5.34273533699951,-0.395712320935471,770.833429468454,782.969657404909
0.68,0.198204991474734,0.0212288238998257,4.52681407874451,-1.05917287858242,0.17897768171925,0.0877660017094997,3.26409975983805,3.3105204497283,-1.00818049399595,776.221076203937,782.969657404909
0.69,0.17644982734472,-0.00210338984011113,3.75091009245357,0.117203307006635,0.176461882386495,-0.000412169159383996,3.74885818681197,-0.170661747372367,-1.58505210991263,780.565759604207,782.969657404909
0.7,0.098886964334331,-0.0280871430647217,6.04675895907126,1.39614609327631,0.0986614952213901,-0.0288691648905371,4.37535027001095,-4.40100304903262,-2.13220235967996,784.277695607052,782.969657404909
0.71,0.0870292057638742,0.0436055800738784,5.37949895506252,-2.18470904427248,0.00210280342025747,-0.0973196151207244,4.44478954454489,-3.73574738443985,-2.65550527477905,787.173949429372,782.969657404909
0.72,0.116052953283446,-0.0202002893122699,2.85821501791802,1.02011819687875,0.0181420144381638,-0.116392469542641,-1.07057253464779,-2.83970221542912,3.12388336892418,789.583365340926,782.969657404909
0.73,0.0169095690129626,-0.0264097261204732,6.95720223922289,1.31016901266127,0.0149073686807718,-0.0275894457533691,-4.51747032697737,-5.4508410070433,2.63569447636953,791.447932752313,782.969657404909
0.74,0.0807736801703745,0.025018660696804,3.07315378332468,-1.25603531963707,-0.0810617702089726,-0.0240688637437559,-1.85756521697621,-2.75160868671741,2.1597915025108,793.011650862677,782.969657404909
0.75,0.0570200257344438,0.013816050273694,3.64152217232166,-0.684164964306172,-0.0582898440411346,0.00666788284105852,-3.52914213126759,-1.12868119821605,1.69461975998498,794.340171497006,782.969657404909
0.76,0.0501723809990838,0.0137427873065534,3.48140643194521,-0.697931373390095,-0.0429362193599165,0.0293702755374804,-3.51849744214098,0.476943074170301,1.23821322361857,795.35337824728,782.969657404909
0.77,0.0049118857563757,0.0141598167457052,5.40392304838496,-0.715118218862318,0.00650731601656291,0.0135011803267797,-4.33465602010234,3.3052285196648,0.787766621469281,796.053031774106,782.969657404909
0.78,0.0152054542553881,0.00996069133358546,4.54366606353752,-0.492462001104269,0.00427828289147606,0.0176668476660713,-1.98917121199297,4.11468322096034,0.34234305480962,796.710020186773,782.969657404909
0.79,-0.00549333675773226,-0.0350298959720943,5.2991917731712,1.7410022611835,-0.0354013381049577,-0.0020039014267349,2.25627541663915,5.1011512001274,-0.0990067695057347,797.124812912494,782.969657404909
0.8,-0.0103344852288374,0.0103995799509687,5.4044491103452,-0.52727915639776,0.00363656139049087,-0.0142031077358034,2.31597544580445,4.91145103095953,-0.537882571467604,797.382838348271,782.969657404909
0.81,0.00641282150809119,0.0254447100675604,4.36151923722465,-1.26733141039998,0.0195899782068064,-0.0174582445845422,2.8981878381444,3.49706823143315,-0.974810120588414,797.681623226356,782.969657404909
0.82,0.0334365796160991,-0.0011469823913299,2.88389191598167,0.0465828152054696,0.032822317794173,0.00648196572407403,2.85419320340685,0.415431943118279,-1.41010850265473,797.829007631866,782.969657404909
0.83,-0.00954083407898461,0.0636331484996829,4.93405099494913,-3.19069736722408,-0.0263991050712246,-0.0586795735698876,5.61322822081109,1.73697376234045,-1.84472890819991,797.907220732364,782.969657404909
0.84,0.0161595260757725,-0.00323616243849826,3.5404106339467,0.168240380880226,0.0143816851310961,-0.00804799124700856,2.58051990650861,-2.42975910222277,-2.27862896729339,797.992736617573,782.969657404909
0.85,-0.0181831474425709,-0.00387769262818017,5.19257970681389,0.181687707056706,-0.00404143658421526,0.0181474555068385,1.99581369577056,-4.79714729045144,-2.71235849542407,798.003532218844,782.969657404909
0.86,0.00812383382723697,0.0304157498315546,3.80815408594085,-1.52780238905786,-0.0304510404766778,-0.00799053488547575,1.5111080151355,-3.81480933322652,3.13721263854449,797.991893401735,782.969657404909
0.87,0.0179634778072296,-0.00163291528880508,3.22228806028406,0.0883050815155371,-0.0161358698052924,0.00806142995366804,-2.6939031313877,1.77026101170709,1.01681846669588,798.067888815781,782.969657404909
0.88,-0.0257395218709482,-0.0093470913612742,5.32602314469408,0.455100235543317,0.0063865008559915,-0.0266290012932789,-2.55559944989302,4.69494943677939,0.583720589527224,798.065886887496,782.969657404909
0.89,0.0138845279346195,-0.0346468933448275,3.30740628028878,1.72827332910181,-0.0363343126528467,0.00854429976418571,1.21395823915584,3.52876329562695,0.15018585733475,798.035147316798,782.969657404909
0.9,-0.0146171149034099,-0.00592780980434,4.68271926212708,0.302483217137319,-0.00977867628580034,-0.0123764480879388,1.59982953476862,4.41133780663278,-0.283405141457251,797.9713304565,782.969657404909
0.91,-0.0219484799175193,-0.0482924204330454,5.05051794191534,2.40381449888675,-0.0508107256384735,0.015236922329117,5.13283617212699,2.22262197792869,-0.717925646899367,797.809759391241,782.969657404909
0.92,0.00207981454660522,-0.0368402469166642,3.88324224401182,1.83800950214332,-0.0130157826656891,0.0345270737686906,4.29489792684725,-0.10817140846936,-1.15390172690446,797.570378554942,782.969657404909
0.93,-0.0389774063182344,-0.0266335053807505,5.91672339614529,1.3381313431671,-0.0384304367314609,0.0274168441800361,5.88843167592735,-1.45759515503952,-1.59103489772761,797.482150155495,782.969657404909
0.94,-0.0442250981901125,-0.0431588439390273,6.12808363755215,2.14640087916951,-0.0206066918372773,0.0582572688306094,4.54925406983242,-4.63300477131711,-2.02841189012894,797.415487905548,782.969657404909
0.95,-0.0269602182257733,-0.026870415066277,5.28223108319749,1.33856215680969,0.00414401614784997,0.0378378078485221,2.25406203524152,-4.96114081691133,-2.46694849057308,797.252518227343,782.969657404909
0.96,-0.0234221472936685,0.0296113304822331,5.10096609410116,-1.47570848852647,-0.0342520461953486,0.0158815996740264,2.62313926795392,-4.61700238436119,-2.90653473278636,797.133305865005,782.969657404909
