t,iq,id,vq,vd,ia,ib,va,vb,theta_e,omega,r
0,0,0,0,0,0,0,0,0,0,0,0
0.01,0.000448159887881627,0.000248595187723931,-0.0214052046824359,-0.0124378808422545,-0.000200511671883473,-0.000471637489926388,0.010138219125464,0.0225853975016419,-3.03713532901642,-0.00263154861574092,0
0.02,0.00053607029156645,0.00029491174618054,-0.0257540089612102,-0.0147552238327941,-0.000237421047143981,-0.000563893200799983,0.0119900444364549,0.0271518773262879,-3.0371556694929,-0.00287018406152206,0
0.03,0.000567795754742773,0.000312661741622487,-0.0273567756172738,-0.0156433075232835,-0.000251779203329618,-0.000597291065184324,0.0127067926781408,0.0288382326482853,-3.03717603638771,-0.00275262293797445,0
0.04,0.000554802249585131,0.000306716322617215,-0.026840829281039,-0.0153458443402173,-0.000247231005110733,-0.000583744180970129,0.0124652372506482,0.0282938670968306,-3.03719413578723,-0.00238733939935501,0
0.05,0.000566259352026734,0.00031442589380485,-0.0274679013268692,-0.0157315689661305,-0.000253714465619781,-0.000595938139732627,0.0127839913123606,0.0289575107971012,-3.03721057643324,-0.00220282133840008,0
0.06,0.000566175301010092,0.000315579627158669,-0.0275427261643045,-0.0157892936626036,-0.000254879516227599,-0.000595970976440177,0.0128340363091907,0.0290377525118624,-3.03722540826914,-0.00197037694701224,0
0.07,0.00057433365034446,0.000321504237411509,-0.0279957367167908,-0.0160857214006429,-0.000259929792540014,-0.000604698784141041,0.0130820393127674,0.0295190100564734,-3.03723834571045,-0.00181974785494294,0
0.08,0.000564161848670428,0.000316636606689189,-0.0275796907280938,-0.0158421704419592,-0.000256155249789567,-0.000594072234830179,0.0128834964006357,0.0290797047004297,-3.03725023374025,-0.00156945224430746,0
0.09,0.000561037819112397,0.000315904139780157,-0.0274875098613313,-0.0158055333811283,-0.000255758262345982,-0.000590886259145023,0.0128569596361764,0.0289840761928421,-3.03726058788676,-0.00138777168694232,0
0.1,0.000559268957168689,0.000315792366672426,-0.0274526834719258,-0.0157999363864966,-0.000255836691995216,-0.00058911303866921,0.0128552843960433,0.0289487388796806,-3.0372697212243,-0.00123376018721301,0
0.11,0.000557872421011483,0.000315773937725878,-0.0274297800846053,-0.0157990097088314,-0.000255968536466476,-0.000587720108734873,0.0128569813862558,0.0289257596771983,-3.03727779750282,-0.00109863465353238,0
0.12,0.000556665166738943,0.000315769703571733,-0.0274108441510473,-0.0157988078225903,-0.000256094222241379,-0.000586517146287181,0.0128589588535168,0.028906813779656,-3.03728494242775,-0.00097927156226355,0
0.13,0.000578932174369541,0.000328795427983669,-0.0284957233108456,-0.0164505115101979,-0.000266734865507928,-0.000610017546883429,0.0133943675747369,0.030053560408515,-3.03729170678197,-0.00101450588934749,0
0.14,0.000592360888812397,0.00033712670938578,-0.029264314773938,-0.0168673456834373,-0.000273626641180139,-0.00062423897828666,0.0137291077529542,0.0308612875606393,-3.03729788937315,-0.00100287003925442,0
0.15,0.000559962753347732,0.000318969710306208,-0.0276646051107122,-0.0159589067011005,-0.000258944435494081,-0.000590125190579297,0.0129923071565174,0.029175623965509,-3.03730347953598,-0.00071030346193991,0
0.16,0.000553910584863679,0.000316244495019456,-0.0274023871848406,-0.0158225591195,-0.000256866577805658,-0.000583821100903816,0.0128841220130852,0.0289005813171625,-3.03730779395286,-0.000604518085613015,0
0.17,0.000552385181425765,0.00031583482982806,-0.027350213101154,-0.0158020550753288,-0.000256620086911381,-0.000582260387957905,0.0128692675028808,0.0288465085447365,-3.03731150429587,-0.000536842595757221,0
0.18,0.000551683876665543,0.000315772687643389,-0.0273344935012592,-0.0157989471165589,-0.000256633181313252,-0.000581555586580759,0.0128679068397824,0.0288305088148802,-3.0373147690162,-0.00048135424917338,0
0.19,0.000551173172170068,0.000315762766796296,-0.0273257377448153,-0.0157984604379692,-0.000256678149680597,-0.000581045882948509,0.0128684173475791,0.0288217128303823,-3.03731765450494,-0.000433002645874743,0
0.2,0.000550740035225329,0.000315760749999384,-0.0273188671097102,-0.0157983531934707,-0.000256722709406991,-0.000580614233475983,0.0128690993733629,0.0288148355036457,-3.03732020700528,-0.000390348036779455,0
0.21,0.000550359833084993,0.00031575997983357,-0.0273129265244624,-0.0157983156374796,-0.000256762826582319,-0.000580235436373284,0.0128697453982893,0.0288088942116029,-3.03732246531598,-0.000352629449994915,0
0.22,0.000550023985199769,0.000315759450438251,-0.0273076927381893,-0.0157982881005118,-0.000256798414258148,-0.000579900844343757,0.0128703203027687,0.0288036602690399,-3.03732446340678,-0.000319260446167925,0
0.23,0.000549726869354097,0.000315759004732668,-0.0273030600550198,-0.0157982749775579,-0.000256829919264902,-0.000579604841706835,0.0128708403306417,0.0287990286262866,-3.03732623127301,-0.000289736863700779,0
0.24,0.000549464130292549,0.000315758613693242,-0.0272989648047454,-0.0157982486105217,-0.000256857781792601,-0.000579343087066904,0.0128712853708332,0.0287949327395143,-3.03732779544351,-0.000263615121580818,0
0.25,0.000549231566742169,0.000315758268133409,-0.0272953331198844,-0.0157982352209836,-0.000256882443863085,-0.000579111395014462,0.0128716898710065,0.0287913015698772,-3.03732917938856,-0.00024050317039069,0
0.26,0.000553604404544751,0.000318358670311187,-0.0275072694569866,-0.0159283417660909,-0.000259014278003815,-0.000583730831363067,0.0129790652312558,0.0290156132128803,-3.03733030171843,-0.000250644525674403,0
0.27,0.000542348596168594,0.000311889242399576,-0.026984228915186,-0.0156046489767752,-0.000253752193201484,-0.00057186250422288,0.0127116037095099,0.0284617078013233,-3.03733166490828,-0.000158052402746346,0
0.28,0.00054190588806507,0.000311752018882856,-0.0268691138361267,-0.0155977820947411,-0.000253662333093103,-0.000571407677203319,0.0127167814145978,0.0283464910538695,-3.03733261806954,-0.000140345245341526,0
0.29,0.000547394729172322,0.000315156247931203,-0.0272306359849766,-0.0157681133612201,-0.000256477245976786,-0.000577220817739517,0.0128485835928645,0.0287237677677523,-3.03733331085573,-0.000164271200922571,0
0.3,0.000540539859835785,0.000311638121861945,-0.0269072925001725,-0.0155920908269805,-0.000253691569987649,-0.000570037057028868,0.0127071652357962,0.0283838622762446,-3.03733323411731,-0.000122062978553722,0
0.31,0.000547093711491167,0.000315139051103199,-0.0272191807411415,-0.015767246348493,-0.000256491769444069,-0.000576919511622597,0.0128489283640587,0.0287122778185271,-3.0373338305743,-0.000154238113129017,0
0.32,0.000548109310851268,0.000315664205074558,-0.0272705093501652,-0.0157935297433296,-0.00025690876058311,-0.000577984079143063,0.0128697462925961,0.0287660545145679,-3.03733449190832,-0.000150329122385112,0
0.33,0.000548198119339057,0.000315742874746241,-0.0272778932022431,-0.0157974609375976,-0.000256978112169964,-0.000578080436328251,0.0128729051951936,0.0287737995659847,-3.0373350996668,-0.000141387820100861,0
0.34,0.000548139330737885,0.000315754566189161,-0.0272779714438514,-0.0157980520456903,-0.000256996171223679,-0.000578023044477858,0.0128735005340211,0.0287739319268408,-3.03733564122985,-0.00013254830006837,0
0.35,0.000548064277289646,0.000315756220816923,-0.0272769559179389,-0.0157981281777998,-0.000257005904854539,-0.000577948447437578,0.012873695742352,0.0287729236610519,-3.03733612104228,-0.00012457005554265,0
0.36,0.000547993787837918,0.000315756380936473,-0.0272758617398547,-0.0157981416937031,-0.000257013645173479,-0.0005778782482545,0.0128738352711446,0.0287718313639821,-3.03733654568006,-0.000117484448228415,0
0.37,0.000547930957830559,0.000315756326962806,-0.0272748691213443,-0.0157981304693874,-0.000257020347147056,-0.000577815657211332,0.0128739382169873,0.028770838129944,-3.03733692140911,-0.000111210743193357,0
0.38,0.000547875078476345,0.000315756249848167,-0.0272739733504141,-0.0157981308208431,-0.000257026277717005,-0.000577759987794742,0.0128740413509925,0.0287699429795143,-3.03733725384945,-0.000105659137304617,0
0.39,0.000547825601964802,0.000315756177210008,-0.0272731756383932,-0.0157981311412346,-0.000257031524253456,-0.000577710696762939,0.0128741331469138,0.0287691458453988,-3.03733754798605,-0.000100747063761007,0
0.4,0.000547781829801175,0.000315756112277379,-0.0272724666135912,-0.0157981299787214,-0.000257036165218125,-0.000577667088616626,0.012874213263204,0.0287684371989089,-3.037337808232,-9.6400942395323e-05,0
0.41,0.000547743272385363,0.000315756054724664,-0.0272718444139046,-0.0157981171875283,-0.000257040253502274,-0.000577628675377355,0.0128742719154335,0.0287678140819663,-3.03733803849221,-9.25555818116283e-05,0
0.42,0.000547709046280909,0.000315756003786424,-0.0272712849366885,-0.015798117434669,-0.000257043882282545,-0.00057759457743839,0.0128743362444428,0.0287672550453232,-3.0373382422215,-8.91532869271222e-05,0
0.43,0.000547678661882057,0.000315755958713465,-0.0272707813705406,-0.0157981176630675,-0.000257047103535852,-0.000577564306989108,0.0128743940609064,0.0287667519164129,-3.03733842247692,-8.61430077868111e-05,0
0.44,0.000547651886358164,0.000315755918832315,-0.0272703378197556,-0.0157981178737613,-0.000257049942388147,-0.000577537631698182,0.0128744450166065,0.0287663087425416,-3.03733858196299,-8.34795760287548e-05,0
0.45,0.000547628137632625,0.000315755883545394,-0.0272699390152427,-0.0157981180695894,-0.000257052460204494,-0.00057751397197239,0.0128744907722465,0.0287659103070124,-3.03733872307293,-8.11230275628788e-05,0
0.46,0.000547607182874795,0.000315755852323515,-0.0272695856482551,-0.0157981182517815,-0.000257054681913334,-0.000577493095646219,0.0128745313180558,0.0287655572702006,-3.03733884792389,-7.90380029886176e-05,0
0.47,0.000547588707101787,0.000315755824698525,-0.027269272766741,-0.0157981053670127,-0.000257056640911804,-0.000577474688916832,0.0128745542408492,0.0287652433244287,-3.03733895838957,-7.7193217050389e-05,0
0.48,0.000547572292541489,0.000315755800256062,-0.0272689891412361,-0.0157981055273401,-0.000257058381221704,-0.000577458335811481,0.0128745867271941,0.028764959997222,-3.03733905612707,-7.55609892103742e-05,0
0.49,0.00054755774062633,0.000315755778629782,-0.027268733319361,-0.0157981056786159,-0.000257059923990733,-0.000577443838425686,0.0128746159871706,0.0287647044667251,-3.0373391426031,-7.41168283093955e-05,0
0.5,0.00054754487673333,0.000315755759494685,-0.0272685041243846,-0.0157981058216149,-0.000257061287817994,-0.000577431022717291,0.0128746421813463,0.028764475545972,-3.03733921911528,-7.28390650858124e-05,0
0.51,3.96297362414621,-0.0161808190432783,4.45638044371959,0.821305789849326,-0.57770644016232,3.92067303324039,0.181392900741897,4.52779929713839,0.14221310061003,43.5987707844185,570.410904471885
0.52,3.66083239864818,0.0156062817643816,3.98758299174586,-0.757539254208069,-2.15700009474019,2.95791953885049,-2.9733881665157,2.76290547231559,0.634337485105064,90.4127043775096,570.410904471885
0.53,3.3729951797344,0.01598108473128,2.54836266429319,-0.771799904191502,-3.35424517279531,0.355515398203872,-2.61312229924538,-0.511291707403919,1.46993878994496,137.397509812693,570.410904471885
0.54,3.09458058486606,-0.000432725111225496,3.02452830469392,0.0592447141008944,-1.52450645249726,-2.6930111882009,-1.54191681045288,-2.60264748894014,2.62633486848596,176.943377167699,570.410904471885
0.55,2.81465244669645,0.015762847973716,4.08068667546338,-0.752637260688226,2.23461380635933,-1.71143740741483,3.7078168088107,-1.86294420254109,-2.21878075815581,215.341781673205,570.410904471885
0.56,2.59010743633886,-0.0201106790180727,4.01735055531009,1.04998974911127,1.26335714349039,2.2611920969215,2.89924526858163,2.97253441192799,-0.51727220370436,249.049535907022,570.410904471885
0.57,2.41102644628779,0.0151095729607517,2.30694646615904,-0.707063717786685,-2.38379161519569,0.361682677518421,-2.38464939228522,-0.367951592750628,1.42648577026863,280.255250215754,570.410904471885
0.58,2.16483585020554,0.0315524658380697,4.74028947267955,-1.53057405605905,0.912624610626866,-1.96332018186382,3.4389750634861,-3.60367197988363,-2.6918947369891,309.216373442488,570.410904471885
0.59,1.99016596750368,0.0479158092223249,4.45557101353667,-2.34891158304617,0.680265305152682,1.87090769884268,-0.804891643650636,4.9720868982368,-0.324668790541995,335.702369793703,570.410904471885
0.6,1.79673313328853,0.0427231135354859,5.86197334547921,-2.08950771090981,-1.44864448836931,-1.06372193876229,-3.3647718665493,-5.23517757703964,2.22793928143672,359.991256484155,570.410904471885
0.61,1.66138425292277,0.0225931236303123,4.99025208030302,-1.09707327548613,1.61974064460691,0.370335428096627,4.59010122492264,2.24436100966805,-1.33242307151786,382.455213256279,570.410904471885
0.62,1.51902419603017,-0.00411842904282061,5.02344673401742,0.23890603245049,-1.51868069551709,0.0325640084541366,-5.01621280448779,0.3601420302384,1.54664608447829,402.881077759074,570.410904471885
0.63,1.41722252510628,0.0175305317500237,3.75545556381407,-0.836891332299453,1.39998195539348,-0.221082631124001,3.83675639816957,0.288329559644654,-1.71505208792175,421.27856531525,570.410904471885
0.64,1.26992293801266,-0.00158581727172247,5.30575579916015,0.122055264570385,-1.25872213340961,0.168301438412986,-5.24174551090695,0.830690126832923,1.43662776892955,438.303150907043,570.410904471885
0.65,1.17387284553667,0.0118545412087803,4.60625154631659,-0.56495625306019,1.17381390908298,-0.016700134100388,4.60854441466602,0.545937042035427,-1.57492429318674,454.048433517477,570.410904471885
0.66,1.0861577351415,0.0156027340048371,4.10603327767256,-0.74099697433086,-1.05993525076612,-0.237737954688565,-3.82062823490622,-1.67671872535597,1.80580352296877,468.120469968445,570.410904471885
0.67,1.00921855870653,0.0350441560437139,3.3364999769053,-1.7303230405244,0.866304068607328,0.518909869654541,1.86095186661276,3.26544148173094,-0.996407665234188,481.330678782381,570.410904471885
0.68,0.907803163629141,0.0115495268537931,4.27481093122015,-0.541660067821687,-0.496380735617899,-0.760161917470914,-1.83426529253965,-3.89908642675901,2.5758377829761,493.128357007042,570.410904471885
0.69,0.82455659322221,0.0419418866144771,4.54009506545431,-2.07686690210649,0.0841960094634247,0.821318287431513,-1.84117117565682,4.64068185015505,-0.0513342100649554,504.155691843454,570.410904471885
0.7,0.725370634969089,0.011699428738676,6.01029862268078,-0.571129094837503,0.362711889375162,-0.628282993573892,3.57848296123297,-4.86254436205303,-2.60189916641595,514.106082394409,570.410904471885
0.71,0.650219941111304,-0.00498635731857411,6.51195557424941,0.275293093995683,-0.607956414927421,0.230650890149363,-5.97099254914356,2.61315894401237,1.20051631738771,523.142289297393,570.410904471885
0.72,0.593133426855447,-0.0112889760628866,6.36381741395561,0.576425495200845,0.552369023722283,0.216386609257426,6.16847711100576,1.6674317259427,-1.21645887572384,531.530081525918,570.410904471885
0.73,0.564383392485574,0.0232841009984508,5.13697407573133,-1.15463392953277,-0.258493331584126,-0.502246911985899,-1.11296407359022,-5.14616295280877,2.70750746708651,539.008645952624,570.410904471885
0.74,0.494358251451814,0.0210469717041606,6.09702582278318,-1.03002607392148,-0.173763880107141,0.463291668138465,-3.33017820777109,5.21004709202609,0.401375137843573,545.9187181206,570.410904471885
0.75,0.459915110260441,0.0242408478709188,5.50533658153852,-1.2006559638499,0.43445909440442,-0.152822847246953,5.62060403124502,-0.398893398675376,-1.85637463063724,552.235466963526,570.410904471885
0.76,0.418499770846871,0.0140496126978126,5.45517040308393,-0.700635958085369,-0.343489281797065,-0.239488127276445,-3.94790631770843,-3.82933552709121,2.21321389163622,558.035275863773,570.410904471885
0.77,0.394248905414958,-5.52838527640986e-05,4.72974472768515,0.0141850099592862,-0.0157559471408331,0.393933944471522,-0.174185261495277,4.7265575103082,0.0398348861831252,563.223123857289,570.410904471885
0.78,0.324082451319953,-0.00180457731567907,6.46081473611548,0.108723868408991,0.281127440140096,-0.161245322887564,5.53178494444053,-3.33965615931188,-2.09712094420865,567.931661601787,570.410904471885
0.79,0.308547636235769,-0.0013672637803596,5.60510323773094,0.0799616993619911,-0.268410025765801,-0.152182690557525,-4.92724442249434,-2.67317013674497,2.08215001575441,572.206388270298,570.410904471885
0.8,0.258787781977127,-0.020228849986114,6.62181822020645,1.01389846638709,-0.022250402044072,0.258621812848953,0.962124575731169,6.62953866738662,0.00781408691233888,576.046032115043,570.410904471885
0.81,0.275094160374972,-0.00713879434716386,4.40851630489493,0.353854612738013,0.248680601347048,-0.117837676363771,3.77380413483233,-2.30621582888568,-2.03925171848161,579.667970965981,570.410904471885
0.82,0.212116546364297,-0.0265443926201369,6.30640834737928,1.32166920056279,-0.152665641559513,-0.149637013831175,-5.81783271978278,-2.76955197897354,2.22168286449533,582.850636383015,570.410904471885
0.83,0.224771087252904,0.0276244542424407,4.50913091593678,-1.36632865529835,-0.00112225051498025,-0.226459472512913,1.88478481630516,-4.31818269733597,-3.02426109349662,585.730310274456,570.410904471885
0.84,0.171540013027631,0.0421844020417686,6.12631552002883,-2.09844686262826,-0.152145444900016,0.0897622606740578,-6.47103676144128,-0.24678800273934,1.27891057907115,588.266541773252,570.410904471885
0.85,0.175418729577292,0.0232381525964661,4.96410642067758,-1.15478840937525,0.128757474048389,0.12138062159705,2.23801366229043,4.57899374029286,-0.683175125720693,590.615935163465,570.410904471885
0.86,0.179613196559953,0.0105245311720989,3.8650236552242,-0.524191917511978,0.078902669859929,-0.161697355648915,2.35209445616084,-3.11140429567181,-2.62909060721182,592.706975957235,570.410904471885
0.87,0.123905442623652,0.0408273000710982,5.8187679056171,-2.04805548885955,-0.128661322829453,0.0215798783739349,-5.44122158673508,-2.9061484595484,1.72291682340613,594.645437187039,570.410904471885
0.88,0.134018977898923,0.0189038281965346,4.56983213071657,-0.954631112205664,0.0445034664715946,0.127819727075158,-0.0514409566572837,4.66819452157885,-0.194917984157915,596.309084568029,570.410904471885
0.89,0.0867926041605978,-0.0216317924256824,6.22971004722816,1.07015782790166,0.0858138127355014,-0.025236483992869,4.83289861441299,-4.07401718601673,-2.10107590051113,597.873283139618,570.410904471885
0.9,0.0644091975710476,0.0242832357071533,6.72514777185621,-1.22166604008963,-0.0645377083722428,-0.0239396003770895,-4.27320903590776,-5.3347694422765,2.28653867139602,599.17924912357,570.410904471885
0.91,0.0808724981312307,0.00838067453164301,5.32817356574722,-0.40901240027955,-0.0237790758046053,0.0777505769333584,-2.45191642623997,4.74813969139962,0.400063716700777,600.375719217382,570.410904471885
0.92,0.0610251314691585,-0.0140700823825428,5.79534341909057,0.713156066806433,0.0594623840536006,0.0196534671684599,5.8364606192314,-0.17413891288339,-1.47818269236035,601.393257463329,570.410904471885
0.93,0.0682014610132725,0.0261110574309969,4.99041455693691,-1.29950782959067,-0.0396406851285952,-0.0613338624826883,0.240238688629844,-5.15123707683316,2.93345254975766,602.238871500201,570.410904471885
0.94,0.0611846651097655,-0.00364222778050431,4.88498703146155,0.185389769424809,-0.0553681090100769,0.026290712665264,-4.19113992490642,2.51630955846262,1.06802439863664,603.081282253903,570.410904471885
0.95,0.056262835380745,-0.0130094975508513,4.72682038884545,0.649774878069834,0.0308930058494621,0.048789095720166,3.81993093585541,2.85887495806839,-0.79170418635391,603.780503572433,570.410904471885
0.96,0.0272290775584972,-0.0185382858379843,5.80073597713733,0.921024694033755,0.0292460795047571,-0.0151577551140956,1.94443658085539,-5.54220089373407,-2.64670519182886,604.378157368224,570.410904471885
0.97,0.037989630875236,-0.00249168794605228,4.93541312595452,0.114762721996233,-0.0365863996630658,-0.010528813919507,-4.84653618397651,-0.939446764649566,1.78550942050117,604.851972797534,570.410904471885
