t,iq,id,vq,vd,ia,ib,va,vb,theta_e,omega,r
0,0,0,0,0,0,0,0,0,0,0,0
0.01,0.00150287824304006,0.000834275761482614,-0.0747007789784547,-0.0417679233856414,-0.0016813704316908,-0.000357284943758444,0.0837697868949309,0.0175325014619881,2.28694274096432,-0.00186073945418422,0
0.02,0.0016581305437429,0.000923804383672376,-0.0825198816057158,-0.0462501417793424,-0.00185726277749617,-0.000391645777090254,0.0926108104092457,0.0192832639916941,2.28692955832524,-0.00180356105157964,0
0.03,0.00171379649093608,0.000958169881465928,-0.0853287593951749,-0.0479706625846056,-0.0019218192804456,-0.000402241951318864,0.0958594030746611,0.0198281741694835,2.28691738553544,-0.00162883753534135,0
0.04,0.00166964401676627,0.000938443849265185,-0.0831818205113602,-0.0469830792288815,-0.0018755669865075,-0.000388119157051317,0.0935917225922826,0.0191628405937303,2.28690736612691,-0.0013599306693859,0
0.05,0.00170101567791736,0.000958648108057641,-0.0847735387555737,-0.0479945978037959,-0.00191249938884875,-0.000393454723260914,0.09545665010594,0.0194438227219608,2.28689838588302,-0.00121755220352784,0
0.06,0.00169684784434872,0.00095932346514842,-0.0845989070552373,-0.0480283911415444,-0.0019098016649104,-0.000390194462237383,0.095347246556074,0.0193029532652672,2.28689062548318,-0.00105102576457735,0
0.07,0.00173911682880412,0.000985624153893369,-0.0867204484857616,-0.0493451400051479,-0.00195895584476873,-0.000398088325895338,0.0978121842164209,0.0197016660846799,2.28688412320277,-0.000975121547475266,0
0.08,0.00168978742501876,0.000960223547059021,-0.0842995152958566,-0.0480734735770694,-0.00190507104283204,-0.000384857277235303,0.0951512213198171,0.0190712407102614,2.2868783318155,-0.00078658604022827,0
0.09,0.00168448579196534,0.000959362310980916,-0.0840565783051794,-0.0480303291674443,-0.00190050807432125,-0.000382017652083636,0.0949397234784755,0.0189438586918932,2.28687351471988,-0.000679444035591081,0
0.1,0.00168141821662428,0.000959329804240428,-0.0839214215783308,-0.04802872027686,-0.0018981741575062,-0.000380020736638891,0.0948367843010072,0.0188559623091748,2.28686941164686,-0.000590197508360387,0
0.11,0.00167886007590715,0.000959325769179804,-0.0838090253124404,-0.048028513519563,-0.00189624299860334,-0.000378337912632628,0.0947519237574641,0.0187820067878761,2.28686591285238,-0.000514174473534058,0
0.12,0.00167668052545119,0.000959323125651876,-0.0837132714868028,-0.0480283928792397,-0.00189459815339822,-0.00037690354333415,0.0946796645388459,0.0187189601313041,2.28686292918668,-0.000449347491741747,0
0.13,0.00175758290164057,0.00100520377680569,-0.0877349027096365,-0.0503254103332269,-0.00198574863989907,-0.000395391740154901,0.0992214289079851,0.0196257006023914,2.28685997259108,-0.000500595488855725,0
0.14,0.00184266695170053,0.00105610660368215,-0.0920373660604439,-0.052873845019017,-0.00208335033201817,-0.000412836586690349,0.104140082809876,0.0205271379103678,2.2868574860077,-0.000567391925919611,0
0.15,0.00167781893548191,0.000962582788787364,-0.083801107079497,-0.0481915609936466,-0.00189759954667281,-0.000375177246109671,0.0948531769468168,0.0186527993033095,2.28685528461462,-0.00029259718894538,0
0.16,0.00167031323558203,0.000959425398979151,-0.0834350244984523,-0.0480335104039745,-0.00188986522977738,-0.000372629594161943,0.0944732843696455,0.0185315939734863,2.28685384759919,-0.00025239896572467,0
0.17,0.00166917549546364,0.000959317827657783,-0.0833835941853147,-0.0480281392463238,-0.00188893675706524,-0.000371961633675039,0.0944309820069459,0.0185017722375285,2.28685263956449,-0.000225796728384351,0
0.18,0.00166841377461188,0.000959313329814959,-0.0833500646018026,-0.0480278784390291,-0.00188835954460733,-0.000371463078065242,0.0944055351067913,0.0184798624908094,2.28685161007524,-0.0002034147222752,0
0.19,0.0016677723185752,0.000959312438023248,-0.0833218712764542,-0.0480278317494718,-0.00188787536990849,-0.00037104103283151,0.0943842515945161,0.0184613083639446,2.28685073218314,-0.000184339986867976,0
0.2,0.00166722516656341,0.000959311776758392,-0.083297819418538,-0.0480278333119997,-0.00188746244103517,-0.000370680960842751,0.0943661216706817,0.018445448581227,2.28684998354273,-0.000168074065672654,0
0.21,0.00166675903200701,0.000959311216112829,-0.0832773293423252,-0.0480277920071613,-0.00188711065662087,-0.000370374202401798,0.0943506485699938,0.0184319695609224,2.2868493451232,-0.000154202965879875,0
0.22,0.00166636158249317,0.000959310738058252,-0.0832598564044789,-0.0480277534455107,-0.00188681070743402,-0.000370112645116805,0.094337451659215,0.0184204778429465,2.28684880069724,-0.00014237408416103,0
0.23,0.00166602211541203,0.000959310330342883,-0.0832449269074929,-0.0480277515510715,-0.00188655451661643,-0.000369889246638378,0.0943261961088465,0.018410635581661,2.28684833642615,-0.000132286747672824,0
0.24,0.00166573316497759,0.000959309982620322,-0.0832322199252839,-0.04802771271474,-0.00188633644963201,-0.000369699091763785,0.094316591715155,0.0184022865301347,2.28684794050904,-0.000123684551782832,0
0.25,0.00166548659732635,0.000959309686067008,-0.0832213734187438,-0.0480277134803476,-0.00188615036827043,-0.000369536828921,0.094308415787349,0.0183951343439744,2.28684760288198,-0.000116348841883499,0
0.26,0.00168298109978162,0.000968991324059741,-0.0840894097648278,-0.0485124333411145,-0.00190570350954595,-0.00037371607140909,0.0952814455569575,0.0185992246034544,2.28684735280983,-0.000135493534529396,0
0.27,0.00162475949062478,0.00093626817042914,-0.0812056435119692,-0.0468741309676548,-0.00184030123036435,-0.000360184495576188,0.0920305297102767,0.0179421931048508,2.2868469399072,-4.5991774195628e-05,0
0.28,0.00161820878665357,0.000931877009154899,-0.0808113391910752,-0.0466542975158428,-0.00183247702812411,-0.000359196852424569,0.0915887679117419,0.0178491907648739,2.2868467200409,-3.23299497626437e-05,0
0.29,0.00166297394582496,0.000958383121958291,-0.0831005477223299,-0.0479813243862286,-0.00188364694546944,-0.000368584776911358,0.0941868309339831,0.0183507329614106,2.28684668787415,-9.39040016243024e-05,0
0.3,0.00165424778330526,0.000953895930430512,-0.0826662754908352,-0.0477566544436269,-0.00187411829230574,-0.000366242817140868,0.0937117304695002,0.0182352054988802,2.28684712862064,-9.08996581990453e-05,0
0.31,0.00166457155502665,0.000959126416507024,-0.0831786795721451,-0.0480185271156533,-0.00188534000163199,-0.000369073194490938,0.094270189548171,0.0183739773667608,2.28684693990562,-0.000101345101742631,0
0.32,0.00166484723642405,0.000959302772248723,-0.0831931044946721,-0.0480273647339606,-0.0018856638083426,-0.000369120754468996,0.0942868763479501,0.0183767610665394,2.28684675075867,-9.78106963378075e-05,0
0.33,0.00166474479127403,0.000959308586749516,-0.0831886794088568,-0.0480276619427993,-0.00188559039993333,-0.000369048815693312,0.0942837361199282,0.0183736168662871,2.28684658834354,-9.43046084756475e-05,0
0.34,0.00166464409203387,0.000959308666063225,-0.0831842426216604,-0.0480276739460587,-0.00188551453518178,-0.000368982394628127,0.0942803994130514,0.0183706823967886,2.28684644979661,-9.1295256581525e-05,0
0.35,0.00166455782828053,0.000959308569037756,-0.0831804373652939,-0.048027674267868,-0.00188544943733169,-0.000368925620667454,0.0942775310925624,0.018368173206744,2.28684633164593,-8.87281966563021e-05,0
0.36,0.00166448459543637,0.000959308480737949,-0.0831772064819989,-0.0480276348695685,-0.00188539416935571,-0.00036887742655281,0.0942750696889633,0.0183660726464527,2.28684623089034,-8.65390499619987e-05,0
0.37,0.001664421847578,0.000959308405249091,-0.0831744340167265,-0.048027635126941,-0.00188534681422899,-0.00036883613319891,0.0942729798755409,0.0183642444787479,2.28684614496877,-8.46722062355333e-05,0
0.38,0.00166436829653005,0.000959308340867119,-0.0831720652615987,-0.0480276353583021,-0.00188530639983656,-0.000368800892199134,0.0942711943732306,0.0183626825228297,2.2868460716974,-8.30802145412487e-05,0
0.39,0.00166432266172396,0.00095930828596292,-0.083170044454187,-0.0480276355672454,-0.0018852719597317,-0.000368770860690522,0.0942696711512725,0.0183613499972775,2.28684600921372,-8.17226089484355e-05,0
0.4,0.0016642835461726,0.000959308239141079,-0.083168308775618,-0.0480276328473474,-0.00188524243969248,-0.000368745119733351,0.0942683609402589,0.0183602077099693,2.28684595592939,-8.05648812101757e-05,0
0.41,0.00166425048422125,0.000959308199213183,-0.0831668409637455,-0.0480276330207091,-0.00188521748814743,-0.00036872336200923,0.0942672545641538,0.0183592398099122,2.28684591049013,-7.95776036677102e-05,0
0.42,0.00166422207888277,0.000959308165163027,-0.0831655763004638,-0.0480276331809006,-0.00188519605096276,-0.00036870466911031,0.0942663013127562,0.0183584058992081,2.28684587174087,-7.87356812399776e-05,0
0.43,0.00166419786449587,0.000959308136125704,-0.0831644958598052,-0.0480276333292415,-0.00188517777663755,-0.000368688734166784,0.0942654869272072,0.0183576934607853,2.28684583869657,-7.8017713553261e-05,0
0.44,0.00166417737539926,0.000959308111363343,-0.0831635800931508,-0.0480276334670311,-0.00188516231370051,-0.000368675250486936,0.0942647966762298,0.0183570895825684,2.2868458105174,-7.74054509707803e-05,0
0.45,0.00166415991310102,0.000959308090247239,-0.0831627972652258,-0.0480276335962511,-0.00188514913505778,-0.000368663758697658,0.0942642066330475,0.0183565733641909,2.28684578648711,-7.68833307193873e-05,0
0.46,0.00166414477910921,0.000959308072239377,-0.0831621151562425,-0.0480276337188889,-0.00188513771363605,-0.000368653799556054,0.0942636925034297,0.0183561235971746,2.28684576599477,-7.64380813031601e-05,0
0.47,0.00166413197342382,0.000959308056883108,-0.0831615360611336,-0.0480276338349419,-0.00188512804932777,-0.000368645372424462,0.0942632560282529,0.0183557417388272,2.28684574851948,-7.60583851659373e-05,0
0.48,0.00166412126321423,0.000959308043787143,-0.0831610503289416,-0.0480276339450618,-0.00188511996639148,-0.000368638323928256,0.0942628899353771,0.0183554214117955,2.28684573361704,-7.57345910148547e-05,0
0.49,0.0016641119499885,0.000959308032619633,-0.083160624702087,-0.0480276340512345,-0.00188511293780332,-0.000368632195107263,0.0942625691433816,0.0183551407482992,2.28684572090884,-7.54584685007503e-05,0
0.5,0.00166410403374663,0.000959308023096569,-0.0831602606193109,-0.0480276341534356,-0.00188510696349614,-0.000368626985566204,0.0942622947435811,0.0183549006622813,2.2868457100716,-7.52229990127772e-05,0
0.51,3.00437889588696,0.0253795348068514,3.18368138460781,-1.26772145386655,-0.0995270029895874,3.002837166167,-1.39896352148756,3.12823367235233,0.0415795072267711,12.6595556990962,683.610263686146
0.52,2.98801956955079,0.027284768379521,3.53021348530189,-1.35890211013096,-0.526345652800408,2.94142238727833,-1.98894607159347,3.21762578946318,0.186199630805765,26.7930365272402,683.610263686146
0.53,2.9533602887751,0.104727459689123,4.7164344328594,-5.23059930468652,-1.14847787851849,2.72292184953596,-6.73017147812433,2.07574437749225,0.434586925944629,41.0242107415534,683.610263686146
0.54,2.92566120076944,-0.0487164255559922,5.37479176838462,2.45805781205982,-2.1108346665607,2.026386873786,-2.08324754906973,5.53086922736547,0.789157160321021,55.867359572091,683.610263686146
0.55,2.90351910529564,0.113498128820946,5.50965550026727,-5.67524554469226,-2.72564272629605,1.00706342831625,-6.99629244097121,-3.69006880756767,1.2559461029259,71.4206108775716,683.610263686146
0.56,2.80658668445224,-0.0196728189613744,9.58584807013845,0.999991934328145,-2.70587790095548,-0.745345974880974,-9.5180657423317,-1.51488996866115,1.83257553820368,85.6727967451203,683.610263686146
0.57,2.7424351342489,-0.0376487702410295,12.1477969411258,1.91556349147015,-1.58837241445349,-2.23594297075454,-8.71667809080583,-8.67512980156172,2.51020583526433,99.2928012239219,683.610263686146
0.58,2.81818012952736,0.0330331369201967,7.39957375680892,-1.64282019749717,0.389162673294277,-2.791376514251,2.73187732817158,-7.07031797358379,-2.99134858168636,114.103120358073,683.610263686146
0.59,2.69615636734429,-0.0228870922290139,12.7159952712097,1.17702954872288,2.33291408539776,-1.35177470249839,10.3491810967404,-7.48173675845831,-2.10444666415822,127.663689304461,683.610263686146
0.6,2.77281028420614,0.104054249870748,7.96925263687183,-5.19654643104765,2.53888343527321,1.11954234453673,4.89259245720682,8.15938854620894,-1.11797762782528,141.867599600166,683.610263686146
0.61,2.70158575146983,0.0378226778183284,10.6628307904634,-1.85332697783097,0.113556266995008,2.69946311360765,-1.55362836237869,10.7106031699631,-0.0280421926009123,155.239999889852,683.610263686146
0.62,2.58731579585873,-0.0293306964507316,15.3817787480217,1.48351812168031,-2.38423119422315,1.00523874266147,-13.5130585681165,7.49647861366254,1.16045648289825,169.186676266944,683.610263686146
0.63,2.64577506185932,-0.0620420577513791,11.6025649061873,3.16346796983405,-1.64342836353137,-2.07439584188441,-9.84906754629099,-6.90093547767639,2.44815350972115,182.227511908614,683.610263686146
0.64,2.58752254926449,0.133582585246008,13.4869419848272,-6.64511203915801,1.55031317990837,-2.075968760419,13.7285546416004,-6.13040827087795,-2.44856908827613,195.646236404278,683.610263686146
0.65,2.5447493503252,0.0333623307758303,14.6085129153991,-1.64835776260538,2.11253743616575,1.41917154773254,11.0814161482784,9.66063916423749,-0.966148925283475,208.945757114613,683.610263686146
0.66,2.47146912802828,0.12913186838899,17.2957275597504,-6.45069233159209,-1.31393673698693,2.09723745470718,-15.2151841712525,10.4523582991036,0.611884785801708,221.893653837354,683.610263686146
0.67,2.4825413632001,0.033680400325141,15.7488957199952,-1.61666651825322,-1.89827472071044,-1.60021844573707,-10.8438121661637,-11.5348630132951,2.28477017930442,234.538202708292,683.610263686146
0.68,2.47312079068647,0.101539415371436,15.1611640169577,-5.01143357290326,1.89011726728587,-1.5981531259887,15.0452021398248,-5.34950963888528,-2.23165614242829,247.208301189095,683.610263686146
0.69,2.37802152171495,0.0616666458120808,18.831862986235,-3.0171918681407,0.922241586245171,2.1927744046174,4.03783491948034,18.6396995540306,-0.372196571264457,259.810283447513,683.610263686146
0.7,2.45680991792723,0.10205773746194,13.7929574394063,-5.03650177232529,-2.45755111560695,0.0822998710841299,-13.7520143550034,-5.14724452573328,1.57883715236279,272.251780243983,683.610263686146
0.71,2.36423537361585,0.105713583511388,17.3083045288113,-5.21659087569422,0.995617844813199,-2.14698145559872,12.605408484933,-12.9573879680445,-2.66269653459422,284.552680609184,683.610263686146
0.72,2.26124938278509,0.00827352507573775,21.3500442224553,-0.332785778203402,1.15361458329954,1.94486262125677,10.5379137203501,18.5711472208216,-0.531716046470482,296.649830846058,683.610263686146
0.73,2.30151030267787,0.0435141780413907,18.1958371285675,-2.09141509998648,-2.29091224741425,-0.224864918718787,-17.8283652614092,-4.19665319458077,1.68754263979994,308.673276290408,683.610263686146
0.74,2.2076880846463,-0.0105087218046837,21.7149127839097,0.54076436875087,1.66933024149392,-1.44476076121865,15.9957613621986,-14.6957640753691,-2.28896515586139,320.628035313014,683.610263686146
0.75,2.15057026552574,0.0228137612321933,23.3714494606329,-1.12212774948246,-0.200496047613171,2.14132535350341,-3.54156233434133,23.1287949709675,0.103967403673754,332.35422847191,683.610263686146
0.76,2.19007659672624,0.108828502246525,20.2243500575263,-5.39381701494563,-1.25496584152134,-1.79814901469368,-6.16652522973402,-20.0022889647944,2.58191420018219,343.773030798254,683.610263686146
0.77,2.13054853169076,0.0578999591374986,22.0386648096297,-2.80675681695257,1.95978941582864,0.837743932692938,18.8490932915547,11.7597751894749,-1.13966916246307,355.046123874213,683.610263686146
0.78,2.12075282793481,-0.0337914101608523,21.3004295495043,1.70454352316428,-2.11838215078638,0.105789790735356,-21.1421639839816,3.10204282533105,1.50496648608248,366.487355357721,683.610263686146
0.79,2.02851705961184,0.123586691752006,24.6581138066894,-6.13787285355906,1.74194867086907,-1.0467903130866,24.7044530532921,-5.94861824357485,-2.05105039618652,377.565918558965,683.610263686146
0.8,2.04972317158661,0.0350881916065042,22.4066665977658,-1.65491661539401,-1.38119906273881,1.51488792008476,-16.5812902715805,15.1610774668864,0.756385848490913,388.392098628343,683.610263686146
0.81,2.06779517251432,0.0288192277119887,20.2353757361503,-1.41465713843841,0.96953990716536,-1.82663619579084,10.9753130919336,-17.0591379775341,-2.63968992572084,399.26697809757,683.610263686146
0.82,1.94844631120004,0.0416361510040268,24.9792556593441,-1.98316205554057,-0.584008687906416,1.8593306454607,-9.87165828431158,23.0314243535043,0.325704041578558,409.77136143613,683.610263686146
0.83,1.92422920722202,0.110122766969643,24.9012357924971,-5.48805411933083,0.325650393694959,-1.89966757271309,10.9500862847905,-23.0279372147374,-2.91465072016894,420.389437079357,683.610263686146
0.84,1.83533611688557,-0.0160590297244558,28.101205492279,0.909452491576366,-0.38846649176981,1.79382561559154,-4.81663168337992,27.7002691896737,0.204514733074877,430.629049433801,683.610263686146
0.85,1.94533389103361,0.0576910588607574,21.3049798068192,-2.83143357363762,0.439263494607433,-1.89596935317576,8.15997855722728,-19.8830060754527,-2.88427916636484,440.860995689383,683.610263686146
0.86,1.78324476960252,0.107402237375088,28.1435282138054,-5.37449975118258,-0.568485470983435,1.69361194439242,-15.5266377545425,24.0804266560196,0.384003046221973,450.900214198669,683.610263686146
0.87,1.67596378497368,0.0788716126252028,32.2300852435175,-3.84636634784243,0.857435155588461,-1.44217900892448,20.9651171263415,-24.779765793183,-2.55817072619668,460.65337924178,683.610263686146
0.88,1.83902508408247,0.0596699619961983,22.7654938945314,-2.92826467633393,-1.34809076841368,1.25228792390847,-19.095413187722,12.7360763764507,0.854658529692122,470.430622456701,683.610263686146
0.89,1.72932969397392,0.105144263394459,26.9572674553661,-5.25606516837781,1.57115740579823,-0.730137598532006,27.0125963404161,-4.96388241844164,-1.94509233519659,480.032559649162,683.610263686146
0.9,1.60747726827931,0.0765501230531479,31.7529055299593,-3.80237660695477,-1.60921479471195,0.0164570305443412,-31.5887297756169,-4.98570241978917,1.60815526690491,489.447390583844,683.610263686146
0.91,1.58134024793352,0.13588439408643,31.7453119939883,-6.69361140820834,1.44139754309819,0.664435603381677,24.2738066861097,21.5256028079385,-1.05314106726161,498.679561709944,683.610263686146
0.92,1.55642551098221,0.0991511862421314,31.6593716976368,-4.87320481947406,-0.439662676269395,1.49632485111525,-15.4169422722209,28.0781379809396,0.349403619908271,507.856953500822,683.610263686146
0.93,1.66877323357067,0.0722395518147522,24.7166915869167,-3.54585866625346,1.32956788609343,-1.01107462345633,22.325117676418,-11.1837863632087,-2.17769220280601,516.878322200183,683.610263686146
0.94,1.48651627334289,0.0590696876915652,32.5073228889994,-2.91407145884092,-1.48686847256593,-0.0494166389656843,-32.2085277919672,-5.27528116321479,1.6437355760624,525.725366963891,683.610263686146
0.95,1.44903112136885,0.0399771550106194,33.0588563412784,-1.97262180988223,1.02099977856631,1.02900379775089,21.1905749643138,25.4507122116436,-0.753911900571832,534.409253262985,683.610263686146
0.96,1.43299799514223,-0.00329316764420118,32.5496654083154,0.187772327790137,0.0790537398109759,-1.43081955719674,1.53344959132309,-32.5140663250729,-3.08869619290812,542.880789054993,683.610263686146
0.97,1.46114063350537,-0.0271515551095626,29.8247753206337,1.38513765560942,-1.18012568723582,0.861958537373771,-22.9159341584475,19.138855527355,0.921380285586768,551.241076395858,683.610263686146
0.98,1.36475519308772,-0.0300582617619096,33.3230780096704,1.53563724277319,1.30339752744531,0.405727891091421,32.4515906595652,7.72528144755831,-1.29103998492557,559.447073135692,683.610263686146
