t,iq,id,vq,vd,ia,ib,va,vb,theta_e,omega,r
0,0,0,0,0,0,0,0,0,0,0,0
0.01,0.000477388109516979,0.000270416982363276,-0.0233335675815308,-0.0135292228538508,-2.30456871601919e-05,-0.000548173008968857,0.00140401932801404,0.0269355522838791,-2.66822305019966,-0.00113523133492803,0
0.02,0.00057392240546593,0.000323452068756191,-0.0281030051438887,-0.0161826215835763,-2.62460115391309e-05,-0.000658269940948808,0.00159160640601506,0.0323901671573797,-2.66823208425867,-0.00130941193320464,0
0.03,0.000610571384893273,0.000343814278108318,-0.0299123852311986,-0.0172013708744051,-2.76683989991968e-05,-0.000700171502975131,0.00167380578686634,0.0344650014415539,-2.66824167221723,-0.00133240413457127,0
0.04,0.000599290693519853,0.000337626095563477,-0.0293908134610096,-0.0168917589393535,-2.73094578373639e-05,-0.000687309907725455,0.00163631602460846,0.0338596205801645,-2.66825080891673,-0.00124065714906595,0
0.05,0.0006136457336927,0.000346101325862719,-0.0301144115086809,-0.0173157819842273,-2.83151258231073e-05,-0.000703949904391503,0.00168416277744338,0.0346969405276393,-2.66825965282965,-0.00121402125743778,0
0.06,0.000615500198863786,0.000347469265552477,-0.0302294430262827,-0.0173842332583847,-2.86933092333615e-05,-0.00070622381672539,0.00169294683773035,0.034830514246359,-2.6682681647043,-0.00115896174298907,0
0.07,0.000625769098223377,0.000353765784521397,-0.0307519289899116,-0.0176992441660821,-2.96222600191053e-05,-0.000718233747675991,0.00173543390685918,0.0354391400827684,-2.66827615698488,-0.00112823956683666,0
0.08,0.00061647375491464,0.000348704830128869,-0.0303228563755005,-0.0174460417891954,-2.93603956534612e-05,-0.000707653104438065,0.00170592857950443,0.0349418059144231,-2.66828392943652,-0.00105093223221884,0
0.09,0.000614387229074914,0.000347885645637841,-0.0302427930325414,-0.0174050527467849,-2.95875279330589e-05,-0.000705422332990683,0.00170619572114494,0.0348518476940412,-2.66829123110789,-0.000994655129880219,0
0.1,0.000613554230348642,0.000347751973013633,-0.030222522176286,-0.0173983720973067,-2.98531252182583e-05,-0.000704619769257358,0.00170973030483004,0.0348307482063935,-2.66829814479652,-0.000944179280948716,0
0.11,0.000612959303949675,0.000347729140876168,-0.0302127750363037,-0.0173972334732018,-3.01085986960772e-05,-0.000704079637539325,0.00171338807821182,0.0348215423151938,-2.66830470045175,-0.000896796906929009,0
0.12,0.000612428290084663,0.000347724282748017,-0.0302051455165948,-0.0173969882681209,-3.03506936691858e-05,-0.000703604592581974,0.00171686394789847,0.0348146290324083,-2.66831091820743,-0.000851938462299708,0
0.13,0.000636736353051123,0.000361821490504124,-0.0314044255336713,-0.0181022822826632,-3.18228960890492e-05,-0.000731666097049724,0.00179820680045859,0.0362035498155072,-2.66831700072482,-0.00086912758434438,0
0.14,0.000651563525499519,0.000370646840528092,-0.0321950524972135,-0.0185438183323649,-3.2924262556529e-05,-0.000748885906590535,0.00183105546333655,0.0371085143805606,-2.66832286018933,-0.000864557493170439,0
0.15,0.000617784592209552,0.000351424323728963,-0.0305168097564368,-0.0175821032137012,-3.12150245817819e-05,-0.00071005808207515,0.0017401883870332,0.0351763809324585,-2.66832847070695,-0.000742167435054236,0
0.16,0.000611687234402599,0.00034831714680623,-0.0302352074488986,-0.017426648663737,-3.12320629885886e-05,-0.000703214523265703,0.0017303492627511,0.0348548668704409,-2.66833352029516,-0.000691798970039247,0
0.17,0.000610321800748646,0.000347814155182572,-0.0301827054528141,-0.0174014796751217,-3.14100355652702e-05,-0.000701769760448699,0.00173204157364915,0.0347966555192041,-2.66833826355096,-0.00065521597496759,0
0.18,0.000609778926331326,0.000347732029247891,-0.030169446142366,-0.0173973792963906,-3.15875197506178e-05,-0.00070124897986282,0.0017345914838663,0.0347829768608683,-2.66834275468626,-0.000622422624577599,0
0.19,0.000609392275642752,0.000347717955893195,-0.0301630996487321,-0.0173966659523583,-3.17542061697781e-05,-0.000700898275682086,0.00173699725529655,0.0347769953735566,-2.66834701322915,-0.000591642392985867,0
0.2,0.000609047310845237,0.000347714920513495,-0.030158136844846,-0.0173965170986437,-3.19115613377844e-05,-0.000700589712348466,0.00173926714400812,0.0347725031442609,-2.66835105227057,-0.000562502314561922,0
0.21,0.000608723766551598,0.000347713707807885,-0.030153606327381,-0.0173964569957936,-3.20606278698457e-05,-0.000700301051479193,0.00174141173784055,0.0347684364864525,-2.66835488330238,-0.000534872074538928,0
0.22,0.000608417568152632,0.00034771282665155,-0.0301493416758727,-0.017396409988293,-3.22019435203899e-05,-0.000700027986503599,0.00174343992581441,0.0347646127721045,-2.66835851706743,-0.000508666120794195,0
0.23,0.000608127318656057,0.000347712034198878,-0.0301453047398201,-0.0173963673463293,-3.23359362747604e-05,-0.000699769163115782,0.00174536168333034,0.0347609940493567,-2.66836196372844,-0.000483809786620301,0
0.24,0.000607851804395289,0.000347711289413911,-0.0301414642789771,-0.0173963377412008,-3.24631297814511e-05,-0.000699523482162883,0.00174719930585874,0.0347575564485248,-2.6683652329203,-0.000460233353495767,0
0.25,0.000607590716934752,0.000347710583963345,-0.0301378327660209,-0.0173962950912008,-3.25836638451124e-05,-0.00069929066514279,0.00174892421465228,0.0347542991703787,-2.6683683337813,-0.000437870880649544,0
0.26,0.000612178380977229,0.000350484768773368,-0.030369274051832,-0.0175350949413695,-3.29641477351233e-05,-0.00070463842376223,0.00176709046850071,0.0350235599606073,-2.66837122889607,-0.000428877183459468,0
0.27,0.000600269144242361,0.00034370061873864,-0.02979891344027,-0.0171956813013158,-3.23552591828356e-05,-0.000690945944379147,0.00172502197986674,0.0343611844499881,-2.66837413614558,-0.000379218492646367,0
0.28,0.000599744138526297,0.000343540009968791,-0.0297302038686155,-0.0171876472921353,-3.24534009641962e-05,-0.000690405349712663,0.00174927626453394,0.0342963594869576,-2.66837678306301,-0.000359386643471452,0
0.29,0.000605457702974153,0.000347034474985856,-0.0300659826423829,-0.0173624772966328,-3.29615926815295e-05,-0.000697083560505728,0.00175194705203869,0.034674913289798,-2.66837923092965,-0.000356295093953249,0
0.3,0.000597975133328667,0.00034302792446971,-0.0297082090215792,-0.017162020632007,-3.28068966604594e-05,-0.00068859721505169,0.00173664325905697,0.0342650945662499,-2.66838125685115,-0.000323698383327109,0
0.31,0.000604864234589801,0.000346950925989629,-0.0300494961791662,-0.0173582892908843,-3.31606453034706e-05,-0.000696517091630941,0.00175587963714243,0.0346583224410476,-2.66838346299059,-0.000325191560200357,0
0.32,0.000605887789163909,0.000347584451494075,-0.0301055228707461,-0.0173899943173334,-3.32595731600447e-05,-0.000697716822766642,0.00175864137942799,0.0347226380071628,-2.66838561332287,-0.000312647754390012,0
0.33,0.000605920432721979,0.000347686437891176,-0.0301130911012911,-0.0173950914800633,-3.33369054137534e-05,-0.000697792290456752,0.00175980043247696,0.0347316939654875,-2.66838766277543,-0.000298372443120454,0
0.34,0.000605791436904345,0.000347702550582767,-0.0301124986549962,-0.0173959054449449,-3.34113936716473e-05,-0.0006976847479208,0.00176086252862079,0.0347315341534449,-2.66838960837735,-0.000284427302803583,0
0.35,0.000605642000605528,0.000347704805473527,-0.0301106205274038,-0.0173960109934006,-3.34827923107165e-05,-0.000697552698558272,0.00176187651724228,0.034729907258238,-2.66839145408532,-0.000271131250716828,0
0.36,0.000605495425039028,0.000347704838945931,-0.0301086031729545,-0.0173960174893525,-3.3550843159367e-05,-0.000697422186120362,0.0017628624838013,0.0347281114571396,-2.6683932048065,-0.000258508071625733,0
0.37,0.000605355883872872,0.000347704530452656,-0.0301066643241162,-0.0173959920766599,-3.3615320488102e-05,-0.000697297782059638,0.00176378113382813,0.0347263711488571,-2.66839486539099,-0.000246532861417593,0
0.38,0.000605223219912162,0.000347704182830642,-0.0301048092574679,-0.0173959796280043,-3.36765687910656e-05,-0.000697179484346198,0.00176467016618469,0.0347247114725385,-2.6683964404732,-0.000235173915203644,0
0.39,0.000605097308036043,0.000347703844189092,-0.0301030449463666,-0.0173959642524615,-3.37346910400674e-05,-0.000697067203414972,0.00176551241174962,0.0347231313858621,-2.66839793445472,-0.000224399784042041,0
0.4,0.000604977973627427,0.000347703521517061,-0.0301013753434278,-0.0173959503155691,-3.37897759988509e-05,-0.000696960786908174,0.00176631010074607,0.0347216363896587,-2.66839935151076,-0.000214180403875116,0
0.41,0.000604864751023063,0.000347703215199198,-0.0300997892112889,-0.0173959363632587,-3.38420390364081e-05,-0.000696859820397123,0.00176706719832739,0.0347202158120477,-2.66840069560266,-0.000204487218724869,0
0.42,0.000604757290976985,0.000347702924590727,-0.0300982805415326,-0.0173959223963197,-3.38916414018161e-05,-0.000696763992612891,0.00176778657444312,0.034718864298862,-2.66840197048713,-0.000195293136163913,0
0.43,0.000604655477071837,0.00034770264891641,-0.0300968543406088,-0.0173959069596011,-3.39386379817704e-05,-0.000696673199476197,0.00176846477651872,0.0347175856372694,-2.66840317972768,-0.000186572457598631,0
0.44,0.000604558901858049,0.000347702387415136,-0.03009550053997,-0.0173958929644527,-3.39832161749386e-05,-0.00069658707786493,0.00176910910236332,0.0347163721861309,-2.66840432670422,-0.000178300807460773,0
0.45,0.000604467274295294,0.000347702139359633,-0.0300942143450045,-0.017395878956392,-3.40255102337288e-05,-0.000696505368294159,0.00176972055409169,0.034715219009376,-2.66840541462287,-0.000170455065247911,0
0.46,0.000604380361552931,0.000347701904059885,-0.0300929933705921,-0.0173958649358745,-3.4065627797315e-05,-0.000696427863113256,0.00177030032503327,0.0347141239789927,-2.66840644652461,-0.000163013300928488,0
0.47,0.000604297764880228,0.000347701680860739,-0.0300918264346619,-0.0173958638557549,-3.41037520370588e-05,-0.000696354207002167,0.00177086514121112,0.0347130830395893,-2.66840742529344,-0.000155954713648886,0
0.48,0.000604219641494498,0.00034770146914043,-0.0300907297662073,-0.0173958498096453,-3.41398126801744e-05,-0.000696284539538482,0.00177138464216649,0.0347120988260887,-2.66840835366556,-0.000149259573592941,0
0.49,0.000604145534437227,0.000347701268309719,-0.0300896883847934,-0.0173958357524555,-3.4174019276296e-05,-0.00069621845362726,0.0017718772766321,0.0347111639035186,-2.66840923423546,-0.000142909166834154,0
0.5,0.000604075210877774,0.000347701077808475,-0.0300886981746128,-0.0173958216850279,-3.4206479165428e-05,-0.000696155741690972,0.00177234500673016,0.0347102746044648,-2.66841006946485,-0.000136885743027879,0
0.51,1.8817814805989,-0.0223514827458469,2.43467808391955,1.11929643660642,-0.0697181441425409,1.88062237301465,1.05764880064991,2.46208466544142,0.0251776050751767,7.72498448041472,210.884254444806
0.52,1.83947455403031,-0.0406964040558765,1.12605634554892,2.03811300184086,-0.247441658375598,1.82321020673109,1.89844678120045,1.34826085034514,0.112773066696219,16.1205161992702,210.884254444806
0.53,1.75415233144711,0.00521270867773566,2.07864381857954,-0.258171636196989,-0.447430337311567,1.69613786807156,-0.785601423901096,1.94171138973333,0.260889798151725,24.2447387513747,210.884254444806
0.54,1.72163470049153,0.0386222024256461,0.488084575935107,-1.92893206867049,-0.741532411912124,1.5542353099002,-1.94187089255484,-0.433754441429058,0.467593574074727,32.1217342824151,210.884254444806
0.55,1.6611221520739,0.00280711795037064,0.336725264202137,-0.135962873075145,-1.10755370786905,1.23800624724083,-0.326112466274234,0.15975126211515,0.73152849310516,39.8766295101977,210.884254444806
0.56,1.60830715140812,-0.00711847031987123,-0.214318452221093,0.361541155988121,-1.40041226396288,0.790915960663676,0.3653294967152,0.207795007797325,1.05225533707536,47.6350338122988,210.884254444806
0.57,1.50266451601107,-0.0335347804392285,1.79258716027294,1.68220406501984,-1.49255851247236,0.177184412475201,-1.53940389392503,1.91661547914889,1.43032426359328,55.5215037887749,210.884254444806
0.58,1.47546365393849,-0.000584910736476152,0.0335144354455022,0.0330756833028885,-1.41187429515406,-0.42849073606943,-0.041666878310169,0.0219337516414607,1.86505610022027,62.9493590734913,210.884254444806
0.59,1.38474508318524,-0.0147116270916222,1.79924628852768,0.740547676025412,-0.973574401398898,-0.984829052332513,-1.79953506123411,-0.739845680285038,2.35131760779848,69.6019774233564,210.884254444806
0.6,1.35696613164437,0.0262162560494273,0.663144870646152,-1.30586358358698,-0.37072406083251,-1.3056063898553,1.0940774822177,-0.973671033412775,2.88424427637796,75.7389157201569,210.884254444806
0.61,1.30047353591277,0.0361432855787047,1.02979090217025,-1.80122960562839,0.374513310688973,-1.2459043040373,2.0336417050439,-0.411337829394479,-2.82180430569485,81.7316129250318,210.884254444806
0.62,1.25749115477338,-0.0344497004711461,0.612189329697355,1.73102359390736,1.03689690504214,-0.712260903398374,-0.52388952318954,-1.75976084328283,-2.20007562061597,87.9552101609745,210.884254444806
0.63,1.15525009658714,-0.0175192688049016,3.14697545488183,0.880477262764082,1.15372942446252,0.0617909829460181,3.17841408285958,-0.759196049616383,-1.53245359598164,94.0519111972058,210.884254444806
0.64,1.1665221754608,-0.011211322137233,0.355738183221504,0.566861239974356,0.847724148993909,0.801413405676755,0.646288589391491,-0.17375954537624,-0.823083179685258,99.3946122666401,210.884254444806
0.65,1.08690979808722,0.0100714999649713,2.24148454170862,-0.496025390780276,0.0924321293545149,1.08301922686189,-0.324689952821842,2.27263516067889,-0.0758744756886242,104.473808303371,210.884254444806
0.66,1.06919993309671,0.0220727156833231,0.911061721269812,-1.09912415717428,-0.679632413337119,0.825696968901551,-1.42741191851139,-0.0245476625938814,0.709310562415915,109.822891028609,210.884254444806
0.67,1.00087514571173,0.0136643887983941,2.18499762323592,-0.679365469055798,-0.999662330604791,0.0511174881474817,-2.20889509106904,-0.59710512537001,1.53335766343447,114.868435425967,210.884254444806
0.68,0.960628802679338,-0.012230366200806,2.3278202857492,0.619243299557964,-0.645587980870099,-0.711458668757795,-2.0393485086972,-1.28189984275974,2.3919652220094,119.360692033412,210.884254444806
0.69,0.958169093253817,0.00385442581773865,0.566786846862374,-0.184011992069688,0.13156728038613,-0.949101110839632,0.262249219886397,-0.535101008848445,-2.99982478068883,123.910644883593,210.884254444806
0.7,0.883943263101165,-0.0418535301123562,2.34466000923999,2.09787549491551,0.794402476593139,-0.389912958937618,1.04119294863526,-2.96891047268328,-2.07439072581203,128.457672673135,210.884254444806
0.71,0.841551303834641,-0.00283591511795833,2.79444403458642,0.149009184780819,0.755501391650339,0.370721305854873,2.57801784328271,1.088551881768,-1.11798965483257,132.444709958506,210.884254444806
0.72,0.819473061180894,0.00643037668203511,2.20018337384242,-0.314267037059703,0.114539375897968,0.811454360462967,-0.0211070854201718,2.222414259327,-0.132379984944129,136.530752453578,210.884254444806
0.73,0.789801690496519,0.0358988647874095,1.98663271219907,-1.79243848314227,-0.587653572914621,0.528903315403547,-2.67282181299839,-0.12477501748661,0.883388776992334,140.497713232641,210.884254444806
0.74,0.760041200904992,-0.041118492097334,1.99153073620581,2.06541947345299,-0.698213000384043,-0.303070888671568,-2.58586534718407,1.24316237105372,1.92627361067081,144.034466202631,210.884254444806
0.75,0.712337789250807,-0.00462456687069024,2.81332987606936,0.233401858681024,-0.0990999912869606,-0.705425902799432,-0.640375242546866,-2.74940374771572,2.9955315160306,147.749280833642,210.884254444806
0.76,0.72945161849401,0.00131541857072786,0.527399941590757,-0.060330810976762,0.592381430860862,-0.425659058896654,0.463967120333967,-0.257924439307433,-2.19206423936187,151.091200678502,210.884254444806
0.77,0.681525525947174,-0.0494075520304556,1.5760630934518,2.48093395662041,0.575178412065993,0.368900993504297,2.56957765084081,-1.42698243435316,-1.07288221581536,154.315738050817,210.884254444806
0.78,0.658597015471669,-0.00127992578299868,1.30484368845997,0.066875054558552,-0.0477974123003946,0.656861533639766,-0.0254609768195192,1.30630818067385,0.0706949090758606,157.610397382338,210.884254444806
0.79,0.588592821301391,0.0356544304462165,3.58370961448572,-1.77639248746221,-0.544335170660703,0.226742077435482,-3.96810893055963,-0.502649366539393,1.23660755891149,160.498065687877,210.884254444806
0.8,0.64701193353248,0.00276014199900113,-0.620458940589262,-0.13628299896097,-0.427479891644504,-0.485688174405035,0.510626942936683,0.377892151162316,2.42411755426258,163.51282597629,210.884254444806
0.81,0.573957045342691,0.0328729594181233,1.86730608285787,-1.638732681267,0.241773149689609,-0.521587064111624,2.32581532535344,-0.87341850225514,-2.65032957582245,166.213398580251,210.884254444806
0.82,0.552605222802345,-0.0274540823796051,1.78239725692194,1.37562221709065,0.542443042478933,0.109003690643637,1.96649462828608,-1.09643756892869,-1.42212826641266,168.94850161856,210.884254444806
0.83,0.527753722762583,-0.0135271727230594,1.9036111491027,0.681060636482212,0.0780013432990645,0.522132901410346,1.00019413982742,1.75704031832185,-0.173919136920993,171.517688847709,210.884254444806
0.84,0.472012057663738,-0.0392253061330926,3.65242639213773,1.97035588925114,-0.437046876819624,0.182548718657247,-2.33471660667986,3.43097934222638,1.09222445543698,173.962832807365,210.884254444806
0.85,0.449097501427091,-0.014880051123831,3.7500701644937,0.746770221929578,-0.300316921896952,-0.334245012127098,-3.13599497076222,-2.18774485403134,2.37648946295216,176.367939047795,210.884254444806
0.86,0.460708802025721,-0.014648016446858,2.23123328079288,0.740829808224206,0.247748895153695,-0.388699948031802,0.50179430264248,-2.29683112916619,-2.60592541271418,178.561254684257,210.884254444806
0.87,0.438787790065866,-0.0129622711882362,2.34239056147659,0.649974586985087,0.417818922947325,0.134648033080254,2.43073493573734,0.0280745152588127,-1.28857346034921,180.804696099243,210.884254444806
0.88,0.457865217781178,0.0145257892404251,0.531496501762556,-0.718891502717469,-0.00566698803665398,0.458060521605448,-0.741616704898578,0.499297693846658,0.0440854664667324,182.809139765632,210.884254444806
0.89,0.426064237548373,-0.0308301733763604,1.20105669642253,1.54349426266664,-0.424753284337405,0.0454519697337762,-0.907336887349597,1.73252748889043,1.39195956254416,184.906754153682,210.884254444806
0.9,0.366579775900973,-0.0235937592002303,3.36859441281128,1.18759945797808,-0.116659944632992,-0.348321482098123,-2.37232450143598,-2.6701867444993,2.7541412692452,186.755095172204,210.884254444806
0.91,0.402750422362138,0.00969868582766756,0.720052715378496,-0.484784625048313,0.331079313102314,-0.229539660310293,0.867992147316,0.00903757738210875,-2.15293984057818,188.669428241327,210.884254444806
0.92,0.373398849486145,-0.00360211303537647,1.447416103103,0.187483600719975,0.255660238483952,0.272171854669481,1.13651380516296,0.915696372568342,-0.76377293789756,190.358369658003,210.884254444806
0.93,0.373676933331155,-0.0323915092757483,0.667643820106615,1.62104895872902,-0.248587340925524,0.280870066593994,0.904478060685181,1.50182137248814,0.638033277401319,192.092713224068,210.884254444806
0.94,0.334321062337396,-0.00613306087070375,1.94853871126141,0.313970354546471,-0.293540189593676,-0.160132271111595,-1.87267239916439,-0.623280497229128,2.05185132259922,193.659943721173,210.884254444806
0.95,0.303244752128307,0.00912868372669544,2.77765354221432,-0.456936044369495,0.0913326721350869,-0.289307890595132,1.34693258729915,-2.47182571280651,-2.80570662895617,195.281184422328,210.884254444806
0.96,0.287987989295147,0.0510348426020047,2.90457508164519,-2.54676939414462,0.292373193141721,0.00771706354691066,2.33524046139356,3.07721346990037,-1.36901704590514,196.719127131889,210.884254444806
