t,iq,id,vq,vd,ia,ib,va,vb,theta_e,omega,r
0,0,0,0,0,0,0,0,0,0,0,0
0.01,0.000543941445908585,0.000234566018088041,-0.0231242279645947,-0.0117315784389851,0.000498408425626913,0.000320128965704298,-0.022647996613539,-0.0126264841116491,-0.592712430633907,-0.00909018739791555,0
0.02,0.000752077004993772,0.000314322271257053,-0.0344202879951006,-0.015720506901395,0.000680855530303212,0.000448167444716957,-0.0322678778025513,-0.0197654907609726,-0.592774449829906,-0.00709694741406326,0
0.03,0.000763149101581376,0.00035025710842348,-0.0367321695238788,-0.0175177377181827,0.000716860931560224,0.000437249354542974,-0.0350507973008798,-0.0206776454478417,-0.592810314086082,-0.00302404895417331,0
0.04,0.000673486317608176,0.000352742536182787,-0.0337946250651301,-0.0176420407195398,0.000668830685991942,0.000361492227182874,-0.0335128264536459,-0.0181716467919237,-0.592817139915469,0.000203261212660403,0
0.05,0.000633506971973061,0.000362581856374125,-0.0320470667300647,-0.0181341567269679,0.00065465299684829,0.000322840734461648,-0.032944526912126,-0.0164475005011601,-0.592811940568181,0.000638164465341391,0
0.06,0.00062237403937726,0.000365738295737104,-0.031367862968766,-0.0182920228789294,0.000651049362013853,0.000311847196685819,-0.0326959086785563,-0.0157961540861712,-0.592806866673198,0.000317566043686828,0
0.07,0.00063143842810286,0.000370308764992313,-0.0315371471831085,-0.0185206104272998,0.000659903212882226,0.00031681354065579,-0.0329800223703804,-0.0158089464385853,-0.592803774802631,-0.000301274556034599,0
0.08,0.000637880486858689,0.000368216321272483,-0.0318325246285485,-0.0184159605476986,0.000661767246959132,0.000323324737096699,-0.0330582698186052,-0.0161123562436359,-0.592804872818686,-0.000339653031575928,0
0.09,0.000639144365633746,0.00036754511796195,-0.031925456104183,-0.018382389065357,0.000661916966297462,0.000324747384264434,-0.0330823604241038,-0.0162081585622785,-0.592805747448737,-0.000266882808634312,0
0.1,0.000638049990087496,0.000367329836547955,-0.0319019379674176,-0.0183716109488147,0.000661127102450107,0.000323959801634287,-0.0330602870747388,-0.016194664351799,-0.592806063578571,-0.000199127187035439,0
0.11,0.000636811501185469,0.000367260827130345,-0.0318542886062602,-0.0183681595908428,0.000660377923294267,0.00032297120864267,-0.0330308027346998,-0.0161570746135226,-0.592806025187051,-0.000170710218917475,0
0.12,0.000636216616875667,0.000367238728783874,-0.0318254449887403,-0.0183670666600768,0.000660027197239722,0.000322490257855012,-0.0330137795276362,-0.0161337673135468,-0.592805894900148,-0.000170689661964708,0
0.13,0.00066136314015134,0.000378727455013652,-0.0328236932040781,-0.0189416534474776,0.000683605256975186,0.000336926610655568,-0.0340480626806749,-0.0166406279500689,-0.592807266318416,-0.000675558927483316,0
0.14,0.00067360210150464,0.000385321296727736,-0.0337234748935179,-0.0192714355157253,0.000695912473203933,0.000343392082760503,-0.0348243083807351,-0.0172025733985922,-0.592809134264573,-0.000775047612988209,0
0.15,0.000649874271831793,0.000373029663068049,-0.0325564614169535,-0.0186566825982822,0.000672461883314354,0.000330579361435159,-0.0336624632788194,-0.016578104583117,-0.59281019678453,-1.15951338268235e-05,0
0.16,0.000634818301903353,0.000369088434951001,-0.0318906876282261,-0.0184595658192202,0.000660780779286781,0.000320295661805137,-0.0331269820732278,-0.0161361267457608,-0.592808094899533,0.000134667833701834,0
0.17,0.000630918652558706,0.000367824890759105,-0.0316439930913137,-0.0183963730047947,0.000657553506373936,0.000317768599241308,-0.0329367142036426,-0.0159668937480718,-0.59280615255396,2.26320766268106e-06,0
0.18,0.000632755601055897,0.000367419776649193,-0.0316685838008231,-0.0183761149346607,0.000658243541519313,0.000319518986898533,-0.032933638288358,-0.0159986333520465,-0.592805342971492,-0.000145439788607459,0
0.19,0.000635402411408638,0.000367289808016437,-0.0317661433041881,-0.0183696145346811,0.000659614495843813,0.00032178679955737,-0.0329827525705352,-0.0160831785243414,-0.592805346229881,-0.000215768060107068,0
0.2,0.000636833851511153,0.00036724805767396,-0.0318326663533239,-0.018367529428821,0.000660379684579133,0.000322997155546284,-0.0330181932036919,-0.0161395074907606,-0.592805607395934,-0.000222204069694453,0
0.21,0.000637079719808248,0.000367234631572498,-0.0318522069957575,-0.0183668623538831,0.000660505977509152,0.00032320844310108,-0.0330285603121783,-0.0161560801846201,-0.59280580551425,-0.0002046404617092,0
0.22,0.000636809810604696,0.000367230320112686,-0.031845835432023,-0.0183666465210993,0.000660351627879945,0.000322986950895483,-0.0330248226671116,-0.0161509141103632,-0.592805873146369,-0.000189190425193633,0
0.23,0.000636525407883718,0.000367228944840312,-0.0318347162302199,-0.018366577683904,0.000660191590422239,0.000322751850104407,-0.0330185531951753,-0.0161417309534909,-0.592805861417976,-0.000183020594061092,0
0.24,0.000636394789864667,0.000367228511280731,-0.0318282578274563,-0.0183665563622968,0.000660118245955666,0.000322643781004331,-0.0330149267713222,-0.0161363874279435,-0.592805830864767,-0.000183252284777123,0
0.25,0.000636386058706136,0.000367228375588576,-0.0318268698125218,-0.0183665491958373,0.000660113249094229,0.000322636628303754,-0.0330141450416752,-0.0161352408904718,-0.592805811313619,-0.000185400373936783,0
0.26,0.000639385847875659,0.00036901454260127,-0.0319165535017786,-0.0184558769845449,0.000663270480565131,0.000324126926875568,-0.0331383305070157,-0.0161597287696404,-0.592805421575544,-0.000313030516842126,0
0.27,0.000636238441916562,0.000365400287322643,-0.0318665765311791,-0.0182751166987229,0.000658514879195426,0.000323534973111282,-0.0329605106524688,-0.0162192270992771,-0.592806662447421,-7.77733689130751e-05,0
0.28,0.000633634440443573,0.000365039070574948,-0.0314171313918914,-0.0182570476856474,0.00065676039454151,0.000321577224510913,-0.0326944203415677,-0.0158565700458913,-0.592806450961834,-3.39554007869802e-05,0
0.29,0.000633623361269265,0.000366526307461015,-0.0317178702891181,-0.0183314348486406,0.000657987434626735,0.00032073764026147,-0.0329241228768476,-0.0160644617736641,-0.592805675640206,-0.000128106588449779,0
0.3,0.000618574426571287,0.000361267809079083,-0.0310077652584915,-0.0180684376479909,0.000645217552131374,0.000311196178489382,-0.0323092245132248,-0.0156225464223691,-0.592802732856992,-8.44643450982838e-05,0
0.31,0.000633013209193611,0.0003653172694667,-0.031573442930604,-0.0182709622131509,0.000656643063868672,0.000320908580529351,-0.0327932414465501,-0.0159785379216862,-0.592803378547666,-0.000391618140576778,0
0.32,0.000639542969466395,0.000366615529570441,-0.0318967004276346,-0.0183359007581626,0.000661368421077585,0.000325597862274081,-0.0330277255286915,-0.0162103084851853,-0.592804940884997,-0.000375786172390514,0
0.33,0.000639909064666331,0.000367031707928086,-0.0319624550015296,-0.018356714720129,0.000661918444156117,0.00032566832660345,-0.0330817405524387,-0.0162531826748529,-0.592805925972347,-0.000265570158369932,0
0.34,0.000638101900590505,0.000367165168918991,-0.031909297156069,-0.0183633792199058,0.000661019570013155,0.000324094777594687,-0.0330575732370913,-0.0162053630950598,-0.592806177972924,-0.000186580799093408,0
0.35,0.000636606723191369,0.000367208018078142,-0.0318477291022041,-0.0183655200151078,0.0006602197269555,0.000322830854616058,-0.0330249492886545,-0.0161531080252223,-0.592806055384024,-0.00016156207281421,0
0.36,0.000636043855442944,0.000367221798696555,-0.0318177423711749,-0.0183662223666547,0.0006599166313209,0.000322356441211795,-0.0330087756944373,-0.0161278510897822,-0.592805881381157,-0.000167722377690098,0
0.37,0.000636092517331592,0.000367226232352565,-0.0318145390613057,-0.0183664419845559,0.000659947465267648,0.000322394384907536,-0.0330071666739992,-0.0161250747288265,-0.592805787861452,-0.000180414152658301,0
0.38,0.000636309399169816,0.000367227652593021,-0.0318216580089989,-0.018366514110491,0.000660069807885053,0.00032257347848114,-0.0330112035268457,-0.0161309392386718,-0.592805772144337,-0.000188124226858503,0
0.39,0.000636459225718811,0.000367228102261893,-0.0318280936626138,-0.0183665369851381,0.00066015389323868,0.000322697478042939,-0.0330148183243174,-0.0161362634471205,-0.59280579004113,-0.000189948417938177,0
0.4,0.000636504278457675,0.000367228242565841,-0.0318307155931283,-0.0183665441941852,0.000660179186156059,0.00032273475300817,-0.0330162894517193,-0.0161384333703079,-0.592805808711368,-0.000188875949839163,0
0.41,0.000636490657866932,0.000367228286436736,-0.0318306375511176,-0.0183665457730638,0.000660171615599227,0.000322723426277436,-0.0330162472973831,-0.0161383674807183,-0.592805817230992,-0.0001874752394979,0
0.42,0.000636465919612978,0.000367228300895454,-0.0318297265147345,-0.0183665473881615,0.000660157806740062,0.000322702900525401,-0.0330157396582992,-0.0161376109687829,-0.592805817762681,-0.000186749770995916,0
0.43,0.000636451425905441,0.000367228306188603,-0.0318290417166092,-0.0183665475150254,0.000660149712888924,0.000322690878358671,-0.0330153571360743,-0.0161370430189921,-0.592805815446632,-0.000186644106619583,0
0.44,0.000636448224484097,0.000367228308261875,-0.0318287919984201,-0.0183665476053995,0.000660147925380848,0.000322688223294872,-0.0330152176646667,-0.016136835922038,-0.592805813511139,-0.000186795333948058,0
0.45,0.000636450494582868,0.00036722830900354,-0.0318288084443836,-0.0183665476780929,0.000660149194040844,0.000322690106132186,-0.0330152269012917,-0.0161368495455945,-0.592805812775839,-0.000186944418490398,0
0.46,0.000636453172135265,0.000367228309179844,-0.0318288810037847,-0.0183665477494716,0.000660150690128364,0.000322692326693977,-0.0330152674996629,-0.0161369096828486,-0.592805812833984,-0.000187009786007717,0
0.47,0.000636454510911463,0.000367228309164511,-0.0318289162209041,-0.0183665478251845,0.000660151438167294,0.000322693436866989,-0.0330152872424397,-0.0161369388395482,-0.592805813114059,-0.000187011997629499,0
0.48,0.000636454685534445,0.000367228309124754,-0.031828904428005,-0.0183665479046635,0.000660151535757546,0.000322693581588367,-0.0330152807229329,-0.0161369290079404,-0.59280581330948,-0.000186992797686484,0
0.49,0.00063645433628848,0.000367228309107779,-0.0318288654843835,-0.0183665479858366,0.000660151340642571,0.000322693291901745,-0.0330152590338045,-0.0161368966616822,-0.592805813369705,-0.000186977449615726,0
0.5,0.000636454103457837,0.000367228309110676,-0.0318288280421773,-0.0183665480666334,0.000660151210559605,0.000322693098806425,-0.0330152381819608,-0.0161368655633876,-0.592805813353752,-0.000186971880388008,0
0.51,3.08747162420895,-0.0128359022060218,4.19656996293752,0.663842891899544,-0.973995286189386,2.92984282396885,-0.676489844024904,4.19454983638127,0.316788436673156,94.0668110942695,439.660586009472
0.52,2.31218432655614,0.0415524048944211,4.48101788283811,-2.05626880665694,-2.2395961679445,0.576308916166225,-4.83558093024877,-0.961727476242469,1.33690261924573,182.155654388248,439.660586009472
0.53,1.79052763737649,0.0176718758955847,2.50541032380128,-0.845819587052671,-0.416875403244216,-1.74141218945334,0.265268835631331,-2.6309929892143,2.9164945416759,245.175660758588,439.660586009472
0.54,1.32965513023489,-0.00788505990443733,4.00829945014009,0.428406404508968,1.30353346779858,0.262384141781992,4.01615185289582,0.347161092144695,-1.3780938054065,293.851793267427,439.660586009472
0.55,0.985155678896874,0.015257058922511,5.20561325375983,-0.732048934109667,-0.773250946327664,0.610612367638502,-4.57960301583923,2.5809961656243,0.917872258447015,330.173504144659,439.660586009472
0.56,0.746814221576186,0.0132363219794925,5.17987025382507,-0.631739232976216,0.209686184936045,-0.716894961354142,2.14511515875097,-4.75695609193946,-2.83931604222045,357.376621312779,439.660586009472
0.57,0.586978843581864,0.0140643602556825,4.1884111373703,-0.702294528886843,0.0962788383170252,0.579199753396381,-0.107710733881884,4.24551573530927,-0.140765193019694,377.823614929348,439.660586009472
0.58,0.403239149518269,0.0117944617803864,6.58907507650412,-0.588264848187147,-0.187657759445566,-0.357107107676081,-2.36472343018644,-6.17819140154687,2.68699917334642,393.056417505736,439.660586009472
0.59,0.290148561277388,-0.00674570709234551,7.22618219337158,0.352830393717102,0.175184529520226,0.231391600522342,4.770819615996,5.43888578388614,-0.671268970905934,404.429991223133,439.660586009472
0.6,0.263293362649073,-0.00328831455850556,4.79774519044111,0.172115278698783,-0.189357226247201,-0.182970075956858,-3.60961596619301,-3.16522592529615,2.32655299037953,413.083252812975,439.660586009472
0.61,0.177763453838725,-0.0303326128598673,6.2336005937016,1.51376348844871,0.12096827620852,0.133740753230713,5.8354314034183,2.66401888070578,-0.904301727762731,419.441773829947,439.660586009472
0.62,0.120447211521451,0.0209863440943993,6.94897238380025,-1.03442554440486,-0.110314482087695,-0.0527131145301177,-5.06300872022827,-4.87074902829414,2.18906767012706,424.346012046881,439.660586009472
0.63,0.0650479188072226,-0.00944555143974452,8.14514294471977,0.458230171987787,0.0483072975060154,0.044574153842975,6.97687851971714,4.22806038291175,-0.9697703405858,427.888545131863,439.660586009472
0.64,0.0603878799977,0.00746632951237204,7.14848426647692,-0.368813047170834,-0.0538591894774812,-0.0283130682871482,-5.66112446449334,-4.38047031371593,2.17779686524761,430.713677732579,439.660586009472
0.65,0.0203322628893523,0.0446863797187453,8.24269919252126,-2.23048130883278,0.0427647171215047,-0.0241133244511683,5.34378231481041,6.66041495849639,-0.940425573313733,432.754908156424,439.660586009472
0.66,0.0280386935246136,0.0278733928042997,7.18906365530325,-1.40000113374754,-0.0392726430283926,0.00455564161830615,-4.78246207039112,-5.54713403117023,2.23775381933969,434.290488464373,439.660586009472
0.67,0.0245605594599665,0.035353628978842,6.82021522152414,-1.75357925354714,0.0417091524717984,-0.0106511390491554,4.0083006695642,5.7899828677425,-0.857191055684399,435.548396176937,439.660586009472
0.68,-0.00213489430184958,-0.0187629885630757,7.7580154532602,0.925059532312523,0.0145693895894246,-0.0120141749816517,-6.22332509027612,-4.72363882320464,2.33872522375509,436.409244831221,439.660586009472
0.69,0.0105746334642177,0.043056172019987,6.85196051845341,-2.14306045088862,0.0388630020374789,-0.0213383198624488,3.05684785020188,6.49597970003936,-0.74295923148793,437.040792665937,439.660586009472
0.7,-0.0196482295102881,-0.0245100420120035,8.15953759053181,1.20870432029984,0.0314130979326309,-0.000111178208618969,-6.06648966600271,-5.58898228280386,2.46231330899441,437.498796793518,439.660586009472
0.71,0.0425212864086022,-0.0170176564329613,4.93093357856852,0.856507406718882,0.0105268208342435,0.0445740560352816,3.53605197022041,3.541757665047,-0.612607171471496,437.830677674431,439.660586009472
0.72,-0.00378739652693556,0.0146969916169859,7.1050155045465,-0.745164021329618,-0.0106175171470728,0.0108450110499535,-3.03831152858221,-6.46569236770624,2.59780662911782,438.125683702793,439.660586009472
0.73,0.0298342041319545,0.0266529672269043,5.36082121393209,-1.33572976440962,0.0373172508671402,0.0144181547329916,1.25286864968,5.38078974109964,-0.472957760250456,438.295053558195,439.660586009472
0.74,0.0130713140082312,0.000126667270857271,6.09662269211288,0.00839938200077672,-0.00521793396570328,-0.0119853435340355,-2.3870480396173,-5.60989130520039,2.74067035772987,438.565053511296,439.660586009472
0.75,-0.0249944370523246,-0.019825933790343,7.92037635678594,0.980901054725138,-0.0268033914359793,-0.0173022467255369,3.47286349522683,7.18566264556133,-0.326984411507795,438.73211291552,439.660586009472
0.76,-0.0192433878893962,-0.0153309944988897,7.57832968844726,0.779633562642472,0.0196431136867431,0.0148153789852448,-2.64371588598837,-7.1449055748115,2.88971637579475,438.910892322116,439.660586009472
0.77,-0.021071021639284,-0.0278278202655084,7.63087609908971,1.37639757052319,-0.0310859492335922,-0.0158757454596357,2.69061911177222,7.27222862038638,-0.175913770474451,438.937527175929,439.660586009472
0.78,-0.0519663079512477,0.0141521218608212,9.14937246694824,-0.700517115825884,-0.00890766523463726,0.0531171649781413,-0.213940001951934,-9.17365632908059,3.04186034087924,439.010017707788,439.660586009472
0.79,-0.0377110972873854,0.0127837438778068,8.44786638128897,-0.657529673343663,0.0118932190369428,-0.0380013461220956,-0.458648746589713,8.46099479935377,-0.0235227853752545,438.94288549506,439.660586009472
0.8,0.0146327508493032,-0.00779128613443361,5.83175096578761,0.392892098049669,0.00854914437959538,-0.0142032977657738,-0.0860255025597635,-5.84433769905401,-3.08904149879767,439.011974277028,439.660586009472
0.81,-0.0279395625818439,0.0181608476444824,7.94429466775525,-0.912648204231915,0.0216082438342406,-0.0253676830402557,-1.92828673098584,7.76057052000149,0.129160762925548,439.017172130585,439.660586009472
0.82,-0.0013920891391472,-0.0148386866579272,6.64233331910044,0.737904220591817,0.0142424305352942,0.00439063849010583,0.632991034697796,-6.65315090094846,-2.93609916387542,438.994162889066,439.660586009472
0.83,-0.0245936285265536,0.0145612029497461,7.76879969710402,-0.714658252937721,0.0282094376227589,-0.00459378106285867,-6.42009006134831,4.43254201969843,0.874797973228414,439.056844646391,439.660586009472
0.84,-0.00841626871650403,0.0258292755471638,6.97504829520913,-1.30307648110326,-0.0218436817260599,-0.0161504991579305,6.43654089150771,-2.98667848755995,-2.18993793963395,439.062934249029,439.660586009472
0.85,-0.0525317344646306,0.0244329480992357,9.15309626746586,-1.21080667330922,0.0576061571301512,-0.00617112140366177,-8.46561507880197,3.68491321732119,1.02873049512151,439.086697943386,439.660586009472
0.86,0.0149755240492327,-0.0596336074492768,5.76748171513925,2.96809132779437,0.0401177614418568,0.0465939768087878,3.82512408020659,-5.23849570350281,-2.03560842846191,439.156114362039,439.660586009472
0.87,0.00769759899429481,0.0166811955010728,6.07603068441415,-0.825839442130955,-0.000835442837996527,0.0183525842563498,-5.93859539124252,1.52749613460542,1.18394885357118,439.300910010455,439.660586009472
0.88,-0.019818749829964,-0.0418369532598846,7.44214281393625,2.07519684566814,-0.00620355048849227,0.0458762407377631,6.46286734390421,-4.23358917543855,-1.87878654660129,439.305877225028,439.660586009472
0.89,0.0200928213031986,0.0357717309090951,5.43741868738534,-1.78668346855251,-0.0114458239573989,0.0393996359639428,-5.70108004559389,-0.505416771048705,1.34174213718174,439.34311996707,439.660586009472
0.9,-0.0312173347492919,0.0131841186529596,8.0329367758012,-0.661427099381594,-0.0328397167763512,-0.00836038130432462,8.04140061994329,-0.549031075068922,-1.72112014629221,439.213255708722,439.660586009472
0.91,0.0050402149920204,0.0174626705509088,6.27053827576852,-0.878163802982777,-0.00375570741589899,0.017783230632861,-6.31782659338089,-0.419391307392596,1.49794023283257,439.204821382639,439.660586009472
0.92,-0.0247650980064798,0.0241771128601131,7.72252913599209,-1.19570064671995,-0.0246354584775349,-0.0243091968424062,7.71602479534291,1.23697924415351,-1.5654488701286,439.280143824912,439.660586009472
0.93,-0.0340371263714246,0.0111664738995217,8.13876208984677,-0.570637230498975,0.032977122318737,0.0139901935136039,-8.06190971749576,-1.25327048593107,1.65501872192317,439.363243504923,439.660586009472
0.94,-0.0156345985744165,0.0168440057945643,7.23017232754471,-0.830216977826697,-0.0126887853402472,-0.0191613133782523,6.99907348806246,1.9943977599682,-1.40752786455384,439.381949433467,439.660586009472
0.95,-0.00109542479212564,-0.00409485533805776,6.48927497711655,0.189330615348429,0.00204501884150126,-0.00371290905527303,-6.34547863922961,-1.37165471224356,1.81285103968965,439.38408310095,439.660586009472
0.96,-0.0248228930792796,-0.0250738506589895,7.65961049293292,1.26184989387686,-0.0314745522470974,0.0159444839533737,7.66584988673044,1.22337384811024,-1.249269071602,439.454403351311,439.660586009472
