t,iq,id,vq,vd,ia,ib,va,vb,theta_e,omega,r
0,0,0,0,0,0,0,0,0,0,0,0
0.01,0.000418806472047985,0.000236137129354891,-0.0203412847610392,-0.011811465483282,0.000446697048775487,-0.000177823934003606,-0.0217418458018463,0.0089761196360781,-1.43624990762558,-0.00173104405533096,0
0.02,0.000542951680564563,0.000303152131382599,-0.0264164162412013,-0.0151635267700456,0.000578706431556969,-0.000227588682197281,-0.0282115545234755,0.0114833698234996,-1.43626434006022,-0.00214641757463187,0
0.03,0.000594733805121466,0.000331003775906406,-0.0289539796900485,-0.0165566436764047,0.000633752334352794,-0.000248253453794585,-0.0309128425456743,0.0125240391034811,-1.43628034922496,-0.0022387221802448,0
0.04,0.000592156097890717,0.000329370019556003,-0.028866173539088,-0.0164749242362463,0.00063097496171971,-0.000246989983064683,-0.0308146761404858,0.0124553136345809,-1.43629592632849,-0.00210143513628701,0
0.05,0.00060636449271679,0.000337816097140749,-0.0295873673747538,-0.0168974006473125,0.000646183812185682,-0.000253464187577413,-0.03158581702009,0.0127777392357896,-1.43631091618316,-0.00204088546460297,0
0.06,0.000609369797585403,0.000340010043262343,-0.0297661977257366,-0.0170071433443641,0.000649452482883992,-0.000255244690844596,-0.031777562373126,0.0128629693852345,-1.43632526655226,-0.00193747956499481,0
0.07,0.000616437518881207,0.000344733493053422,-0.0301388776646538,-0.017243399714218,0.000657086185998212,-0.000258986756587196,-0.0321783771553076,0.0130475600876193,-1.43633865857811,-0.00185925885925907,0
0.08,0.000610470568218373,0.000341804824906322,-0.0298811130164047,-0.0170969109517513,0.000650777184116394,-0.000256892797920926,-0.0319031350364615,0.0129373588508847,-1.43635154903908,-0.00172921078830815,0
0.09,0.000608053837275809,0.000341041643055011,-0.0297927210266277,-0.017058744649641,0.000648276879542032,-0.000256468241259505,-0.0318102695529645,0.0129117677395413,-1.43636357976495,-0.00162135349523531,0
0.1,0.000606665363996925,0.000340841598391063,-0.0297522091031916,-0.0170487380233761,0.000646871228723947,-0.00025646339410619,-0.0317686363551021,0.0129076395536533,-1.43637486180015,-0.00152397186469437,0
0.11,0.000605604721843025,0.000340788067788464,-0.0297259069955199,-0.0170460525688946,0.000645810262397236,-0.000256559332802329,-0.0317420748553915,0.0129088395590982,-1.43638545668971,-0.00143356425700569,0
0.12,0.00060467540980497,0.000340772721902202,-0.0297044360227876,-0.0170452861551364,0.000644884721041685,-0.000256675078226211,-0.0317205663228563,0.0129112730472111,-1.43639541042842,-0.00134891624940751,0
0.13,0.000624684279171572,0.00035259418224959,-0.0306929831217578,-0.0176365864034124,0.000666294629623569,-0.000265715209453946,-0.0327793023526417,0.0133650937202715,-1.43640501713353,-0.00135686276185067,0
0.14,0.000635793042636378,0.000359375661770648,-0.0313000367856782,-0.0179758015564324,0.000678209355717118,-0.000270953370814401,-0.0334262069808663,0.0136202214098498,-1.43641424927327,-0.00132968161264988,0
0.15,0.000611244675570462,0.000345601585151452,-0.0300864747379332,-0.0172868312433765,0.000652034599464173,-0.00026059813923747,-0.0321311642288491,0.0131003351824294,-1.43642302403352,-0.00115330933679553,0
0.16,0.00060396581186658,0.000342019155991113,-0.0297534892908047,-0.0171076334136054,0.00064433939265232,-0.000258028200096365,-0.0317770718067585,0.0129676117068816,-1.4364308645406,-0.00105855926094418,0
0.17,0.00060149227490816,0.000341086669195695,-0.0296511164094904,-0.0170609930011047,0.000641761365670665,-0.000257440133253791,-0.0316692797890965,0.0129353354866744,-1.43643811994539,-0.000989156211346844,0
0.18,0.000600375484879524,0.000340843242398979,-0.0296131407308994,-0.0170488139904093,0.000640620286101281,-0.00025735284682491,-0.0316299271948464,0.012928567905083,-1.43644490652378,-0.000929370012488452,0
0.19,0.000599659885634161,0.00034077903301432,-0.0295935492966089,-0.0170456093144809,0.000639900895692363,-0.000257389144046639,-0.031610000719867,0.012928217640601,-1.43645127496049,-0.000874693185980306,0
0.2,0.000599080017732709,0.000340761475988084,-0.029579600900424,-0.01704471941739,0.000639322361211711,-0.000257453237732376,-0.0315959814754906,0.0129293930269898,-1.43645725668326,-0.000823731349964447,0
0.21,0.000598560582264244,0.000340756100478664,-0.0295677186753117,-0.0170444504263854,0.000638805438576182,-0.000257521071563917,-0.0315840976090869,0.0129308954144544,-1.43646287674293,-0.000775959962268796,0
0.22,0.0005980794015026,0.000340753940818297,-0.0295568843193371,-0.0170443527839385,0.000638326943385889,-0.000257586746616622,-0.0315732794927791,0.0129324164238893,-1.43646815744045,-0.000731103416644142,0
0.23,0.000597629466264024,0.000340752662993638,-0.0295468087127726,-0.0170442830358596,0.000637879611811075,-0.000257648902811618,-0.0315632211343265,0.0129338532905423,-1.43647311938791,-0.000688962827895434,0
0.24,0.000597207075312198,0.000340751657424738,-0.029537357794804,-0.0170442362309883,0.000637459689463113,-0.000257707444887117,-0.031553788770563,0.0129352196896185,-1.43647778185853,-0.000649367930959488,0
0.25,0.000596810295736693,0.000340750763054478,-0.0295284810619003,-0.0170441937481748,0.000637065234712266,-0.000257762484354364,-0.0315449296273855,0.0129365045182856,-1.43648216293651,-0.000612163331963907,0
0.26,0.00059993192868589,0.000342775962574276,-0.0296886545691971,-0.0171454904296317,0.000640428901294017,-0.000259354008958472,-0.0317171726846096,0.0130155679513556,-1.43648619966206,-0.000592835869207125,0
0.27,0.000592171865530203,0.000338400206101378,-0.02932351185397,-0.016926615415235,0.000632151746183961,-0.000256059343925476,-0.0313259576328357,0.0128476859881837,-1.43649024745476,-0.000526757976183561,0
0.28,0.000591294101763846,0.000338115169602975,-0.0292419364368207,-0.016912365682631,0.000631242787522684,-0.00025589670942971,-0.0312431619625678,0.0128446015951781,-1.43649389135816,-0.000493464930451149,0
0.29,0.000594214915573573,0.00034006308781457,-0.0294385016685001,-0.0170097913388854,0.000634397265725878,-0.000257438106782228,-0.0314509592786926,0.0129149348557678,-1.43649722431093,-0.000478979248546607,0
0.3,0.000585362670282736,0.000335392966077319,-0.0290173970270191,-0.0167761922289152,0.00062499874375429,-0.000253996983762083,-0.0310023345737867,0.0127399060789381,-1.4364998933549,-0.000419391255448609,0
0.31,0.000592222530110864,0.000339354501192113,-0.0293553182311676,-0.0169743469618327,0.000632326518258111,-0.000257006180777499,-0.031363707502322,0.0128911215548762,-1.43650277228152,-0.000425476207433306,0
0.32,0.000593935822491968,0.000340384107463462,-0.0294446521966414,-0.0170258478664349,0.000634161510025212,-0.00025779891593149,-0.0314590960418195,0.0129302867247304,-1.43650559876781,-0.000409917317342553,0
0.33,0.000594236872164672,0.000340651419857798,-0.0294654838367788,-0.0170392171423344,0.000634494945043677,-0.000258025221257939,-0.0314814952999526,0.0129408312035261,-1.43650828821778,-0.000389413467627316,0
0.34,0.000594157703946125,0.00034072055484736,-0.0294675991144332,-0.017042686625026,0.000634425091046599,-0.000258105942404545,-0.0314840232131228,0.0129440661031737,-1.43651082463171,-0.000368519873875594,0
0.35,0.000593983407729707,0.000340738184655546,-0.0294647679526528,-0.0170435641664313,0.000634254108380942,-0.000258148261939624,-0.0314813041405051,0.0129453898980274,-1.43651321053382,-0.000348437254419008,0
0.36,0.000593791939048612,0.000340742443609624,-0.0294607704741343,-0.0170437710599368,0.000634064354576657,-0.000258179538328381,-0.0314773413146193,0.0129462007027593,-1.43651545315187,-0.000329442214857503,0
0.37,0.000593604265607217,0.000340743245616222,-0.0294566379717558,-0.0170438189641109,0.000633877933807049,-0.000258206794280606,-0.0314732251418566,0.0129468677544215,-1.43651756061986,-0.000311559147201683,0
0.38,0.000593425951456962,0.000340743167176968,-0.0294526584105897,-0.017043806126625,0.000633700702930265,-0.000258231843400614,-0.0314692540453061,0.0129474501182607,-1.4365195409522,-0.000294745839183911,0
0.39,0.000593257661058963,0.000340742877094868,-0.0294488812176595,-0.0170437957623657,0.00063353340801091,-0.000258255264477071,-0.031465485371629,0.012948004065834,-1.43652140178291,-0.000278944614059512,0
0.4,0.00059309938237302,0.000340742548224255,-0.0294453231150927,-0.0170437824487279,0.00063337605841434,-0.000258277235096575,-0.0314619348736025,0.0129485222137886,-1.43652315031314,-0.000264096294815354,0
0.41,0.000592950591535642,0.000340742224532528,-0.0294419746422901,-0.0170437690975574,0.000633228139142965,-0.000258297873354352,-0.0314585934782068,0.0129490089296837,-1.43652479331732,-0.000250143898356836,0
0.42,0.000592810822885542,0.000340741916534314,-0.0294388285191687,-0.0170437557104355,0.000633089188502164,-0.000258317256131647,-0.0314554538889285,0.0129494653920352,-1.43652633716334,-0.000237033499676824,0
0.43,0.000592679494343316,0.000340741626100516,-0.0294358705967774,-0.0170437408340995,0.000632958628367328,-0.000258335467073384,-0.0314525018123883,0.0129498922447981,-1.43652778783543,-0.000224714322893951,0
0.44,0.000592556082045599,0.000340741352906905,-0.0294330887702628,-0.0170437273810228,0.000632835938103788,-0.000258352579616225,-0.0314497255699695,0.0129502941731221,-1.43652915095679,-0.00021313862741135,0
0.45,0.000592440120325495,0.000340741096106915,-0.0294304730240568,-0.0170437124424562,0.00063272065476598,-0.0002583686586642,-0.0314471147786395,0.0129506698027532,-1.43653043181119,-0.000202261545811744,0
0.46,0.000592331201735015,0.000340740854763391,-0.0294280154442242,-0.0170436989302417,0.000632612373172401,-0.000258383761027888,-0.0314446619213567,0.0129510232360922,-1.43653163536345,-0.000192040916281814,0
0.47,0.000592228802399548,0.000340740627959752,-0.0294257015660349,-0.017043683936051,0.000632510572841794,-0.000258397958926449,-0.0314423522139882,0.0129513536750744,-1.43653276627916,-0.000182437120937224,0
0.48,0.000592132631286484,0.000340740414824083,-0.029423527803148,-0.0170436703711831,0.000632414964117238,-0.000258411293269732,-0.0314401824355398,0.0129516646236746,-1.43653382894204,-0.000173412932736296,0
0.49,0.000592042176581863,0.000340740214534715,-0.0294214789373504,-0.0170436708971815,0.000632325038621827,-0.000258423834397795,-0.0314381391463828,0.0129519707969506,-1.4365348274709,-0.000164933371312818,0
0.5,0.000591957239544297,0.00034074002631827,-0.0294195547430357,-0.0170436558282518,0.000632240598303427,-0.000258435610629039,-0.0314362180991998,0.0129522429289261,-1.43653576573691,-0.000156965567419848,0
0.51,0.721556932072752,-0.000204699327913986,0.52618639011392,0.0103444772893117,-0.0090104480807677,0.721500699895323,0.00392221341182846,0.526273447547432,0.0122041410720062,3.80670114733696,107.11382183954
0.52,0.724528520300033,0.0184775097404921,-0.71398516971778,-0.924136293082085,-0.0216426391516313,0.724440881828819,-0.883211948100337,-0.764028380036522,0.0553633508320651,7.94601129204771,107.11382183954
0.53,0.702789899439111,-0.00450685985182067,-0.689792768992218,0.225809591950877,-0.0944499763365153,0.696428859618404,0.312267310420614,-0.655204672460178,0.12838527106738,11.9603015406432,107.11382183954
0.54,0.659639032148207,-0.0494931949590338,0.429861819463195,2.47648668651559,-0.198859892974758,0.630894580771418,2.31282534242672,0.984178046773003,0.230455129442965,15.8636156995665,107.11382183954
0.55,0.648048422540427,-0.00468492234959079,-0.00372302010787901,0.235056870801335,-0.233119329799267,0.604685111879314,0.221242213962055,0.0794825524930297,0.360734104236475,19.6605902243049,107.11382183954
0.56,0.625540356055677,-0.0337373698480281,0.123753164810164,1.68863025308482,-0.339318208383135,0.526594816379904,1.40533320384831,0.944365164327491,0.518521296038552,23.3773903546619,107.11382183954
0.57,0.640977413422625,-0.00983144252870116,-1.63385149360723,0.492905759332821,-0.422037390625288,0.482527867272298,1.43260829868459,-0.927394335375236,0.703288148151863,27.0236461932991,107.11382183954
0.58,0.531131847985291,0.0166995243492256,2.88203403233215,-0.834241077567522,-0.410609312630613,0.337312772421645,-2.79237542769889,1.09759637836739,0.914517498197358,30.609257067783,107.11382183954
0.59,0.530973908098513,0.0382797000206586,1.89909782276848,-1.91364143307017,-0.469527227771492,0.250884054687214,-2.51315066701093,-0.976048051946895,1.15202962761944,34.1997105972037,107.11382183954
0.6,0.569628012333389,-0.00771250496361398,-1.038187786886,0.387406655279055,-0.563994758514789,0.0802836691709234,1.08553536972577,0.222555068394526,1.41585929946546,37.7954484578754,107.11382183954
0.61,0.471007645433217,-0.0134857210041825,2.88674401583375,0.675025841724196,-0.464887722991116,-0.0768730885270077,-2.95140089195507,0.279613438364877,1.70604800415017,41.3478835274268,107.11382183954
0.62,0.511722983862901,-0.023562050787359,-0.0940158633891497,1.17920544413361,-0.45036009501219,-0.244113431157461,-0.429028904511666,1.10240585137084,2.02149605591227,44.667293950572,107.11382183954
0.63,0.446365748194253,-0.0200447586260031,2.30826881206402,1.00324938833675,-0.300076357096596,-0.331056420298756,-2.33772799833849,-0.932546004082288,2.3603651369821,47.7346610999779,107.11382183954
0.64,0.48021855718522,0.0537724550128291,-0.177266375122062,-2.68923122811634,-0.245229295829024,-0.416369946142084,2.52707927527061,-0.936620682305691,2.72083358151505,50.5792448444444,107.11382183954
0.65,0.479576362372849,-0.0182849527491645,-0.887683569258929,0.915979618889279,-0.000970338208463394,-0.479923832798054,-0.879628336593955,0.923717906513548,3.10146195469471,53.2467572445941,107.11382183954
0.66,0.466295175098675,0.0376092672985421,-0.949143601080865,-1.87983792817036,0.128981853234444,-0.449676916066686,1.4252635062703,1.55025422087949,-2.78177841023094,55.8539234481383,107.11382183954
0.67,0.449736947670704,0.0379330780049384,-0.854479280909195,-1.89568538492659,0.28892477523416,-0.346734357632728,0.748963496761205,1.93979679364788,-2.36274343895698,58.4684233686561,107.11382183954
0.68,0.361064711164548,-0.0411543045650184,2.82221051537847,2.06077477351474,0.352967066083038,-0.0864618568693786,1.93366464897345,-2.91077410418224,-1.92451394086072,61.1159720859722,107.11382183954
0.69,0.382726602182193,-0.00854003628115637,0.955764242597819,0.427503604148915,0.379762909190307,0.0482982095001982,0.995042578322608,-0.325783496073682,-1.46660551725531,63.8028506100261,107.11382183954
0.7,0.391086050062161,0.0323469147903638,-0.195481075217862,-1.61788951191932,0.344621321606648,0.187698604533346,-1.0517122405314,1.24486171387158,-0.98954588998415,66.3085706639249,107.11382183954
0.71,0.340616444935097,0.0019277070335276,1.66491095542677,-0.0958516555896364,0.163515258300391,0.298807695546128,0.706616511920298,1.51056583254784,-0.495051350504846,68.5886614438295,107.11382183954
0.72,0.356193783705078,-0.00369709369644527,0.28267136620732,0.186240766053158,-0.00922467616790459,0.356093506542225,0.181831355149492,0.285527726321069,0.0155203429548987,70.6730333707224,107.11382183954
0.73,0.364855963148536,0.016244621961125,-0.736685027221957,-0.810682497538147,-0.174012727571119,0.321097076023693,-0.315396598516084,-1.04901664752862,0.541121744948933,72.7194345022943,107.11382183954
0.74,0.348209947600478,-0.0413201302893918,-0.515407119203727,2.0694250601002,-0.326814767454999,0.127081188806192,1.42705030850161,1.58483185067125,1.08182867351907,74.8176328175765,107.11382183954
0.75,0.334334980340953,-0.0217582314466343,-0.473371917321193,1.08859146694912,-0.33211193836006,-0.0442149308943762,0.399018681904047,1.11798767681685,1.63816315004697,76.9989734464754,107.11382183954
0.76,0.308165812017354,-0.0264442602550609,0.22926983537977,1.32295935881185,-0.231527528095049,-0.205086494755137,-0.973324327005571,0.924892359651695,2.21010698726922,78.992758438187,107.11382183954
0.77,0.327290659626404,-0.012077905074676,-1.25319777829586,0.604995591112277,-0.099587887629134,-0.312005295319241,-0.144341631121256,1.38408447369235,2.79574184103947,80.7654658563572,107.11382183954
0.78,0.276019675160708,0.0461185388282415,0.820311011475031,-2.30568529112173,0.0242521033845568,-0.278793142277387,2.43747063568848,-0.218704635064454,-2.88926654532316,82.4242017823023,107.11382183954
0.79,0.288494847954533,0.0212640294650779,-0.311894955033563,-1.06159008396479,0.20530428995508,-0.203792994902772,0.453564785485401,1.00922294599129,-2.27892653878068,84.1198154906956,107.11382183954
0.8,0.258938133946024,0.0376337688778866,0.633668635140935,-1.88210092980155,0.254801936730826,-0.0595082415268947,0.791360582410362,1.82142479332208,-1.65590266392528,85.8680209769405,107.11382183954
0.81,0.281852860698635,0.000529955467819199,-1.03296261527605,-0.026660675686415,0.240470923853493,0.147020579232466,-0.894235229265642,-0.517750819339012,-1.0201664818833,87.5431424786282,107.11382183954
0.82,0.246328446044491,-0.00713928606721136,0.29082671090432,0.357644382179379,0.0831003363750111,0.23199785953884,0.43902282943476,0.140529837098717,-0.372930909068034,89.0149750523834,107.11382183954
0.83,0.264345744661916,0.00588871401218252,-1.03569747240799,-0.292929144243379,-0.0686068378073148,0.25535553935574,0.00980821234557205,-1.07628088195881,0.28474636458149,90.420936849403,107.11382183954
0.84,0.246300559046226,-0.019614118884934,-0.574269599685099,0.983501881674097,-0.212105058462904,0.126728541459941,1.03791406742191,0.468823968059092,0.952764598323244,91.8370873227598,107.11382183954
0.85,0.245888603975032,-0.00612831506503242,-1.02326089289113,0.306219880735226,-0.245065086896392,-0.0210205850249237,1.00281932255397,0.367677680299269,1.63144442960934,93.3358228419904,107.11382183954
0.86,0.239450921688064,0.000284228824345631,-1.13439942137186,-0.0143244745985563,-0.175405149542042,-0.163002632486172,0.839828204354366,0.76272919503075,2.32074826674072,94.6901357298716,107.11382183954
0.87,0.225672262645788,0.0342078819421465,-0.823047607268515,-1.71036733637418,-0.0614830726312087,-0.21981351435811,1.7979992861357,0.608245309247537,3.01929386256985,95.8852804766445,107.11382183954
0.88,0.209086605217891,0.0350529480557079,-0.36678067530263,-1.75159944675183,0.0862085019824482,-0.193685342333592,1.25795738852568,1.27285973079928,-2.55672134968043,97.0522789777033,107.11382183954
0.89,0.184544999223909,-0.0390912847069566,0.464023889651305,1.95720869754405,0.18828644565201,-0.011541215807945,-0.0747542245274206,-2.01007359612142,-1.84075546099448,98.2920856253101,107.11382183954
0.9,0.138911925385376,0.0482515295837687,2.3637288472247,-2.41470932565328,0.14598511407608,0.01769405520618,1.06229220213158,3.20773603463402,-1.11586504890847,99.4467711576096,107.11382183954
0.91,0.204203064943276,0.0325680195810193,-1.24634805049606,-1.62874753497368,0.106506552726011,0.177245371894667,-1.97646555614885,-0.547527077883266,-0.382923819515305,100.498197540148,107.11382183954
0.92,0.168531568701531,-0.0364508766198916,0.210029592614871,1.82521162143234,-0.0931153965847282,0.145124356929587,1.63634819710483,0.835388814036561,0.357460848159731,101.499368131999,107.11382183954
0.93,0.154839797111774,-0.042152850759355,0.556608447493872,2.11091878668478,-0.157282192157358,0.0318518072788949,0.450368958277161,2.13610835147017,1.10519083605849,102.525795835956,107.11382183954
0.94,0.131167160690327,-0.0103500699691215,1.39276899519228,0.516841110516163,-0.122740306745484,-0.0474000537125454,-1.48238413727729,0.0973009611316961,1.86058954940637,103.554934805684,107.11382183954
0.95,0.132407874196739,-0.000533407505036013,1.02019849868083,0.0267164996802494,-0.0651539862345531,-0.115269630651848,-0.528784236046563,-0.872872258566187,2.62310241470277,104.466519920948,107.11382183954
0.96,0.139350508263856,-0.0344337125117594,0.388822302153731,1.72411722178216,0.0678834884026973,-0.126475597302477,-1.57404054221347,-0.803840375053578,-2.89124187461506,105.299257923853,107.11382183954
