t,iq,id,vq,vd,ia,ib,va,vb,theta_e,omega,r
0,0,0,0,0,0,0,0,0,0,0,0
0.01,0.00117737097191645,0.00066721084093897,-0.0583670661016809,-0.0334230939296528,-0.000650329850674474,-0.00118677874816652,0.0325861992509914,0.0588383992943645,-3.12731208308687,-0.00214382922572834,0
0.02,0.00130995698715981,0.000743978037655568,-0.0650483002072999,-0.0372686582074141,-0.000725216330899184,-0.00132043625447038,0.0363369784106002,0.0655733043580056,-3.12732757086171,-0.00222161630832598,0
0.03,0.00134479027839485,0.000764236224327175,-0.0667991332583276,-0.0382834717141807,-0.000744996158946417,-0.00135554366310873,0.0373277363361304,0.0673378683251453,-3.12734275693021,-0.00211162698487665,0
0.04,0.00132356550028187,0.000753352915437689,-0.0657824634172595,-0.0377382863824483,-0.000734434216122345,-0.00133415614937818,0.0367979790552481,0.0663130416266385,-3.12735611397223,-0.0019133823209207,0
0.05,0.00134204150244234,0.000764304467612793,-0.0667217322439561,-0.0382868788905506,-0.000745139002232227,-0.00135277661897407,0.0373340080737842,0.0672595457162809,-3.1273689535875,-0.00179890783667845,0
0.06,0.00134091331861023,0.000764391209745355,-0.0666923170486733,-0.0382912283527926,-0.000745257756980424,-0.00135164097497182,0.037339570060263,0.0672297540513215,-3.12738077250317,-0.00165804017513051,0
0.07,0.0013770618617754,0.000785409441627292,-0.068498060541399,-0.0393441249557115,-0.000765775044105786,-0.00138807634659568,0.0383674393529246,0.0690498665021407,-3.12739150625885,-0.00160285969389255,0
0.08,0.00133895401238351,0.000764559119951063,-0.066641712401801,-0.0382996542125634,-0.000745481523528233,-0.00134966877168299,0.0373501093399109,0.0671784986207862,-3.1274015395602,-0.00141056650027023,0
0.09,0.00133761171783326,0.000764382147786515,-0.0665956828893874,-0.0382907690613476,-0.000745335870238748,-0.00134831732766253,0.0373424883438852,0.0671320083052794,-3.12741062719013,-0.00130132299290009,0
0.1,0.001336686761325,0.000764377554442851,-0.0665685337594667,-0.0382905385350121,-0.000745355611108452,-0.00134738619431353,0.0373432014751543,0.067104547772655,-3.12741895175793,-0.00120184877555131,0
0.11,0.00133584199907795,0.000764374656857885,-0.06654378895911,-0.0382904126856845,-0.000745374956113529,-0.00134653579133491,0.0373439379309387,0.0670795188748757,-3.12742657819465,-0.00111072227574149,0
0.12,0.00133506825017241,0.000764372012456177,-0.0665211261052564,-0.0382902868606528,-0.000745392675230557,-0.0013457568746833,0.0373446016675274,0.0670565955926501,-3.12743356505584,-0.00102723795958667,0
0.13,0.00139728733649158,0.000799880867656824,-0.0696036617726929,-0.0400690652187297,-0.000780026808055304,-0.00140846706808438,0.0390800441397412,0.0701637361441516,-3.12744050385192,-0.00106760399178123,0
0.14,0.00150445902835249,0.000862264012277879,-0.0750225677749179,-0.0431940614669188,-0.00084089646652151,-0.00151650563053769,0.0421285106088574,0.0756260617474525,-3.12744671555307,-0.00120447876916914,0
0.15,0.0013345236537193,0.000765179785506773,-0.0665362164859782,-0.0383307314949577,-0.000746233542987489,-0.00134520964381201,0.0373860982595694,0.0670715493941606,-3.12745249504994,-0.000804084542150045,0
0.16,0.00133245252075833,0.000764369803406932,-0.0664447847900892,-0.0382901503810449,-0.00074545939790082,-0.00134312367357475,0.0373471367096497,0.0669793731054198,-3.1274573128176,-0.0007435089338753,0
0.17,0.00133194998736483,0.000764361405238145,-0.0664297735627793,-0.0382897505065539,-0.000745464023965296,-0.00134261778464024,0.0373472443293272,0.0669641930471936,-3.12746172222054,-0.000690794706773989,0
0.18,0.00133150276748115,0.00076435981843053,-0.0664166689882198,-0.0382896534840998,-0.000745474178535766,-0.00134216757559462,0.0373476029440698,0.0669509375420188,-3.12746576179839,-0.000642526509056389,0
0.19,0.00133109278457332,0.000764358415331529,-0.0664046482061936,-0.0382895910787369,-0.000745483532748799,-0.00134175485489401,0.0373479580833113,0.0669387788607803,-3.12746946260512,-0.000598306452570257,0
0.2,0.00133071726059664,0.000764357130150916,-0.0663936376584757,-0.0382895257160315,-0.000745492098987181,-0.00134137682267514,0.0373482751408098,0.0669276418611172,-3.12747285305136,-0.00055779482106433,0
0.21,0.00133037340158912,0.000764355952607657,-0.0663835574011265,-0.0382894632192225,-0.000745499942017508,-0.0013410306657174,0.0373485628300803,0.0669174457176333,-3.12747595916478,-0.000520680613152674,0
0.22,0.00133005804840862,0.000764354873695373,-0.0663743042365614,-0.0382894323912736,-0.000745507129979873,-0.0013407132072996,0.0373488530204608,0.0669080867592965,-3.12747880479013,-0.000486678910974263,0
0.23,0.00132976937026181,0.00076435388516137,-0.0663658367987525,-0.0382893698061969,-0.000745513710230288,-0.00134042260041617,0.0373490843518324,0.0668995219133445,-3.12748141177317,-0.00045552869072511,0
0.24,0.00132950477415762,0.000764352979443354,-0.0663580713807235,-0.0382893359710454,-0.000745519739027257,-0.00134015623731435,0.0373493198571669,0.0668916675878231,-3.12748380012678,-0.000426990818818503,0
0.25,0.00132926266213766,0.00076435214960936,-0.066350970206066,-0.0382892733078705,-0.000745525256895004,-0.00133991250643368,0.0373495037336283,0.0668844845130973,-3.12748598818583,-0.000400846216107096,0
0.26,0.00134054751196104,0.000770752210121799,-0.0669116501337797,-0.0386098840953906,-0.000751768171609987,-0.00135128502448105,0.0376623071977837,0.0674495566332693,-3.12748796949321,-0.000399687497931659,0
0.27,0.00128986886278716,0.000742173827085834,-0.0644177366652012,-0.0371782905433835,-0.000723909987502639,-0.00130020690768547,0.0362661592738356,0.0649356279427575,-3.12748994888274,-0.000277279642281144,0
0.28,0.00126867790745848,0.00072960171803145,-0.0632661357948801,-0.0365485057156179,-0.000711640195302089,-0.00127883952560831,0.0356527882703472,0.06377519813384,-3.12749169013648,-0.000215377408354288,0
0.29,0.00132793627353601,0.00076406020994207,-0.0663011640236959,-0.0382746574506886,-0.000745261506132105,-0.00133857687058575,0.0373360637163812,0.0668342135438946,-3.12749304757791,-0.000315429410555457,0
0.3,0.00132533361792897,0.00076271990465325,-0.0661744757434438,-0.038207530858368,-0.000743958997262253,-0.00133595503747675,0.0372707783255179,0.0667065644237723,-3.12749377214765,-0.000301835109456113,0
0.31,0.00132822385066077,0.000764335124322776,-0.0663199138358937,-0.038288437245497,-0.000745535106977704,-0.00133886675363958,0.0373497160177033,0.0668530785476604,-3.12749511528105,-0.000291734058401244,0
0.32,0.00132811432051985,0.000764348104346207,-0.066317243026128,-0.0382890782396467,-0.000745551288561728,-0.00133875649358331,0.0373504774302032,0.0668503707601102,-3.12749635433806,-0.000276982866849439,0
0.33,0.00132798907356264,0.000764347785575378,-0.066313567161796,-0.0382890528339773,-0.000745554254928474,-0.00133863040820601,0.0373505797273707,0.0668466525016359,-3.12749748956202,-0.000263418826278146,0
0.34,0.00132787358956357,0.000764347391877453,-0.0663101610012653,-0.0382890532436356,-0.000745556881065415,-0.00133851415473514,0.0373506976641757,0.0668432078397426,-3.1274985295834,-0.000250991852282231,0
0.35,0.00132776824961949,0.000764347030336096,-0.0663070617461912,-0.0382890219689376,-0.000745559279423403,-0.00133840810978822,0.0373507737577998,0.0668400728638491,-3.12749948238547,-0.000239607036469844,0
0.36,0.00132767139206854,0.000764346699096761,-0.0663042031083496,-0.0382890194174092,-0.000745561481409372,-0.00133831060639001,0.0373508698344509,0.0668371818704972,-3.12750035528243,-0.000229176984496357,0
0.37,0.00132758304876109,0.000764346395626182,-0.0663016020781713,-0.038288988100769,-0.000745563493055034,-0.00133822167135647,0.0373509286213512,0.0668345507880148,-3.12750115497568,-0.000219621627117439,0
0.38,0.00132750167445127,0.000764346117597554,-0.0662991954850011,-0.0382889884170017,-0.000745565342061621,-0.00133813975498597,0.0373510118120614,0.0668321170738361,-3.12750188760423,-0.000210867609893139,0
0.39,0.00132742753381276,0.000764345862878446,-0.0662970094909827,-0.0382889570649261,-0.000745567030125275,-0.0013380651177031,0.0373510561198604,0.0668299057854958,-3.12750255879241,-0.000202847730097294,0
0.4,0.00132735931443429,0.000764345629515149,-0.0662949902806919,-0.0382889573446139,-0.000745568580705333,-0.00133799644335828,0.0373511259419205,0.0668278638123761,-3.12750317369266,-0.000195500420824272,0
0.41,0.00132729679940658,0.00076434541571775,-0.0662931378723211,-0.0382889576076042,-0.00074557000140589,-0.00133793351151965,0.0373511899487551,0.0668259905504401,-3.12750373702523,-0.000188769278348547,0
0.42,0.00132723988823538,0.000764345219846211,-0.066291457170085,-0.0382889262113991,-0.000745571297808565,-0.00133787621845553,0.0373512167215052,0.0668242902961066,-3.12750425311517,-0.000182602629123265,0
0.43,0.00132718750134065,0.000764345040397221,-0.0662899032854927,-0.0382889264460062,-0.00074557248893537,-0.00133782348171849,0.0373512704414895,0.0668227189090235,-3.12750472592401,-0.000176953133096721,0
0.44,0.00132713942181282,0.000764344875995015,-0.0662884737162928,-0.0382889266679159,-0.000745573581335835,-0.00133777508169481,0.0373513197465412,0.0668212733057993,-3.12750515908186,-0.000171777420293984,0
0.45,0.00132709541682124,0.000764344725377671,-0.0662871644455303,-0.038288926877817,-0.000745574581487096,-0.00133773078308042,0.0373513649164355,0.0668199493457071,-3.1275055559136,-0.000167035757870319,0
0.46,0.00132705538587138,0.00076434458738962,-0.0662859774518932,-0.0382888954375868,-0.000745575493734087,-0.00133769048310333,0.0373513744921592,0.0668187484477959,-3.1275059194656,-0.000162691745095818,0
0.47,0.00132701848221443,0.000764344460971858,-0.066284876818945,-0.0382888956274185,-0.00074557633268704,-0.00133765333300298,0.0373514124402917,0.0668176354863391,-3.12750625252896,-0.000158712033908541,0
0.48,0.00132698460535584,0.00076434434515445,-0.0662838633680478,-0.0382888958082472,-0.000745577102218457,-0.00133761923037481,0.0373514472843756,0.0668166107414268,-3.12750655766069,-0.000155066072914733,0
0.49,0.00132695352246496,0.00076434423904884,-0.0662829308634452,-0.0382888959807723,-0.00074557780785793,-0.00133758794065253,0.0373514792696061,0.0668156678904495,-3.127506837203,-0.000151725872850949,0
0.5,0.00132692511712649,0.000764344141840529,-0.066282078400697,-0.0382888961453531,-0.000745578453305987,-0.00133755934582094,0.0373515085526104,0.0668148059489066,-3.12750709330196,-0.000148665791713082,0
0.51,3.02218693909082,-0.0493151746245518,8.251156405527,2.47385424808721,-0.308034383087075,3.00685229103386,1.75791144637197,8.43275069096453,0.0857717348400791,26.0873865348642,732.604392389422
0.52,2.91795213812944,0.0139986702075993,9.09573753962043,-0.693574348467563,-1.0737371634337,2.71325066056255,-4.03119184970769,8.18309104418146,0.381624487493718,54.5212836902358,732.604392389422
0.53,2.93539726528755,0.00895441246804429,3.87894633745689,-0.435241473412991,-2.26480465681555,1.86743062870535,-3.2761627801253,2.12189002240233,0.884318276715438,82.5719821764276,732.604392389422
0.54,2.72220882603123,0.0339932385697681,9.98244163975195,-1.68530905180501,-2.72225512047364,-0.0300581410905218,-9.940030675559,-1.91968691720694,1.59432423534896,111.371087317452,732.604392389422
0.55,2.64829954001832,0.0438719402114305,8.92722390564368,-2.18880762203722,-1.5809892535853,-2.12506192400292,-3.43178666490368,-8.52695993624771,2.51852439168486,140.238592551941,732.604392389422
0.56,2.61231570586468,0.00430411076572512,6.6579326162769,-0.197936463360435,1.24888833969036,-2.29444759963313,3.36632651671226,-5.74761614491532,-2.6414816550813,165.713347982003,732.604392389422
0.57,2.40750624694428,0.00140786213546484,13.0341147191655,-0.042870612181125,2.34247871517315,0.555771337972981,12.6703740786068,3.05803942255876,-1.33726102974215,190.306988373388,732.604392389422
0.58,2.4440391020241,0.0398491344237224,6.95886911996686,-1.98313752941885,-0.334833008640847,2.42132235401683,-3.02524193218085,6.57317314097176,0.153716873536812,216.090857020756,732.604392389422
0.59,2.29093470267422,0.0462552241499234,10.9791951632658,-2.28646005898817,-2.23080231662047,-0.52349057473743,-10.0688335768443,-4.93854395912807,1.82147832291535,238.764499762822,732.604392389422
0.6,2.24696729797952,0.0312932614003949,9.25419665610919,-1.5549270816057,1.08457058122834,-1.96813311560282,5.93009032624431,-7.27268744699213,-2.62400565561312,262.626443098605,732.604392389422
0.61,2.19583068254088,-0.0171656054507406,8.36501682480508,0.896725471120585,1.26256335002188,1.79663597636805,5.59257060386673,6.28496436669248,-0.620378008217616,283.880329331761,732.604392389422
0.62,2.08513183013533,0.084477464089375,10.2603742051308,-4.21436716620762,-2.08183005132193,0.144550435472875,-10.3775976859901,-3.91684001570841,1.54196534064659,305.729300550636,732.604392389422
0.63,2.04278243984531,0.0464078199847455,9.10162561663386,-2.2912794093276,1.30348483891126,-1.57354410711127,7.69472999411846,-5.37407485197109,-2.42707362311521,325.976036810195,732.604392389422
0.64,1.99547009722225,0.0341474802946443,8.12939151504287,-1.67374704840841,-0.0407393184537432,1.99534640282097,-1.97755387064674,8.06087565191257,0.0375251585560914,345.798647256413,732.604392389422
0.65,1.81232502427547,0.0115043759127742,13.9982761609269,-0.558764140817421,-0.874229286904098,-1.58756968294289,-6.18321964080729,-12.5710678828878,2.64458185560708,365.374688210338,732.604392389422
0.66,1.76154133289789,-0.0818738963650014,13.4746637291474,4.11036735963388,1.32190929554279,1.16717051743575,13.078574790364,5.23570089840883,-0.893930453778557,383.857371949515,732.604392389422
0.67,1.76917688199052,0.0634842966342175,10.1330590329104,-3.13341166570559,-1.64534768888334,-0.653336114396779,-8.01752011431767,-6.94381201126143,1.98465182592848,401.449337838317,732.604392389422
0.68,1.6090759358599,0.0426947683584376,15.1865348373403,-2.09722219657906,1.55817830431902,0.403767981095683,14.0150330677566,6.21353598342059,-1.29071751982108,418.649010414956,732.604392389422
0.69,1.59485418250834,0.0140223762936307,13.0230026768715,-0.669295422382302,-1.54068031641252,-0.412384108714531,-12.3713296680906,-4.12271237508083,1.84112131160911,435.413938947173,732.604392389422
0.7,1.60251320306012,0.0333513279163598,9.85934184669716,-1.64566074782599,1.50038749986742,0.563913315410616,8.54395168914382,5.18803531990149,-1.19047605235723,451.620317712516,732.604392389422
0.71,1.4861245367978,0.0571602365459647,13.0072746815417,-2.84655212087123,-1.25417614472855,-0.799296959526495,-9.07126657844574,-9.74700858113326,2.17664135292002,467.108450728064,732.604392389422
0.72,1.44811800487932,0.00670726051907006,12.3193723835401,-0.323257704510927,0.856343269679311,1.16780432773401,6.97731561086903,10.1581739665247,-0.628091226338255,482.04882174223,732.604392389422
0.73,1.3392499346875,-0.0111459799929631,15.2395049718627,0.567606768391887,-0.233571185995824,-1.3187718231381,-3.34060255129305,-14.8796862811434,2.95797548047575,496.47563729349,732.604392389422
0.74,1.35172931645286,-0.042297263440891,12.1886420024914,2.12917280834485,-0.52142178979121,1.24783032523803,-2.35609298007432,12.146818372806,0.364528803918955,510.287972407643,732.604392389422
0.75,1.28385108056011,-0.0375633282832258,13.2272258016495,1.89341406465167,1.10851827423131,-0.648746357509866,10.2119117249219,-8.61750417176842,-2.12954022936913,523.601286189659,732.604392389422
0.76,1.25169070166592,-0.0291309032094045,12.5575589084431,1.47579684214953,-1.22506354178984,-0.25845220203369,-12.6150454938297,-0.854920608551084,1.75544875299917,536.411908930512,732.604392389422
0.77,1.21925826379254,0.0793069170338587,11.9683269546823,-3.94843897021949,0.705213539273533,0.997774606281955,2.89338252218623,12.2661875893054,-0.550312385256986,548.747130264003,732.604392389422
0.78,1.18991732378591,0.0274901980197809,11.2883926681478,-1.34170581397741,0.410077233466331,-1.11736100300019,5.38150983417074,-10.0133578497064,-2.76675102718421,560.655058587336,732.604392389422
0.79,1.0291010252467,0.0511398238897782,17.2382188635842,-2.51842412796931,-1.00221681830153,0.239218834678314,-17.4075659947791,0.689417010653897,1.38614348993795,572.176173710431,732.604392389422
0.8,0.98297919729838,-0.0229277833450883,17.5344241773154,1.19701668427062,0.585803209340919,0.789688790281568,11.716772057381,13.09985239336,-0.661562836125147,583.226551328098,732.604392389422
0.81,0.978665020778495,-0.0232217184573825,15.7579921202348,1.15751598243571,0.499986748455324,-0.841628019063386,6.71574807388883,-14.3021986673041,-2.6292676642709,594.065170485763,732.604392389422
0.82,0.985931608016911,0.00045268578114166,13.4551233774846,-0.0238177802935653,-0.967779429478309,-0.18831971880254,-13.2016555944411,-2.59946185887622,1.76344325991825,604.445818306547,732.604392389422
0.83,0.934085030755444,0.0344103407765033,14.2023613367395,-1.70479504371049,0.0839379329377475,0.930942178466467,-0.94860906936076,14.2728250361973,-0.0530994445962417,614.239136360601,732.604392389422
0.84,0.890726427218766,0.068841183571848,14.582551999147,-3.40586039233414,0.852203067159631,-0.268109322898699,14.9749792033267,0.0265646349272379,-1.79846664904271,623.73213117283,732.604392389422
0.85,0.818864984843842,0.0707703209550428,16.4409564123677,-3.51214203705514,-0.335087880604541,-0.750509436318653,-2.06689929569735,-16.6843674361143,2.80788001830409,632.900240364542,732.604392389422
0.86,0.726122890816179,-0.0173809174469919,19.3971397832655,0.86154050409376,-0.682160039169987,0.249427804821646,-17.7377748526493,7.89700114527381,1.19632116116377,641.640147882799,732.604392389422
0.87,0.753476542672982,0.0392272571280433,16.4133779167271,-1.94283572486142,0.297098429862312,0.693540338432862,3.84671752883647,16.0740893846104,-0.352714864289433,649.972506919421,732.604392389422
0.88,0.685185937289785,0.0260798664627687,18.2441237908592,-1.26062770371241,0.653347910809594,-0.208077955428093,17.9183850626373,-3.65632491042825,-1.84107535363064,658.090871817749,732.604392389422
0.89,0.652637639326484,0.0221264042602001,18.3411536536253,-1.12432659589208,-0.106396149454418,-0.644286679524266,-1.25859847610156,-18.3324291220798,3.01182185818317,665.937320787605,732.604392389422
0.9,0.649273822426637,0.0641009996265902,17.0220491960887,-3.19480949923962,-0.652105111082852,0.0205999694476962,-16.7707056691063,-4.32439567231109,1.63762519249708,673.352239730711,732.604392389422
0.91,0.556111074071307,0.0295390849261065,20.2555189870716,-1.43591705662668,-0.145180254547771,0.537638147765259,-7.67480513803487,18.800140247411,0.316810328358426,680.497554600613,732.604392389422
0.92,0.614820328607898,-0.00753562011892189,15.9053757616508,0.363149732175969,0.49651346273879,0.362677823087154,13.1684259586073,8.92778884270713,-0.95218165146991,687.482815115768,732.604392389422
0.93,0.536269576208303,0.00742371837141081,18.4944476571199,-0.345549328780726,0.438083422097225,-0.309391475714305,15.4484788370101,-10.1739127233832,-2.17185471751454,693.988731475106,732.604392389422
0.94,0.460696142379855,0.0457736379985026,20.9823075495988,-2.29292644504584,-0.137690897020846,-0.442015133696678,-1.98326980965818,-21.0138378848424,2.93864503123141,700.300276111588,732.604392389422
0.95,0.505514293336457,-0.00369305702873995,17.4855348987301,0.185399890614127,-0.490130741073164,-0.123815169073689,-17.0278994314887,-3.97856063988645,1.81093075255488,706.264436033591,732.604392389422
0.96,0.515697958814385,-0.00996405287348026,15.7752246903599,0.543139322357461,-0.349865211940921,0.378996042919346,-10.068347828015,12.1565244362415,0.726132744174788,712.009675349125,732.604392389422
0.97,0.461239011774557,-0.0253761834889903,17.302555195548,1.2536063294372,-0.126088781653892,-0.444395089770661,-6.81551466979434,-15.9530155428373,2.81016529458286,717.574434831114,732.604392389422
