t,iq,id,vq,vd,ia,ib,va,vb,theta_e,omega,r
0,0,0,0,0,0,0,0,0,0,0,0
0.01,0.000580499057685131,0.000331342851912688,-0.0283425120025528,-0.0165831802662127,-0.000615174521794652,-0.000261395388677154,0.0303583040245663,0.0125169177958695,2.49125725070327,-0.0012854903565356,0
0.02,0.000655183598279229,0.000373548610819467,-0.0320664015758309,-0.0186955070254773,-0.000693986182740832,-0.000295274940122051,0.0342942453515331,0.0142014375586054,2.49124742482275,-0.00140935340741853,0
0.03,0.000684643748682816,0.000390319268079549,-0.0335155650350731,-0.0195348496667656,-0.000725173657611615,-0.000308560139925438,0.0358398209788003,0.0148462346516177,2.49123720667703,-0.00142876057763847,0
0.04,0.000669002514969321,0.000381557699823767,-0.0327780217735106,-0.019096341375473,-0.000708733241410025,-0.000301409747437802,0.03504440727676,0.0145244099341042,2.49122749069521,-0.00134814426976236,0
0.05,0.000685215658609745,0.000390904912851449,-0.033583974952221,-0.0195641629259705,-0.000725991997804892,-0.000308646673104777,0.0359048584475891,0.0148822372123252,2.49121786472447,-0.00134023840289314,0
0.06,0.000686216389034004,0.000391590675837599,-0.0336522350291356,-0.0195984753934311,-0.000727146597474288,-0.000309021060388093,0.035973636837148,0.0149154488002236,2.49120846915704,-0.00129887791994675,0
0.07,0.000702436476105361,0.000401043260277097,-0.0344571559346715,-0.0200715652994826,-0.00074449342505278,-0.00031619968315952,0.0368376565146663,0.0152692629548751,2.49119948666193,-0.0012939756056093,0
0.08,0.00068708387952994,0.000392333158766464,-0.0337318227549177,-0.0196356411438417,-0.000728268284908755,-0.000309248880634424,0.0360516720796801,0.0149556414024317,2.49119061095546,-0.00121791661359414,0
0.09,0.000685705745436574,0.000391691164643691,-0.0336828869594378,-0.0196035083823314,-0.00072692550950132,-0.000308534668102152,0.0359965953500911,0.0149358474155369,2.49118212413875,-0.00117537776568516,0
0.1,0.000685397758712927,0.000391642540111382,-0.0336851912511402,-0.0196010862191649,-0.000726702848219594,-0.000308313050750579,0.0359961853727152,0.0149388530085195,2.49117393171899,-0.00113663513245525,0
0.11,0.000685178377346015,0.000391637599070981,-0.0336912041054931,-0.0196008331918007,-0.000726568514919459,-0.000308135702112451,0.035999743174438,0.0149435065250862,2.49116601752975,-0.00109938497745728,0
0.12,0.000684972138664823,0.000391635916570423,-0.0336972884152307,-0.0196007551320457,-0.000726444647755771,-0.000307967036615952,0.0360034795524737,0.0149481205641466,2.49115837166822,-0.00106341122095375,0
0.13,0.000716270324831944,0.000409629857599616,-0.0352300627479112,-0.0205013132574647,-0.000759719113727987,-0.000321973083825809,0.037648425719889,0.0156223304060713,2.49115074368585,-0.00109901777896307,0
0.14,0.000741722783744062,0.000424474366516487,-0.0365675025456981,-0.0212442626374854,-0.000786947517381065,-0.000333233822776727,0.0390496679498347,0.0162365134942127,2.49114334049265,-0.00112240207247416,0
0.15,0.000688722528653896,0.000394046857596346,-0.033925805316043,-0.0197214172575342,-0.000730641189697705,-0.000309475523061346,0.0362382141800087,0.0150561083295664,2.49113613057804,-0.000968638848900002,0
0.16,0.000684525785468937,0.000391808103209507,-0.0337364259776289,-0.0196093691962812,-0.000726320282696492,-0.000307486565001115,0.0360344665758091,0.0149730096045182,2.49112947256102,-0.00092819592189978,0
0.17,0.000684047827347927,0.000391642361254878,-0.0337267380904656,-0.0196010691744092,-0.00072590092356759,-0.000307201917950451,0.0360220907838074,0.0149700952089818,2.49112306364324,-0.000897349216914458,0
0.18,0.000683857990433983,0.000391629104041195,-0.0337305513449374,-0.0196004153987785,-0.000725777316451729,-0.00030705438139952,0.036023972348096,0.0149733027118852,2.49111687376646,-0.00086817401085628,0
0.19,0.000683695465659681,0.000391627096529779,-0.0337352462898925,-0.0196003054989448,-0.000725679134928954,-0.000306921921062535,0.0360268175461109,0.014976890044028,2.49111089386058,-0.000840035450429519,0
0.2,0.000683539913522213,0.000391625951211955,-0.033739852058,-0.0196002541086789,-0.000725585798227885,-0.00030679463562883,0.0360296523093918,0.014980378249058,2.49110511668219,-0.000812854402910682,0
0.21,0.000683389961634652,0.000391624903024415,-0.0337443171934231,-0.0196001893454047,-0.000725495868708879,-0.00030667189114466,0.0360323883734254,0.0149837696636295,2.49109953534938,-0.00078659506189272,0
0.22,0.000683244886875376,0.000391623894568269,-0.0337486199252713,-0.019600140888418,-0.000725408864965709,-0.000306553141995521,0.036035036268149,0.0149870287535402,2.49109414322284,-0.000761225927111397,0
0.23,0.000683104817973554,0.000391622920523276,-0.0337527804390204,-0.0196000924401959,-0.000725324862816863,-0.000306438489092935,0.0360375953404615,0.0149901812232571,2.49108893388801,-0.000736716801427116,0
0.24,0.000682969463890882,0.000391621979436727,-0.0337567974783554,-0.0196000440003313,-0.000725243686878971,-0.000306327697127661,0.0360400649186317,0.0149932258527122,2.49108390114851,-0.000713038529274607,0
0.25,0.000682838579483703,0.000391621070175131,-0.0337606717413565,-0.0196000103928375,-0.000725165189740506,-0.000306220567279619,0.0360424573084013,0.0149961540069124,2.49107903901763,-0.000690162944817195,0
0.26,0.00068945173222958,0.000395473549022579,-0.0340909354466807,-0.0197928166528796,-0.000732237220934287,-0.000309146682546191,0.0363959639201194,0.015142036884436,2.49107438274536,-0.000683548200310577,0
0.27,0.000669935950099769,0.000384307444036987,-0.0331549769379831,-0.0192339658112621,-0.000711534232977893,-0.000300375471832977,0.0353845004023942,0.0147355036513841,2.49106972099921,-0.000617609489403494,0
0.28,0.0006690622453947,0.000383843276897794,-0.0330379334099347,-0.0192107438160214,-0.000710637062235659,-0.000299958189101926,0.0352952035390114,0.01465627268796,2.49106533337616,-0.000595251676056075,0
0.29,0.00068133826391942,0.000391045945609473,-0.0337254896029988,-0.0195712158783109,-0.000723804391265894,-0.000305362022266269,0.0359985049217083,0.014984951895791,2.49106117875993,-0.000603818048906668,0
0.3,0.000675885223674192,0.000388057144007379,-0.0334689844755997,-0.0194216342650895,-0.000718124720954186,-0.000302830097167947,0.0357241864882207,0.0148712911043279,2.49105748992228,-0.00057431243350113,0
0.31,0.000681668425709694,0.000391354512406077,-0.0337574976731782,-0.0195866656240618,-0.000724252213064368,-0.000305432363808253,0.0360302979166304,0.015000791694517,2.49105356024005,-0.000569188631289645,0
0.32,0.000682013461199929,0.000391596335437529,-0.0337822638874253,-0.0195987733714067,-0.000724654774895795,-0.00030555770061763,0.0360549890608465,0.0150130288365018,2.49104972948274,-0.000552182336706638,0
0.33,0.000681947886834248,0.000391613478614654,-0.0337868634349733,-0.0195996330923322,-0.000724629835013387,-0.00030549245358738,0.0360585143715921,0.0150160347442747,2.49104602597806,-0.00053483527500421,0
0.34,0.000681854442334609,0.000391614120686901,-0.0337898488047806,-0.019599650162851,-0.000724574846775646,-0.000305415113366814,0.0360603896975114,0.0150182709930168,2.49104244782295,-0.000518006484970648,0
0.35,0.000681761683944731,0.000391613570215656,-0.03379261179961,-0.0195996223852041,-0.000724519287523109,-0.000305339129623464,0.0360620928539835,0.0150203618089714,2.49103899095131,-0.000501742877048313,0
0.36,0.000681671707208948,0.000391612952272952,-0.0337952625125648,-0.019599606494043,-0.000724465322943533,-0.000305265485519445,0.0360637357223075,0.0150223602927789,2.49103565126578,-0.000486030197542023,0
0.37,0.000681584944201866,0.000391612348912146,-0.0337978308502033,-0.019599574347415,-0.000724413281269378,-0.000305194472269212,0.0360653140790546,0.0150243071440232,2.49103242479472,-0.000470850143365487,0
0.38,0.000681501149784875,0.000391611765507099,-0.0338003127687256,-0.0195995421995222,-0.00072436301953227,-0.00030512588873412,0.0360668384657934,0.0150261891634868,2.49102930770006,-0.000456184687047975,0
0.39,0.000681420207542653,0.000391611201814491,-0.0338027104109872,-0.0195995100503147,-0.000724314468208532,-0.000305059639706489,0.0360683102347279,0.0150280079236361,2.49102629627462,-0.000442016386008915,0
0.4,0.000681342059267539,0.000391610657200191,-0.0338050285579775,-0.0195994778996254,-0.000724267592674887,-0.000304995676626113,0.0360697323339494,0.0150297671006847,2.49102338693547,-0.000428328386969335,0
0.41,0.000681266343407291,0.000391610131021477,-0.0338072565514129,-0.0195994619900179,-0.000724222174542808,-0.000304933709646351,0.0360711112840944,0.0150314482523037,2.49102057622236,-0.000415104407820319,0
0.42,0.000681193375611095,0.000391609622655252,-0.0338094174112314,-0.0195994283794144,-0.000724178405541368,-0.000304873987870709,0.0360724340671977,0.0150330901332475,2.49101786079185,-0.000402328718400155,0
0.43,0.000681122723816868,0.000391609131499642,-0.0338114963862199,-0.0195994124614097,-0.000724136024534339,-0.000304816165491952,0.0360737199608866,0.0150346594537873,2.49101523741391,-0.000389986121796666,0
0.44,0.000681054645465216,0.000391608656972595,-0.0338135130868963,-0.0195993803010972,-0.000724095187958435,-0.000304760445433901,0.0360749538850116,0.0150361922593133,2.49101270296774,-0.000378061936268092,0
0.45,0.000680988708491058,0.000391608198511907,-0.0338154523989689,-0.0195993643750111,-0.00072405563463507,-0.000304706482023711,0.0360761525728181,0.0150376567454552,2.4910102544386,-0.000366541977779831,0
0.46,0.00068092504161552,0.000391607755573908,-0.033817326975059,-0.0195993484440662,-0.000724017443005361,-0.000304654375889647,0.0360773108083593,0.015039072711009,2.49100788891439,-0.000355412543132634,0
0.47,0.000680863715351301,0.000391607327634093,-0.0338191463986797,-0.0195993162755491,-0.000723980656241243,-0.00030460418140136,0.0360784215207065,0.0150404575122752,2.49100560358062,-0.000344660393663456,0
0.48,0.000680804297634545,0.000391606914184938,-0.033820894897472,-0.0195993003369517,-0.00072394501310959,-0.000304555553075084,0.0360795010328223,0.015041778837174,2.49100339571942,-0.000334272739494043,0
0.49,0.000680746917185765,0.000391606514736392,-0.0338225845796376,-0.0195992843938063,-0.000723910592002139,-0.00030450859171626,0.03608054379871,0.0150430560587071,2.49100126270397,-0.000324237224321993,0
0.5,0.000680691644514914,0.000391606128814954,-0.0338242243706151,-0.0195992507621904,-0.000723877436040328,-0.000304463351866089,0.0360815411901881,0.015044306898415,2.4909992019974,-0.000314541910720034,0
0.51,4.70911165962042,0.0112454444445885,4.54541613250596,-0.558083257524098,-0.36151859931022,4.69522772452482,-0.916104541081472,4.48698308552462,0.0792334245729492,24.5734297766729,664.086781156326
0.52,4.69210705775956,-0.0200745410105082,5.39669322876773,1.01503664344216,-1.67878460577297,4.38154697294158,-0.959892053057932,5.40677394010828,0.361617305016502,52.4982023741484,664.086781156326
0.53,4.69033407659901,0.0135849419530896,5.48643089274606,-0.663679942836488,-3.51480121160288,3.10573513739802,-4.55987661797948,3.12232609382906,0.850003528632273,80.8664878496338,664.086781156326
0.54,4.67385997424338,0.0433416688547181,6.31128117027708,-2.14684090779711,-4.67207281313686,0.136312830800559,-6.35274050950613,-2.02086217060069,1.5509014489921,110.736278627015,664.086781156326
0.55,4.68310782406428,-0.0044515293500158,5.85008562025792,0.24728190535038,-2.87732489501142,-3.69493168495348,-3.79366476417512,-4.46012979207089,2.4790108297203,142.293828111676,664.086781156326
0.56,4.6638102847566,0.0105670910986615,6.81618046124338,-0.497552298956121,2.1751437898391,-4.12552875752189,3.63222619726159,-5.7891974592649,-2.65412550814733,171.056614851476,664.086781156326
0.57,4.67959168604648,0.0347723458944531,6.02836345013876,-1.70030478002506,4.51544687606106,1.22903497656687,5.34609371643738,3.26366116608537,-1.29761897610406,199.360897909786,664.086781156326
0.58,4.45341924787418,0.0406000322695778,5.88544344504013,-1.99481785733037,-1.17520047321918,4.29575315954047,-3.52395165872437,5.11854545116713,0.276155054429372,229.610779973773,664.086781156326
0.59,4.18162080896581,0.00630762931976436,6.76965324922318,-0.270628421393872,-3.70213544612393,-1.94426991817398,-5.86245830685796,-3.39603113318124,2.05588912033847,255.575333966128,664.086781156326
0.6,3.90337194003802,0.00137876124668401,7.76684126743526,-0.0297857738233137,3.01986826545934,-2.47319834678303,6.02946741624885,-4.89594047576674,-2.25664789738571,282.058484251988,664.086781156326
0.61,3.68646002766038,0.0341972438503676,7.32970729077479,-1.6631570500365,0.415334070173855,3.6631481811657,-0.89606502160648,7.46242372279788,-0.103623405913075,305.116364060669,664.086781156326
0.62,3.47243440286193,0.0491416198234416,6.63847246262927,-2.41729594209262,-2.79561062274927,-2.06028561780871,-3.82625199175612,-5.93905985862467,2.22005795785663,328.290792303453,664.086781156326
0.63,3.28777319026896,0.0186438141000191,5.69215864219,-0.893712613643511,3.28742336101064,-0.0514566607646245,5.70079487426405,0.836857243028068,-1.58077703962123,349.388758338614,664.086781156326
0.64,3.05704486149168,0.0604606689721243,7.53887805358978,-2.97768235159702,-2.62816757097867,1.5626624704399,-8.02577945450405,1.1349619560015,1.05414470778556,368.973436236382,664.086781156326
0.65,2.87561806282168,0.0234353471068177,7.21043119578734,-1.13072081642979,1.81038549387281,-2.23433050874199,5.45748213939425,-4.8461052704294,-2.45247820611751,388.086323130091,664.086781156326
0.66,2.76332131574939,-0.0211837955563994,4.1154895834193,1.09773655678615,-1.23862011465605,2.47026590852858,-0.831366469375733,4.17745255543797,0.457110381354582,405.977515153693,664.086781156326
0.67,2.51873715214724,-0.0147635847689722,8.3459650657687,0.774283510303337,0.880083882871853,-2.36002270416012,2.14321327977359,-8.10316510203027,-2.79051409796222,422.427803780151,664.086781156326
0.68,2.43078307863242,0.0288012026435878,5.1104446667366,-1.39423144989605,-0.83822747129533,2.28186559442165,-3.12180106495853,4.27958924880409,0.363888863618785,437.909914571749,664.086781156326
0.69,2.25884127439347,0.0828133709476508,6.42792593887498,-4.10085636232298,0.986703495452691,-2.03362685106503,6.63739201067046,-3.75237019452434,-2.65321439959272,452.663413377442,664.086781156326
0.7,2.13581178863848,-0.0118469258926197,5.74150688320879,0.633490845150802,-1.41311342754905,1.60154387608357,-3.29741159909142,4.74270900298565,0.717427860726151,466.56424106982,664.086781156326
0.71,1.99246154119879,-0.0130604411404812,6.48039662392998,0.689999709843358,1.72965978228634,-0.989116072976374,5.25786922044845,-3.85051311693491,-2.09681932125036,479.657676234039,664.086781156326
0.72,1.8580982777396,-0.00777543291026667,7.16031885267827,0.421737361586718,-1.84847897639178,0.188984499188222,-7.07542877927155,1.17742773180944,1.46472789051474,491.970346986083,664.086781156326
0.73,1.81531200464101,-0.025664843652672,3.61883351730929,1.31565120201897,1.66116280603103,0.732498798806244,3.84527145669203,0.201944387702825,-1.16962629106611,503.531877893161,664.086781156326
0.74,1.6687509640117,0.0504776497307782,5.61919076421974,-2.49848694788301,-0.957335765274054,-1.36776679501275,-0.992211490562257,-6.06904096471843,2.56115578638273,514.377980668696,664.086781156326
0.75,1.58992580421047,0.0159389135171313,4.54236459333959,-0.770882537999039,-0.120455799653904,1.58543637910455,-1.15755052602499,4.45953055443241,0.0858553531498835,524.582819271069,664.086781156326
0.76,1.47227437617303,0.00250082877866331,5.71465421686046,-0.0997014461033428,1.07950403249701,-1.00113392545801,4.26437079220084,-3.80556893818264,-2.31684729044258,534.159383670329,664.086781156326
0.77,1.41967497127734,0.0260974117965521,3.90438897023339,-1.28028088387169,-1.41862208845938,-0.060576143067446,-3.8189944656551,-1.51613114333265,1.63185168959576,543.171776858539,664.086781156326
0.78,1.29466055054418,0.0102586136105486,5.9917929568919,-0.488049027367823,0.779853072320316,1.03347973656049,3.17920235040318,5.10220022211643,-0.638508374070264,551.615210704447,664.086781156326
0.79,1.2321427686578,-0.00531532969392551,5.18302808865103,0.292815079178375,0.361102922631603,-1.17805294208383,1.21725404661118,-5.04656451701041,-2.84847409749367,559.597924702432,664.086781156326
0.8,1.16075950945746,0.0294683581172958,5.06847904286989,-1.44686382797694,-1.10412163447963,0.359369502323292,-5.27061659616169,0.0591222545609491,1.28151203418524,567.062735673716,664.086781156326
0.81,1.12999112992166,-0.00409752526547169,3.13413562996644,0.234970375097063,0.822159664876449,0.775209796677761,2.44867806833002,1.97027737688833,-0.818407835699067,574.122913158925,664.086781156326
0.82,1.04713616103116,0.0266182077580877,3.99220128059909,-1.30324794156269,0.257182793116158,-1.01541108899219,2.33303460764361,-3.4918584996448,-2.86811527714975,580.782577841088,664.086781156326
0.83,0.962591635711164,-0.0119064800936625,5.11873895971825,0.608756961401369,-0.952449792576209,0.139870704691339,-4.9589425511348,1.40746664270838,1.41261636922628,587.07840068415,664.086781156326
0.84,0.907284364524467,-0.034356453649354,4.9365502658908,1.7271622537232,0.441229385599562,0.793512390137268,4.03721282904768,3.32468503039394,-0.545322459984474,593.007397064422,664.086781156326
0.85,0.84425003728074,0.0391501859191989,5.33774318747226,-1.95064320912935,0.500495415317157,-0.681025110955937,4.87344174811564,-2.92336737213313,-2.46147666009052,598.515164046454,664.086781156326
0.86,0.813202119206488,-0.00441106520016906,4.31563069428235,0.234432727134256,-0.755381251131304,-0.301191483308258,-4.10297455898493,-1.35839124014622,1.9447812120376,603.683778617399,664.086781156326
0.87,0.740139108738776,-0.0498244636137798,5.56935696069788,2.511979420642,-0.126920114564244,0.730875955260556,1.91603846912104,5.80142863010924,0.104723847378436,608.51583053603,664.086781156326
0.88,0.721606626448386,0.0549113193610305,4.23505651422199,-2.72647712517416,0.70840525883928,-0.147964068533688,4.55267771141733,2.15464773193111,-1.70075572894751,613.084417089402,664.086781156326
0.89,0.665579154018018,0.0677665278154347,4.89236185707814,-3.38224546918587,-0.281090843383134,-0.607104480564638,1.60211345788977,-5.72782868305869,2.80944490698984,617.41245863275,664.086781156326
0.9,0.617624362033723,-0.016679630533648,5.25307543880347,0.83572341598772,-0.548954649595819,0.283525757805942,-4.19712774083261,3.26762205907045,1.06704987283759,621.486376702208,664.086781156326
0.91,0.56164249587788,0.0408957482885393,6.13416309411538,-2.04182432684596,0.370977670526578,0.423662983248109,2.06546851425837,6.12624218126532,-0.646507978137248,625.296215329447,664.086781156326
0.92,0.536570350819321,0.0444983670934128,5.62300414693709,-2.21472710865577,0.357348430914065,-0.40272812786743,5.59631996907238,-2.28131422781873,-2.33308605974648,628.817120131577,664.086781156326
0.93,0.503863477850066,-0.0170355946315165,5.59374361005833,0.869745026430502,-0.368263029173543,-0.344312295945904,-4.78495781145716,-3.02499631878191,2.28879856086173,632.163407876112,664.086781156326
0.94,0.443091366725397,0.028018009188823,7.03423291378744,-1.40632635638906,-0.246386215223222,0.369335621154339,-5.38348440785316,4.74091574872271,0.65145603551308,635.355300933773,664.086781156326
0.95,0.435530384488299,0.0340411831160446,5.89776006735749,-1.70606508722706,0.377053315369888,0.2206270956366,3.86905303298647,4.7670389679454,-0.963376961809014,638.347374466779,664.086781156326
0.96,0.417076108734146,-0.0302877996212874,5.42395697133443,1.5217120303449,0.255377223201232,-0.331137894468067,1.72346759087618,-5.36326171218441,-2.55714616969084,641.111190778996,664.086781156326
0.97,0.421755465677955,0.0175218251224742,3.87641903441476,-0.863058788295545,-0.362116745653908,-0.216924294863148,-2.76597633196193,-2.84971400906365,2.15203457465743,643.709776805942,664.086781156326
