t,iq,id,vq,vd,ia,ib,va,vb,theta_e,omega,r
0,0,0,0,0,0,0,0,0,0,0,0
0.01,0.00116395287977447,0.000665157208699811,-0.057770325997623,-0.0333171319541375,0.000945833576896598,0.000950062768155658,-0.047237393059779,-0.0470751584642791,-0.263994611462439,-0.00106174714447791,0
0.02,0.00129359034141094,0.000739768875260167,-0.0642765981998419,-0.0370543543802997,0.00105169607694052,0.00105573165243034,-0.0525432906433749,-0.0523804244260257,-0.264002454833687,-0.00114045835812707,0
0.03,0.00133071252585466,0.000761020153757942,-0.0661228631961525,-0.0381188392447364,0.00108190667098684,0.00108601356168624,-0.054053102581109,-0.0538845158090825,-0.264010467189513,-0.00113092975171324,0
0.04,0.00130972977810005,0.000749392736170221,-0.0650963961855723,-0.0375364095811739,0.00106521453356227,0.00106878415133946,-0.053223386613587,-0.0530452067389249,-0.26401789536345,-0.00106981947975738,0
0.05,0.00133011739412046,0.000761111639557968,-0.0661146756727578,-0.0381234075026415,0.00108185579570981,0.0010853991188966,-0.0540561756626539,-0.0538746175081988,-0.264025310367934,-0.00104782127180058,0
0.06,0.00132996801979472,0.000761229700455399,-0.0661175009667138,-0.0381293205722786,0.00108193853916378,0.0010852163784261,-0.0540630061705814,-0.0538754154061633,-0.264032457003128,-0.00100793598943265,0
0.07,0.00136681175478413,0.000782440039152608,-0.0679482340511176,-0.0391917193984946,0.00111203674181621,0.00111524036545311,-0.0555667411520682,-0.0553650671255337,-0.264039263495106,-0.00100485037532992,0
0.08,0.00132966867637298,0.000761444302481399,-0.0661218660817598,-0.0381400784881925,0.001082082169729,0.00108485685353573,-0.0540752548690398,-0.0538760946252421,-0.264045902683797,-0.000932878721679532,0
0.09,0.00132893650444551,0.000761221125399534,-0.0660946979751827,-0.0381289061513574,0.0010816824889843,0.00108420147003549,-0.0540577194148226,-0.0538524424366987,-0.264052220495849,-0.000897052795846563,0
0.1,0.00132861365463473,0.000761215096733479,-0.0660873955025592,-0.0381286002478444,0.00108159897849951,0.00108388482620878,-0.0540558446545239,-0.0538451451837357,-0.264058283151335,-0.000863032131651275,0
0.11,0.00132830803435029,0.000761211485048513,-0.0660805946051246,-0.0381284108165642,0.00108152202971375,0.00108358444910083,-0.0540542000044264,-0.0538383149499033,-0.264064101510693,-0.000830386235318989,0
0.12,0.00132801475407915,0.000761208041265607,-0.0660740676080696,-0.0381282214492866,0.0010814482064628,0.00108329619489672,-0.0540526142089964,-0.0538317617985422,-0.264069685424317,-0.000799055819758721,0
0.13,0.00139037543569464,0.00079694145674196,-0.0691643207407497,-0.0399180950748221,0.00113222616012378,0.0011341620078227,-0.0565873505525601,-0.0563473986566684,-0.264075299256616,-0.000826681780133441,0
0.14,0.00149172372516502,0.000855622891657168,-0.0742770813500769,-0.0428574029822039,0.00121533344015223,0.0012166736761333,-0.0607596036053401,-0.0605153895632087,-0.264080625218146,-0.000892698827816871,0
0.15,0.00132895599999182,0.00076218445683181,-0.0661435592248802,-0.0381771549370072,0.00108265390081974,0.00108393252889194,-0.0541188570224481,-0.0538852011279842,-0.264085783786656,-0.000710416920980155,0
0.16,0.00132694076170816,0.00076120550781787,-0.0660506738040677,-0.0381281091436661,0.00108118795959429,0.00108223759232584,-0.0540475195724686,-0.0538080834531978,-0.26409049664595,-0.000682305647248054,0
0.17,0.00132668389013443,0.000761192522991641,-0.0660444220785972,-0.0381274740271165,0.00108111326439895,0.00108198812883564,-0.0540455177839461,-0.0538019699532415,-0.26409501701694,-0.000656924441995147,0
0.18,0.00132645602083429,0.000761189739754262,-0.0660393429746055,-0.0381273107347472,0.0010810557885388,0.00108176419666277,-0.0540442677072776,-0.0537968751171075,-0.264099355215357,-0.000632583328380453,0
0.19,0.00132623721754856,0.000761187169578843,-0.0660344612952956,-0.0381271849117532,0.00108100069400082,0.00108154915002146,-0.0540430958910944,-0.0537919705379984,-0.264103518609256,-0.000609223207983391,0
0.2,0.00132602737823782,0.000761184703847821,-0.0660297823255635,-0.0381270591053151,0.00108094785713515,0.0010813429110893,-0.0540419679445536,-0.0537872707121427,-0.264107514242896,-0.00058680436554736,0
0.21,0.00132582567361792,0.000761182337320406,-0.0660252745310868,-0.0381269649245084,0.00108089706391189,0.00108114467334377,-0.0540409065168475,-0.0537827365805927,-0.264111348875656,-0.000565288871069094,0
0.22,0.00132563248168982,0.000761180066001651,-0.0660209662852603,-0.0381268391431423,0.00108084841635228,0.00108095479565898,-0.0540398583341296,-0.0537784116864168,-0.264115028995122,-0.000544640324912746,0
0.23,0.00132544672595918,0.000761177886066728,-0.0660168128263887,-0.0381267420655651,0.00108080163664364,0.00108077223309139,-0.0540388702631818,-0.0537742367399815,-0.264118560827444,-0.000524823794154703,0
0.24,0.00132526890084506,0.000761175793844556,-0.0660128476865446,-0.0381266163045099,0.00108075685692945,0.00108059745737344,-0.0540378959853743,-0.0537702587681343,-0.264121950347377,-0.000505805753461473,0
0.25,0.00132509792985746,0.000761173785810386,-0.0660090253961912,-0.0381265221469832,0.00108071379912151,0.00108042942402815,-0.0540369821384885,-0.0537664178288278,-0.264125203289541,-0.000487554028371919,0
0.26,0.00133668138624103,0.000767833065975823,-0.0665859725911018,-0.0384600822304117,0.00109016956353909,0.00108986928953066,-0.0545097639314802,-0.0542361070432538,-0.264128309889087,-0.000481207942416105,0
0.27,0.00128684760308337,0.000739431258553668,-0.0641272334473369,-0.0370374609216236,0.001049745937548,0.00104917529816954,-0.052494740966939,-0.0522338755210067,-0.264131379592635,-0.000417111371279935,0
0.28,0.00126837374345833,0.000728658854251553,-0.0631307562366829,-0.0364978767060054,0.00103452713881047,0.00103415147731767,-0.0517138677634748,-0.0514126761412407,-0.264134281754934,-0.000383538956266951,0
0.29,0.00132386884913691,0.000760826931113083,-0.0659649844159293,-0.0381091343139712,0.00108007078752763,0.00107932082475578,-0.0540093311626478,-0.0537278087634098,-0.264136955482623,-0.000421036920751321,0
0.3,0.00132090995395624,0.000759251385754659,-0.0658220362323903,-0.0380302254765648,0.00107777987497363,0.00107687339754163,-0.0538959624767063,-0.0536102950214409,-0.264139265214515,-0.000405399905846933,0
0.31,0.00132418755770088,0.000761143538303912,-0.065987657404538,-0.0381250193064903,0.00108046486795465,0.00107954057032951,-0.0540308458129756,-0.0537452856313314,-0.264141815419599,-0.000394310663649488,0
0.32,0.0013240960997821,0.000761161806171896,-0.0659866181848024,-0.0381259144995875,0.00108046127159446,0.00107944486529768,-0.0540315704414682,-0.0537439162280292,-0.264144267860229,-0.000380585444939756,0
0.33,0.00132397272828771,0.00076116055934878,-0.0659838598304113,-0.0381258606336926,0.00108043039815831,0.00107932355533141,-0.0540309247729198,-0.053741140436003,-0.26414662153611,-0.000367379733651801,0
0.34,0.00132385389697688,0.000761159166544833,-0.0659811899206737,-0.038125798031915,0.00108040046627568,0.0010792067688017,-0.0540302886540575,-0.0537384574292714,-0.264148880373152,-0.000354705770318872,0
0.35,0.00132374007152368,0.000761157827761829,-0.065978637149464,-0.0381257354221322,0.00108037179478035,0.00107909489886836,-0.0540296782083887,-0.0537358924209604,-0.264151048192339,-0.00034254248951867,0
0.36,0.00132363066985152,0.000761156542855149,-0.0659761777317793,-0.0381256728060986,0.00108034423557621,0.00107898737970378,-0.0540290874260335,-0.0537334222521053,-0.264153128661063,-0.000330869317664292,0
0.37,0.00132352592479102,0.000761155309678595,-0.0659738284908243,-0.0381256101824834,0.001080317851234,0.00107888443280594,-0.0540285208884577,-0.0537310629722591,-0.264155125298818,-0.000319666506279907,0
0.38,0.00132342525426559,0.000761154126151628,-0.06597156523104,-0.0381255475527012,0.00108029249146486,0.00107878549316823,-0.0540279724624124,-0.0537287910419307,-0.264157041483873,-0.000308915102595825,0
0.39,0.00132332877469055,0.00076115299027682,-0.0659693985665733,-0.0381254849160229,0.00108026818827954,0.00107869067017499,-0.054027445093709,-0.0537266165318788,-0.264158880457886,-0.000298596917526544,0
0.4,0.00132323613681992,0.000761151900136996,-0.0659673155553588,-0.0381254222729245,0.00108024485203927,0.00107859962382291,-0.0540269355717988,-0.0537245267805105,-0.264160645331829,-0.000288694494900472,0
0.41,0.00132314686063055,0.000761150853891827,-0.0659652965563714,-0.0381253911695865,0.0010802223588933,0.00107851188798443,-0.0540264693815908,-0.0537224944298386,-0.264162339091619,-0.000279191081926753,0
0.42,0.0013230615569186,0.00076114984977523,-0.0659633763323996,-0.0381253256013274,0.00108020086974252,0.00107842804962418,-0.05402599203932,-0.053720570115593,-0.264163964602788,-0.000270070600854004,0
0.43,0.00132297986208516,0.000761148886091969,-0.0659615407095794,-0.0381252629365965,0.00108018029101471,0.00107834775521874,-0.0540255360649296,-0.0537187302499148,-0.264165524615325,-0.000261317621769742,0
0.44,0.00132290106327321,0.000761147961214786,-0.0659597579032911,-0.0381252318061703,0.0010801604378861,0.00107827031420535,-0.0540251209393816,-0.0537169365323469,-0.264167021768417,-0.000252917336496597,0
0.45,0.00132282540767464,0.000761147073582527,-0.065958043993712,-0.0381252006663389,0.00108014137615119,0.0010781959628653,-0.0540247205484431,-0.0537152125844037,-0.264168458594918,-0.00024485553353942,0
0.46,0.00132275314247987,0.000761146221695432,-0.0659564149013971,-0.0381251379804815,0.001080123171553,0.00107812493757259,-0.0540243087376697,-0.0537135818773328,-0.264169837525784,-0.000237118574044996,0
0.47,0.00132268354047713,0.000761145404115203,-0.0659548376560787,-0.0381251068237052,0.00108010563536182,0.00107805653419218,-0.0540239379111438,-0.0537119959890852,-0.264171160893543,-0.000229693368722695,0
0.48,0.00132261673244181,0.00076114461946112,-0.0659533220607533,-0.0381250756580978,0.00108008880282718,0.00107799087689878,-0.054023580305407,-0.0537104724962494,-0.264172430937493,-0.000222567355705545,0
0.49,0.00132255296556311,0.000761143866407653,-0.0659518836590667,-0.0381250129520673,0.00108007273954999,0.00107792820232645,-0.054023209657224,-0.0537090345203299,-0.264173649805946,-0.000215728479295785,0
0.5,0.00132249151263169,0.000761143143682897,-0.0659504890813574,-0.0381249817709061,0.00108005725666186,0.00107786780659337,-0.0540228782420753,-0.0537076332707379,-0.264174819561052,-0.000209165169568818,0
0.51,2.45990782993616,0.0717956629844492,8.72595789414724,-3.59468502079324,-0.00784903152876314,2.46094281561126,-3.87519005444341,8.60505686274581,0.0323674692829023,9.91432506835944,348.11901167713
0.52,2.45747151936313,-0.0830745780020094,6.38137226304517,4.16495167545162,-0.437392293519844,2.41966023142932,3.19888852269741,6.91634633587448,0.14504276500499,20.7877609358869,348.11901167713
0.53,2.43505157855503,-0.0390292774908258,5.04559871717691,1.96094726087981,-0.841584345073984,2.2853304498149,0.183269256250177,5.41015646302792,0.336817426161363,31.5155468124367,348.11901167713
0.54,2.38895422270442,0.0112903641374575,4.82775930006349,-0.557158492858349,-1.35387879991643,1.96830941308435,-3.21229866756206,3.64675509403809,0.607243134063151,42.2967693452769,348.11901167713
0.55,2.32484561606713,-0.0827367164057385,5.34239980274293,4.15495275476999,-1.94902470474458,1.2700611021063,-1.97859701607174,6.47225014154355,0.957696523951264,53.3997990573543,348.11901167713
0.56,2.20498580176401,0.013392007246146,8.47469349987558,-0.664363269225544,-2.16704449983354,0.407504438724501,-8.45688516810032,0.861917469305644,1.39099423626175,64.7132520385447,348.11901167713
0.57,2.19427897284909,0.0562517004854721,6.49300050852978,-2.80877819012384,-2.09246841991626,-0.663023661831408,-5.22064626202074,-4.77421649403672,1.90328014397691,74.9006610736486,348.11901167713
0.58,2.17690291820974,0.0267352433749193,5.08912135992854,-1.32540734453999,-1.3460985851242,-1.71103468336414,-2.04562011262927,-4.84471869150811,2.48728498403342,84.4114878676071,348.11901167713
0.59,2.15903629360298,-0.0294574373628339,3.60578642341158,1.49323723279459,0.0287324098560274,-2.15904606396778,-1.49444800751826,-3.60528477619841,3.14125684364457,94.1563058805595,348.11901167713
0.6,2.00690422075072,-0.00921137703111108,8.5899355140873,0.470940107334224,1.34159114579552,-1.49260932539527,5.36113126289819,-6.72807909457446,-2.41401818562453,104.262586067794,348.11901167713
0.61,2.08595281050955,0.0485519710985054,2.41910957404296,-2.41474648778775,2.08154538100536,-0.143962663164822,2.52708349941675,2.30150835724861,-1.61657632407781,113.210568528846,348.11901167713
0.62,1.94783099744269,-0.0117081538755485,7.00994420205327,0.605763698847294,1.32417713713489,1.42854386875413,5.23801633728106,4.69781355793502,-0.753513085084291,122.434899158003,348.11901167713
0.63,1.93409669785479,0.0109614613850754,5.29082068863498,-0.534914916817534,-0.332359501848375,1.90535753910378,-1.4651250158437,5.1119786986519,0.178364041200252,131.557804107463,348.11901167713
0.64,1.93393643611179,0.0499898902523396,3.18816303621905,-2.48005864972838,-1.76372012084673,0.794921671215851,-3.89975804568927,-1.05212244377154,1.17319732180631,139.944925773442,348.11901167713
0.65,1.84046104559477,0.0105405604409773,5.51199660828072,-0.514862667895153,-1.45925517054831,-1.12159810582679,-4.03485180786346,-3.7904038129296,2.23182889916953,148.757065012752,348.11901167713
0.66,1.73673914480433,-0.0177405097568702,8.65786294077237,0.913200962488974,0.378945097917513,-1.69498619332029,0.909399492195233,-8.65826306268673,-2.93185587130014,156.703070448249,348.11901167713
0.67,1.64316730149584,-0.0513535497830189,11.0716574726786,2.58528725828949,1.62553068138365,-0.245532017587988,10.4246958789482,-4.53773349059123,-1.75195298214955,165.073915407115,348.11901167713
0.68,1.64387411178752,-0.0100878733838508,9.05574799328205,0.531595016898657,0.799926298692579,1.43615520653396,4.91782174760661,7.62261072327525,-0.514331712411337,172.689981551672,348.11901167713
0.69,1.62821393830813,-0.0354568587623601,7.69541069524096,1.79393773291053,-1.1715121261955,1.13132539789004,-4.14391930957304,6.72796337042175,0.781074259159223,180.514346035966,348.11901167713
0.7,1.60636235849568,-0.010789879488613,6.77340182795627,0.551456115167613,-1.35489186410721,-0.863008971487123,-6.03036226057466,-3.13333802456006,2.13123148739562,188.047008782126,348.11901167713
0.71,1.50661816686651,0.102816657850118,9.80903393795117,-5.12514616627284,0.484269474277612,-1.43036800934115,8.50216641685737,-7.08501490764852,-2.74700524183015,195.134320620716,348.11901167713
0.72,1.54274510652438,-0.0197466359203262,5.9682549277361,1.00372284525671,1.47670265192483,0.446991802087316,6.01243126396258,0.691517699456616,-1.28966706687981,202.437750893203,348.11901167713
0.73,1.45292102497382,-0.0251583488772366,8.58209797810713,1.27478155721763,-0.340102347265646,1.41277841175239,-0.61950000175866,8.65411425116827,0.218923945849525,209.319182339101,348.11901167713
0.74,1.49107313297529,0.0551772888141246,4.79631866603343,-2.73577846920542,-1.47051170193641,-0.252861534341862,-4.13063864012514,-3.66428451452855,1.7780739619731,215.943392094712,348.11901167713
0.75,1.40570819342172,0.0233444812500461,7.14448730195974,-1.15198562298507,0.317493026121382,-1.36958339221169,2.8465267746132,-6.65342430668888,-2.89719363327247,222.658528707035,348.11901167713
0.76,1.37239818079261,-0.0398561426249062,6.98364632129294,2.00619696329922,1.28598070152161,0.480956249633787,7.25733063687452,0.356783160395648,-1.24193609842792,229.097790842333,348.11901167713
0.77,1.36691269073933,0.0776453170463157,5.51737832543923,-3.85874631622967,-0.536829693741205,1.25948123419175,-5.90595438213448,3.2328144943979,0.459655128349449,235.197915885839,348.11901167713
0.78,1.22938286039032,-0.00693423846200764,10.6224267651632,0.374204356510582,-0.985152245225093,-0.735462680774824,-8.76989923141596,-6.00540146472297,2.20644363618207,241.220814859981,348.11901167713
0.79,1.22109426990438,0.108828022264106,9.27159947437087,-5.43175941061278,0.850375304766743,-0.88304959966363,10.5613716960985,-1.98090762146657,-2.28615330865663,247.206408737996,348.11901167713
0.8,1.23819375419977,-0.0408838070538528,6.68882586245927,2.06031156106966,0.504998981055205,1.13126976789435,4.77926953289316,5.11310648030534,-0.45286316634595,253.031926839887,348.11901167713
0.81,1.20401476410163,-0.00491618762493873,6.73929225347685,0.253981030562553,-1.19142457295216,0.173733151819767,-6.62706504419437,1.25082986120245,1.42191405652165,258.602708719715,348.11901167713
0.82,1.14905983752829,0.0783861710572594,7.8652068180726,-3.91622309744878,0.14645594830927,-1.1423806533894,5.37032104637106,-6.95398687796799,-2.94597364139677,264.025677376895,348.11901167713
0.83,1.1343286041843,0.0301761118905947,6.99989682541173,-1.48058858268659,0.965595561543953,0.596017777860824,5.0457525192536,5.07258116071463,-0.991190182314233,269.255777821533,348.11901167713
0.84,1.11132378608546,-0.0377565261563664,6.58823816013579,1.92150030288451,-0.956457102015504,0.567147180889425,-4.51391309557255,5.16929724762209,1.00160313672395,274.325983098672,348.11901167713
0.85,1.1291966698603,0.0212553517265653,4.12277335580904,-1.03626289968358,-0.145271068648603,-1.12001483285459,0.576721047311086,-4.21170912744671,3.03142936242953,279.370450293944,348.11901167713
0.86,1.01508118396426,0.0139930560470388,8.29198099138948,-0.677444685492637,0.945977307770563,0.368391841439217,7.43003019651876,3.7430644320244,-1.18565090387863,284.236198508778,348.11901167713
0.87,1.04349598477196,-0.0175036167006168,5.38369426937925,0.898173042372264,-0.837945937027684,0.62212286041553,-3.72073528553263,3.99337047306954,0.915380083963445,288.932208469872,348.11901167713
0.88,0.958828052026008,0.0708353959780106,8.15310865274259,-3.53067650462525,-0.157992121084906,-0.948370906528898,2.7723386594945,-8.44114895264923,3.05025857597048,293.51309409566,348.11901167713
0.89,0.968952577424356,-0.0167011895399388,6.21636446096619,0.852899819217282,0.839590264241211,0.483979560746862,5.85148876652094,2.26510583162544,-1.06510965181044,297.943824693275,348.11901167713
0.9,0.97025559548258,0.0401534723436952,4.75653806435376,-1.99571733908133,-0.862391861480826,0.446417404631751,-5.15431915538469,0.201335788151318,1.13448921507623,302.211463992704,348.11901167713
0.91,0.938221291694768,0.0441820100833652,4.98862859641863,-2.19811969091051,0.16483081610201,-0.924684835101967,3.24897076589395,-4.3774803724221,-2.91813280662247,306.376325095223,348.11901167713
0.92,0.893417579652075,0.0540737250137343,5.88788630657919,-2.69383289937305,0.588843398233511,0.674078920991484,1.46646398808205,6.30661749439474,-0.657558810176775,310.391970200531,348.11901167713
0.93,0.829899520590087,-0.066153356890292,7.75580208220501,3.32863876644024,-0.824304961359041,-0.116751066729089,-7.9447412774413,2.84840095673077,1.63195193331575,314.274277937599,348.11901167713
0.94,0.752851719897523,0.0259724146924152,10.318054790073,-1.28551663349167,0.526322510833131,-0.538929395253146,8.34751775152801,-6.19949635485472,-2.33354355315246,318.062861200099,348.11901167713
0.95,0.808164643657547,0.0773563941708394,6.2889972649908,-3.85531725565582,0.0680249522932225,0.809003528325278,-3.92763611323928,6.24408778788367,0.0115403437638222,321.732326465944,348.11901167713
0.96,0.783597984675813,0.0646225122287691,6.27070329147215,-3.21462271429087,-0.585796226304972,-0.524446996293817,-1.97856622072977,-6.76319411780422,2.3832759199022,325.308738775175,348.11901167713
0.97,0.691667016153026,0.0224864775635733,9.66336812222601,-1.10251517073612,0.691592222434362,0.024679967089682,9.56582354323213,1.75819313703106,-1.5026266355358,328.7230263902,348.11901167713
0.98,0.722406809835674,-0.00792052048420949,6.9494847773016,0.424158941882356,-0.57929762633815,0.431681124976158,-5.26943426921353,4.55063863214423,0.919423395760214,332.033931496913,348.11901167713
