t,iq,id,vq,vd,ia,ib,va,vb,theta_e,omega,r
0,0,0,0,0,0,0,0,0,0,0,0
0.01,0.000865792343330999,0.000484932337326357,-0.0422565032632788,-0.024272759836385,-0.000378161997403077,0.000917468940768842,0.01808163420244,-0.0452529937427732,0.901527997910936,-0.00491132002901342,0
0.02,0.000967534717817007,0.000541754128128016,-0.0473941532137125,-0.0271169014300905,-0.00042266615453579,0.00102517036990683,0.0203446001145305,-0.0506717805903241,0.901491918504338,-0.00502460973610156,0
0.03,0.00100633131152491,0.000564446350019373,-0.0493466404833209,-0.0282527341362012,-0.000438975931021828,0.00106705319576353,0.0211692780169487,-0.0527747058864578,0.901456860009947,-0.00476710833115128,0
0.04,0.000980934664228746,0.000551926292255292,-0.04818566892022,-0.0276260722964074,-0.000426795339109422,0.00104148988765264,0.0206460450838627,-0.0515635470289864,0.901426102709957,-0.00417749118830634,0
0.05,0.00100228963585888,0.000565010227714452,-0.0492807068584455,-0.0282809601899283,-0.000435393211282406,0.00106501353190523,0.0210969246403712,-0.0527571848040705,0.901397478328557,-0.00390408338835054,0
0.06,0.00100149344130512,0.000565747364154886,-0.0492989710914185,-0.028317860464513,-0.000434283694991375,0.00106510885138093,0.0210869750764136,-0.0527980042623474,0.901371433288248,-0.00353153209011746,0
0.07,0.0010248994930323,0.000580188978733481,-0.0504809014672169,-0.0290407292912958,-0.00044365154748805,0.00109096816006386,0.0215640072862544,-0.0540987889002291,0.901348384657672,-0.00334939156922336,0
0.08,0.000999259794042429,0.000566599143850588,-0.0492877451776954,-0.0283604957930367,-0.000431956221038737,0.00106440995340511,0.0210493659956452,-0.0528254080676114,0.901326961099771,-0.00289004791704415,0
0.09,0.00099608629043054,0.000565822643793688,-0.0491754742739247,-0.0283216351125973,-0.000429929512224674,0.00106183980747173,0.0209844475845865,-0.0527256602147975,0.901308054995494,-0.00260372891382656,0
0.1,0.000994490336102452,0.000565774514596078,-0.0491352383886523,-0.0283192297068267,-0.000428689939733982,0.00106081891269833,0.0209534960902276,-0.0526991596165871,0.901291096183441,-0.00235455436304314,0
0.11,0.000993136528240914,0.000565768170377596,-0.0491029393396209,-0.02831889324924,-0.000427616174030063,0.00105998028002728,0.0209275759932212,-0.0526791697893987,0.901275866457157,-0.00213126928907322,0
0.12,0.000991925138363517,0.000565764565609605,-0.0490741402983858,-0.0283187234414784,-0.000426654048745164,0.00105923148863044,0.020904379187787,-0.0526614496017135,0.90126218840757,-0.00193076412805829,0
0.13,0.00103812039749285,0.000592281512216492,-0.0513367904681213,-0.0296460055021613,-0.000446404572828557,0.00110869937618902,0.0218540776761242,-0.0551067236072686,0.901248917691553,-0.00202611859847136,0
0.14,0.0010785036054851,0.000616451704226059,-0.0534628636735628,-0.0308558033689447,-0.000463054580969308,0.00115271990775336,0.0227696122806287,-0.0573751091529313,0.901236948433557,-0.00210427851468985,0
0.15,0.000994331269598325,0.000568635269342472,-0.0492692929627732,-0.0284624020594548,-0.000426720618163873,0.00106299118400627,0.0209663154658144,-0.0528959844963073,0.901225982863559,-0.00143437167650782,0
0.16,0.000988306927189581,0.000565916784304276,-0.0489968415374503,-0.0283263495685613,-0.000423675055981698,0.0010571243238272,0.0208366738418747,-0.0526203913301078,0.90121730780189,-0.00127503922396643,0
0.17,0.000987291688313717,0.000565760513686646,-0.0489645208201254,-0.0283185304814936,-0.000422967862541847,0.0010563749447602,0.020815778802505,-0.0525943611104932,0.901209590675647,-0.0011598837370343,0
0.18,0.000986657722276563,0.00056574998850884,-0.0489489115920982,-0.0283179998562599,-0.000422470002229805,0.00105597613971229,0.0208035050744745,-0.0525844010950633,0.901202664447301,-0.00105822560424995,0
0.19,0.000986105946181072,0.000565747910524173,-0.0489357364193563,-0.0283178793056259,-0.000422032092365082,0.00105563466614643,0.0207929225474583,-0.0525762585128317,0.90119644415328,-0.000967035849652748,0
0.2,0.000985611409219927,0.00056574646285688,-0.048923946084245,-0.0283178082784346,-0.000421639343613862,0.001055328941201,0.0207834285038133,-0.052569000996549,0.901190857596673,-0.000885143478549961,0
0.21,0.000985167126428245,0.000565745186172714,-0.0489133435968657,-0.0283177605685545,-0.000421286495097224,0.00105505429799664,0.0207748813331313,-0.0525624871085581,0.90118584019536,-0.000811594680403612,0
0.22,0.00098476839927309,0.000565744040660753,-0.0489038291151987,-0.028317689204703,-0.000420969825485227,0.00105480781461884,0.0207672288374787,-0.0525566192827745,0.901181333963086,-0.000745539001963031,0
0.23,0.000984410030991877,0.000565743011729889,-0.0488952639242867,-0.0283176440791626,-0.000420685213588047,0.0010545862769385,0.0207603285341221,-0.0525513516436552,0.901177286822221,-0.000686213024075997,0
0.24,0.000984088333530297,0.00056574208746878,-0.0488875726272197,-0.0283175958966759,-0.000420429725232059,0.00105438740691705,0.0207541370185855,-0.0525466154130111,0.901173652000975,-0.000632931128746773,0
0.25,0.000983799465194156,0.000565741257240782,-0.0488806608484703,-0.0283175504919623,-0.000420200310144729,0.0010542088299834,0.0207485744549056,-0.0525423574741108,0.90117038749236,-0.000585077549706164,0
0.26,0.000993726690754708,0.000571438138709433,-0.0493667397753034,-0.0286027129761547,-0.000424444798557829,0.0010648384362274,0.0209525398100866,-0.0530677045023199,0.90116759037877,-0.00060634265877525,0
0.27,0.00096305621260322,0.00055405351640275,-0.0478903418140709,-0.0277325369126323,-0.000411184886346239,0.00103217225157061,0.0203349208788773,-0.0514691114701707,0.901164485639445,-0.000374819094037124,0
0.28,0.000961189642481048,0.000552920763860138,-0.0476662034412335,-0.0276758448297392,-0.000410422052791178,0.00103012651577522,0.0201942520190166,-0.0512855878676779,0.901162111811232,-0.00032988574780386,0
0.29,0.000981527033635893,0.000565010485261566,-0.0487924503152012,-0.0282809805601046,-0.000418861605032099,0.00105222959568885,0.0207015838078671,-0.0524591412153139,0.90116033153041,-0.00042921156545934,0
0.3,0.00097440122416013,0.000561315362914316,-0.0484486474465362,-0.0280960313412344,-0.000415567824587099,0.00104490959678641,0.0205468055727586,-0.0521007408515622,0.901159976472985,-0.000380591671803377,0
0.31,0.000982187194283101,0.000565486877843138,-0.048828902599956,-0.0283048319695335,-0.000419081286804274,0.00105301375521736,0.0207152489447949,-0.0525005114555534,0.901158224757733,-0.000403509768264083,0
0.32,0.000982539644985337,0.000565723458523816,-0.0488495561887084,-0.0283166716259792,-0.000419209003060292,0.00105341871886029,0.020724004900677,-0.0525226489496106,0.90115653951906,-0.000381876381079526,0
0.33,0.000982436888882558,0.000565736536060263,-0.0488478388996199,-0.0283173210642981,-0.000419118718575164,0.0010533658284806,0.0207221754932214,-0.0525221237218174,0.901155018896387,-0.000359779914024475,0
0.34,0.000982317949745904,0.000565736953266154,-0.0488450017203542,-0.0283173361723419,-0.000419023767099111,0.00105329290194605,0.0207198698904814,-0.0525204028229063,0.901153652746783,-0.000339766122555411,0
0.35,0.000982209334251225,0.000565736684403998,-0.0488423598991512,-0.0283173368160592,-0.000418937482406739,0.00105322578690676,0.0207177337478513,-0.0525187889542923,0.901152425751293,-0.000321780675215425,0
0.36,0.00098211193187062,0.00056573640635861,-0.0488399879952174,-0.0283173139877158,-0.000418860126781752,0.00105316557216545,0.0207158303698413,-0.052517321627629,0.901151323759612,-0.000305626898247947,0
0.37,0.000982024154718439,0.000565736154551322,-0.048837836041146,-0.0283173145255161,-0.000418790419813808,0.00105311130527079,0.0207140908372832,-0.0525160068160522,0.901150334037783,-0.000291118812564188,0
0.38,0.000981945611619657,0.000565735928270378,-0.048835911103126,-0.028317291605149,-0.000418728043167004,0.00105306274769388,0.0207125491530966,-0.0525148124313895,0.901149445148313,-0.000278088796267731,0
0.39,0.000981874831104375,0.000565735725028491,-0.0488341634998662,-0.0283172920560095,-0.000418671833845638,0.00105301898846796,0.0207111367575146,-0.0525137445658613,0.901148646818171,-0.000266386267355254,0
0.4,0.000981811538412457,0.000565735542485941,-0.0488326009483786,-0.028317269060857,-0.000418621568141073,0.00105297985910406,0.0207098882758615,-0.0525127714946554,0.901147929821606,-0.000255875982641789,0
0.41,0.000981754378483632,0.000565735378535527,-0.0488311750549165,-0.0283172665313498,-0.000418576176195699,0.00105294452034279,0.0207087380735022,-0.0525118977799744,0.901147285872212,-0.000246436477262895,0
0.42,0.000981703155742312,0.000565735231284568,-0.0488298932825076,-0.0283172668809841,-0.000418535497994334,0.00105291285243825,0.0207077025267029,-0.0525111144202401,0.901146707527836,-0.000237958661081036,0
0.43,0.00098165732534833,0.000565735099031857,-0.0488287439907788,-0.0283172437989744,-0.000418499100367675,0.00105288451868098,0.0207067884891155,-0.0525103937002438,0.901146188105184,-0.000230344557979541,0
0.44,0.000981615997909313,0.000565734980250507,-0.0488276966488836,-0.0283172440975234,-0.000418466280614367,0.00105285896834254,0.0207059426510047,-0.0525097534963499,0.901145721600673,-0.000223506173563766,0
0.45,0.000981578861421857,0.000565734873568121,-0.0488267482972543,-0.0283172443739149,-0.000418436789280139,0.00105283600894835,0.0207051769350355,-0.0525091737347324,0.901145302623601,-0.000217364478240168,0
0.46,0.000981545450224679,0.000565734777753109,-0.0488258868357256,-0.0283172446306159,-0.000418410256928805,0.00105281535252527,0.0207044815982701,-0.0525086470070608,0.9011449263318,-0.000211848493884848,0
0.47,0.000981515801560128,0.000565734691697937,-0.0488251242621355,-0.0283172214674739,-0.000418386708863449,0.00105279702314795,0.0207038803437648,-0.0525081625041479,0.901144588376358,-0.000206894473570882,0
0.48,0.000981488793205616,0.000565734614409226,-0.0488244135299757,-0.0283172216909673,-0.000418365261719649,0.00105278032509884,0.0207033070267109,-0.0525077278026693,0.901144284851683,-0.000202445164852131,0
0.49,0.000981464695234134,0.000565734544993519,-0.0488237763194053,-0.0283172218990104,-0.000418346124103402,0.00105276542678686,0.0207027929868879,-0.0525073380843781,0.901144012250138,-0.000198449148121046,0
0.5,0.000981442925569075,0.000565734482649422,-0.0488231909290989,-0.0283172220946982,-0.000418328836822588,0.00105275196760246,0.0207023210422188,-0.0525069799467139,0.901143767421051,-0.000194860242352574,0
0.51,0.533661745676221,-0.050164073431791,0.994793174347495,2.5112514748767,-0.0650788918740826,0.532048898968791,2.48242875603372,1.06468065682422,0.0279885442955763,8.61235480454123,142.066916944919
0.52,0.51100691101299,-0.0460432714207702,0.863436785017397,2.30503730039449,-0.109627506702182,0.501228346884359,2.17886994268424,1.14509641986965,0.125466489774767,17.9104488774531,142.066916944919
0.53,0.498152733475823,0.0127980825443779,0.285983111846352,-0.640175201929074,-0.129980987972816,0.481066398277678,-0.695182977134922,0.0912757236513617,0.289577559366199,26.8143159220264,142.066916944919
0.54,0.514491527876608,-0.0690131766675322,-1.7337340577762,3.45547508779596,-0.314564957093807,0.412932486708326,3.86067259889734,0.203344411270272,0.517657033834581,35.4149035873871,142.066916944919
0.55,0.452337279146515,0.0762620151360711,0.216963861224536,-3.816375642303,-0.274102025557481,0.367821952367681,-2.79519055215077,-2.60743286345175,0.807448718409853,43.5664514637613,142.066916944919
0.56,0.389696362881738,-0.0272786142861829,2.20774150088326,1.36685280826662,-0.36763620311152,0.132102233903802,-1.46956691156856,2.14074338177453,1.15594949977864,51.5156909321511,142.066916944919
0.57,0.371549067430632,-0.0266956528409559,1.94726811372988,1.33797638477987,-0.371757252772571,-0.0236201693509585,-1.93612968437795,1.35404422315088,1.56252122982253,59.3572232970914,142.066916944919
0.58,0.377360149795073,-0.0801739972690329,0.485762264393761,4.01404251803991,-0.30362323730668,-0.237994710569093,-2.20194731705,3.39115471883508,2.02626382322623,67.0623872239509,142.066916944919
0.59,0.363067624466958,-0.0208746480743416,0.0645823241171004,1.04438473097446,-0.18669329357031,-0.312088873566773,-0.900289217244658,0.533281978125984,2.54506167481925,74.3544850003569,142.066916944919
0.6,0.308678441556864,-0.0487558252800706,1.78715564550125,2.4401139612534,0.040194132536765,-0.309909571472602,-2.48864076382227,-1.71893821697956,3.11391301570875,80.7918350270611,142.066916944919
0.61,0.296409252944892,0.0347162450376893,1.51899314370326,-1.73750370295078,0.134959095605718,-0.266176079718206,2.2876240164867,-0.3050174545472,-2.55574586856525,86.5346930490781,142.066916944919
0.62,0.312541150855188,0.00836424462883324,-0.118824384770989,-0.417331800664758,0.292858686795068,-0.109479318296948,0.0232489783069075,0.433294993359003,-1.90178504331322,91.8981571022628,142.066916944919
0.63,0.302155752569152,-0.0173974639520008,-0.427802982196896,0.873039937971836,0.276434422356802,0.123226542184925,-0.0910708790662711,-0.967946393069638,-1.20897881937502,97.109524417857,142.066916944919
0.64,0.261459234814103,0.0370682644168358,0.771516347767931,-1.85328114282969,0.153191733676927,0.215098304106541,-1.29061673602023,1.53759452065418,-0.478027148813996,102.359872094067,142.066916944919
0.65,0.233119541956346,0.0762687754430683,1.2668823917597,-3.81953074368131,0.00582220808940731,0.245209601856219,-4.02259610486724,0.111922623201862,0.292450333140648,107.701684365177,142.066916944919
0.66,0.218036863685377,0.0328302477439018,1.30713649799299,-1.64459936283026,-0.179146196981419,0.128547809004184,-1.91280066550836,-0.868623337608334,1.09783264576347,111.968093470946,142.066916944919
0.67,0.250988824765512,-0.000526880267799054,-1.00341509839119,0.0268726522524718,-0.234496135314986,-0.0894831284786429,0.928698722484325,0.380897206572148,1.93323926964991,115.872074334048,142.066916944919
0.68,0.19102290534045,0.00895255346838056,1.38362669672656,-0.446295055220097,-0.0731348009558646,-0.176695216311752,-0.0488159803778347,-1.45300347978527,2.79599021781614,119.503013235653,142.066916944919
0.69,0.194743964914884,0.0768747094472251,0.554575050707592,-3.84596317802421,0.035044269481425,-0.206414224315763,3.57759062668918,1.51651955523532,-2.59744955100637,123.222196330504,142.066916944919
0.7,0.154667191078868,-0.0379457008250516,1.93293781125116,1.89720922651282,0.157904414213141,0.0206884552187032,1.71233440739204,-2.09846665653547,-1.68110540659427,126.68714389556,142.066916944919
0.71,0.228885820692215,-0.00632930632800223,-2.31536418883265,0.316312624402203,0.14989616741663,0.173089335391722,-1.33024579759825,-1.92130453631304,-0.741358147962503,129.6774522244,142.066916944919
0.72,0.161984438617928,-0.0478288689318573,0.503339744445441,2.39541784178735,-0.0819995513419845,0.147657145568304,2.22801925119108,1.01356191296512,0.219821721186013,132.513593142155,142.066916944919
0.73,0.107289603658605,0.0126680185639582,2.75267967340542,-0.63207691068411,-0.0954454044680002,0.0506133629933557,-2.79494582244156,0.406256636888306,1.20074345438619,135.122233659404,142.066916944919
0.74,0.101614442046968,0.0654898481140678,2.53102105847638,-3.28111736059025,-0.120690356903306,-0.00694642275367776,-0.112136266861836,-4.14236939324246,2.20078311680184,137.74989189501,142.066916944919
0.75,0.0831003398793356,-0.0292921061244293,3.01934171854644,1.46471554275548,0.0356052684909444,-0.0805975112826301,-1.22782330834536,-3.12318202447893,-3.06449896923391,139.962485891517,142.066916944919
0.76,0.0777577618834739,-0.0727535121741747,2.87406643867036,3.64270346933459,0.101975322981742,0.0306655599912052,0.957920713686262,-4.54003682426524,-2.03084531063549,142.025502918298,142.066916944919
0.77,0.160419067281721,-0.0305594186571625,-1.68375161186467,1.53232132467679,0.116434765122811,0.114503714730121,-0.549237406133173,-2.20938145285512,-0.982001713757274,144.149011069663,142.066916944919
0.78,0.054448196061354,-0.0115316294940898,3.19908365369311,0.574198260022027,-0.0159600824721781,0.0533184799164969,0.309785827108894,3.23540918686667,0.0821397298213133,146.106067406871,142.066916944919
0.79,0.092298471636711,-0.00175380743773455,0.910960267168189,0.0867039593475933,-0.0853176091912928,0.0352560529396474,-0.800518201517678,0.443324704888628,1.15993529180351,147.91331031368,142.066916944919
0.8,0.127694442363052,-0.0177422405617416,-1.1997894949215,0.889947147879204,-0.0882316997830256,-0.0939990684207006,0.37481012625624,1.44603531333024,2.24977359290016,149.481520481779,142.066916944919
0.81,0.0731228765399864,0.00878994581725069,1.17887459789436,-0.438402061056628,0.00661559350990853,-0.0733515653784154,0.674073673636543,-1.06186927971828,-2.93201194722492,150.968354803285,142.066916944919
0.82,0.0307461041234935,0.0736382551167448,2.98908103214426,-3.6890606209832,0.011592758739652,-0.0789526660741467,3.80809638421162,2.83587298914601,-1.82053196588274,152.275147818262,142.066916944919
0.83,0.128512938665931,0.00259715675314519,-2.18411459148888,-0.129805729828052,0.0847998261954455,0.0965987065388352,-1.50670559210426,-1.58651956652686,-0.700239139761317,153.445639967525,142.066916944919
0.84,0.0485309566367417,0.0117437221780241,1.52512174401077,-0.585680439812303,-0.00949252294404178,0.0490210237635727,-1.16665046999022,1.14365405280827,0.428694789355312,154.595881220378,142.066916944919
0.85,0.00275840155726423,-0.0075085785049211,3.5216908560131,0.372508683975372,-0.00279316915370366,-0.00749571453528476,-3.51992671060739,0.388825355289445,1.56616198192833,155.684884561774,142.066916944919
0.86,0.0114319150135102,-0.0559840604150489,2.81948094417456,2.80032015603479,0.0461038410288108,-0.0337541041033843,-3.72150327133468,-1.39344148506617,2.71105560835795,156.677041713477,142.066916944919
0.87,0.100547983821306,-0.0462513013544895,-1.90782140186282,2.31666098183933,0.101143746494641,-0.0449335339422717,-2.999514283475,-0.0980544206655698,-2.41999418947051,157.6765426936,142.066916944919
0.88,0.0380191243810708,-0.0660384018602868,0.9743626843156,3.3080573879326,0.0161021047980392,0.0744798399571121,1.9355065804673,-2.85419701482044,-1.26134410942851,158.462067213709,142.066916944919
0.89,0.00778112344944258,-0.0121080021227776,2.27858016961588,0.602842537477955,-0.0112951390489911,0.00892016992016454,0.82126908325817,2.20926770836942,-0.0972645795389225,159.097988408354,142.066916944919
0.9,0.0336312352205804,-0.00861770987357296,0.800402193789248,0.430906104978599,-0.0336469913879283,0.00855598483330616,-0.495943389043437,0.76181618386234,1.07094303857096,159.610127569949,142.066916944919
0.91,0.0536825276948409,0.010844053055714,-0.385951185353945,-0.540530946278961,-0.0487623180174211,-0.0249327817932614,0.638541719751506,-0.182747075210887,2.2427740707163,160.067919668538,142.066916944919
0.92,0.0158067451870369,-0.00691884640139839,1.33869458938415,0.342984880366645,0.0109653386593483,-0.0133223487801461,0.0348923085342977,-1.38149352463617,-2.86552774448598,160.461409785599,142.066916944919
0.93,0.0333943043131396,-0.0173964817614573,0.297426510180663,0.868984210614554,0.0351967765161957,0.0133792399299911,0.193951660523449,-0.89776324308575,-1.68779865089613,160.874907009812,142.066916944919
0.94,0.0549062755069603,-0.0120904078352611,-0.943381428616095,0.606662104278998,0.0161004964783275,0.0538669756420437,0.0720766152075279,-1.11929102121217,-0.507183339739212,161.229017245997,142.066916944919
0.95,-0.0307567146270889,0.00815453971751189,3.18541444693837,-0.406286488377932,0.0256006292709299,-0.0188965550719985,-2.30946363590132,2.23121303865221,0.67576878692009,161.516629904085,142.066916944919
0.96,0.0354447746897778,0.0410105673114899,-0.236654987845373,-2.05578564315627,-0.045661619835124,0.0292098469364693,0.812662102070173,-1.90311337070034,1.85976222943874,161.576237252899,142.066916944919
