t,iq,id,vq,vd,ia,ib,va,vb,theta_e,omega,r
0,0,0,0,0,0,0,0,0,0,0,0
0.01,0.00107511100806911,0.000615754960722391,-0.0531478347168875,-0.0308525448260725,0.0010349279104937,-0.000681132932258269,-0.0511358340532892,0.0340836959998894,-1.63274500606944,-0.00141026420586635,0
0.02,0.00120671978482103,0.000691535680107989,-0.0597625038112122,-0.0346495580629492,0.00116158473277927,-0.000764928195659597,-0.0575023455107116,0.0382835342740138,-1.63275544938711,-0.00154032316466148,0
0.03,0.00123537730444901,0.000707939907179368,-0.0611809773856055,-0.0354715084539395,0.00118916310784991,-0.000783088181147927,-0.0588667814051164,0.0391923711053327,-1.63276619369802,-0.00153001752695477,0
0.04,0.00122039891610904,0.000699569321117713,-0.0604584679091616,-0.0350520948920276,0.00117472411801778,-0.000773817805453299,-0.0581712455345861,0.0387295996777365,-1.63277620250826,-0.00146415377616069,0
0.05,0.00123503444685486,0.000707971119630885,-0.0611884318205177,-0.0354730703753567,0.0011888032410013,-0.000783121986241165,-0.0588733372886262,0.0391955745844962,-1.63278628587043,-0.0014379310490793,0
0.06,0.00123490667430675,0.000708007637915907,-0.0611939568916618,-0.0354748932514319,0.00118866579494604,-0.000783162139993957,-0.058878355596152,0.0391983118712035,-1.63279606247586,-0.00139317568154519,0
0.07,0.00126718603589446,0.000726538673170992,-0.0627883734331308,-0.0364033822172343,0.00121972739987877,-0.000803669063211946,-0.0604118014568244,0.0402243746995969,-1.63280546039218,-0.00139389917606439,0
0.08,0.00123468478496585,0.00070808937815892,-0.0612054419642449,-0.0354789905021914,0.00118842469983268,-0.000783252078525979,-0.0588888355882343,0.0392042081434512,-1.63281466144572,-0.00130806178309277,0
0.09,0.00123434479566513,0.000707998732923693,-0.0611994224627316,-0.0354744551237818,0.00118808406032051,-0.000783151036530928,-0.0588827622864185,0.0391998288468488,-1.63282350004446,-0.00126729755255027,0
0.1,0.00123416872107136,0.00070799535363054,-0.0612010879226146,-0.0354742879269217,0.00118790184106807,-0.000783146901175277,-0.0588840999039765,0.0392002684344414,-1.6328320460518,-0.00122808863923194,0
0.11,0.00123399928215569,0.000707992486019258,-0.0612027365628352,-0.0354741440445775,0.00118772643449753,-0.000783143349212821,-0.0588854303647652,0.0392007136316626,-1.63284030942794,-0.00119017744127538,0
0.12,0.0012338354311669,0.000707989714979999,-0.0612043282646052,-0.0354739972836932,0.0011875568132691,-0.000783139912773199,-0.0588867148848557,0.0392011363569315,-1.63284829952127,-0.00115352002996167,0
0.13,0.00128937507316544,0.000739823200359019,-0.0639379822552402,-0.0370690134661852,0.0012410088838975,-0.000818366297679305,-0.0615158660951531,0.0409630998923521,-1.6328563843159,-0.00119163499944379,0
0.14,0.00140268541876989,0.000805238230928637,-0.069668474781425,-0.040346670626337,0.00135003717399164,-0.000890693337473348,-0.0670317020432443,0.0445903703750697,-1.63286409273407,-0.00130946187707794,0
0.15,0.00123418733588788,0.000708443386980915,-0.0612496597036848,-0.0354967216994998,0.0011878616480016,-0.000783642212894344,-0.0589296358427396,0.0392280012831527,-1.63287160078354,-0.00104773733606155,0
0.16,0.00123321869898241,0.000707981412169515,-0.0612105287090908,-0.0354735799468565,0.00118691808754868,-0.000783129295165995,-0.0588917431021773,0.039202886290165,-1.63287855751452,-0.00101470592025091,0
0.17,0.0012330766284706,0.000707976897223715,-0.0612116562541007,-0.0354733521307531,0.0011867713042326,-0.000783123955790514,-0.0588926189627085,0.0392031249325333,-1.63288528268919,-0.00098384630190045,0
0.18,0.00123294328919272,0.000707974630928835,-0.0612129427585955,-0.0354732349131217,0.00118663327008764,-0.000783121136686589,-0.0588936553321505,0.0392034707390362,-1.6328917854445,-0.000954012553889801,0
0.19,0.00123281437369261,0.000707972449450619,-0.0612141857179196,-0.0354731177109864,0.00118649981443047,-0.000783118419857853,-0.0588946566684332,0.0392038012079547,-1.6328980731432,-0.00092516548010642,0
0.2,0.00123268942724525,0.000707970340069721,-0.0612153712098692,-0.0354730299128653,0.0011863704786237,-0.000783115772993254,-0.0588956069735283,0.0392041452244633,-1.63290415289801,-0.000897272423890464,0
0.21,0.00123256901005581,0.000707968300360816,-0.0612165356496472,-0.0354729127357826,0.00118624581654998,-0.000783113236756612,-0.0588965459714383,0.0392044467827213,-1.6329100315857,-0.000870301834301075,0
0.22,0.00123245221267513,0.000707966328025015,-0.0612176416971473,-0.0354728249554668,0.00118612491544183,-0.000783110760437607,-0.0588974324853358,0.0392047626177842,-1.632915715856,-0.000844223203962094,0
0.23,0.00123233937341287,0.000707964420840151,-0.0612187143093392,-0.035472737181535,0.00118600810805287,-0.000783108370579712,-0.0588982929964237,0.0392050653225597,-1.63292121213834,-0.000819007034418917,0
0.24,0.00123223037585373,0.000707962576656225,-0.0612197552980514,-0.0354726494137176,0.00118589527345057,-0.000783106065312959,-0.0588991290695008,0.0392053553744395,-1.63292652665012,-0.000794624802773746,0
0.25,0.00123212487075173,0.000707960793394667,-0.0612207545155735,-0.0354725616517615,0.00118578605847856,-0.000783103828126799,-0.0588999303409728,0.0392056324961438,-1.63293166540252,-0.000771048929424239,0
0.26,0.00124122683351159,0.000713188623020689,-0.0616731117039487,-0.0357345005872064,0.00119454192378984,-0.000788892677456082,-0.0593349537002038,0.0394954492170865,-1.63293662006897,-0.000760743200941155,0
0.27,0.00119529233820963,0.000686965149440306,-0.0594261205056914,-0.0344205650530156,0.00115032085837033,-0.000759872892743466,-0.0571737092680735,0.0380447902538001,-1.63294150709532,-0.000676442164735307,0
0.28,0.00116781102341573,0.000671021783545066,-0.0579366924675141,-0.033621714331592,0.0011238792738733,-0.000742258848489744,-0.055736594727814,0.0371552421176056,-1.63294620235788,-0.0006179286577899,0
0.29,0.00123142321002126,0.000707778870947247,-0.0612090442623838,-0.0354634254887051,0.00118508224406826,-0.000782901096647951,-0.0588880688053692,0.039196900378493,-1.63295057517628,-0.000683869523661794,0
0.3,0.00122987784024656,0.000706958554038436,-0.0611379489175688,-0.0354223309423061,0.00118358776798177,-0.000781990981112687,-0.0588195109103801,0.0391516980921286,-1.63295446744286,-0.00066403397898782,0
0.31,0.00123156228200402,0.000707946697010466,-0.0612256132087949,-0.0354718288029615,0.00118520427720491,-0.000783086841645404,-0.0589037660715559,0.039206793977664,-1.63295867894612,-0.000647102782763715,0
0.32,0.00123148717252477,0.000707949980998568,-0.0612268150608157,-0.035472003222937,0.00118512591738394,-0.000783090283194607,-0.0589047949816468,0.0392072827840638,-1.63296275435528,-0.000628417101664473,0
0.33,0.00123140624198762,0.000707948635460966,-0.0612275682560826,-0.035471947757512,0.00118504214090984,-0.000783088582169949,-0.0589053956654303,0.0392075063446278,-1.63296669499999,-0.000610338031718233,0
0.34,0.00123132844371213,0.000707947312920355,-0.0612283176653675,-0.0354718600233207,0.00118496159130274,-0.000783086943642247,-0.0589059996843767,0.0392076897920475,-1.63297050532128,-0.000592856809108123,0
0.35,0.00123125275185794,0.000707946033981728,-0.0612290173125091,-0.035471801647109,0.00118488324004603,-0.000783085329607335,-0.058906557153274,0.0392078920307563,-1.63297418962919,-0.000575953717519013,0
0.36,0.0012311796211397,0.000707944797306248,-0.0612296950441802,-0.0354717432693129,0.00118480753779258,-0.000783083771976257,-0.0589070975258011,0.0392080857330871,-1.63297775209139,-0.000559609637535696,0
0.37,0.00123110893514211,0.000707943601499331,-0.0612303499686784,-0.0354716848900647,0.0011847343652809,-0.000783082266950957,-0.0589076197540801,0.0392082710806737,-1.63298119673703,-0.0005438060817775,0
0.38,0.00123104057744575,0.000707942445210948,-0.061230981058546,-0.0354716235989749,0.00118466360334638,-0.000783080810616363,-0.0589081228408025,0.0392084453340387,-1.63298452746304,-0.000528525174270669,0
0.39,0.00123097454805874,0.00070794132713646,-0.0612315930161745,-0.0354715652166264,0.00118459524912615,-0.000783079406180443,-0.058908610969922,0.0392086148162644,-1.63298774803627,-0.00051374963022691,0
0.4,0.00123091073056174,0.000707940246013465,-0.0612321844504461,-0.0354715068325055,0.00118452918364906,-0.000783078049508048,-0.058909082791096,0.0392087767502855,-1.63299086210017,-0.000499462736491927,0
0.41,0.00123084867024455,0.000707939200621591,-0.0612327369871126,-0.0354714777925618,0.00118446495039971,-0.000783076715331339,-0.0589095180034927,0.0392089594903676,-1.63299387317709,-0.00048564833264139,0
0.42,0.00123078904369745,0.00070793818978088,-0.0612332886355615,-0.035471419403623,0.00118440322206448,-0.000783075448599419,-0.0589099580576537,0.0392091070196604,-1.63299678467297,-0.00047229079269865,0
0.43,0.00123073139620971,0.000707937212349843,-0.0612338207035912,-0.0354713610131754,0.00118434354230226,-0.000783074223846574,-0.0589103823443754,0.0392092476608017,-1.63299959988093,-0.000459375007465766,0
0.44,0.00123067538948785,0.000707936267224958,-0.061234320206543,-0.0354713319620771,0.00118428557104721,-0.000783073022746194,-0.0589107759553073,0.0392094100780017,-1.63300232198533,-0.000446886367426694,0
0.45,0.00123062146728874,0.000707935353339031,-0.0612348131483573,-0.0354712735669257,0.0011842297488514,-0.000783071875497078,-0.0589111683714314,0.0392095374990164,-1.63300495406554,-0.000434810746224767,0
0.46,0.00123056918585634,0.000707934469660255,-0.0612352809305145,-0.0354712445083596,0.00118417563054862,-0.000783070757037357,-0.0589115372655137,0.0392096875099108,-1.6330074990985,-0.000423134484685209,0
0.47,0.0012305187561152,0.000707933615190405,-0.0612357377566211,-0.0354711861085825,0.0011841234244616,-0.00078306968292049,-0.0589119003488243,0.0392098025988089,-1.63300995996333,-0.000411844375361379,0
0.48,0.00123046985072629,0.000707932788965131,-0.0612361705988467,-0.0354711570428682,0.00118407280176382,-0.000783068635153721,-0.0589122408616737,0.0392099406812484,-1.6330123394432,-0.000400927647597487,0
0.49,0.00123042291344313,0.000707931990050355,-0.0612366050068586,-0.0354710986376951,0.00118402420329906,-0.000783067643607222,-0.0589125878467847,0.0392100449441975,-1.63301464023018,-0.000390371953084139,0
0.5,0.00123037715126708,0.000707931217544515,-0.0612370045109751,-0.0354710695654824,0.00118397683562058,-0.000783066661177722,-0.0589129011549811,0.039210171832063,-1.63301686492609,-0.00038016535188853,0
0.51,3.62572247533854,-0.0517045301772714,7.07782168267555,2.59439784460485,-0.334050148453722,3.61067131222629,2.03503309949412,7.25845026378261,0.0779953330203149,23.7896459755288,472.322418645048
0.52,3.46144762427145,0.0260870351505588,6.85444654870901,-1.29961984405347,-1.15110852503269,3.26454427946298,-3.55040654941487,6.00558594660325,0.346533738272823,49.2874942688492,472.322418645048
0.53,3.22196499013,-0.0274718451520549,10.618633969986,1.3877966180283,-2.32770269000662,2.22791680428947,-6.64014513722646,8.40177596690838,0.798772353660734,74.0059431925054,472.322418645048
0.54,3.07737739547397,0.0528774249537649,9.55418789729835,-2.63452648063933,-3.04027709999896,0.479335802403484,-9.82730811556619,-1.28345290361552,1.43160258632539,98.728578292737,472.322418645048
0.55,2.93148665243796,-0.0109975231133965,8.27408503630453,0.562686135064698,-2.27862678585055,-1.84434132137762,-6.80320185412202,-4.74273585672482,2.24749676801738,123.686992577297,472.322418645048
0.56,2.76143836448662,-0.0250456835290289,9.25780460746782,1.26953639476037,0.286478667557023,-2.74665234424685,-0.386989928006549,-9.3364290605828,-3.04673694192585,145.574855447105,472.322418645048
0.57,2.64491923497065,-0.000776871657454992,8.36405993938799,0.0596249125353996,2.49794470054223,-0.869408210267347,7.87885660457156,-2.80796588377939,-1.90602610436308,165.542026422561,472.322418645048
0.58,2.50860425127364,0.0142973476964166,8.18780427352273,-0.700716853067332,1.46548154819898,2.03609025722036,4.1740926590385,7.07870704320009,-0.618160931572405,186.122434474815,472.322418645048
0.59,2.35457708300842,-0.0655028915851102,9.24173899857911,3.30008619956129,-1.76342289098453,1.56162209775164,-4.4899948279791,8.72583836012987,0.818202743568335,205.152880598369,472.322418645048
0.6,2.20259006934436,0.0298121959969184,10.990779727093,-1.4683699712427,-1.5337132679444,-1.58114369756068,-6.47723479002105,-8.99993215845913,2.38495471167519,222.430478658438,472.322418645048
0.61,2.18872160904291,0.0343904296457943,5.47642543406777,-1.70658865780539,1.74782118858029,-1.31787938609434,5.42987762603149,-1.84935376501551,-2.20114935389497,240.204548137626,472.322418645048
0.62,2.03971176908715,0.0537106181356581,7.59832377230738,-2.66439356597582,0.812823063531151,1.87153081696374,0.371417451931218,8.0433554129869,-0.383402760747027,255.673523176734,472.322418645048
0.63,1.93179972155102,-0.0598023852902662,7.40175688379266,3.01263613450848,-1.93261893095666,-0.0202622106132363,-7.33856398927001,3.16345697317154,1.55033332912966,271.60203610262,472.322418645048
0.64,1.7730082414793,-0.00760641001616016,10.4671622570981,0.408576260352228,0.780032651816456,-1.59222019329207,4.19692440140383,-9.59761667529203,-2.69034571593373,285.720458893024,472.322418645048
0.65,1.71521338237991,-0.0251350461727362,8.34713656096012,1.27809113508718,0.86408792866502,1.48187069920983,5.40440884409683,6.48849526182716,-0.542558063738786,299.783515286693,472.322418645048
0.66,1.69878145025223,-0.0415732207752547,4.63325878945283,2.09618191444429,-1.67874465232156,-0.263444758362075,-4.86765864830549,1.47206144982537,1.70198892816165,312.875622159868,472.322418645048
0.67,1.58612939053194,0.0204202660690833,5.91700443100549,-0.997474291107657,1.22939752793543,-1.00239969527221,5.25392800655749,-2.89864397604642,-2.24195872239396,325.013999628178,472.322418645048
0.68,1.44089118428461,-0.0239604539881262,8.87236915643509,1.21416796944241,-0.288770059906161,1.41186166489717,-0.439678438514841,8.944261913472,0.185121485293609,337.057496165721,472.322418645048
0.69,1.37935914531356,0.0908053214211262,8.07420906403372,-4.53548918824758,-0.676928251966325,-1.20525739983141,0.608896772232306,-9.24082025077861,2.69558868086471,348.057189869185,472.322418645048
0.7,1.3480177833939,0.0328503732280445,5.87772948971195,-1.62050855242315,1.1500287150188,0.704034832944812,4.05718393050477,4.55115485088784,-0.997097992238729,358.407568209199,472.322418645048
0.71,1.24472844645335,0.0841055853955521,7.36754960604027,-4.19913386961329,-1.24700937602763,-0.0372863380350943,-6.92448366416085,-4.89540993555872,1.66815490183899,368.54976110788,472.322418645048
0.72,1.21095355641525,-0.0517426129781077,5.62235365780707,2.60052807207079,1.16950483870836,-0.318346110436855,4.56745248056825,-4.18473233849379,-1.879265870129,378.041535057756,472.322418645048
0.73,1.14248818592164,0.0111753742891486,5.85671867157595,-0.533803124415116,-0.905113932510157,0.697261007899496,-4.99599951249004,3.10259379307395,0.924174719457886,386.819552268596,472.322418645048
0.74,1.08916336188574,0.0683620783447628,5.40866391970166,-3.40184148085637,0.604665354750158,-0.908476753359561,5.98125342925583,-2.24739366203898,-2.4916582180447,395.2185250884,472.322418645048
0.75,1.03574471338374,-0.0174206114915977,5.07963587720018,0.888305449482849,-0.452924160815809,0.931627765556825,-1.3385205544588,4.97997489369289,0.435700090569838,403.304801308874,472.322418645048
0.76,0.902614095960468,-0.00690079573167285,8.91629229063822,0.351752628660832,0.254573821398614,-0.865997688603595,2.11098875484356,-8.66993221431335,-2.8633260450107,410.891558618984,472.322418645048
0.77,0.924106149611706,-0.0540932781748561,5.19118911089815,2.71348868071925,-0.213615747896715,0.900703375559569,1.77159954001767,5.58326967603287,0.174394052902241,418.033831897672,472.322418645048
0.78,0.883812818296559,0.00844363315015206,4.70243780304809,-0.400670125426734,0.0986637870392363,-0.878329010025945,0.967268292561071,-4.61929105936736,-3.02017699137747,424.646563445354,472.322418645048
0.79,0.828687840530451,-0.0463605728414827,5.0365259569535,2.34612589568896,-0.142335433486407,0.817687876962505,1.74501829081619,5.27501768700406,0.116457458398266,430.952710429384,472.322418645048
0.8,0.73109247851579,-0.036900948996834,7.60579605097206,1.86707112447976,0.150543901342775,-0.716375897101322,-0.657225883726233,-7.80398246349955,-2.98489104489731,436.960399356901,472.322418645048
0.81,0.769876347938828,0.0402377822874949,3.47470215791281,-2.00245253961831,-0.143480597380678,0.757457581924115,-2.76933261708687,2.90071855159485,0.239423637105049,442.631469946802,472.322418645048
0.82,0.621644001516327,-0.0237460953142894,8.78122002417151,1.19560649623279,0.242666071885529,-0.57281613037654,1.9963301803363,-8.63446384078497,-2.77905739958528,448.04187737825,472.322418645048
0.83,0.611532765236103,0.0652115771128745,7.29964620117637,-3.26623774873791,-0.24933589687148,0.562189010278712,-6.47883819961036,4.68804855743823,0.523677745261178,453.092045582729,472.322418645048
0.84,0.531771688694873,0.0681045569388664,9.4079492823826,-3.41544561920165,0.299703024131836,-0.444519354921097,8.77405192713213,-4.81568180609931,-2.4210026510312,457.815250481266,472.322418645048
0.85,0.51627978010219,-0.0342288720806515,8.39667945365188,1.71077762217242,-0.440164075295473,0.271977965735389,-5.8418575944213,6.26926516957193,0.951115779208417,462.29533288274,472.322418645048
0.86,0.471111567297664,0.0112412843170472,8.96747990070861,-0.567931354327906,0.437416571452095,-0.175326034386945,8.59961579461288,-2.60477445816068,-1.9281541603674,466.463361809173,472.322418645048
0.87,0.445648839952896,-0.00684886660714203,8.62665751309466,0.355973751578108,-0.445151548939869,0.0221335492318766,-8.58527455650474,0.915968312485425,1.50574876661029,470.388575852512,472.322418645048
0.88,0.459306258721684,0.0766941793432383,6.41093313455822,-3.82420807442962,0.463789210707601,0.041758885009825,5.23766553481473,5.31897460021414,-1.31554808654799,474.058261682909,472.322418645048
0.89,0.399056025629579,0.0501788011596507,7.98261144843818,-2.49668623760738,-0.357385171306457,-0.184497867216262,-5.16778554873837,-6.57643674249553,2.17244157735556,477.471857664336,472.322418645048
0.9,0.385365505854984,-0.0287133034308217,7.2972367724385,1.4555813253913,0.193438003308012,0.334533654170978,5.31455084098608,5.20806402288131,-0.598631532585643,480.692583353528,472.322418645048
0.91,0.39888446816644,-0.0126915095419643,5.29661061673075,0.652202941012256,-0.0687539134153879,-0.393119311086274,-1.71650403675709,-5.0530254890834,2.93664379114912,483.79302704289,472.322418645048
0.92,0.350590798581614,-0.0260081351591327,6.44662403803516,1.31748141633856,-0.0987357546158471,0.337404181813132,-0.0595148062611659,6.57960308514168,0.210636778216448,486.667200777355,472.322418645048
0.93,0.393462438487412,0.0161380224510318,3.11043007345863,-0.794642556612615,0.224168955737925,-0.32376134042294,2.50817844138746,-2.00381459741536,-2.49500025196224,489.367925197159,472.322418645048
0.94,0.329689377673217,-0.0445001809760936,5.15923551139992,2.24139124183533,-0.314197955346475,0.109338907592644,-3.58882507731742,4.3314986235117,1.10174473854431,491.891858266044,472.322418645048
0.95,0.271868990682213,-0.0611281090123642,6.96423057198767,3.07241064938384,0.271620478539033,0.0622230619964951,6.97655378675182,-3.04432454229404,-1.56676698836349,494.238275474891,472.322418645048
0.96,0.292613624347796,-0.0118729475571281,4.92141611426132,0.603946198160714,-0.252076220849136,-0.149068034534789,-4.62030850869944,-1.79939902868245,2.06428610458611,496.398313686208,472.322418645048
0.97,0.218359205953666,0.0352633692343046,7.64945655032906,-1.76010443722732,0.147900838871134,0.164467595275438,2.66306064042575,7.38378366223813,-0.572301710622825,498.47902444412,472.322418645048
