t,iq,id,vq,vd,ia,ib,va,vb,theta_e,omega,r
0,0,0,0,0,0,0,0,0,0,0,0
0.01,0.000661543729253747,0.000363903708052862,-0.0322712542453337,-0.0182101996961906,-0.000444948081562402,0.000609989523814562,0.0215110775429073,-0.0301714892984277,1.13311611583854,-0.00352237571820208,0
0.02,0.000762435013293163,0.000417683549322673,-0.037345742429246,-0.0209014146599868,-0.000513516764993362,0.000701475038002696,0.0249656810008053,-0.0347604428128631,1.13309003174781,-0.00358250533440273,0
0.03,0.000797447814689137,0.000438616872712629,-0.0391377672542023,-0.0219489345733109,-0.000536337750952908,0.000735288783460936,0.0261438589754927,-0.0364694281887877,1.13306532810681,-0.00328206621811304,0
0.04,0.000774757654242485,0.000429007621177861,-0.0381240943084484,-0.0214680779089426,-0.000519845232905198,0.000716978309059448,0.0254288474332686,-0.0356047560609456,1.13304454111085,-0.00272138877478234,0
0.05,0.00079003334155376,0.000439766779648685,-0.0389360897076335,-0.0220064726252846,-0.000529106261006769,0.00073320806447598,0.0259353828357283,-0.0364370667904607,1.13302624494395,-0.00243597135109893,0
0.06,0.000788246430837974,0.000440863246890009,-0.0389134128263926,-0.0220613469827755,-0.000527011390703456,0.000733451997240457,0.0258910025493721,-0.0364775645497349,1.13301035929796,-0.00209931143936931,0
0.07,0.00080171156884036,0.00045052617734731,-0.0396175830111913,-0.022544886450879,-0.000535100292445182,0.000747919081928474,0.0263232813901191,-0.0372143741797208,1.13299710172576,-0.00190664174903002,0
0.08,0.00078393458269141,0.000441958011785158,-0.038805536853796,-0.0221161236929245,-0.000522623684404565,0.000732628690825061,0.0257691626417905,-0.0364820897763958,1.13298525991282,-0.00155860042327105,0
0.09,0.000779573982212113,0.000441080629724171,-0.0386341368131089,-0.0220722308909868,-0.000519039161277123,0.000729990455225727,0.0256321797368051,-0.0363699225423861,1.13297542471467,-0.00133095566083191,0
0.1,0.000777157433630586,0.000440989409693836,-0.0385507199638798,-0.0220676635252273,-0.000516883145077093,0.000728887611669048,0.0255582645003763,-0.0363306330652926,1.13296708819751,-0.00114555208955212,0
0.11,0.000775257271076315,0.000440978756198487,-0.0384872558756018,-0.0220671342966417,-0.000515161574039042,0.00072807599356707,0.0255007538196046,-0.0363034273248682,1.13296000134578,-0.000988851047328919,0
0.12,0.000773659905148114,0.000440976533117873,-0.0384341791500238,-0.0220670135409016,-0.000513711444331795,0.000727399823726256,0.0254525162941966,-0.0362809678460224,1.13295397434333,-0.000855694216111424,0
0.13,0.000807550746341666,0.000460476169814547,-0.0400959523006736,-0.0230428065913825,-0.000536133350275664,0.000759432381194171,0.0265435904655652,-0.0378694353232539,1.1329482007969,-0.000937242541731473,0
0.14,0.000830561534453823,0.000474679708625308,-0.0413247427658707,-0.0237535693148831,-0.000550947290471424,0.000782055222741395,0.0273549087907446,-0.0390342847367847,1.1329431235852,-0.000968856363004105,0
0.15,0.000776784537742452,0.000444417398377772,-0.0386466480970874,-0.0222391973756226,-0.000515071234741636,0.000731848799410335,0.0255713795823223,-0.0365273850050725,1.1329386551143,-0.000559656585379173,0
0.16,0.000769687726538521,0.000441324465525234,-0.0383153237475001,-0.0220844364518223,-0.000509953183059843,0.00072604010312262,0.0253368233567837,-0.0362468170941596,1.13293570346082,-0.000457168650769302,0
0.17,0.000768292252142962,0.000441007956641383,-0.0382574868701819,-0.0220685872009769,-0.000508821810698076,0.000725162993734405,0.0252910756842993,-0.0362080009583559,1.13293329498884,-0.000399487268159055,0
0.18,0.000767662479279955,0.000440975228792805,-0.0382351783095234,-0.0220669527144866,-0.000508263851537064,0.000724867361469548,0.0252714910441225,-0.0361971131842205,1.13293125880854,-0.000353969589596136,0
0.19,0.000767193885055677,0.00044097155702632,-0.038219435627854,-0.0220667699522062,-0.000507839767937701,0.000724666227634504,0.0252572484154254,-0.0361903163611035,1.1329295284944,-0.00031568169967004,0
0.2,0.000766803289262666,0.000440970903267291,-0.0382064252907281,-0.0220667339492888,-0.000507485232768815,0.000724500766372263,0.0252454275175183,-0.0361848044093431,1.13292805702784,-0.000283168667279292,0
0.21,0.000766472065301742,0.000440970599486239,-0.038195402807321,-0.0220667137985235,-0.000507184479563611,0.00072436068376808,0.0252354081874697,-0.0361801440999236,1.13292680555745,-0.000255522261252586,0
0.22,0.000766190340223395,0.000440970366847644,-0.038186022618035,-0.0220667146958379,-0.000506928661029066,0.000724241558125924,0.0252268740670774,-0.0361761944606727,1.1329257411767,-0.000232009556466669,0
0.23,0.000765950967952733,0.000440970171582091,-0.0381780520640022,-0.0220666957540489,-0.000506711299207569,0.000724140343295583,0.0252196307677828,-0.0361728205264688,1.13292483591468,-0.000212011942570181,0
0.24,0.000765747124724563,0.00044097000574811,-0.0381712557975351,-0.0220666964302996,-0.000506526200162295,0.000724054150973924,0.0252134475516154,-0.0361699588480523,1.13292406598359,-0.000195003857645038,0
0.25,0.000765574109187044,0.000440969864712134,-0.0381654888070143,-0.02206667730911,-0.000506369093335588,0.000723980993919225,0.0252082090666495,-0.0361675127565446,1.13292341115263,-0.000180538376443829,0
0.26,0.000772770505779153,0.000445065386677667,-0.0385151765707336,-0.0222716266610161,-0.00051114967066813,0.000730741724001423,0.0254379883245179,-0.036501409978303,1.13292297188859,-0.000214004999934085,0
0.27,0.000753423953291604,0.000433977109352947,-0.0375831028092011,-0.0217167645988606,-0.000498329348397791,0.000712496768667285,0.024829090122987,-0.0356037043729145,1.13292212803509,-8.24715095747628e-05,0
0.28,0.000752948064705456,0.00043372060706293,-0.0374700718693782,-0.0217039159221893,-0.000498006841708822,0.000712062875556599,0.024732157303027,-0.0355441506776031,1.13292173953262,-7.16856039124181e-05,0
0.29,0.000763639569350246,0.000440228739951943,-0.0380789837838434,-0.02202959155274,-0.00050493002623992,0.00072249041790079,0.0251455258600117,-0.0360972913002381,1.13292162912158,-0.000132535369085428,0
0.3,0.000755642900988336,0.000436178035341877,-0.0376890443617926,-0.0218268993583651,-0.000499405953745347,0.000715430755344267,0.0248783493170955,-0.0357483613017708,1.13292244969487,-0.000102173858703178,0
0.31,0.000764089552108908,0.000440479961911813,-0.0380984524201373,-0.0220421759788345,-0.000505231440662994,0.000722908453300568,0.0251578420850627,-0.0361169292758178,1.13292219265769,-0.000146761356266922,0
0.32,0.000765017967849177,0.000440919490738709,-0.0381447417234159,-0.0220641556493122,-0.00050588564059479,0.000723700357251097,0.0251904316436984,-0.0361564716097594,1.13292183663152,-0.00014493266420212,0
0.33,0.000765056271162276,0.000440964343826889,-0.0381478453390274,-0.0220664036892638,-0.000505901080679675,0.00072375738140522,0.0251922776989365,-0.0361598315832302,1.13292151732791,-0.000138603948030287,0
0.34,0.000764998645851356,0.000440968875311138,-0.0381461270850086,-0.0220666338406711,-0.000505846772639006,0.000723737189702367,0.0251906140746477,-0.0361593183451519,1.13292124377645,-0.000132648127776525,0
0.35,0.000764938691988395,0.000440969294207059,-0.0381441329105053,-0.022066657380011,-0.000505792128973309,0.000723712265477818,0.0251887896389324,-0.0361584999681499,1.13292101088138,-0.000127513832575358,0
0.36,0.000764886537926038,0.000440969299449606,-0.0381423765118447,-0.0220666590701265,-0.000505744749815375,0.00072369025625038,0.025187191068649,-0.0361577617470978,1.13292081277431,-0.000123138816733005,0
0.37,0.000764841950857857,0.000440969268036167,-0.0381408670130648,-0.0220666592827427,-0.0005057042607204,0.000723671407362236,0.0251858178018136,-0.0361571261311349,1.13292064427957,-0.000119416845853356,0
0.38,0.000764804057670669,0.000440969237652318,-0.0381395801555495,-0.0220666594754911,-0.000505669851765534,0.00072365538497313,0.0251846470903774,-0.0361565842659676,1.13292050097316,-0.0001162511671763,0
0.39,0.00076477181062658,0.00044096921143539,-0.0381384803053543,-0.0220666596514599,-0.000505640570005469,0.000723641749574713,0.0251836465247996,-0.0361561211399842,1.13292037909046,-0.00011355872337428,0
0.4,0.000764744336610678,0.000440969189099105,-0.0381375380068133,-0.0220666598132426,-0.000505615622501626,0.00072363013231562,0.025182789311457,-0.0361557243466269,1.13292027542827,-0.000111268781382542,0
0.41,0.000764720995338693,0.000440969170097445,-0.0381367334173866,-0.0220666599627511,-0.000505594427637298,0.00072362026258967,0.0251820573805461,-0.036155385542729,1.13292018726308,-0.000109321171206952,0
0.42,0.000764701356988771,0.000440969153935855,-0.0381360553258364,-0.0220666418695821,-0.000505576594674798,0.000723611958870503,0.0251814482247666,-0.0361550835225013,1.13292011227805,-0.000107664716561465,0
0.43,0.000764684476767136,0.000440969140189873,-0.03813546527913,-0.0220666420002706,-0.000505561266711158,0.000723604821162652,0.0251809114852741,-0.0361548350569413,1.13292004850276,-0.000106255891535651,0
0.44,0.000764670157682577,0.000440969128498954,-0.0381349608695272,-0.022066642123282,-0.000505548264280353,0.000723598766460078,0.0251804526513686,-0.0361546226558867,1.13291999426151,-0.000105057677051341,0
0.45,0.000764657934073807,0.000440969118555558,-0.0381345251509171,-0.0220666422400192,-0.000505537164753109,0.000723593597757109,0.0251800563236014,-0.0361544391710781,1.13291994812915,-0.000104038588146476,0
0.46,0.000764647573110183,0.000440969110098613,-0.0381341518720246,-0.0220666423511732,-0.000505527756498469,0.000723589216706606,0.0251797167963397,-0.0361542819830426,1.13291990889313,-0.000103171846667139,0
0.47,0.00076463872554574,0.000440969102905924,-0.0381338281636378,-0.0220666424577936,-0.000505519722568701,0.000723585475542408,0.0251794223768174,-0.0361541456619262,1.13291987552288,-0.000102434677624475,0
0.48,0.000764631216757496,0.000440969096788284,-0.0381335491922473,-0.0220666425603981,-0.000505512904261283,0.000723582300493625,0.025179168655615,-0.036154028180799,1.13291984714138,-0.000101807710748407,0
0.49,0.000764624813914807,0.000440969091585353,-0.0381333066325654,-0.0220666426596905,-0.000505507090240171,0.000723579593068226,0.0251789480656232,-0.0361539260290273,1.13291982300247,-0.000101274471504666,0
0.5,0.000764619400602352,0.000440969087160211,-0.0381330975129237,-0.0220666427560198,-0.000505502174672783,0.000723577304100603,0.0251787578924758,-0.0361538379628503,1.13291980247241,-0.000100820948195659,0
0.51,3.14032645587065,0.0129292833050742,2.1156143592184,-0.642075731087109,-0.37813292769577,3.11750427502516,-0.900468270528961,2.01921822870949,0.124820998718862,38.088057743001,738.904113856947
0.52,2.98757923220595,0.00742688986216017,3.28040143559273,-0.36089999396914,-1.57054045869243,2.54147348894524,-2.037937429999,2.59578377676085,0.556010010450864,79.3544436149026,738.904113856947
0.53,2.85352795773974,0.00470088405182723,3.46672727375667,-0.218190164948921,-2.73818502952315,0.803110607580627,-3.38925983692951,0.760738257527105,1.28714467597513,120.250217297725,738.904113856947
0.54,2.69671427950887,-0.057051338643662,4.3428902041569,2.86833086299466,-1.92978289579846,-1.88453196726185,-5.13074264084516,-0.873783278841423,2.32317888274008,162.277264337355,738.904113856947
0.55,2.56683644756495,0.0121232199549446,4.74484899741452,-0.5868770400928,1.24165954211399,-2.24657025318311,2.82709467996834,-3.85558715877989,-2.63196264844454,199.146390315922,738.904113856947
0.56,2.44209249641072,0.0185134738360644,5.35446019086007,-0.897321723236635,2.12190415085372,1.2090001175884,4.18194316055796,3.46219317952655,-1.04531957832082,234.033632008802,738.904113856947
0.57,2.30147345237414,-0.022028699610481,6.4439083861128,1.12374055992704,-1.67100678732252,1.58271969480118,-3.85528789874409,5.28426942466387,0.802954382659142,269.117973194879,738.904113856947
0.58,2.1922213188247,-0.00474350912817556,6.72224995088426,0.271511564938365,-0.54032413593657,-2.12459564146045,-1.9339344352686,-6.44377688410617,2.89038980976346,300.789725207702,738.904113856947
0.59,2.0864907734449,0.0407270592862875,6.72958669090851,-2.00896402575587,1.8503886577433,0.964968526079355,4.94155974999048,4.99041688884888,-1.07058399383289,331.651552584963,738.904113856947
0.6,1.96152814970407,-0.0109997900793058,7.93406580268178,0.569659473927546,-1.95243841742921,0.188938888558624,-7.83471669119419,1.3751823319993,1.46871827741396,361.456177882234,738.904113856947
0.61,1.88893582789296,0.046047446552229,6.95602634320291,-2.26561370435943,1.64077828101582,-0.937040853847045,7.1979490851844,-1.30722488953016,-2.06531858356234,388.772473339484,738.904113856947
0.62,1.76991478227614,0.0405700164528662,8.33465647748859,-1.9923212708632,-1.34286352885135,1.1536731797331,-7.70811445994936,3.74443775704658,0.88395272052348,415.036854027186,738.904113856947
0.63,1.70720162629394,0.0552920702065463,7.0398032481123,-2.73441701368987,1.28096307312033,-1.12992398467796,7.16889834794546,-2.37544998973121,-2.26125127064477,440.414927106296,738.904113856947
0.64,1.6584346329165,0.0296073404062207,5.25398512723157,-1.45410685465625,-1.42916264047557,0.841888456585381,-5.28936469198012,1.31962404387118,1.05629700697554,464.484406631839,738.904113856947
0.65,1.4992188449055,-0.0523904560786866,9.19794368398752,2.64388709220495,1.48684371734933,-0.199242728817741,8.62577541501432,-4.14587812892134,-1.73893752519285,487.221990992399,738.904113856947
0.66,1.46189071624628,0.0283616253413599,7.24563498830491,-1.3987522123117,-1.38770061839313,-0.460668906863051,-6.36469914096436,-3.73447974692629,1.91071365472146,508.670758406604,738.904113856947
0.67,1.35420403841891,0.00193941119751428,8.96163839952361,-0.0774727610929465,0.731750182076333,1.13947971022618,4.76640360043985,7.58935844128089,-0.569425500476223,529.052289918123,738.904113856947
0.68,1.29117264491823,-0.00872434490180718,8.60848413950787,0.458013403980743,0.312288362909716,-1.25286826584852,1.5803959336779,-8.47455746049308,-2.90406858335825,548.322073120058,738.904113856947
0.69,1.22805076502249,0.0181502153741292,8.42552482839401,-0.882726804123205,-1.129586431775,0.482154129859187,-8.13166019813531,2.37587408476618,1.18214574302911,566.514906796343,738.904113856947
0.7,1.17091503105973,0.0506580203153829,8.09890261687365,-2.5029949098489,0.937926174280617,0.702782140199371,4.6792842344099,7.06834536294989,-0.884510770717602,583.722450312378,738.904113856947
0.71,1.10701430755054,-0.00476558729025267,8.25155006130399,0.277382274730888,0.346023655305832,-1.05155647395307,2.28157384407149,-7.93469849046513,-2.82799919427523,600.022712844015,738.904113856947
0.72,1.007157887667,0.0346692283851402,10.3288749774803,-1.69621825264182,-1.007485835815,-0.0232649246470866,-10.2143323380988,-2.28696951179573,1.62829353184736,615.548615576061,738.904113856947
0.73,0.917149429435271,-0.0295093194118861,11.984826579848,1.48076145868208,0.0512841983236898,0.916189831229256,2.52929342687331,11.8081072745519,-0.0880811073086211,630.389218912465,738.904113856947
0.74,0.939070978459444,0.00806827655138359,8.19317989618722,-0.388887638235857,0.930212317846315,-0.128935811155291,8.17503694403606,-0.669478431396182,-1.69993620771282,644.169245304064,738.904113856947
0.75,0.858819087263336,0.0470590834995472,9.66933863088844,-2.32419047761137,-0.108349382626433,-0.853255643563005,1.62682470159046,-9.81078041367281,3.07002552419599,657.069592196318,738.904113856947
0.76,0.749549858077592,-0.00246367389263186,12.6873841225494,0.157942513420904,-0.747030063494643,-0.0614584710872112,-12.6604478225279,-0.841262529602211,1.64959501592111,669.463805198397,738.904113856947
0.77,0.781214943446541,-0.0134419685181431,8.75002478834923,0.676387870437059,-0.256249043716923,0.738115100764093,-2.08436928488573,8.52501255320045,0.316943773390535,681.135304625418,738.904113856947
0.78,0.698592105709232,0.0329855062797229,10.6473518211468,-1.62668412827507,0.580925308702522,0.389415920954277,7.58618775955869,7.64604193901538,-0.93307472155303,692.03918873491,738.904113856947
0.79,0.640161640270857,0.0190667609698049,11.4545263509461,-0.922273440382736,0.541166024732185,-0.34250518349905,10.3267743192946,-5.04127904223833,-2.10528248424143,702.332023646381,738.904113856947
0.8,0.658348817136429,-0.0186158829484827,8.50105913962622,0.935623073292217,-0.0226614252520141,-0.658221980739351,-1.46631481666901,-8.42575325351486,3.07890891240637,712.010398551365,738.904113856947
0.81,0.608187080524624,-0.0122993725899164,9.07628625650674,0.645728118036833,-0.534454704355287,-0.290518447737272,-8.35717609576734,-3.59910332121925,2.04847630812783,721.07676239875,738.904113856947
0.82,0.522315726215979,0.00621084464926648,11.5146172524814,-0.31859925327175,-0.458465479537273,0.25032318413691,-10.3205440963441,5.11608106960239,1.08291800208271,729.716174453528,738.904113856947
0.83,0.519619826378459,-0.0100127365678292,9.86111051891244,0.518710366074119,-0.102083414259855,0.509591989136611,-1.23981871974201,9.79660199519484,0.178439940414934,737.732543959525,738.904113856947
0.84,0.519213615614751,0.0335813431355774,8.21327663582339,-1.67487869565841,0.34841766234378,0.386413790920339,3.78116256947824,7.48103878915953,-0.669149544869653,745.255289928425,738.904113856947
0.85,0.43642580144877,0.0479861583877986,10.7288083479189,-2.39425537951389,0.439055024095433,-0.000915086651227436,10.4102411233982,3.53081678106003,-1.46336783374845,752.258187313198,738.904113856947
0.86,0.412371352676473,-0.000721231446220539,10.3996946713875,0.0648701659677665,0.33191838877684,-0.24470561063206,8.3213266365833,-6.23805902535456,-2.2078339726921,758.893833816564,738.904113856947
0.87,0.363980245845357,-0.0603766206002882,11.3576761563787,3.02283298293819,0.143861549804612,-0.339751100319885,-0.281564962329302,-11.7496828930785,-2.90543275566911,764.977383624223,738.904113856947
0.88,0.393875726114965,0.0112197971558621,8.49696869055403,-0.532379597551626,-0.170385670914133,-0.355292407205601,-2.96815250587208,-7.97947214206742,2.72290451123101,770.628684128289,738.904113856947
0.89,0.352550274669693,-0.0379384553289101,9.22019864757119,1.89951214988982,-0.2833405891012,-0.213188022952052,-8.89154476085655,-3.0920286664158,2.10863849469813,776.011165122213,738.904113856947
0.9,0.274259793245253,-0.0116669475962151,11.8764079430238,0.609159167553304,-0.274505696871286,-0.00108362463578717,-11.8440892756868,1.06662540289225,1.53222972109341,780.967815072496,738.904113856947
0.91,0.317331154354651,-0.0106155249889671,8.51873765379838,0.534144655730005,-0.271248877772336,0.165032715550873,-6.83274721808019,5.11544398672341,0.990770014501295,785.550960444686,738.904113856947
0.92,0.282199472788322,0.000385536911937388,9.15953652851971,-0.0119171552374186,0.17150070911886,0.224107558668702,5.54709105965715,7.2888292757992,-0.651830450133382,789.715023316333,738.904113856947
0.93,0.278120757281027,0.0263397441645108,8.26433138254435,-1.31025445006799,0.262904757472652,0.0944776494810799,6.92183446431122,4.701504820066,-1.13138226516219,793.661359145756,738.904113856947
0.94,0.169916180217961,-0.0193231075875019,12.6443209429481,0.946853698218523,0.170144877755189,0.0171933522145228,12.631469512075,-1.10515247799862,-1.58332188641579,797.307387028982,738.904113856947
0.95,0.22328086558311,0.0481116258250773,9.00971680180911,-2.39326976207279,0.181622365432592,-0.138500504871806,9.17216403369734,-1.66557615911201,-2.01006548034776,800.523216477175,738.904113856947
0.96,0.210098963082803,0.000256620061350334,8.73701513248771,-0.0307880288941798,0.139567978795594,-0.157042731246108,5.83492360772668,-6.50307987187888,-2.41381981661649,803.598405871746,738.904113856947
0.97,0.178759384895045,0.0531374873149321,9.42701864023599,-2.63834672240759,0.0105317510237077,-0.186192353405219,5.67459633198805,-7.97674810558685,-2.79615061113836,806.324896987377,738.904113856947
