t,iq,id,vq,vd,ia,ib,va,vb,theta_e,omega,r
0,0,0,0,0,0,0,0,0,0,0,0
0.01,0.000665183184703068,0.000263322923808422,-0.0259353959242701,-0.0131763338439688,0.000327496883946374,-0.000636045141810035,-0.0108542105178421,0.0269897508204639,-2.28916276665187,-0.0144878713656347,0
0.02,0.000561818712436766,0.00030477533350917,-0.0292952470252068,-0.0152505673683062,0.000222376633294345,-0.000599230258351833,-0.0120177466215977,0.0307630471420211,-2.28919092771782,0.00159760262270346,0
0.03,0.000547325552713018,0.000320796851232469,-0.0278375343941996,-0.0160522616481524,0.000200927199558582,-0.000601750896044886,-0.0103929816357036,0.0304070609873582,-2.28917941584154,-0.000580347315239032,0
0.04,0.000534599622650908,0.000313946375797237,-0.027103410965349,-0.0157094694476518,0.000195858040584085,-0.000588216551410513,-0.0100660506369195,0.0296657536708286,-2.28917421629584,-0.00108513447735656,0
0.05,0.000567744184351666,0.0003218479271239,-0.0282813694408404,-0.0161048568504203,0.000215606942550347,-0.000615981487857534,-0.0106924624414294,0.0307387950082701,-2.28918114657693,-0.00166639295921966,0
0.06,0.000561287576797425,0.000322753637923571,-0.0283665550456009,-0.0161501768617253,0.00021014893862896,-0.000612414139494792,-0.0107267221487006,0.0308289975471907,-2.28918262927206,-0.000740864383427516,0
0.07,0.000576832832287669,0.000329544434936624,-0.0283742272319654,-0.0164899791275526,0.000217384006025022,-0.000627757791610129,-0.0105089015737908,0.0310898563899981,-2.28918098417963,-0.00241728684356662,0
0.08,0.000562346567616239,0.000323635878976727,-0.0284851290509207,-0.0161943178934939,0.000210364966363101,-0.000613775549527558,-0.0107869108327239,0.0309402822186548,-2.28918358770538,-0.000548089920110774,0
0.09,0.000557442350059723,0.000322958842419675,-0.0281851958755297,-0.0161604483050355,0.000207119657761328,-0.000610037568438202,-0.0105834588806683,0.0307173526542068,-2.28918143273399,-0.000785992498453423,0
0.1,0.000559947080523833,0.000322881193241999,-0.0282251256752978,-0.0161565637314588,0.000209056448825499,-0.000611627663812726,-0.010616074975056,0.0307407095415678,-2.28918151555935,-0.00095634814828475,0
0.11,0.000560063902910045,0.000322872252760709,-0.0282520183920497,-0.0161561183089966,0.000209150144499892,-0.000611697869868191,-0.0106366077710924,0.0307580766167676,-2.28918174556721,-0.000899447842539372,0
0.12,0.000559759127552013,0.00032287123752607,-0.0282426324243691,-0.0161560666729191,0.000208921387097771,-0.000611496501144978,-0.0106295768793327,0.0307518596505022,-2.28918169579517,-0.000890103900888477,0
0.13,0.000596796056246962,0.000336899418908494,-0.0292939117880217,-0.0168580099853109,0.000227568964177973,-0.000646435702723614,-0.0109588835247916,0.0319723105264429,-2.28918705837255,-0.00222252926446307,0
0.14,0.000597370964263725,0.000346703429311669,-0.0306795231297162,-0.017348589674179,0.00022155015493664,-0.000654194822426313,-0.0116792324971179,0.033253604788475,-2.28918536699203,-0.00275209966032744,0
0.15,0.000558224272562526,0.000325603034280264,-0.0285331390927315,-0.016292759357637,0.000205966148113785,-0.000612543565994817,-0.0107582369251908,0.0310460041266584,-2.28918448277971,2.80332043118092e-05,0
0.16,0.00055583536281927,0.000323184490663829,-0.0280919819422582,-0.0161717348884429,0.000205761689786406,-0.000609149647116627,-0.0105058725276374,0.0306644925146215,-2.28918077824045,-0.000849127479910846,0
0.17,0.000560696970951722,0.000322907057420371,-0.0282351241262758,-0.0161578591095302,0.00020960398731984,-0.000612140694175729,-0.0106227495166064,0.0307482656118531,-2.28918152885536,-0.00101064401810177,0
0.18,0.000560114660120023,0.000322875206113967,-0.0282599262147159,-0.0161562671742607,0.000209186370244565,-0.000611733515273121,-0.0106424611374727,0.0307633941496166,-2.28918181748754,-0.00088275253631681,0
0.19,0.000559665180402648,0.000322871578948971,-0.0282391961525549,-0.0161560848991517,0.000208850441100507,-0.000611434922048335,-0.0106269782545569,0.0307496115713393,-2.28918168164471,-0.000886873024577227,0
0.2,0.000559810175668042,0.000322871163733984,-0.0282398885412757,-0.0161560642918994,0.000208959882331265,-0.000611530039105623,-0.0106275133698341,0.0307500516715283,-2.28918167273713,-0.000900662807906701,0
0.21,0.000559835728828615,0.000322871113229102,-0.0282419866316882,-0.0161560614062055,0.000208979143381128,-0.000611546822951895,-0.0106290943350669,0.0307514305794346,-2.28918168971749,-0.000897774639728013,0
0.22,0.000559814774070706,0.000322871107875433,-0.0282414062586903,-0.0161560615322973,0.000208963371912133,-0.000611533026718637,-0.0106286573675267,0.0307510486693948,-2.28918168774912,-0.00089671675309594,0
0.23,0.000559815588977958,0.000322871107513869,-0.0282411391453322,-0.0161560616108145,0.00020896398663525,-0.000611533562463642,-0.0106284562629661,0.030750872905735,-2.28918168616884,-0.000897230196315188,0
0.24,0.000559817800869071,0.000322871107378487,-0.0282411179925301,-0.0161560616862787,0.000208965651682545,-0.000611535018266806,-0.0106284402725634,0.030750859045747,-2.28918168667083,-0.000897260118044652,0
0.25,0.000559817335207784,0.000322871107350561,-0.0282410200037143,-0.0161560617675925,0.000208965301062131,-0.000611534711780889,-0.0106283664434137,0.0307507946146595,-2.28918168676346,-0.000897196600444374,0
0.26,0.000570285800221466,0.000325783517085781,-0.028421313900455,-0.0163017857268125,0.000214929539883134,-0.000620617504445889,-0.010668178709132,0.0309791746943189,-2.28918215059497,-0.00157543906273209,0
0.27,0.000550136040540214,0.000318089947089276,-0.0283661925724548,-0.015916810537154,0.000204822042430406,-0.000601563636263994,-0.0108800055493719,0.030653078442122,-2.28918388737614,0.000484109710787035,0
0.28,0.000553106277022118,0.000317935169717877,-0.0266921400710136,-0.0159090631739914,0.000207161239661825,-0.0006034016461749,-0.00962481952823789,0.0295454138859741,-2.28918201257723,-0.000283675082385084,0
0.29,0.000558752808755544,0.000322305331876224,-0.028142733898773,-0.0161277446360595,0.000208536693743497,-0.000610407958344732,-0.010573030719817,0.0306647784883716,-2.28918092384057,-0.00103345956797141,0
0.3,0.000553655609370986,0.00031915391252568,-0.0275879300578006,-0.0159700556203124,0.000206776012459912,-0.000604679612968376,-0.0102592553973515,0.0301808588360551,-2.28917649306052,-0.00190899976423565,0
0.31,0.000566374447048946,0.000322444766059637,-0.0284069715607785,-0.016134722198467,0.000214182081650089,-0.000615529590945299,-0.0107673276362222,0.03084396130932,-2.28918245585252,-0.00118478643342676,0
0.32,0.000559365562858255,0.000322822156029735,-0.0282856148272848,-0.0161536040269248,0.000208657116123029,-0.000611200609641908,-0.0106635441520728,0.0307783000721773,-2.28918214101734,-0.000731910789829482,0
0.33,0.000559152428851101,0.000322865525885569,-0.0282138345391164,-0.0161557815781884,0.000208468489088268,-0.000611092853462307,-0.0106080888872743,0.0307326892406515,-2.28918151962803,-0.00089358928644584,0
0.34,0.000559985206073721,0.000322870470120912,-0.0282400730666248,-0.0161560301089842,0.000209092118967798,-0.000611644714914698,-0.0106276750468929,0.0307501472970189,-2.28918166443152,-0.000916601330448214,0
0.35,0.000559863144634336,0.000322871030334645,-0.028243476656179,-0.0161560595571826,0.000208999826344843,-0.000611564808942624,-0.0106302167366273,0.030752410087271,-2.28918170952987,-0.0008942147273229,0
0.36,0.000559790094022502,0.000322871098925715,-0.0282397700880636,-0.0161560627071552,0.00020894479851844,-0.000611516775779135,-0.0106274248503604,0.0307499726483483,-2.28918168518276,-0.000895532942483482,0
0.37,0.000559816753131175,0.000322871106777672,-0.0282399007607359,-0.0161560627291779,0.000208964864693448,-0.000611534327737878,-0.0106275232412347,0.0307500586607954,-2.28918168434016,-0.000897841972720919,0
0.38,0.000559820362006149,0.000322871107184926,-0.0282401654573983,-0.0161560628015849,0.000208967579656122,-0.00061153670390597,-0.0106277223860517,0.0307502329616379,-2.28918168725231,-0.000897287068739682,0
0.39,0.000559816753131175,0.000322871107319277,-0.0282399736773736,-0.0161560628897645,0.000208964862809478,-0.000611534328667592,-0.0106275779554399,0.0307501067997792,-2.28918168683798,-0.000897122445555033,0
0.4,0.000559816985961819,0.000322871107375099,-0.0282398447344214,-0.0161560629695504,0.000208965038220659,-0.000611534481898148,-0.0106274808336089,0.0307500219907495,-2.28918168658149,-0.000897214312792543,0
0.41,0.000559817335207784,0.000322871107364284,-0.0282397551576442,-0.0161560630490817,0.000208965301107266,-0.000611534711772711,-0.0106274133387757,0.0307499630948788,-2.28918168667489,-0.000897216868340511,0
0.42,0.000559817218792462,0.000322871107361352,-0.0282396510372692,-0.0161560631296303,0.000208965213455157,-0.000611534635152347,-0.0106273348962873,0.0307498946267706,-2.28918168668879,-0.000897205994702295,0
0.43,0.000559817218792462,0.000322871107362972,-0.0282395474006972,-0.0161560632099247,0.000208965213461293,-0.000611534635151105,-0.0106272568189965,0.0307498264766226,-2.28918168667702,-0.000897207613385248,0
0.44,0.000559817218792462,0.000322871107362855,-0.0282394436570545,-0.016156063290219,0.000208965213460225,-0.000611534635151408,-0.0106271786606758,0.0307497582561489,-2.28918168667889,-0.000897208563186756,0
0.45,0.000559817218792462,0.000322871107362231,-0.0282393405340882,-0.0161560633705134,0.000208965213459199,-0.00061153463515143,-0.0106271009696286,0.0307496904441908,-2.28918168668124,-0.000897208212771338,0
0.46,0.000559817218792462,0.000322871107362388,-0.0282392372586868,-0.0161560634508077,0.000208965213458668,-0.000611534635151694,-0.0106270231638685,0.030749622531887,-2.28918168668194,-0.000897208166508784,0
0.47,0.000559817218792462,0.000322871107362285,-0.0282391339672618,-0.016156063531102,0.000208965213458134,-0.000611534635151822,-0.010626945346036,0.0307495546090399,-2.28918168668292,-0.000897208214384712,0
0.48,0.000559817218792462,0.00032287110736204,-0.028239030637081,-0.0161560636113964,0.000208965213457713,-0.000611534635151836,-0.0106268674990263,0.0307494866606847,-2.28918168668387,-0.000897208211245853,0
0.49,0.000559817218792462,0.000322871107361862,-0.0282389272908817,-0.0161560636916907,0.000208965213457267,-0.000611534635151895,-0.0106267896399578,0.0307494187017861,-2.28918168668479,-0.000897208206366358,0
0.5,0.000559817218792462,0.000322871107361293,-0.0282388239514009,-0.016156063771985,0.000208965213456904,-0.000611534635151718,-0.0106267117859387,0.0307493507473125,-2.289181686686,-0.000897208207606154,0
0.51,0.849911063560403,-0.00653864424407549,4.73556695428879,0.343169190842542,-0.71314481095603,0.462402474514805,-3.76456352722748,2.89334078904717,0.987854146117965,253.28985814763,353.201466173697
0.52,0.185106083503668,0.0107393984876139,3.66637822992592,-0.538521031188582,-0.0024056236815336,-0.185401752431431,0.702827542375808,-3.63845677060826,-3.09661455059512,327.178490311842,353.201466173697
0.53,0.0395537889886315,0.00273386426383944,4.29141534138753,-0.146246675517614,0.0255132353450938,0.0303488230314808,2.41024460945768,3.55363963352735,-0.63004251741333,342.027872077093,353.201466173697
0.54,0.00290137326098177,0.00936154652561052,4.41982246207371,-0.458952757981237,-0.00571939738583746,0.00795895807839105,-4.04637278466279,-1.83639198371431,1.8933673608365,345.642046975612,353.201466173697
0.55,0.010479973720761,0.018975874978326,3.79454662456294,-0.948405274784414,0.00473248261185935,-0.0211546044328262,3.90820911937877,-0.154784141388948,-1.8553017877482,346.354804038827,353.201466173697
0.56,0.00450203729074489,0.000844138481201773,4.19847847317957,-0.0508054022341447,-0.00219081150604441,0.00402259300547379,-2.69257436626984,3.22177683286024,0.684057811866185,345.966897320431,353.201466173697
0.57,-0.00259063761458882,0.0237939330839541,4.34272981209863,-1.18304707315034,-0.0239257509275482,0.000648920185179643,1.5319638650576,-4.23225581863119,-3.06025737609658,346.702261416951,353.201466173697
0.58,-0.00383009156921243,-0.00583746639077846,4.47181798870003,0.298723429138091,-0.00696891624327189,-0.000424053871909524,2.48079481665327,3.73256599256376,-0.519892658963629,346.669158770679,353.201466173697
0.59,0.0422073952379952,0.0240897686099374,2.04260875161846,-1.2087286545341,-0.0484928392265672,0.00319776612699726,-1.30799542747815,-1.98051090231193,2.02358120344747,347.168469670774,353.201466173697
0.6,0.000707960646625648,-0.0291841827916462,4.4294150282719,1.45030824387667,0.00493067303795798,0.0287733591519333,4.17241790824027,-2.07702679181889,-1.71625674554886,346.360043098772,353.201466173697
0.61,0.0165445098240708,-0.0111418407811158,3.48487943931154,0.567628350041238,-0.0197152299662947,0.00302838714279188,-2.17658762219922,2.78011743874175,0.825699537736761,346.661356172614,353.201466173697
0.62,0.00150621687245222,0.00604802078279493,4.03177479517153,-0.300324987281528,-0.00555404244858119,-0.00282840186949051,1.19977471323985,-3.86082163981144,-2.9146493322202,347.347181217344,353.201466173697
0.63,0.0264399840676843,0.00458914668068551,2.94501857063201,-0.237100360246956,0.0138293730701853,0.0229974230130656,0.842638133818486,2.83183896746117,-0.369551187705665,347.065299404961,353.201466173697
0.64,-0.034627734540273,-0.0248567332668397,5.94201585180634,1.24315020336384,0.0426196090489037,-0.00071141591846165,-5.59225354982333,-2.36213357914614,2.17669632176644,346.875609610488,353.201466173697
0.65,0.0271263938371143,-0.0127865287331002,2.77566368171978,0.647994450575254,0.0270274127166364,0.0129944419462027,2.78055748361591,-0.626662398985375,-1.56311774592403,347.688962251258,353.201466173697
0.66,-0.00669285378756306,0.000882755450748116,4.64914951140049,-0.0467334853646309,0.00605584992669756,-0.00298332543864055,-3.89202738005732,2.54340285265506,0.981919539968188,347.222149854248,353.201466173697
0.67,0.0301970524633021,-0.00416691115369521,2.63062437047132,0.198984698984417,0.0152491991861342,-0.0263948299902805,0.807962801140155,-2.51136926813269,-2.75483057159929,347.799633250349,353.201466173697
0.68,-0.0156711581145,0.025666853058586,4.71221760444891,-1.27464111313713,0.0219589941433267,-0.0205469004668356,-0.293371320871671,4.8727443999319,-0.204041082852404,348.198735374702,353.201466173697
0.69,-0.00159603026531374,0.0210069214925292,4.31380542741931,-1.04737777208703,-0.0135273405034867,0.0161508241927095,-2.35630819471723,-3.76214422299341,2.34385660945009,347.753076653378,353.201466173697
0.7,-0.00942487219471353,0.000910608598898299,4.75837121953376,-0.052330215116235,-0.00910947441209433,-0.00258358275316865,4.67208961049722,0.903556188504781,-1.39075731510778,347.928595588487,353.201466173697
0.71,-0.0189022620232188,-0.0367494581121747,5.17567439501325,1.82920252745488,0.00266485875981846,-0.0412397467126451,-4.01557432084135,3.74282649924393,1.1602598801775,347.649469790994,353.201466173697
0.72,0.0188255524550718,0.0421128583871823,3.31268425387629,-2.09839853406352,-0.0254118273216955,-0.0384984843721134,3.54927855634863,-1.66726575658581,-2.57459868308557,347.883114502116,353.201466173697
0.73,0.0101606177099375,-0.0262920168524835,3.63582844603172,1.31526499446123,-0.0260286753247358,0.0108174101918279,1.40611876518585,3.60166635223486,-0.0251050954428994,348.083692121475,353.201466173697
0.74,0.00723881052141498,0.0123936772797865,3.90093285210164,-0.629532854827894,-0.0142986417924683,0.00124597639268288,-1.73842835449508,-3.54844410808471,2.5260466787001,347.849157691162,353.201466173697
0.75,0.0216110179594036,0.00291219619946182,3.10621124382429,-0.13562589333722,0.0212239125326777,0.00500624817114282,2.85244246300075,1.23713971299694,-1.20520447792615,348.169269775517,353.201466173697
0.76,0.0346704992428349,-0.0177778263280599,2.3467672967089,0.895885900303527,-0.0377353849655915,-0.00970233725432611,-2.09171858794863,1.39091395855217,1.3486527025594,348.587543733525,353.201466173697
0.77,-0.0163306216448029,0.0355349677565707,5.24444134066861,-1.78347966679067,-0.0370252971704224,-0.0125916840100177,4.90211289893528,-2.57958404082171,-2.38299999326332,347.699858689553,353.201466173697
0.78,0.0260773198524826,0.00114805710471604,3.11639434075521,-0.0672018703390335,-0.00323595004280089,0.0259012214600947,-0.588229165581889,3.06111356000182,0.168286977975613,347.600565196656,353.201466173697
0.79,-0.0171206130131267,0.00499153673458173,5.0864812660039,-0.240496100198706,0.00246203538170984,0.0176626501606393,-1.86484143985635,-4.73840653045028,2.71940512283888,348.264279414858,353.201466173697
0.8,-0.0156652318950058,0.00321860916125573,4.97210031743916,-0.159969254185438,-0.0115713555233335,-0.0110391424762001,4.12982205999609,2.77343496079012,-1.01157401398949,348.586442441551,353.201466173697
0.81,0.0100035369142715,0.0103389201424004,3.82996576837518,-0.525703580792592,-0.00970545840795873,0.0106192324391883,-3.84336729566382,-0.416569168813052,1.54235313180993,348.252047592595,353.201466173697
0.82,-0.00802017026630335,0.0468249296437375,4.61458191308555,-2.339539429507,-0.0336000187163988,-0.033584757100493,5.11813754239064,-0.756623467760346,-2.18678778494415,348.622430620844,353.201466173697
0.83,-0.033475049882715,0.0413625035964634,5.88517616820374,-2.06319737701179,0.0506505313833476,-0.0163082598397935,-4.04651448567759,4.74529266373561,0.368897047393853,348.737274502355,353.201466173697
0.84,-0.0190614413789469,-0.0306573945947937,5.28964577887499,1.53091395361433,0.0340658773769124,0.0119469824359578,-2.64336581454643,-4.8308039879329,2.92262934103048,348.413640662557,353.201466173697
0.85,0.0310166352032512,0.010027408417563,2.93881756517032,-0.511508770327759,0.0293346379864574,0.0142147667271631,1.76837875904239,2.40231689584108,-0.806880831890868,348.012657652095,353.201466173697
0.86,-0.0478964585794738,0.0326845348809596,6.57959375517707,-1.6264311879788,0.0413709380769196,0.0406299772024991,-6.18890982140855,-2.76292012459065,1.74834288411074,348.873418146826,353.201466173697
0.87,0.0120588116003979,0.0251689484859346,3.73895352881581,-1.25582032597636,0.00097725624268445,-0.027891501848012,3.92904596355466,-0.345624070421053,-1.98257302928979,348.727900534533,353.201466173697
0.88,0.0195548959286293,0.0013360675866186,3.4348852497915,-0.0735110602443373,-0.00947082722237265,0.0171604913420188,-1.92263475481075,2.84733492143219,0.572516555546201,348.594698122563,353.201466173697
0.89,-0.00722789268433799,0.0301911559355035,4.56856444390382,-1.52036010369988,-0.030114461669147,0.00754105614325151,1.47283082458874,-4.58410790505261,3.13120686677886,348.837282479554,353.201466173697
0.9,-0.0183187393750412,-0.00316158027326175,5.17755624183384,0.166562667966674,-0.012897200156916,-0.0133878314236253,3.04348832502251,4.19189820667969,-0.595830900644272,348.966328932204,353.201466173697
0.91,-0.00793598771619113,-0.029946957950457,4.75234708725429,1.49778886884852,0.0187360434700662,-0.0246730797957159,-4.96475124070265,-0.423579332973614,1.96122142001641,348.839525800564,353.201466173697
0.92,0.0181077568597462,-0.0428881989397562,3.72677935483082,2.1370277354287,0.0260458317409831,0.0385863073603602,3.24418457461435,-2.81620992602098,-1.76504357250461,348.285680662685,353.201466173697
0.93,0.0061111341433432,0.0494120374106269,4.14828626605263,-2.46300310659825,0.0303832141874619,0.0394430690644876,-4.68192489617962,1.16371925942941,0.791373661532851,348.791376867221,353.201466173697
0.94,-0.0324538049892868,0.0245839961936183,5.82050328642604,-1.22507361478071,-0.0307731824679167,0.0266577112282131,2.4041419680411,-5.44051148941271,-2.93294576814981,349.402637137826,353.201466173697
0.95,0.00970427235996172,0.0157657274098205,3.91489088350786,-0.793670669177352,0.0182182567167847,0.0032903168538015,0.687849905310136,3.93486292882614,-0.37308081138375,348.978243486267,353.201466173697
