t,iq,id,vq,vd,ia,ib,va,vb,theta_e,omega,r
0,0,0,0,0,0,0,0,0,0,0,0
0.01,0.000833235050890739,0.000470462361636937,-0.0405583364141103,-0.0235511303479849,-0.000846472349670118,-0.000446206280764677,0.0417501803011825,0.0213671906943021,2.5699160709469,-0.00238193029631637,0
0.02,0.000925290731080703,0.000522514436150066,-0.0452213326586204,-0.0261568331122115,-0.000940062652889315,-0.000495445740371019,0.0464648634293685,0.0238781346082943,2.56989850637898,-0.00247434514203326,0
0.03,0.000960895140765158,0.00054306679066771,-0.0470053114868326,-0.0271856729879313,-0.000976619876511021,-0.000514251521607683,0.0482957703751131,0.024820932449351,2.5698810934691,-0.00239725345839589,0
0.04,0.000938516819566637,0.000531398218946976,-0.0459907359617745,-0.0266015681800584,-0.000954706458842725,-0.000501730470624894,0.0472559739816784,0.0242830011939811,2.56986542675021,-0.00216295720886349,0
0.05,0.000958886727021242,0.000543444025508765,-0.0470314845134308,-0.0272045591254214,-0.000975866126185265,-0.000512328476548831,0.0483265756542616,0.02483124359106,2.5698504478839,-0.00206554812984833,0
0.06,0.000958645187965153,0.000543963595437643,-0.0470758470825689,-0.0272305805196778,-0.000976179517902953,-0.000511830575871499,0.0483728103208611,0.0248537947935937,2.56983647718945,-0.00191637415101107,0
0.07,0.000982985640730439,0.000558459740054816,-0.048298695989293,-0.0279562465475925,-0.00100154761565699,-0.000524442966123213,0.049645080726177,0.0254888547209814,2.56982374004187,-0.00185481972252921,0
0.08,0.000957647233984097,0.000544609090300759,-0.0471272355506386,-0.0272628959458996,-0.000976195024594225,-0.000510617821813038,0.0484284105960767,0.02487832134892,2.56981164683125,-0.0016495193636833,0
0.09,0.000955511263038625,0.000544003740439847,-0.0470685001598424,-0.0272325827950566,-0.000974535726985225,-0.000509138448985727,0.0483714090289107,0.024844799486905,2.56980064067594,-0.00152610101945994,0
0.1,0.000954539440382784,0.000543974445391452,-0.0470623932070567,-0.0272311160392427,-0.000973990361221662,-0.00050832717489085,0.0483671230875739,0.024839966573041,2.56979048709402,-0.00141527028900514,0
0.11,0.000953689013067044,0.000543970420513972,-0.0470590016479129,-0.0272309234327408,-0.00097353152731626,-0.000507605080116629,0.0483653585941925,0.0248367653923218,2.56978111351495,-0.00131309615657737,0
0.12,0.000952906281303387,0.00054396770442755,-0.047055982718239,-0.0272307861898645,-0.000973110050069411,-0.000506939912476357,0.0483638243801819,0.0248338824475804,2.56977245971107,-0.00121877444098115,0
0.13,0.000997932692569381,0.000569804454839366,-0.049257727172284,-0.0285241572441842,-0.00101920777812148,-0.00053081284900635,0.0506431668601115,0.0259850126620908,2.56976397715669,-0.00126513083786062,0
0.14,0.0010420946560503,0.000595890482129692,-0.05158613451155,-0.0298300216539434,-0.00106504734487163,-0.000553823881792083,0.053001563816879,0.027235889900713,2.56975615428946,-0.0013158773163158,0
0.15,0.000955034451016096,0.000546217861756357,-0.0472531099656364,-0.0273434312680903,-0.000976165929252249,-0.0005074887522856,0.0485658170865031,0.024937542895354,2.56974882441517,-0.000974093511489076,0
0.16,0.000950408753557679,0.0005440566374935,-0.0470552383143516,-0.027235226590735,-0.000971848325729684,-0.000504762573311655,0.0483678964182856,0.0248294103099348,2.56974262208228,-0.000894169765672819,0
0.17,0.00094970183816835,0.000543961006908447,-0.0470440194285507,-0.0272304580351188,-0.000971388209049712,-0.000504214345072001,0.048357956475962,0.0248222814073401,2.56973692257054,-0.000831468697141411,0
0.18,0.000949217192007249,0.000543955301889092,-0.0470417419201992,-0.0272301654020584,-0.000971123774715325,-0.000503804785842729,0.0483566083994101,0.0248202702405954,2.56973166195121,-0.000774103763601892,0
0.19,0.000948777455525026,0.000543953624705874,-0.0470400057372901,-0.0272300874044037,-0.000970886824911207,-0.000503431205982543,0.0483557237281761,0.0248186176597339,2.56972680533216,-0.000721168188222401,0
0.2,0.000948371945160543,0.000543952232086425,-0.0470384217977438,-0.027230020995381,-0.000970668446557912,-0.000503086616812897,0.0483549219269692,0.0248171048687808,2.56972232163572,-0.000672298473389543,0
0.21,0.000947997634096358,0.000543950952935667,-0.0470369590920328,-0.0272299516262857,-0.000970466872810839,-0.000502768537429167,0.0483541746933073,0.0248157122792102,2.56971818222436,-0.000627181318120176,0
0.22,0.000947652135826319,0.000543949772087746,-0.0470356088457673,-0.0272298851196491,-0.00097028081324777,-0.000502474943189948,0.0483534828331989,0.0248144280816797,2.56971436066152,-0.00058552852702022,0
0.23,0.000947332920547266,0.000543948681743779,-0.0470343464775053,-0.0272298411532456,-0.000970108904956425,-0.00050220368701121,0.0483528501974048,0.024813219774635,2.56971083254093,-0.000547074083354961,0
0.24,0.000947038586803693,0.000543947674968784,-0.0470331961588555,-0.0272297716387399,-0.000969950395394469,-0.00050195357202952,0.0483522499921968,0.0248121326190919,2.56970757533046,-0.000511572399036998,0
0.25,0.0009467665779354,0.000543946745368229,-0.0470321169328451,-0.0272297275656007,-0.000969803906311795,-0.000501722431424567,0.0483517034449368,0.0248111035718796,2.5697045682279,-0.000478796743782882,0
0.26,0.000956329573685296,0.000549466299915128,-0.0475033782192022,-0.0275060311406816,-0.000979622260020223,-0.000506773811399516,0.0488391661670545,0.0250577041936319,2.56970185220718,-0.000478925814100742,0
0.27,0.000925016910852986,0.00053171027228824,-0.0460069327769952,-0.0266171917777928,-0.000947745817697423,-0.000490050981080415,0.0472819165867676,0.024280303242849,2.56969907172911,-0.000354466391521227,0
0.28,0.000922099977217616,0.000529983066543503,-0.0457155143240001,-0.0265307201726077,-0.000944715893337903,-0.000488530756127339,0.0470515388200762,0.0240819446359286,2.56969669202606,-0.000320339025043817,0
0.29,0.000944744849488819,0.000543336749962264,-0.0469742743303639,-0.0271992090088712,-0.000968201720752731,-0.000500342964801803,0.0482949804584094,0.0247785044361922,2.56969467717874,-0.000367573674671505,0
0.3,0.000939017185203879,0.000540334726568763,-0.0467035765196357,-0.0270489260476974,-0.000962578043798999,-0.000497150279533711,0.048022132857028,0.0246321581661295,2.56969341369736,-0.000336786535253216,0
0.31,0.000945271161636328,0.000543785840530301,-0.0470121539477556,-0.0272216702932933,-0.000968865776539516,-0.0005005394254532,0.0483344469874948,0.0247980480436927,2.56969153806685,-0.000335814227557223,0
0.32,0.0009454128194652,0.000543935347326214,-0.0470260429436517,-0.0272291614111874,-0.000969069050366014,-0.0005005759052359,0.0483483072292875,0.0248055867529292,2.56968976447409,-0.000317399202351659,0
0.33,0.000945278852808407,0.00054394136350367,-0.0470261240568929,-0.0272294654231979,-0.000969002422457281,-0.00050045841162771,0.0483486474314206,0.0248054111556248,2.56968812509272,-0.000299574004921938,0
0.34,0.000945142557351698,0.000543941178793163,-0.0470255882285393,-0.0272294551493389,-0.000968929256652825,-0.000500342438042595,0.0483483863282003,0.0248048929735462,2.56968661149985,-0.000283078753811923,0
0.35,0.00094501627359404,0.000543940758750149,-0.0470250685269494,-0.0272294332013,-0.000968861253181278,-0.000500235123188342,0.0483481212527279,0.0248044002902684,2.56968521412539,-0.000267848281113708,0
0.36,0.000944899652307857,0.000543940360090351,-0.0470245836039048,-0.02722941122051,-0.000968798443426169,-0.00050013602577875,0.04834787231048,0.0248039420573785,2.56968392404952,-0.000253787208301947,0
0.37,0.000944791878585898,0.000543939991549993,-0.0470241271232198,-0.0272293892094563,-0.000968740397857027,-0.000500044447833476,0.0483476362787717,0.0248035125471453,2.56968273303336,-0.000240805823745324,0
0.38,0.000944692343486061,0.000543939651269968,-0.0470237004318082,-0.0272293896921165,-0.000968686789183415,-0.000499959870916063,0.0483474330151774,0.0248031003333961,2.56968163347053,-0.000228821226447282,0
0.39,0.000944600635078259,0.000543939337103093,-0.0470233122480098,-0.0272293676232479,-0.00096863739620283,-0.000499881942978345,0.0483472295356609,0.0248027367877404,2.56968061833865,-0.000217756877371315,0
0.4,0.000944515911589535,0.000543939047046624,-0.0470229475921952,-0.0272293455300637,-0.000968591764908759,-0.000499809950980105,0.0483470368360415,0.024802396808139,2.56967968115463,-0.00020754211442775,0
0.41,0.000944437564078208,0.000543938779251675,-0.0470226009883693,-0.0272293459308011,-0.000968549567185843,-0.00049974337806508,0.0483468710358915,0.0248020633127467,2.56967881593339,-0.000198111701372375,0
0.42,0.000944365413439202,0.000543938532010408,-0.0470222866103245,-0.0272293208813445,-0.000968510707448173,-0.000499682069184068,0.048346699629224,0.0248017739019676,2.56967801714888,-0.000189405411183173,0
0.43,0.0009442985910447,0.000543938303746043,-0.0470219823589748,-0.0272293212364403,-0.000968474716804032,-0.00049962528983477,0.0483465535437432,0.0248014822219755,2.56967727969984,-0.000181367641426137,0
0.44,0.000944237150619823,0.000543938093002063,-0.0470217105586676,-0.0272292990580658,-0.000968441625480258,-0.000499573081407035,0.0483464046697922,0.0248012327629372,2.56967659887661,-0.000173947059150001,0
0.45,0.000944180223527644,0.000543937898434827,-0.0470214459714638,-0.0272292993737556,-0.000968410964391892,-0.000499524709999389,0.0483462773175102,0.0248009797220048,2.56967597033122,-0.000167096273052597,0
0.46,0.000944127863497631,0.000543937718802426,-0.0470212080678846,-0.0272292771617498,-0.00096838276359534,-0.000499480217566262,0.0483461442675993,0.0248007636449196,2.56967539004922,-0.00016077153081596,0
0.47,0.000944079318308597,0.000543937552959186,-0.0470209746901369,-0.0272292774438782,-0.000968356616854753,-0.000499438968614654,0.048346031476508,0.0248005413529359,2.56967485432478,-0.000154932439680915,0
0.48,0.000944034498409849,0.000543937399847083,-0.0470207557112001,-0.0272292777105079,-0.000968332476530855,-0.000499400885097295,0.0483459254452717,0.0248003331656765,2.56967435973643,-0.000149541708484931,0
0.49,0.000943993430665807,0.000543937258488558,-0.0470205656193894,-0.0272292554560462,-0.000968310357928568,-0.000499365987068098,0.0483458151698745,0.0248001632941853,2.56967390312556,-0.000144564909501073,0
0.5,0.000943955246440381,0.000543937127981782,-0.0470203732069741,-0.0272292556959857,-0.000968289791607375,-0.00049933354178178,0.0483457216835133,0.0247999809915405,2.56967348157624,-0.000139970258566879,0
0.51,4.65130515472712,0.00433890707616283,7.43588563574349,-0.208122001140024,-0.591309859517831,4.6135681547521,-1.15859521468242,7.34801790170178,0.128405451928187,39.5261902627798,737.375047679097
0.52,4.61523832384534,-0.0177043139478331,9.24055323937311,0.906606526576652,-2.55184326339079,3.84562533116659,-4.3223096643437,8.21750562696743,0.58201995492064,84.3851718179025,737.375047679097
0.53,4.63490402181944,0.0309909289336479,8.25874322792919,-1.51874194381332,-4.53700990920835,0.948070046409772,-8.39594829125118,0.146523333979738,1.37148326192698,131.75827696829,737.375047679097
0.54,4.60767912690976,0.0623966505150872,9.62161019423498,-3.0877537586282,-2.73063834792338,-3.71190173514947,-3.08425839611843,-9.62273122090096,2.52088390867288,180.842169060047,737.375047679097
0.55,4.50158266477945,-0.00975119668208491,7.03254214211616,0.541573010877685,3.44213133695415,-2.90104695460757,5.01767242874095,-4.95710739288587,-2.27326487801366,225.171331216259,737.375047679097
0.56,4.1035431644247,0.0562064799121638,9.38956419224666,-2.76618340707538,1.85535711837607,3.66058405640029,1.64560192085444,9.64923212903389,-0.455414222142842,269.952468760774,737.375047679097
0.57,3.82848894877023,0.0103263812326702,8.06841907873242,-0.457636676915319,-3.81221569939254,-0.352768658344534,-7.98866318492251,-1.22068762424098,1.66576717179136,309.194255973181,737.375047679097
0.58,3.46794614763728,0.0535142713949913,11.6130628237358,-2.61508661011861,2.74767154343352,-2.11655742883599,10.8719390138745,-4.84797361843588,-2.21173941173243,345.80915182101,737.375047679097
0.59,3.21796792884072,0.0771418456019333,10.5559791411214,-3.80199744106285,-1.34063200966892,2.92642687761738,-8.04278452404733,7.82288292571116,0.453547195944026,380.302566834011,737.375047679097
0.6,3.02181573587715,0.0411770318474436,7.92046174329312,-2.00470706748962,0.612011822649314,-2.95947755836803,3.66698029302714,-7.30108349383592,-2.92404415803277,412.012465119006,737.375047679097
0.61,2.79428710336877,0.0864900731009141,7.83899979128304,-4.27529013757252,-0.481238604847067,2.75389367151364,-5.77434489257223,6.81065081690329,0.203944150444141,441.184375823685,737.375047679097
0.62,2.55069630609615,0.0541871157373941,9.43841313407414,-2.65833411451903,0.933198320279501,-2.37447442278749,6.09106256193667,-7.68435681241133,-2.74588353594855,468.052369181585,737.375047679097
0.63,2.32675073539467,0.0257055055135997,10.8799064139644,-1.22980435202584,-1.6132115407322,1.67689542981123,-8.50588389018272,6.89454288315154,0.777091767252263,492.767495196198,737.375047679097
0.64,2.17015840511034,0.029461954608237,9.69818129711459,-1.41242364123252,2.10232266478579,-0.539161314606628,9.75827500451223,-0.908696841816672,-1.8082704162412,515.616692237102,737.375047679097
0.65,1.94531633654573,0.035873307900316,12.5681097420893,-1.73499082762878,-1.74177178249218,-0.867048788226722,-10.3442988287171,-7.34595517297506,2.05111876345622,536.872285427887,737.375047679097
0.66,1.78475133513036,0.0154141614502311,12.7083346545358,-0.741539524432196,0.410267325294657,1.73702494121944,2.09115175981058,12.5570193467802,-0.223302684979495,556.653887819081,737.375047679097
0.67,1.70085194861056,0.01253649384456,9.71859589289084,-0.584519259201839,1.18891264056772,-1.216363945482,7.259237621013,-6.48816137710539,-2.36023636528865,574.513130438865,737.375047679097
0.68,1.51798878161565,0.00297020457561303,12.2678876986848,-0.0935366970634499,-1.43107284057681,-0.506289727517364,-11.5260418576573,-4.20240131315083,1.91279428829649,591.055379150553,737.375047679097
0.69,1.44627402546786,0.0628844746675363,9.62332684806418,-3.12548089719039,0.0337988318828738,1.44724588541843,-3.31829703549145,9.55855403539801,0.0201033095402336,606.60483296474,737.375047679097
0.7,1.29566064424923,0.00232442396315058,11.4618232674359,-0.0749442900965361,1.27094851117257,-0.251856685341727,11.261608883999,-2.13428550207973,-1.76463221206617,620.614134310958,737.375047679097
0.71,1.1873521002292,-0.00966272971731708,11.6420455024823,0.499747283079929,-0.351173584989112,-1.13427311149924,-4.00972069633449,-10.9411658778304,2.83321196996402,633.733126349674,737.375047679097
0.72,1.12798388478061,0.00461531889312605,9.64782504590169,-0.20003534988398,-1.06539157836859,0.370553275838354,-9.19021778251429,2.9428624445409,1.24016594716282,645.740984044446,737.375047679097
0.73,0.990694925620196,-0.0117247000847858,12.0654789642294,0.615408521652207,0.251777213475685,0.95823908238816,3.79732454550932,11.4688637877018,-0.268776368602754,656.760818728042,737.375047679097
0.74,0.981081998474587,0.0413834604353587,8.32107984349513,-2.0441693603794,0.967607867545954,-0.167240823938614,8.51489979373313,0.956807001656225,-1.69978843163938,666.94102599606,737.375047679097
0.75,0.873896048405561,0.0114131803698647,9.85966834536307,-0.565189554694013,0.0603185917037794,-0.871886593313535,1.37215880237265,-9.78006540542347,-3.05946164416411,676.335797291191,737.375047679097
0.76,0.775085288139612,0.00493032686409378,11.1864202925356,-0.218399419228378,-0.727269857080849,-0.268067280724547,-10.3944552658953,-4.1399271724117,1.93029988015823,684.932913241722,737.375047679097
0.77,0.752635421225123,-0.00692357613363598,8.97521844611257,0.348658160164193,-0.48880460216999,0.572344366694243,-5.49854870813537,7.10225814599492,0.697635586200917,692.978587091353,737.375047679097
0.78,0.673249712787152,0.0532606145821257,9.89755260771107,-2.63145502796935,0.357610127084318,0.572902143337225,2.22724363345169,9.99627375494901,-0.479084285244924,700.201324153066,737.375047679097
0.79,0.652108835054245,-0.0101100253379864,8.06654535222819,0.514915534576986,0.652083826839221,-0.0116115521295034,8.04492407227462,-0.783255129979509,-1.60410362861914,707.024265128451,737.375047679097
0.8,0.552953286692758,0.0841578890000143,10.4296470931652,-4.20514303755849,0.169791721461659,-0.532926504190164,8.39430679301268,-7.48307289280795,-2.68211989400922,713.148620135406,737.375047679097
0.81,0.52183456679073,0.0381991222841559,9.54188484593718,-1.88841435422709,-0.315859508877358,-0.417136978332901,-3.60471104625514,-9.03436403181667,2.56656554743595,718.779777812227,737.375047679097
0.82,0.484221700322132,-0.0552609781603899,9.17123473834624,2.76404112681339,-0.484182876484635,-0.0556001159096284,-9.17316843703993,2.7576168700998,1.57149673186009,723.987751573822,737.375047679097
0.83,0.374719227077913,0.0129724508901447,12.5862277576109,-0.626220397849558,-0.204927464278789,0.313986493353188,-7.75187337028473,9.93547887140868,0.61285051980536,728.710975712588,737.375047679097
0.84,0.374702878630982,-0.00574098478914532,10.6804438302711,0.305658830809177,0.109812404592839,0.358296583793695,3.57660559974522,10.0684259006211,-0.312715583249698,732.992388732577,737.375047679097
0.85,0.317466090661543,0.0201939183011366,11.7693303346558,-1.01840677493896,0.303977585716113,0.0937557488289594,10.6423312457622,5.12787232104747,-1.20809971593992,736.983444511593,737.375047679097
0.86,0.253105871983958,0.0432608021617992,13.3519533476655,-2.16751932727762,-0.255430999186026,0.0262504112590766,-13.177264707954,-3.05491293638096,1.63767073423429,740.602193033398,737.375047679097
0.87,0.269049140335185,0.0391230141441797,11.0463670932579,-1.93942879005349,-0.164787918111795,0.216247525292679,-9.24729693319351,6.3459522075138,0.795558406430035,743.893481850557,737.375047679097
0.88,0.254086247932368,0.0499429578461586,10.4055194015319,-2.50338361543635,0.0559295997966708,0.252835915750425,-2.25694578587587,10.4617378700343,-0.0236184727425174,746.878453411434,737.375047679097
0.89,0.212230975245024,0.0167430496071801,11.2373721111712,-0.856668393118697,0.166881545016638,0.132184970766205,7.64970106737771,8.27613957594101,-0.822170414458321,749.573923786294,737.375047679097
0.9,0.277875952022791,0.0195247311704841,6.79006388205362,-0.952833993953399,0.277138864498656,-0.0281124460737195,6.81629265575802,0.742303558836656,-1.60173975176946,751.999341248803,737.375047679097
0.91,0.227491334145278,0.0432509650179155,8.18065103691707,-2.15699135790191,0.128796905219219,-0.192443005308406,7.27674195202047,-4.31563317134128,-2.36390875450509,754.30323531728,737.375047679097
0.92,0.169680519225556,0.00451706073779463,10.0642768555893,-0.240481485655892,0.000808436160609632,-0.169738707646009,0.556102939951631,-10.0517784242924,-3.11021517384502,756.349272967467,737.375047679097
0.93,0.129294680477294,0.0399961419665734,11.1304574257772,-2.01869459427563,-0.113930548484208,-0.0730522819220826,-5.6326155214846,-9.80998739852031,2.44096475678312,758.231899422154,737.375047679097
0.94,0.111011684060926,0.021712708819872,11.16185882031,-1.07026521984887,-0.113016009976948,0.00473468174536079,-10.8730818274182,-2.74019188007299,1.72207793228273,759.941944437036,737.375047679097
0.95,0.128566369447073,0.00687677550159586,9.49345626680026,-0.344449778024324,-0.1055739111617,0.0736936271065699,-8.24545152317615,4.71772050021853,1.01483177691198,761.441547726197,737.375047679097
0.96,0.138450118149236,0.0164232458608554,8.25827448135733,-0.840299904561945,-0.0277098286474807,0.136639392623324,-3.38141778319865,7.58097718730985,0.318152292509421,762.774029171161,737.375047679097
0.97,0.0626003436743353,-0.0629312208478402,11.3633286819359,3.14578324845777,-0.0361007717299252,0.0810917743427061,7.03441254405132,9.46246432701746,-0.369192122914353,763.977961290792,737.375047679097
