t,iq,id,vq,vd,ia,ib,va,vb,theta_e,omega,r
0,0,0,0,0,0,0,0,0,0,0,0
0.01,0.000864197896020715,0.000494576154366968,-0.0424184874690204,-0.0247677208308795,0.000235229122970088,-0.000967528209233081,-0.011188965906018,0.04782860144589,-2.3832970753713,-0.00158177778540106,0
0.02,0.000956573394477852,0.000547645527813536,-0.0470766972072118,-0.0274253557905876,0.000260212916755799,-0.00107109174262081,-0.0124622556383918,0.0530382667946756,-2.38330883986289,-0.00170460973261317,0
0.03,0.000987409760346528,0.000565290762264454,-0.0485978127078607,-0.0283090263878327,0.000268594215792434,-0.00110561694450292,-0.0128660673273338,0.0547504583226828,-2.38332095949629,-0.00171036931107213,0
0.04,0.000969627789044462,0.000555311198576387,-0.0477530106547379,-0.0278092499444217,0.00026359918445526,-0.00108584715614405,-0.0126473622754501,0.0537935743052676,-2.38333234516039,-0.00162800086018345,0
0.05,0.000987249168380259,0.00056541870382225,-0.0486301739948398,-0.0283154321419635,0.000268365669821917,-0.00110559445474395,-0.0128824206673514,0.0547786523921859,-2.3833437737299,-0.00161192103148139,0
0.06,0.000987372445423079,0.000565591562804712,-0.0486557599018599,-0.0283240740029939,0.000268312631613309,-0.00110580581189166,-0.0128931305643686,0.0548033148997819,-2.38335490322803,-0.00156427284878633,0
0.07,0.00101508081316971,0.000581551118283971,-0.0500221987155938,-0.0291233102492507,0.000275766523718086,-0.00113690086851891,-0.0132518656304029,0.0563451472757877,-2.38336559518837,-0.00157030087740339,0
0.08,0.000987503558538142,0.000565866697771928,-0.0486994801484497,-0.0283378543378534,0.000268179545312234,-0.00110609589514152,-0.0129120248624007,0.0548448080419231,-2.3833761345983,-0.00147318166730901,0
0.09,0.000986835399153176,0.000565592444221331,-0.0486847935888646,-0.0283241175388842,0.000267908039045253,-0.00110542489595494,-0.0129113449388103,0.0548248295302223,-2.38338625463127,-0.00142839055891087,0
0.1,0.000986653823928063,0.000565585533550483,-0.0486932115932942,-0.028323788002892,0.000267777367937053,-0.00110529093240384,-0.0129168351499241,0.0548308416113758,-2.38339605652997,-0.00138588235412536,0
0.11,0.000986486721603166,0.000565583326882421,-0.0487017938055046,-0.0283236677825825,0.000267653574485784,-0.00110517062737467,-0.0129223029873301,0.0548371129987313,-2.38340555182222,-0.00134471947575663,0
0.12,0.000986324704251052,0.000565581266922619,-0.0487100993989036,-0.0283235740201776,0.000267533501432647,-0.00110505403366573,-0.012927577580873,0.0548431979977286,-2.38341475012565,-0.00130484434708818,0
0.13,0.00103337009972723,0.000592570296535257,-0.0510145337307644,-0.0296751367117263,0.000280274695769184,-0.00115777347277334,-0.0135302168433428,0.0574458842981729,-2.38342402050831,-0.00135329464599941,0
0.14,0.00109857868843517,0.000630327541401112,-0.0543586086583101,-0.0315659744299267,0.000297685277487852,-0.00123108546401121,-0.0144561028777718,0.061174260654015,-2.38343293598158,-0.0014373755931193,0
0.15,0.000987865636132142,0.000566698275919924,-0.0488323704633126,-0.0283795091424459,0.000267752223529053,-0.00110694814592944,-0.0129695586623429,0.0549707876270335,-2.38344164655711,-0.00119202870287623,0
0.16,0.000985745241449065,0.00056559291668304,-0.0487434488560644,-0.0283241534936595,0.000267087972175947,-0.00110465064321732,-0.0129481690377065,0.0548682640156141,-2.38344972250795,-0.00115330469569966,0
0.17,0.000985572280327572,0.000565572026719601,-0.0487487874369369,-0.028323099525875,0.000266975583240301,-0.00110451277725127,-0.0129521760855932,0.0548715170008272,-2.38345753938352,-0.00111935167113348,0
0.18,0.000985438281742599,0.00056556999943581,-0.0487555897335111,-0.0283230148337675,0.000266876559156277,-0.00110441610526039,-0.0129564990879691,0.0548764961611045,-2.38346511165119,-0.00108652430410782,0
0.19,0.000985309326314544,0.00056556835128818,-0.0487622202067957,-0.0283229183000899,0.000266780990260852,-0.00110432329131314,-0.0129607254740493,0.0548813394125538,-2.38347244707617,-0.00105472483126138,0
0.2,0.000985184175303141,0.000565566760078061,-0.0487686309763943,-0.0283228510914647,0.000266688250480532,-0.001104233216503,-0.0129647920307217,0.0548860403824246,-2.38347955306797,-0.00102391998345117,0
0.21,0.000985063136113189,0.000565565218647595,-0.0487748502410871,-0.0283227574959047,0.000266598548322973,-0.00110414610115923,-0.0129687582129521,0.0548905813289155,-2.38348643680287,-0.000994078631385316,0
0.22,0.00098494578492121,0.000565563725351682,-0.0487808691394789,-0.0283226873970246,0.000266511585790629,-0.00110406163836404,-0.0129725813301355,0.0548949901997036,-2.38349310523241,-0.000965170639084515,0
0.23,0.000984832159017525,0.00056556227868778,-0.0487867018212305,-0.0283226173058944,0.000266427382070107,-0.00110397985606301,-0.0129762878028936,0.0548992612018257,-2.3834995650906,-0.000937166813493391,0
0.24,0.00098472190915617,0.000565560877201997,-0.0487923422921062,-0.0283225472228006,0.000266345690793285,-0.00110390050148984,-0.0129798731569069,0.0549033900626221,-2.38350582290101,-0.000910038874644194,0
0.25,0.000984615268167787,0.000565559519485562,-0.0487978134354101,-0.0283224771463142,0.000266266665990144,-0.00110382374452281,-0.0129833527842583,0.0549073934753788,-2.38351188498361,-0.00088375942709109,0
0.26,0.000993935990808663,0.000570927047919829,-0.0492614152580342,-0.0285912708759865,0.000268770754806911,-0.00111428395359162,-0.0131065822025617,0.0554289212099245,-2.38351772827869,-0.000876122047464619,0
0.27,0.000957754938485724,0.000550243664793787,-0.0475118991444589,-0.0275554908602231,0.000258908609381867,-0.0010737918535859,-0.0126555789094669,0.0534464400996673,-2.38352353796421,-0.000783195765016037,0
0.28,0.000948553963981906,0.000544885370352408,-0.0469295000070523,-0.0272871470157011,0.000256467863272059,-0.00106342791223408,-0.0124497366314878,0.0528390993580984,-2.38352907853179,-0.000742084190434793,0
0.29,0.000983581075030145,0.000565195993552649,-0.0487869066172142,-0.0283042659986193,0.000265794889467049,-0.0011028287804635,-0.0129878480990383,0.0548872438072243,-2.38353429609678,-0.000785404691486926,0
0.3,0.00098049930612084,0.000563516052876184,-0.0486452362286872,-0.028220142496672,0.000264890926668061,-0.00109943714150539,-0.0129512805147512,0.0547265911902567,-2.38353896545251,-0.000759530925935452,0
0.31,0.000983985087160094,0.00056551699364794,-0.0488235825839101,-0.0283203550207005,0.000265828868021674,-0.00110334542858725,-0.0130008480593401,0.0549250641744218,-2.38354397899951,-0.00074450791295407,0
0.32,0.000983963664209691,0.000565550626780738,-0.0488310949488092,-0.0283220251108244,0.000265784344330942,-0.00110335428863336,-0.0130045326371204,0.0549317310046558,-2.38354884744455,-0.000723523023223155,0
0.33,0.000983881666008029,0.000565550172359938,-0.0488353924631799,-0.0283220076258058,0.000265723096817191,-0.00110329568384045,-0.0130072407911948,0.0549349011102131,-2.38355356382694,-0.000703079402857075,0
0.34,0.000983801297585113,0.00056554915914565,-0.0488395094860474,-0.0283219610412177,0.000265663538858652,-0.00110323783866472,-0.0130098540644072,0.0549379182466973,-2.38355813269662,-0.000683273146577231,0
0.35,0.000983723257467745,0.000565548167649761,-0.0488434875768535,-0.0283219144569234,0.000265605724001388,-0.00110318166073981,-0.013012379646573,0.054940832657587,-2.38356255866409,-0.000664086341638661,0
0.36,0.000983647778486566,0.000565547206960351,-0.0488473464687267,-0.0283218678720739,0.000265549800737359,-0.0011031273266267,-0.0130148308616532,0.0549436587282063,-2.38356684619859,-0.000645499649404199,0
0.37,0.000983574744226254,0.000565546276284738,-0.0488510879788877,-0.0283218212865721,0.000265495684784951,-0.00110307475243514,-0.0130172087233878,0.054946397832445,-2.38357099963036,-0.000627494300560749,0
0.38,0.000983503921856168,0.000565545374689709,-0.048854707990821,-0.0283217747007746,0.000265443212085326,-0.00110302376959756,-0.0130195101732017,0.0549490470337723,-2.38357502315319,-0.000610052112213714,0
0.39,0.000983435311376306,0.000565544501267248,-0.0488582137346058,-0.0283217281143173,0.000265392378776452,-0.00110297437860669,-0.0130217399606982,0.0549516116334516,-2.38357892083059,-0.000593155470168547,0
0.4,0.000983368912786667,0.000565543655137648,-0.0488616122819649,-0.0283216815270101,0.000265343181117872,-0.001102926579939,-0.0130239027332792,0.0549540968163842,-2.38358269659904,-0.000576787311159791,0
0.41,0.000983304609671931,0.000565542835448949,-0.0488649045889083,-0.028321634938931,0.000265295535455287,-0.00110288028951342,-0.0130259989404017,0.0549565033249191,-2.38358635427083,-0.000560931105613409,0
0.42,0.000983242131922967,0.000565542041375558,-0.0488680838137929,-0.0283216117919344,0.000265249252587987,-0.00110283531161872,-0.0130280066535593,0.0549588423527983,-2.38358989754042,-0.000545570840958975,0
0.43,0.000983181786927837,0.000565541272118007,-0.048871171626629,-0.0283215652005605,0.000265204540441563,-0.00110279186991229,-0.0130299746239326,0.0549610974496389,-2.3835933299854,-0.00053069100545714,0
0.44,0.000983123420992286,0.00056554052690107,-0.0488741665985497,-0.0283215186080972,0.000265161290065741,-0.00110274985319509,-0.0130318846554103,0.0549632837383254,-2.38359665507244,-0.000516276572533989,0
0.45,0.000983066531177654,0.000565539804974197,-0.0488770495889543,-0.0283214954529872,0.000265119152522046,-0.0011027088966259,-0.0130337063849047,0.054965403474247,-2.38359987615937,-0.00050231298560787,0
0.46,0.000983011774115744,0.000565539105609894,-0.0488798592316408,-0.0283214488571113,0.000265078576139018,-0.0011026694774484,-0.0130355002380302,0.0549674525279761,-2.38360299649874,-0.000488786143389866,0
0.47,0.000982958376760097,0.000565538428103731,-0.0488825624727398,-0.028321425695935,0.000265039026487399,-0.00110263103463647,-0.0130372092775946,0.0549694391603542,-2.3836060192423,-0.000475682385642188,0
0.48,0.000982906725629789,0.000565537771772978,-0.0488851841004045,-0.0283213996206096,0.000265000766393394,-0.00110259384924873,-0.0130388695129455,0.054971363297858,-2.38360894744205,-0.000462988479383577,0
0.49,0.000982856974424878,0.000565537135956126,-0.0488877371258617,-0.0283213530190802,0.000264963898717069,-0.00110255803325618,-0.0130405025175698,0.054973222319671,-2.38361178405532,-0.000450691605524767,0
0.5,0.000982808582927147,0.000565536520012692,-0.0488901995926819,-0.0283213298480861,0.000264928049368512,-0.00110252319467716,-0.0130420611184234,0.0549750305353228,-2.38361453194635,-0.000438779345926652,0
0.51,3.53757174335315,-0.023118595582795,6.61870149920309,1.16074711741967,-0.309724446227391,3.5240628649673,0.620555226087655,6.69099802851014,0.0811281385554425,24.7473002935287,400.511739499887
0.52,3.30215628635175,0.0529814452712797,6.51495653949336,-2.64747724614277,-1.11150670543367,3.10991897270836,-4.76920701044496,5.16802273329497,0.359301276440018,50.8695216549736,400.511739499887
0.53,3.05871963295358,-0.0661415243156701,7.47846746338239,3.32105859645816,-2.28828132002784,2.03074102107239,-3.22725932530593,7.51942172305847,0.823336389051348,75.5326464155517,400.511739499887
0.54,2.87132750088751,-0.00771524021382952,6.06755697232253,0.397569478443922,-2.85591373360649,0.297216904772126,-5.99103869608184,1.03959821307077,1.46441194881317,99.2809297733962,400.511739499887
0.55,2.68553529986144,0.0221555936056514,4.58833878916249,-1.09852256621404,-2.05460124850933,-1.72950988050193,-2.77140490653886,-3.81823513113414,2.27874512340673,122.919366207731,400.511739499887
0.56,2.44208006637131,-0.0268957044182152,6.65741554347481,1.35619022651582,0.320511909373075,-2.42110523220993,-0.545371959669466,-6.77222290497022,-3.02098847983903,144.753484077298,400.511739499887
0.57,2.32642536658046,-0.058523529300845,3.91911246179849,2.94283488642794,2.22691843245395,-0.675658408478489,2.79553598487547,-4.02550595754967,-1.89052481450406,163.312113551965,400.511739499887
0.58,2.17925450402861,0.0373137861709558,3.47605754238069,-1.85345880931016,1.31413194286331,1.73885012255619,0.550446071764844,3.90067875091371,-0.630048887684974,180.488698972496,400.511739499887
0.59,1.99637181672397,0.0126045509153019,4.73784301743163,-0.621504039621486,-1.36084626032625,1.46073843006529,-3.70341424705099,3.01962690474026,0.756323727708289,197.870549805758,400.511739499887
0.6,1.88715374049427,0.0668897331562929,2.89662103118149,-3.33899738889544,-1.49156770563422,-1.15803681123369,-0.083831528546773,-4.41953495700113,2.26640355862051,213.606366353723,400.511739499887
0.61,1.72457508722716,0.0113492601402605,4.75357023190038,-0.552982206671568,1.15619447069673,-1.27964932036891,3.61783503442873,-3.13264886863575,-2.40025293390926,227.34772285671,400.511739499887
0.62,1.61590276952373,0.0214536236936433,3.78440196966733,-1.06650756090871,1.03580418284134,1.24044819050714,1.55920057543556,3.60943627330624,-0.682459523540517,241.399251366227,400.511739499887
0.63,1.50103670425218,0.0814113818533816,3.82842515647113,-4.06551152707806,-1.32533068377518,0.709392401461651,-5.18982661008804,-2.06177663987341,1.13352628732811,253.679574256933,400.511739499887
0.64,1.40648314205003,-0.0256278423505706,3.40776840925185,1.29957767093024,-0.124876271762118,-1.40116292126407,-1.65643101433182,-3.24931130374346,3.0344849907109,265.057436942773,400.511739499887
0.65,1.34041152987841,-0.00525495140690013,1.53043526732645,0.271537006648904,1.27599839832403,0.410559096135711,1.54086123998897,0.204232937001052,-1.26342243010646,276.214348426974,400.511739499887
0.66,1.18970657212651,0.0395347329278359,4.67986493342999,-1.96507339175137,-0.82295664803702,0.860062252584287,-4.71983909527122,1.86702119561248,0.796573117657315,285.820495061794,400.511739499887
0.67,1.07478269975518,-0.0272954390250259,5.93306274651487,1.37199780557242,-0.201061202224814,-1.05616158121971,-2.59800723866165,-5.50762833898946,2.92808309509438,295.582920515106,400.511739499887
0.68,1.04516339376436,0.042329903623098,3.57841876634137,-2.1063191756272,0.974132918542797,0.381081877576285,2.43089016249249,3.36636812526737,-1.15741950925091,303.918051971648,400.511739499887
0.69,0.976281973598128,0.0371540501186427,3.17147556228747,-1.85693540611154,-0.85382566449565,0.474856452058341,-3.66846094721698,-0.221044392376684,1.10128084381298,312.286305705118,400.511739499887
0.7,0.892946742272001,-0.0390184145055832,4.01977660502097,1.96666826297668,0.280575762946968,-0.848618620141837,-0.798377842947858,-4.40329204468243,-2.86594872853054,319.487881350568,400.511739499887
0.71,0.818252423182469,-0.00299864379689668,4.41848953313312,0.152608468251841,0.387637466093378,0.720613082582677,2.24157085200873,3.8107347341968,-0.497191813131154,326.716620651027,400.511739499887
0.72,0.725890842957006,0.0126575255371258,6.15092697971611,-0.622238462163056,-0.686185707084656,-0.237122129364356,-5.56423304766254,-2.69451183053528,1.9209506321681,332.995224591223,400.511739499887
0.73,0.731645232504414,-0.0815477724988001,2.96552452849018,4.08650972164824,0.719035535651219,-0.157932529634392,1.49476066208997,-4.82281950701774,-1.89800789993773,339.238085947911,400.511739499887
0.74,0.67692719351954,-0.00603658793290002,3.20710252502738,0.314436748152572,-0.391967131802921,0.551931728845429,-1.57559357759954,2.81102862896358,0.608603649884697,344.671450139528,400.511739499887
0.75,0.592391567992558,0.0317258959480361,4.94287127174406,-1.58570289460448,-0.0235948042899424,-0.592771108871634,1.65337393034782,-4.92064881143087,-3.12787139110945,350.010001592453,400.511739499887
0.76,0.514119296384711,0.0187577053430016,6.66653684003084,-0.932702409898232,0.282533673343328,0.429936304412608,2.6579662837026,6.18448562611463,-0.544917901133196,354.772285203631,400.511739499887
0.77,0.491684327369652,0.0222741740969562,5.68178813376027,-1.11015745809476,-0.441737127045162,-0.217066642307231,-4.44656025646336,-3.70719137142162,2.07280568471505,359.281167243291,400.511739499887
0.78,0.484503648917801,0.0265557672924744,4.08432342455809,-1.33238462164257,0.48473025928449,-0.02203566030658,4.07171865430363,1.37042103624376,-1.56146921972873,363.498881269927,400.511739499887
0.79,0.427663824502306,-0.0269996587750768,5.14869020368544,1.36040552456767,-0.396272900610515,0.163073960532142,-4.03242951406466,3.47839420119412,1.11734987512004,367.29561847354,400.511739499887
0.8,0.416520100794028,-0.0106183674981275,3.99993832756438,0.530303452491991,0.270721880371176,-0.316719761906464,2.10886909356742,-3.43997086066722,-2.45982462085782,370.954970066229,400.511739499887
0.81,0.368889022952114,0.0310625188442959,4.8718323257331,-1.54651071306024,-0.0689342562901614,0.363719754263141,-2.79556774604447,4.27916423766883,0.271311585879539,374.223002445773,400.511739499887
0.82,0.388866377269621,0.0764581893655914,2.39036082722776,-3.8261591436348,-0.120643391993436,-0.377502431859958,3.52608551283482,-2.81425649736152,3.0264096231932,377.355987660557,400.511739499887
0.83,0.373562265593264,-0.000113527355854501,1.83819356765126,0.00153998945624262,0.172546941297152,0.331325115577781,0.850915427043134,1.62938666366888,-0.480435669041531,380.211273528206,400.511739499887
0.84,0.310422744256676,-0.00216216467501715,3.77398743861312,0.115376302736376,-0.226640727621652,-0.212134239789469,-2.85148484509247,-2.47493980861166,2.3161800757655,382.780645166199,400.511739499887
0.85,0.306368355181852,0.0276710788655494,2.77965968975996,-1.38811128209976,0.291108740791478,0.0994130710581708,1.97408539348399,2.39923900051708,-1.15164036746136,385.322132516732,400.511739499887
0.86,0.287393340930836,-0.0326282785956236,2.65470061509451,1.6421459264691,-0.282039758095077,-0.0641335468313702,-2.81965435256647,1.33926395145064,1.68133847836709,387.609723443229,400.511739499887
0.87,0.286250355788149,-0.0241473368307489,1.69689209749436,1.21305567805224,0.285899049199372,-0.0280016737313069,1.44962241336143,-1.4998472346455,-1.75258561266429,389.734355233828,400.511739499887
0.88,0.206333119496779,0.019026223747017,4.72472764185818,-0.958697056016894,-0.176536614545286,0.108490447119702,-4.6603313487511,1.23428645573137,1.11169863353932,391.779838768156,400.511739499887
0.89,0.197205518255659,-0.0359569708994605,4.33884025124391,1.80807824922934,0.171720748489158,-0.103416172454172,2.05955948880207,-4.22526879538284,-2.29320857302989,393.542823812305,400.511739499887
0.9,0.179167290961049,-0.0175120935041152,4.43906953128477,0.876298202925453,-0.115322618945017,0.138232720905292,-1.77432435051574,4.16233227207993,0.597855332084158,395.205898120985,400.511739499887
0.91,0.156933715786459,-0.0505266974329598,4.80633933654143,2.52346599232662,0.102426684796633,-0.129189444404712,-0.674594517497339,-5.38643673214278,-2.78271395004975,396.773050524839,400.511739499887
0.92,0.221935335681138,0.0296829869765428,0.841862515166219,-1.48007106834771,0.000368765416937655,0.223911225604739,-1.57755712557219,0.640824763377906,0.131310147815136,398.255342732257,400.511739499887
0.93,0.164839049194085,0.00844177119353363,3.03553061030761,-0.426225797610378,-0.0225485092971804,-0.163507615628658,0.164305147426786,-3.06090155594592,3.05571958258784,399.620688216646,400.511739499887
0.94,0.185424159719592,-0.053434951660535,1.40659851582654,2.67477941966492,0.00251357227749553,0.192953608468684,2.9673911313825,0.572323511644334,-0.293600977431181,400.866257552008,400.511739499887
0.95,0.0859538403894203,0.0353818395924834,5.81628894590702,-1.76887340280811,-0.0718076442482868,-0.0590220253646861,-1.19038089396671,-5.96163765627543,2.64927505476881,401.998351797634,400.511739499887
0.96,0.115003653798388,-0.032398113129792,3.85022961174288,1.61666619065663,0.0474781195125423,0.109641717830865,3.68447848816769,1.96532335898791,-0.683249339471249,403.046382631127,400.511739499887
0.97,0.112749208131651,0.0302410359913316,3.46646488829767,-1.50832376274095,-0.105504199916383,-0.0499576619964081,-1.66509144333804,-3.39394900968946,2.27507853874333,404.079876168328,400.511739499887
