t,iq,id,vq,vd,ia,ib,va,vb,theta_e,omega,r
0,0,0,0,0,0,0,0,0,0,0,0
0.01,0.000396366474663678,0.000218734865362924,-0.0190065587452706,-0.0109391226554366,-0.000384315089580315,-0.000239276483348288,0.0188217881402173,0.0112540646440689,2.63193401411882,-0.00239916049896483,0
0.02,0.000557242560421483,0.000300582840975373,-0.0268046292975858,-0.0150324137672397,-0.000534256230822909,-0.00033976402879177,0.0261997166125918,0.0160635134659381,2.6319133443876,-0.00312885277537769,0
0.03,0.000635047250795636,0.000339448943069892,-0.0306108371697036,-0.0169761429617169,-0.00060615232950693,-0.000388702905993362,0.0297538718929556,0.0184369164847147,2.63188983810949,-0.00328014645904336,0
0.04,0.000646520729328548,0.000344790540258014,-0.0312615020125041,-0.0172432751095981,-0.000616422075187122,-0.000396097709315433,0.030304948892846,0.018873847439912,2.63186710108422,-0.00301487716138155,0
0.05,0.000663177046214699,0.000355224254012744,-0.0321508883948805,-0.0177650815095871,-0.000633665245131693,-0.000405532270451015,0.0311947970427375,0.0193949061117797,2.63184599099441,-0.00280733292314832,0
0.06,0.000666503166292747,0.000358946421544861,-0.0323985248812474,-0.0179512347603725,-0.000638545062272018,-0.000406606944931027,0.0314784971149031,0.0195196173960929,2.63182667299583,-0.00254051076367688,0
0.07,0.000669844205310623,0.000363306667434738,-0.0326365371544171,-0.0181692905814614,-0.000643988242493967,-0.000407384508198687,0.0317853080378817,0.0196204197356275,2.63180957701321,-0.00230694431314549,0
0.08,0.000663528994141183,0.000361827657682963,-0.0324087225985779,-0.018095318702079,-0.000639621816855921,-0.000402584042570343,0.0316098741955397,0.0194571763815703,2.63179398956918,-0.0020335764362364,0
0.09,0.000658635429606705,0.000361298044389333,-0.0322398224980487,-0.0180688382397616,-0.000636776951054444,-0.000398562442558969,0.0315046026073833,0.0193222432598085,2.63178026469789,-0.00179717920395607,0
0.1,0.000654590026383049,0.000361107525863458,-0.0321037079206928,-0.0180593154390561,-0.000634641230833494,-0.000395116762491211,0.0314300975078463,0.0192077043665233,2.63176816050657,-0.00159044096156217,0
0.11,0.000651129208672202,0.000361038220554419,-0.03198877859183,-0.0180558389903937,-0.000632895965712465,-0.000392123118002593,0.0313711790153213,0.0191087520427893,2.63175747778789,-0.00140868694473464,0
0.12,0.000648117819417485,0.000361012332390994,-0.0318894001489746,-0.0180545509315633,-0.00063140738491887,-0.000389501381582627,0.0313217341747112,0.0190223452678834,2.63174804644106,-0.00124850879007214,0
0.13,0.000664447917550465,0.000371593436269571,-0.0327054980899473,-0.0185837212528745,-0.000648616005545395,-0.000398584990141518,0.0321820631530418,0.0194761164539986,2.63173939044018,-0.00122471324291777,0
0.14,0.000673268279230971,0.00037773910488027,-0.0332204833548356,-0.0188910628182023,-0.000658288043517465,-0.000403278884813386,0.0327018123029827,0.0197753442657939,2.63173138362348,-0.00116214438155435,0
0.15,0.000652841354092492,0.000366971113384746,-0.0322247423672033,-0.0183525452152167,-0.000638922959054075,-0.000390700760257443,0.0317459492139702,0.0191688456880749,2.63172412257134,-0.000921968761819899,0
0.16,0.000643658171674325,0.000363126539272564,-0.0318156444789332,-0.0181602756266457,-0.00063108767822752,-0.000384558276307508,0.0313785806018164,0.0189054363573266,2.63171823575558,-0.00077485842092766,0
0.17,0.000639125898748195,0.000361753527367012,-0.0316233758875789,-0.0180916173015689,-0.000627679150883289,-0.000381269474990586,0.0312249087394591,0.0187709774206349,2.63171324933009,-0.00067119811849681,0
0.18,0.000636568675854264,0.000361262870469935,-0.0315218581014544,-0.0180670779476958,-0.000626004432651119,-0.00037927429514822,0.0311540234386545,0.0186942148088683,2.63170893152087,-0.000590260539411541,0
0.19,0.000634894311886803,0.000361087253526006,-0.0314597911501269,-0.0180582892487247,-0.000625035365360127,-0.000377896260863089,0.0311161297231034,0.0186442146752072,2.63170515306084,-0.000523068162150421,0
0.2,0.000633651335785174,0.000361024152043756,-0.0314161090758312,-0.018055137395122,-0.000624374871984055,-0.000376840115879591,0.0310921203106338,0.0186075240268643,2.63170183025746,-0.000465460646423322,0
0.21,0.000632648935057538,0.000361001263501669,-0.0313820309576206,-0.0180539939223619,-0.000623866742340282,-0.00037597456706666,0.0310745437865354,0.0185782478192222,2.63169890150824,-0.000415286022679982,0
0.22,0.000631802299151998,0.000360992772143419,-0.0313537562535636,-0.0180535657264738,-0.000623447070901237,-0.000375238159757518,0.0310604175586357,0.0185536984919769,2.63169631738292,-0.000371258731137757,0
0.23,0.000631069985916904,0.000360989457494284,-0.031329508044723,-0.0180534082499218,-0.000623087600005468,-0.000374599196831232,0.0310484871593925,0.0185325408100386,2.63169403623719,-0.00033249186675367,0
0.24,0.000630429813137256,0.0003609880237549,-0.0313084002572315,-0.0180533270582598,-0.00062277464087271,-0.000374039903315958,0.0310381511117827,0.0185140951737225,2.63169202210616,-0.000298302534335675,0
0.25,0.00062986682618924,0.00036098729059041,-0.0312898669468199,-0.0180532940839588,-0.000622499876753264,-0.000373547782945747,0.031029109298353,0.0184978803375538,2.63169024355654,-0.000268128196036471,0
0.26,0.000631962661891901,0.000362532543042772,-0.0313961609038127,-0.0181305740498704,-0.000624872065507415,-0.000374621879418506,0.0311484668126652,0.0185528879179557,2.63168879207222,-0.000259992223667404,0
0.27,0.000626691353257487,0.000359517856360917,-0.0311532224573252,-0.0179798075906075,-0.000619668589135995,-0.000371491562391738,0.0308983325879111,0.0184143909418066,2.63168715815707,-0.000201592391295004,0
0.28,0.000625571112420954,0.000359148469669047,-0.0310482272188899,-0.0179613332245589,-0.000618799871753404,-0.000370693348576931,0.0308309836316974,0.0183317307677552,2.63168590765436,-0.000175701701545554,0
0.29,0.00062700690451433,0.00036032995896164,-0.0311784965629466,-0.0180204299908342,-0.000620532231543158,-0.000371369206114358,0.0309461646556931,0.0184165533714362,2.63168492872871,-0.000170359282568333,0
0.3,0.000616664643030915,0.000355103202217115,-0.0306879742883484,-0.0177590222103133,-0.000610922423579811,-0.000364893626357963,0.0304785920673138,0.0181160167085099,2.63168472446878,-0.000100570047270623,0
0.31,0.000623308263945639,0.000358885815397151,-0.0310063933513958,-0.017948200543316,-0.00061746679803687,-0.000368845460482165,0.0307991351350862,0.0183015738759067,2.63168413108509,-0.000134587482718107,0
0.32,0.00062583994661164,0.000360236011255248,-0.0311300138130689,-0.0180157325356968,-0.000619881209496784,-0.000370395611060331,0.0309184284196529,0.0183764839634362,2.63168340915102,-0.000140151775413162,0
0.33,0.000626728466878833,0.000360717902819441,-0.0311755327106744,-0.0180398246417845,-0.000620735750205764,-0.00037093544590297,0.0309616866299886,0.0184044308232297,2.63168269165429,-0.000135177811308205,0
0.34,0.000626968762850276,0.000360889840892013,-0.0311900092692167,-0.0180484309345014,-0.000621003351013113,-0.000371060837167644,0.030976276353437,0.0184128444485579,2.63168202572823,-0.000126790884532055,0
0.35,0.000626961198679829,0.000360951142605151,-0.0311924074628937,-0.0180514874126192,-0.000621053385389886,-0.000371023940593831,0.0309801256367194,0.0184134270757027,2.63168142459518,-0.000117770708320104,0
0.36,0.000626865565383423,0.000360972958493796,-0.0311903188817753,-0.0180525849061083,-0.00062102594631147,-0.000370929491730148,0.0309800739505857,0.0184110518916036,2.63168088845772,-0.000109153057395361,0
0.37,0.000626745192612921,0.000360980686676373,-0.0311867737862191,-0.0180529754200214,-0.000620974113756585,-0.000370820364409746,0.0309786931789783,0.0184077524329132,2.63168041286012,-0.000101279398048787,0
0.38,0.000626624584158898,0.000360983392806754,-0.0311829640712791,-0.0180531007516716,-0.000620917762588281,-0.000370713516690382,0.0309769507882643,0.0184043531503322,2.63167999199463,-9.42197136986498e-05,0
0.39,0.000626512127044138,0.00036098431231805,-0.0311793148375933,-0.0180531507857534,-0.000620863812568843,-0.000370614685779701,0.030975220108238,0.0184011322010664,2.63167961997644,-8.79422611371893e-05,0
0.4,0.000626410380083491,0.000360984599475171,-0.0311759733353566,-0.0180531687654561,-0.000620814522149384,-0.000370525538152265,0.0309736108559511,0.0183981968253688,2.63167929130295,-8.23812179707961e-05,0
0.41,0.000626319576142889,0.000360984665692539,-0.0311729738983122,-0.0180531750584241,-0.000620770365936199,-0.000370446073133998,0.0309721576587002,0.0183955668931289,2.63167900099137,-7.74631899817126e-05,0
0.42,0.000626239188944862,0.000360984657277775,-0.0311703125971043,-0.0180531620115365,-0.000620731216413374,-0.000370375757211841,0.0309708520014437,0.0183932425722235,2.63167874459121,-7.31171950961031e-05,0
0.43,0.000626167884560513,0.000360984625965272,-0.0311679434897154,-0.0180531624020324,-0.000620696469117217,-0.000370313398439341,0.0309697001404267,0.018391167643853,2.63167851815224,-6.92780570854183e-05,0
0.44,0.000626104845663983,0.000360984589785566,-0.0311658443892544,-0.0180531627566251,-0.000620665742151422,-0.000370258272488541,0.0309686795515286,0.0183893292114516,2.6316783181778,-6.58872117712741e-05,0
0.45,0.000626049199140361,0.000360984554789163,-0.0311639882667451,-0.0180531630790613,-0.00062063861578011,-0.00037020961244026,0.0309677771022283,0.0183877035867916,2.63167814157692,-6.28925339741347e-05,0
0.46,0.000625999955459415,0.000360984522795299,-0.0311623404022547,-0.0180531633736126,-0.000620614609616582,-0.0003701665520592,0.0309669758998073,0.0183862603799984,2.63167798561809,-6.02478271737712e-05,0
0.47,0.000625956532544538,0.000360984494151271,-0.0311608847494657,-0.0180531636428289,-0.000620593440748803,-0.000370128581647503,0.0309662681587605,0.0183849855100291,2.63167784788907,-5.79122283948319e-05,0
0.48,0.000625918173696141,0.000360984468716136,-0.0311595950481373,-0.0180531638899875,-0.000620574740499155,-0.000370095039512542,0.0309656411035555,0.018383855989657,2.63167772625916,-5.58496243132838e-05,0
0.49,0.000625884296835083,0.000360984446203924,-0.0311584523554213,-0.0180531626624315,-0.000620558225203173,-0.000370065416593591,0.0309650842549777,0.018382855936535,2.63167761884621,-5.40281120496636e-05,0
0.5,0.000625854378097487,0.000360984426304328,-0.0311574395098253,-0.0180531628728356,-0.000620543639507702,-0.000370039254788722,0.0309645918092135,0.0183819688991779,2.63167752398885,-5.24195134623548e-05,0
0.51,1.97402627914868,0.000268721184938293,0.696442685460373,-0.0122820985591096,-0.0760103531784428,1.97256235622359,-0.0391843523957298,0.695447949600543,0.0386508882078315,11.8687623455088,295.148814307314
0.52,1.89818791745261,0.0177247740305743,1.08345147353118,-0.884215982073458,-0.309762518359135,1.87282639873463,-1.05775112031373,0.914804659982702,0.173251912550816,24.7796178748187,295.148814307314
0.53,1.82652112268176,-0.0467475364982411,1.35105509857412,2.34195537056098,-0.756019223644372,1.66336997605808,1.62877842999265,2.15805135783957,0.401010405271661,37.3070091304383,295.148814307314
0.54,1.77279580124323,-0.0240319289003406,0.761123147452489,1.20700675567518,-1.1865453246642,1.3173809923594,0.406056446832853,1.36795172276619,0.719638318252738,49.5980133707962,295.148814307314
0.55,1.71714296017271,0.0137766156858574,0.225116211575532,-0.682926746501878,-1.54579430215948,0.747856748463067,-0.495905738408338,-0.520714651623556,1.12821455339878,61.8825568237846,295.148814307314
0.56,1.61370027667242,-0.0099116606254912,1.94804712583522,0.501270858586191,-1.61052056642765,-0.101736566988244,-1.97341855406193,0.38958861460098,1.62774037416702,74.4333341152148,295.148814307314
0.57,1.56037607797164,0.0494383368968604,1.28790498248967,-2.46801965202975,-1.27476696574512,-0.901214090494739,0.46025459216501,-2.74553928347744,2.21785371217759,86.3276912770658,295.148814307314
0.58,1.49050012157069,0.0157161375517428,1.90164433528464,-0.779934132380003,-0.38652105052602,-1.43959684873302,0.281625589491235,-2.03598513160465,2.88983017455308,96.836492635164,295.148814307314
0.59,1.4192614447747,0.0340349714219128,2.80570497832485,-1.6943232069448,0.643355582444014,-1.26552559138161,2.82258044140774,-1.66605858443545,-2.64729510810328,106.664452021674,295.148814307314
0.6,1.39160479302382,0.00530005620247218,1.47312761389215,-0.255343778435374,1.34407901871356,-0.360615559864813,1.48947958011152,-0.129444939754455,-1.82911383567238,116.635782752858,295.148814307314
0.61,1.3299461253789,-0.0154274633569992,1.6615175480677,0.777372545042717,1.06173296285135,0.80107291717476,1.79884242775729,0.359325140260671,-0.936023742281782,126.900042636629,295.148814307314
0.62,1.31737973957244,-0.00699138903020236,-0.210525386102348,0.357844548595014,-0.0433542298395994,1.31668472631513,0.363519614517843,-0.200567068616736,0.0276079280606066,135.852931108721,295.148814307314
0.63,1.26257569488617,0.00296072645068834,0.189661173223219,-0.137119322322292,-1.09660698078387,0.62574697835028,-0.232627517446355,-0.0256419053363452,1.05460418952999,144.376271371123,295.148814307314
0.64,1.19064332756741,0.0503492697770693,1.24410232842548,-2.5127516196876,-1.02650667590152,-0.605351655467704,0.322727859657699,-2.78523931367434,2.1458850820739,153.387020301658,295.148814307314
0.65,1.16452229654085,0.00258990231396607,0.27518838593697,-0.12092049197339,0.181484098767836,-1.15029666113972,0.162891698404058,-0.252619689899111,-2.98288695907915,161.39647105188,295.148814307314
0.66,1.06397669708807,-0.0421785737671516,3.17074742296432,2.12112547167603,1.05095027545847,-0.171257007288009,2.68300717268495,-2.7118784998869,-1.77195258048896,169.067783499064,295.148814307314
0.67,1.06020626144419,0.0143383755687471,1.07226733476865,-0.711192334382702,0.523660274980741,0.921966822736323,-0.106184936748726,1.28229346598361,-0.503020525286485,176.985514891251,295.148814307314
0.68,0.979468522165556,-0.0185973470364923,3.14979350985303,0.940613861848724,-0.728733458595118,0.654715200338263,-1.6608687485159,2.83680605470615,0.819865013181172,183.892108071579,295.148814307314
0.69,0.987707080506334,-0.00172759289882629,0.678880711107653,0.0915602643155092,-0.80109305410068,-0.577770006257866,-0.604737322887368,-0.321799739314031,2.19387795887597,191.100413161724,295.148814307314
0.7,0.948721471111303,0.0209432421774589,0.725216148122451,-1.03839951573069,0.417539586783628,-0.85215711145836,1.25556000148156,-0.166676628376385,-2.66392182133941,197.637795804028,295.148814307314
0.71,0.877228978788954,0.0039744862054058,2.44906347493891,-0.191702516466105,0.816487078509126,0.320773016937741,2.20447290859437,1.08395615887948,-1.1919211529165,204.119254134725,295.148814307314
0.72,0.870379193617364,0.00699442715507776,0.966101420291219,-0.341926114444032,-0.273453011919547,0.826336682572769,-0.634617399773873,0.804690112982478,0.327614709106077,210.266590914569,295.148814307314
0.73,0.806559763700341,0.0206348870476587,2.47344324949575,-1.02210529577046,-0.772287581449178,-0.233530174759491,-2.0277157676453,-1.74670819250404,1.89002037132844,216.114426820095,295.148814307314
0.74,0.780877707889325,-0.012577818798913,2.03820449404947,0.63632041407711,0.282791153896695,-0.727981702710995,0.110562959978396,-2.13235950552798,-2.78718059464213,221.841943469186,295.148814307314
0.75,0.745717117250888,-0.0357634491400363,2.2299834940732,1.79746472904168,0.663208054527505,0.342823744313618,2.77570228084541,-0.706528615200662,-1.14162837011246,227.224726185851,295.148814307314
0.76,0.706955926202677,-0.00439461381968947,2.59368421308747,0.227161207410828,-0.369443369423689,0.602758318907819,-1.14720706979344,2.33724537658917,0.54365010080268,232.418069892943,295.148814307314
0.77,0.670859957433272,0.0323494481214223,2.91287694266921,-1.61537549711858,-0.536153762808708,-0.404522820007965,-1.20417354789862,-3.10552026983665,2.26534858980619,237.441737929365,295.148814307314
0.78,0.695992746612679,0.0268082090778436,0.222754374009305,-1.33201185496929,0.520256022288152,-0.463096377317218,1.0186431813119,0.886702408977087,-2.2596335876168,242.123956998478,295.148814307314
0.79,0.635351616641165,-0.0203253233176007,1.83884976212472,1.0189226499503,0.268311940898528,0.576275539917991,1.73854789088785,1.18195729421045,-0.467727870471768,246.818585573216,295.148814307314
0.8,0.623745989985886,-0.000560989679686541,1.11765979553485,0.0381714781359512,-0.609694260033071,0.131652132590474,-1.08417785433308,0.274187637343141,1.35723070530553,251.056031609946,295.148814307314
0.81,0.567341526822624,0.000663910337739881,2.59557410457411,-0.030470061041771,0.0401785313006242,-0.565917427242604,0.217236337705226,-2.58664681209786,-3.06954420909736,255.388328823901,295.148814307314
0.82,0.585858302015245,-0.0022868462807491,0.476849446986393,0.125348046200577,0.541562907187669,0.223483326591801,0.488861907581841,0.0641214713880936,-1.18332429375771,259.28767736238,295.148814307314
0.83,0.519686947903101,-0.00217907067279408,2.56322344999094,0.114462923448314,-0.348942940426759,0.385120885562137,-1.62793226155747,1.98319256937096,0.731960520404894,263.142547360379,295.148814307314
0.84,0.472922313235091,0.0225547359369309,3.74802814436604,-1.12796505897421,-0.233230625214026,-0.412028768329456,-0.681866291652631,-3.85422865247179,2.67416350251859,266.842907035065,295.148814307314
0.85,0.482469649444586,0.0267663270081651,2.18892386139734,-1.32990948050218,0.479444800610097,-0.0602169582811497,2.27601974410735,1.17464080541999,-1.64031842835933,270.229608804667,295.148814307314
0.86,0.453420298963145,0.00797880328970191,2.55563021583369,-0.397192917971904,-0.149289913397573,0.428212739851944,-1.25634053427663,2.26066726346508,0.353053303042369,273.606830377871,295.148814307314
0.87,0.432672298481058,-0.0174238977973671,2.60365314202501,0.880081363937896,-0.28921711092034,-0.322276857435073,-2.44636632980572,-1.25253529751476,2.36995712591577,276.708114630494,295.148814307314
0.88,0.462620940228218,-0.0148189889455189,0.104973314486108,0.748372248530031,0.44602801212191,-0.123680027383506,-0.122751952962091,-0.745662374783713,-1.8733139301443,279.759805001466,295.148814307314
0.89,0.424104366054918,-0.0333415972824652,1.06129516010282,1.66806730102372,-0.112125462002791,0.410370632705181,1.43996735794304,1.35472873508344,0.188264547186789,282.731140191097,295.148814307314
0.9,0.39958274011049,0.0133085668233663,1.39489014859069,-0.656194410646828,-0.314238909779826,-0.247178865855247,-0.644408206007728,-1.40037412687803,2.27060394433465,285.42820200801,295.148814307314
0.91,0.396482977967495,0.0304574155338019,0.652308687957279,-1.51810136169672,0.36371759770959,-0.160735543970014,1.12056571092137,1.21427791558492,-1.91024560718051,288.085006171158,295.148814307314
0.92,0.355441074599388,-0.00124167771214104,1.84728444357619,0.0610467924118433,-0.0755729310163075,0.347316327536603,-0.326758287726982,1.81917991076861,0.210758096592647,290.643084421113,295.148814307314
0.93,0.323208316353498,-0.0417752775569731,2.66377845122006,2.09821363255607,-0.200675678561254,-0.256784075847794,-3.36976393586722,-0.378030556380187,2.34969780548737,292.956814971972,295.148814307314
0.94,0.300243279045586,0.0295826753375023,3.01440735204451,-1.47565758770526,0.287797299853015,-0.0905200281124771,3.25294233507744,0.826185914230607,-1.77731478818091,295.260143944045,295.148814307314
0.95,0.269327468011991,-0.016059481901458,3.79116200547094,0.801044650388051,-0.118475036234485,0.242402264374594,-0.719709372789773,3.80744012459294,0.395052698713479,297.465519166013,295.148814307314
0.96,0.277995042597861,0.0226436137981523,2.65134651820218,-1.12464615503957,-0.166564168180123,-0.223719366245504,-0.451835025031536,-2.84434745482736,2.582880057436,299.483984865145,295.148814307314
0.97,0.277933941259492,-0.0116527511310045,1.9467533746596,0.58768278600162,0.27633665987806,0.0319548544104559,1.9845308608724,-0.443685723182763,-1.4975720528803,301.436811197453,295.148814307314
