t,iq,id,vq,vd,ia,ib,va,vb,theta_e,omega,r
0,0,0,0,0,0,0,0,0,0,0,0
0.01,0.000449310353776598,0.000224622548338782,-0.0218229325746554,-0.0112357554160834,0.000399159544098192,-0.000304970066708823,-0.0193259457179078,0.0151324290197075,-1.75962713883794,-0.00304397496673354,0
0.02,0.000589344023688025,0.00028614788745622,-0.0288412428440447,-0.0143132933105354,0.000525146180508209,-0.000391699477725064,-0.0256413727271743,0.0194732549628638,-1.75964983027398,-0.00298455456464413,0
0.03,0.000627075691149941,0.000311393877764362,-0.0308590739170769,-0.0155761081173566,0.000557459439578057,-0.000423590654719414,-0.0273858547179698,0.021092950207817,-1.75966881244409,-0.00225086195493869,0
0.04,0.000597533121327997,0.000309289994715876,-0.0295773206995015,-0.0154708620488942,0.000528832163305823,-0.000415983984028964,-0.0261464020895124,0.0207492440843183,-1.75968103058428,-0.00131497112550264,0
0.05,0.000589282753908612,0.000317158276762733,-0.0292626439691443,-0.0158644504779702,0.00051924805746641,-0.00042216701835954,-0.0257632657504915,0.021076936658405,-1.75968837543692,-0.000834270536651228,0
0.06,0.000576954115102936,0.000319118491868697,-0.0287188139463796,-0.0159625024536922,0.000506768829453398,-0.000421779582579807,-0.0252106072243616,0.0210712373260296,-1.75969266467218,-0.000488860857615846,0
0.07,0.000573798042607733,0.000323664961200712,-0.0285892884549895,-0.0161899177562177,0.000502814339510567,-0.000425653545494545,-0.0250406406312196,0.0212703354015352,-1.75969464809226,-0.000351056763019916,0
0.08,0.000563579886831892,0.000320739517394407,-0.0281150205510709,-0.0160435762703148,0.000493326681580115,-0.000420862105803073,-0.0246022588782936,0.0210375753881946,-1.75969606569414,-0.000183982034359892,0
0.09,0.000558291809901323,0.000320010403676836,-0.0278676591077302,-0.0160071127741306,0.000488269348987496,-0.00041915324918654,-0.0243661329598647,0.0209553250533269,-1.75969662566202,-0.000107204769324707,0
0.1,0.000555780957422663,0.000319828683340823,-0.0277492808259491,-0.0159980253782788,0.000485837208173024,-0.000418503364951607,-0.0242515630763098,0.0209241747917858,-1.75969680798371,-7.54097524906789e-05,0
0.11,0.000554697303700021,0.00031978339628776,-0.0276976990593397,-0.0159957606276632,0.000484781320627339,-0.000418255412928777,-0.0242013234263057,0.0209122651966398,-1.75969684283984,-6.41325268852472e-05,0
0.12,0.000554286648228066,0.000319772114421271,-0.0276778643591744,-0.015995195489355,0.000484380093737081,-0.000418167213392693,-0.0241819479336202,0.0209079852774776,-1.75969683075956,-6.12690665800848e-05,0
0.13,0.000576119526521425,0.000331065816069084,-0.0287296033437737,-0.0165601060560352,0.000503703671574267,-0.000433360005828137,-0.0251088894149103,0.0216603530263824,-1.75969729442352,-0.000223459598477808,0
0.14,0.000587628010159803,0.000337566559226723,-0.0293454502782637,-0.0168852858622592,0.000513786431395439,-0.000441906509509056,-0.0256527042999488,0.0220954088621064,-1.75969796261206,-0.000285318751760376,0
0.15,0.000563934869029402,0.000324203485955982,-0.0281592452679947,-0.0162168507274468,0.000493023838306164,-0.000424332336353331,-0.0246131070831737,0.0212161330428426,-1.75969854642094,-4.86838468636895e-05,0
0.16,0.0005551871772127,0.000320873402107687,-0.0277357415471398,-0.0160502736373386,0.000485057242190012,-0.000419418661626527,-0.0242284249096714,0.0209729842750048,-1.75969817191406,5.77511708581941e-06,0
0.17,0.000552724226456787,0.000320043615219072,-0.0276121095711844,-0.0160087737174205,0.00048279413297891,-0.00041814089887966,-0.0241147956154586,0.0209089947948562,-1.75969766848064,-1.09000886042099e-06,0
0.18,0.000552548256840467,0.00031983689332988,-0.0275993867861502,-0.0159984292093793,0.000482660274040226,-0.000417904623491727,-0.0241042497535978,0.0208964358672771,-1.75969728044191,-2.12155240000586e-05,0
0.19,0.00055299315808686,0.000319785417029986,-0.0276179963349644,-0.0159958634004959,0.000483107029874304,-0.00041793748757673,-0.0241230151999411,0.0208974042682062,-1.75969703483228,-3.87467335471725e-05,0
0.2,0.000553462427768662,0.000319772610475739,-0.0276389570452873,-0.0159952224089239,0.000483570414402137,-0.000418012961135173,-0.0241437262984427,0.0209007073298505,-1.75969689665394,-5.04953810751314e-05,0
0.21,0.000553800264912328,0.000319769429684421,-0.0276543571611822,-0.0159950618075421,0.000483902868799068,-0.00041807324136531,-0.0241588841064315,0.0209034396920061,-1.7596968257147,-5.7361720788262e-05,0
0.22,0.000554006436417675,0.000319768641820459,-0.0276638584901936,-0.0159950222165551,0.000484105534693073,-0.000418111166035358,-0.0241682245518718,0.0209051841485276,-1.75969679230494,-6.10004203362147e-05,0
0.23,0.000554119359272129,0.000319768447415957,-0.0276691000149398,-0.0159950118999425,0.000484216491270414,-0.00041813217272142,-0.0241733750723734,0.0209061579188142,-1.75969677803011,-6.27692192228055e-05,0
0.24,0.000554175995325066,0.000319768399622711,-0.027671741662708,-0.0159950104189453,0.000484272131043675,-0.000418142758261117,-0.0241759701181349,0.020906652381404,-1.75969677270309,-6.35541058522213e-05,0
0.25,0.000554202014148385,0.000319768387854844,-0.0276729572154343,-0.0159950089950851,0.000484297689878894,-0.000418147631746706,-0.0241771643472877,0.0209068792009795,-1.75969677116505,-6.38639995279603e-05,0
0.26,0.000557637038447664,0.000321735859318844,-0.0278361963285608,-0.016093421983807,0.000487302214051411,-0.00042072506699852,-0.0243190224716084,0.0210341912898136,-1.75969664202803,-0.000100652737923396,0
0.27,0.000551249051973902,0.00031743508693212,-0.0275339654592353,-0.015878298943597,0.000481835303786161,-0.000415301446834737,-0.0240625558607434,0.0207661512250392,-1.75969700765204,-2.52404737891483e-05,0
0.28,0.000550250198948465,0.000317180180323742,-0.0274305697759655,-0.0158655479785914,0.000480902095643244,-0.000414863498802875,-0.0239633943416348,0.020734210921142,-1.7596969826482,-1.80317952989778e-05,0
0.29,0.000552605470226267,0.000319123387472497,-0.0275964474380302,-0.0159627466265119,0.000482850660586583,-0.000417214311507905,-0.0241080736077833,0.0208608240005969,-1.75969677917627,-4.96655669894482e-05,0
0.3,0.000542513811811509,0.000314793168665835,-0.0271019116224227,-0.0157461477413748,0.00047375204519588,-0.00041106565742914,-0.0236630277345001,0.0205551915758305,-1.75969580293,-1.7192603177569e-05,0
0.31,0.000551530258646309,0.000318528697058451,-0.0275342119914048,-0.0159330017489209,0.000481906650081907,-0.000416427830072695,-0.0240525509151506,0.020819898395353,-1.75969580883726,-9.45230178052148e-05,0
0.32,0.000554562831846807,0.000319459559192946,-0.0276827023939425,-0.015979554059259,0.000484710364263412,-0.000417911721780249,-0.0241896524640367,0.0208935127116887,-1.75969609250089,-0.000104821767649915,0
0.33,0.000555216570789929,0.000319691488114714,-0.0277169972826044,-0.0159911578503313,0.00048530881008086,-0.000418262413934874,-0.0242211527146814,0.0209113564583983,-1.75969636222442,-9.54098789711257e-05,0
0.34,0.000555086420629636,0.000319749255003248,-0.0277128042198015,-0.0159940506787587,0.000485170049410877,-0.000418294804650023,-0.0242164871138542,0.0209134149938331,-1.75969654944995,-8.38469624228e-05,0
0.35,0.000554799224571063,0.000319763633029654,-0.0277002523421294,-0.0159947715132874,0.000484885215524329,-0.000418255051803205,-0.0242040208213172,0.0209117687358377,-1.75969666127506,-7.51361987508903e-05,0
0.36,0.000554556964420736,0.00031976720687846,-0.0276892870630415,-0.0159949510102229,0.000484646568556554,-0.000418213099948759,-0.0241932156337656,0.0209098874501291,-1.75969672155919,-6.96878967026771e-05,0
0.37,0.000554396951593735,0.000319768093117531,-0.0276819290941956,-0.0159949950395932,0.000484489223274787,-0.000418183937810913,-0.024185979662963,0.0209085497449112,-1.75969675134519,-6.66483647019329e-05,0
0.38,0.000554304285006356,0.000319768312085396,-0.0276776200253778,-0.0159950069332979,0.000484398158357294,-0.000418166758566977,-0.024181744731966,0.020907752600016,-1.75969676480899,-6.50992556509922e-05,0
0.39,0.000554255506988727,0.000319768365941148,-0.0276753267161759,-0.015995010014761,0.00048435023564325,-0.000418157654618842,-0.0241794915250751,0.0209073251232243,-1.75969677026336,-6.4375188632778e-05,0
0.4,0.000554231991093735,0.000319768379151964,-0.0276742050188927,-0.0159950101387768,0.0004843271348062,-0.000418153252704815,-0.0241783897191147,0.0209071146588401,-1.75969677212509,-6.40687307949742e-05,0
0.41,0.000554221630130099,0.00031976838242065,-0.0276736980681112,-0.0159950102382098,0.000484316957360537,-0.000418151310548006,-0.0241778917588419,0.0209070195719797,-1.75969677254667,-6.39560614923169e-05,0
0.42,0.000554217613801499,0.000319768383264802,-0.027673490036305,-0.0159950103257545,0.000484313012344055,-0.000418150557165526,-0.0241776874124803,0.0209069805924925,-1.75969677248599,-6.39246633302186e-05,0
0.43,0.00055421633323296,0.000319768383509383,-0.0276734119861785,-0.0159950104081739,0.000484311754577264,-0.000418150316863067,-0.0241776107386886,0.0209069660133365,-1.7596967723233,-6.39227038694674e-05,0
0.44,0.000554216100402316,0.000319768383595854,-0.0276733843826473,-0.0159950104886293,0.000484311525930966,-0.000418150273159154,-0.0241775836140219,0.0209069609055953,-1.75969677218261,-6.39286497667815e-05,0
0.45,0.000554216216817638,0.000319768383633027,-0.0276733740779655,-0.0159950105684299,0.000484311640307605,-0.000418150295010646,-0.0241775734796207,0.0209069590467083,-1.75969677208893,-6.39348222734923e-05,0
0.46,0.000554216391440621,0.000319768383651297,-0.0276733670079053,-0.0159950106481214,0.000484311811843715,-0.000418150327792631,-0.0241775665215069,0.0209069577960507,-1.75969677203422,-6.39392427232911e-05,0
0.47,0.000554216507855942,0.000319768383660223,-0.0276733573773324,-0.0159950107279219,0.000484311926198517,-0.000418150349647814,-0.0241775570478662,0.0209069560653164,-1.75969677200545,-6.3941931698054e-05,0
0.48,0.000554216566063603,0.000319768383664314,-0.0276733451006198,-0.0159950108078315,0.000484311983375819,-0.000418150360575236,-0.0241775449748274,0.0209069538381574,-1.75969677199146,-6.39434016286927e-05,0
0.49,0.000554216624271264,0.000319768383666194,-0.0276733329854989,-0.0159950108877411,0.000484312040550257,-0.000418150371504285,-0.0241775330603418,0.0209069516415315,-1.75969677198532,-6.39441372989993e-05,0
0.5,0.000554216624271264,0.000319768383666896,-0.0276733180473806,-0.0159950109677598,0.000484312040551108,-0.000418150371503837,-0.0241775183729765,0.0209069489150049,-1.75969677198297,-6.39444745667912e-05,0
0.51,2.94297024456302,-0.00947997737406933,1.63147504422724,0.480620730730791,-0.312219686728322,2.92637704296176,0.310214448343513,1.67226615787781,0.103068244272615,31.5914887050901,729.858833289252
0.52,2.8299135384473,-0.0212302640558349,2.96728402148016,1.07671884201943,-1.28204335294705,2.52293999143133,-0.360828563555413,3.13590508093177,0.462647972876512,66.4383420134885,729.858833289252
0.53,2.69246385912627,0.0406057954661865,5.21681079304,-2.00878079955551,-2.35503923028082,1.30568016266041,-5.54755899850177,0.68913301269318,1.07964633439003,102.340358898598,729.858833289252
0.54,2.59214091437518,0.0384286499500182,5.49287671511708,-1.9037027665534,-2.41120225869509,-0.952247314923214,-4.35299141626951,-3.85321223925473,1.96174520905972,137.261650197507,729.858833289252
0.55,2.51105610089692,0.0111330688563521,5.54089883178339,-0.521497030705466,-0.159828028309156,-2.50598916367182,0.192428097590058,-5.56205811227742,3.08233409152861,168.508373153464,729.858833289252
0.56,2.38549407188006,-0.0142565832471552,7.4189159846247,0.739635547102587,2.30040481152213,-0.631603451753271,6.94220525760023,-2.71903683145435,-1.84473146195305,200.730865867312,729.858833289252
0.57,2.28924943397224,0.00654430345957968,8.27874743773947,-0.304872126200237,0.607804317942636,2.20709757598985,1.88104299296089,8.06797889250117,-0.265866562465434,230.694833829446,729.858833289252
0.58,2.22190761138934,0.0247216089668195,7.75734891159302,-1.18720722213702,-2.2191851401386,0.112702729726447,-7.79828268698027,-0.879039395267048,1.53118012483852,259.113006972169,729.858833289252
0.59,2.12971607002357,0.027661665121399,8.48373525003233,-1.33549540553005,0.79319818339601,-1.97668721564419,4.4942979155626,-7.31837400089683,-2.74699860739401,287.043442996839,729.858833289252
0.6,2.0741867108126,0.0217000466259175,7.50424695507899,-1.03730329763582,1.08895803778272,1.76547211682416,2.98400298108566,6.96314919436388,-0.542225458308374,313.916821995187,729.858833289252
0.61,1.93374490256483,0.0162183069233451,10.8992791392368,-0.761148909564793,-1.86080636274413,-0.526338353196777,-10.2492522582487,-3.78503125011107,1.85483728548889,339.626635637755,729.858833289252
0.62,1.86610138013228,0.0589285646920718,10.7761534262234,-2.89045232565003,1.77954849167059,-0.564813334174392,11.1560210565297,-0.152942795277133,-1.84656321731855,364.281444311398,729.858833289252
0.63,1.79043395997684,0.0292174754055157,11.1672158809684,-1.39848050885826,-1.3980554920119,1.11890494107533,-9.68733435733855,5.72870066550326,0.912171758401442,387.989615815551,729.858833289252
0.64,1.70876402006482,0.0342579708250631,11.8991540472146,-1.6907851489607,1.07369875931926,-1.329743982528,8.95331092285003,-8.01790776811906,-2.44228117631988,410.966822133354,729.858833289252
0.65,1.66887641112297,0.0252348968667998,10.653516855916,-1.220678763123,-0.989477273171461,1.34414285010922,-7.41673538907062,7.74464422749898,0.649691254313506,432.630204240288,729.858833289252
0.66,1.57707888760604,0.0631272877198583,12.1771240285989,-3.09111861114011,1.0359203348736,-1.1908114594607,10.602472378179,-6.73980291595889,-2.3856358464935,453.351417315303,729.858833289252
0.67,1.51958272036996,-0.011811665822452,11.9744341753547,0.617185853247951,-1.29506369973034,0.795035328232163,-9.8289191886436,6.86733862427547,1.01244847040685,473.603293323372,729.858833289252
0.68,1.44767365312693,0.0160020979732372,12.6867332948527,-0.733575028867926,1.42695851911251,-0.244549499753405,12.6432671906875,-1.2802846412375,-1.72947239692276,492.499364530336,729.858833289252
0.69,1.39614738682394,0.00771916766447495,12.3776154537625,-0.356462837991906,-1.30015536799182,-0.50880559191777,-11.3695627328686,-4.90565727904586,1.94934567696039,511.022979197026,729.858833289252
0.7,1.28214873363686,0.0612615947380025,15.3669124290354,-3.01157172808839,0.694367473786209,1.07958888911669,5.07863788177462,14.812798491199,-0.52382014934388,528.46621323703,729.858833289252
0.71,1.26466002240507,0.0181427313431959,13.5604014448394,-0.850252152139851,0.320392356484957,-1.22353703208207,4.44223935394205,-12.8403242011138,-2.8711405418069,545.179053094876,729.858833289252
0.72,1.2081759288965,0.0357665680805127,13.7758058447864,-1.76211216643174,-1.10593764897183,0.487719426662347,-13.4265136633549,3.55057696833656,1.18504639169782,561.370380707317,729.858833289252
0.73,1.13602496592281,-0.0168507917263165,14.8917627588813,0.852688748727652,0.8983667351673,0.69553855502522,12.4209536055997,8.25903067536074,-0.926802259413202,576.76817809177,729.858833289252
0.74,1.02207760912592,0.0311102401946484,18.1700709628618,-1.50243540084969,0.185631839228506,-1.00556019530716,5.30914314544494,-17.4419548786922,-2.92861361702309,591.316019445891,729.858833289252
0.75,1.03138008102579,0.0375744026088626,15.3461930888929,-1.81316172708231,-1.02055959405549,0.153671149697924,-15.4527737108389,-0.0705862008250719,1.45775879117399,605.287262288627,729.858833289252
0.76,1.00408381341286,0.0134240236224838,14.4279761016446,-0.609302414179711,0.346415137812456,0.942529077038107,4.22115821365602,13.8101255300898,-0.338843912557934,618.624858276416,729.858833289252
0.77,0.935607310244188,0.0570102427477121,15.6572688606499,-2.79588255322499,0.808672621978748,-0.473982908154433,15.2289754869701,-4.58751926899145,-2.04009214411202,631.309257215725,729.858833289252
0.78,0.89624542669895,0.0156421101610448,15.4974751216184,-0.728263195180313,-0.450408543571689,-0.775004957640081,-6.91613474038128,-13.8877349729726,2.63258602717433,643.422351814774,729.858833289252
0.79,0.830300465150905,0.028280087274318,16.7327273195009,-1.36013859491368,-0.730656302407402,0.395398524931993,-15.5849048099611,6.24058351523302,1.10881593197004,654.976017732624,729.858833289252
0.8,0.803121919815116,0.0456315534966201,16.1182806451411,-2.22370593212256,0.30530784126165,0.74422723601477,3.15987118910154,15.9611732994906,-0.33254145016984,665.885938110342,729.858833289252
0.81,0.746659606592632,0.0428444923950946,17.0123456440377,-2.081799742739,0.73551426571187,-0.135480565322065,17.1391662538941,-0.0526744953098666,-1.69563422355156,676.380016716009,729.858833289252
0.82,0.643632697016092,0.016746629906942,20.3055498718013,-0.798476923059785,0.0844690035526804,-0.638285583199453,3.97522278297632,-19.9286357992356,-2.98400680987304,686.326464055401,729.858833289252
0.83,0.640144112613722,-0.0149163092086828,18.6738686149765,0.734037059734735,0.423697507120833,-0.4800910368399,11.4654392450986,-14.757909146333,-2.44180778981475,695.797463088566,729.858833289252
0.84,0.634499603301567,-0.0436625405043969,17.2133048658038,2.18349637995439,-0.23684007762462,-0.590256674391665,-9.45751774610238,-14.547194881713,2.69130393683603,704.70543183736,729.858833289252
0.85,0.602284302219619,0.0231084730842246,17.1495507895723,-1.13042877178731,-0.602722229807939,0.00250916795048271,-17.100892915395,-1.71593210483359,1.60498252969524,713.144847731734,729.858833289252
0.86,0.528097204757941,0.0320604164948438,19.2481850025199,-1.55347504516392,-0.2620866436799,0.459592340214215,-11.8310911930384,15.2620834681634,0.578898842526441,721.125604193914,729.858833289252
0.87,0.493534429074894,-0.00744025393036466,19.4215305825802,0.371484653511315,0.180795224251233,0.45928713997757,7.72901008739629,17.8212304313372,-0.390088636076829,728.717311837384,729.858833289252
0.88,0.482738906632442,-0.0130614340434619,18.4510647064566,0.643602364827519,0.462369598786883,0.139362143904339,17.9726048676508,4.22391845058058,-1.3050981317275,735.907001028834,729.858833289252
0.89,0.471721994848732,0.0478325587914157,17.5542370091276,-2.36102186376287,0.362814979916009,-0.305245613323349,15.83413270372,-7.93762576182427,-2.16917849212042,742.617817268666,729.858833289252
0.9,0.370430972775121,-0.0126683981399646,21.2199301790637,0.682101426901663,0.0702701772955916,-0.363925399066074,2.63480148072002,-21.0667634039526,-2.98503629444762,749.033866283357,729.858833289252
0.91,0.394456076470527,-0.0206153710567311,18.6626925026502,1.01391268848821,-0.210329083812255,-0.334338550411146,-11.5774105783343,-14.6726846449116,2.52784224870495,755.060793995595,729.858833289252
0.92,0.342297437788587,-0.000765111647078529,19.9767748184095,0.0686718093102917,-0.333159206892611,-0.0785688499034485,-19.4692248633438,-4.47498951768504,1.80015923879014,760.666010433442,729.858833289252
0.93,0.300355336884699,0.00602098872814148,20.8315828831313,-0.310002093259786,-0.266689649550086,0.138297547061535,-18.8185891455339,8.93933159057135,1.11244598411167,765.959354031739,729.858833289252
0.94,0.308148883012229,0.0124590365920418,19.23240584281,-0.628054293765254,-0.126303916796655,0.281350817123942,-9.1410319293271,16.932850379233,0.46236502517226,770.932894821805,729.858833289252
0.95,0.252522791283844,-0.0135800693868383,20.8639095377205,0.72310897377965,0.0249498310157797,0.251653897912628,3.88509532544617,20.5117440043099,-0.152546339785581,775.556174656895,729.858833289252
0.96,0.247981114667991,-0.0489527440166336,19.9782527756547,2.4205957035762,0.12987801365,0.216847194930135,15.1867262057591,13.2042877384369,-0.734537464117173,779.896774778065,729.858833289252
0.97,0.246367416235473,-0.0143095400548271,18.9915652829644,0.74802338582589,0.232411896901475,0.0829841966749192,18.4361104946505,4.62048922862919,-1.28586583792813,783.946966800772,729.858833289252
