t,iq,id,vq,vd,ia,ib,va,vb,theta_e,omega,r
0,0,0,0,0,0,0,0,0,0,0,0
0.01,0.000876329499742337,0.000501137222026471,-0.0434621396421895,-0.0251001822773203,-0.000216911049126899,-0.000985921652153827,0.0109926000046878,0.0489708022986026,-2.83868017642096,-0.00100366995587964,0
0.02,0.000972736609764461,0.000556599911826608,-0.0483001140346611,-0.0278781128435107,-0.000241098380626641,-0.00109448231812152,0.0122012862786455,0.0544170819194058,-2.83868760632654,-0.00107970103732461,0
0.03,0.00100152650475707,0.000573078375222771,-0.0497291403520675,-0.0287034648861203,-0.000248247363881382,-0.00112687506415078,0.0125632195260516,0.0560271524509733,-2.83869521966806,-0.00107493035736448,0
0.04,0.000985186970082109,0.00056397485001806,-0.0489292272609629,-0.0282474929529629,-0.000244439996081933,-0.00110856217046584,0.0123669996916374,0.0551275562410459,-2.838702309978,-0.00101951803589954,0
0.05,0.00100118272249535,0.000573159889004389,-0.0497259834030178,-0.0287075342403287,-0.000248443692944303,-0.00112656772260833,0.0125688400197653,0.0560251747709402,-2.83870940460849,-0.00100227698985626,0
0.06,0.00100113919814915,0.000573266172496217,-0.0497305082000125,-0.0287128682365317,-0.000248565852405706,-0.00112655617508272,0.0125729661404716,0.0560309983012127,-2.83871626781039,-0.000967269916290279,0
0.07,0.00102904233516868,0.000589329311594565,-0.0511146760782162,-0.029517417139959,-0.000255582850094297,-0.00115797865775307,0.0129284202495444,0.0575920478455705,-2.83872282619863,-0.000966825104057716,0
0.08,0.00100102797737896,0.000573452878472351,-0.049737594466561,-0.0287222028176194,-0.000248791854638824,-0.00112650247597997,0.0125804895989374,0.0560403829346978,-2.83872924705377,-0.000901031943216348,0
0.09,0.00100046682298242,0.000573261230044928,-0.0497158434514522,-0.0287126202008764,-0.0002487831988234,-0.00112590817642664,0.0125781739096749,0.0560166867101853,-2.83873537825087,-0.000869141845073752,0
0.1,0.00100025286475877,0.000573256344575065,-0.0497110147835044,-0.028712366901183,-0.000248848994644677,-0.00112570102954471,0.0125797029789,0.0560119279871404,-2.83874128229421,-0.00083881835223631,0
0.11,0.00100005062353233,0.000573253777752845,-0.0497065513442925,-0.0287122480754267,-0.000248913261214263,-0.00112550581150298,0.0125812392052803,0.0560075607052043,-2.8387469682154,-0.000809619900863237,0
0.12,0.000999856065711462,0.000573251330992839,-0.0497022620475717,-0.0287121292846142,-0.000248975112351697,-0.00112531801463165,0.0125827117170072,0.0560033622789612,-2.83875244408032,-0.000781500192327949,0
0.13,0.00104704198417025,0.000600301845093615,-0.0520375899883147,-0.0300669739108033,-0.000260728773227536,-0.00117842255946211,0.0131797546143596,0.0586364030296039,-2.83875795535205,-0.000809164572550194,0
0.14,0.00112077562364269,0.00064298575967754,-0.0557603199833736,-0.0322048564117426,-0.0002794876113116,-0.00126152897740127,0.0141104637171439,0.0628272303610173,-2.83876320887827,-0.000869499293006635,0
0.15,0.00100078931899911,0.000574074201582075,-0.049763752021756,-0.0287533429291708,-0.000249500086884662,-0.00112645024594491,0.0126046014428647,0.0560741452663512,-2.8387683137347,-0.000701774609959059,0
0.16,0.000999143958716064,0.000573252020988133,-0.0496870552474364,-0.0287121491814453,-0.000249211266561382,-0.00112463339556704,0.0125884169838086,0.055988594620879,-2.83877300385254,-0.000675943127244003,0
0.17,0.000998965191917967,0.00057324024367314,-0.0496826052779484,-0.0287115654726899,-0.000249258411530166,-0.00112445812545937,0.0125894395874331,0.0559841162292606,-2.83877751791084,-0.000652740931700497,0
0.18,0.000998810523518822,0.000573238184394638,-0.049679182243878,-0.0287114648416868,-0.0002493074570334,-0.00112430879646454,0.0125906076757509,0.0559807641974561,-2.83878186517089,-0.000630416574771833,0
0.19,0.000998661675887576,0.000573236311544573,-0.0496758895421748,-0.0287113700458112,-0.000249354762892321,-0.00112416511864704,0.0125917334495612,0.0559775403215348,-2.83878605182866,-0.000608917206126561,0
0.2,0.000998518416188166,0.000573234509082657,-0.049672721650011,-0.0287112752638208,-0.0002494002945861,-0.00112402683372352,0.0125928133346189,0.0559744375202985,-2.83879008381779,-0.000588212096035027,0
0.21,0.000998380511589948,0.000573232773117876,-0.0496696725661773,-0.0287111804949513,-0.000249444124380009,-0.00112389371691068,0.0125938494424129,0.055971449994321,-2.83879396685226,-0.000568271898965596,0
0.22,0.00099824745543956,0.000573231101185743,-0.0496667225066081,-0.0287111095380483,-0.000249486407303339,-0.00112376528253415,0.0125948706991372,0.0559685658877037,-2.83879770643489,-0.000549068356573082,0
0.23,0.000998119795383345,0.000573229490927655,-0.0496639041282017,-0.0287110147886781,-0.000249526983866576,-0.00112364205133473,0.0125958222271346,0.055965802110515,-2.83880130786514,-0.000530574254500484,0
0.24,0.000997996285284611,0.000573227940071954,-0.0496611602389704,-0.0287109438447612,-0.000249566229319005,-0.00112352283194625,0.0125967668007602,0.0559631182021248,-2.83880477624717,-0.000512763383773052,0
0.25,0.000997877664627364,0.000573226446430334,-0.0496585327224842,-0.0287108729036479,-0.000249603926683397,-0.00112340832836219,0.0125976694882579,0.0559605469818163,-2.83880811649576,-0.000495610503656282,0
0.26,0.0010068015728196,0.000578359672776378,-0.0501022811216252,-0.0289679791566876,-0.00025184634661238,-0.00113345610229246,0.0127109441490415,0.0564607322734358,-2.83881131786744,-0.000489845984761676,0
0.27,0.000969430102437523,0.000557034496844647,-0.0482599748090524,-0.0278998757637064,-0.000242637975856622,-0.00109142519984614,0.0122409320744651,0.0543837091245987,-2.83881448727091,-0.000429561115717594,0
0.28,0.000956754307064771,0.000549648432658858,-0.0475667529809195,-0.0275299312389055,-0.000239370711421887,-0.00107712295775585,0.0120946770184986,0.0536116768156423,-2.83881749453077,-0.000399271963598874,0
0.29,0.000996941419378237,0.000572940452135051,-0.0496240578907339,-0.0286965609979253,-0.000249623772736507,-0.00112242635724995,0.0125949689778355,0.0559232196059733,-2.83882028792734,-0.000432512888614493,0
0.3,0.000994516290464878,0.000571637095874994,-0.0495066865034856,-0.0286312646162185,-0.000249105536971624,-0.00111972231058888,0.0125677755945772,0.055791687003376,-2.83882273543251,-0.000417182385085234,0
0.31,0.000997227906749022,0.000573199876563548,-0.0496431594045223,-0.0287095491173856,-0.000249791723010581,-0.00112277588663406,0.0126019572402796,0.0559452603881736,-2.83882540684619,-0.000406779471336593,0
0.32,0.000997171103885192,0.000573217336204876,-0.0496428392645036,-0.0287104122614172,-0.000249828219410836,-0.0011227262292008,0.0126030208059891,0.055945179676409,-2.83882798486768,-0.000393581709533398,0
0.33,0.000997083175885011,0.000573216447078289,-0.0496408889177351,-0.028710373835204,-0.000249856374708054,-0.00112264141507952,0.0126037045420644,0.0559432752894968,-2.83883046771408,-0.00038083227305855,0
0.34,0.000996998158254847,0.000573215380067101,-0.0496389926839699,-0.0287103266764105,-0.000249883389083698,-0.00112255934870682,0.0126043586681253,0.0559414211037821,-2.83883285883693,-0.000368553357294915,0
0.35,0.000996916557652262,0.000573214349929495,-0.0496371789565112,-0.0287102557458063,-0.000249909320311435,-0.00112248057689557,0.012604960553767,0.055939639694838,-2.83883516162398,-0.00035672805811645,0
0.36,0.000996837710031898,0.000573213357783594,-0.0496354178661674,-0.0287102085824483,-0.000249934371150758,-0.00112240446533353,0.0126055646649531,0.0559379166851468,-2.83883737933853,-0.000345339623381257,0
0.37,0.000996761772793675,0.000573212402258025,-0.0496337203434173,-0.0287101614155854,-0.00024995849692838,-0.00112233116307911,0.0126061452297541,0.0559362553813166,-2.83883951512351,-0.000334371913992087,0
0.38,0.000996688745937595,0.000573211482002522,-0.0496320894703985,-0.0287101142449588,-0.000249981699788324,-0.00112226066898432,0.0126067014990989,0.0559346586873367,-2.83884157200584,-0.000323809387009364,0
0.39,0.000996618122820022,0.000573210595716481,-0.0496305028377309,-0.0287100908323248,-0.000250004132847117,-0.00112219249834167,0.0126072629991106,0.0559331122609641,-2.8388435529,-0.000313637073697303,0
0.4,0.000996550334652067,0.000573209742146391,-0.0496289847916027,-0.0287100436536573,-0.000250025669525285,-0.00112212706168469,0.0126077772661329,0.0559316251368367,-2.83884546061372,-0.00030384055831373,0
0.41,0.000996485107620288,0.000573208920086067,-0.0496275243360261,-0.0287099964715472,-0.000250046393369819,-0.00112206409662639,0.012608270412287,0.0559301938699462,-2.8388472978502,-0.0002944059576793,0
0.42,0.000996422441724684,0.000573208128372983,-0.0496261240966498,-0.0287099492855495,-0.000250066306219419,-0.00112200360217747,0.0126087418005722,0.0559288209337674,-2.83884906721328,-0.000285319901502861,0
0.43,0.000996361597492556,0.000573207365887786,-0.0496247495776361,-0.0287099258522126,-0.000250085630309354,-0.00112194487154169,0.012609224532502,0.055927480452561,-2.83885077121029,-0.000276569513435462,0
0.44,0.000996303355377825,0.000573206631552007,-0.0496234422219874,-0.0287098786586775,-0.00025010413465783,-0.00112188864876126,0.0126096610357494,0.0559261977888575,-2.83885241225621,-0.000268142392820807,0
0.45,0.000996247167757887,0.000573205924327155,-0.0496221769774323,-0.028709855213742,-0.000250121984170783,-0.00112183441023345,0.0126101042581174,0.0559249631647,-2.83885399267632,-0.000260026597122649,0
0.46,0.000996193116588621,0.000573205243213003,-0.0496209601797091,-0.0287098051023794,-0.000250139155991754,-0.0011217822333346,0.0126105043140766,0.0559237675690537,-2.83885551471075,-0.000252210625000284,0
0.47,0.000996141003504236,0.000573204587246138,-0.0496197840795827,-0.0287097816473609,-0.000250155710778308,-0.00112173192789875,0.0126109145328156,0.0559226194753927,-2.83885698051632,-0.000244683400007905,0
0.48,0.00099609063664945,0.000573203955498455,-0.0496186411737309,-0.0287097581874743,-0.000250171707189104,-0.00112168331000415,0.0126113118190727,0.0559215037468846,-2.83885839217012,-0.000237434254900932,0
0.49,0.000996042522664494,0.000573203347076651,-0.0496175587464661,-0.0287097109742637,-0.000250186995585907,-0.00112163686248956,0.0126116654822721,0.055920439321844,-2.83885975167287,-0.000230452916515758,0
0.5,0.000995995997514645,0.000573202761119676,-0.0496165055483556,-0.0287096875042097,-0.000250201775291553,-0.00112159195078307,0.0126120302834845,0.0559194105078715,-2.83886106095119,-0.000223729491212259,0
0.51,2.45755535583083,-0.0190678701023796,3.80275368547437,0.956963935148567,-0.111959055544001,2.45507781557423,0.812521519941652,3.83621223933135,0.0378127631000925,11.5559002876861,381.771164917912
0.52,2.36149639796937,-0.0182066857892945,6.30129657195043,0.915878810315046,-0.41560276213528,2.3247088129775,-0.158284935371073,6.36554148223801,0.169197700845651,24.2395554422288,381.771164917912
0.53,2.28187831035395,-0.0151062606512882,7.96281524249269,0.762875726184243,-0.887588630322916,2.1022329189926,-2.34387011954787,7.64818140621453,0.392887084446441,36.7927973101679,381.771164917912
0.54,2.32671175036328,-0.0269868482353549,3.30623259672106,1.36073707767771,-1.53506005767183,1.74868707280543,-1.11923004847647,3.39560060619254,0.708835655313424,49.4498113363962,381.771164917912
0.55,2.27603130650409,0.0584908510105996,3.17779133811898,-2.91959358980027,-2.02256284031093,1.04545647677559,-4.13307288233776,-1.24100486200138,1.11941570660624,62.6915650986134,381.771164917912
0.56,2.18000093394897,0.0270829369547281,5.24940687611921,-1.34821000103796,-2.1780269853791,-0.0966230223751096,-5.16447592607574,-1.64381603804395,1.62755261759618,75.7114479647885,381.771164917912
0.57,2.11629641140643,-0.00275973784388239,6.11474284332774,0.149659373624025,-1.67670512410549,-1.291269934554,-4.94062300031802,-3.60592877590087,2.22574849969995,87.3173150132985,381.771164917912
0.58,2.12560652191781,0.027787487798369,3.44305748479566,-1.37565576807947,-0.521432255110798,-2.06084536873288,0.537086099208883,-3.66859811888606,2.90684694764973,98.5621639407275,381.771164917912
0.59,1.98747768837669,0.0127668466742224,7.82642772537453,-0.629028322498362,0.996001599890225,-1.71994516400531,4.50777558760192,-6.42873290958929,-2.61026713762248,110.591934376191,381.771164917912
0.6,2.01607137210169,-0.0193879505972537,4.04490669798123,0.985977508329421,1.98451293954362,-0.355848370546081,3.79100938560811,-1.72095022604842,-1.75783985571279,121.703785673043,381.771164917912
0.61,1.94442203460957,0.0207808330549252,5.46807242089391,-1.0202609874628,1.44547362964927,1.30069784257768,3.33486708464581,4.45189959572598,-0.827381537833493,132.282417587285,381.771164917912
0.62,1.93456499976556,-5.30053730385394e-05,3.50009162317271,0.016605434970465,-0.353973366139765,1.90190551741962,-0.62400316961028,3.44405823925651,0.18398236586704,143.463134112588,381.771164917912
0.63,1.91327646504674,0.00912890913646219,2.45943044953242,-0.434364331805434,-1.825962423917,0.571464255336175,-2.47840033260246,0.308224431523601,1.27225823674202,153.44306535418,381.771164917912
0.64,1.80156061056647,0.045773245031031,5.70387197361644,-2.27857965391687,-1.20325420879038,-1.34160170413336,-1.96490168266481,-5.81938502834381,2.43590670336006,164.012195660756,381.771164917912
0.65,1.77239276379624,-0.0148087065117827,5.0938426757241,0.766426936228645,0.911156784829616,-1.52032520218695,1.9212973235197,-4.77946231790156,-2.6100304999527,173.541067415131,381.771164917912
0.66,1.72591038541042,0.0197509091281376,5.14476974166364,-0.97281608500941,1.66858056079082,0.441583139431197,4.69853329401774,2.31058687674746,-1.30063815127004,183.533499898902,381.771164917912
0.67,1.66293975603571,-0.00730783224238707,6.27697176793281,0.392279894192042,-0.136682499654954,1.65732915587226,-0.097333798341076,6.28846437713639,0.0778908303831605,192.706954638185,381.771164917912
0.68,1.6560597334866,0.0152306670305728,4.48024218469316,-0.740470193508755,-1.65366438936637,0.0903321727595084,-4.50921787664369,-0.53648884604993,1.52542177757362,201.923104696842,381.771164917912
0.69,1.57058807976027,-0.0623077810363961,6.65359142957488,3.1350723441772,-0.0996381040947447,-1.56866230402695,-3.80309153316531,-6.29566932941235,3.038509156534,211.035013644427,381.771164917912
0.7,1.54912049143275,0.0442465623631733,5.7780526631702,-2.1879995987867,1.53774801389063,-0.192517794069071,5.96116034314099,1.62413120960784,-1.66678833980272,219.501730066778,381.771164917912
0.71,1.50057092324018,-0.0280393040122734,6.17838882674216,1.42823326898403,0.0104640221208884,1.50079638941611,1.58625726347932,6.1397171481351,-0.0256557829350653,227.987923654789,381.771164917912
0.72,1.50868144123778,-0.015181232835513,3.75729921760838,0.777323493648709,-1.49868856095983,-0.174019419071149,-3.81827738961647,0.377209491347225,1.67633088787555,236.401432151727,381.771164917912
0.73,1.37944048764307,0.0380196806365539,8.30833952696889,-1.891745739895,0.366567839883759,-1.33038700152535,4.23607976531598,-7.39343194069473,-2.84517467277518,244.414527700095,381.771164917912
0.74,1.37628690951329,-0.013833707112347,6.59535444396073,0.722312647403267,1.16930189806584,0.726009710630464,6.01267819423527,2.80501991697723,-1.0252079647053,252.074620148802,381.771164917912
0.75,1.31978944683518,0.00855684629010467,7.5167195010808,-0.402400133027303,-0.987187653341198,0.876001107697154,-5.91965884201618,4.64979968591426,0.851486285181825,259.697162985006,381.771164917912
0.76,1.28904106050312,0.054570664603756,7.17423788246062,-2.71250951691977,-0.503483328712606,-1.18790123781684,0.0222135191302284,-7.66986985763652,2.78301166185407,267.171212643697,381.771164917912
0.77,1.26824175604785,-0.0344561014468727,6.38157779773721,1.74183439022414,1.26437884956257,0.104740152229668,6.46835854087778,-1.38522922947555,-1.51530754497194,274.415421803682,381.771164917912
0.78,1.19069269621506,-0.0106357706787054,8.46997127876235,0.544485677549766,-0.602402064921691,1.02711925725103,-3.74746690820526,7.61533780524688,0.521499253032019,281.404250383272,381.771164917912
0.79,1.19379175572463,0.0070576973879668,6.57858986159474,-0.342498552460204,-0.612636479873121,-1.02462925522219,-3.04754317623065,-5.84017383427278,2.60862297774162,288.16751122506,381.771164917912
0.8,1.10127793942065,-0.00735338300200583,9.48185407128507,0.37822079825744,1.10045613619214,0.0431678631998409,9.48913902057478,-0.0696293730043337,-1.53826622038904,294.734793108994,381.771164917912
0.81,1.16122576322424,0.0565219250188198,4.79335141504438,-2.80718158174644,-0.653597556329088,0.961483351672922,-5.12639188001,2.13929720085171,0.645662470598473,301.095054887608,381.771164917912
0.82,1.06599948977779,0.0479145528849185,7.87900108121056,-2.37118163960436,-0.32618686829647,-1.01599844662067,0.218757309141363,-8.2251629555536,2.87585480041031,307.306941776713,381.771164917912
0.83,1.05954320591951,0.0328072101011045,6.56746962191324,-1.61383092130403,0.97329137229663,0.420014312682026,5.26154901999437,4.24878916722242,-1.13244552221291,313.297596379771,381.771164917912
0.84,1.03982929854558,0.00627931542852134,5.94513361557843,-0.285001681998619,-0.961413322382853,0.396192911926512,-5.61727059576016,1.96776795375649,1.18594625809678,319.108293022653,381.771164917912
0.85,1.00474699463888,-0.0132559582848023,6.12455783263817,0.693058964981413,0.407648113982735,-0.918430867747938,1.77346920262388,-5.90299469435771,-2.73705504872148,324.757574816352,381.771164917912
0.86,0.973086038347344,0.00868894072346776,6.16145970225095,-0.408548300859792,0.329276408933323,0.915723201757714,1.6473327860489,5.95120089298002,-0.336255330808138,330.224334584341,381.771164917912
0.87,0.9019429762547,-0.0164973357030025,8.18876707937835,0.83964810869253,-0.768317778500953,-0.472716707701181,-7.47856371874238,-3.43976742403489,2.10407349878632,335.566896412132,381.771164917912
0.88,0.900656816096819,0.0458862079779437,6.75656038638745,-2.29220947933353,0.887161343469677,-0.161966030751304,6.9962411806737,1.39926476904558,-1.70047071830314,340.700607478124,381.771164917912
0.89,0.825998390137298,-0.04252633539235,9.00694095416825,2.13463476728545,-0.630346836948488,0.535485475863115,-5.09164618748165,7.7302516157678,0.815147880418527,345.706084946519,381.771164917912
0.9,0.794001029507239,0.00151431651489903,9.17054740647264,-0.0701857957561999,0.175753522979952,-0.774306545996609,2.11538057456385,-8.92351000475967,-2.91648547696336,350.481086720718,381.771164917912
0.91,0.806474158317224,0.042654855758018,7.14308760296865,-2.12659220750325,0.302068449044629,0.748982414242808,0.306627233526648,7.44661497999982,-0.330511068508064,355.116729829759,381.771164917912
0.92,0.747080929907988,-0.0237219982118343,8.73483594754364,1.20251171703041,-0.546906396818308,-0.509495870592257,-7.36826684904223,-4.84273033539979,2.28905388713735,359.5869578315,381.771164917912
0.93,0.769956213059251,-0.0355214220014545,6.25556998705127,1.80057860387489,0.741918393024807,0.208929269230129,6.50079694586235,-0.337458501590019,-1.34239990679485,363.885476120765,381.771164917912
0.94,0.691157791773604,0.0277355661298508,8.88061184317687,-1.36468948087042,-0.666596668589076,0.18470851681461,-8.9577308663032,0.697640176058185,1.34059398163943,368.040655861216,381.771164917912
0.95,0.676685943763829,-0.0633307003260841,8.30601880481652,3.19675711679794,0.573848544325542,-0.364159981693202,4.61095519270451,-7.61237785850356,-2.22958157857082,372.12757862068,381.771164917912
0.96,0.715885684755393,-0.0293299736221495,5.05791344474862,1.47092721824469,-0.37672756159833,0.609449674150828,-1.1993011982072,5.12911219724434,0.512706552784943,376.061140780764,381.771164917912
0.97,0.71870577759572,0.0141619600457066,3.65962307481093,-0.702983995651794,0.0873977320107016,-0.713512573330835,1.21236627973585,-3.52380413070741,-3.00000812730844,379.833449607728,381.771164917912
