t,iq,id,vq,vd,ia,ib,va,vb,theta_e,omega,r
0,0,0,0,0,0,0,0,0,0,0,0
0.01,0.000864742180800388,0.000487584415663058,-0.0424667164986475,-0.0244179298994443,0.000174795784586425,-0.000977222612992409,-0.00821931679924735,0.0482918227250151,-2.45118050984023,-0.00254606433963282,0
0.02,0.000955380092771943,0.00054001516602417,-0.0470769748794715,-0.0270436393824386,0.000192075943920066,-0.00108049726189762,-0.0091300232545374,0.0535186198460067,-2.4511988333727,-0.00258540185279727,0
0.03,0.000984819827544163,0.000557278107246868,-0.0485645553630576,-0.0279081573516061,0.000197494968350407,-0.00111419240664126,-0.00940985699406225,0.0552162645940921,-2.45121656429981,-0.00243750515048857,0
0.04,0.000965358483978932,0.000547527614594521,-0.0476671801186928,-0.0274198614825718,0.0001926023036346,-0.00109298117274192,-0.00921402778061191,0.0542135643197294,-2.45123197697773,-0.00216516050274725,0
0.05,0.0009818193280112,0.000557393298614316,-0.0485136947253313,-0.0279139167602076,0.000195462012023375,-0.00111195822046167,-0.00937137235006822,0.0551809994932569,-2.45124655051136,-0.00201890855121893,0
0.06,0.000980716749041677,0.000557553856657053,-0.0485020461813396,-0.0279219701790187,0.000194621367969735,-0.00111121292651481,-0.009357014051592,0.0551772705966245,-2.45125979992451,-0.00183466407797061,0
0.07,0.00100739417434011,0.000573284253183208,-0.0498364908837095,-0.0287097233834921,0.000199467217832201,-0.001141801509218,-0.00959872524741223,0.0567079228501925,-2.45127162216381,-0.00175854737887937,0
0.08,0.000978770666188572,0.00055781195385099,-0.0484794577634241,-0.0279348943141295,0.000193157830575245,-0.00110988118523459,-0.00933140825504566,0.0551682967414698,-2.45128257902706,-0.00151773980499882,0
0.09,0.000977205252785056,0.000557549282624496,-0.048434190954832,-0.0279217317971886,0.000192352744207816,-0.00110850878680393,-0.00931219526582102,0.0551251029870646,-2.4512923223068,-0.00137984245824553,0
0.1,0.000976242382852744,0.000557541746604496,-0.0484152026604825,-0.0279213529970515,0.00019173569085385,-0.00110776324823384,-0.00929991170492818,0.0551103025225056,-2.45130111347318,-0.00125685520758804,0
0.11,0.000975381692308891,0.000557538789015536,-0.0483984667491858,-0.0279212128512875,0.000191181132042487,-0.0011070992375118,-0.00928892580434153,0.0550973825890158,-2.4513090479573,-0.00114587943043612,0
0.12,0.000974604937203889,0.000557536183000022,-0.0483833609084452,-0.0279210727122982,0.000190680614060514,-0.00110650001463983,-0.00927902064102458,0.0550857122142007,-2.45131620928577,-0.00104571789530949,0
0.13,0.0010211973795672,0.00058412027186872,-0.0506710715895243,-0.0292524016649219,0.0001998419845445,-0.00115935489012477,-0.00970876580625421,0.0576974901162601,-2.45132327380304,-0.00109805836950012,0
0.14,0.00108532033484894,0.000621738254308903,-0.0539661723269134,-0.0311362880070451,0.000211657967568333,-0.00123275285068522,-0.0103539031919843,0.0614378781792372,-2.45132953231686,-0.0012173425240014,0
0.15,0.000974614705035244,0.000558604863473563,-0.0484442160106167,-0.0279745929432537,0.000189841675681469,-0.00110719165230854,-0.00927544945264287,0.0551668918163376,-2.45133529415811,-0.000785425209239194,0
0.16,0.000972072925276378,0.000557545575062724,-0.0483352189864213,-0.0279215594577826,0.000189034934888261,-0.00110455811694957,-0.00924668629106222,0.0550491205166302,-2.4513399090525,-0.000714364942379115,0
0.17,0.000971584695654159,0.000557526344051361,-0.0483246098040361,-0.0279205808633007,0.000188734305056945,-0.00110417018943428,-0.00924045700689067,0.0550403552201497,-2.4513440634045,-0.000656139527095762,0
0.18,0.000971177342365018,0.000557524681080005,-0.0483166487906246,-0.0279204953965643,0.000188472075017485,-0.00110385573209326,-0.00923524756014348,0.0550341967875338,-2.45134781274529,-0.000603697324800583,0
0.19,0.000970810118931055,0.000557523442841162,-0.0483094805249468,-0.0279204504534226,0.000188235474625185,-0.00110357241829842,-0.0092305317777088,0.055028672028434,-2.45135119673755,-0.000556367245168561,0
0.2,0.000970479017693784,0.00055752232947473,-0.0483030237813279,-0.0279203793697783,0.000188022143429677,-0.00110331697405004,-0.00922630737418789,0.0550236762022393,-2.45135425098555,-0.00051364915674136,0
0.21,0.000970179955428419,0.00055752132451685,-0.0482971809886771,-0.0279203342572378,0.000187829458307878,-0.00110308624676309,-0.00922247026353859,0.0550191675575619,-2.45135700762019,-0.000475093619396389,0
0.22,0.000969910113403649,0.000557520417360016,-0.0482919076012255,-0.0279202861557355,0.000187655600310366,-0.00110287806194888,-0.00921901281021654,0.0550150935797488,-2.45135949564176,-0.000440295023780373,0
0.23,0.000969666639452565,0.00055751959849629,-0.0482871477945847,-0.0279202408924937,0.000187498731551934,-0.00110269021943659,-0.00921589353018545,0.0550114151796809,-2.45136174122455,-0.000408887284725351,0
0.24,0.000969446647945357,0.000557518859341376,-0.0482828357613854,-0.0279202186766521,0.000187356995012202,-0.00110252049330332,-0.00921305363486322,0.0550080947028174,-2.45136376799234,-0.000380539989255808,0
0.25,0.00096924845955307,0.000557518192143732,-0.0482789582803232,-0.0279201732816811,0.000187229303692616,-0.00110236758785624,-0.00921051917424611,0.0550050927210666,-2.45136559726701,-0.000354954920605428,0
0.26,0.000978564099453371,0.000562785147146112,-0.048736969307698,-0.0281839455721534,0.000189097535883553,-0.00111290473110236,-0.00929865574134481,0.0555262277371474,-2.45136720875201,-0.000362705655932843,0
0.27,0.000942301057635817,0.000542352547548021,-0.0469791042630828,-0.0271606983731568,0.000181762276424716,-0.00107193285420418,-0.00896834181339145,0.0535192359679899,-2.45136889623106,-0.000223952262558623,0
0.28,0.000933318988438546,0.000536905464615215,-0.0464016123977007,-0.0268879162879993,0.000180242096061671,-0.00106153878823194,-0.00881091687749668,0.0529002591599961,-2.45137028526027,-0.000176338554765908,0
0.29,0.000967973935164933,0.000557170827400261,-0.0482348765249853,-0.0279027876433624,0.000186679382002336,-0.00110116469176949,-0.00919554493817764,0.0549600839240727,-2.45137129107856,-0.000273222397250601,0
0.3,0.000964860398327698,0.000555555540601458,-0.0480843964779721,-0.0278219009274966,0.000185942214702218,-0.00109773541427144,-0.00916208980474419,0.0547925493683225,-2.45137157320349,-0.000259437278689885,0
0.31,0.000968417011375688,0.000557482786426646,-0.0482606099320285,-0.027918411361426,0.000186719472615701,-0.00110170522538016,-0.00919980888425991,0.0549898870743549,-2.45137262202754,-0.000256481896913113,0
0.32,0.00096838031831538,0.000557514726632191,-0.0482618482455023,-0.0279200065916299,0.000186670416210071,-0.00110169744804294,-0.00919931410532117,0.0549918665271528,-2.45137358817315,-0.000243186131223524,0
0.33,0.000968287044924792,0.000557514949281761,-0.0482600382833697,-0.027920010145195,0.00018660989576641,-0.0011016258288747,-0.00919811097947246,0.0549904811401883,-2.45137446053699,-0.000230988867195992,0
0.34,0.000968201479663516,0.000557514671011905,-0.048258333307423,-0.0279200105631201,0.000186554763144422,-0.00110155981860463,-0.00919698179317194,0.0549891739286119,-2.45137524790225,-0.000219976479138722,0
0.35,0.000968124504376598,0.000557514411819334,-0.0482568031573705,-0.027919987866272,0.000186505169699067,-0.00110150042988472,-0.00919598596414302,0.0549879861021411,-2.45137595854473,-0.000210037096222165,0
0.36,0.000968054888014365,0.000557514177740005,-0.0482554110615574,-0.027919988222888,0.000186460318699784,-0.00110144671870227,-0.00919506406740592,0.0549869187705802,-2.45137659994036,-0.000201066228807025,0
0.37,0.000967992231811774,0.000557513966460987,-0.0482541595059924,-0.0279199654741412,0.000186419950581168,-0.00110139837736957,-0.00919425290781291,0.0549859445237978,-2.45137717883675,-0.000192969503705462,0
0.38,0.000967935479342564,0.00055751377576413,-0.048253015897025,-0.0279199657809829,0.000186383387698153,-0.00110135459100467,-0.00919349580254722,0.0549850676756731,-2.45137770132399,-0.000185661742468665,0
0.39,0.000967884406459563,0.000557513603644549,-0.0482519872513723,-0.0279199400795206,0.000186350482813594,-0.00110131518652539,-0.00919283475027489,0.054984262448493,-2.45137817289868,-0.000179066066608003,0
0.4,0.000967838189576948,0.00055751344829325,-0.0482510488722639,-0.0279199403453246,0.000186320707467839,-0.00110127952863935,-0.00919221367464208,0.0549835429371354,-2.45137859852177,-0.000173113088857919,0
0.41,0.000967796396476547,0.000557513308076688,-0.0482501940148607,-0.0279199405933552,0.000186293782785438,-0.00110124728386094,-0.00919164807210562,0.0549828874371539,-2.45137898267112,-0.000167740183208498,0
0.42,0.000967759060605917,0.000557513181520931,-0.0482494377381295,-0.0279199177513629,0.000186269726740805,-0.00110121847780281,-0.00919116509962857,0.0549822929078069,-2.45137932938799,-0.000162890826073298,0
0.43,0.000967725067332054,0.000557513067294929,-0.0482487364558554,-0.0279199179688405,0.000186247826648853,-0.00110119225079729,-0.00919070121879394,0.0549817551564174,-2.45137964231952,-0.000158514001659876,0
0.44,0.000967694333687193,0.000557512964197886,-0.0482480969359332,-0.0279199181731179,0.000186228026979165,-0.00110116853871987,-0.00919027834917478,0.0549812647417054,-2.4513799247582,-0.000154563665272844,0
0.45,0.000967666626840689,0.000557512871145671,-0.0482475173945919,-0.0279199183651556,0.000186210177048104,-0.00110114716189892,-0.00918989519085372,0.054980820316175,-2.45138017967531,-0.000150998258920487,0
0.46,0.000967641597546578,0.000557512787159455,-0.0482469892596154,-0.0279199185463625,0.000186194052288856,-0.00110112785090608,-0.0091895461372966,0.0549804152952982,-2.4513804097525,-0.000147780274117498,0
0.47,0.000967619279252201,0.000557512711356443,-0.048246522228448,-0.0279198956475474,0.000186179672009925,-0.00110111063142394,-0.00918925501864065,0.0549800424910026,-2.45138061741033,-0.000144875857293955,0
0.48,0.000967598906570949,0.000557512642939185,-0.0482460853505644,-0.0279198958103838,0.000186166547096361,-0.00110109491315533,-0.00918896642816265,0.0549797074355505,-2.45138080483328,-0.000142254453651013,0
0.49,0.000967580629365482,0.000557512581188075,-0.0482456925963948,-0.0279198959646883,0.000186154771347683,-0.00110108081157142,-0.00918870694206524,0.0549794062310397,-2.45138097399323,-0.000139888485720788,0
0.5,0.000967563981974516,0.000557512525453759,-0.0482453266019886,-0.0279198961123534,0.000186144046817249,-0.00110106796751459,-0.00918846540540028,0.0549791255055127,-2.45138112666944,-0.000137753063250417,0
0.51,2.70966630905443,-0.0218014277098646,5.16854633832129,1.09683337680529,-0.310038863801565,2.69195889857321,0.540570879711463,5.25592026498276,0.106621364338057,32.3940598159728,511.24166568032
0.52,2.57751392458027,-0.0134164570698002,4.2811538710596,0.682803470141049,-1.1840133417242,2.28951314461057,-1.33862870492374,4.12341754335884,0.472065253719197,67.0838658449423,511.24166568032
0.53,2.39523909146498,-0.0159833020572405,5.87397944950899,0.817116442738311,-2.13019605484868,1.09530385698844,-4.82735724825347,3.44498706122126,1.08919645922845,101.390157019249,511.24166568032
0.54,2.24186881359622,0.0157067859309816,5.80165646411318,-0.774274192539326,-2.08027609947318,-0.835867112919427,-5.07435500306959,-2.91712864914136,1.95986450202482,135.455147489639,511.24166568032
0.55,2.1024029701147,-0.0166578505373851,6.32095413196985,0.855171800306482,-0.152623443102637,-2.09692198647139,-1.36118507796997,-6.23160935313006,3.06101318452199,164.368962314862,511.24166568032
0.56,1.99456562237181,0.0115723160867365,5.27226172243855,-0.564947307813698,1.87511472898799,-0.679978450819841,5.15628822081096,-1.23636601151231,-1.91287899107808,193.308624351222,511.24166568032
0.57,1.86037842013228,-0.000503094058945108,6.05535647938959,0.0503733409811531,0.720790239736654,1.71507129574776,2.39404735991951,5.56223127930056,-0.398126534323923,219.207500021819,511.24166568032
0.58,1.70954806458625,-0.0332990987570136,7.77091231922878,1.68288096958911,-1.65701150077477,0.421872375735567,-7.04501277968774,3.68604958797127,1.30201867741511,244.725971640066,511.24166568032
0.59,1.60666384560193,0.00800505700601384,7.77233588631942,-0.36902423805717,0.0523041256948245,-1.60583220547396,0.660486334869847,-7.75300856567904,-3.10405044455704,267.372198141283,511.24166568032
0.6,1.47396288150891,0.0285536054330112,9.28767005252035,-1.40243235797303,1.30019605101599,0.694890000915031,7.41999870618492,5.75944882114489,-1.06060031913859,289.30617246449,511.24166568032
0.61,1.37507059693428,0.0202776699154534,9.39950880200008,-0.996049676108689,-1.23917766982828,0.596379940180209,-8.94752119120985,3.04708798839218,1.13698965715896,310.029057022128,511.24166568032
0.62,1.32104837348262,0.0328119869075987,7.61066043011776,-1.62918903849899,0.406874060816724,-1.25725849776425,4.05948938022734,-6.64055382310444,-2.80377664250997,329.237681887814,511.24166568032
0.63,1.20527375185072,-0.021533251052514,9.20950582612882,1.08886184882571,0.365213414203584,1.1488114118022,3.97811486590299,8.37706510664746,-0.325665762880501,347.090295034033,511.24166568032
0.64,1.20420148625351,0.0542292410705517,5.31501410358842,-2.70516320166348,-0.949721535993633,-0.742341588591226,-2.27594046252833,-5.51247475096298,2.27924522806908,363.7415060075,511.24166568032
0.65,1.06424026768897,-0.0374392868673877,8.56155672923339,1.8835141097693,1.00904476620359,0.34034939014045,8.74255763228071,0.644643371044667,-1.28064613884338,379.339051222032,511.24166568032
0.66,0.985198700731966,-0.015711229830514,8.98772800799988,0.793697452997506,-0.985322800105101,0.00151731993473319,-8.97247626498332,0.950726073583302,1.55331048786338,393.866168596349,511.24166568032
0.67,0.91150530092647,0.0169249305654961,9.3289546947557,-0.842289007052149,0.885400032172175,-0.217244447388681,9.28541526328983,-1.23284624202276,-1.79284008108544,407.511695259237,511.24166568032
0.68,0.876393227877255,0.0184767104285442,7.9352042636875,-0.919150676236018,-0.823040732743739,0.301679351202605,-7.80444815407691,1.70378803916301,1.24054059792097,420.157557174064,511.24166568032
0.69,0.82485232914522,-0.0118112761593294,7.55956240284131,0.601442280431019,0.779228853231215,-0.2707826904231,6.89890734118817,-3.14861779783478,-1.91956128404135,431.960058902421,511.24166568032
0.7,0.748238204450313,-0.0346569766807581,8.63480440613615,1.75234608294517,-0.728016683818255,0.17621925182553,-7.79884964408605,4.09981806371703,1.28702522235285,442.86920887795,511.24166568032
0.71,0.69989149459724,-0.0137565217245381,8.42317844896724,0.714573693765594,0.694917992203423,-0.084417594205704,8.24003632213565,-1.88741944380498,-1.71133519723163,453.167208690919,511.24166568032
0.72,0.674747213208975,-0.00555101354953789,7.20249836523127,0.308705803254272,-0.672393435330785,-0.0565834216778251,-7.20521141733149,-0.237087337658407,1.64652415502552,462.818975786624,511.24166568032
0.73,0.616231181760932,0.00172274104624373,7.76788266814686,-0.0879666997251537,0.577285898401654,0.2156034060904,7.23829704728303,2.82042463853418,-1.21056534741581,471.848698383914,511.24166568032
0.74,0.513239428493385,-0.011736574373413,10.7050280354711,0.591705887615317,-0.382370264870632,-0.342557204976048,-8.51917172170667,-6.50933593185466,2.27846589269949,480.114037602934,511.24166568032
0.75,0.485394202731916,-0.0423919008444837,10.0496708664529,2.14300308988212,0.176221612173968,0.454258240107726,6.35899361379035,8.07165082167521,-0.457174378542231,487.713626859399,511.24166568032
0.76,0.446493703372665,-0.0592809790922559,10.0633557676336,2.99474185612498,0.0604796137138237,-0.446332922781415,-2.96771066411268,-10.0713604594863,-3.13890762187964,494.833123156453,511.24166568032
0.77,0.44155069495199,-0.00310639406679734,8.48773107633302,0.151431288001535,-0.21929108192799,0.383259816943461,-4.03133541916894,7.47079948849446,0.512672362415904,501.381061712065,511.24166568032
0.78,0.455964616354936,-0.00353898949535358,6.04984216778515,0.192971974404816,0.401406848351101,-0.216307184141416,5.21050425614407,-3.08033664308328,-2.07281775829088,507.423980455336,511.24166568032
0.79,0.360739831392745,0.0128520619056709,9.19913519067162,-0.619125606948956,-0.360286641085187,-0.0221796687091379,-9.09578679298104,-1.50800112402628,1.66789180311981,513.060214251742,511.24166568032
0.8,0.30750869607412,-0.0180884630448179,10.3337380113949,0.898924060602735,0.215816064492065,0.219800402555787,8.26374487762523,6.26934816008818,-0.835006885659046,518.257985372952,511.24166568032
0.81,0.327753299347697,0.0702857510586386,7.92075739724261,-3.50324685153248,-0.121659669589275,-0.312347941934322,2.19511580819169,-8.37810257978337,2.98141788442179,522.931203068325,511.24166568032
0.82,0.270281195719332,-0.0099886522244734,9.46071847828201,0.491119223875537,-0.149300557371314,0.225523926671536,-4.50829094357356,8.33196885408601,0.547836626118379,527.312648621394,511.24166568032
0.83,0.257356370106591,-0.033897536732109,8.87369809817286,1.69757969287784,0.256526200059906,-0.0396944947539354,8.04059776742142,-4.11984008108634,-1.85527783956071,531.21923194755,511.24166568032
0.84,0.215082569650258,0.00663937270049672,9.82637512078882,-0.311588544559245,-0.193699708304624,-0.0937284163950175,-8.56467472744662,-4.82711945663199,2.05232831005927,534.892657412602,511.24166568032
0.85,0.200312309914641,-0.0521632726976725,9.45075054323543,2.60024451605488,0.00879204566671137,0.206806016486139,5.25417548203618,8.27475663555782,-0.297239703250891,538.243756655413,511.24166568032
0.86,0.223204535121062,0.0117547173358106,7.25931848816739,-0.573734691317755,0.100338376266039,-0.199726433219414,4.09385844634156,-6.02222545492846,-2.62342878562348,541.36822704085,511.24166568032
0.87,0.206880548586953,-0.063747909371498,7.08708466137942,3.1778866194664,-0.215721515201564,-0.0180993152361324,-6.24499036298596,4.61798957663998,1.35559488763457,544.218608203542,511.24166568032
0.88,0.175603771877018,-0.0127490393132203,7.73140597347411,0.643231542413231,0.13302007689052,0.115346789486687,6.57771668198976,4.11363931273758,-0.928910430180341,546.747560488337,511.24166568032
0.89,0.134252883077703,0.0209675586308642,8.95609726752391,-1.03905762211254,-0.0282320461647186,-0.132915110875202,0.550836864870794,-8.9993276279797,3.08722462900583,549.013880815845,511.24166568032
0.9,0.0894323380004673,0.0247787963774933,10.3802422809255,-1.24677185196564,-0.0497640876505658,0.0783305011502793,-8.53928430823201,6.03195601482222,0.836265697922709,551.079260989243,511.24166568032
0.91,0.107737437836016,-0.0296231174952527,8.73379194224238,1.50215027489436,-0.108206061540189,0.0278627501795451,-6.83099877348536,5.64562068291739,1.05044824043891,552.885924833733,511.24166568032
0.92,0.12724766562784,0.0222446292363147,7.05588673321828,-1.12461052512006,0.125952094299996,0.0286855691775619,6.07229988437328,3.76529687268572,-1.17380124384996,554.50589701754,511.24166568032
0.93,0.115347943203797,-0.041693007348544,6.99241526296726,2.10567893862331,0.01244777966181,-0.122018472554786,-3.73997242355561,-6.2721895119155,2.89641407423144,555.980547454659,511.24166568032
0.94,0.0607240435110467,-0.00569132710160039,9.15216818094203,0.26857980565852,-0.0431724440904385,0.0430806306333469,-5.64029818579246,7.21258302549105,0.693011183003293,557.117996260385,511.24166568032
0.95,0.0799764895384946,0.0377730408655238,7.61427270897593,-1.87759738339354,0.0823832729733649,-0.0321875415234762,7.46723760294686,2.39643138894449,-1.50201946552147,558.2647180402,511.24166568032
0.96,0.0643582068841411,0.00048418468788,7.86245707557214,-0.0428568846211748,-0.033939854233548,-0.0546836312140973,-4.05926056642386,-6.73368187781767,2.59364462839664,559.210761355405,511.24166568032
0.97,0.0891558780591417,0.0179777271325923,6.13011175956163,-0.888731259061372,-0.0192970104491361,0.0888796638893083,-3.27318024131185,5.25874552944277,0.412771386712776,560.007436855421,511.24166568032
