t,iq,id,vq,vd,ia,ib,va,vb,theta_e,omega,r
0,0,0,0,0,0,0,0,0,0,0,0
0.01,0.000538169880052859,0.00030605608340004,-0.0261441833316894,-0.0153168683473488,-0.000501361854886379,0.0003632264258657,0.0243068492906628,-0.0180914857215212,1.4609145290025,-0.0014594148898689,0
0.02,0.000610965232951791,0.000346863381960747,-0.0297691782618093,-0.0173591085345642,-0.000569238629422748,0.000411776765243007,0.0276857995297423,-0.0205192379950397,1.46090337490284,-0.00159379919314806,0
0.03,0.00063934255113588,0.000362980076036592,-0.0311654844866275,-0.0181656898899664,-0.000595672261468003,0.00043091529354394,0.0289849764657911,-0.0214744231992894,1.46089186146428,-0.00160150837786412,0
0.04,0.000624587016011435,0.000354849599190008,-0.0304831987888909,-0.0177587904353899,-0.000581892967204689,0.000421221738913248,0.0283512099197547,-0.0209954505123643,1.46088102778917,-0.00149262164969394,0
0.05,0.000639711577627104,0.000363633412120048,-0.0312390214579596,-0.0181983799976907,-0.000595958148310046,0.000431617940339704,0.0290540229434607,-0.0215156047321954,1.46087042303907,-0.00146886955636807,0
0.06,0.00064063033536665,0.000364354651782426,-0.031309881664875,-0.0182344818775277,-0.000596787810105805,0.000432441728532986,0.0291202741910099,-0.0215595605300934,1.4608601853179,-0.00140760948573162,0
0.07,0.000655111093464142,0.000372891299189036,-0.0320322267987987,-0.0186617068966627,-0.000610240276059034,0.000442521492434057,0.0297911724597162,-0.022063746315213,1.46085052121818,-0.00138791908883974,0
0.08,0.0006412396645325,0.000365113159951855,-0.0313888986011512,-0.0182724397913573,-0.000597301958526799,0.000433273928686959,0.0291942365226141,-0.0216065167295377,1.46084106853147,-0.00129011953251922,0
0.09,0.000639709711864485,0.000364470914622116,-0.0313384302726879,-0.0182402901347265,-0.000595847862422359,0.000432472990955423,0.0291474084196198,-0.0215692832188509,1.46083214573021,-0.00123019787045733,0
0.1,0.000639258538543556,0.000364416335880731,-0.0313388255040208,-0.0182375614254567,-0.000595401725033234,0.000432374294778297,0.029147917222834,-0.0215668623654343,1.46082363740373,-0.00117588291305734,0
0.11,0.00063891487625795,0.000364410223682901,-0.0313433876709542,-0.0182372538912741,-0.000595057298808007,0.000432335334391779,0.0291523104445428,-0.0215672941263275,1.46081551682992,-0.00112428683636739,0
0.12,0.000638594265021089,0.000364408175569505,-0.0313480976942199,-0.0182371609795654,-0.000594735498618465,0.000432302718500318,0.0291568350335171,-0.0215679447437444,1.46080776569327,-0.00107505906231152,0
0.13,0.000667356356094362,0.000380961571693571,-0.0327529023528264,-0.0190655853343522,-0.000621503309565318,0.000451917980751084,0.0304620444649897,-0.0225457979164242,1.46080009724795,-0.00110782028205735,0
0.14,0.000689626703845397,0.000394037205625577,-0.0339399039584557,-0.0197199735781648,-0.000642200251438832,0.000467364041327295,0.0315698653975671,-0.0233267665442986,1.46079272945775,-0.00112427021001171,0
0.15,0.000642132871296291,0.000366843314575351,-0.0315760060841408,-0.0183590155192031,-0.000597975793841842,0.000435124800289604,0.029369510034921,-0.0217147298249071,1.4607856320053,-0.00094696384210241,0
0.16,0.000637799725953429,0.000364602826921247,-0.031384059764766,-0.018246899564693,-0.000593912045208122,0.00043242594092161,0.0291908944748714,-0.0215824055841632,1.46077920722624,-0.00089476515025612,0
0.17,0.000637197438758555,0.000364417122595189,-0.0313709142296838,-0.0182375970907359,-0.00059333115146237,0.000432178851756258,0.0291787181433232,-0.0215718940930716,1.46077310483586,-0.000855028069778969,0
0.18,0.000636926944212919,0.000364400669467053,-0.0313730146438936,-0.0182367761273705,-0.000593061583043801,0.000432136250377151,0.0291807704070403,-0.021571478619172,1.46076728261805,-0.000817967844418403,0
0.19,0.000636695100270677,0.000364398205568402,-0.0313762861041874,-0.0182366535442029,-0.000592829010330697,0.000432111637705448,0.0291839156670176,-0.0215718781872029,1.46076172545427,-0.000782668269940462,0
0.2,0.000636476003866078,0.000364396943856615,-0.0313795129698399,-0.0182365891717344,-0.000592609085553259,0.000432089467482259,0.0291870156592755,-0.0215723233739015,1.46075642108356,-0.000748980792296144,0
0.21,0.000636267036287223,0.00036439582914211,-0.0313825992085517,-0.0182365428901709,-0.000592399316689845,0.000432068410494562,0.0291899790895272,-0.0215727640886048,1.46075135798947,-0.000716826182587803,0
0.22,0.000636067730488138,0.000364394772368298,-0.0313855512712968,-0.0182364828999838,-0.000592199244524186,0.000432048333734384,0.0291928156256868,-0.0215731697487703,1.46074652519598,-0.000686134208129335,0
0.23,0.000635877331151792,0.000364393764129738,-0.0313883594683744,-0.0182364380799705,-0.000592008114786029,0.000432029151373905,0.0291955122395443,-0.0215735682962069,1.46074191222753,-0.000656838295578982,0
0.24,0.000635695604753784,0.00036439280167274,-0.031391038927645,-0.0182363918043512,-0.000591825691319762,0.000432010841192758,0.0291980855781049,-0.021573945155497,1.46073750908499,-0.000628874939802841,0
0.25,0.000635522202051813,0.000364391882880402,-0.031393597809965,-0.0182363469829149,-0.000591651623081149,0.00043199336860113,0.0292005432277683,-0.0215743043906018,1.46073330622434,-0.0006021835277124,0
0.26,0.000641542155049231,0.000367919792281963,-0.031693742606163,-0.0184129029267374,-0.000597245912727272,0.00043616353583098,0.0294793924905571,-0.0217828770588931,1.46072934256393,-0.000594333908201964,0
0.27,0.000624032322261058,0.000357926728541039,-0.0308609557647761,-0.0179127885007637,-0.000580938037877936,0.000424309884844971,0.0287064958767965,-0.0211944256129772,1.46072537031795,-0.00052051278832864,0
0.28,0.000623345611793894,0.00035759002333872,-0.0307465018045222,-0.0178959329423469,-0.000580290919558548,0.000423901905176168,0.0285945087152571,-0.0211652040015103,1.46072171312831,-0.000495785630353127,0
0.29,0.000633895541871785,0.00036382872995202,-0.0313541662788636,-0.0182081616211823,-0.000590090197876292,0.000431263795273545,0.0291641232629867,-0.021542395571687,1.46071831546904,-0.000504156118071793,0
0.3,0.000628397963574907,0.000360859400627604,-0.0310969190186022,-0.0180595602932557,-0.000584950863155265,0.00042771017680237,0.028924696336371,-0.0213665166155825,1.4607154431571,-0.000470845343473869,0
0.31,0.000634104929636235,0.000364096734500794,-0.0313798798471499,-0.018221565271158,-0.000590266276715863,0.000431556736055769,0.0291880788592799,-0.0215587187155705,1.46071229133016,-0.000467180551645546,0
0.32,0.000634482016875763,0.00036436269454093,-0.0314059471307384,-0.0182348796733107,-0.000590610544613134,0.000431864316080456,0.0292124597691241,-0.0215749054717782,1.46070923960679,-0.000449209018870854,0
0.33,0.000634404950156222,0.000364384011255919,-0.0314097952003249,-0.0182359469148064,-0.000590530342823841,0.000431878759197566,0.0292161043615175,-0.0215764742333615,1.46070632296624,-0.000430807552234191,0
0.34,0.000634293830473008,0.000364385209847196,-0.0314116592032464,-0.0182360073805903,-0.000590418561699251,0.000431869385963504,0.029217890360793,-0.0215768204782474,1.46070353867078,-0.000413135590645055,0
0.35,0.000634184515103093,0.000364384777135573,-0.0314132803443735,-0.0182359849108045,-0.000590308807938876,0.000431858514185456,0.0292194468114266,-0.0215770539160355,1.46070088099444,-0.00039625819221833,0
0.36,0.000634079914542129,0.000364384234230335,-0.0314148137846957,-0.0182359551576514,-0.000590203804814322,0.000431847978997331,0.0292209194998547,-0.0215772669544127,1.46069834420309,-0.000380147682206456,0
0.37,0.000633980087008784,0.000364383705289752,-0.031416276653255,-0.01823592539589,-0.000590103594169038,0.000431837913519803,0.0292223245336769,-0.0215774688656196,1.46069592280044,-0.000364769907565972,0
0.38,0.000633884625747378,0.000364383199492751,-0.0314176626502651,-0.0182359107385381,-0.000590007768427862,0.000431828285347593,0.0292236538775032,-0.0215776741313257,1.4606936115379,-0.000350091601919943,0
0.39,0.000633793645777625,0.000364382716597557,-0.031418990951288,-0.0182358809578421,-0.000589916439770615,0.000431819109896113,0.029224929804206,-0.0215778549593081,1.46069140540573,-0.000336080954580585,0
0.4,0.000633706682834271,0.000364382255631801,-0.0314202511091217,-0.0182358662775586,-0.000589829144779122,0.000431810338062053,0.0292261385057333,-0.0215780403812986,1.46068929962199,-0.000322707596848765,0
0.41,0.00063362385193381,0.000364381815606169,-0.0314214611861774,-0.0182358350234991,-0.000589745995905526,0.000431801984244267,0.0292273013171979,-0.0215782010323486,1.46068728962213,-0.000309942540952552,0
0.42,0.000633544688816562,0.000364381395570912,-0.0314226095542127,-0.0182358203215915,-0.000589666529919533,0.000431793999099729,0.0292284029467802,-0.0215783686866853,1.4606853710492,-0.000297758117622233,0
0.43,0.00063346925029051,0.000364380994619036,-0.0314237102749969,-0.018235790505857,-0.000589590801584664,0.000431786390464003,0.0292294607611364,-0.0215785135362387,1.46068353974497,-0.000286127916152098,0
0.44,0.000633397072092132,0.000364380611884512,-0.0314247507662401,-0.0182357757841685,-0.000589518347825942,0.000431779108837827,0.0292304588490592,-0.0215786643387452,1.46068179173962,-0.000275026727154425,0
0.45,0.000633328153520177,0.000364380246540456,-0.031425741123656,-0.0182357595971066,-0.00058944916639747,0.000431772155590756,0.0292314089831257,-0.0215788058547211,1.46068012324418,-0.000264430487919164,0
0.46,0.000633262436371846,0.000364379897797709,-0.0314266881366147,-0.0182357448550511,-0.000589383197970675,0.000431765525706413,0.0292323175137747,-0.021578941828283,1.46067853064214,-0.000254316230253845,0
0.47,0.000633199687814072,0.000364379564902459,-0.0314275894085919,-0.0182357301035464,-0.000589320209711845,0.000431759194912547,0.0292331821443909,-0.0215790706509176,1.46067701048138,-0.000244662030699181,0
0.48,0.000633139849639195,0.000364379247135103,-0.0314284509108312,-0.0182357153426271,-0.000589260142419411,0.000431753158065743,0.0292340087389925,-0.02157919307482,1.46067555946688,-0.000235446963007747,0
0.49,0.000633082689016571,0.000364378943809094,-0.0314292693838526,-0.0182357005730784,-0.000589202763387857,0.000431747390773813,0.0292347939899297,-0.0215793088341614,1.46067417445341,-0.00022665105278675,0
0.5,0.000633028147738539,0.000364378654268631,-0.0314300499582162,-0.0182356857949642,-0.000589148013535675,0.000431741887778882,0.0292355429319385,-0.0215794185802909,1.46067285243897,-0.000218255234199652,0
0.51,1.3442721419667,0.02694961513107,0.353535821545009,-1.34822563091716,-0.0104593097131999,1.34450157168513,-1.35753936331077,0.315890496911924,0.0278242167903306,8.50530443320939,138.177771736858
0.52,1.22023648836902,-0.0130411811044362,2.47690565360547,0.65391615617059,-0.162995624229337,1.2093715667378,0.344366125973554,2.53851923913246,0.123282822678472,17.441506044891,138.177771736858
0.53,1.20210993040534,-0.00386613412712204,-0.482992557191313,0.195296721760577,-0.338855754131189,1.15336898244421,0.322209479757443,-0.409394273270975,0.282539712616823,25.9107471046054,138.177771736858
0.54,1.08377366079864,-0.0107381352433915,1.77280285730398,0.539732365706818,-0.530967683968532,0.944856589102539,-0.380019331563184,1.81376026670972,0.502068227570131,33.9227130940772,138.177771736858
0.55,1.02088675630556,0.0192555543495839,1.44488716460657,-0.960922003529013,-0.703300906869219,0.740235354445012,-1.69882549260554,0.353641005801889,0.778677015796807,41.5124311869764,138.177771736858
0.56,0.953251870275262,-0.02953382684988,1.38694288494149,1.48143997910586,-0.867166048566764,0.39696904076362,-0.584556650844887,1.94333952250655,1.1105212678365,48.9827486003263,138.177771736858
0.57,0.888342193404774,0.0145215737680591,1.2188020887929,-0.724094609209781,-0.884821561845797,0.0803338806523745,-1.26912540437996,-0.631753308412394,1.49659888046045,56.3417955718524,138.177771736858
0.58,0.849592891227724,0.0102801666195705,-0.0336673429354145,-0.512844761718957,-0.797507632806009,-0.293079064872545,0.214169526167331,-0.467198730375164,1.9350695026545,63.1408466561288,138.177771736858
0.59,0.791141900804932,-0.00989314472142022,0.109876403414549,0.497130173040906,-0.515071992389352,-0.600586566764346,-0.445851786896219,0.245819887512068,2.4201900811371,69.090095330672,138.177771736858
0.6,0.727438868120464,0.0241756652289042,0.821018508478955,-1.20733526744134,-0.164736418312046,-0.708952524590582,1.02527131594261,-1.0394943809266,2.94650008222754,74.4169672469747,138.177771736858
0.61,0.703367669620781,0.0177448427596014,-0.273391549802894,-0.884488923626518,0.237042503251794,-0.662458911755631,0.726431442950044,0.573899777152023,-2.77274329909412,79.3933266720048,138.177771736858
0.62,0.590465761429232,-0.0347973251104252,3.15091259875896,1.745523145329,0.506234925845734,-0.305919710232942,1.60709638402976,-3.22371563081108,-2.17323832156117,84.1824252987577,138.177771736858
0.63,0.628367716377834,0.00025015588905495,-1.00892053880132,-0.0112135670931892,0.62804474160251,0.0201457714992306,-1.00875290073679,-0.0215402636291224,-1.53833224873336,89.0410391128914,138.177771736858
0.64,0.510709375205453,0.0388372658438905,2.84244279400515,-1.94259137015137,0.415250635018521,0.29983213513179,0.918348082046035,3.31809871293498,-0.869524180714982,93.3122326536186,138.177771736858
0.65,0.54291394909729,0.0149800500367016,-0.530957648081353,-0.746972367074655,0.107424546397479,0.53239076330719,-0.826635345775471,-0.395673787789717,-0.17151929073556,97.0885319219941,138.177771736858
0.66,0.517180549863963,-0.00832512750881337,-0.919232012758169,0.420776385978072,-0.278871154236812,0.43563276763836,0.841062910982946,-0.560939782904631,0.553325212094765,100.675633285256,138.177771736858
0.67,0.428112883538612,0.0146204786376083,1.83748417654203,-0.729825048949871,-0.409166048300748,0.126797256931245,-1.96479379652218,-0.220404260995498,1.30442697583556,104.285616353431,138.177771736858
0.68,0.39493130612905,0.0132649810096409,1.88891838577055,-0.663330196464905,-0.351027815657467,-0.181455694087375,-1.32371047816086,-1.50193548052216,2.08146896477916,107.643568438792,138.177771736858
0.69,0.408875417876485,0.0312896974250191,-0.173549434223274,-1.56361733103722,-0.135516869892808,-0.387031433456089,1.55558035855097,-0.234921927732613,2.88116661711915,110.507210496297,138.177771736858
0.7,0.360655052986521,0.0379389225162966,0.977524158350018,-1.89507364358942,0.159247126049886,-0.325809425786394,2.12495856449262,0.177224981237593,-2.58215721579203,113.18399993316,138.177771736858
0.71,0.305954475721181,0.0435784419465135,2.40364074308314,-2.18140668532152,0.294021555953951,-0.0951763965000051,2.74079454135555,1.7389851151319,-1.74237421366516,115.916504387334,138.177771736858
0.72,0.264944393422687,-0.0266122502960988,3.27996235952778,1.33229261839297,0.187913611016608,0.188658999961933,3.38059509427386,1.05106303784073,-0.883527656431327,118.338855361016,138.177771736858
0.73,0.308781984189154,0.00235936606639756,0.0589645273671203,-0.115209497375966,0.00485059474927969,0.30875289812179,-0.114730011694583,0.0598921379632711,-0.00806825732434247,120.499555897263,138.177771736858
0.74,0.25208908221133,-0.0242163545945643,1.86646153219534,1.21546589630693,-0.210161912757504,0.141305723967955,-0.670684332493853,2.12396292867777,0.883089582951469,122.635832595998,138.177771736858
0.75,0.263068470855074,0.00857259978867961,0.328764142745584,-0.429422625576581,-0.258652619071143,-0.0487578965174038,-0.227668953823196,-0.490567528865675,1.78969257531184,124.673442095165,138.177771736858
0.76,0.221903688013488,0.040671034206314,1.53277995076807,-2.03395042086904,-0.129759946960904,-0.184547381292994,1.20634487794737,-2.24301153083974,2.71004266886055,126.424839547902,138.177771736858
0.77,0.186732813233087,-0.0271747049174884,2.49307152987264,1.36326616598666,0.113549526021269,-0.150712020972584,0.00219914220998207,-2.84146009230449,-2.64041875184579,128.071946843699,138.177771736858
0.78,0.234775944971597,-0.00247130343336426,-0.724478533696715,0.122810970123507,0.233262177011361,-0.0267321614144238,-0.734125601097145,-0.0318006601153795,-1.69542572549369,129.715831254851,138.177771736858
0.79,0.177685095354289,0.00281016005076252,1.42636253326973,-0.139798386886874,0.121782496664663,0.129417593922523,0.857622756936805,1.14827560806451,-0.739198956403101,131.144393312281,138.177771736858
0.8,0.157240893378181,-0.0331492223499632,1.78867528095393,1.66212879961372,-0.0676943210622247,0.145743090363489,1.21682711027728,2.11692304793897,0.227052024881392,132.479268760099,138.177771736858
0.81,0.160014820224108,0.00190984664959694,0.98626322522919,-0.096994599140248,-0.148627487153226,0.0593149244970968,-0.955183033868433,0.264099362952199,1.20301430322986,133.818246634983,138.177771736858
0.82,0.137522928716805,-0.00864834648100444,1.51398495402527,0.433118176122908,-0.107115433328212,-0.0866812192035407,-1.48514848755054,-0.523522459336064,2.18833726945982,134.988528937553,138.177771736858
0.83,0.153690482229526,-0.0167001287704816,0.183793624343479,0.838699598401499,0.0228428591506827,-0.152898209324756,-0.830664582850567,-0.217240565976618,-3.10152654034417,136.009814003769,138.177771736858
0.84,0.12105163352958,-0.0356228931388523,1.28499546857584,1.78106559737512,0.122457345885899,-0.0304415330485052,0.208643997062975,-2.18629268372357,-2.10064590723504,137.070131006905,138.177771736858
0.85,0.13970088894907,-0.012734459612649,-0.138975669400225,0.637456573040133,0.118145758262482,0.0756312411597869,0.170159608378825,-0.629849844704018,-1.09227927811775,138.023300098284,138.177771736858
0.86,0.113677094661678,-0.0444532488910025,0.715685311224076,2.22754771442475,-0.0355378204086859,0.116771728206298,2.27618274636218,0.541448418507206,-0.0773359086594155,138.885054346447,138.177771736858
0.87,0.0809749606552539,0.00926833916841839,1.93448135429844,-0.46596741260897,-0.0601284664536325,0.0550219400420882,-1.83982881241308,0.75787444920416,0.943679078182362,139.685169863449,138.177771736858
0.88,0.109489405040226,-0.0237665649142359,0.105426092054945,1.18960342235616,-0.0916131368369969,-0.0644966090796325,-0.559999970973555,1.05483221219163,1.97045758567712,140.440219676251,138.177771736858
0.89,0.0850102543212103,0.0351990013994547,0.97169086316834,-1.75910928702428,-0.0466456965788443,-0.0793088395448456,1.60739397226553,-1.20620613295752,3.00249459977503,141.118757661391,138.177771736858
0.9,0.112250586287466,-0.00824560736497788,-0.741479637145122,0.410778636009053,0.0929099434176522,-0.0635289428278631,-0.835845844918882,0.141042063350477,-2.24387121325908,141.774375216114,138.177771736858
0.91,0.1014302885242,0.0254018623447098,-0.531137980533846,-1.27106333133708,0.103772385017047,0.0128316074034278,-0.953257077579395,0.994490065651779,-1.20237974859619,142.370012488351,138.177771736858
0.92,0.04950457734409,-0.0170848333836055,1.76563366171732,0.857576635912582,-0.00914588955699959,0.0515649824393814,1.12273671454763,1.61008142143782,-0.156776704670417,142.911584938367,138.177771736858
0.93,0.0924715696632078,0.0125087320264024,-0.673362059799662,-0.628038069288991,-0.0641651348376233,0.0677517161712931,0.130391601530905,-0.91150771269589,0.892671640051487,143.434361493441,138.177771736858
0.94,0.089694881815023,0.00988345714627809,-0.802636200822599,-0.494039931602849,-0.0870794272979976,-0.0236649084178665,0.92782904219594,-0.165630894904449,1.94589703134876,143.909552589118,138.177771736858
0.95,0.0284820349807434,0.00630039613356788,1.98724622154834,-0.312938100640575,-0.0101865122203096,-0.027334159523747,0.0345358665447938,-2.01143855829918,3.0025700956266,144.3806013229,138.177771736858
0.96,0.0484937648474847,-0.00568205137799283,0.791652978685291,0.282219339094136,0.0420360992571566,-0.0248374172608139,0.459208501122584,-0.703910325621648,-2.22110648550321,144.703772794457,138.177771736858
