t,iq,id,vq,vd,ia,ib,va,vb,theta_e,omega,r
0,0,0,0,0,0,0,0,0,0,0,0
0.01,0.000560854691303263,0.000312341202299772,-0.0270307631650799,-0.0156269862941243,0.000132653803444784,0.000628106662791104,-0.00694122065249213,-0.0304414900058589,0.299989253252495,-0.00407361442889889,0
0.02,0.000673711146093099,0.000372144509311566,-0.0326003526946564,-0.018619039254531,0.000156459991656242,0.000753590416069467,-0.00815494171477462,-0.0366462623497457,0.29995751051933,-0.00450896955612619,0
0.03,0.000715037330759384,0.000395078459684771,-0.0346608997241328,-0.019766473090893,0.000166184653254855,0.000799842506190412,-0.00864354737621863,-0.038953568731176,0.299925280361164,-0.00438207687430047,0
0.04,0.000699691121485845,0.000387771048803582,-0.0340092304057545,-0.0194008681023131,0.000163760255279722,0.000783017643841484,-0.00848791045615731,-0.0382227263810851,0.299896187691147,-0.00385868002939101,0
0.05,0.000714623339222087,0.000397510140655036,-0.0347955409899087,-0.0198881403881559,0.000168674791977473,0.000800156011935091,-0.00872218885137303,-0.0391176587044828,0.299869418882246,-0.00360270385348174,0
0.06,0.000715056913032638,0.000399027176495315,-0.0348838455386998,-0.0199640284355954,0.00017001565924819,0.000801014202163727,-0.00876956564865984,-0.0392242250309547,0.299844943997435,-0.00326600690944704,0
0.07,0.000725502455424022,0.00040637824987514,-0.0354419794078168,-0.0203318291394584,0.000173971053810461,0.000813161218476352,-0.00895696313184147,-0.0398659001146979,0.299823262400691,-0.00304587193356189,0
0.08,0.000713261686068914,0.000400405661983405,-0.0349136806055429,-0.0200330081914403,0.000171896349934364,0.000799699050794411,-0.00882829795737312,-0.0392727343815021,0.299803115773312,-0.00267089019872923,0
0.09,0.000709573060551686,0.000399470486891736,-0.0347869633265736,-0.0199862150567324,0.000172106450075796,0.000795895701710039,-0.00882171360459812,-0.0391376925591786,0.299785284493234,-0.00239449077425657,0
0.1,0.000707530164791882,0.000399322112637552,-0.0347335851860528,-0.0199787853443281,0.000172580662847351,0.000793897347610454,-0.00883100246351831,-0.0390843600331496,0.299769323252035,-0.00215685471914041,0
0.11,0.000705916774364,0.000399296827250435,-0.0346961554093744,-0.0199775165205509,0.000173044284520243,0.000792345962427787,-0.00884140235650887,-0.0390480981725188,0.299755004354897,-0.00194537351110793,0
0.12,0.00070450673083019,0.000399290975558307,-0.0346643672341052,-0.0199772400615719,0.000173465225204179,0.000790994837272791,-0.00885102624961802,-0.0390175320919603,0.299742153310933,-0.001755867614096,0
0.13,0.000732378491752659,0.00041561195604623,-0.0360276740047149,-0.0207938012069419,0.000180838737568103,0.000822440821083954,-0.00922912557316057,-0.0405610490985953,0.299729941316255,-0.00180263191254078,0
0.14,0.000749082273184009,0.000425929293153284,-0.0369573372665626,-0.0213099979400991,0.000185773584236283,0.00084144410994705,-0.00944828311197595,-0.0416015713198124,0.29971866280192,-0.00177563946540066,0
0.15,0.000709010011607347,0.000403444304160711,-0.0349724929105293,-0.0201850274188575,0.000176130590391723,0.000796517745092621,-0.00895989833166655,-0.0393729706037435,0.299708351802235,-0.00132118618744871,0
0.16,0.000701341001237744,0.000399932306867408,-0.0346294734157214,-0.020009324189558,0.000175045883719896,0.00078815226237458,-0.00889362389242898,-0.0389932934955872,0.299700073758881,-0.00114661364044542,0
0.17,0.000699374009739823,0.000399382869397689,-0.0345556573919027,-0.0199818351220715,0.000175107367030578,0.000786109465583202,-0.00888943566221721,-0.0389145875763769,0.299692813268834,-0.00103045887128242,0
0.18,0.000698462767258581,0.000399296115302432,-0.0345300688720686,-0.0199774857918499,0.00017529859692057,0.000785212090367824,-0.00889308689560211,-0.038888797877289,0.299686325879751,-0.000933243416201752,0
0.19,0.000697793134731711,0.000399281702979908,-0.0345141546968725,-0.0199767679980823,0.000175487080717925,0.000784567028184554,-0.00889732544437706,-0.0388733293406378,0.299680508047605,-0.000847208274143684,0
0.2,0.000697217915966338,0.000399278674491933,-0.0345010946201549,-0.0199766129894371,0.00017565809381053,0.000784015635256931,-0.00890123576986243,-0.0388607591059149,0.299675286964316,-0.000770197369514363,0
0.21,0.000696705953170729,0.00039927750287797,-0.0344895728615035,-0.019976564606908,0.000175811782689115,0.000783525319664704,-0.00890477293887609,-0.038849694832392,0.299670600775626,-0.00070111080278135,0
0.22,0.000696247382727831,0.000399276692521081,-0.0344792713173774,-0.0199765110779072,0.000175949674788155,0.000783086206677063,-0.00890792623622788,-0.0388397991188548,0.299666394570357,-0.000639106453546903,0
0.23,0.000695835828173017,0.000399276002637531,-0.0344700212999421,-0.0199764783564641,0.000176073462145101,0.000782692124643957,-0.00891077219436147,-0.0388309180273263,0.299662619166398,-0.00058345366433613,0
0.24,0.000695466341848413,0.000399275389106999,-0.0344617087101145,-0.0199764620632755,0.000176184598667878,0.000782338325906892,-0.00891334204659183,-0.03882294086422,0.29965923043791,-0.000533500991522761,0
0.25,0.000695134822823435,0.000399274839177206,-0.0344542479615548,-0.0199764275874472,0.000176284314523775,0.000782020881789377,-0.00891562954440241,-0.0388157752927828,0.299656188780991,-0.000488664472906566,0
0.26,0.000700514414514992,0.000402508897159356,-0.0347179320336191,-0.02013822339037,0.000177788270397991,0.000788114958711363,-0.0089924785476157,-0.0391154467644448,0.299653619528924,-0.000494741285684865,0
0.27,0.000686603050109936,0.000394536910271108,-0.0340621970979304,-0.019739380817336,0.000174280236614282,0.000772469754173074,-0.00880508538268867,-0.0383711727419639,0.299650737698757,-0.000346669824996638,0
0.28,0.000685997920279064,0.000394358356961112,-0.0339414026376855,-0.019730450898049,0.000174289959331759,0.000771838500211283,-0.00883229421023471,-0.0382531055554665,0.299648543644128,-0.000311486045121708,0
0.29,0.000692669328443859,0.000398505696618072,-0.0343623538477665,-0.0199379480519642,0.000176284554258712,0.000779436555938794,-0.00890635443122047,-0.038716533744996,0.29964680479392,-0.000339133957106295,0
0.3,0.00068389382078758,0.000393975403472856,-0.0339450615800075,-0.0197112785502869,0.000174546885622413,0.000769714727267545,-0.00881298149354454,-0.0382509224065505,0.29964631155039,-0.000264131198475941,0
0.31,0.00069213272192176,0.000398445610670812,-0.0343420919311196,-0.0199349426753427,0.000176387066859467,0.00077890577868082,-0.00890953966152424,-0.038696270113467,0.299644847987554,-0.000307778254097788,0
0.32,0.000693425770374389,0.000399143356394628,-0.0344079363327565,-0.0199698496960267,0.000176673228295114,0.000780346902586963,-0.00892351436118439,-0.0387694708631245,0.299643323665964,-0.000296639562073118,0
0.33,0.000693526204817494,0.00039925209160216,-0.0344165560463853,-0.0199752862368985,0.000176748568688893,0.000780474709957782,-0.00892621877464943,-0.0387792987137094,0.299641918866528,-0.000277900242480802,0
0.34,0.000693432158763349,0.000399268879903583,-0.0344155177070897,-0.019976121428312,0.000176793358248332,0.000780389585877424,-0.00892737239006812,-0.038778541857253,0.299640651587582,-0.000259561515881366,0
0.35,0.000693315569072448,0.000399271330951196,-0.0344130476116782,-0.0199762544743877,0.000176831003083462,0.000780278713272564,-0.00892827277324407,-0.0387762109293272,0.299639512997743,-0.000242837186010125,0
0.36,0.000693205630746518,0.000399271560793582,-0.0344105735736956,-0.019976258924532,0.000176864471286673,0.000780173560532339,-0.00892904693462673,-0.0387738393137679,0.2996384908298,-0.000227779912948464,0
0.37,0.000693105746406448,0.000399271459459839,-0.0344082891691484,-0.019976262394951,0.000176894573540945,0.000780077934499238,-0.00892976012255537,-0.0387716495260814,0.299637573318535,-0.000214256832528038,0
0.38,0.000693016122512174,0.000399271320460397,-0.0344062348693697,-0.0199762449288718,0.000176921537733205,0.000779992117197421,-0.00893038173910365,-0.0387696742485463,0.299636749772231,-0.000202117393803756,0
0.39,0.000692935504902185,0.000399271188188409,-0.0344043766810104,-0.0199762453985158,0.000176945784022734,0.000779914921762631,-0.00893095933238463,-0.0387678923909189,0.29963601057217,-0.000191221028259229,0
0.4,0.000692863094572346,0.000399271068285138,-0.0344027005909221,-0.0199762458284958,0.00017696756041789,0.000779845584939521,-0.00893148019994749,-0.0387662851816765,0.299635347080343,-0.000181440619742159,0
0.41,0.00069279832535182,0.000399270960473631,-0.0344012016773368,-0.0199762297047975,0.000176987039849007,0.000779783564339047,-0.00893193031761789,-0.038764842974851,0.299634751543028,-0.000172661907151546,0
0.42,0.000692740001273034,0.000399270863670509,-0.0343998410461455,-0.0199762286129146,0.00017700457974817,0.000779727715736802,-0.00893235161436557,-0.0387635378704375,0.299634217000286,-0.000164782303428102,0
0.43,0.000692687614378459,0.000399270776773506,-0.0343986122228014,-0.019976228947381,0.000177020333886934,0.00077967755238252,-0.00893273324462032,-0.0387623596107525,0.299633737205126,-0.000157709723458706,0
0.44,0.000692640831324909,0.000399270698772729,-0.0343975154142282,-0.0199762127415932,0.000177034404081223,0.000779632754499534,-0.00893305819892405,-0.0387613030403274,0.299633306550362,-0.000151361512563852,0
0.45,0.000692598630770948,0.000399270628758095,-0.0343965147191797,-0.0199762130275871,0.000177047094867641,0.000779592345096849,-0.00893336882991723,-0.0387603435627053,0.299632920002896,-0.000145663481359863,0
0.46,0.000692560795791534,0.000399270565912417,-0.0343956129999577,-0.0199762132922819,0.000177058473026886,0.000779556115876729,-0.00893364869072209,-0.0387594789982058,0.299632573045459,-0.00014054903886783,0
0.47,0.000692526860725383,0.000399270509501597,-0.034394799065524,-0.0199762135379485,0.000177068678475625,0.000779523620993434,-0.0089339012441084,-0.0387586986189166,0.299632261623408,-0.000135958414303609,0
0.48,0.00069249635991121,0.00039927045886706,-0.0343940606768219,-0.0199762137668565,0.000177077850877495,0.000779494414696344,-0.00893413024606909,-0.038757990699291,0.299631982096781,-0.000131837958570637,0
0.49,0.00069246894410021,0.000399270413417353,-0.0343933902317978,-0.0199762125255149,0.000177086095306216,0.000779468162546054,-0.00893433667848496,-0.0387573475178158,0.299631731199155,-0.000128139517278295,0
0.5,0.000692444570995846,0.000399270372621843,-0.0343927944055596,-0.0199761962161475,0.000177093426029165,0.000779444823456067,-0.00893450569288231,-0.0387567714123993,0.299631505998568,-0.000124819867977789,0
0.51,1.94671464526391,-0.0462278960462719,0.957715067438179,2.31504277368634,-0.208407834354404,1.9360787956686,2.22711297568113,1.14743583173447,0.0834892322788327,25.4586368100702,416.814779098528
0.52,1.84175968153478,-0.0302460685877039,1.28446054193964,1.5174406730287,-0.695009549177394,1.70585910196134,0.949450077074885,1.74671395228416,0.370469858755069,52.6198698846305,416.814779098528
0.53,1.75271373744504,0.0241147485939712,0.953679146454905,-1.20048983462713,-1.30394507266515,1.1714581571702,-1.50806270648665,-0.276453668324713,0.852626146429978,78.8124208134168,416.814779098528
0.54,1.6607764592547,0.0414802036965312,0.731452044887185,-2.06743820130248,-1.65714785808735,0.117303160016262,-0.82513151400989,-2.03186633289747,1.52509922584058,104.720952801396,416.814779098528
0.55,1.52320600914959,0.0332224686378028,2.60697736835578,-1.65661178744975,-1.06562546231078,-1.08889974414854,-0.57335851253538,-3.03512003544175,2.38880400662392,130.752698513488,416.814779098528
0.56,1.46392945588304,0.0304996209855984,1.1537071456969,-1.51877980899275,0.391952678860133,-1.41081280693671,1.78648362803815,-0.667988422794728,-2.84977510376122,153.648514597477,416.814779098528
0.57,1.34049166534905,0.0275064043028879,3.46970921757729,-1.36624963798855,1.33440715670772,-0.130506885930096,3.56449780907944,1.09538828591168,-1.6477709162763,174.107142353285,416.814779098528
0.58,1.32387292832525,0.00213490446441539,0.366743945044586,-0.0959681591172113,0.389383810750486,1.26531590367583,0.0155343238082087,0.378773934656326,-0.296926626897961,194.744242928117,416.814779098528
0.59,1.2280794713909,0.0032163779864251,1.25728682639907,-0.152812294366123,-1.14566841938738,0.442304652878005,-1.22875678470361,0.307048082864759,1.20497767038924,214.362926326293,416.814779098528
0.6,1.15818137510457,-0.0307495456849221,1.42289404819191,1.55131838556171,-0.314859411189188,-1.11498573236815,-1.90411303529015,-0.897535377909916,2.83982663555436,231.627105294973,416.814779098528
0.61,1.0710957389421,0.0470186282989652,2.25000410298823,-2.34615072470891,1.05955180785344,-0.163727822502939,2.49280090005316,2.08635695872258,-1.68023974668869,249.320519920003,416.814779098528
0.62,1.0078897790833,0.0287118778034722,2.3648112494077,-1.42469152283968,-0.176547612725232,0.992722075481656,-1.87520689683423,2.02624709121119,0.204481232922951,264.605306292717,416.814779098528
0.63,0.941985777397141,-0.0407153777467477,2.56726909979858,2.04314102468299,-0.737498198241982,-0.587444767100181,-3.27805043011166,0.140289896885021,2.20022621498739,280.042179460015,416.814779098528
0.64,0.8883025492483,-0.0157082200019875,2.49771593655105,0.798159615098275,0.821305459648427,-0.338800102019384,1.97440220172426,-1.72550850959979,-1.97972554500785,293.574248228012,416.814779098528
0.65,0.847654147256283,0.0172594604129368,1.71838302930091,-0.8579434363517,-0.170247967077727,0.830560697384859,-1.21604335683072,1.4866558881181,0.222537610470527,307.252733012287,416.814779098528
0.66,0.798409932898567,0.0327080195276758,1.72646698029989,-1.62326265638141,-0.492194813990849,-0.629501787585254,0.311775201840007,-2.3491415685705,2.51894215898575,319.148499933936,416.814779098528
0.67,0.754504764971041,0.0055729496764225,1.43680808493302,-0.272065917942543,0.741962640482907,0.137112866864255,1.3595037946759,0.538689863369115,-1.38067423188747,330.96072360897,416.814779098528
0.68,0.692858067982536,0.00528982973387482,2.27399523102902,-0.253970615293408,-0.609999819033445,0.32860387314557,-2.12890453367334,0.838642278137894,1.08430861032837,341.722744796963,416.814779098528
0.69,0.621561657874122,0.0277673266986535,3.63718880743412,-1.37960160028512,0.265873838917593,-0.562513129402718,2.91921225865614,-2.57111703065905,-2.65541672945406,351.836476304884,416.814779098528
0.7,0.596159548975164,-0.0346706821792508,2.82260546308456,1.73824998622334,-0.0103027320125007,0.597077982972178,1.85203752764494,2.74928565468106,-0.040837742429899,361.500921257368,416.814779098528
0.71,0.540809078844798,0.00367644015429414,3.68793631330127,-0.171829804168718,-0.262828553100841,-0.472661747604019,-1.61957363727599,-3.31773732625225,2.64090626942777,370.227992724929,416.814779098528
0.72,0.5565107968806,-0.024844864258517,1.01409993586834,1.25250783214302,0.41916850986477,0.366905021309947,1.57419507253502,-0.345086109709235,-0.896401591345454,378.60907131303,416.814779098528
0.73,0.530269204179519,0.015180387576932,0.539480777306732,-0.756501265146071,-0.505429941934442,-0.16111004582059,-0.258817722435279,-0.892382798917873,1.90799249001641,386.541333515782,416.814779098528
0.74,0.44682112320992,-0.00912227730077609,3.08698932245004,0.463045375025277,0.44563889404466,0.0337388233994473,3.107820419846,-0.292175177318451,-1.51564471075395,393.668299779554,416.814779098528
0.75,0.434448098114731,0.0380691555448885,2.13831012278614,-1.89475746500883,-0.421139326440293,0.113296417793433,-2.43613813836166,-1.49255050274225,1.39539799831634,400.36443423464,416.814779098528
0.76,0.380256869861466,-0.0216201133543934,3.34119212828814,1.08574589356349,0.363670146496622,-0.113166872031626,2.74786714701214,-2.18898038499571,-1.92927362484828,406.707777507224,416.814779098528
0.77,0.375431247670892,-0.0030317108644114,2.17879637891576,0.151346518625467,-0.331364667086509,0.176508556181096,-1.84243197165288,1.17281876660793,1.07327921149696,412.593998320931,416.814779098528
0.78,0.334791137294379,0.02372732087684,2.89878064218746,-1.1771395684895,0.263962139875307,-0.207297081695101,3.06043270976043,-0.649875683690977,-2.16577349432859,417.948461953068,416.814779098528
0.79,0.287253015926175,0.0305395111544042,4.0201247115849,-1.52005352526282,-0.209394298245057,0.198999961715306,-4.11530534749965,1.23944637366862,0.916762241446582,422.927963438399,416.814779098528
0.8,0.268503402755755,0.00875054610992846,3.75634317516095,-0.434960398579405,0.203668682766435,-0.175184808156491,3.19882214858916,-2.01664113307402,-2.24857272614337,427.633737822034,416.814779098528
0.81,0.259776564505982,-0.0109467698049154,3.07926119041205,0.546067120816881,-0.210581684280927,0.152509178350355,-2.07702640189193,2.33794784053428,0.901880002324753,431.938490908261,416.814779098528
0.82,0.237022783984313,0.0171620065601809,3.16135092699515,-0.86081025892814,0.181435970120499,-0.153477435941833,3.06179758165186,-1.16641740148192,-2.20062728453264,435.912814376946,416.814779098528
0.83,0.187043902167498,-0.0496312888591662,4.68416977889279,2.49153962817397,-0.184673746455745,0.0578298672129347,-2.6321335279728,4.60663535860776,1.00795424292234,439.416681604445,416.814779098528
0.84,0.202396308387824,-0.021989154730597,2.98384597112986,1.10571780186577,0.190342630500034,-0.0722320675954445,2.15739621520284,-2.3391430497982,-2.04171234900364,442.742528448257,416.814779098528
0.85,0.205041514863938,-0.0108675756898705,1.96275637777332,0.544654995453175,-0.195999151712144,0.0611919892403697,-1.65037608849712,1.19386784405934,1.2152276075075,445.824073927501,416.814779098528
0.86,0.162020927026122,-0.019072400837078,3.2773697891728,0.950686892862053,0.16229831170048,-0.0165467606276242,2.99291409376043,-1.63933630796503,-1.7895744392812,448.667493146468,416.814779098528
0.87,0.151885238965384,0.0521874009789033,3.00979040840684,-2.61580832480996,-0.148343338420602,0.0615378305007214,-3.16673475183611,-2.42344434765819,1.50852771703034,451.171635997584,416.814779098528
0.88,0.1714415273356,-0.0144909843679561,1.27936433936043,0.733334770068542,0.168743263320319,0.0335841779283796,1.35338906212202,-0.585568991961751,-1.45866207938967,453.540130675114,416.814779098528
0.89,0.14997135986957,0.0412705038658906,1.65734415961725,-2.05885514403364,-0.155454339012669,-0.00534899547640617,-0.967667730135637,-2.45953112027177,1.87373367847024,455.62716869719,416.814779098528
0.9,0.120850667259803,0.0336536974852814,2.46202301231137,-1.68208932130994,0.121950489833763,0.0294199449502498,1.33205796528187,2.66769626740842,-1.06248195616872,457.515280409598,416.814779098528
0.91,0.0905798433003783,-0.0148027909975211,3.36466083103674,0.737886831168413,-0.0578623899002741,-0.0712444697409282,-3.00492405951251,-1.68399847983525,2.2974862512448,459.201522365074,416.814779098528
0.92,0.125981353354879,0.00097956233413065,1.00846940378039,-0.053941030994216,0.0733735168186573,0.102413807492718,0.536847060272022,0.855403651537204,-0.613900309010246,460.759806373922,416.814779098528
0.93,0.129821425110004,-0.0169566153325408,0.284839546957065,0.845406187727109,-0.0315440039022664,-0.12706732482799,-0.891064336974599,0.0430062452442357,2.76838547334348,462.038440462832,416.814779098528
0.94,0.10144312600352,0.00914665206706539,1.19642244537214,-0.450513263447052,0.0215646201453424,0.0995456489023457,-0.299808599319945,1.24278062106945,-0.123411897971232,463.253230851491,416.814779098528
0.95,0.0236613495352387,-0.000179196919106193,4.59078402746469,0.0130714153939512,0.00336265860598898,-0.0234218722664121,0.605020442881901,-4.55076027850515,-3.00657114605555,464.330644771466,416.814779098528
0.96,0.0675027535916638,-0.00173020029201392,1.97881265618144,0.0879333615749961,-0.0278878730672748,0.061497007010837,-0.689818668533803,1.85676654668377,0.40012102145629,465.144668067206,416.814779098528
