t,iq,id,vq,vd,ia,ib,va,vb,theta_e,omega,r
0,0,0,0,0,0,0,0,0,0,0,0
0.01,0.00126067566359317,0.000718193313845668,-0.06254484754578,-0.0359667969386202,-0.00118136678245205,0.000842304748976048,0.0585761306020708,-0.0421225042018865,1.46923810657225,-0.00154825845953485,0
0.02,0.00139513428837745,0.000795462930115053,-0.0693011639058013,-0.0398364299709121,-0.00130728807847269,0.000932823046283094,0.0649047845774926,-0.0466579190542762,1.46922670600617,-0.00163948119110185,0
0.03,0.0014394204280203,0.000820853730396088,-0.0715112316747324,-0.0411080011031582,-0.00134876038008574,0.00096258893221265,0.0669739761358698,-0.0481477988166276,1.46921517885022,-0.00161429407890473,0
0.04,0.00141315413650489,0.000806522298640533,-0.0702332768423223,-0.0403902727056034,-0.00132407278359131,0.000945681815135543,0.0657748908656529,-0.0473048732886449,1.46920459722542,-0.00150544920678655,0
0.05,0.00143826888063274,0.000821026389391522,-0.0714939541153504,-0.0411166444916092,-0.00134757702944038,0.00096267224682053,0.066954899140668,-0.0481560526866579,1.46919416344223,-0.00146347378437526,0
0.06,0.00143801381437927,0.00082126225428692,-0.0715001125253117,-0.0411284567862783,-0.00134728977068387,0.000962894435788608,0.0669593482217482,-0.0481690952216425,1.46918420930031,-0.00139240829885092,0
0.07,0.00147805865137229,0.000844433453064967,-0.0734964875286339,-0.0422888441618715,-0.00138476836490937,0.000990021115480842,0.0688272557384789,-0.0495266482522663,1.46917485220066,-0.00137720937043055,0
0.08,0.00143742564292665,0.000821641640427953,-0.0715057236646582,-0.04114745094718,-0.00134664841727678,0.000963236992891245,0.066962116593635,-0.0481897932923298,1.46916580044759,-0.00126083279254844,0
0.09,0.00143612056707071,0.000821258066236139,-0.0714572525525353,-0.0411282357160066,-0.00134538080904544,0.000962734425048596,0.0669154357188226,-0.0481663282597744,1.46915730141719,-0.00119876282817106,0
0.1,0.00143553467369983,0.000821247366295862,-0.0714434917656969,-0.0411277171551287,-0.00134479126522135,0.0009626751731642,0.0669014103229001,-0.0481649554227389,1.46914924071716,-0.00114072952131871,0
0.11,0.00143499096587232,0.000821243088491792,-0.0714310344288051,-0.0411274729507223,-0.0013442434372964,0.000962626024900776,0.0668886737868536,-0.0481639598654162,1.46914159431359,-0.00108569359599873,0
0.12,0.00143447464606247,0.000821239127550104,-0.0714191886904739,-0.0411273030875048,-0.00134372320292555,0.000962579435025914,0.0668765570930629,-0.0481630738619878,1.46913434088807,-0.0010334864325258,0
0.13,0.00150281786026284,0.000860390070387501,-0.0748099007756948,-0.0430879597498158,-0.00140773294276328,0.00100847437062398,0.0700504161922938,-0.0504582274833101,1.4691271029694,-0.00106959751966354,0
0.14,0.00159834438116849,0.00091592446303388,-0.0796414876565478,-0.045869078573378,-0.00149712246357342,0.00107342755314955,0.0745744209141661,-0.0537158698210833,1.46912030470533,-0.00114365466856745,0
0.15,0.00143590107989998,0.000822802617552264,-0.0715284057354228,-0.0412055887143826,-0.00134496377576554,0.000964307264613982,0.0669762733692767,-0.0482534161890538,1.46911378460946,-0.000889230609054347,0
0.16,0.00143264857119716,0.000821250906212251,-0.0713786710793413,-0.0411278684431598,-0.00134187996568618,0.000962441238309,0.0668349205054631,-0.0481612878644153,1.4691079541098,-0.000843629827709172,0
0.17,0.00143220578145803,0.000821222136947098,-0.0713671977199974,-0.0411264438951421,-0.00134143706702181,0.00096237507962004,0.0668233849653368,-0.0481590751534939,1.46910242947241,-0.000803802078394858,0
0.18,0.00143183191094232,0.000821218845763951,-0.0713585940516941,-0.0411262851878794,-0.00134106041895407,0.000962340878558817,0.0668145894807189,-0.0481583939818623,1.46909718887573,-0.000766081309180575,0
0.19,0.00143147841312866,0.000821216122529589,-0.0713504892318641,-0.0411261497738114,-0.00134070424023025,0.000962308945913159,0.0668063008814687,-0.0481577685465076,1.46909221761507,-0.000730300204442196,0
0.2,0.00143114307610004,0.000821213545612912,-0.0713427997884498,-0.0411260143716457,-0.00134036635978699,0.000962278656792609,0.0667984378224324,-0.0481571681500716,1.46908750184625,-0.000696358043397332,0
0.21,0.00143082496853021,0.0008212111009948,-0.0713355045671579,-0.0411258760686726,-0.00134004583984867,0.000962249920795448,0.0667909789210197,-0.048156588635811,1.46908302843867,-0.000664160297745943,0
0.22,0.00143052299970955,0.000821208781792498,-0.0713285729846845,-0.0411257747894123,-0.00133974158401053,0.00096222263747226,0.0667838890972247,-0.0481560674589456,1.46907878493626,-0.000633617315144868,0
0.23,0.00143023651412378,0.000821206581580688,-0.0713219950884369,-0.041125673502361,-0.0013394529293893,0.000962196750106126,0.0667771616400378,-0.0481555675671887,1.46907475952367,-0.000604644051126949,0
0.24,0.00142996532191931,0.000821204494264703,-0.0713157829539718,-0.0411255381132488,-0.00133917967690961,0.000962172248739596,0.0667708114843427,-0.0481550570258686,1.46907094099207,-0.000577159831981035,0
0.25,0.00142970731510454,0.000821202514060319,-0.0713098517352011,-0.0411254709005371,-0.00133891971980137,0.000962148928123622,0.0667647433236065,-0.0481546296862538,1.46906731870924,-0.000551088130116893,0
0.26,0.0014431777090008,0.000828951612340606,-0.0719818887595919,-0.0415135328910834,-0.00135153021234873,0.000971230539299232,0.0673937311326267,-0.0486091629893022,1.46906390943864,-0.000544115775945977,0
0.27,0.00139021742149232,0.000798841072786603,-0.0693712864075006,-0.0400056000711436,-0.00130189852012784,0.000935901587711303,0.0649496092787843,-0.0468441209696267,1.46906053172664,-0.000452269865169751,0
0.28,0.00137645404521933,0.000790764692122463,-0.0686063421149253,-0.0396011565072359,-0.00128902365786137,0.000926473176288378,0.0642295509644594,-0.0463642810577785,1.46905741064075,-0.000412459407262337,0
0.29,0.00142788212512277,0.000820689476578966,-0.0712435974193827,-0.0410997519473355,-0.00133714383699208,0.000961470196837461,0.0667008312717687,-0.0481231637680091,1.4690545987406,-0.000458355640590499,0
0.3,0.00142340644532947,0.000818321422451762,-0.0710267538269935,-0.0409811550132178,-0.00133292962138725,0.000958662862260451,0.0664970446105657,-0.0479833083840428,1.46905230904753,-0.000436350689742892,0
0.31,0.00142835940097647,0.000821145080648183,-0.0712764873139909,-0.0411225671941872,-0.00133756761572767,0.000961978531562518,0.066730995825087,-0.0481495313856134,1.46904965578474,-0.000423840179819817,0
0.32,0.0014282697342849,0.00082119067873784,-0.0712768107056665,-0.0411248509884073,-0.00133747134918835,0.000962018167614552,0.0667309638410262,-0.0481520049223059,1.46904712763005,-0.000405758954101419,0
0.33,0.00142810066882638,0.000821190148189384,-0.0712729659154734,-0.0411248243703078,-0.00133730090473838,0.000962003674614377,0.0667270261517925,-0.0481517479518126,1.46904472920974,-0.00038849812890236,0
0.34,0.00142793854525347,0.000821188916708907,-0.0712692314812185,-0.0411247910403103,-0.00133713755611945,0.000961989023825668,0.0667232048662642,-0.0481514872709787,1.46904245404997,-0.000372122495203695,0
0.35,0.00142778519579401,0.000821187736352312,-0.0712657103163712,-0.041124720733515,-0.00133698304359123,0.000961975158106222,0.0667196051348905,-0.0481512036500732,1.46904029581905,-0.00035658843349777,0
0.36,0.00142763964616437,0.000821186616405147,-0.0712623652837033,-0.0411246533203488,-0.00133683639117519,0.000961961995867279,0.0667161856730623,-0.0481509333843521,1.46903824850784,-0.000341852725065859,0
0.37,0.00142750138773077,0.000821185553965991,-0.0712591819353666,-0.0411246199240798,-0.0013366970876702,0.000961949490269483,0.0667129286713262,-0.048150706350917,1.46903630641575,-0.000327874340108569,0
0.38,0.00142737050642972,0.000821184546087301,-0.071256175015705,-0.0411245524750648,-0.00133656521365721,0.000961937654424396,0.0667098554519484,-0.04815045669278,1.46903446413514,-0.000314614356936123,0
0.39,0.0014272459850031,0.000821183589969034,-0.0712533035167708,-0.0411245190386528,-0.0013364397524829,0.000961926389140746,0.0667069180575243,-0.0481502483013361,1.4690327165363,-0.000302035854181487,0
0.4,0.00142712837504194,0.000821182682955469,-0.0712506044277662,-0.0411244486453868,-0.0013363212484669,0.000961915754383753,0.0667041602610506,-0.0481500146581197,1.46903105875329,-0.000290103808003603,0
0.41,0.00142701642646905,0.000821181822525671,-0.0712480241298607,-0.0411244151710718,-0.0013362084538088,0.000961905626882891,0.0667015209937361,-0.0481498241190357,1.46902948616993,-0.000278784994569196,0
0.42,0.00142691018224659,0.000821181006289182,-0.0712455732344061,-0.041124381677931,-0.00133610140727412,0.000961896014530278,0.0666990143535362,-0.0481496413087164,1.46902799440767,-0.000268047897542199,0
0.43,0.00142680952595924,0.000821180231977248,-0.0712432538931724,-0.0411243481662434,-0.00133599998927992,0.000961886908842346,0.0666966422809616,-0.0481494667242627,1.46902657931288,-0.000257862620328894,0
0.44,0.00142671399194572,0.000821179497437542,-0.0712410504479897,-0.0411243146376231,-0.00133590373299801,0.000961878265679933,0.0666943890088649,-0.0481492990403955,1.46902523694501,-0.000248200802833425,0
0.45,0.00142662334737539,0.000821178800628665,-0.0712389584600576,-0.0411242810924938,-0.00133581240341088,0.000961870064391305,0.0666922499413353,-0.0481491380567785,1.46902396356669,-0.000239035542492386,0
0.46,0.00142653747583291,0.000821178139613233,-0.0712369789463667,-0.0411242475312678,-0.001335725881488,0.000961862295995374,0.0666902259192505,-0.0481489841144899,1.46902275563199,-0.000230341319366556,0
0.47,0.00142645602806729,0.000821177512553341,-0.071235100917068,-0.0411242110445605,-0.00133564381673412,0.000961854927706211,0.0666883061432205,-0.0481488334277219,1.46902160977785,-0.000222093925081803,0
0.48,0.00142637865484261,0.000821176917705957,-0.0712333130696814,-0.0411241774542626,-0.00133556585882543,0.000961847926599398,0.0666864786240567,-0.0481486908533986,1.46902052281338,-0.000214270395422633,0
0.49,0.00142630547256918,0.000821176353416448,-0.071231627064476,-0.0411241438493367,-0.00133549212082442,0.000961841306924916,0.0666847551116756,-0.048148554882669,1.46901949171226,-0.000206848946391726,0
0.5,0.00142623601558572,0.000821175818116439,-0.0712300251501192,-0.0411241102315043,-0.00133542213687489,0.000961835023669618,0.0666831178081393,-0.0481484239057245,1.46901851360342,-0.000199808913553172,0
0.51,2.47731273628682,-0.0707200610093885,5.80863300817514,3.54350568877027,-0.167838821270291,2.47263217047596,3.31293356168411,5.9431575114476,0.0392353058376949,12.0004014502232,436.874952825208
0.52,2.3930003614891,-0.0718632017243039,6.88011606684502,3.60271130799898,-0.488173063714512,2.343779449887,2.34737998636431,7.40306241103363,0.17532707834669,25.0568424758688,436.874952825208
0.53,2.34313575592406,0.0371278108588108,6.27446773026426,-1.85350442189156,-0.891882186833011,2.16707402038762,-4.18224413450398,5.03122827344438,0.406276502301353,37.9228395524291,436.874952825208
0.54,2.29029063400759,0.0225571456831206,5.82606896980795,-1.121339859349,-1.51212775859109,1.72029347924781,-4.72418514850027,3.58922796765731,0.730936365999928,50.6908094546261,436.874952825208
0.55,2.2661953034635,0.05232015701902,3.82337651229697,-2.60957002725367,-2.04736404919758,0.972974307124186,-4.55561877912886,-0.821219350218501,1.15024128289938,63.7953566010569,436.874952825208
0.56,2.23108338020435,-0.0739956973555065,2.25550802025506,3.71199465663674,-2.21363406353955,-0.288153857146766,-2.60193844327255,3.47795012870441,1.6670871104358,77.1050822066494,436.874952825208
0.57,2.12835526797169,0.0906989513512002,4.41043693508439,-4.53418904178002,-1.67797261674889,-1.31245203490259,-0.412148185643215,-6.31196943101166,2.27715628706153,89.1030217199974,436.874952825208
0.58,2.02771531498619,0.092001486164458,6.74531798499676,-4.59482582630082,-0.4344210628676,-1.98276877427072,3.38480936312277,-7.42662808198163,2.97124357965957,100.19149377669,436.874952825208
0.59,1.94742039935626,0.0976456374486843,8.03241262489956,-4.87354952108517,1.02695900714521,-1.65750899846275,8.57623536730813,-3.83657717707444,-2.53680148703311,111.407815009535,436.874952825208
0.6,1.88632104396449,-0.012802885577939,8.16990050067858,0.648915397843736,1.87706813771688,-0.187045986726541,8.0552267935834,-1.51052530216573,-1.67690352095065,123.092713764413,436.874952825208
0.61,1.86753377897172,-0.0928827030438155,6.53734570158179,4.66620251777517,1.18483234136772,1.4465413699491,7.84704326069477,1.71296433811857,-0.735961517307217,133.459057193814,436.874952825208
0.62,1.830971617836,0.0315018711046527,5.85315742601786,-1.55714886746369,-0.475246247803563,1.76849948746182,-3.11265507095808,5.19572351635751,0.279729672539981,143.786805887717,436.874952825208
0.63,1.66471559419022,0.0114965716862075,11.5104139878371,-0.566452263277014,-1.63012624733109,0.337784840487094,-11.3979445211537,1.70216304467883,1.37337994895935,154.321071331364,436.874952825208
0.64,1.67699072202998,0.0352043206400852,8.55014790430334,-1.74258111290275,-0.978600781721234,-1.36230603609503,-3.4051578720212,-8.03408476350108,2.53965228753838,163.848155501798,436.874952825208
0.65,1.63832721939373,-0.0480429120497962,8.01334421043522,2.41416373047644,1.01102803002704,-1.29005679010819,2.81300587132858,-7.88218687423322,-2.50618097562078,173.758945240047,436.874952825208
0.66,1.61470175919789,0.054327486538607,6.9686710790253,-2.70015457681614,1.52426951799326,0.535551756104828,5.51305416742878,5.04573533722697,-1.19928670276117,182.716060538563,436.874952825208
0.67,1.52803095719369,-0.019624246231352,8.9820609504211,0.990365583690094,-0.283546508656255,1.50162082251521,-0.577675966685131,9.01801160921585,0.173787416615095,192.021660961108,436.874952825208
0.68,1.46760431905983,0.118900294953538,9.90242494042479,-5.93304290446624,-1.47129556312516,0.0573505308722406,-9.64533801893113,-6.34243425725059,1.61267646564843,200.446064450655,436.874952825208
0.69,1.56875229649534,0.0163173238616994,2.62967145449935,-0.807429025131904,-0.0589982065223934,-1.56772741075882,0.735574720170671,-2.65066848554851,3.1143785457603,209.289088527727,436.874952825208
0.7,1.43137768252695,-0.0887374161187089,7.51677247066938,4.46952613718654,1.43358781836931,0.0392729688049848,7.35800315796803,-4.72634338512758,-1.60532346733002,217.261717542049,436.874952825208
0.71,1.42697055863728,-0.00180891292909879,5.64977703225714,0.104322067517221,-0.0279744246100114,1.42669747282012,0.000706717572127771,5.65074004963435,0.0183376469630381,225.515912855885,436.874952825208
0.72,1.29887996153701,-0.0779301717851161,10.1312436072081,3.91099774355368,-1.27816101845908,-0.243857903395608,-10.5491436312424,2.57945130329961,1.69939265676001,233.308358317725,436.874952825208
0.73,1.30213329037963,0.0041431523382971,8.0605624764475,-0.184797752740879,0.376161037442943,-1.2466238989912,2.52981842018819,-7.65551019900098,-2.84535499956599,240.783887288944,436.874952825208
0.74,1.25046934209157,-0.00156374445797625,8.73909100911871,0.0874771594071726,1.08558230851796,0.620634411099209,7.63548733184728,4.25190511703603,-1.05269128300538,248.310402834535,436.874952825208
0.75,1.22300061779178,-0.0244571011673396,8.34003599359545,1.23971211170997,-0.888624436106935,0.840639799480264,-5.07301013694277,6.73480917657389,0.793144675714792,255.425121472953,436.874952825208
0.76,1.2307011040048,-0.0794009679410146,6.19562625064408,4.0011387592421,-0.464149139702074,-1.14258273101882,-6.29881588011204,-3.83664104612717,2.69130127121063,262.292593669573,436.874952825208
0.77,1.20688831673769,0.0209451542915247,5.63329108896934,-1.03631377309293,1.20216902096044,-0.108663487930606,5.69374170510968,0.623875087544161,-1.64358795085948,269.185666302255,436.874952825208
0.78,1.10232186597358,0.0304524381111373,9.19350079454793,-1.52171483378109,-0.352840359953852,1.0447700835964,-4.60874271859005,8.09910880582216,0.353312565045724,275.784056629183,436.874952825208
0.79,1.12428822121965,0.122451582407263,6.50303195598812,-6.10461147122481,-0.851187763457193,-0.744646080865285,0.0912677977298184,-8.91893356990116,2.39801816221384,282.051599277167,436.874952825208
0.8,1.11581347223042,-0.0229420627299522,5.32865014074859,1.17254616387863,1.09318587594953,-0.224745820156171,4.93664317625517,-2.32355997969919,-1.79411701982576,288.261400893384,436.874952825208
0.81,0.993404805343764,0.00783619143900544,9.89219499034861,-0.380780743067879,-0.325307581056625,0.938663672932663,-3.67168807821129,9.19343365439108,0.341499090976892,294.325118815082,436.874952825208
0.82,1.02170086020659,-0.0723060462003167,6.98357429991795,3.62526320126817,-0.535954547857196,-0.872842216380027,-7.012966939503,-3.56807202651257,2.52026562537769,300.191790921202,436.874952825208
0.83,0.985778553523529,0.0138088561595147,7.33860813697294,-0.689515244041647,0.985766699683387,0.0146306148434963,7.315666414885,0.900902639542625,-1.54194839784682,305.837143239936,436.874952825208
0.84,0.887585582617902,0.0412232855280995,10.8493321770378,-2.03770495228533,-0.554292049221537,0.69445507407656,-8.68607334371052,6.81266321110603,0.720034016446354,311.249002152446,436.874952825208
0.85,0.958003030982822,0.0605870156432712,5.94174105172811,-3.00863889313065,-0.174627075052156,-0.943899347650776,2.27708893356582,-6.25867883052658,3.02181396850689,316.601321379971,436.874952825208
0.86,0.917340953724179,-0.0867366698155943,6.61404861988014,4.36304402556458,0.677865791150054,0.624127907130258,7.90585744392205,0.528403625588957,-0.920920289186183,321.832275163585,436.874952825208
0.87,0.904523696241835,-0.00198202348925858,5.94186576550109,0.111318579778147,-0.898898070813789,0.100743752994177,-5.89079148564199,0.785325584789827,1.45699611432379,326.887818122566,436.874952825208
0.88,0.91596282928831,-0.0353168501094595,4.09122644363972,1.77507130064165,0.636878882709506,-0.659257516679326,1.40386800853803,-4.23298553625004,-2.41199641011929,331.828106594413,436.874952825208
0.89,0.816950840110262,0.016974485130471,7.79131509937098,-0.849700496043906,-0.0138942371061634,0.817009032066075,-1.14337574916695,7.7536619610917,0.0377794475028856,336.618654096489,436.874952825208
0.9,0.823353137997616,-0.0231924505476757,6.27132150594579,1.16004165566758,-0.459238120923105,-0.683775275879396,-4.58615597574566,-4.43196834825729,2.52200683254913,341.232058319182,436.874952825208
0.91,0.828695566258206,-0.0109827970036009,4.84277966257452,0.548489863052857,0.781208798909417,0.276712442569062,4.76216384256007,1.03689513776981,-1.24362768437379,345.681524420437,436.874952825208
0.92,0.740071377651362,0.0624390099852201,8.14007186295338,-3.11988123288054,-0.69796553732786,0.253866860163651,-8.67276541170365,-0.881798704287115,1.30611744025262,349.996526130988,436.874952825208
0.93,0.673971303414586,0.016254145516008,10.3484983493357,-0.789588511678603,0.445203382535122,-0.506256321690996,7.59945190426311,-7.06846509921145,-2.39616199779547,354.149460658509,436.874952825208
0.94,0.629624535688265,0.0223924148891363,11.47396447561,-1.09655105242911,-0.112552317768158,0.619887451034659,-3.52102298973243,10.9752759465956,0.21516196740863,358.273466742711,436.874952825208
0.95,0.727068244109503,-0.00247991695608046,5.55892486107893,0.151489019464015,-0.202372761611939,-0.698340638183217,-1.71082682334485,-5.29128208609817,2.85611729025831,362.18975506915,436.874952825208
0.96,0.603182196532582,0.0243087673981546,10.7400440402123,-1.1925499463551,0.432218661505992,0.421434107580599,6.51527856423773,8.62101308377592,-0.757751838239369,366.006752302506,436.874952825208
0.97,0.630723374541681,-0.0465018771643215,8.38277653527723,2.35452166858738,-0.571726271415516,-0.270376534385593,-8.66845595928304,-0.820113413018164,1.93894542953909,369.68324477748,436.874952825208
0.98,0.624370837879857,-0.072757178052581,7.73521157724129,3.66948849995913,0.627228522786799,0.0414358583313978,7.54198602724847,-4.05180092808233,-1.62083595578463,373.296339742549,436.874952825208
