t,iq,id,vq,vd,ia,ib,va,vb,theta_e,omega,r
0,0,0,0,0,0,0,0,0,0,0,0
0.01,0.000555137817734533,0.000304992687571732,-0.0269448134234212,-0.0152608383189431,-0.000227223659490555,-0.000591242712191033,0.0114819601733153,0.0287590115824293,-3.00612270413071,-0.00156741599133231,0
0.02,0.000651620289144405,0.000355595469450239,-0.0317789480981132,-0.0177928394137984,-0.000264340461021165,-0.00069367229999856,0.0133382837837666,0.0338906603997547,-3.00613449285903,-0.0016302541213687,0
0.03,0.000684927166705657,0.00037505835516476,-0.0334868810425066,-0.0187666942676926,-0.000279135409599642,-0.00072929926407338,0.0140729753647993,0.0357143021781721,-3.0061458119128,-0.00150560860467417,0
0.04,0.000666229015468688,0.000367265738342244,-0.0326800029302809,-0.0183767781749309,-0.000273945859193672,-0.000709717471845728,0.0137959209955553,0.0348620299394367,-3.00615542941531,-0.0012531738872421,0
0.05,0.000678979847535715,0.000376516266057302,-0.0333730540758157,-0.0188396445299328,-0.000281396130021585,-0.000723598196497359,0.0141612714883308,0.0356111125099362,-3.00616388488291,-0.00112224489109684,0
0.06,0.000677551496655991,0.000377673619838032,-0.0333744449883505,-0.0188975547492231,-0.000282741053248952,-0.000722337103124302,0.0142187258884506,0.0356202047704589,-3.0061712466542,-0.000969186573070976,0
0.07,0.000687652524155835,0.000385346190810998,-0.0339183073748619,-0.0192814621513704,-0.00028898417741138,-0.000733379728351081,0.0145259157828367,0.0362108288850211,-3.00617740640133,-0.000876337762776677,0
0.08,0.00067360226097952,0.000378777181282826,-0.0332956032004091,-0.0189527741990004,-0.000284376071199621,-0.000718569696818863,0.0142844987291184,0.0355493732486974,-3.00618291178714,-0.000721400856390358,0
0.09,0.000669495766319464,0.000377952849303853,-0.0331419347594796,-0.0189115315322404,-0.000284116924607949,-0.000714388207187037,0.0142645406566727,0.0353914784143112,-3.00618750017803,-0.000615976950820377,0
0.1,0.000667153975124659,0.00037784856631445,-0.033066446275588,-0.0189063092993003,-0.000284332491295445,-0.000712052666580391,0.0142696940624186,0.0353159203756908,-3.006191394008,-0.000530074599477763,0
0.11,0.000665329006961405,0.000377834658797171,-0.033010281174383,-0.0189056160001392,-0.000284567414075706,-0.000710241581251682,0.0142767056016997,0.0352601284274312,-3.00619470889119,-0.00045747045641796,0
0.12,0.000663799443062177,0.000377832199738583,-0.0329636351531481,-0.0189054869680817,-0.000284773446261388,-0.000708724880382624,0.0142829736747934,0.0352138515788223,-3.00619753245347,-0.000395704852370655,0
0.13,0.000691715946887138,0.000393998279487096,-0.0343303901680309,-0.0197143942721685,-0.000297025335158397,-0.000738567224896152,0.0149000891868948,0.0366772459820843,-3.00620021411062,-0.00042860934657591,0
0.14,0.000709327676055414,0.000404952927606941,-0.0352892309376863,-0.0202625163616079,-0.000305504318827686,-0.000757495700828222,0.0153138613723382,0.037701260447717,-3.00620259601663,-0.000435436201966379,0
0.15,0.000667029273855209,0.000381228629433963,-0.0331868882529715,-0.0190754304152936,-0.00028770792515384,-0.000712381547966803,0.014421480623221,0.0354578974852992,-3.00620469367424,-0.000261217640395186,0
0.16,0.000660214670971105,0.000378255325314071,-0.0328728646120127,-0.0189266613081458,-0.000285682622911931,-0.000705227581607595,0.0143165076677587,0.0351266472107997,-3.00620610329485,-0.000211517031034375,0
0.17,0.000658706093334942,0.000377882441873113,-0.0328112609021077,-0.0189080052270003,-0.00028551757535094,-0.000703682152280622,0.0143063773214159,0.0350630727630613,-3.0062072486362,-0.000183693854547407,0
0.18,0.000658052832495522,0.000377835468180081,-0.0327890604178447,-0.0189056527156135,-0.000285559883752601,-0.00070302825274767,0.0143070766882811,0.0350407440606517,-3.00620821617089,-0.000162126390064684,0
0.19,0.000657589272125815,0.000377829371725603,-0.0327745995638645,-0.0189053441772291,-0.000285616988632488,-0.000702567876263947,0.0143087516001326,0.0350263621102286,-3.00620903919538,-0.000144067371651736,0
0.2,0.000657207837291856,0.000377828428778385,-0.0327629226882064,-0.0189053072410144,-0.000285668028929706,-0.000702189604194194,0.0143103155781095,0.0350147770663395,-3.00620974013762,-0.000128729399076502,0
0.21,0.000656885139705638,0.000377828158096864,-0.0327530804290293,-0.0189052879846079,-0.000285711734212929,-0.000701869652250334,0.0143116458062328,0.0350050137221564,-3.00621033723084,-0.000115670062885567,0
0.22,0.000656610399545125,0.00037782799421463,-0.0327447006343134,-0.0189052872032323,-0.000285749010139505,-0.000701597258551765,0.0143127938467031,0.0349967032185788,-3.00621084587924,-0.000104546063764148,0
0.23,0.000656376526851693,0.000377827862940312,-0.0327375678782127,-0.0189052706846188,-0.000285780749451253,-0.000701365384274855,0.0143137553388505,0.0349896272963691,-3.00621127918644,-9.50698897148566e-05,0
0.24,0.000656177165613254,0.000377827752135513,-0.0327314823928726,-0.0189052712002111,-0.000285807805908245,-0.000701167726751548,0.0143145901101182,0.0349835922793496,-3.0062116483125,-8.69973409510694e-05,0
0.25,0.000656007315658871,0.000377827657858341,-0.0327262946320658,-0.018905271651318,-0.000285830857205334,-0.000700999328323459,0.014315301736987,0.0349784475460808,-3.00621196276382,-8.01204951510485e-05,0
0.26,0.000661776662211634,0.000381147266482145,-0.0330054823087107,-0.0190713607414867,-0.000288341566518909,-0.000707163863904402,0.0144421973019169,0.0352774942428603,-3.00621217414252,-9.38403754431578e-05,0
0.27,0.0006468602778517,0.000372546872544062,-0.0322925520455293,-0.0186410317727547,-0.000281833363582428,-0.000691223080109855,0.0141120417599876,0.0345130013260283,-3.00621256971463,-3.93502327258422e-05,0
0.28,0.000646454563147202,0.000372381524598864,-0.0321884766482177,-0.0186327607818488,-0.000281724416519562,-0.00069079870817274,0.0141178996546106,0.0344087592427975,-3.00621275775633,-3.42895936661398e-05,0
0.29,0.000654200583589515,0.000377144957041591,-0.0326476098975869,-0.0188711088111797,-0.000285398855526473,-0.000699116739504173,0.0142921014324791,0.0348958595886694,-3.00621282424901,-5.70974973233407e-05,0
0.3,0.00064656973784742,0.000373285220834741,-0.0322776177630204,-0.0186779749526372,-0.000282604101197661,-0.000691034878989465,0.0141506591447761,0.0345031911937919,-3.00621247108442,-4.04353367778903e-05,0
0.31,0.000654326841011828,0.000377258264414638,-0.0326513312676071,-0.0188767746621139,-0.00028549391458837,-0.000699257204232228,0.0142972046450252,0.0349003151064502,-3.0062125796753,-6.24279773033372e-05,0
0.32,0.000655387523020356,0.000377756094270391,-0.0327038360546207,-0.0189016872439074,-0.000285844147337407,-0.000700375324752471,0.0143148086079679,0.0349556995048196,-3.00621274382248,-6.24214408386247e-05,0
0.33,0.000655475302930423,0.000377818440047956,-0.0327094654984424,-0.0189048082151395,-0.000285894180618369,-0.000700470673105272,0.0143171464920949,0.0349616965144555,-3.00621289419119,-5.96598973041369e-05,0
0.34,0.000655430192339071,0.000377826219576085,-0.032708513042154,-0.0189051998036647,-0.000285908068195376,-0.000700426988179051,0.014317667579937,0.0349608037681582,-3.00621302383643,-5.69021229098926e-05,0
0.35,0.000655374260509493,0.000377827166134213,-0.032706860423965,-0.0189052338539669,-0.000285916632524868,-0.000700371664227655,0.0143179282356753,0.0349591692822349,-3.00621313450657,-5.44932328607907e-05,0
0.36,0.000655323852680389,0.000377827260621564,-0.0327053171936545,-0.0189052398666478,-0.00028592359555741,-0.000700321703407931,0.014318145774426,0.0349576396333524,-3.00621322881773,-5.24323822628648e-05,0
0.37,0.000655280487973052,0.000377827251905824,-0.0327039794381643,-0.0189052400433466,-0.000285929495959609,-0.000700278711329419,0.0143183293100133,0.0349563129914819,-3.00621330916463,-5.06754946081135e-05,0
0.38,0.000655243526108409,0.000377827233301449,-0.0327028361936512,-0.0189052402058097,-0.000285934514056804,-0.000700242065576118,0.0143184861629118,0.0349551792492994,-3.00621337761117,-4.91786463162197e-05,0
0.39,0.000655212093971547,0.000377827216051275,-0.0327018623144336,-0.0189052403559365,-0.000285938780066431,-0.000700210902035777,0.0143186197904964,0.0349542134662348,-3.00621343591961,-4.79034821901037e-05,0
0.4,0.000655185260239893,0.000377827201180213,-0.0327010270679116,-0.0189052404957945,-0.000285942421754218,-0.000700184297616436,0.0143187343952166,0.0349533851696707,-3.00621348559155,-4.68171903079342e-05,0
0.41,0.000655162384629176,0.000377827188489605,-0.0327003119721975,-0.0189052406268129,-0.000285945526236785,-0.000700161617499928,0.0143188325176608,0.0349526760287094,-3.00621352790598,-4.58917985517344e-05,0
0.42,0.000655142943270451,0.000377827177675604,-0.0326997023614606,-0.0189052407501667,-0.000285948164681718,-0.000700142342258015,0.0143189161765109,0.0349520714962637,-3.00621356395295,-4.51034750315272e-05,0
0.43,0.000655126295879446,0.000377827168462842,-0.0326991760178967,-0.0189052408672835,-0.000285950423883315,-0.000700125837162381,0.0143189884042929,0.0349515495447215,-3.00621359466065,-4.44319173791084e-05,0
0.44,0.000655112209625519,0.000377827160614539,-0.0326987296548197,-0.0189052409786866,-0.000285952335585343,-0.000700111871254703,0.014319049672772,0.0349511069062181,-3.00621362081993,-4.38598303336999e-05,0
0.45,0.000655100160639722,0.000377827153928769,-0.0326983441983602,-0.0189052410855415,-0.000285953970764137,-0.000700099925239481,0.0143191025809798,0.0349507246719186,-3.0062136431044,-4.33724803871953e-05,0
0.46,0.000655089916091411,0.000377827148233205,-0.0326980140953414,-0.0189052411883625,-0.00028595536107534,-0.000700089768229018,0.0143191478989894,0.0349503973313061,-3.00621366208818,-4.29573163445675e-05,0
0.47,0.000655081126734622,0.000377827143381024,-0.032697727026647,-0.0189052412879306,-0.000285956553852166,-0.000700081054013291,0.0143191873073254,0.0349501126710878,-3.00621367826009,-4.26036460842095e-05,0
0.48,0.000655073734361693,0.000377827139247759,-0.0326974844900988,-0.0189052413843836,-0.000285957557119007,-0.000700073724781361,0.0143192206185282,0.0349498721694369,-3.00621369203657,-4.23023611939778e-05,0
0.49,0.00065506738972666,0.000377827135726552,-0.0326972727707475,-0.0189052414784992,-0.000285958418154855,-0.000700067434366864,0.0143192496968271,0.034949662231915,-3.00621370377258,-4.2045702393339e-05,0
0.5,0.000655062034621862,0.000377827132727056,-0.0326970921650353,-0.0189052415704029,-0.000285959144937748,-0.000700062124996171,0.014319274512895,0.0349494831479445,-3.00621371377015,-4.18270596991329e-05,0
0.51,4.7321360592,-0.0136185840481813,3.39403691597667,0.690160439030451,-0.425102067813888,4.71302295565731,0.392379700615905,3.44119836527331,0.0870760255585052,26.9488628550531,753.18375303676
0.52,4.7053744237572,-0.00905035864862425,4.73311900753482,0.472700448517877,-1.82755462441354,4.33597445466699,-1.39399258987463,4.54781770884575,0.396967500757262,57.6694982933866,753.18375303676
0.53,4.69330202596385,0.00034964600472942,5.33787114452309,0.0148622190908102,-3.77936786789496,2.78270777270841,-4.28984370128765,3.17652801964838,0.936202526175988,89.9277369867785,753.18375303676
0.54,4.64173503659844,-0.0102743474953852,7.91752110038796,0.54651576955291,-4.58742124195793,-0.708079134726574,-7.90968475462891,-0.6501591680885,1.72172661764068,123.857407711953,753.18375303676
0.55,4.65490789988624,0.0276889278692269,7.26021525892333,-1.33320118596242,-1.83303449507483,-4.27889223666776,-1.59058214164966,-7.20820362218077,2.742802442644,154.533111049534,753.18375303676
0.56,4.57726049578393,0.00622976442969536,11.1441029413607,-0.264203045633055,3.4469676325784,-3.01160531879359,8.57574164485523,-7.12162122396732,-2.28752685001231,187.630789450326,753.18375303676
0.57,4.60949409236946,0.0342640561231318,9.53399888468893,-1.63776481622421,3.32858897839114,3.1889034519822,5.69349257405031,7.82071292375226,-0.799394057002011,218.532897456519,753.18375303676
0.58,4.62981698857544,0.0625424570160154,8.51956098401654,-3.04905168775391,-3.65541906135549,2.842011328709,-8.63473197730311,2.70574190105247,0.923447187681624,250.596281309344,753.18375303676
0.59,4.58594964678946,0.0753639356234195,10.7148149728061,-3.69023906898536,-1.26651469292329,-4.40823711003508,0.773895279640564,-11.3060254017,2.87825384890386,282.641740475056,753.18375303676
0.6,4.3637195125076,0.0105658837458216,9.35327097633142,-0.4471749478664,4.10162884980143,1.48956382884907,8.6300584262812,3.63396958568118,-1.22002130993741,313.503007466179,753.18375303676
0.61,4.03333597511578,0.021735097654647,13.4028997172789,-1.00401956815542,-3.72739555572667,1.54103662311521,-12.7920852960485,4.12411565105692,1.18415059120858,342.421305829283,753.18375303676
0.62,3.79821016057003,0.0517188310989569,13.465143773249,-2.49471856252625,2.2660496425123,-3.04862170152637,10.1608304165566,-9.18102623819681,-2.48877563275518,369.527077557951,753.18375303676
0.63,3.59965361124441,0.0318394288150592,12.4118636106427,-1.48542601024427,-1.08589173867521,3.43210707904767,-5.26081869435285,11.3395165411165,0.315271708524401,395.037592840605,753.18375303676
0.64,3.30273121292845,0.0302705479779342,16.8063675004357,-1.44599008745675,0.496922626352367,-3.26527451745573,4.10819434558705,-16.3605505748312,-2.98140237420261,419.441690933422,753.18375303676
0.65,3.16289227119157,0.0415865218911571,13.8030787871403,-2.00144076135042,-0.516835447408756,3.12065667420627,-4.40422138320174,13.2338045600253,0.177275221392001,442.179518079757,753.18375303676
0.66,2.95994627666488,0.0623756943876277,14.8063232980987,-3.01230735902735,0.971710559862279,-2.79659637342337,7.97720093277712,-12.8322044291373,-2.78611064249508,463.331747785107,753.18375303676
0.67,2.77837901761678,0.0121228474975449,15.013438772467,-0.538527524657591,-1.75036205082179,2.15772324916973,-9.9258080101342,11.2770426537894,0.685900988775102,483.678714777489,753.18375303676
0.68,2.65752159802085,0.0600822790934604,12.930351770418,-2.89808070388281,2.41137225305755,-1.11862182232983,13.0095245329478,-2.51895615277399,-1.98253994663732,502.400162337934,753.18375303676
0.69,2.45414652183964,0.0502727170707631,15.2230672452169,-2.43726305764199,-2.41685289581487,-0.429167306222803,-14.4557528239319,-5.35847346339685,1.76701917746205,520.291232758887,753.18375303676
0.7,2.2791778782864,0.0456015805023229,16.6987890967206,-2.23376204752444,1.39841492793767,1.80032413590872,8.18666648823184,14.7247323232776,-0.640401784228111,537.088136090895,753.18375303676
0.71,2.17956428509354,0.049078480094827,14.8167836280629,-2.35452796935298,0.412147395779066,-2.14080445025142,5.42938091114123,-13.9858035865314,-2.92888600218691,552.666071463012,753.18375303676
0.72,1.99812630614086,0.0365518190721782,17.3367016684514,-1.74413031437331,-1.83179348374662,0.798985233701497,-16.6829210550951,5.02825619513027,1.1777883211151,567.460957675438,753.18375303676
0.73,1.92758100497503,0.0195735637777445,14.7134707488344,-0.916007160685171,1.51470073578802,1.19232266444228,10.8944487448934,9.93157979075446,-0.893775299855658,581.432593005379,753.18375303676
0.74,1.77853579727208,-0.00703112647279225,16.3866250369004,0.395070258723163,0.490074974802897,-1.70969749897157,4.07278201890667,-15.8773425747437,-2.86638672060294,594.55087871357,753.18375303676
0.75,1.64816086786517,0.0390602073630583,17.4762432808238,-1.92390100724034,-1.64590677291769,0.0946088844928335,-17.5311746893844,-1.33356226194608,1.5370730286466,606.8552838175,753.18375303676
0.76,1.57098193932668,0.0442710708872691,16.2245079805743,-2.1900718484584,0.439582371748437,1.50887756953841,1.9783665268536,16.2516811376102,-0.255311409520526,618.382088454439,753.18375303676
0.77,1.46447412580216,-0.0262402179324031,16.7087447218537,1.33387105161107,1.36189708446681,-0.539081946926391,14.9101796375221,-7.65819204115573,-1.96562005330141,629.231335113712,753.18375303676
0.78,1.34613643607537,-0.00892667778267786,18.0629254019209,0.462692629847851,-0.586189553322071,-1.21183530138464,-8.38835139384835,-16.0037158009756,2.68442203823013,639.42069054485,753.18375303676
0.79,1.27777522821777,-0.00601757780358608,17.1972788675334,0.314912014287791,-1.15468461411051,0.547219505341376,-15.3694014485002,7.72185658629414,1.12352625992106,648.969365316311,753.18375303676
0.8,1.219795952666,0.0332232687968202,16.0530564635788,-1.64834853807681,0.471506717050799,1.12547206429386,4.26041453277786,15.5649138364054,-0.369497682066841,657.914346295661,753.18375303676
0.81,1.14399502039092,-0.0265521304595289,16.0207832950886,1.3472049774893,1.12037444387853,-0.232789019962352,15.3013239476209,-4.93456625140692,-1.79886514206855,666.341635464166,753.18375303676
0.82,1.07171371059071,0.0337477376042584,16.0365986053987,-1.65954021714781,-0.0623671129346452,-1.0704296009013,1.23052134324111,-16.0752102874841,3.11487392514148,674.244727659933,753.18375303676
0.83,0.985290364256037,0.0648203758711678,16.991800962402,-3.19912323304539,0.986987672072819,0.0292253006853683,16.6103058123926,4.80139877794914,-1.47550094415601,681.620291634932,753.18375303676
0.84,0.937005017305381,0.0135556594965625,16.2264991956027,-0.616962842059037,0.357139357289221,-0.866379615315877,6.96738331976986,-14.6674977064518,-2.73613003554298,688.588620767719,753.18375303676
0.85,0.860177188471795,0.0621652759538868,17.0733075667599,-3.04615543272772,-0.663532257327273,-0.550903131764413,-10.2058875335872,-14.0220096220651,2.33586193861636,695.120167628464,753.18375303676
0.86,0.813076819960564,0.0118276059596605,16.6119686976569,-0.59979788444257,-0.744329843535373,0.327424634752071,-15.5349743745302,5.91454416644301,1.17092576120125,701.248369177854,753.18375303676
0.87,0.726563396174427,0.0132349417308571,18.2566443895702,-0.659146253483928,-0.0226836370590658,0.726329804532975,-1.56047503218056,18.2017706782788,0.0494341412741382,706.991093015136,753.18375303676
0.88,0.727077621933189,0.00251481309798235,15.7250520112495,-0.0897459088237446,0.625134556673172,0.371288268942039,13.4462211973233,8.15379976436173,-1.03139074891762,712.350667502765,753.18375303676
0.89,0.605194867499957,0.0259252928614354,19.4563408561139,-1.24302910445023,0.51769923234453,-0.314516221025444,17.6446677788264,-8.29216617287928,-2.07392020393608,717.397115878118,753.18375303676
0.9,0.54948980917555,-0.0374841905017305,20.0245797771009,1.85476582487001,0.0708114283469084,-0.546195804213858,-0.634296165907802,-20.1002890498744,-3.08077782636175,722.109521673204,753.18375303676
0.91,0.577317880488832,0.0333011843529499,16.5209035971479,-1.66332239946044,-0.477092815343069,-0.326783337334466,-12.052490113882,-11.421224939803,2.22896679895655,726.531873940963,753.18375303676
0.92,0.472498526030417,0.00714751911471292,19.7902112902289,-0.318664969491307,-0.451577313240125,0.139225982838126,-19.0870778588278,5.23807875902317,1.28685877422604,730.642881806187,753.18375303676
0.93,0.460970736268061,0.0363382812673931,18.5220065621724,-1.81889620688825,-0.134554251723188,0.442390826898795,-8.45885302981589,16.5777234842594,0.373929238142193,734.501432406775,753.18375303676
0.94,0.472023505094642,-0.00204466533831409,16.2046198880372,0.0919883866133189,0.229308404133563,0.412586991811297,8.01359956053204,14.0847573519207,-0.511603164946664,738.121277752443,753.18375303676
0.95,0.39411245954223,0.015250942934591,18.4553278418336,-0.73070964639802,0.389334708770507,0.0630532043071924,17.9456289180164,4.36892035562006,-1.37156156380371,741.477702208257,753.18375303676
0.96,0.359482730596744,0.025024121567004,18.6323159492349,-1.26301255251687,0.2741549426562,-0.233865576078796,15.7318754460313,-10.0631254235692,-2.20755420280913,744.653564737877,753.18375303676
0.97,0.318445686296659,0.0355178520147434,19.2120654027592,-1.79082357117353,0.00300014615358982,-0.320406260949671,4.08614760883939,-18.8577279602221,-3.02115339854129,747.591939025552,753.18375303676
