t,iq,id,vq,vd,ia,ib,va,vb,theta_e,omega,r
0,0,0,0,0,0,0,0,0,0,0,0
0.01,0.000658290592161312,0.000375312051483093,-0.0323871724516142,-0.018781009521955,-0.000756318958556634,4.67682867373467e-05,0.0373493609498854,-0.00258466529932619,2.02720584129503,-0.00142326393358798,0
0.02,0.000757580074777399,0.000431035964352189,-0.0373226889822558,-0.0215695046799284,-0.000870003742194937,5.30382958960484e-05,0.0430086171875278,-0.00291298688983373,2.02719479472255,-0.00158969894928473,0
0.03,0.000795863071433821,0.000452714795964266,-0.0392126607034751,-0.0226543360620379,-0.000913921912964905,5.56367860287611e-05,0.0451832113444657,-0.00305435990985945,2.02718320582249,-0.00161829587084385,0
0.04,0.000778170735593021,0.000442813723893599,-0.038360156971617,-0.0221588708481813,-0.000893676293193935,5.45561250919505e-05,0.0441995724098981,-0.00298579954713125,2.0271721335103,-0.00152534468069518,0
0.05,0.000797379164639037,0.000453924411781029,-0.0393149485000541,-0.0227148532515615,-0.000915814689060647,5.60745852588517e-05,0.0453016330586334,-0.00306460046707726,2.02716121375755,-0.00151491513984326,0
0.06,0.000799099706553819,0.000455067556545174,-0.0394127975522742,-0.02277206576573,-0.000917862321016896,5.63522997922165e-05,0.0454146483929331,-0.0030733209206883,2.0271505576658,-0.00146700810682977,0
0.07,0.000816042731184985,0.000465012738652861,-0.0402556455041848,-0.0232697358295351,-0.000937453520920067,5.78228531279249e-05,0.0463905239608752,-0.00314910894864099,2.027140386398,-0.00145519090996874,0
0.08,0.000800465214088396,0.000456206464521712,-0.0395053997772024,-0.0228290618769781,-0.000919588833929526,5.67914936334392e-05,0.045522828796193,-0.00308459659144871,2.02713034695379,-0.00137193970679948,0
0.09,0.000798503268405931,0.000455296767157147,-0.0394215046278316,-0.022783536070748,-0.000917426233961705,5.68482284468598e-05,0.0454274273562747,-0.00308113401195271,2.02712076030307,-0.00132106182523745,0
0.1,0.000798006777534303,0.000455201126425403,-0.0394089437750732,-0.0227787417170193,-0.00091693787436791,5.69896222070097e-05,0.0454140106421297,-0.00308278462985812,2.02711152428651,-0.00127513326765245,0
0.11,0.000797676778321512,0.000455189465592047,-0.0394041177973712,-0.0227781655678339,-0.000916635992810074,5.71327309381423e-05,0.0454093970966268,-0.00308479842868553,2.0271026172588,-0.00123117104300694,0
0.12,0.000797374486200131,0.000455186525177549,-0.039400245128839,-0.0227780216038739,-0.000916362841729232,5.72711641584193e-05,0.0454058307041282,-0.0030867656968416,2.02709402655744,-0.00118880540404237,0
0.13,0.000832292056745872,0.00047528868112471,-0.041121459549771,-0.0237839576843457,-0.000956565048348253,5.99391892341329e-05,0.04739416327349,-0.00323177447232499,2.02708548876682,-0.00122475263981795,0
0.14,0.000857240515430055,0.000489884036778293,-0.0424147192165331,-0.0245143260233931,-0.00098539161337058,6.20567408418133e-05,0.0488769017035277,-0.00331799132944097,2.02707718666532,-0.00123974966425051,0
0.15,0.000802962859651277,0.000458757833922293,-0.0397056798477261,-0.0229567343186949,-0.000922951640393595,5.80376917115286e-05,0.0457586845982643,-0.00311375120808342,2.02706911612214,-0.00108028512413056,0
0.16,0.000796933791457714,0.000455547806697627,-0.0394198271019496,-0.0227960914279361,-0.000916124554958975,5.78193043490388e-05,0.045431271174156,-0.00309582826376512,2.02706167387677,-0.00103080120427957,0
0.17,0.000796067701138603,0.000455215467510265,-0.0393864871549342,-0.0227794675929253,-0.000915200220302434,5.79090961340692e-05,0.0453939952160605,-0.00309591869195677,2.02705453235657,-0.000994219878598524,0
0.18,0.00079576111569487,0.000455179815281716,-0.0393802245553438,-0.0227776856955743,-0.000914908888810975,5.80184683226741e-05,0.0453875668225295,-0.00309739077387526,2.02704764826963,-0.000960128092208615,0
0.19,0.000795522110726732,0.000455174795251553,-0.0393769597665009,-0.0227774358718763,-0.000914691733916484,5.81253369217303e-05,0.0453845053452597,-0.00309890624513966,2.02704100899199,-0.000927373836429456,0
0.2,0.00079529765781746,0.0004551729804076,-0.0393741067397064,-0.0227773417478476,-0.000914489067112291,5.82284531407665e-05,0.045381882823493,-0.00310036933973678,2.02703460546041,-0.00089579598580589,0
0.21,0.000795081703240966,0.000455171541860061,-0.0393713795458425,-0.0227772651050143,-0.00091429420718414,5.83279526243309e-05,0.0453793816542754,-0.00310178233964008,2.02702842926568,-0.000865340634838955,0
0.22,0.000794873389457914,0.00045517018638463,-0.0393687465175008,-0.0227772088879824,-0.000914106254775877,5.84239575974702e-05,0.0453769746830222,-0.00310316221012978,2.0270224723332,-0.000835966636329756,0
0.23,0.000794672685285071,0.000455168882193209,-0.0393662163011881,-0.0227771337336059,-0.000913925167555512,5.85164606228867e-05,0.0453746523073064,-0.00310447016116256,2.02701672687814,-0.000807635462522036,0
0.24,0.0007944789234135,0.000455167624501994,-0.039363765509067,-0.0227770775385082,-0.000913750344030321,5.8605758484404e-05,0.0453724102053144,-0.00310575086069468,2.02701118539271,-0.000780310077231236,0
0.25,0.000794292247280192,0.0004551664113637,-0.0393614107667839,-0.0227770009582171,-0.000913581911789786,5.86917930689316e-05,0.0453702459478076,-0.00310696199486949,2.02700584063611,-0.000753954772322328,0
0.26,0.000801479475831973,0.000459384123991283,-0.0397199432862895,-0.0229880620705527,-0.000921891898116096,5.93165385287684e-05,0.0457850775547925,-0.00313872039647864,2.02700073632772,-0.000745109201753637,0
0.27,0.000781547600802048,0.000447982260090219,-0.0387501186228833,-0.0224175021013958,-0.000898975117185113,5.78661935588525e-05,0.0446630634945317,-0.00305398969170575,2.02699562235965,-0.000676113866509004,0
0.28,0.000780950316406118,0.000447720858599913,-0.0386690044635164,-0.0224044195629278,-0.000898323479727633,5.7898961046769e-05,0.044584466472526,-0.00307819289703595,2.02699082555423,-0.000651508274307145,0
0.29,0.000792239216139544,0.000454394824197823,-0.0392856753036878,-0.0227384063618546,-0.000911397772916305,5.89213999355924e-05,0.0452851925060066,-0.00310656524759014,2.02698628472486,-0.000654488401799381,0
0.3,0.000784557805343052,0.000450193000028795,-0.0389145228346936,-0.0225281317862132,-0.000902650614344928,5.85367886235337e-05,0.0448593502135057,-0.00308147816005904,2.0269822689627,-0.000617973257771473,0
0.31,0.000792367268632451,0.000454647976658432,-0.03930245797738,-0.0227510740131757,-0.000911623762744531,5.90997993157351e-05,0.0453058136832372,-0.00311091920764909,2.02697800717314,-0.000614596414449036,0
0.32,0.000793072264007322,0.000455106357098827,-0.039342267777036,-0.022774002082023,-0.000912458347070998,5.92045358898021e-05,0.0453516399715806,-0.00311415422869901,2.02697384630503,-0.00059596346671184,0
0.33,0.000793022643151452,0.000455152792280306,-0.0393449324948021,-0.0227763348192407,-0.000912434017733753,5.927174836055e-05,0.0453550473014786,-0.00311525682718561,2.02696982776961,-0.000576349184550364,0
0.34,0.000792896868151732,0.000455156792403337,-0.0393436855309007,-0.0227765216249827,-0.000912322636013584,5.93342819367035e-05,0.0453539980579336,-0.0031161496511991,2.02696595132141,-0.000557255705252536,0
0.35,0.000792767266740994,0.00045515644611972,-0.0393420755045088,-0.0227765105584688,-0.000912205912207206,5.93944727608402e-05,0.0453525361337074,-0.00311701852148424,2.02696221242999,-0.000538821311080164,0
0.36,0.000792641274169273,0.000455155678680073,-0.0393404726099692,-0.0227764747548543,-0.000912092250166936,5.9452573845222e-05,0.0453510701232237,-0.00311785601218183,2.02695860626645,-0.000521039353803311,0
0.37,0.000792519705376962,0.000455154893755247,-0.039338922991093,-0.0227764374919868,-0.000911982559089048,5.95085929721767e-05,0.0453496516920348,-0.00311866290846793,2.0269551281249,-0.000503888460848292,0
0.38,0.000792402443950842,0.000455154132039036,-0.0393374266816591,-0.0227764002244551,-0.00091187675216024,5.95626221817616e-05,0.0453482814976057,-0.00311944070842499,2.02695177346133,-0.000487346419971781,0
0.39,0.000792289373475593,0.000455153396841409,-0.0393359835787742,-0.0227763629521952,-0.00091177472610377,5.96147198015417e-05,0.0453469594343809,-0.00312018965710966,2.02694853789173,-0.000471391636708612,0
0.4,0.000792180319325987,0.000455152687650178,-0.0393345904864975,-0.0227763242200772,-0.000911676323707315,5.96649662207083e-05,0.0453456819795111,-0.00312091004861991,2.02694541718815,-0.000456003264972663,0
0.41,0.000792075165091162,0.000455152003589228,-0.0393332469834594,-0.022776286938226,-0.000911581439866504,5.9713415715324e-05,0.045344450024333,-0.00312160486688933,2.02694240727325,-0.000441161196787106,0
0.42,0.000791973736145919,0.000455151343773905,-0.0393319494639726,-0.0227762496517277,-0.000911489917216813,5.97601480604395e-05,0.0453432596790728,-0.00312227457320729,2.02693950421331,-0.000426846037820107,0
0.43,0.000791875757052521,0.000455150707346046,-0.0393306891676882,-0.0227762312400125,-0.000911401507905678,5.98052873278398e-05,0.0453421113837231,-0.0031229401483023,2.02693670421519,-0.000413039082237678,0
0.44,0.000791781487648493,0.000455150093478631,-0.0393294838701731,-0.022776193941502,-0.000911316444648244,5.98487217085729e-05,0.0453410044518884,-0.00312356002806952,2.02693400362006,-0.000399722288279314,0
0.45,0.000791690260640863,0.000455149501372739,-0.0393283048314979,-0.0227761740588906,-0.000911234127837254,5.98907476838404e-05,0.0453399290621262,-0.00312417962375185,2.02693139889896,-0.000386878254687372,0
0.46,0.000791602568701414,0.000455148930258285,-0.0393271811727116,-0.0227761367490877,-0.000911154999254299,5.99311506967474e-05,0.0453388960000777,-0.00312475498216439,2.02692888664838,-0.000374490197966047,0
0.47,0.000791517802745941,0.000455148379391885,-0.0393260867678067,-0.0227761183058734,-0.000911078511584105,5.99702014046453e-05,0.0453378977875425,-0.00312533034390849,2.02692646358529,-0.000362541930451691,0
0.48,0.000791436280817471,0.00045514784805636,-0.039325041619569,-0.0227760809848989,-0.000911004949868298,6.00077619978036e-05,0.0453369357470994,-0.00312586315677606,2.02692412654337,-0.000351017839159414,0
0.49,0.000791357335625109,0.000455147335560774,-0.0393240163953918,-0.0227760610721585,-0.000910933714567823,6.00441286006429e-05,0.0453359995188019,-0.003126399056252,2.02692187246907,-0.000339902865382557,0
0.5,0.000791281518046303,0.000455146841237168,-0.0393230424891997,-0.0227760237404399,-0.000910865299787597,6.00790606841122e-05,0.0453351019375687,-0.00312689308143751,2.02691969841705,-0.000329182485014389,0
0.51,1.27146245522509,-0.0353565213013092,1.45496419185287,1.7697363610153,-0.0593055268282772,1.27057062500798,1.74200964056598,1.48804905807871,0.0188418452831176,5.81825815512476,182.190677406046
0.52,1.27819131884638,-0.000642070070928057,-0.573180317452176,0.032853451336425,-0.108939239260143,1.27354061654022,0.0813001306016596,-0.568335564911651,0.0848303976786411,12.1613666996116,182.190677406046
0.53,1.17708863326071,-0.0194022414022755,2.81901564745476,0.972027944233236,-0.249212224839428,1.15056827894462,0.401990655679363,2.95467274968169,0.196822492971177,18.36628759386,182.190677406046
0.54,1.22605195932261,0.0126605835789459,-1.25116497035005,-0.63214071833821,-0.412734722701421,1.15456214471632,-0.15971150260441,-1.39266216533229,0.353650267259997,24.3956788962353,182.190677406046
0.55,1.110041420351,-0.0359851209558181,2.93709817020061,1.80275915603909,-0.614918094549946,0.924858162541768,-0.013302466174419,3.446202153164,0.554356990960393,30.3495495470494,182.190677406046
0.56,1.09528024334852,-0.0107531865445814,2.09108410241039,0.540468492628754,-0.791821760903055,0.756817508684122,-1.12014510589043,1.8466222831504,0.798180113285634,36.1647544477271,182.190677406046
0.57,1.09269042060771,0.00115869107908573,0.618885143564804,-0.0552429333954207,-0.965557731617676,0.511538820390201,-0.572995487527904,0.240305584387918,1.08466535338525,41.9875363195313,182.190677406046
0.58,1.07958155267336,-0.00124390718447615,-0.354720881054362,0.0653665684451762,-1.0664990784374,0.167563694963672,0.360578483166278,0.0091021537993553,1.41380246605045,47.8251210680702,182.190677406046
0.59,1.01319095792508,-0.0677882107481816,1.28122427597917,3.39505243324645,-0.975311175423838,-0.282699964327825,-1.97702130300162,3.04291035643983,1.7861149769151,53.7615850410922,182.190677406046
0.6,1.00779924389506,0.0261825280503113,-0.115620602314317,-1.30873179116418,-0.829287124207342,-0.573260592047349,0.865264457711761,-0.98866801460556,2.20161264529559,59.5384756539444,182.190677406046
0.61,0.926964902655125,0.0293378547214873,2.42807908597937,-1.46662854030686,-0.457277966496267,-0.806859034671561,0.168431115530356,-2.83164232952085,2.65762818824959,64.7916728378717,182.190677406046
0.62,0.921120646574026,0.0188767265862688,1.35895243715168,-0.942546164971425,-0.010654896299246,-0.921252435294701,0.954637387584421,-1.35048600798706,-3.13266745186041,69.6330059419899,182.190677406046
0.63,0.932540361517395,0.0211170328769879,-0.502017631000415,-1.0537925847839,0.458459560667812,-0.812337544478155,0.649189384996984,0.970079200884155,-2.60514245262124,74.2621659865775,182.190677406046
0.64,0.82358813288776,0.00403456269544317,3.69738398506133,-0.198393189004569,0.731094060235835,-0.379229700073151,3.38089322653492,-1.50982422195489,-2.04440513468488,78.7249901712386,182.190677406046
0.65,0.859468578489414,0.0137626263926832,0.636417105755142,-0.684423392151806,0.85494795256243,0.0891046895799941,0.550013101300665,0.755610812932134,-1.45093731502394,83.2228903179497,182.190677406046
0.66,0.795300995685339,-0.00913104568057864,2.50043953847312,0.459784874929095,0.577379538663542,0.547009979859588,2.14716210760979,1.36135774152789,-0.823882159059141,87.8841006425674,182.190677406046
0.67,0.830263438147796,0.0196747490080715,-0.570184506359921,-0.983021410436661,0.153956255250465,0.81610167500305,-1.06242546985061,-0.403352929433392,-0.162764531529135,92.3887042523722,182.190677406046
0.68,0.796876843421861,-0.0292476370533939,-0.0869537255054075,1.46603399376005,-0.427872431101418,0.672899183056837,1.30907078467722,0.665695352202404,0.529687217540681,96.4812552515204,182.190677406046
0.69,0.747570839228436,0.0248612887970756,1.27388841176268,-1.2406641103795,-0.701875417539225,0.258555877132,-1.59926539826806,-0.777424791416823,1.25108717240639,100.317092701076,182.190677406046
0.7,0.677676199607208,-0.0165567744307015,3.67800095675993,0.833108242898612,-0.609235407592395,-0.297239594316347,-3.69087409751671,-0.774085769532541,2.00028189998451,104.121457446242,182.190677406046
0.71,0.721436296559952,0.00447484998956171,0.330653036193679,-0.220400463197068,-0.260817411501992,-0.672654913112191,0.0883613226621188,-0.387427504417254,2.77789949342253,108.084564818098,182.190677406046
0.72,0.671945301265447,0.0689182371630631,1.65541909473261,-3.44774365633867,0.225794632251439,-0.636613693972109,3.82453138125057,-0.0175616872335318,-2.69854613579569,111.907906789972,182.190677406046
0.73,0.657196402222606,0.0401742231563535,1.38536235265663,-2.00793407253347,0.617202074891721,-0.229309132068281,1.90880498014697,1.51904299990661,-1.86546767173359,115.336176366449,182.190677406046
0.74,0.63560306328832,0.0233337909247586,1.48849264965825,-1.16338844348987,0.549959942979799,0.31949926600553,0.637844380144959,1.77826814211185,-1.00780712711255,118.65357998628,182.190677406046
0.75,0.651723365845717,-0.00175426120626901,-0.325158772043313,0.0930505960513288,0.079939743318192,0.646804499412204,0.0515649172766761,-0.334256936754456,-0.125659956663582,122.057602480844,182.190677406046
0.76,0.576435149003293,0.0545536056560209,2.39404708079602,-2.72932587519958,-0.367419576224751,0.447500203243915,-3.62360065092134,-0.224052406245413,0.781803126295171,125.487208811586,182.190677406046
0.77,0.605695724408092,0.0175973325856671,0.00455002364853975,-0.878181447683074,-0.60207148878569,-0.0684609309880917,0.120011670759492,-0.869954341705044,1.71306391208816,128.543457831139,182.190677406046
0.78,0.568548302459898,-0.0108023778020516,0.990996886973569,0.545124973239862,-0.250722965846169,-0.510393826366964,-0.938380815554546,-0.631409147415723,2.66598450034298,131.447462805566,182.190677406046
0.79,0.57221707299613,-0.0164900895403171,-0.100072797185325,0.830535288411372,0.288232771509322,-0.494596978467682,-0.77720059833369,-0.309455424872163,-2.64275383412046,134.455436663818,182.190677406046
0.8,0.489243307635591,0.0094573989868164,3.11336306183811,-0.472673929712774,0.487151816897708,-0.0461688613144319,3.14006680850384,0.237551335042736,-1.64595888466221,137.455542287586,182.190677406046
0.81,0.501972544362807,-0.0252331674314497,1.66532890503381,1.26572240107975,0.274752983932015,0.420860957862745,2.00301144765726,0.60275923807948,-0.628591723847513,140.089742452505,182.190677406046
0.82,0.5540735672117,-0.000411396123650209,-1.7255002486663,0.0259476088766704,-0.220075526270814,0.50849233019397,0.708005426811536,-1.57377021898347,0.407716306075282,142.652721440286,182.190677406046
0.83,0.536997171737158,-0.00303927901374229,-1.71692960513399,0.152770115916919,-0.534225774650539,0.0545712503948933,1.72341109171714,-0.0322519185344747,1.46333954873494,145.370560138267,182.190677406046
0.84,0.458390449772969,0.0195397874654849,1.4162221591155,-0.976322910263784,-0.276146986732413,-0.366396574023106,0.000539088213436734,-1.72014282501762,2.53833954511495,147.870891459638,182.190677406046
0.85,0.450365854557612,0.0218485591278415,1.09764576837868,-1.08896172479947,0.192333190368863,-0.407817001080026,1.47702317549923,-0.457237804600664,-2.65243373272978,150.17534246257,182.190677406046
0.86,0.466690069504345,0.0242807916595429,-0.470469882656082,-1.21125335780202,0.467185470812574,-0.0112655971532037,-0.504042482385406,1.19767181782985,-1.54292462145089,152.568344380824,182.190677406046
0.87,0.379424051056618,0.0143898674153159,3.1290804369436,-0.719731527157357,0.166373696432632,0.341305540446954,0.605057304491594,3.15326235989471,-0.415660115116235,154.918168864907,182.190677406046
0.88,0.438159838538777,-0.0159487386130555,-0.476492420797724,0.802059106239762,-0.30332468912517,0.316595229494688,0.915859120675627,0.177611677699043,0.727611270554378,156.995228759378,182.190677406046
0.89,0.421742779649953,0.000265098283025261,-0.322971830412574,-0.00788282188589235,-0.401039140679741,-0.130516857558031,0.309498186366778,0.0926488788739943,1.88606075915582,159.089146697214,182.190677406046
0.9,0.362741713110701,0.00161011052074383,1.92951377562798,-0.0805359454537835,-0.031112358938894,-0.361408583195851,-0.0766891687684842,-1.92967049525091,3.0601566801328,161.194743371293,182.190677406046
0.91,0.340025576770229,-0.0629029711109993,2.45106432796643,3.15108677172356,0.332259676496908,-0.0958002296797263,0.783109804752434,-3.91456296621492,-2.03443880933994,163.074838088222,182.190677406046
0.92,0.384113094641465,-0.0146837460248878,-0.364798657160866,0.740260619126652,0.274149382096855,0.269444981709215,0.228595044969968,-0.792974242905357,-0.832261253418791,164.942403385591,182.190677406046
0.93,0.334469950977615,0.00726066084555277,1.47465987695704,-0.363574431174701,-0.118568828167523,0.312832700160745,-0.889541844342708,1.23106597177988,0.383992084018976,166.854039992559,182.190677406046
0.94,0.283670916636461,0.00539743147406398,3.43424575949204,-0.267316810686923,-0.283642392568594,-0.00673159341100245,-3.41968252690741,-0.413852182583428,1.61354934231142,168.584477968602,182.190677406046
0.95,0.294227824755872,0.0479796990227545,2.34422089579139,-2.39635824895188,-0.12909025332774,-0.268715036562278,1.63709868087127,-2.92537388630484,2.85539607588318,170.25800742382,182.190677406046
0.96,0.283720466114522,0.0182246787779289,2.28248667897511,-0.912646227030812,0.223434604127601,-0.175802216957417,2.3977876307847,-0.541556140273841,-2.17330070176835,171.972104697016,182.190677406046
