t,iq,id,vq,vd,ia,ib,va,vb,theta_e,omega,r
0,0,0,0,0,0,0,0,0,0,0,0
0.01,0.00107053554519156,0.000601704577697693,-0.0518216827821265,-0.0301317893645192,0.0012279855674977,-1.20912513125581e-05,-0.059927138782775,0.00146614255416159,-1.06858771384108,-0.00308609757878951,0
0.02,0.0011815249043351,0.000666032374460956,-0.0575779326763537,-0.0333531444636348,0.00135623479656218,-1.50797874029459e-05,-0.0665232222209386,0.00152035595780564,-1.06860980653974,-0.00309675595184808,0
0.03,0.0012182642958836,0.000687792988674931,-0.0594807058053523,-0.0344428603664825,0.00139891203225237,-1.64989670794274e-05,-0.0687155585377368,0.0015610919815128,-1.06863093630969,-0.00288796369380655,0
0.04,0.00119296485279634,0.000675443725157704,-0.0584130450613602,-0.0338244297838512,0.00137079166927913,-1.7876389379496e-05,-0.0674820149646698,0.00153412510938992,-1.06864904810215,-0.0025298250304689,0
0.05,0.00121355471426268,0.000687957734492192,-0.0595171516035497,-0.0344510997953836,0.0013948625173033,-1.89590817049674e-05,-0.0687514162901513,0.00155318067516869,-1.06866597192135,-0.0023347162950826,0
0.06,0.00121183628528812,0.000688185080190143,-0.0595483208035131,-0.0344624910170127,0.00139346532884499,-2.00066050133079e-05,-0.0687841969365252,0.00154920928641537,-1.06868116552689,-0.00209581594208154,0
0.07,0.00124449226036587,0.000707597166049983,-0.0611992402203567,-0.035434607716028,0.00143143284117171,-2.13250258521393e-05,-0.0706991771764312,0.00160772327012535,-1.0686945271627,-0.0019935139613775,0
0.08,0.00120886070702717,0.000688541400035386,-0.0595970281726218,-0.0344803410236739,0.00139102796875378,-2.17866633893995e-05,-0.0688354435432305,0.00154317734685847,-1.0687067810775,-0.0016927965998842,0
0.09,0.00120660702534413,0.000688186241582998,-0.0595696106881571,-0.034462558938205,0.00138888127392065,-2.25748458795724e-05,-0.068802835642632,0.001541523156112,-1.06871751201836,-0.00152078485107433,0
0.1,0.00120521168462984,0.000688177141107095,-0.0595742235590291,-0.0344620917528431,0.00138765353890481,-2.32516295256763e-05,-0.0688066396764846,0.00153955093224134,-1.06872706403272,-0.0013695974994282,0
0.11,0.00120398179086865,0.000688174715089657,-0.0595789267496825,-0.0344619705024787,0.00138657405768251,-2.38531715681413e-05,-0.0688106910117811,0.00153776657491828,-1.06873556990493,-0.00123500825807745,0
0.12,0.00120288661020997,0.000688172658786523,-0.0595831111867663,-0.0344618837170252,0.00138561285603857,-2.43889012540669e-05,-0.0688143056610783,0.00153619803541184,-1.06874314427725,-0.00111515906072212,0
0.13,0.00126059554564005,0.000721053892494856,-0.0623808210763538,-0.0361084773836549,0.0014520234255045,-2.54522563968919e-05,-0.0720591400607073,0.00163380256987948,-1.06875061411081,-0.00118243381307205,0
0.14,0.00133710828615522,0.000766089588644121,-0.0664093562855875,-0.0383637506571065,0.00154076637686664,-2.81211424221598e-05,-0.0766758251492728,0.00167266387086124,-1.0687571326325,-0.00132365131556658,0
0.15,0.0012028324514734,0.00068960789910606,-0.0597284712439027,-0.0345337449816003,0.00138625554423495,-2.57007179828734e-05,-0.0689762788027924,0.00153061494418813,-1.06876307398312,-0.000808728757584693,0
0.16,0.00119940275239958,0.000688192642177968,-0.0595994572047315,-0.0344628777373029,0.00138256789584792,-2.61168256537349e-05,-0.0688290753726872,0.00153089006001588,-1.06876765142579,-0.000727567399483806,0
0.17,0.0011987582348367,0.000688165395614021,-0.0595989605347661,-0.0344615095951743,0.00138198968807104,-2.64086988456324e-05,-0.0688279754169137,0.00153020927053298,-1.06877171278372,-0.000663123409940808,0
0.18,0.00119823432470603,0.000688163929616486,-0.0596008888380301,-0.0344614275555838,0.00138152962129525,-2.66645159851156e-05,-0.0688296207789924,0.00152945835905163,-1.06877532906575,-0.000605899265671143,0
0.19,0.0011977686428394,0.000688163045475334,-0.0596026416848447,-0.0344614001746976,0.00138112088701179,-2.68922737414961e-05,-0.068831139246855,0.0015288125433459,-1.06877854931379,-0.00055494524424575,0
0.2,0.00119735427954902,0.000688162265813368,-0.0596042141386216,-0.0344613441466218,0.00138075719773695,-2.70949394048015e-05,-0.0688324863384811,0.00152820415435208,-1.06878141690413,-0.000509571389562553,0
0.21,0.00119698510598046,0.00068816157156844,-0.0596056006292604,-0.0344613136733272,0.00138043317101906,-2.72754994978421e-05,-0.0688336831923359,0.00152768604217992,-1.06878397045767,-0.000469166535759017,0
0.22,0.00119665632853108,0.000688160953268373,-0.0596068292472156,-0.0344612860282258,0.00138014459953879,-2.74363004179092e-05,-0.0688347434433483,0.00152722713252861,-1.06878624436553,-0.000433186514244977,0
0.23,0.00119636363983118,0.000688160402610964,-0.0596079231121877,-0.0344612583089388,0.0013798877028056,-2.75794502787674e-05,-0.068835685914401,0.00152681586244698,-1.06878826925203,-0.000401146751022167,0
0.24,0.00119610296534154,0.000688159912202731,-0.0596088908857602,-0.034461227612524,0.00137965890490009,-2.77069412165269e-05,-0.0688365167592205,0.00152644739516504,-1.06879007238835,-0.000372615738976936,0
0.25,0.00119587092902369,0.000688159475457147,-0.0596097528403744,-0.0344611997659432,0.00137945524264335,-2.78204257556736e-05,-0.0688372565152484,0.0015261187544439,-1.06879167805872,-0.000347209226370789,0
0.26,0.00120759160988405,0.000694746595921773,-0.0601769337937637,-0.0347910861649719,0.00139289939978909,-2.79569468009862e-05,-0.069493192390935,0.0015424813366818,-1.06879305886789,-0.00036296807853405,0
0.27,0.00116304887083392,0.0006696885534369,-0.0580715117767128,-0.0335362367850995,0.00134179479090929,-2.74257842397414e-05,-0.0670437226267767,0.00145564902465875,-1.06879457690658,-0.000199113774511939,0
0.28,0.0011530537172952,0.000663539665955891,-0.0572874076381807,-0.0332283332390389,0.0013300740670189,-2.68465921291609e-05,-0.0662082011143853,0.00156310874375833,-1.06879575859568,-0.000149421651032259,0
0.29,0.00119429553210861,0.000687702991548846,-0.0595706687924231,-0.0344383512575726,0.00137785442963577,-2.81849841744335e-05,-0.0687919929577221,0.00152522871112569,-1.06879651580503,-0.000267897555130524,0
0.3,0.00119017734566672,0.000685566679038552,-0.0593743418220266,-0.0343313671372013,0.00137321638911936,-2.82937130864397e-05,-0.0685684099660717,0.00152590662652556,-1.06879642866946,-0.000256244232895091,0
0.31,0.00119495248489919,0.000688110029279769,-0.0596077728568889,-0.0344587446575977,0.00137862616472068,-2.82267870947049e-05,-0.0688343308726669,0.00152530706685282,-1.06879731147963,-0.000257743731611504,0
0.32,0.0011949369835177,0.000688156835926359,-0.0596130314722144,-0.0344610706709483,0.0013786350752621,-2.82763977127351e-05,-0.0688400586826167,0.00152487168942349,-1.06879812382248,-0.000245210939679102,0
0.33,0.00119483442166495,0.000688157508411528,-0.059613495576963,-0.0344611146725553,0.0013785454702801,-2.83273357165435e-05,-0.0688404855962663,0.00152473678051103,-1.06879884774746,-0.000233762927338819,0
0.34,0.0011947411729923,0.000688157349054536,-0.0596138131756351,-0.03446111499619,0.0013784636313636,-2.83729538235346e-05,-0.0688407631834979,0.00152462862157374,-1.06879949240479,-0.000223562645085396,0
0.35,0.00119465838111575,0.000688157193125608,-0.0596141039529154,-0.0344610868103747,0.00137839096272051,-2.84134459551938e-05,-0.0688410036481795,0.00152450351672831,-1.06880006646429,-0.000214479296327192,0
0.36,0.00119458434097118,0.00068815705400913,-0.0596143427661723,-0.0344610870855785,0.00137832597588824,-2.84496549679216e-05,-0.0688412123507095,0.00152442403779967,-1.0688005776572,-0.000206390684274116,0
0.37,0.00119451856631443,0.000688156930119812,-0.0596145589345649,-0.0344610873389779,0.00137826824366777,-2.84818229534552e-05,-0.0688414012771465,0.00152435158223476,-1.06880103286794,-0.000199187875443091,0
0.38,0.00119445989299232,0.000688156819794932,-0.0596147419369292,-0.0344610875736442,0.00137821674456997,-2.85105170850957e-05,-0.068841561196487,0.00152429163724452,-1.0688014382273,-0.000192773863454625,0
0.39,0.00119440762251289,0.000688156721549542,-0.0596148993967621,-0.0344610877914276,0.00137817086541772,-2.85360796970738e-05,-0.0688416987842164,0.00152424091198379,-1.06880179919459,-0.000187062265279315,0
0.4,0.00119436117279954,0.000688156634061971,-0.0596150400637631,-0.0344610879938538,0.00137813009518022,-2.85587964234941e-05,-0.0688418217038417,0.00152419553229945,-1.06880212063147,-0.000181976157897469,0
0.41,0.0011943200576079,0.00068815655615378,-0.0596151733186383,-0.0344610597080265,0.00137809400691817,-2.85789061754148e-05,-0.0688419244716827,0.00152412632238562,-1.06880240686711,-0.000177447042314628,0
0.42,0.00119428315395093,0.000688156486776417,-0.0596152730446198,-0.0344610598861353,0.00137806161558263,-2.85969537055711e-05,-0.0688420115911879,0.00152409603999221,-1.06880266175598,-0.000173413921026083,0
0.43,0.00119425032483022,0.0006881564249959,-0.059615359145245,-0.0344610600533847,0.00137803280053293,-2.86130088525114e-05,-0.0688420868037001,0.00152407038267694,-1.0688028887315,-0.000169822476508444,0
0.44,0.00119422098816606,0.000688156369980563,-0.0596154263024041,-0.034461057300939,0.00137800705101833,-2.86273551852547e-05,-0.0688421440429098,0.00152404956980972,-1.06880309085005,-0.000166624339680346,0
0.45,0.00119419502754933,0.000688156320989489,-0.0596154898906744,-0.0344610574498906,0.00137798426455927,-2.86400518224543e-05,-0.0688421995833622,0.00152403149386434,-1.06880327083399,-0.000163776438474893,0
0.46,0.001194171744485,0.000688156277363397,-0.0596155338773326,-0.0344610575917193,0.0013779638284523,-2.86514376269146e-05,-0.0688422379671645,0.00152402148655598,-1.06880343110743,-0.000161240417751499,0
0.47,0.00119415102255775,0.000688156238514397,-0.0596155692205682,-0.0344610577267182,0.00137794564030134,-2.86615710756498e-05,-0.0688422687973909,0.00152401442392711,-1.0688035738287,-0.000158982122731684,0
0.48,0.00119413274535224,0.000688156203919539,-0.0596156050759887,-0.0344610578552146,0.00137792959774807,-2.8670510376941e-05,-0.0688423000973063,0.001524006033164,-1.06880370092016,-0.000156971139005559,0
0.49,0.00119411633079189,0.000688156173113275,-0.059615625684554,-0.034461057978751,0.00137791519025703,-2.86785375624503e-05,-0.0688423180502665,0.00152400401628172,-1.06880381409347,-0.000155180382923387,0
0.5,0.00119410177887668,0.000688156145680116,-0.059615642920227,-0.034461058097335,0.00137790241758521,-2.86856543692148e-05,-0.0688423330629698,0.00152400276477466,-1.06880391487278,-0.000153585736828403,0
0.51,3.45764272310404,-0.0309739081348716,4.95746515093106,1.55599311114365,-0.496230931343463,3.4219888144758,0.874348984349445,5.12182478597126,0.135050740798941,40.708375804834,370.722413114438
0.52,3.08625873534737,0.0210272769287893,3.2755824184838,-1.04331728641132,-1.68811560696241,2.5837377625086,-2.67978122697551,2.15330530021976,0.585547997215973,81.4223273579259,370.722413114438
0.53,2.68817877947518,0.00024402818823055,4.86613970975631,0.00226856467295275,-2.60365283680928,0.668802747710742,-4.71267655357018,1.21243578084893,1.31945220387865,118.297194910691,370.722413114438
0.54,2.28792746632467,-0.0365369869035096,7.56730729501396,1.84085961525513,-1.6575999034478,-1.5774376699777,-6.81198692102641,-3.77488251578959,2.31545206573065,153.089808206013,370.722413114438
0.55,1.91359616079152,-0.00434044473722384,11.0688265932504,0.22317907321806,0.767427845300863,-1.75297564395899,4.21136782360397,-10.2388042321593,-2.73121056193663,183.066644183929,370.722413114438
0.56,1.70097826119914,0.0681423047990174,9.6442140546664,-3.39873024128385,1.65676402867677,0.391284259916087,8.37676714057444,5.86446964847074,-1.29883304014781,207.100997825745,370.722413114438
0.57,1.51560544388593,0.0555388011571604,8.07184431816656,-2.76178499701994,-0.394718034027104,1.46435722881557,-5.02328200325705,6.89556125215606,0.299920949690062,229.024398816699,370.722413114438
0.58,1.30318679904488,0.0405897533831236,8.50788039460146,-2.02899038927575,-1.17197050295755,-0.57133921752491,-6.58229344888522,-5.75970865247367,2.05553297211146,249.094045054235,370.722413114438
0.59,1.22894422804416,0.0462099646449449,4.09496055818994,-2.29604953238382,0.849746901434373,-0.889027266161294,4.5376937655176,-1.20410992798577,-2.34119783976126,265.326687771875,370.722413114438
0.6,1.03455581494685,-0.00691391635815697,6.07960705879035,0.344834286447637,0.337665038423649,0.977924260004886,2.34780845364916,5.61856993721506,-0.339153343246288,280.767495446933,370.722413114438
0.61,0.875936582372525,0.0354371664237055,7.64295686515099,-1.76205648840152,-0.866091261158071,-0.135670986022148,-7.15404649979715,-3.21547063267831,1.76661528636487,293.305125793892,370.722413114438
0.62,0.822715008729783,0.00170049980702686,4.50246604003041,-0.0888781562822073,0.5990703335176,-0.563895037030787,3.3456758725454,-3.01439093751272,-2.32389056340368,304.940134428053,370.722413114438
0.63,0.633823565484278,0.0342281553174872,8.98744239415301,-1.70449071249556,0.066849790912273,0.631217065861361,-1.23901454714395,9.06334664068235,-0.0515626247245333,314.659149833003,370.722413114438
0.64,0.54349864629395,0.0647631979843763,9.10266942175152,-3.2502169895352,-0.452504728196445,-0.30793590452622,-4.73295550096465,-8.42743337598357,2.28692511736312,323.445725967751,370.722413114438
0.65,0.53976721430071,-0.0163345296310796,5.48320003153353,0.828432473601445,0.540009367300681,0.00231208125616251,5.45983774672454,-0.970543522243392,-1.59676773682545,330.882078035494,370.722413114438
0.66,0.506463148620724,0.0229842072725096,3.77495232149686,-1.15883400679395,-0.366504115198038,0.350296914399295,-3.60627684168223,1.60870402063992,0.853355450904842,337.589601774679,370.722413114438
0.67,0.333375193031274,0.0256088629951205,9.54405521531914,-1.2709191346454,0.0436486904715537,-0.331496040719434,3.21063958621197,-9.07722528349478,-2.93400757604672,343.222432951373,370.722413114438
0.68,0.332821234682444,0.00835545338292992,6.94225530787629,-0.427149444814337,0.136941703826372,0.303457999746112,2.3022052989508,6.56332356123211,-0.398810481728895,348.36135383068,370.722413114438
0.69,0.312744347975425,0.0858625603836546,5.72721599978733,-4.28485671332834,-0.306565715514337,-0.105824706649219,-2.30522404736285,-6.77103701462597,2.17112704790744,352.719045282576,370.722413114438
0.7,0.281806296254573,0.0660203094805334,5.23249088555022,-3.31145995269928,0.285216978522951,-0.0492417001621993,5.02753035747702,3.61506104932465,-1.51163221318869,356.653586702974,370.722413114438
0.71,0.188643565813127,0.0670383277703511,8.16799996171057,-3.342245401311,-0.139913561448957,0.143194719300698,-8.80547066192067,0.592042328843727,1.11525997020933,360.000940499542,370.722413114438
0.72,0.158845481386744,0.00989934878436646,8.10264195262912,-0.495161510777776,0.0847780096520127,-0.134694369380402,5.13613614341978,-6.28634210415868,-2.51758811897744,362.973776515114,370.722413114438
0.73,0.209245583948289,-0.0130559398774756,4.2499961622122,0.641914507423684,-0.0447455576957836,0.20482189100396,-0.0122989292522883,4.29818221461104,0.152767194757275,365.584844804885,370.722413114438
0.74,0.216764984400677,0.0304824610730722,2.73844736688585,-1.51687303090147,-0.0933596440073803,-0.197990443623202,0.637068847400325,-3.06498630612802,2.84068268517119,367.704785042705,370.722413114438
0.75,0.131164901644186,-0.0163741458474821,6.00730150307555,0.808392523873843,0.0763397883892229,0.107910058772351,4.64721475543492,3.89160183451196,-0.73989502595316,369.617205169552,370.722413114438
0.76,0.0246926138909542,0.0493772154010768,10.4637666389694,-2.45974030846553,-0.0421428726024515,0.0356624854762763,-8.64947054977145,-6.38180177289575,1.9755799030983,371.254594650669,370.722413114438
0.77,0.143745771939799,-0.032795275687105,3.72648940788711,1.63867060181112,0.144063004376168,0.0313724055194051,3.71010511619453,-1.67543566725853,-1.58068385415849,372.750662722926,370.722413114438
0.78,0.0243193037120734,0.038485343152403,8.95441926926301,-1.93176723812153,-0.00678259761092589,0.0450171805008548,-8.97502151957906,1.83366786390587,1.15678495823632,374.098441859245,370.722413114438
0.79,0.0462104207800019,0.0576441185927109,7.26223855006225,-2.88132283271227,-0.00983682476926798,-0.0732221569980977,7.09653277308737,-3.26823386935761,-2.38008532913631,375.17887465096,370.722413114438
0.8,0.0116124532595062,0.00342880949881344,8.47116305813704,-0.185911737236012,-0.0010471475824756,0.0120627230434875,-3.26561040671266,7.81862874186758,0.373703231946953,376.087853217942,370.722413114438
0.81,0.0626619376715894,0.035478142228805,5.47588047162763,-1.76336597734442,-0.0359752207451664,-0.062377884711667,1.7197737209391,-5.48972721165414,3.13364197214471,376.868465312236,370.722413114438
0.82,0.0592020400388201,0.0104541878781832,5.24772684306099,-0.529163154785072,0.0318905393756143,0.0509623889479566,1.47719945594087,5.0632531470521,-0.384367003641943,377.592322477179,370.722413114438
0.83,0.0552248670530801,-0.0140357635211214,5.09994852537469,0.701742383998848,-0.0276722141502187,-0.0498100106672911,-4.00917936266962,-3.22930304755002,2.38560746471111,378.115252652762,370.722413114438
0.84,0.0198117577596667,0.0204831280473192,6.58846283927539,-1.02067605461721,0.0267170134150099,-0.00991289434588952,5.50080043136416,3.76707005606288,-1.12402652608641,378.610841191873,370.722413114438
0.85,0.0529383732781154,-0.0629681726288616,4.67294455042825,3.13968287660143,-0.0475986860282118,-0.0670956572211564,-4.91458049626565,2.74607317504953,1.65285896238382,379.025666703107,370.722413114438
0.86,0.0120774066999384,0.0499903022529765,6.45441408797058,-2.49070937117789,-0.00217469966916271,-0.0513825335429133,6.89097404279201,0.614468170235974,-1.85014735524363,379.445258382529,370.722413114438
0.87,0.043822191854775,-0.005429268928968,4.72117780733526,0.266439560819316,-0.038415032566143,0.0217749106313192,-3.63093343111974,3.02932869573798,0.931856360780461,379.648804183362,370.722413114438
0.88,-0.0337354442371814,-0.0754125179292287,8.42626588306269,3.77003618038191,0.04499971905929,0.0692831389509106,1.41073157964053,-9.12277183446236,-2.56746740543031,379.863993911399,370.722413114438
0.89,0.0698024191353187,-0.0141588529410784,3.03992787841153,0.715646516972159,-0.0289330552099378,0.0650824795929633,0.0406349359927251,3.12276483987746,0.218194043533279,380.216712795497,370.722413114438
0.9,-0.0166322469108456,-0.0953252950530319,7.24140655527928,4.7596556223488,0.0966997406001227,0.00356422251268185,-5.69683811357376,-6.52980291049674,3.00569468393364,380.310954442647,370.722413114438
0.91,0.019502423185647,-0.0213616651264861,5.3520492986435,1.08319340862574,-0.00969219640625328,0.0272530104008861,3.47108046114038,4.21536950787118,-0.489176630375243,380.452569871302,370.722413114438
0.92,-0.0521372924967881,-0.0112173322420686,8.84303915554389,0.556301866983386,0.0463633827832781,0.0263545546047703,-6.9671302515283,-5.47429532743081,2.29960200987778,380.453666795702,370.722413114438
0.93,-0.0162675811706675,0.0120232159059812,7.02986945687744,-0.615821486493024,-0.0107143646301415,-0.0171579226143047,6.31230323599012,3.15485792720899,-1.19469033635012,380.410701368817,370.722413114438
0.94,0.00966403617176237,-0.0633577718510839,5.64840413268467,3.17975678479752,-0.00818579038877292,-0.0635656643540694,-5.72092959589539,3.04734097458807,1.59408877762728,380.51410499388,370.722413114438
0.95,-0.054199925593438,0.0273709556079869,8.7977035960322,-1.38487326806275,-0.0601364483979593,-0.00839099036515876,8.77329176536842,-1.53193150367481,-1.89979840891384,380.51442192504,370.722413114438
0.96,0.0667542144869459,0.0138840318774067,2.66255928545052,-0.681230516973972,-0.0431252187674414,0.0528119967356125,-2.49758278640303,1.14689894535599,0.889833005763047,380.609464501794,370.722413114438
0.97,-0.00307184857201591,0.0272631652652553,6.12086270825622,-1.36902093773925,-0.0249871760303082,-0.0113294954856961,4.31156967305737,-4.55516690974788,-2.60370386149611,380.594678663046,370.722413114438
