t,iq,id,vq,vd,ia,ib,va,vb,theta_e,omega,r
0,0,0,0,0,0,0,0,0,0,0,0
0.01,0.000662622472137644,0.000378627508746911,-0.0328170116816063,-0.018954460037441,-0.000518860275031467,-0.000559652879878202,0.0258943582505615,0.027671465841426,2.91312976708729,-0.00111063082565051,0
0.02,0.000735339222067676,0.0004200972361959,-0.0364565404434268,-0.0210304800506044,-0.00057572655524685,-0.000621083241565995,0.0287409734964405,0.0307460058339126,2.91312142487267,-0.00119705694394364,0
0.03,0.00076382648647478,0.00043637728968414,-0.0378678902904163,-0.0218454665911266,-0.000598041146038378,-0.000645137836464105,0.0298547111908333,0.0319358379464665,2.91311282277038,-0.0012062069176253,0
0.04,0.000747260742053382,0.000427098260033004,-0.0370554209498642,-0.0213809510149206,-0.000585256290753799,-0.00063109952818117,0.0292184992171466,0.0312494574604371,2.91310470544667,-0.00114011436177552,0
0.05,0.000763890807199818,0.000436657701552456,-0.0378812478114576,-0.02185950816128,-0.00059833929111342,-0.000645127279193302,0.0298719308517018,0.0319451839875321,2.91309662122461,-0.00113126969135783,0
0.06,0.000764377516591969,0.000437044294819146,-0.0379102089739863,-0.0218788605242306,-0.000598831164939783,-0.000645509054469519,0.0298975920169173,0.0319687734184471,2.91308874704829,-0.00109563245253683,0
0.07,0.000784666816711231,0.000448792622383799,-0.0389162558140673,-0.0224669875479575,-0.00061487504645553,-0.000662605092343979,0.0306985690049076,0.0328152153294311,2.91308121375793,-0.00109563340001748,0
0.08,0.000764847230415218,0.000437533748229877,-0.0379427492372985,-0.0219033687620891,-0.000599423961718862,-0.00064584671620376,0.0299293130874761,0.0319944682863212,2.9130737804593,-0.00102711297207894,0
0.09,0.00076382262049416,0.000437074161268131,-0.037896638190981,-0.021880348703488,-0.000598748797916189,-0.000644948598743128,0.029896672898253,0.0319545582848397,2.91306667071432,-0.000992417174601237,0
0.1,0.000763594441613811,0.000437053687671988,-0.0378896803330752,-0.0218793282349629,-0.000598681591767414,-0.000644726879267513,0.0298943220955436,0.0319478072205866,2.91305980382964,-0.000960216288023036,0
0.11,0.000763405960798024,0.000437051126622623,-0.0378845352239836,-0.0218791997380691,-0.000598640673841362,-0.000644539907132847,0.0298932432662276,0.0319426266506328,2.9130531686808,-0.000929157159421938,0
0.12,0.00076322527982434,0.000437049351945038,-0.0378796336435279,-0.0218791076513785,-0.000598602142324084,-0.000644360488394141,0.0298922478596297,0.0319376817331341,2.91304675732817,-0.000899147936333578,0
0.13,0.000799463059950439,0.000457856228697192,-0.0396721059870163,-0.0229207172616098,-0.000627082395163389,-0.000674937908298446,0.0313130923684668,0.0334473544477823,2.91304033414017,-0.000931721630654469,0
0.14,0.0008365277523092,0.000479400327127451,-0.0415537094295897,-0.0239992481833193,-0.000656468289766529,-0.000706153480883864,0.0327901043890447,0.0350354639598062,2.91303413374697,-0.000966749729820981,0
0.15,0.000765795458959971,0.000438766216566565,-0.0380181675710462,-0.0219650570311673,-0.000600868733992831,-0.000646463643427612,0.0300079470524955,0.0320525803881249,2.91302809079786,-0.000817102183941428,0
0.16,0.000762672107792233,0.000437112761313645,-0.037867507130882,-0.0218822869054617,-0.000598554183382652,-0.000643792823556316,0.0298933710129003,0.0319244255391609,2.91302251377498,-0.000785896702876591,0
0.17,0.000762395871246834,0.000437044137224653,-0.0378572362883529,-0.0218788535616681,-0.000598428213914087,-0.000643536102459106,0.0298878713823419,0.0319150390380098,2.91301713587235,-0.000760510325067044,0
0.18,0.000762244201715997,0.00043703999259421,-0.0378529982929356,-0.0218786444952822,-0.000598393153313902,-0.000643386207688235,0.0298868732756226,0.0319108033512602,2.91301193981933,-0.000736180547668542,0
0.19,0.000762102485803928,0.000437038514997712,-0.0378491408033395,-0.0218785663939287,-0.000598362831581811,-0.00064324550852791,0.0298860833144173,0.0319069138452511,2.9130069190389,-0.000712679789724618,0
0.2,0.000761965625298111,0.000437037189881978,-0.0378454157946324,-0.0218785122944037,-0.000598333648320745,-0.000643109605559631,0.0298853413106745,0.0319031530045148,2.91300206760068,-0.000689972021565585,0
0.21,0.000761833571858134,0.000437035913537819,-0.0378418247186226,-0.0218784400397676,-0.000598305495375175,-0.000642978471751446,0.0298846067190554,0.0318995316243994,2.91299737979254,-0.000668030158021102,0
0.22,0.000761705849951473,0.000437034680318912,-0.0378383474162727,-0.0218783859590014,-0.000598278263161546,-0.000642851641889599,0.0298839105348262,0.0318960216721786,2.91299285009513,-0.000646828352352539,0
0.23,0.00076158264407114,0.000437033488614128,-0.0378349965467188,-0.0218783137275767,-0.000598251995464804,-0.000642729292815415,0.0298832204204614,0.0318926435491731,2.912988473176,-0.000626341643237845,0
0.24,0.000761463420479364,0.000437032337022258,-0.03783174881139,-0.0218782596629604,-0.000598226573388498,-0.000642610901886301,0.0298825666361202,0.0318893661781771,2.91298424388196,-0.000606545911823582,0
0.25,0.000761348271422305,0.000437031224195733,-0.0378286120054639,-0.0218782056040058,-0.000598202019826061,-0.000642496556252073,0.0298819334212048,0.0318862011177525,2.91298015723399,-0.00058741785276178,0
0.26,0.000769008873506919,0.000441463951495237,-0.0382091313163514,-0.022100112069493,-0.000604258053614053,-0.000648950901567079,0.0301844282264064,0.0322064118162712,2.91297623711307,-0.000582435092596996,0
0.27,0.000743739135684232,0.000427013985145465,-0.0369644157751789,-0.0213767312802398,-0.000584459634429303,-0.000627611170376138,0.0291979010390491,0.0311579082857269,2.91297232301732,-0.000520841732894526,0
0.28,0.000741074034516925,0.000425475443259978,-0.0367897549184207,-0.0212997070254584,-0.000582359434246754,-0.000625361948631565,0.0290834114652214,0.0310051409265053,2.9129686270811,-0.000499137711992798,0
0.29,0.000760086383843084,0.00043655745403521,-0.037775677022343,-0.0218544942496426,-0.000597464230160489,-0.000641365898108167,0.0298473206381475,0.0318395688433065,2.91296514126229,-0.000515691413476027,0
0.3,0.000755864131010778,0.000434246974520974,-0.0375692274261509,-0.0217388178277655,-0.00059425890979963,-0.000637775326861312,0.0296879622848164,0.0316646166141633,2.91296204899812,-0.00049410529613036,0
0.31,0.000760535182095126,0.000436912392928682,-0.0378018218897128,-0.0218722593690487,-0.000597915763648688,-0.000641718740477119,0.0298707532654299,0.0318608155489517,2.91295872941749,-0.000486762727164377,0
0.32,0.000760644779717453,0.000437019915479177,-0.0378092328403092,-0.0218776322220738,-0.000598047398135183,-0.000641799187457088,0.0298777687519565,0.031866719536558,2.91295550410101,-0.000472010720078974,0
0.33,0.000760565219992374,0.000437023473352654,-0.0378072396927044,-0.0218778174717481,-0.000598034831598262,-0.000641719027549055,0.0298775967641761,0.0318646431347665,2.91295238682443,-0.000457434401006355,0
0.34,0.000760480654131277,0.000437022831869402,-0.037804933079898,-0.0218777903009486,-0.000598016972385755,-0.000641635006543176,0.0298771434736595,0.0318623127139606,2.91294937465625,-0.000443336183597624,0
0.35,0.00076039859118737,0.000437022046136237,-0.0378026857634448,-0.0218777543992028,-0.000597999474308459,-0.000641553516875752,0.0298766918689507,0.0318600450635175,2.91294646408163,-0.000429712903576127,0
0.36,0.0007603193222105,0.000437021280126012,-0.0378005143565745,-0.021877718495705,-0.00059798256528508,-0.000641474802797965,0.0298762543279718,0.0318578542831945,2.91294365167539,-0.000416549087038952,0
0.37,0.000760242939440109,0.0004370205396441,-0.0377984255324262,-0.0218776644648652,-0.000597966274047442,-0.000641398950841968,0.029875814816215,0.0318557508816669,2.91294093412595,-0.000403829260061368,0
0.38,0.00076016870049658,0.000437019824094672,-0.0377963843010191,-0.0218776466834042,-0.000597950433838009,-0.000641325236162849,0.0298754184671982,0.0318536883585557,2.9129383082347,-0.000391538448684361,0
0.39,0.000760097173134457,0.000437019132650076,-0.037794421042262,-0.0218776093191995,-0.000597935174562781,-0.00064125421006789,0.029875017887567,0.03185170886563,2.91293577090963,-0.000379662183070071,0
0.4,0.000760028090495468,0.000437018464499145,-0.0377925243820632,-0.0218775734082291,-0.000597920436896634,-0.000641185611033745,0.0298746310838459,0.0318497964672524,2.91293331916365,-0.000368186481381006,0
0.41,0.000759961452577549,0.000437017818858261,-0.0377906961750193,-0.0218775374948138,-0.000597906221961271,-0.000641119437502412,0.0298742571515161,0.0318479532132709,2.9129309501107,-0.000357097833358007,0
0.42,0.000759897026550056,0.000437017194969589,-0.0377889265883503,-0.0218775015794979,-0.000597892478062765,-0.000641055461200254,0.0298738939520081,0.0318461694431974,2.91292866096146,-0.000346383184417059,0
0.43,0.000759834487344804,0.000437016592101652,-0.0377872011544742,-0.0218774837782025,-0.000597879132560339,-0.000640993364068287,0.0298735559368318,0.031844426878862,2.91292644902077,-0.000336029920280822,0
0.44,0.000759774368683186,0.000437016009546384,-0.0377855482307774,-0.0218774478571549,-0.000597866307444147,-0.00064093366453236,0.0298732143270599,0.0318427612749347,2.91292431168479,-0.000326025852126663,0
0.45,0.000759716229081351,0.000437015446620225,-0.0377839473461525,-0.0218774119342191,-0.000597853903612727,-0.00064087593124511,0.0298728822094503,0.0318411485109542,2.91292224643724,-0.000316359202238321,0
0.46,0.000759659859885034,0.000437014902662696,-0.0377823897158239,-0.0218773926656923,-0.000597841874706762,-0.000640819959674276,0.0298725738934205,0.0318395761823146,2.9129202508464,-0.000307018590138801,0
0.47,0.00075960567840308,0.000437014377034701,-0.037780897693858,-0.0218773567368594,-0.000597830316229204,-0.000640766155000809,0.0298722620742219,0.031838073542766,2.91291832256335,-0.000297993019191959,0
0.48,0.000759553034498785,0.000437013869119432,-0.0377794402386786,-0.0218773389154438,-0.000597819081678874,-0.000640713882789874,0.0298719736507016,0.0318366024095045,2.91291645931743,-0.000289271863658557,0
0.49,0.000759502253239466,0.000437013378320539,-0.0377780350461247,-0.0218773210891569,-0.000597808245588079,-0.00064066345846619,0.0298716950638314,0.0318351840578591,2.91291465891557,-0.000280844856184619,0
0.5,0.000759453310445615,0.000437012904061583,-0.0377766823037225,-0.0218772851519629,-0.000597797803291524,-0.000640614857338612,0.0298714087894812,0.0318338227115184,2.91291291923767,-0.000272702075715154,0
0.51,2.78020022605443,-0.0155646175461589,5.18963729592065,0.781344148895578,-0.140946923773685,2.77666878092278,0.546475580465565,5.21959753067023,0.0451193054018718,13.8547562464473,535.420153257139
0.52,2.77726168449365,-0.021324015893247,3.5238571784437,1.07207305983393,-0.58135565232403,2.71581714835908,0.338877086221743,3.66770669221582,0.203202355022113,29.2540790527194,535.420153257139
0.53,2.7535501948476,0.0534539840541569,2.85205490420892,-2.66897100194962,-1.20873119744901,2.47464439794287,-3.67623295215726,1.3202025099746,0.473772411317192,44.5681912941102,535.420153257139
0.54,2.66637887410901,-0.00588099633650041,5.23347906544611,0.304146698565692,-2.01953391568016,1.74100363291704,-3.75721849480357,3.65583335575038,0.857124173528533,60.1028984710722,535.420153257139
0.55,2.63002941109585,-0.0314799429680723,4.81939245360218,1.58785678450752,-2.57664003237424,0.528177842781138,-4.37184555561303,2.57581040214741,1.35664130166426,76.3702409864915,535.420153257139
0.56,2.58778682590088,0.038969177546192,4.55272898663606,-1.94016073535073,-2.3924420170856,-0.987107110696779,-3.41504766934498,-3.58176134336926,1.97716993907797,92.6628928997255,535.420153257139
0.57,2.53842679678243,-0.0101398582442982,5.00911385884924,0.521305260356675,-1.05020703274703,-2.31101246377361,-2.56430483444086,-4.33443439694896,2.71106143499556,107.341372627241,535.420153257139
0.58,2.53552274117178,0.043144455364837,3.27367262786384,-2.1420411850274,0.966080093192065,-2.34465909431755,3.26480433241392,-2.15553371206062,-2.73374071727572,121.442774033903,535.420153257139
0.59,2.48502531056082,-0.0147206570213523,3.59892465464277,0.751930087689943,2.4293051662987,-0.523492025598736,3.35086468407704,-1.51306424039902,-1.78896488127417,136.580977028314,535.420153257139
0.6,2.44230530842614,-0.00337248532132239,3.58969115110944,0.186893593460076,1.63312903822454,1.81597250467388,2.5428396217584,2.54062559887234,-0.733816687864188,150.934734301778,535.420153257139
0.61,2.41351605875573,0.0107044573677224,3.11860187986423,-0.512118441070454,-0.978089355220221,2.20647129246773,-1.74370529669616,2.63579870647417,0.421688525352391,164.432888782068,535.420153257139
0.62,2.3433271959717,-0.0187100220808768,4.36511485533793,0.955194232785908,-2.32718663637809,-0.275199512663236,-4.44346185017362,0.471455733543393,1.6805196337747,178.934725193778,535.420153257139
0.63,2.31527661737694,0.022697768952531,3.83058027407138,-1.11055236116073,-0.256785158408052,-2.30110460129677,0.717370210394805,-3.92327054435742,3.04026347340924,191.948244817005,535.420153257139
0.64,2.21606231245334,-0.0318484240000294,6.60627853978679,1.61398288723894,2.17191052937447,-0.441306183029003,6.11034753720961,-2.98521521503293,-1.78562603421511,205.749330549063,535.420153257139
0.65,2.15599028806746,0.00178170202785588,7.68069571537914,-0.0614214538693353,0.495729869309108,2.09822524848456,1.70006726526747,7.49043593930319,-0.231180718947487,218.287046966743,535.420153257139
0.66,2.15481621312729,0.0203388877360714,5.57791645354804,-0.996188193850131,-2.12651289230768,0.348696861987288,-5.66459203258572,-0.133940228067099,1.41770535468245,231.505916005369,535.420153257139
0.67,2.14853288918539,0.0223644508323968,3.97251074818723,-1.08805160426534,0.0147815346994975,-2.1485984387047,1.1565635665792,-3.95310746811531,-3.12430434774425,243.697071092759,535.420153257139
0.68,2.09412872797056,0.0135089199887304,4.60055414633277,-0.648481895900231,2.01635826657608,0.565558981045438,4.24234741329655,1.89423220528689,-1.29088683801436,256.112257198543,535.420153257139
0.69,2.02740823431937,0.00488245055446956,5.88291849019209,-0.222252524995836,-1.19159690846776,1.64027582882864,-3.64858962776483,4.62016448573835,0.630673581301915,268.406756277806,535.420153257139
0.7,1.97687350000729,0.0754192788876089,6.48924620009659,-3.74226156722544,-1.01621080764358,-1.6973604499597,0.16306323182474,-7.48920878767761,2.64026139755066,279.899498739967,535.420153257139
0.71,1.93797108545832,0.051278248909742,6.39424866659585,-2.53657289844034,1.93864207867304,-0.00531767637483312,6.33231331112958,2.68745720134404,-1.54708572305708,291.545447024631,535.420153257139
0.72,1.90668051845066,0.0487511965797354,5.91968260454464,-2.41537465400511,-1.0876024248344,1.56682106320459,-5.44711831739137,3.34747350909579,0.632349280583516,303.108676778792,535.420153257139
0.73,1.86255505364483,-0.0214682777691995,6.1794002386152,1.09741179514069,-0.435675025630763,-1.81101062582468,-2.578434220878,-5.72197316716155,2.89398294144144,314.222932544702,535.420153257139
0.74,1.79901504552394,0.038670200546373,7.4445010067386,-1.90055417593293,1.57694214265376,0.866720253111907,5.49445956071609,5.37062524764516,-1.04675237282779,324.88727532011,535.420153257139
0.75,1.74912399041499,-0.0135045689716632,7.98698244121003,0.710906257639247,-1.71821814190024,0.327633215766142,-7.69529478938032,2.25382215977306,1.37465564851344,335.479189658013,535.420153257139
0.76,1.74613461589866,-0.0218317085876412,6.18695545970656,1.12580529605796,1.18264203411719,-1.28484261272678,3.29501299285881,-5.35618752490207,-2.41009198821763,345.92847954412,535.420153257139
0.77,1.68648833649103,0.0727549946900976,7.22541831182907,-3.61309942987825,-0.203053045735492,1.675800005666,-4.74227705339028,6.54002795253884,0.163693217265334,356.202593465796,535.420153257139
0.78,1.712040534118,0.0116570310009724,4.03011894582929,-0.555664053821685,-0.56602959573795,-1.61580604454357,-0.780810514754989,-3.9926127032671,2.81145232373455,366.216297496735,535.420153257139
0.79,1.66787958533463,-0.0451504842288498,4.34798894073183,2.28633994853806,1.10623078782014,1.24904536406047,4.63972289205402,1.61410336532616,-0.75190027225388,375.978404982631,535.420153257139
0.8,1.58138257205454,0.0163989013672641,6.80094986167206,-0.797274160294612,-1.41891136472264,-0.698376905563765,-5.71094654413819,-3.77804905707255,2.03854770069138,385.510243270951,535.420153257139
0.81,1.5931299483666,0.0402057557728256,4.35652816662212,-1.98877345372758,1.57320708789037,0.254359968924626,3.91490873589562,2.75826886043249,-1.38526944318578,394.808154191479,535.420153257139
0.82,1.51814783501106,0.0359653929979364,6.26983343452055,-1.77742129472471,-1.5164480055612,0.0803231278755625,-6.31910595756007,-1.59340442220467,1.54156371833255,403.861149106561,535.420153257139
0.83,1.49586204468374,0.0519905531524283,5.56667762152943,-2.57910956550052,1.46288196121507,-0.316674346757125,5.93606866735109,1.550095051726,-1.74923764983412,412.692751147661,535.420153257139
0.84,1.42552426298575,-0.0267824975491979,7.29010665867485,1.36492214616707,-1.38323523351909,0.345683403257122,-6.68239821929495,3.21779763172211,1.30711738035018,421.295708002977,535.420153257139
0.85,1.4075277787771,-0.014197638580671,6.41274623876401,0.737196747933264,1.35418774403141,-0.384072356315297,5.94315860819001,-2.51905520500095,-1.85724366017372,429.690444862421,535.420153257139
0.86,1.39549913167501,0.0344157282999743,5.2524828540695,-1.69316622689413,-1.34427634216804,0.376195939302161,-5.50747359649514,-0.350888284355326,1.32258353354043,437.880973746077,535.420153257139
0.87,1.37465799976962,-0.0168208972998475,4.55787780790434,0.875751233265578,1.36165771094,-0.189356376059063,4.37518817957806,-1.54884432001203,-1.72120909750726,445.861274577213,535.420153257139
0.88,1.27568626489576,-0.0152526994550652,7.79116362051201,0.798753733900545,-1.27558758931273,-0.0220089362693513,-7.79528480492332,0.757477985912069,1.57609267787824,453.647759688666,535.420153257139
0.89,1.25610777335786,0.0262711898997096,7.07081468508156,-1.27939596486388,1.23221567303478,0.245237535536916,6.6285171702997,2.77417275394254,-1.35343000328088,461.267705232989,535.420153257139
0.9,1.22873541376225,0.0537557663296311,6.74142052040105,-2.67457210792694,-1.1124145239764,-0.52460873638696,-4.72043311092166,-5.50614182878534,2.0551835122803,468.724681262939,535.420153257139
0.91,1.24252027051667,0.0224778147724005,4.37212348822093,-1.10564961581901,0.877526656331253,0.8799482042881,2.23391245659767,3.91759620245268,-0.765931779504232,475.920709111865,535.420153257139
0.92,1.16050531126799,-0.00699419527719325,6.8323849538417,0.375333270711232,-0.438473192976485,-1.07450581910467,-2.96615988685755,-6.16638100892107,2.74812233295598,482.869522951769,535.420153257139
0.93,1.13281147569064,-0.0168681256746673,6.61217173448968,0.877132969501339,-0.0502451489719136,1.13182233505306,0.681888980443327,6.63514918527989,0.0294746168127176,489.615249017953,535.420153257139
0.94,1.14252847491287,0.0366311022976324,4.53578912500587,-1.79967336234818,0.517176294245484,-1.0194321136362,3.75871743057982,-3.11195283941171,-2.64005731600018,496.246380353146,535.420153257139
0.95,1.05540693003109,0.00715798249986416,7.28082661924486,-0.344406839684298,-0.89637720805401,0.557174053193808,-6.38935627539848,3.50787381710802,1.02143907093468,502.767635370888,535.420153257139
0.96,1.08228597747481,0.000993247280778042,4.37453728501014,-0.0257618265006316,1.08214383425755,0.0175683111633385,4.37345207809577,0.100782192119158,-1.55364529390965,508.965965291966,535.420153257139
0.97,0.99859340290077,0.0162792481589746,7.03433773796437,-0.783203020200996,-0.817218634974789,-0.574114536384077,-5.22863983982542,-4.77039199730924,2.19951402096331,514.984599193137,535.420153257139
