t,iq,id,vq,vd,ia,ib,va,vb,theta_e,omega,r
0,0,0,0,0,0,0,0,0,0,0,0
0.01,0.00049698995643072,0.000283218964487182,-0.0245905817457048,-0.014172178253298,0.000107432876704729,-0.000561845330710461,-0.00519494344137555,0.027902686424005,-2.43468961536967,-0.00108694402299642,0
0.02,0.000574721827279994,0.000326763999865953,-0.0284596822495653,-0.0163511576004305,0.000124802195079728,-0.000649233627027847,-0.0060507360426845,0.0322599203650923,-2.43469807800279,-0.0012187731716649,0
0.03,0.000604555235778165,0.000343632975378336,-0.0299378702566373,-0.0171952653509431,0.000131345321464732,-0.000682875582667507,-0.00636863666891983,0.0339321925753683,-2.43470696936148,-0.00124098742733572,0
0.04,0.000591285084030977,0.000336215497958301,-0.0292888881863754,-0.0168240993399709,0.0001283612585552,-0.00066796878592266,-0.00622909123939719,0.0331977064287049,-2.43471546571693,-0.0011684872707222,0
0.05,0.000605879637843794,0.000344669110908602,-0.0300147657275073,-0.0172471143915386,0.000131406072038917,-0.000684557795806575,-0.00637857880925511,0.0340244448725631,-2.43472382998203,-0.00115916490322366,0
0.06,0.000607271162996744,0.000345597095936837,-0.0300890068447413,-0.0172935478188473,0.000131598571904526,-0.000686219668910825,-0.00639120906613366,0.0341111063399975,-2.43473198404962,-0.00112127895164134,0
0.07,0.000619814655939542,0.00035298004361786,-0.0307132538212886,-0.0176629949670935,0.000134125469532375,-0.000700553693397329,-0.00651542619976034,0.034825774548945,-2.43473975677988,-0.00111033015440399,0
0.08,0.000608343494319737,0.000346508085202375,-0.0301524593877015,-0.0173391331717389,0.000131591662831609,-0.000687628747555668,-0.00639722726467353,0.0341890600865014,-2.43474741995052,-0.00104605598856359,0
0.09,0.000606790392280193,0.000345795198328872,-0.030080818844468,-0.0173034631185721,0.000131120095514584,-0.000685985728643899,-0.00637757590476192,0.0341114646977887,-2.43475472800579,-0.00100581868503098,0
0.1,0.000606377824562889,0.000345715554380385,-0.0300652664855221,-0.0172994787567343,0.000130907902943376,-0.000685621201254108,-0.00637026575242959,0.0340970955998247,-2.4347617588154,-0.000969534317361392,0
0.11,0.000606104025546181,0.000345705580113639,-0.0300563830619069,-0.0172989762505671,0.000130733034092907,-0.000685407405636864,-0.00636464790437426,0.0340900571887921,-2.43476852997332,-0.000934867096659892,0
0.12,0.000605854217914939,0.00034570331042784,-0.0300485120526551,-0.0172988723523531,0.000130568060533061,-0.000685216822454561,-0.0063593930120142,0.0340840458537467,-2.43477505187703,-0.000901507638726481,0
0.13,0.000632105396056445,0.000360823801434186,-0.0313482658345431,-0.0180554909545762,0.000136113284273736,-0.00071499945541889,-0.0066278878006926,0.0355638247063697,-2.43478152411324,-0.000927851588846081,0
0.14,0.000650415739779591,0.000371548625781406,-0.0322850081450502,-0.0185921642929653,0.000139844065648562,-0.000735889022323315,-0.0068278831898897,0.0366247230046562,-2.4347878143286,-0.000937296270783553,0
0.15,0.000610276283897835,0.000348541287061547,-0.0302796016412976,-0.017440875246255,0.000131268708235551,-0.000690425012374871,-0.006400834723167,0.0343521137596772,-2.43479392137386,-0.000816531313844834,0
0.16,0.00060550999133252,0.000346010681732036,-0.0300482496327843,-0.0173142450587533,0.000130093998833066,-0.000685157859871577,-0.00634669770299332,0.0340939850445134,-2.43479954260594,-0.000777568402892968,0
0.17,0.000604785848204126,0.000345731479272585,-0.0300161912092158,-0.0173002856637412,0.000129832375090384,-0.000684426571902628,-0.00633631100852102,0.0340605751795026,-2.43480492721615,-0.000748864442015766,0
0.18,0.000604529752916913,0.000345699848533139,-0.0300070898209459,-0.017298699348461,0.000129686575585532,-0.000684211955135627,-0.00633143043706698,0.0340526566847778,-2.43481011030097,-0.000722223466021694,0
0.19,0.000604333437993517,0.000345695471902275,-0.0300008069375197,-0.0172984734293146,0.000129559003971914,-0.000684060471055451,-0.00632735222841085,0.034047763710186,-2.43481510228556,-0.00069667760921648,0
0.2,0.000604149938518966,0.000345694124748502,-0.0299950300174355,-0.0172984132477115,0.000129437577858298,-0.000683920674885823,-0.00632348285023072,0.0340433619267882,-2.43481991054508,-0.000672084819158863,0
0.21,0.000603973831428959,0.000345693142428487,-0.0299894962741826,-0.0172983676251473,0.000129320797089523,-0.00068378671324704,-0.00631976637928071,0.0340391533705712,-2.43482454187925,-0.000648398418842716,0
0.22,0.000603804524998308,0.000345692230811326,-0.0299841811225531,-0.0172983105261218,0.000129208496484498,-0.000683657946116301,-0.00631620642302421,0.0340351024836117,-2.43482900280216,-0.000625583733186435,0
0.23,0.000603641281801197,0.000345691356440192,-0.0299790522110841,-0.0172982678353818,0.000129100218199966,-0.000683533791902619,-0.00631276207112469,0.0340312015158572,-2.43483329958458,-0.000603608536261259,0
0.24,0.000603484033991941,0.000345690514559083,-0.0299741104608558,-0.0172982251522741,0.000128995917547068,-0.000683414196805641,-0.00630944466361586,0.0340274418576408,-2.43483743826658,-0.000582441921745864,0
0.25,0.000603332441964229,0.000345689703606374,-0.0299693430441988,-0.017298196860724,0.000128895371096121,-0.000683298902396291,-0.00630623473055131,0.0340238231340397,-2.43484142466504,-0.000562054135790164,0
0.26,0.000608692055958202,0.000348842424209286,-0.0302363934426983,-0.0174559534554347,0.0001299755385348,-0.000689422523056379,-0.00635954784825339,0.0343293744572447,-2.43484522489544,-0.000554966459110974,0
0.27,0.000593993193934325,0.000340436237535842,-0.0295136808570568,-0.0170353065740189,0.000126820789438439,-0.000672786172297017,-0.00621000964906005,0.0335066382670896,-2.43484903241811,-0.000502841251058177,0
0.28,0.000593563004939085,0.000340258856746454,-0.0294671936111822,-0.017026438616089,0.000126673940537429,-0.000672344289196718,-0.00618644732011226,0.0334655491636073,-2.43485259555559,-0.000483956936524995,0
0.29,0.000601714128011965,0.000345089885908497,-0.029899373034971,-0.0172681727688745,0.000128290728209193,-0.000681680577881675,-0.00628313753464167,0.0339512073626377,-2.43485596309689,-0.000485307872237617,0
0.3,0.000595667940216534,0.000341787432035363,-0.0296030493267657,-0.0171029211848708,0.00012687406798351,-0.000674938452432851,-0.00621628975856419,0.0336185690376077,-2.43485892817914,-0.000456831720914528,0
0.31,0.00060174937231603,0.000345256846294378,-0.0299052701666277,-0.0172765329615388,0.000128182474150558,-0.000681816581139325,-0.00628040139785487,0.0339611591850448,-2.43486207805668,-0.000454634237179225,0
0.32,0.000602339950974533,0.000345637745170718,-0.0299364978318682,-0.0172955958308599,0.000128274199121496,-0.000682513441088481,-0.0062860774822555,0.0339973052971701,-2.43486515260604,-0.000440497084014358,0
0.33,0.000602307978253883,0.000345679089107799,-0.029936931681459,-0.0172976654860659,0.000128219971615589,-0.000682516353059452,-0.00628468440514472,0.033998997804287,-2.43486811865562,-0.000425508769863307,0
0.34,0.000602208656987632,0.000345683119385581,-0.0299339676483826,-0.0172978685159224,0.000128150462679665,-0.000682443803176482,-0.00628250817440181,0.0339968934670086,-2.43487097609691,-0.00041091550600308,0
0.35,0.00060210514451278,0.000345683066034254,-0.0299307245694267,-0.0172978649500184,0.000128081409920401,-0.000682365400371678,-0.00628031144702827,0.0339944420929111,-2.43487372845873,-0.000396841355279652,0
0.36,0.000602004542392933,0.000345682581927813,-0.029927555479487,-0.0172978395587287,0.00012801464408514,-0.000682288917841818,-0.0062781828176512,0.0339920321676337,-2.43487637955378,-0.000383283028641288,0
0.37,0.000601907549143783,0.000345682068023552,-0.0299244974164176,-0.0172978112549093,0.000127950311242343,-0.000682215147678724,-0.00627613182562877,0.033989704163805,-2.43487893310197,-0.000370223350133453,0
0.38,0.000601814164769067,0.000345681567762214,-0.0299215529041101,-0.017297782948262,0.00012788837586697,-0.000682144118588836,-0.00627415777368618,0.0339874619139108,-2.43488139269236,-0.000357644177723792,0
0.39,0.000601724272853462,0.000345681085299353,-0.0299187185312423,-0.017297754638686,0.000127828756808267,-0.000682075745212817,-0.00627225832806999,0.0339853028463458,-2.4348837617815,-0.000345527854606093,0
0.4,0.000601637417377706,0.000345680620494825,-0.0299159738943071,-0.0172977392155681,0.000127771155755666,-0.000682009681112713,-0.00627041032331775,0.0339832198355585,-2.43488604369989,-0.000333857352859729,0
0.41,0.000601553986511619,0.000345680172756964,-0.0299133406960295,-0.0172977108983559,0.000127715822989527,-0.000681946221547868,-0.00626864734789069,0.0339812126674081,-2.43488824165471,-0.000322616268735089,0
0.42,0.00060147347567247,0.000345679741466359,-0.0299107958871686,-0.0172976969185186,0.000127662429200724,-0.000681884982800135,-0.00626693361952576,0.0339792815153182,-2.43489035873531,-0.000311788801790628,0
0.43,0.000601396098402301,0.00034567932602036,-0.0299083522897378,-0.0172976685937025,0.000127611111448193,-0.000681826127283457,-0.00626529917501758,0.0339774175256471,-2.43489239791772,-0.000301359732931867,0
0.44,0.000601321466536493,0.000345678925837751,-0.0299059925261796,-0.0172976546023721,0.000127561616145942,-0.000681769359807388,-0.00626371082217281,0.0339756261230764,-2.43489436206819,-0.000291314403050564,0
0.45,0.000601249677200955,0.000345678540358462,-0.0299037233918226,-0.0172976262700882,0.000127514004879019,-0.000681714754247202,-0.0062621946859715,0.0339738938744041,-2.43489625394742,-0.000281638692421024,0
0.46,0.000601180400437421,0.000345678169043382,-0.0299015303042766,-0.017297610812886,0.000127468061971001,-0.000681662059675203,-0.00626072050854573,0.033972227378927,-2.43489807621452,-0.000272319000853606,0
0.47,0.000601113684812933,0.000345677811372723,-0.0298994175274172,-0.0172975968047727,0.000127423817585225,-0.000681611313034654,-0.00625929966041132,0.0339706224767884,-2.43489983143123,-0.000263342228581057,0
0.48,0.000601049413910064,0.000345677466845168,-0.0298973809726966,-0.0172975827908676,0.000127381194808874,-0.000681562425794723,-0.0062579305088013,0.0339690751298956,-2.4349015220644,-0.000254695757842727,0
0.49,0.000600987529521154,0.0003456771349788,-0.0298954194389991,-0.0172975687711682,0.000127340154574554,-0.000681515353693532,-0.00625661219249411,0.0339675844401646,-2.43490315049045,-0.000246367435150641,0
0.5,0.000600928080208066,0.000345676815309239,-0.0298935369947454,-0.017297540418699,0.000127300727189941,-0.000681470133668235,-0.00625535817078649,0.0339661442137301,-2.43490471899844,-0.00023834555420518,0
0.51,0.724985077307194,-0.0295857590181364,-0.030471864920165,1.48071100810351,-0.0370025267577761,0.724644390351804,1.48094528923857,-0.0153190845910646,0.0102325500282023,3.19307908242225,156.242593568065
0.52,0.70386911655206,-0.00123304742613153,0.73987216525347,0.0619717468608516,-0.0340695222855069,0.703045177277371,0.0273867899000783,0.741957736036772,0.0466702409123408,6.74577855299397,156.242593568065
0.53,0.702887944733216,-0.0478848214122661,0.499585744200351,2.39674075185657,-0.124085443739511,0.693503584435537,2.3281462966688,0.757421262393373,0.109031195934903,10.2633773810897,156.242593568065
0.54,0.717192035885082,0.00330628450135787,-0.512055940303626,-0.164884601655219,-0.137168140446621,0.703960403077196,-0.0614444915987329,-0.534427537010776,0.197050768793791,13.7537151165257,156.242593568065
0.55,0.70036611055098,-0.017043286347969,0.0261604771638467,0.853659050196056,-0.230287545217165,0.66164250841047,0.804813371232793,0.285820891524709,0.310610417116911,17.2177763024583,156.242593568065
0.56,0.693584214781263,0.0280581363358851,0.0498256890045242,-1.40317879632382,-0.276162604348411,0.636852053437757,-1.28538951875772,-0.564948775381759,0.449595229138718,20.6911546087515,156.242593568065
0.57,0.661944691469708,0.0511757493616284,1.3035107364185,-2.55983269595339,-0.339545556750084,0.570524799442519,-2.84328562902047,-0.409402617280298,0.61400048030105,24.1669514850827,156.242593568065
0.58,0.682228776174582,0.0298139645205144,-0.054030210390369,-1.49055405262881,-0.470550760594003,0.494880750510165,-0.995422944598162,-1.11076721630165,0.803875384175932,27.6515359101769,156.242593568065
0.59,0.683499629696361,0.0292871241361232,-0.48641545470444,-1.46395517370037,-0.56689077423432,0.382967791757011,-0.352478123201289,-1.50184017719726,1.01948576717847,31.1996089501333,156.242593568065
0.6,0.693325414917493,0.003825267132814,-1.38107605971075,-0.189538916470458,-0.659253565120755,0.214707942365264,1.25782594060099,-0.600974198043639,1.26146365950206,34.8355663595444,156.242593568065
0.61,0.668973248248467,-0.017967628862928,-0.596761439648544,0.900589691412469,-0.669153074820297,0.00906669827460822,0.632649079814942,0.87575176273823,1.53039558225079,38.5411033667468,156.242593568065
0.62,0.666166081568303,0.00703935013932711,-0.900220773873566,-0.351526606678873,-0.646288345292468,-0.161673051005958,0.959859625841756,-0.112418395272348,1.82648858373913,42.2061134640829,156.242593568065
0.63,0.652839569171297,-0.0494559725092216,-0.638772044474728,2.47577599689443,-0.519821660517826,-0.39803371408599,-0.817318199907612,2.42270251407407,2.14866680053165,45.6691771696689,156.242593568065
0.64,0.644745351183021,-0.0232679404181479,-0.609509140377357,1.16547156514564,-0.369585842927284,-0.52881402178001,-0.563635936786876,1.18833492422337,2.49553529919817,48.9398278202252,156.242593568065
0.65,0.637309154644974,0.0304449767612921,-0.588435397237139,-1.5221776248338,-0.20284481127248,-0.604932920036692,1.62489190700005,0.151681339762158,2.86579192897056,52.0610369071805,156.242593568065
0.66,0.585370154733838,0.0567477210768138,1.66954375749077,-2.83807377538821,0.011940476078338,-0.587993152112805,3.01348993972483,-1.32699566536592,-3.0246469547436,55.092778956415,156.242593568065
0.67,0.56949000311132,0.050006933303664,2.10943835937638,-2.50018500973716,0.245772892260436,-0.516154281636904,3.22466412121925,-0.54972409465497,-2.60961153625434,58.1493903370041,156.242593568065
0.68,0.59702139837659,-0.000992155662185135,0.35781001749275,0.0525156242901349,0.492889337168754,-0.336891133450768,0.265358859394288,-0.245704243255397,-2.17202601711131,61.2657832923038,156.242593568065
0.69,0.566369830635876,-0.028986120068222,1.4700733895262,1.45285943324998,0.564860566246825,-0.0504729720784905,1.25253898888402,-1.64409926242362,-1.71104856608205,64.5174478909298,156.242593568065
0.7,0.621013423020962,0.0165516211068849,-1.69964853609026,-0.827354876948294,0.590070115708963,0.194290726182929,-1.87925167826548,0.204289912575877,-1.22606346897844,67.7747882597828,156.242593568065
0.71,0.533990509348415,-0.0379540434902697,2.25776527523465,1.90045534439884,0.32276432847037,0.427094324193745,2.91666401436118,0.449783927503007,-0.718109695854417,70.7703143801294,156.242593568065
0.72,0.583017586385754,0.0172200967073749,-0.554787029789813,-0.859712249090096,0.12637580138988,0.569416538738336,-0.948585376993889,-0.383509559479182,-0.188871574365737,73.6146478951537,156.242593568065
0.73,0.553827773130541,0.0044424543904083,0.548605623893105,-0.219387947134799,-0.191416624019433,0.519715897140686,-0.398982543118332,0.435789091421518,0.360913901149506,76.390811003058,156.242593568065
0.74,0.541111801461613,0.0306140442800248,0.804433609932548,-1.52850032895683,-0.415912503483434,0.34749962709959,-1.55767796639681,-0.74636856941604,0.931289967634163,79.2539397732647,156.242593568065
0.75,0.521773324891333,0.00350279148688454,1.35058368116937,-0.174110427145267,-0.521012856495554,0.0283773762476497,-1.35734928378,-0.109515489788582,1.52309744309515,82.2352822395855,156.242593568065
0.76,0.501690398835497,-0.0126996562605435,1.93377411120382,0.636419520984348,-0.416669468012476,-0.279716091741352,-1.97354135640126,-0.499646509470409,2.13670116415699,85.1317410235671,156.242593568065
0.77,0.522735780904774,-0.000944025286135734,0.504223762620565,0.0491922484514479,-0.18860244645595,-0.4875271325913,-0.228618720579418,-0.452100609045795,2.77066310447827,87.8103730906332,156.242593568065
0.78,0.531112966252139,-0.0265626160909699,-0.274256380742335,1.33263158804935,0.173422962040352,-0.502703721621287,-1.35628885156858,-0.107722156289177,-2.85936804515648,90.3873928064045,156.242593568065
0.79,0.52083942106807,0.00414149996475441,-0.138217585693536,-0.203216070847963,0.422576028480969,-0.304500171943682,0.00471208142730258,0.24572071287227,-2.18725036180877,93.0154637686306,156.242593568065
0.8,0.435100231665315,0.00588804343847324,3.72587634744181,-0.294246144055352,0.434304074290403,0.0269601874158967,3.69305103967404,0.57455144946317,-1.49526733857554,95.791577871282,156.242593568065
0.81,0.501017666996945,-0.00244453758339871,0.0338335299565224,0.123671288190275,0.351850682521229,0.356687223791943,0.111496188853442,-0.0633079390212516,-0.78345128834723,98.3798334966132,156.242593568065
0.82,0.504682483588374,0.00859591905319526,-0.513821328324397,-0.427184849985835,0.0354756428883593,0.503507475442973,-0.45395686865734,-0.490328884420744,-0.0533101075862306,100.815824556729,156.242593568065
0.83,0.487523880945278,-0.0208912675997519,-0.0275577395950746,1.04970032432521,-0.32809101910838,0.361209444414587,0.824158176859554,0.650686944248598,0.69456307230469,103.250395154271,156.242593568065
0.84,0.443985565392015,-0.016630626600064,1.73466723292613,0.832871628842471,-0.443128516142582,0.0322005931444051,-1.63277315480467,1.01823248036365,1.46081725775579,105.832698030706,156.242593568065
0.85,0.427547767555778,0.00624632739060808,2.15927397545477,-0.311601739102605,-0.33769539684441,-0.262293593322247,-1.4910567129867,-1.59257955014665,2.24578653040443,108.287093538353,156.242593568065
0.86,0.463483727939503,-0.0270717335937958,-0.00230502610259119,1.35781812026726,-0.0163939986817177,-0.463984139418253,-1.35165119998003,0.129284161690432,3.0479312900569,110.561151798513,156.242593568065
0.87,0.424319158787195,-0.0259391452821028,1.5904073272733,1.30236276963053,0.30081524752538,-0.300382713597309,0.0799658232162032,-2.05405689246468,-2.41653027151389,112.836182199269,156.242593568065
0.88,0.446645768778933,0.00823323984360755,0.0680013247843588,-0.411520544124204,0.446542195647353,-0.0126608259164759,0.0720777465187565,0.410826163803484,-1.58071036501353,115.225332629422,156.242593568065
0.89,0.431595039257794,0.00833291235299716,0.436285607116116,-0.415475244557728,0.293286603326892,0.316743877050834,-0.0200651611292192,0.602131380286595,-0.7276596237428,117.469112837764,156.242593568065
0.9,0.405148947948961,-0.0155063642687393,1.40227965692472,0.779613442055985,-0.0723681345210524,0.398934794750881,0.57451388307121,1.49803843522712,0.141197405510534,119.568442251462,156.242593568065
0.91,0.390097726472844,-0.00949402556260104,1.78332595411038,0.479455539257983,-0.338447718564571,0.194215124331506,-1.27601791839642,1.33488102266087,1.02550086684625,121.74193093016,156.242593568065
0.92,0.416089005914698,-0.011886942449071,0.0768490790172712,0.595500407530958,-0.385934422783197,-0.155967886293525,-0.279314120792871,0.531516827806087,1.92629793349821,123.994726477819,156.242593568065
0.93,0.408648670920219,0.000230906259511054,0.0733173087397284,-0.00869853907036617,-0.120463318480598,-0.390489921077618,-0.0132597605146748,-0.0726310614949886,2.84292769927812,126.073238890663,156.242593568065
0.94,0.396792491616105,-0.0146083587089299,0.299784086625865,0.735747805251064,0.246485876490011,-0.311291500426909,-0.415905440544078,-0.676918012798963,-2.50866084739134,128.100074584327,156.242593568065
0.95,0.381587184212126,-0.0407705223920575,0.658343938786643,2.04048198505711,0.381203925713259,0.0442106511132788,0.676721615219582,-2.03446094299554,-1.56177654312579,130.252269235303,156.242593568065
0.96,0.368924758343913,-0.0099684274118047,0.925518820617354,0.500849840883903,0.200006950481718,0.310164579897806,0.935838007959484,0.481292918386292,-0.599753855006936,132.181002680607,156.242593568065
