t,iq,id,vq,vd,ia,ib,va,vb,theta_e,omega,r
0,0,0,0,0,0,0,0,0,0,0,0
0.01,0.000518881496500406,0.000295620852155901,-0.0256542633632074,-0.0147946331538361,-0.000420307263242212,0.000424230479934815,0.0207325669850319,-0.0211467034091973,1.29861532480126,-0.00112973333749861,0
0.02,0.000588913882600228,0.000335003024803754,-0.0291478083234387,-0.0167655664201836,-0.000477170154320433,0.000480994003676505,0.0235674444794545,-0.0239844638913889,1.29860666777794,-0.00124016176902686,0
0.03,0.000616297522521859,0.000350559195788345,-0.0305058508205689,-0.0175440796282474,-0.000499358991164953,0.000503343802942951,0.0246659680943365,-0.0250996351020939,1.2985976815499,-0.00125333585601955,0
0.04,0.000602177786998138,0.000342706787098055,-0.0298182782066075,-0.0171510969045991,-0.000487866044215477,0.000491988568951138,0.0241091548759805,-0.0245364726764785,1.2985891680778,-0.00117611694294729,0
0.05,0.000616840702708705,0.000351189151134364,-0.0305488989625154,-0.0175756166104298,-0.000499704290969897,0.000504105042604135,0.0246985277388528,-0.025142001801605,1.29858078357665,-0.00116403330882881,0
0.06,0.000617809422026919,0.000351884694165782,-0.0306044785662289,-0.0176104203735846,-0.000500446217994189,0.000505039506205895,0.0247424980262235,-0.0251906690158768,1.29857263806423,-0.00112256829965907,0
0.07,0.000631881417513218,0.00036013432670926,-0.0313053471789357,-0.0180232870401074,-0.000511777905322286,0.000516772904375586,0.02530634875549,-0.0257769732588857,1.29856489484701,-0.00111259660234302,0
0.08,0.000618558438775652,0.000352616944029276,-0.0306561629270005,-0.0176470623791889,-0.000500962998124178,0.000505953877253206,0.0247820393594253,-0.0252402389293303,1.29855727787469,-0.00104196359253761,0
0.09,0.000617166647399602,0.000351997872772698,-0.0305945507523612,-0.017616080211164,-0.000499785268979502,0.000504986987961131,0.0247308445913083,-0.025194010072744,1.29855003615772,-0.00100005501804548,0
0.1,0.000616804910622499,0.000351945723496611,-0.0305834170018708,-0.0176134680860037,-0.000499447368341491,0.000504842962031107,0.0247206481858936,-0.0251886721920046,1.29854308428694,-0.000962005071083277,0
0.11,0.000616540504771586,0.000351940210872206,-0.0305768162280579,-0.0176132016381679,-0.000499190812039788,0.000504769887402004,0.0247141939515289,-0.0251868056711724,1.29853640487874,-0.000925633060851535,0
0.12,0.000616293787507606,0.000351938578406883,-0.030570834964132,-0.0176131111357693,-0.000498950382184189,0.000504705172957223,0.0247082956989608,-0.0251852686691619,1.29852998675979,-0.000890699832083381,0
0.13,0.000644090123340589,0.000367929403752279,-0.0319466852068347,-0.0184133934537465,-0.000521419273716538,0.000527585134482882,0.0258180892580581,-0.0263262230722527,1.29852361114557,-0.00091878299559234,0
0.14,0.000665689501710106,0.000380570552812857,-0.0330529266530499,-0.0190460374976632,-0.000538820143958167,0.000545572461566961,0.0267132800090056,-0.0272332182427041,1.29851744767092,-0.000934127649793638,0
0.15,0.000619847719738372,0.000354287877521474,-0.0307637728557136,-0.0177306965990704,-0.000501732237076382,0.000507932926774647,0.0248620367356973,-0.0253508668798341,1.29851147495696,-0.000799493201131664,0
0.16,0.000615738562173027,0.000352127089501807,-0.0305665447540888,-0.0176225551223611,-0.000498352811879436,0.000504749382366913,0.0247010197490816,-0.0251938034167104,1.29850600657821,-0.000760999641758022,0
0.17,0.00061520464822968,0.000351948564248158,-0.030545265516136,-0.017613614314254,-0.00049788394203548,0.00050443644926091,0.0246827972927356,-0.0251795983381043,1.29850077522078,-0.000731780687471862,0
0.18,0.000614983380408685,0.000351932969590896,-0.0305391930292065,-0.0176128418573649,-0.000497672486357729,0.000504364421412213,0.0246770297769717,-0.0251773451847913,1.29849575044782,-0.000704368717386997,0
0.19,0.000614795866917532,0.000351930799837938,-0.0305345940452635,-0.0176127225817485,-0.000497490030543095,0.000504314302160548,0.0246725107709098,-0.0251761125376817,1.29849092236983,-0.000678085649990461,0
0.2,0.000614617731546187,0.000351929767908482,-0.0305302748286961,-0.0176126747221884,-0.000497316396983611,0.000504267705452509,0.024668246782231,-0.0251750192189853,1.29848628313904,-0.000652835404045014,0
0.21,0.000614446755719665,0.000351928862761249,-0.0305261332248073,-0.0176126312368335,-0.000497149716980154,0.000504223064690024,0.0246641572633203,-0.025173973370002,1.29848182535642,-0.000628573145050992,0
0.22,0.000614282531979184,0.000351928000020335,-0.030522156056965,-0.0176125863046536,-0.000496989617152609,0.00050418019272436,0.0246602309088151,-0.025172966019691,1.29847754192371,-0.0006052598519486,0
0.23,0.000614124711081503,0.000351927171508464,-0.0305183326480631,-0.0176125428354765,-0.000496835759843421,0.000504138991298727,0.0246564564797038,-0.025171997271051,1.29847342602229,-0.000582858376932202,0
0.24,0.000613972892215249,0.000351926375357915,-0.0305146494457513,-0.0176125140115744,-0.000496687756168772,0.00050409935421477,0.0246528172114366,-0.0251710763406035,1.29846947109929,-0.000561333054769698,0
0.25,0.000613827236716629,0.000351925610266049,-0.030511120799047,-0.0176124705522773,-0.000496545758657334,0.000504061326879693,0.0246493346405197,-0.025170179044825,1.29846567085894,-0.000540649617681763,0
0.26,0.000619654216506472,0.000355334027710325,-0.0308017268522274,-0.0177830407306848,-0.000501239369530792,0.000508913267380077,0.0248832595867418,-0.0254127193949653,1.29846205656023,-0.000534335051687269,0
0.27,0.000602752801865144,0.000345675831711552,-0.0299723478461925,-0.0172996952834244,-0.000487556919373916,0.000495066633046877,0.0242143677826027,-0.0247241882617276,1.2984584374107,-0.000477105715767206,0
0.28,0.000602097753968414,0.000345349263914516,-0.0299091074358118,-0.0172833555674045,-0.000487012186493516,0.000494577546626322,0.0241577699413517,-0.0246915215962279,1.29845506388902,-0.000457567947472096,0
0.29,0.000612331028427565,0.000351382597120687,-0.0304506119526132,-0.0175852890674848,-0.000495243817200858,0.000503142702877386,0.0245980207669911,-0.0251280626834284,1.29845189434025,-0.00046350128409359,0
0.3,0.000607066492019642,0.000348518233599238,-0.0301938422312306,-0.0174419369820241,-0.000490942425413722,0.000498969157176132,0.02438920638288,-0.0249209928851687,1.29844913553524,-0.000436935573181702,0
0.31,0.000612555581093619,0.000351641953133227,-0.0304671744703296,-0.0175982676544722,-0.000495387445837039,0.000503455739503829,0.0246103377117293,-0.0251451590243248,1.29844616701219,-0.000433323962121184,0
0.32,0.000612923920763999,0.000351898114095943,-0.0304880910056746,-0.0176110872086292,-0.000495671849002018,0.000503802970868488,0.0246269622744414,-0.0251632035912258,1.29844328133586,-0.000418690688166277,0
0.33,0.000612858483304481,0.00035191865279847,-0.0304875260730626,-0.0176121146440772,-0.000495601900256077,0.000503806525571399,0.0246260719394865,-0.0251641095436144,1.29844050567917,-0.000403675405826554,0
0.34,0.000612759523739141,0.000351919849091535,-0.0304852045262853,-0.0176121877165318,-0.00049550492279369,0.000503782379212341,0.0246237491888477,-0.0251636211038182,1.29843783833914,-0.000389165804199432,0
0.35,0.000612661546959578,0.000351919475100243,-0.0304828308580821,-0.0176121646997771,-0.000495409366982035,0.000503756932641321,0.0246214047140193,-0.0251630235155274,1.29843527530192,-0.000375216718070609,0
0.36,0.000612567237256884,0.000351918990510112,-0.0304805411776523,-0.0176121373159368,-0.000495317423451443,0.000503732315885741,0.024619144831329,-0.0251624418348462,1.2984328125067,-0.00036181260366203,0
0.37,0.000612476368449353,0.000351918514552804,-0.0304783278994521,-0.0176121216219124,-0.000495228840295544,0.000503708584931297,0.0246169578164659,-0.0251618895839301,1.29843044603484,-0.000348932691708726,0
0.38,0.000612389218286308,0.000351918056335511,-0.0304762086234417,-0.0176120927757264,-0.000495143880663805,0.000503685825182194,0.0246148672082309,-0.0251613476650495,1.29842817211888,-0.00033655652655045,0
0.39,0.000612305502374703,0.000351917615942532,-0.0304741727280353,-0.017612063926723,-0.000495062268787982,0.000503663962053579,0.0246128591479076,-0.0251608259757578,1.29842598713908,-0.000324664409940955,0
0.4,0.00061222493632427,0.000351917192742574,-0.0304722094661828,-0.0176120496713882,-0.000494983729167536,0.000503642920196909,0.0246109192701143,-0.0251603357699829,1.29842388761669,-0.00031323741041396,0
0.41,0.000612147571695047,0.000351916786070326,-0.0304703247056911,-0.0176120354094552,-0.000494908309946801,0.000503622714535208,0.0246090570696707,-0.0251598646474071,1.29842187020976,-0.000302257336627928,0
0.42,0.000612073285423401,0.00035191639528181,-0.0304685155144769,-0.0176120065486368,-0.000494835891144358,0.000503603312968162,0.0246072735671626,-0.0251593978448604,1.29841993170632,-0.000291706708701794,0
0.43,0.000612001799765559,0.000351916019757574,-0.0304667710325538,-0.0176119908209242,-0.000494766203858889,0.00050358464174095,0.024605550764646,-0.025158959227178,1.29841806902038,-0.000281568730415853,0
0.44,0.000611933166284899,0.000351915658901722,-0.0304650968192555,-0.0176119765421544,-0.00049469929641143,0.000503566715649209,0.0246038970849603,-0.0251585391102244,1.29841627918681,-0.000271827262473236,0
0.45,0.00061186715214884,0.000351915312142402,-0.03046348405436,-0.0176119622577826,-0.000494634943264238,0.000503549472942828,0.0246023043524866,-0.0251581337910311,1.29841455935632,-0.000262466796806356,0
0.46,0.000611803925331352,0.000351914978929578,-0.0304619438438144,-0.0176119333810663,-0.000494573304960216,0.000503532959662607,0.0246007871188965,-0.0251577322764504,1.2984129067904,-0.000253472431890799,0
0.47,0.000611742975261373,0.000351914658734397,-0.0304604532748727,-0.0176119190868524,-0.000494513888562847,0.00050351703926703,0.024599315401026,-0.0251573565668848,1.29841131885886,-0.000244829849020043,0
0.48,0.000611684469913011,0.00035191435104901,-0.0304590232591927,-0.0176119047870511,-0.000494456854710981,0.000503501757729137,0.0245979035690806,-0.0251569956103349,1.29840979303364,-0.000236525289512651,0
0.49,0.000611628292870945,0.000351914055385037,-0.0304576503975555,-0.0176118904818903,-0.000494402090183776,0.000503487084481502,0.0245965482878515,-0.0251566485528021,1.29840832688549,-0.00022854553280747,0
0.5,0.000611574211302468,0.00035191377127351,-0.030456325344513,-0.01761187471671,-0.000494349369678528,0.000503472957606089,0.0245952408889587,-0.0251563115369087,1.29840691808046,-0.000220877875418243,0
0.51,3.17780809164924,0.0342402615291526,2.67850729783205,-1.71124158978957,-0.128786848902336,3.17538196291576,-1.84636359483381,2.58721676688241,0.0513100789819906,15.8204274744701,653.728226734672
0.52,3.09143423486497,-0.00933151898621606,4.33721291450539,0.472231762651375,-0.719418099295058,3.00657451332051,-0.536989288766687,4.32967218241278,0.231847141203018,33.3940985601948,653.728226734672
0.53,3.04184335903085,-0.00604714821191887,4.15192633230333,0.310664924605836,-1.57053438028151,2.60504689962299,-1.8702317088732,3.71984385685466,0.540547514742993,50.8193307882062,653.728226734672
0.54,3.00026892606893,0.00706023449757009,3.47586325896209,-0.34233223178639,-2.48354235238992,1.68335405055844,-3.07320352973737,1.65958935183743,0.977476285400994,68.4795944518696,653.728226734672
0.55,2.9463532180647,-0.0032517092071036,3.16208493874996,0.175426060347799,-2.94557236373533,0.0679066212649132,-3.15692591308433,0.251742411633708,1.5466429765658,87.0017120593677,653.728226734672
0.56,2.85470764561895,-0.00669324017683537,4.69634644186055,0.347492970690542,-2.21277614220973,-1.8036136742348,-3.86614121353028,-2.68874940886989,2.25232690583371,105.179345970391,653.728226734672
0.57,2.82588546236998,-0.024229823776432,3.52504376125989,1.22876815086396,-0.13869511433274,-2.82258381559423,-1.42990951705496,-3.44835663184807,3.08392047051415,121.486390846648,653.728226734672
0.58,2.78225112892658,-0.00909756447995336,3.20101103537325,0.475718054783096,2.16910367367988,-1.74241021660261,2.1898641493968,-2.38270315469942,-2.25080745282138,137.363799447383,653.728226734672
0.59,2.66732714859922,-0.00818645310389782,6.08753900297835,0.426320710530255,2.46489471259227,1.01931113576942,5.79432853617051,1.91458540575493,-1.18174887575943,154.489473347777,653.728226734672
0.6,2.65848125940461,0.0069518619554938,3.93592661791152,-0.326788291655139,-0.0175602050275027,2.65843235275784,-0.36306449446456,3.93274625446475,0.00922034665724946,170.103180701135,653.728226734672
0.61,2.60496883464928,0.00862093233427719,4.14443623554065,-0.405246864619152,-2.51553283912372,0.676780234092636,-4.10965381354139,0.671805228165646,1.31128841187603,185.364971954805,653.728226734672
0.62,2.58021832032751,0.0218257446466159,2.65850156058939,-1.07017406602454,-1.05305200252659,-2.3556494696066,-0.0837384775075265,-2.86459263188196,2.7296678684699,201.218045095706,653.728226734672
0.63,2.48254745446063,-0.00449734948365876,5.18181318725259,0.254086261656116,2.23169547773392,-1.08747293504864,4.54236812662403,-2.50651940710168,-2.02603231332597,215.61545761041,653.728226734672
0.64,2.45017542336872,0.0263806753768141,4.17176554012582,-1.29650475074762,0.953139969516491,2.25733908481281,0.381531749528669,4.35189450867022,-0.388764565215129,230.811125867908,653.728226734672
0.65,2.41611531922327,0.0129250653171703,3.56086908803433,-0.614830228098422,-2.35661041340397,0.533073777759485,-3.60971385804527,0.166645535607572,1.35368604122974,244.742072334384,653.728226734672
0.66,2.374353899714,0.0317198319574842,3.13960182977258,-1.55965366647416,0.111663567540726,-2.3719388349008,1.74632852888199,-3.03972957318089,-3.08119190996794,259.089540480306,653.728226734672
0.67,2.29466673215996,-0.0298470915915467,4.75786129396995,1.51773868921606,2.06497722100933,1.00112703353308,4.95217541784392,0.645548954226618,-1.13237869163065,272.983723559121,653.728226734672
0.68,2.28758757635482,0.0076879558593651,2.82116791902698,-0.350423074159491,-1.81223563742959,1.39603653913083,-2.45361662185059,1.43580995651544,0.917765278118669,286.132991189667,653.728226734672
0.69,2.19658047795923,0.0181122633202044,4.97831974902183,-0.878436320637619,-0.18487519313575,-2.18886157926836,0.497830256505179,-5.03065432410379,3.06557631734027,299.649251377599,653.728226734672
0.7,2.16445314638879,0.0250956631570789,4.33072289021408,-1.23105652916755,1.80523574704846,1.19440826889302,2.89265166190154,3.45010540313314,-0.974690909915727,312.636700473961,653.728226734672
0.71,2.07863222703211,0.0461159861772067,6.43811219761533,-2.27150082550283,-2.02424412953495,0.47463072327953,-6.76853347420096,-0.892165499200903,1.3626658811389,324.983578319556,653.728226734672
0.72,2.0828327698286,0.0191709224677496,3.97532844079593,-0.92489819274243,1.24613170103083,-1.66904633100047,3.14350154103395,-2.6032808032666,-2.49105875197836,337.464094502415,653.728226734672
0.73,2.04023593199547,0.0155750867524502,3.88654299838356,-0.749544177571081,-0.0415259120661809,2.03987275097243,-0.858013428366165,3.86404527783492,0.0279881129522898,349.760561571263,653.728226734672
0.74,1.97538047319751,-0.00952985969826542,4.98362486080239,0.503122315938973,-0.950555007465627,-1.73166509749949,-2.85901579270798,-4.11286731065443,2.63475054449291,361.6867511531,653.728226734672
0.75,1.92858163212224,-0.0212055480832803,5.24820181029538,1.08661997589949,1.56291424739563,1.13012204753139,4.91340284901293,2.14075632824549,-0.955738544694837,373.219985120955,653.728226734672
0.76,1.87749734700841,0.0396348469185989,5.74649186994961,-1.94487864337984,-1.82873484456684,-0.426961447183433,-5.08511443609531,-3.30852428141113,1.82126868502556,384.436865204328,653.728226734672
0.77,1.83424697254341,0.060045927137289,5.86339896248813,-2.96585948044681,1.83141026733156,-0.118338085006381,5.95473799089718,2.77792464095571,-1.60259812447346,395.469575598636,653.728226734672
0.78,1.83738823149802,0.0203549192103556,3.67921746077813,-0.978859358592644,-1.78277668449802,0.445103503910865,-3.8058740677534,-0.100644662060567,1.33720724505135,406.325709604833,653.728226734672
0.79,1.73123172595303,0.0306284899939748,6.97837901292017,-1.49498818542111,1.61171746745277,-0.632825567161486,7.06139781500136,-1.03412969245033,-1.92725237178381,416.992847442206,653.728226734672
0.8,1.70858822460353,-0.00953884657664389,6.15101854754751,0.515262453700387,-1.57590765968986,0.66021190460236,-5.45816642703606,2.88252386342996,1.16848628554753,427.373661876644,653.728226734672
0.81,1.67378284610629,0.0242299347926835,5.9698752136023,-1.17479576166216,1.54980848754786,-0.632637145277095,5.98739483389298,-1.08196961633594,-1.94387942282113,437.493391833554,653.728226734672
0.82,1.64643858686269,0.0436201457602769,5.44352849527421,-2.14458679015806,-1.57486178628245,0.482154634462658,-5.8187159608959,-0.61139148325606,1.30018815362766,447.39722882404,653.728226734672
0.83,1.61272089861802,0.0550931258428358,5.26281951979497,-2.71798009304059,1.59994183316829,-0.209976379225214,5.49987353709698,2.19910803737339,-1.66714221724056,457.084384584874,653.728226734672
0.84,1.59898776884364,0.00700103008149744,4.10975550877669,-0.309814802409871,-1.58249391673584,-0.229180939058725,-4.01895861628174,-0.913261843245047,1.71899741734342,466.576771120914,653.728226734672
0.85,1.54534041124262,0.023969983019771,4.97915905737127,-1.15976832948225,1.39439700810486,0.666564723409288,3.94206575520708,3.25533486423379,-1.10936814153887,475.871397576103,653.728226734672
0.86,1.47379503248615,0.000978770686804298,6.76844727137391,-0.0273935383712583,-0.982629255153758,-1.09841363005422,-4.48897337744942,-5.06574248140031,2.41243897148288,484.946339807896,653.728226734672
0.87,1.42327825351723,-0.00448759409652422,7.5278759553871,0.245082334480562,0.394075320989694,1.36764241189819,2.34238032615328,7.15836826085524,-0.283695763641363,493.772294031622,653.728226734672
0.88,1.4100193236866,0.00766936667272733,6.46729173453294,-0.360264789251451,0.307600911021684,-1.37607957324183,1.79630608615649,-6.22325779176547,-2.9162346343863,502.332514315455,653.728226734672
0.89,1.39292415834814,0.00441016958120355,5.64088822323201,-0.191271574684397,-0.992720724091856,0.977119606017682,-4.16642468598913,3.80750707133424,0.796484101687181,510.650236213528,653.728226734672
0.9,1.38004117614733,0.0425161115334661,4.63489589746442,-2.09172106660971,1.36001755416445,-0.238062008658607,4.88496460129612,1.41233064291449,-1.71328592451114,518.773336892875,653.728226734672
0.91,1.28996029782913,-0.00407562629171343,7.51690178724312,0.241529211169081,-1.09869825906546,-0.675926265380785,-6.5406611404729,-3.71239823893053,2.11916259131149,526.749795324688,653.728226734672
0.92,1.29114219266759,-0.0162298979180923,5.83966752589843,0.830443480130126,0.33346475870552,1.24744251409609,2.37840343067533,5.39764303262777,-0.273780597536118,534.609347725188,653.728226734672
0.93,1.23574480086093,0.0498784353069719,7.01473972207122,-2.47454841999699,0.582906469321897,-1.09076721585596,5.68665936039524,-4.79498368820402,-2.61046375392478,542.186474471318,653.728226734672
0.94,1.21923038459747,-0.0402934523685006,6.30177134583149,2.04857229914769,-1.2067659106417,0.178500223928618,-5.83355621045993,3.14302282832666,1.39090870475194,549.501348486903,653.728226734672
0.95,1.17469801410224,0.0272346851781206,7.00871887379005,-1.32673926956858,0.890901476519146,0.7661277384017,4.31856109913781,5.67735919017371,-0.837375727841926,556.735502443628,653.728226734672
0.96,1.19022287607338,0.0195775830131575,4.71063552677374,-0.963054679375205,0.132873094125549,-1.18294484966229,1.55786764525327,-4.54869319491241,-3.01329031100102,563.848820339264,653.728226734672
0.97,1.1568439235196,-0.0131634751836749,4.89876651956639,0.685302117863512,-1.05895129568774,0.465921982551138,-4.17809429447747,2.64784449551473,1.14492428445753,570.660526956615,653.728226734672
