t,iq,id,vq,vd,ia,ib,va,vb,theta_e,omega,r
0,0,0,0,0,0,0,0,0,0,0,0
0.01,0.000401429761498359,0.000227964642973812,-0.0192129176290618,-0.0114032284261669,0.000456263307966404,-7.02675292461709e-05,-0.0220125222726519,0.0038234389698879,-1.20713403462418,-0.00181514010571575,0
0.02,0.00050998869588992,0.000287758682175056,-0.0244658092956199,-0.0143942376904914,0.000578989919908438,-8.75454267626073e-05,-0.0279857057316239,0.00475080812946136,-1.2071490784771,-0.00223410639615154,0
0.03,0.000554023257479232,0.000311951242630602,-0.026591018950848,-0.0156044018112552,0.000628748236583265,-9.45039819272771e-05,-0.030402290988453,0.00512643612901688,-1.20716577221958,-0.00234433173926119,0
0.04,0.000549442249396046,0.000309210900300567,-0.0264097763777687,-0.0154673161096537,0.000623490581500753,-9.35823758296741e-05,-0.0301840592998485,0.00506327168369759,-1.20718217024205,-0.00223061317171749,0
0.05,0.000562865100788954,0.000317020312797302,-0.027081647559555,-0.0158579602507131,0.000638811724188411,-9.61175397713032e-05,-0.0309508529597828,0.00518991704317607,-1.2071982097574,-0.00220246688147351,0
0.06,0.000565748405027262,0.000318865308672289,-0.0272527117857192,-0.0159502496925055,0.000642161168172039,-9.68265302357119e-05,-0.0311434738533093,0.00521582220526999,-1.20721383051845,-0.00212777095041459,0
0.07,0.000573360691566485,0.000323550077987903,-0.0276463739300528,-0.0161845864645362,0.000650940386919612,-9.85076051709849e-05,-0.0315946591196289,0.0052953135528318,-1.20722868990613,-0.00207931346604363,0
0.08,0.000567534777404185,0.000320406537099101,-0.0274020247295943,-0.0160273482195519,0.000644375990032345,-9.76506838116893e-05,-0.0313102901765838,0.00523570236837345,-1.20724324719624,-0.00197019680198477,0
0.09,0.000565721632089345,0.000319662082559596,-0.0273464569699207,-0.0159901121235362,0.000642415274786739,-9.7608538360377e-05,-0.031245040969925,0.00522109273224429,-1.20725710329169,-0.00188365605870223,0
0.1,0.000564914037349902,0.000319484896805662,-0.027337260730841,-0.0159812472953053,0.000641596161081855,-9.7738605304745e-05,-0.0312332244211212,0.00521649131500866,-1.20727035852329,-0.00180516918823587,0
0.11,0.000564369428332167,0.000319441879425473,-0.0273393099180276,-0.0159790912128134,0.000641070604104915,-9.79001865136858e-05,-0.031234306847941,0.00521414408220926,-1.20728305547401,-0.00173105072584436,0
0.12,0.000563904004869013,0.000319430630085693,-0.0273439474077178,-0.0159785345245939,0.000640630401646252,-9.80629523868031e-05,-0.0312383799447988,0.00521235492019386,-1.20729522174186,-0.00166029236407985,0
0.13,0.000583687590758137,0.000330948136504811,-0.0283084548404259,-0.0165546539063389,0.000663215103770622,-0.000101801762222315,-0.032344638283706,0.00540828583816657,-1.20730715202426,-0.00168483391204276,0
0.14,0.000594911965977603,0.000337613783772174,-0.0289393689279522,-0.0168880841394051,0.000676074778482171,-0.000104049066101451,-0.0330528127500344,0.00549600119713538,-1.20731878401224,-0.00167133675502758,0
0.15,0.000570484911802377,0.000323723931302664,-0.0277324903563268,-0.0161932887344127,0.000648304303175239,-9.97584521566236e-05,-0.031677706583509,0.00527603326457715,-1.20733002895248,-0.0014945735958791,0
0.16,0.000564182363217984,0.000320439029805752,-0.0274562761900994,-0.0160289804480016,0.000641244639890814,-9.89354466325425e-05,-0.0313610691730474,0.00522098235514879,-1.2073403768964,-0.00140697943661954,0
0.17,0.000562362005486497,0.000319661507867446,-0.0273914697633197,-0.0159900781480025,0.000639265815188676,-9.88621381421705e-05,-0.031286615188602,0.00520796745520023,-1.20735018786193,-0.00134321269570991,0
0.18,0.000561658060852244,0.000319476845010388,-0.027378657087528,-0.0159808439157103,0.00063854127928926,-9.89457753607018e-05,-0.0312713079335748,0.00520418449887081,-1.20735956380809,-0.00128708046423449,0
0.19,0.000561240213433503,0.000319432387109296,-0.0273785403650145,-0.0159786206717976,0.0006381340317399,-9.90584910273057e-05,-0.0312703617877106,0.00520242873642814,-1.20736854249584,-0.00123451551138847,0
0.2,0.000560903159860761,0.000319421111107328,-0.0273814290835845,-0.0159780545238918,0.000637814131680525,-9.91732544159204e-05,-0.0312728158284252,0.00520114171977871,-1.20737714532596,-0.00118444445098164,0
0.21,0.000560595734383241,0.000319417712032473,-0.0273849334311813,-0.0159778812053179,0.000637524758383766,-9.92846141981033e-05,-0.0312759868193619,0.00519999185735716,-1.20738538915976,-0.00113653525311468,0
0.22,0.000560304862201296,0.000319416205689714,-0.0273884665230263,-0.0159778129202446,0.000637251562488344,-9.93916353109844e-05,-0.0312792238203536,0.00519891925244949,-1.20739328925632,-0.00109064154743166,0
0.23,0.000560027180955054,0.000319415175975399,-0.0273919012038831,-0.0159777531115229,0.000636990896633366,-9.9494199117741e-05,-0.031282373580713,0.0051978792995588,-1.20740086001675,-0.00104666544399614,0
0.24,0.000559761279885673,0.000319414286877279,-0.027395200426595,-0.0159777110301012,0.000636741321580984,-9.9592502287417e-05,-0.0312854046872877,0.00519689423861666,-1.20740811518744,-0.00100452358612951,0
0.25,0.000559506496481838,0.00031941345779984,-0.0273983616884524,-0.0159776718626995,0.000636502188304603,-9.96867138212677e-05,-0.0312883094648926,0.00519595151944946,-1.20741506792784,-0.000964138670000773,0
0.26,0.000562801578503479,0.000321457942031788,-0.0275690735475938,-0.0160799407447269,0.000640308126479353,-0.000100430714553967,-0.0314841895907198,0.00523107220770026,-1.20742164877193,-0.000942324599459125,0
0.27,0.000554808145112473,0.000316919798378643,-0.0272043580818461,-0.0158529334818787,0.000631222996941644,-9.90341588519421e-05,-0.0310625699049086,0.00514872309692829,-1.20742822133164,-0.000868170241463123,0
0.28,0.000554134479969689,0.00031667961926583,-0.0271149081969837,-0.0158409157227228,0.000630507346346437,-9.90529623625831e-05,-0.0309746575707631,0.00516947249138908,-1.20743434827545,-0.000830497253290601,0
0.29,0.000557437624788351,0.000318764666259469,-0.0273551597960891,-0.0159452214352779,0.000634335307661935,-9.98315352913438e-05,-0.0312362647413381,0.00518175830183687,-1.2074401242989,-0.000813258874606498,0
0.3,0.000549554633904072,0.000314506622287543,-0.0269923546828728,-0.0157322287146544,0.00062545313909672,-9.8656382977569e-05,-0.0308214211655561,0.00511177356615202,-1.20744517815957,-0.000748180349396275,0
0.31,0.000556028443576338,0.000318249984376855,-0.027310905254377,-0.0159194707425091,0.000632834179272137,-9.9857819757662e-05,-0.0311856941652464,0.00517373887695139,-1.2074504281507,-0.000748621358061937,0
0.32,0.000557483826512232,0.000319134572135482,-0.0273912137060165,-0.0159637232536796,0.000634508414360466,-0.000100170674653736,-0.0312764603056661,0.00518672142656916,-1.20745557817325,-0.000726337781787647,0
0.33,0.0005577074305678,0.000319343273495009,-0.0274126920057873,-0.0159741660604764,0.000634791094696976,-0.000100289433792703,-0.031300221989447,0.00518900450406129,-1.20746054283945,-0.000699382621100771,0
0.34,0.000557632883820547,0.000319392192129717,-0.0274195899767265,-0.0159766147554753,0.000634738321796331,-0.000100364676827173,-0.0313075151638816,0.00518899101945596,-1.20746530778736,-0.000672169724655694,0
0.35,0.00055749017322689,0.000319403350677357,-0.0274228219870294,-0.0159771736757459,0.000634608434477974,-0.000100428723769074,-0.0313107111159498,0.00518850785975976,-1.20746987589427,-0.000645750477406647,0
0.36,0.000557335820459837,0.000319405598458754,-0.0274250838859431,-0.0159772859709896,0.000634464516770306,-0.000100488457316536,-0.031312842552619,0.00518794606994806,-1.20747425402153,-0.000620348469729576,0
0.37,0.000557183621221326,0.000319405755675348,-0.0274270469745052,-0.0159772920585583,0.000634321886903684,-0.000100545354496368,-0.0313146578922593,0.00518738550302063,-1.20747844975665,-0.000595984606675355,0
0.38,0.000557036718843018,0.000319405434168814,-0.0274288766560395,-0.0159772734055644,0.000634184055141443,-0.000100599809742957,-0.031316340653239,0.00518684375884551,-1.20748247062153,-0.000572631228552684,0
0.39,0.000556895637221603,0.000319405014385422,-0.0274306137012903,-0.0159772489242719,0.000634051645707618,-0.000100651997230398,-0.0313179356276002,0.00518632425163101,-1.20748632388444,-0.000550250065134936,0
0.4,0.000556760282179374,0.000319404585656918,-0.0274322688464468,-0.0159772362526634,0.000633924601665408,-0.000100702038482232,-0.0313194590819132,0.00518583986963728,-1.2074900165274,-0.000528801540013481,0
0.41,0.000556630725671846,0.000319404168511654,-0.0274338609541067,-0.015977210294404,0.000633802996940987,-0.000100749931479929,-0.031320919693872,0.00518536065967353,-1.20749355524477,-0.000508247010862029,0
0.42,0.000556506524266306,0.000319403767235537,-0.0274353824816499,-0.0159771828720938,0.000633686417965019,-0.000100795841987062,-0.0313223145808585,0.0051849005526135,-1.20749694645193,-0.000488549269627912,0
0.43,0.000556387350953153,0.000319403382296567,-0.0274368311626572,-0.0159771701612272,0.000633574558657368,-0.0001008398906449,-0.0313236473401331,0.00518447566489992,-1.20750019629819,-0.00046967261572591,0
0.44,0.000556273183498704,0.000319403013283728,-0.0274382194470382,-0.0159771574358745,0.00063346739753095,-0.000100882088796148,-0.0313249243449854,0.00518406799101716,-1.20750331067611,-0.000451582825995541,0
0.45,0.000556163941463288,0.000319402659598996,-0.0274395562154928,-0.015977131436758,0.000633364858647429,-0.000100922468129816,-0.0313261491551569,0.00518366215715256,-1.20750629523224,-0.000434247101205449,0
0.46,0.000556059087231815,0.000319402320621282,-0.0274408270358026,-0.0159771172315819,0.00063326643874399,-0.000100961222614645,-0.031327317159881,0.00518328689199944,-1.20750915537855,-0.000417634008692378,0
0.47,0.000555958656784806,0.000319401995743486,-0.0274420456102571,-0.0159771044683805,0.000633172170741121,-0.000100998342253049,-0.031328437461319,0.00518292781169113,-1.20751189630078,-0.000401713425890104,0
0.48,0.00055586241728925,0.00031940168438127,-0.0274432116325082,-0.0159770916926892,0.000633081836317858,-0.000101033912448492,-0.031329509230234,0.00518258382044275,-1.20751452296851,-0.00038645648583804,0
0.49,0.000555770230094746,0.000319401385973561,-0.0274443291647216,-0.0159770641995066,0.00063299530521565,-0.000101067985021689,-0.031330531013436,0.00518223987797441,-1.20751704014492,-0.000371835524873628,0
0.5,0.000555681906840672,0.00031940109998231,-0.0274453992383831,-0.0159770514017937,0.000632912400736148,-0.000101100629347203,-0.0313315142028813,0.00518192325343033,-1.20751945239387,-0.000357824032479101,0
0.51,4.74205926425699,-0.0244893029392287,2.89763032387177,1.22935128349039,-0.448472636520175,4.72086836143274,0.965290899682339,2.99596053896428,0.0895494464189902,27.9165766820526,662.848483799499
0.52,4.74203540691161,0.0307043125803346,2.8994178362444,-1.52704462637594,-1.86542678362642,4.35981943091037,-2.55780180198844,2.04844795438412,0.410772106636235,59.7314720998743,662.848483799499
0.53,4.7595194625206,0.00789132516197733,2.02583508440624,-0.380495146959674,-3.91156039283722,2.71160157108532,-1.88307730540967,0.838334186301708,0.966288089587718,91.9440823420509,662.848483799499
0.54,4.72680902925391,0.0315275098520174,3.6620002342444,-1.55762976211111,-4.64661475940638,-0.867576429244477,-3.29913515988927,-2.22534567836162,1.76205228731134,125.507026319521,662.848483799499
0.55,4.74798884938203,0.0127744345847698,2.60367456494607,-0.616774290055069,-1.54284969694173,-4.4903425384576,-0.255587381326614,-2.66349523287102,2.81332759262151,161.571841860961,662.848483799499
0.56,4.49315899781776,0.0311159633738272,2.50895215205021,-1.53072049002493,3.71574480630609,-2.5263979332751,2.93639942234713,-0.124517277110464,-2.16099112743651,194.603355327805,662.848483799499
0.57,4.24409438281359,0.0450415744104113,2.52252882314946,-2.22289397418385,2.5236490196612,3.41255937665827,-0.322923801999132,3.34665945416995,-0.626146428968384,223.857701810438,662.848483799499
0.58,4.01704571021411,0.0216620581732705,1.29568786949274,-1.05301364665903,-3.61040761236712,1.76127293605377,-1.62413406218679,-0.387083121881352,1.12232277172753,253.578391887883,662.848483799499
0.59,3.70237860879536,-0.0105410049800496,4.98091106400407,0.558150644959679,-0.194509534742013,-3.6972806921501,-0.833132436566596,-4.9423574853634,3.08618521651483,281.227320707803,662.848483799499
0.6,3.48934331005532,-0.000814663743472055,5.10121382962017,0.076040114952273,3.01727821849731,1.75258367882579,4.44985762592535,2.4953820836866,-1.04481079110551,306.065082337565,662.848483799499
0.61,3.33332978268102,-0.0227019862957673,1.98744619263946,1.16714896797105,-3.21230441154414,0.890338805098443,-1.59218930908736,1.66646700720443,1.2936078200596,331.237151794188,662.848483799499
0.62,3.14110370008917,0.00318147748515107,2.24970649231731,-0.122432471577797,1.92477912375671,-2.48229085750708,1.47703301114172,-1.70133550355858,-2.48101716289938,353.160303803325,662.848483799499
0.63,2.92463546269486,0.0402648683566378,3.46370550267364,-1.98304675216741,-0.516509121286497,2.87894636575675,-2.60540566988759,3.02350649508993,0.19128711811704,375.277281964379,662.848483799499
0.64,2.74932953411019,-0.0164420776368807,3.8170349752344,0.85855763546525,-0.333770252477805,-2.72904390723353,-1.33760097108521,-3.67664260674467,3.01391371979029,395.066596643727,662.848483799499
0.65,2.56749949290776,0.0382336062641571,4.58945101151114,-1.88030897414802,0.797018131073245,2.4409583268606,-0.436522576428488,4.94045245555409,-0.300714468516487,414.068341391472,662.848483799499
0.66,2.41334781391754,0.00640157766272187,4.46682843582499,-0.293368867583328,-0.812981579504447,-2.2723005088508,-1.2170853036865,-4.30782136713121,2.80065714261433,432.306035195819,662.848483799499
0.67,2.28330207303681,0.021445453033016,3.93416466899972,-1.03857659142238,0.593352706208524,2.2049627729794,-0.0188038419052884,4.06889903961573,-0.25347960104666,448.571743376213,662.848483799499
0.68,2.1595132578298,0.00869178904525403,3.12289826872155,-0.404967023609776,-0.107972321166139,-2.15682985787045,0.260954682935493,-3.13821518389824,3.09559861330532,464.566034342708,662.848483799499
0.69,2.00365220218268,0.00310753797777469,4.39272510235823,-0.131589142833359,-0.536680433375386,1.93044189670029,-1.30988339742234,4.19494398205233,0.272712534136149,479.657468710071,662.848483799499
0.7,1.90568075656424,0.00199709153615746,3.3837595057737,-0.068919977974603,1.22191084350145,-1.46238060191164,2.22520611048023,-2.55010511982533,-2.44449209600461,493.350688973302,662.848483799499
0.71,1.81919526457898,0.0186845246919963,1.96520969299967,-0.904816917921612,-1.70291471410124,0.640235892954347,-2.1562084359238,-0.177504854209867,1.22145052534299,506.380491396168,662.848483799499
0.72,1.71263443902464,0.0388098078512584,1.79858482741472,-1.91680875586051,1.66172242962515,0.416294955289369,1.22651134832773,2.32480818571624,-1.30267116417133,518.907381312921,662.848483799499
0.73,1.59989221431493,0.0241804360262443,2.31222652302282,-1.19000810737655,-0.920344131941486,-1.3088951331993,-0.317545172128268,-2.58102224962323,2.54387116444202,530.670957119176,662.848483799499
0.74,1.49413577574113,-0.0322050820726204,2.89182632928498,1.62869234033554,-0.313591670873121,1.46121153417972,1.05369807363654,3.14722395577883,0.189853073257093,541.493641806858,662.848483799499
0.75,1.37716928690006,-0.000741645379922162,4.29713954243567,0.0631898380026465,1.19841579518109,-0.678524411262528,3.7070762791588,-2.17416343987501,-2.08651879391912,551.534615882837,662.848483799499
0.76,1.35960180553833,-0.000894616647238389,0.893201481725914,0.0695370574807635,-1.23977133594323,-0.558108326882499,-0.843221590696633,-0.302690664381132,1.99313392874328,561.190888598925,662.848483799499
0.77,1.24269418817294,0.0439499921869936,2.68280370153053,-2.17860818986815,0.219188772537995,1.22400029784528,-1.77745888443533,2.96385041121316,-0.141845585871657,570.323037900517,662.848483799499
0.78,1.16946291957627,0.0223090526629234,2.53444905371595,-1.10001701964759,0.923445434258996,-0.717906500904391,2.6886889439995,-0.635941201535889,-2.21254357131404,578.922889630156,662.848483799499
0.79,1.05951919349617,0.000827588111422806,4.48172817290334,-0.029540191961674,-0.935462703211879,-0.497484811012739,-3.94143694500782,-2.13350295225108,2.06034500686966,586.93719112424,662.848483799499
0.8,1.02842910365883,0.0133516140720518,2.69602700770282,-0.657753460592904,-0.0964075547569382,1.0239874365619,-0.941536017227644,2.61050017610573,0.106854249613463,594.45939616852,662.848483799499
0.81,0.950068206169881,0.000919825050031631,3.49784968679887,-0.0370653900702804,0.926446089669988,-0.21054236008026,3.41980679835253,-0.735695410154117,-1.79329083348317,601.443112228493,662.848483799499
0.82,0.88777789643534,0.0415643408606213,3.66683998007152,-2.06090503506667,-0.463484501765013,-0.758326647595858,0.0429601761436107,-4.20609075345264,2.6397673273658,608.000328253126,662.848483799499
0.83,0.843831641237016,-0.0243316661179638,3.06875066321052,1.235735445022,-0.642758144606566,0.547271263881777,-1.45033127166315,2.97335028637305,0.836638964737817,614.165648484769,662.848483799499
0.84,0.769588497095977,0.00631923353099728,4.15038066323738,-0.299394019681291,0.617280231128588,0.459642800262009,3.12763174708971,2.74467048721559,-0.922532572425537,619.956473745976,662.848483799499
0.85,0.74714532811365,-0.0371233935033216,2.78479233300776,1.87276588425881,0.391483964128486,-0.637451640124569,-0.304713588737762,-3.34207570591407,-2.6404877365509,625.417899021561,662.848483799499
0.86,0.722494212702365,-0.0133447917365351,1.67181207710972,0.681694018681135,-0.662396518521604,-0.288802394563065,-1.80542616475054,-0.00993578933486017,1.96347555539152,630.554376228137,662.848483799499
0.87,0.623249049839894,0.0132746852090856,4.42296562651594,-0.653056268185776,-0.18383386288671,0.595668285415534,-2.01377693205089,3.99171766169628,0.320640149231235,635.366691628375,662.848483799499
0.88,0.607921939777037,-0.010161667799571,3.12069783144714,0.518094374500683,0.580982356476039,0.179253579652661,3.14140036421683,0.37253253252095,-1.28824132986181,639.854921580943,662.848483799499
0.89,0.566836458570286,0.0459412639312773,3.22369657600857,-2.29045246620008,0.110421343827791,-0.557872115563569,3.08294453939586,-2.47666006571363,-2.86531354389844,644.077340414475,662.848483799499
0.9,0.558317025699626,-0.0109542575225711,1.81253515305811,0.554988551270498,-0.530168541825999,-0.175383049927983,-1.89559206043601,-0.00516851281122555,1.87065313344366,648.017762429729,662.848483799499
0.91,0.490166847845708,0.0210648292333087,3.47898315628002,-1.0489967842662,-0.149006340161829,0.467444516867193,-2.18279161259076,2.90501959220318,0.351533344852533,651.745214824422,662.848483799499
0.92,0.478341675657475,0.00820488513618781,2.45498477869488,-0.406434004353231,0.438342974513714,0.191659895401642,2.06298403789272,1.39148687486372,-1.14145531952461,655.173977875511,662.848483799499
0.93,0.454535302884974,0.0027884414460235,2.10697843025301,-0.136409282967503,0.227988706954267,-0.393231822816712,1.1855613471526,-1.7471147329723,-2.61003741804421,658.415513939022,662.848483799499
0.94,0.413791348396307,0.0326489906304863,2.69586075614051,-1.63146083981878,-0.347640093496203,-0.226794184208446,-1.13887899265688,-2.9380749358118,2.22758326721093,661.445251597041,662.848483799499
0.95,0.371772371946414,0.047647814558187,3.43569895355508,-2.38297685787232,-0.234506054178736,0.292390015780898,-4.12718996341379,0.670006724228174,0.803447584106269,664.284395937575,662.848483799499
0.96,0.37994251778249,-0.0143134508193122,1.75045928536743,0.716876152145134,0.202917709307885,0.321536304237166,1.58069165278398,1.03895766326762,-0.6006201105385,666.911759330713,662.848483799499
0.97,0.347043432736631,0.0258635966663331,2.1809510090388,-1.29383054705853,0.307136319106923,-0.163631755242048,2.51752211281162,0.304347169912329,-1.98592375233636,669.400711470897,662.848483799499
