t,iq,id,vq,vd,ia,ib,va,vb,theta_e,omega,r
0,0,0,0,0,0,0,0,0,0,0,0
0.01,0.000443598990283006,0.000251682598927303,-0.0212439919941085,-0.0125919574219702,0.000124434285092304,-0.000494611265011697,-0.00556953023368031,0.0240591961739909,-2.37904997445304,-0.001999193321524,0
0.02,0.000532711162799284,0.00030083666694137,-0.0255915575313681,-0.0150511879465343,0.000150437744690754,-0.000593002839891781,-0.00679397881190114,0.0289016941957848,-2.37906590093456,-0.00231155157332246,0
0.03,0.000566597558906557,0.000319704283707595,-0.0272351125667216,-0.0159951596160585,0.000160191064771687,-0.000630541390827889,-0.0072461650949193,0.0307423092672356,-2.37908285729442,-0.0023606114645626,0
0.04,0.000556150566777594,0.000313921410354685,-0.0267759507744961,-0.0157058352946906,0.000157146503460122,-0.000618995219090076,-0.00713772591007113,0.0302105556224126,-2.37909908488833,-0.00220825318377065,0
0.05,0.000569576096960631,0.000321802214133366,-0.0274471732948015,-0.0161001168670798,0.000160711136622287,-0.000634149450694089,-0.00731575738898579,0.0309683835360193,-2.37911486194148,-0.0021697457017235,0
0.06,0.000571375215447575,0.000323066266923352,-0.0275662112674328,-0.0161633641094084,0.000161030039962968,-0.000636325998118164,-0.00735176866995661,0.0310982610510217,-2.37913011348407,-0.00208055562016028,0
0.07,0.000581048045965162,0.000328937345477779,-0.0280564638130958,-0.0164571002460135,0.000163456193075544,-0.000647378314368926,-0.0074775210860852,0.0316557733851195,-2.37914450454516,-0.00203346938361908,0
0.08,0.000572446352403408,0.000324208931590537,-0.0276799077038263,-0.0162205296555543,0.000160925431718405,-0.000637894398101511,-0.007388072749089,0.0312201738280431,-2.37915855665557,-0.00190360376689659,0
0.09,0.00057059658004831,0.000323447775186525,-0.0276216084824426,-0.0161824523302861,0.000160189821375799,-0.000636033129297154,-0.00737492901819899,0.0311518127972652,-2.37917182365721,-0.00181014574222774,0
0.1,0.000569903238430516,0.000323323967510084,-0.027616686888854,-0.0161762575502233,0.000159792460861184,-0.000635448234392054,-0.00737561654142568,0.0311440681941522,-2.37918444612823,-0.00172618573410048,0
0.11,0.000569422707432034,0.000323302611085584,-0.0276205273078718,-0.016175184276098,0.000159468381982404,-0.000635087894091754,-0.00737867059503436,0.0311461929516369,-2.37919647182845,-0.00164703188967672,0
0.12,0.000568994991729018,0.000323297780262791,-0.0276256152557878,-0.0161749467035643,0.000159169196521773,-0.000634777064971763,-0.00738199945316511,0.0311497929880349,-2.3792079317477,-0.00157174304921054,0
0.13,0.000591659862644148,0.000336423365949789,-0.0287246508279207,-0.0168316369631555,0.000165322912711025,-0.000660235116268304,-0.00766576928011741,0.0323982337387308,-2.37921917876444,-0.00160515955664765,0
0.14,0.000605545917725597,0.000344653982120333,-0.029499052389609,-0.0172434243236135,0.000168953452349641,-0.000675963724473936,-0.00790243619589963,0.0332427627681397,-2.37923005482128,-0.00160014094441243,0
0.15,0.000574091760358753,0.000326723528429884,-0.0279392522920222,-0.0163463409409631,0.000160190920422764,-0.000640834208165882,-0.00747363533465649,0.0314952290939445,-2.37924051250555,-0.00138703832295308,0
0.16,0.00056850846185632,0.000323842147565496,-0.0276956215266883,-0.0162021844879546,0.000158412789225302,-0.000634807841753653,-0.00740933769172934,0.0312195443416651,-2.3792499995573,-0.00130040281911747,0
0.17,0.000567297207972382,0.000323378206385433,-0.0276580296805666,-0.0161789721738193,0.000157906130126945,-0.000633612847570701,-0.00739988435972638,0.0311763926372985,-2.37925896001003,-0.00123745889170387,0
0.18,0.000566835398793517,0.00032330263845148,-0.0276549927165435,-0.0161751884055599,0.000157636453569838,-0.000633228010957363,-0.00740025775866177,0.0311716462063331,-2.37926748573795,-0.00118077877772761,0
0.19,0.000566511798484358,0.000323289505108618,-0.0276576114395461,-0.0161745374122751,0.000157417330472534,-0.00063298618152552,-0.00740228386974904,0.0311731506998194,-2.37927560848182,-0.00112731944363766,0
0.2,0.000566223065156216,0.000323286447373998,-0.0276610349535983,-0.0161743883561176,0.000157215244905818,-0.000632776463958486,-0.00740451463080943,0.0311755810929135,-2.37928334908612,-0.00107646642511155,0
0.21,0.000565951424620227,0.000323285052468159,-0.0276644618274678,-0.0161743058330051,0.000157023994201295,-0.000632580196832051,-0.00740671089940257,0.0311780572043172,-2.37929072583228,-0.00102801920803972,0
0.22,0.000565692863326438,0.000323283966950716,-0.0276677387960913,-0.0161742633984214,0.000156841774187834,-0.000632393545804721,-0.00740878542610404,0.0311804500461459,-2.37929775587454,-0.000981851579216668,0
0.23,0.000565446679908348,0.000323282971443548,-0.0276708697339248,-0.0161742089323594,0.000156668248478269,-0.000632215855039633,-0.00741077807851956,0.0311827265435591,-2.37930445551672,-0.000937854187748477,0
0.24,0.000565212138022384,0.000323282028829038,-0.0276738539462418,-0.0161741559270176,0.000156502925246458,-0.000632046569107811,-0.00741267813876215,0.0311848956227293,-2.37931084028803,-0.000895924663599444,0
0.25,0.000564988443117121,0.000323281131352695,-0.0276766860556865,-0.0161741163964322,0.000156345251734868,-0.000631885110605201,-0.00741447274656305,0.0311869617968927,-2.37931692498783,-0.000855965758192862,0
0.26,0.000569281272739868,0.000325867029116428,-0.0278927587697817,-0.0163034939947031,0.000157435813973735,-0.000636776611250695,-0.00746993172497553,0.0314326268111457,-2.37932264258942,-0.000839349309868416,0
0.27,0.000558171571058818,0.000319533615059979,-0.0273788820324723,-0.0159866271654306,0.000154341033154837,-0.000624368544512186,-0.00734406996357335,0.0308421799787995,-2.37932837520837,-0.000751039012321087,0
0.28,0.000557701291726187,0.000319384928209555,-0.0272793166999304,-0.0159791873870618,0.000154120531062892,-0.000623926538196102,-0.00728053296220672,0.0307650676734532,-2.37933364336124,-0.000715156400275633,0
0.29,0.000563069450547192,0.000322652473828377,-0.0276334615073222,-0.0161426634127815,0.000155461114080474,-0.00063006639889455,-0.00740669870748215,0.0311341386775288,-2.37933855345643,-0.00070870324401692,0
0.3,0.000556167838925654,0.000318937059117809,-0.0273155530771311,-0.0159567807734785,0.000153379882773153,-0.000622509537512834,-0.0073214833590746,0.030775869995586,-2.3793427121195,-0.000650021689521119,0
0.31,0.000562550361943971,0.000322579472761967,-0.0276278861509883,-0.0161390075333352,0.00015515002586075,-0.000629641878726384,-0.00740522440889255,0.0311276454102613,-2.37934717749178,-0.000651128319755912,0
0.32,0.000563493216182403,0.000323164031252726,-0.0276821714085953,-0.0161682594581835,0.000155375559883038,-0.000630728175341909,-0.00742141753815839,0.0311871414131899,-2.37935153395766,-0.000627645991298036,0
0.33,0.000563525779432935,0.000323257419078956,-0.0276928979707761,-0.0161729352001969,0.000155327870038934,-0.00063081686396628,-0.00742531272783209,0.0311981595916086,-2.3793557026873,-0.00060113328626225,0
0.34,0.000563411108713644,0.000323271932149834,-0.0276962187493827,-0.0161736506209062,0.000155235680352221,-0.000630744562468364,-0.00742696435795758,0.0312010850427742,-2.37935967836037,-0.000575170127945369,0
0.35,0.00056327713236752,0.00032327379813125,-0.0276982108151543,-0.0161737451753186,0.000155139425178055,-0.000630649534338846,-0.00742815332853436,0.0312026193369188,-2.37936346766748,-0.000550309841073976,0
0.36,0.000563145309533483,0.000323273654376462,-0.0276999100208992,-0.0161737378810237,0.00015504622368556,-0.000630554647738261,-0.00742921927997937,0.0312038701622083,-2.37936707896597,-0.000526598168774897,0
0.37,0.000563019016399564,0.000323273208586864,-0.0277014948719159,-0.0161737145701324,0.000154957166765117,-0.000630463525261935,-0.00743022313776722,0.0312050259614999,-2.3793705205538,-0.000503997568050565,0
0.38,0.000562898389764981,0.000323272734104423,-0.027702989014975,-0.0161737017560659,0.000154872146064106,-0.000630376455928404,-0.0074311618063472,0.0312061222048796,-2.37937380039607,-0.000482458590460911,0
0.39,0.000562783563534471,0.000323272273909095,-0.0277044165466145,-0.0161736755051804,0.000154791218087076,-0.000630293567527096,-0.00743206900033353,0.0312071598500966,-2.37937692609242,-0.000461931808435955,0
0.4,0.000562674150613308,0.000323271834020624,-0.0277057746963085,-0.0161736477858841,0.000154714106538701,-0.000630214585421027,-0.00743293392468769,0.0312081452107566,-2.37937990488701,-0.000442369729375623,0
0.41,0.000562569763915441,0.000323271414562636,-0.0277070602397947,-0.0161736349214401,0.000154640539617701,-0.000630139230846603,-0.00743374233159365,0.0312090872768031,-2.37938274368411,-0.000423727027361996,0
0.42,0.000562470479129077,0.000323271014750912,-0.0277082920916039,-0.0161736086293061,0.00015457056594728,-0.000630067559085941,-0.0074345275344663,0.0312099802477808,-2.37938544906319,-0.000405960495693353,0
0.43,0.000562375580276878,0.000323270633692986,-0.0277094489926501,-0.0161735942786507,0.000154503687768776,-0.000629999052670612,-0.00743525630865975,0.0312108263106124,-2.37938802729467,-0.000389028956443823,0
0.44,0.000562285434092473,0.000323270270514447,-0.0277105630468324,-0.0161735679606502,0.000154440155135108,-0.00062993397723324,-0.00743596793026194,0.0312116322208621,-2.37939048435416,-0.00037289316665595,0
0.45,0.000562199324599317,0.000323269924378857,-0.0277116117228592,-0.0161735550355507,0.000154379470623065,-0.000629871815243373,-0.00743662832038125,0.0312123992347752,-2.37939282593662,-0.000357515727662011,0
0.46,0.000562117347849948,0.000323269594487227,-0.0277126123182871,-0.0161735420952599,0.000154321697675833,-0.000629812636504099,-0.00743725895267872,0.0312131306453169,-2.37939505746922,-0.000342860998450167,0
0.47,0.000562039154595672,0.000323269280078806,-0.0277135594114519,-0.0161735276859277,0.000154266592386767,-0.000629756188706917,-0.00743785697406895,0.0312138215650189,-2.37939718412409,-0.000328895013065456,0
0.48,0.000561964628426612,0.000323268980427506,-0.0277144585180883,-0.01617351471829,0.000154214071759726,-0.000629702387942578,-0.00743842393442709,0.0312144780296792,-2.37939921083039,-0.000315585401885485,0
0.49,0.00056189365292473,0.000323268694841791,-0.0277153146994671,-0.016173501737335,0.000154164052917491,-0.000629651150280745,-0.00743896423483206,0.0312151027301043,-2.37940114228513,-0.000302901316597975,0
0.5,0.000561825995259385,0.000323268422661948,-0.0277161267189283,-0.0161734887439079,0.000154116372717778,-0.000629602307571897,-0.00743947688135656,0.0312156948053502,-2.37940298296529,-0.000290813358701379,0
0.51,4.18474081817825,-0.0128128994541224,2.75231873502079,0.646317572462237,-0.448455566864017,4.16066190530645,0.356235201211778,2.80465350890935,0.104308352529851,32.1114023578509,478.385297619171
0.52,3.91436627360653,-0.0226614651151926,2.53688201397621,1.14421087967775,-1.78256711048618,3.48500091284958,-0.120473946165233,2.78037316170048,0.467013516035639,66.4985519372604,478.385297619171
0.53,3.67337669759669,-0.00985271667044207,1.42877435057891,0.50790136310114,-3.23664095504318,1.73722444336053,-1.01568601613371,1.12594043188022,1.07551076638444,99.3731071775521,478.385297619171
0.54,3.37108693303598,-0.00732607229918347,3.28012001906082,0.384139366795882,-3.16058767432179,-1.17258958478508,-3.21060061156917,-0.773817876219963,1.92388555437929,132.227155420142,478.385297619171
0.55,3.14706815063413,0.006696842364869,1.84380657390732,-0.316971857489204,-0.42365457942445,-3.11842902593054,0.0698546100322942,-1.8695491900138,3.00869215632531,162.771497375482,478.385297619171
0.56,2.94167706936825,-0.0124297302865863,1.57698638821843,0.643680399755061,2.6985008109453,-1.17120102969965,1.18517907654199,-1.22334013347969,-1.98450677044227,188.697330568693,478.385297619171
0.57,2.68196166713713,-0.0190373911949461,4.39052068244746,0.976442785121063,1.29167345650728,2.35050217783584,2.99413177223369,3.35638008963744,-0.509581135833767,213.968620646076,478.385297619171
0.58,2.50099537686346,0.0226460889681771,3.39183949753332,-1.11194395470554,-2.27431804250212,1.04065756230725,-3.55042997445987,0.368023819732098,1.15072041042899,238.102034422349,478.385297619171
0.59,2.34139746993424,0.0514668985623017,2.85412560506029,-2.54978474719945,-0.443507578599991,-2.29958517597989,2.03487283297091,-3.24140830198059,2.97304552690941,259.087315410493,478.385297619171
0.6,2.16463921973054,0.0394696381749183,2.91966647003899,-1.95427633886267,2.11235630123356,0.474522560656664,2.37350681852773,2.59038871355455,-1.33159148569803,280.167142232738,478.385297619171
0.61,2.03224733489611,0.044572018409781,2.10798469263034,-2.20456730661193,-1.41045088141858,1.46377737587483,-3.04918669338966,-0.0785937822058593,0.788775828726118,298.326717205667,478.385297619171
0.62,1.9014931484537,-0.0154728984705976,1.14188907956443,0.795410273290903,-0.170640835866656,-1.89388418583032,-0.903314998954979,-1.05858877074536,3.04359724757134,316.227248408116,478.385297619171
0.63,1.72069690551708,0.0309434417606632,3.57060335604755,-1.5286048602523,1.32786718416996,1.0947712448035,1.72026784558763,3.48231527642778,-0.863337484347503,332.35462573468,478.385297619171
0.64,1.55498265465211,-0.0180229612096886,5.55591538192343,0.923455198853812,-1.55126715220158,-0.10893165701532,-5.60041213796298,0.59694984742471,1.62931238938698,347.201217126177,478.385297619171
0.65,1.49254778069007,0.00125914303460056,2.68163383530708,-0.0462856692896218,1.31968100182744,-0.697239210386051,2.39368999320069,-1.20977295650722,-2.05601381068998,361.502751308929,478.385297619171
0.66,1.37017998213888,0.0368414744955411,3.4964370047812,-1.82241524777195,-0.788884440701964,1.12089777273195,-3.55006737716903,1.71560213373475,0.64015129203213,374.228780850575,478.385297619171
0.67,1.24665846958044,0.0255806213884451,4.5625713215301,-1.26015138837225,0.328494874693385,-1.20287273860016,2.50059712273131,-4.01896163398624,-2.85448472468464,386.134554344556,478.385297619171
0.68,1.19107619431071,-0.0146309213337848,2.49984156149145,0.747128657214893,-0.0364760815033686,1.19060743319993,0.701148971025353,2.51312538155617,0.0183437861764277,397.481489725688,478.385297619171
0.69,1.11316791985099,3.5907898851939e-05,1.9871395079822,0.00977443467922293,-0.190698917142395,-1.09671178623897,-0.349987493985769,-1.9561001298018,2.96946380538411,407.874173658952,478.385297619171
0.7,1.01370474774398,-0.0320212287274705,2.94392456137945,1.62136208124635,0.258635042420681,0.98067863723034,2.39415482736688,2.3587135231292,-0.289437144383115,417.179035839448,478.385297619171
0.71,0.961149807874782,-0.0138041153535238,1.71967998083533,0.70774010506535,-0.307015347552472,-0.910901247746241,-1.23995299267047,-1.38589749576628,2.80214360184826,425.977267593176,478.385297619171
0.72,0.871185560001233,0.0380240726978015,2.60642940580842,-1.89042136326959,0.316303204937091,0.812626847086481,-0.951289800854503,3.07607134068101,-0.327573648873055,434.250042965463,478.385297619171
0.73,0.815177352347341,-0.0305255282171059,2.07059681944246,1.5357332471874,-0.178684788828059,-0.795938232461808,-2.01363516505631,-1.60969600150173,2.88332917070452,441.859580722513,478.385297619171
0.74,0.753249108373777,0.00207462888332788,2.11753137268648,-0.097314649964738,0.103990683596524,0.74603918199785,0.190140274411535,2.11122143117579,-0.135743755307263,448.802489012802,478.385297619171
0.75,0.698602481483987,-0.0231240489514895,2.00944996349655,1.17227687901218,0.0483139054456908,-0.697313355182647,-1.09901461618349,-2.05043632192708,-3.10550577482225,455.1439945736,478.385297619171
0.76,0.616793727789786,-0.0253020602167185,3.41100222728764,1.27940614090629,-0.179126659638024,0.590752348026612,0.383394878318098,3.62281998382882,0.253407405719506,461.072125123669,478.385297619171
0.77,0.599177755000149,0.00667594003413555,1.79046558139434,-0.323000078431707,0.287948930555121,-0.52549401866674,1.1593518979378,-1.40214094354764,-2.62917676567282,466.571308042585,478.385297619171
0.78,0.533483674315428,-0.0126004007621601,2.72872792981759,0.637791247167719,-0.395052483831716,0.358743830440118,-1.53642500404864,2.34352981565511,0.809913985273881,471.662303302006,478.385297619171
0.79,0.493252212788804,0.014664466014622,2.58839246910638,-0.72957909082745,0.44266251725176,-0.218088715445988,2.6577066215044,-0.410678387440699,-1.99884530715159,476.315772108248,478.385297619171
0.8,0.439356983842294,-0.0325821224626293,3.27310686481782,1.63180021952421,-0.440534080565232,-0.00508702424935867,-3.16483853440468,1.83297505605069,1.50832006055651,480.609383436624,478.385297619171
0.81,0.383350493489045,0.0209539823553907,4.21709863114514,-1.04864814998344,0.369123259165806,0.105568412783644,3.64225771257864,2.37013555781759,-1.23762886210153,484.52690158522,478.385297619171
0.82,0.342756889360918,-0.0364894913099468,4.50189018412378,1.82814026126479,-0.224194953445509,-0.26182129598258,-4.52858604370535,-1.76097146187111,2.32739890254522,488.140716274884,478.385297619171
0.83,0.325899557517179,-0.0219375091573603,3.7537942373498,1.10688276303936,0.0959646672481762,0.312221969979483,2.37514899223185,3.11043853695492,-0.365408013255545,491.386093019189,478.385297619171
0.84,0.346744127266921,-0.00784899670344313,1.19163395821846,0.402310765180702,0.0446707799607668,-0.343944207628281,-0.273334375102517,-1.22765376289367,-3.03507005417491,494.444232626553,478.385297619171
0.85,0.305892562265643,-0.0129591872972136,1.8444142231321,0.656484987465997,-0.183360012504404,0.245188307223712,-0.499184872970109,1.89305330824518,0.59977321928908,497.188959767304,478.385297619171
0.86,0.262471985031194,0.0476833426401404,2.72702119180618,-2.37990829744439,0.214257710181508,-0.158930417854259,3.49872712192596,0.927101187090343,-2.02930056170601,499.681557974463,478.385297619171
0.87,0.262485706489742,-0.0241435747202617,1.4963226021608,1.21258984463465,-0.260087621068777,-0.0428495936792435,-1.57919344372982,1.10249876568145,1.64235771138301,502.045833153934,478.385297619171
0.88,0.219718860862088,0.0228434082264719,2.49031785689109,-1.14087916884246,0.192287544409915,0.108736835445674,1.36807342819894,2.37311259768796,-0.952543483381074,504.174141851139,478.385297619171
0.89,0.181066269381417,-0.0288285622124358,3.36382686888027,1.44234715583769,-0.0423838870086211,-0.178380733345786,-2.61591974847847,-2.55981647609243,2.75042459847887,506.126621931925,478.385297619171
0.9,0.206517061726213,-0.0025849115554321,1.10706502528253,0.128353520868599,-0.0402605817747868,0.202571133449299,-0.0760045498298391,1.11188619243533,0.183675257831363,507.893312260428,478.385297619171
0.91,0.158704012969622,-0.0101119064478769,2.58244527497314,0.502883280805883,0.117829128251619,-0.106796586650211,1.43856658213088,-2.20282577184885,-2.37074819980809,509.459409833472,478.385297619171
0.92,0.160504126519645,-0.0379668399215487,1.66180871709227,1.8958461405326,-0.164857452033767,-0.00500760146145726,-1.24785077663222,2.19059563590238,1.36888442444017,510.864115142324,478.385297619171
0.93,0.139693041640063,0.00813391149499621,1.94771145368777,-0.41185076964277,0.131562813673254,0.047660596484281,1.62704314319928,1.14714060753251,-1.16507573888731,512.072821337862,478.385297619171
0.94,0.12186223863514,-0.0130822915535643,2.11058815398721,0.64912012218585,-0.0524140133066084,-0.110789542676892,-1.65486868011983,-1.46196748949358,2.59275597329454,513.214299210948,478.385297619171
0.95,0.139494686793922,0.00633009407196057,0.550550163066625,-0.321737540940791,-0.00420001997605513,0.139575060690995,-0.362311331914159,0.524739007574149,0.0754300379153244,514.271051899834,478.385297619171
0.96,0.0876642491669172,0.0279965362191014,2.50740728784515,-1.40394390604575,0.035645656853373,-0.0848422876268573,2.6960099865414,-0.994826593397571,-2.43472234930875,515.149326643826,478.385297619171
