t,iq,id,vq,vd,ia,ib,va,vb,theta_e,omega,r
0,0,0,0,0,0,0,0,0,0,0,0
0.01,0.000853043353264057,0.000482072491636115,-0.0420469021129837,-0.0241209294884235,0.000926524169922451,0.00031879431031584,-0.0459377737355936,-0.0154752111747058,-0.72503107477636,-0.00159100322122565,0
0.02,0.00100230760475174,0.000563956077201169,-0.0494694355910682,-0.0282180428331983,0.00108680285533177,0.000376200139816565,-0.0539269212290532,-0.0183131145846508,-0.725043485743898,-0.00177884414691238,0
0.03,0.00105847044474889,0.000595403060384715,-0.0522597934926344,-0.0297915282271538,0.00114759051695595,0.000397366948946644,-0.0569553543178727,-0.0193573961195114,-0.725056375279656,-0.00178188479398307,0
0.04,0.00103572706650607,0.000583212659032595,-0.0511735896938121,-0.0291815573206083,0.00112338825469563,0.00038841523034125,-0.0557786969869831,-0.0189482593459373,-0.725068450376346,-0.00163834051428775,0
0.05,0.00106042654414852,0.000597901051603343,-0.0524157509268469,-0.029916505720141,0.00115076681382508,0.000397147155651432,-0.0571527818356685,-0.0193898888128054,-0.725080053081995,-0.00159084821445485,0
0.06,0.00106259803652899,0.000599809037039314,-0.0525503498056804,-0.0300119629977561,0.00115363935825306,0.000397494275730809,-0.0573137066848252,-0.019426688182083,-0.725091112315355,-0.00150406369459342,0
0.07,0.00108211518132333,0.000611802993228372,-0.0535346566767414,-0.03061211696327,0.0011755640968482,0.000404135153599765,-0.0584158843041716,-0.0197647573076711,-0.725101387463229,-0.00145742844474394,0
0.08,0.00106332334689802,0.000601611266325061,-0.0526370100455532,-0.0301021545053786,0.00115547725890146,0.000396818547939998,-0.0574390753006866,-0.0194305728429044,-0.725111306066775,-0.0013393055265438,0
0.09,0.0010596847009753,0.000600281136472642,-0.0524816484976282,-0.0300356001683479,0.00115207217764685,0.000394966841365246,-0.0572864040500418,-0.0193579083972628,-0.72512052239045,-0.00125639899504813,0
0.1,0.00105820722994159,0.000600104783038142,-0.0524309631485506,-0.0300267642301384,0.00115096370094412,0.00039396808403083,-0.0572463423290673,-0.0193253397579507,-0.72512916849015,-0.00118238253383857,0
0.11,0.00105708745552785,0.000600078815893871,-0.0523965161860385,-0.0300254670714116,0.0011502047897919,0.000393137908956509,-0.057222681955029,-0.0192999546933099,-0.725137291176397,-0.00111336847115677,0
0.12,0.00105607228578165,0.000600072605697443,-0.052365964429155,-0.0300251729913881,0.00114952983752205,0.000392373492416518,-0.0572023459042057,-0.0192768479480933,-0.725144923734769,-0.0010485910117078,0
0.13,0.0011000911298498,0.000625564236005433,-0.0545462153700722,-0.0313006537088822,0.00119780612839784,0.000408401256261361,-0.0596031073957824,-0.0200621564785168,-0.725152367499688,-0.00107285160339561,0
0.14,0.00112866267243327,0.000642618190829756,-0.0560315010144476,-0.0321539675723298,0.00122952231072613,0.000418464400823048,-0.0612269872689539,-0.0206073473921763,-0.725159463531679,-0.00106996495076787,0
0.15,0.00106357811335062,0.000605602329763122,-0.0527883094877313,-0.0303018447847777,0.00115865488628534,0.000394298667890322,-0.0576899387785105,-0.0194082039268184,-0.725166202716743,-0.000888073960965137,0
0.16,0.00105390223667292,0.0006007815301403,-0.0523282339384631,-0.030060634771311,0.00114863175370532,0.00039024795425695,-0.0572043845658533,-0.0192235328806814,-0.725172153130189,-0.000820313360121119,0
0.17,0.0010519394706021,0.000600151918144365,-0.0522458509716102,-0.0300291272114457,0.00114686088432455,0.00038919029621678,-0.0571262693379858,-0.019182460122539,-0.725177691746609,-0.000770924806881259,0
0.18,0.00105108216424922,0.000600068025945821,-0.0522168846321489,-0.0300249440328609,0.0011462314963721,0.000388598389716067,-0.0571040258629642,-0.0191632600333424,-0.725182889015477,-0.000726492966531008,0
0.19,0.00105041350876717,0.0006000552898699,-0.0521963856578407,-0.030024288562513,0.00114578035933774,0.000388100835424616,-0.0570900324183278,-0.0191480750442797,-0.725187771839596,-0.00068501460565612,0
0.2,0.0010498039393341,0.000600051925670644,-0.0521780418445273,-0.0300241178654173,0.00114537530748948,0.000387641625133101,-0.0570778254546434,-0.0191341983290385,-0.725192360056507,-0.000646075599133486,0
0.21,0.00104923366483425,0.0006000498839373,-0.0521609268203436,-0.0300240361798033,0.00114499719765004,0.00038721126534262,-0.0570664947217888,-0.0191211980652738,-0.725196671554241,-0.000609490124701767,0
0.22,0.00104869836846497,0.000600048110693355,-0.0521448711282319,-0.0300239352658176,0.00114464238497342,0.000386807204806367,-0.0570558471594014,-0.0191090182570677,-0.725200723037446,-0.00057511172305845,0
0.23,0.00104819514919338,0.000600046462969893,-0.0521297716196752,-0.0300238593222254,0.00114430884493659,0.000386427348818765,-0.0570458477458076,-0.0190975514839577,-0.725204530189029,-0.000542806666454637,0
0.24,0.00104772243073827,0.000600044916733649,-0.0521155886187825,-0.0300237862445804,0.00114399552026107,0.000386070516347228,-0.0570364539198617,-0.0190867818604897,-0.725208107744239,-0.000512449831744733,0
0.25,0.00104727823403034,0.0006000434637569,-0.0521022598208847,-0.0300237102125843,0.00114370109791636,0.000385735215524834,-0.0570276202784937,-0.0190766658183276,-0.725211469549256,-0.000483923716298109,0
0.26,0.00105597608101759,0.000605249527964475,-0.0525371646449825,-0.030284194244329,0.001153367535799,0.000388787605444702,-0.0575110851149932,-0.0192291751996349,-0.725214568298982,-0.000475321920498009,0
0.27,0.00103248872408686,0.000591870745042233,-0.0513917714110365,-0.0296147662347486,0.00112777754820689,0.000380081236005967,-0.0562504380470234,-0.0188158647800471,-0.725217700428226,-0.000403920773283144,0
0.28,0.0010316669101359,0.000591612828391481,-0.0512966262739412,-0.0296018723675061,0.00112704048597185,0.000379634159641951,-0.0561777315463331,-0.0187530582321564,-0.725220489546626,-0.000379373654346318,0
0.29,0.0010437553686532,0.000598941498944003,-0.051958401492439,-0.0299685735416173,0.00114054417084116,0.000383816600878476,-0.0568911574159481,-0.0190049228791548,-0.725223018761105,-0.000382045425321313,0
0.3,0.00103199164838929,0.000592693536611925,-0.0513857307600132,-0.0296559442509427,0.00112806634050761,0.000379155274393707,-0.0562773838798772,-0.0187836210245129,-0.725224983871738,-0.000343022292044033,0
0.31,0.00104332392458558,0.000599080606278283,-0.0519478788605891,-0.0299755271611149,0.00114036371546099,0.000383396636515541,-0.0568894617950488,-0.018992195327841,-0.725227247520377,-0.000346410056397038,0
0.32,0.00104464436817501,0.000599911236172474,-0.0520182479578763,-0.0300170862339029,0.00114186201684551,0.000383831319372514,-0.0569672804538192,-0.0190171644646771,-0.725229443934977,-0.000330901706832485,0
0.33,0.00104459349457104,0.00060001859191455,-0.0520209705775564,-0.0300224524162314,0.00114190940705822,0.000383719670612804,-0.056973141584506,-0.019015524365836,-0.725231517484857,-0.000313740196392574,0
0.34,0.00104436653943479,0.00060003184015901,-0.0520147336305671,-0.030023132825009,0.00114176952784489,0.000383538815741595,-0.0569695508112543,-0.0190102945703347,-0.725233467314456,-0.000297255197812894,0
0.35,0.0010441288101323,0.000600032881485391,-0.0520076706534475,-0.0300231743683719,0.00114161332132797,0.000383358129662675,-0.0569649317805433,-0.0190048770895573,-0.725235299740419,-0.000281714717066137,0
0.36,0.00104390173738153,0.000600032374881942,-0.0520008509533718,-0.0300231622017836,0.00114146298206482,0.000383186571777164,-0.0569604318064343,-0.0189996835998377,-0.72523702168451,-0.000267104556269781,0
0.37,0.0010436882223076,0.00060003170543797,-0.0519944343786407,-0.0300231134629977,0.00114132147357876,0.000383025386707481,-0.056956169872424,-0.0189948219741694,-0.725238639787593,-0.000253374532725359,0
0.38,0.00104348711015234,0.000600031051136267,-0.0519883793563048,-0.0300230895660089,0.00114118816558928,0.000382873585013066,-0.0569521644830604,-0.0189902200060476,-0.725240160308786,-0.000240472388383704,0
0.39,0.00104329833802091,0.000600030432960813,-0.0519826982897708,-0.0300230656226554,0.00114106303441922,0.000382731098917148,-0.0569484053551646,-0.0189859031486909,-0.725241589132493,-0.00022834831022462,0
0.4,0.00104312114452011,0.000600029851589757,-0.0519773677546052,-0.0300230138566995,0.00114094557772532,0.000382597351811013,-0.0569448562722424,-0.0189818719801472,-0.725242931788832,-0.000216955391450612,0
0.41,0.00104295437488372,0.000600029305179761,-0.0519723438012686,-0.0300229898346193,0.00114083503020747,0.000382471474773115,-0.0569415297650292,-0.0189780564554226,-0.725244193474022,-0.000206249540504745,0
0.42,0.00104279773338007,0.000600028791675678,-0.0519676245865878,-0.0300229657736913,0.00114073119609038,0.000382353242236287,-0.0569384039144634,-0.0189744733443166,-0.725245379071248,-0.000196189322966037,0
0.43,0.00104265052151722,0.00060002830910452,-0.0519631873297824,-0.0300229416763596,0.00114063361238179,0.000382242127521064,-0.0569354637001081,-0.0189711053348461,-0.725246493169083,-0.000186735802921254,0
0.44,0.00104251215721313,0.0006000278556053,-0.0519590143620096,-0.030022914634454,0.00114054189327711,0.000382137691309466,-0.0569326953087846,-0.0189679408870949,-0.725247540079501,-0.000177852392514982,0
0.45,0.0010423820048839,0.000600027429428325,-0.0519550846653953,-0.0300229153219476,0.00114045561746031,0.000382039454474739,-0.0569301078313901,-0.0189649436941827,-0.725248523854352,-0.000169504710374704,0
0.46,0.00104225982231466,0.000600027028929407,-0.0519513962165312,-0.0300228911242859,0.00114037462452542,0.000381947232475554,-0.0569276606257411,-0.018962146924549,-0.725249448301033,-0.000161660448551798,0
0.47,0.00104214520674108,0.000600026652561874,-0.0519479383250905,-0.0300228668966657,0.00114029864755142,0.000381860720826869,-0.0569253652695535,-0.0189595258867469,-0.725250316997424,-0.000154289247479514,0
0.48,0.0010420373432559,0.000600026298873816,-0.0519446791791424,-0.030022842642589,0.00114022714621752,0.000381779306810466,-0.0569232007284741,-0.0189570565803751,-0.725251133305649,-0.000147362578473177,0
0.49,0.00104193582909021,0.000600025966499545,-0.0519416070253479,-0.0300228402933026,0.00114015985356653,0.000381702686302797,-0.0569211756787303,-0.0189547154820098,-0.725251900385077,-0.000140853633316985,0
0.5,0.00104184065487481,0.000600025654154991,-0.0519387292437084,-0.0300228159862913,0.00114009676357794,0.000381630849739899,-0.0569192622488413,-0.0189525370398157,-0.725252621204562,-0.000134737220505901,0
0.51,3.36613806408291,0.0315525664452207,2.80506592885249,-1.57643632189791,-0.099665714386481,3.36481021400806,-1.68456521505831,2.74149345766567,0.0389845995558843,11.9666505183256,462.790210002852
0.52,3.2579166002813,-0.00520276174531209,5.08221858268465,0.265577014503037,-0.573263801376509,3.20708843924666,-0.624769094385283,5.0506574276542,0.175283961299251,25.1789219043724,462.790210002852
0.53,3.22814086012645,0.0499525313537563,3.43233680484142,-2.49137254117988,-1.23494330715416,2.9830024633449,-3.6486996199277,2.1621434190066,0.407983991359707,38.2772611663848,462.790210002852
0.54,3.13866796992703,-0.00865724602884022,4.69317186464798,0.444573010188303,-2.11533164858799,2.31876768776794,-2.82415209694431,3.77460888647239,0.736792165715371,51.483451377711,462.790210002852
0.55,3.1361310343218,-0.0575622723563696,1.38228473474593,2.89473752688759,-2.90282160604774,1.18838461917746,-0.123703829099925,3.205450639169,1.16386938222183,65.1636842010071,462.790210002852
0.56,2.99362663906963,-0.0334724809732048,4.92766079424734,1.68670098849071,-2.96731069269371,-0.397477186962245,-5.09627899826392,1.07458899100632,1.6927748832948,78.895355933737,462.790210002852
0.57,3.02746855904305,-0.0128043564590283,0.125529053131032,0.656377283874997,-2.21424056945842,-2.06467153031735,-0.537767812577843,0.396729708645991,2.31702442569212,91.2290600268429,462.790210002852
0.58,2.90814203737017,-0.0137238562290426,3.20760913437963,0.707129632280153,-0.313928882792186,-2.89118091967593,-1.06392615775643,-3.10754723321238,3.02871576192814,102.928966560556,462.790210002852
0.59,2.78918347350308,0.0508054057859506,6.0016390457258,-2.52443194296274,1.72829012405888,-2.18978055640293,5.75620620388719,-3.04278129482909,-2.45522627114353,115.353188607009,462.790210002852
0.6,2.70842722935905,-0.0187502919696545,6.89655453944321,0.956717940869975,2.70825766578255,0.0356377035250062,6.90238586898802,-0.913697460591722,-1.56456101602151,127.302360198519,462.790210002852
0.61,2.71551896604724,0.0403345755764701,3.78253614343031,-1.99217409442258,1.54692877363443,2.23219208453284,0.454034877655287,4.2509045659386,-0.591166195781938,138.291181191653,462.790210002852
0.62,2.66819749381508,0.00483240769882354,3.04718947111672,-0.222907113503294,-1.19375783835618,2.38626139421657,-1.56742318609761,2.62263909255898,0.465668948761667,150.10376049769,462.790210002852
0.63,2.60536412895484,-0.0498276081466484,3.45762421726764,2.52064189432309,-2.6021006655177,-0.139560601498375,-3.54241513468055,2.40001995842505,1.60525613288192,160.654209421796,462.790210002852
0.64,2.50514867750853,0.0440130461905222,5.56597849073017,-2.18272716619787,-0.82695171355596,-2.3651338034252,0.328279343120239,-5.9696438012841,2.82280342606292,171.744270429324,462.790210002852
0.65,2.45928073314243,0.00347075446525669,5.15522295551761,-0.144552437269926,2.03834821396711,-1.37593979852289,4.35761899475273,-2.75832844759042,-2.16315315969824,181.965816504374,462.790210002852
0.66,2.38336893691401,-0.044915128533216,6.14814619964187,2.26823367245044,1.66333274700408,1.7075681629035,5.96687749651004,2.70942034882941,-0.79111918506369,192.531539368411,462.790210002852
0.67,2.35544682234547,0.0162582124270794,4.98862670880882,-0.780284941402305,-1.42386954307433,1.87643001113124,-3.6612314907187,3.47715760370301,0.656023291883946,202.19229477182,462.790210002852
0.68,2.25197552709647,0.0484979961212552,7.40881237001193,-2.40331622478352,-1.8800020455539,-1.24070066453693,-4.72766491153539,-6.18996075064992,2.17566445503056,212.312779612306,462.790210002852
0.69,2.26464182574545,0.0127620149041405,4.29290418180877,-0.603898102348484,1.3134892877965,-1.84486079658708,2.99947504110191,-3.12999500159633,-2.51724160329977,221.722056874658,462.790210002852
0.7,2.21183613249484,0.0195112176104456,4.35127918557863,-0.94329272951587,1.68394558865813,1.43419908627122,2.66969419211595,3.56316778232371,-0.856501084005679,231.062966057818,462.790210002852
0.71,2.11463137762213,-0.0297550195227948,6.65681215576956,1.51257561639682,-1.63731161102896,1.33856711180299,-4.12016871211678,5.44290757373424,0.87138152920035,240.379167258908,462.790210002852
0.72,2.0767477609209,0.0194307949330672,6.18904228836112,-0.945975901105385,-0.970006372206152,-1.83639496191891,-1.99876770383156,-5.93329946309086,2.66498686493586,249.164217522573,462.790210002852
0.73,2.00346871109849,-0.000692213800875474,7.4584362045426,0.0713092492095222,1.96801710946702,-0.37522794719434,7.31259518895769,-1.46945814118249,-1.7595435541938,257.720042625128,462.790210002852
0.74,2.00517173677318,-0.0584392126358997,4.95886758512771,2.95518333107464,-0.380999185469242,1.9695096994428,2.11691831220702,5.37048723176346,0.161952420721698,266.336804666437,462.790210002852
0.75,1.94863634477224,-0.0499988754843982,5.42785035558473,2.5258290382606,-1.6090810336303,-1.1002462083226,-5.92939102119561,-0.826857866205934,2.14489572069924,274.75616501918,462.790210002852
0.76,1.88362433602992,0.0133626486004667,6.41854735634637,-0.647962811991558,1.62389060761991,-0.954567176339948,5.88067680342125,-2.65240387292136,-2.09512320701348,282.855233445755,462.790210002852
0.77,1.89415628738472,-0.0103859822019801,3.69004431280238,0.560032933822067,-0.0233222885983902,1.89404117709196,0.534817919320482,3.69378311634349,0.00682976863396416,290.639106964112,462.790210002852
0.78,1.74357983319454,0.0206579614739278,9.01787751842053,-0.995376734569382,-1.45523559579711,-0.960617898448701,-6.90847094042794,-5.88097942916136,2.16609452926862,298.282157420763,462.790210002852
0.79,1.72057346655492,-0.0255950666120182,7.99456645945072,1.31662454467697,1.63530578212364,-0.535540064048135,7.13135573301715,-3.84582351069101,-1.90215005168416,305.803324106705,462.790210002852
0.8,1.65996303972699,0.0778065535511067,8.89023025046573,-3.86177236888601,-0.523117260030646,1.57730132989648,-6.79509862328529,6.91202679647684,0.367075982337152,313.164980678232,462.790210002852
0.81,1.69693533002417,0.0350157504523414,4.94634077616046,-1.72253187834994,-0.77315448994896,-1.51097576146533,-0.612538661277603,-5.20174966086217,2.68926687913596,320.34858136284,462.790210002852
0.82,1.59010567376471,-0.00191710216533936,8.23086943676637,0.1216134375254,1.49254601614849,0.548403244609937,7.77108721342474,2.71518047919986,-1.21988620741594,327.357066869594,462.790210002852
0.83,1.6258436969694,0.0890779276473998,4.44563213079642,-4.43225271050814,-1.48608571722684,0.665471145297434,-5.73814915992948,-2.54600733513808,1.20450634550778,334.127230714731,462.790210002852
0.84,1.55613125176805,0.0370287480661085,5.95963916775769,-1.82955268200098,0.763361662994602,-1.3565377150609,4.6180478633429,-4.18786293447656,-2.60523916391207,340.761042146789,462.790210002852
0.85,1.45716290743385,-0.0304562622492464,8.96972655230192,1.54563875974847,0.091585156007856,1.45460079812651,2.29079961816201,8.80892903298327,-0.0837774226708257,347.227428875419,462.790210002852
0.86,1.44246040844242,-0.0291255693947628,7.80544739383622,1.47977089716002,-0.858038783964167,-1.15987489580978,-5.93943294883252,-5.27616026787938,2.48448315180049,353.51503903905,462.790210002852
0.87,1.36951671552962,-0.00629409408394133,9.58136443131225,0.337494447843422,1.26641682475936,0.521348324732904,9.00367678214829,3.29397195958685,-1.18486438519119,359.656579333792,462.790210002852
0.88,1.44228706653167,0.0263492779449801,4.1130736282045,-1.29163225129252,-1.43290565255055,0.16633597813295,-4.21909560443195,-0.885957574759245,1.47349763542222,365.627604706467,462.790210002852
0.89,1.30568802130711,0.00166494138739479,9.15391805271159,-0.0556935785372519,1.12087134290799,-0.669680083071272,7.89268313998141,-4.63711875438862,-2.10807376369767,371.427114667659,462.790210002852
0.9,1.28737816414167,0.00513210404290332,8.31711284985871,-0.225216724174755,-0.760110774667727,1.03903825061194,-5.11861955938216,6.55933095189161,0.635576091240216,377.065352137305,462.790210002852
0.91,1.32831831636562,-0.0334332763643197,4.54203987801487,1.70994660666,0.397534886575537,-1.26787749704623,-0.394563913746609,-4.83718543877267,-2.86292162020303,382.595117127861,462.790210002852
0.92,1.21193894827464,0.0410275443226636,8.67364663444926,-2.01592299088813,0.0873959456309394,1.20947973212678,-1.68237883245139,8.7444664164604,-0.0382938607437063,387.943104267193,462.790210002852
0.93,1.16332358242659,0.00644569217451585,9.43666752247487,-0.293375118938774,-0.368187134299216,-1.10354045621988,-2.65817254962481,-9.05929807361285,2.82510527753126,393.211804021947,462.790210002852
0.94,1.16444155942798,-0.0715016313745869,7.73252472971207,3.58857802622906,0.554690987377288,1.02633061784919,7.13302875362159,4.6679472732616,-0.55681682457977,398.340005521018,462.790210002852
0.95,1.18508952934133,0.0752947194983353,5.08577359783527,-3.75310904993912,-0.871315042992367,-0.806794015343444,-0.785681402203747,-6.27165252253378,2.38121453296003,403.291342810448,462.790210002852
0.96,1.14924060337962,-0.00993140516264018,5.3075805417074,0.519282841786588,0.914009701348257,0.69673442796099,4.55992085895193,2.76535488438285,-0.928121572654592,408.079284390724,462.790210002852
0.97,1.13896438293778,0.0459214727989976,4.28777803414052,-2.26586631345673,-1.01655224001585,-0.515722978529772,-2.63685451521817,-4.07015833673451,2.08058402419232,412.738879645085,462.790210002852
