t,iq,id,vq,vd,ia,ib,va,vb,theta_e,omega,r
0,0,0,0,0,0,0,0,0,0,0,0
0.01,0.000737189664979251,0.000421242712667521,-0.0364001062155308,-0.021086225518273,0.000669303907955155,-0.000522423490976113,-0.033007100421721,0.0260792630428817,-1.71442553248488,-0.00146784209117432,0
0.02,0.000820805021116571,0.000468827908224737,-0.0405855743695931,-0.0234682134657271,0.000745240689610772,-0.000581495317925276,-0.0368082013804335,0.0290362222287983,-1.71443661067995,-0.00158912487997984,0
0.03,0.000853942738762482,0.000487751720806487,-0.0422264273399181,-0.024415478022157,0.000775321322032964,-0.000604976685365572,-0.0382962119315747,0.0302090530244781,-1.71444806733056,-0.0016057277102564,0
0.04,0.000834977515257673,0.000477112760476084,-0.041305369660322,-0.0238829240174273,0.000758068078837081,-0.000591740504818831,-0.0374605602145249,0.0295505338498648,-1.71445891539734,-0.0015187301541144,0
0.05,0.000854172897892282,0.000488150007085914,-0.0422601613782461,-0.0244354216976672,0.000775478985957312,-0.000605420606892675,-0.0383260888654529,0.0302344503097978,-1.71446971635341,-0.00150980515697514,0
0.06,0.000854902832407856,0.000488684607579133,-0.0423069540395261,-0.0244621833077355,0.000776118467637669,-0.000606062391784462,-0.0383682486504141,0.0302680403690728,-1.71448025696212,-0.00146436209703385,0
0.07,0.000877010359609347,0.000501498508060341,-0.0434041523485483,-0.0251036051749157,0.000796157079619587,-0.000621917863564373,-0.0393619817535893,0.0310603577942069,-1.71449035292062,-0.00146451780399708,0
0.08,0.000855603556681056,0.000489329555629346,-0.0423621590964344,-0.0244944565533783,0.000776707439271233,-0.00060681662304061,-0.0384176551849972,0.0303086571006307,-1.71450033195492,-0.00137640749164517,0
0.09,0.000854315293765374,0.000488735514049482,-0.0423087201093452,-0.0244647276075032,0.00077551173595064,-0.000606051624251147,-0.0383687352000706,0.0302719482912334,-1.71450988900368,-0.00133122628849035,0
0.1,0.000854044920879376,0.000488704598032625,-0.0423049920321211,-0.0244631856745263,0.000775242977612927,-0.000605989469116363,-0.0383649866351651,0.030270242890796,-1.71451913097982,-0.00128952460736675,0
0.11,0.00085383264039948,0.000488701140397099,-0.0423038084743044,-0.0244629969726128,0.00077502796267971,-0.000605962572690353,-0.0383635716385645,0.0302702296563046,-1.71452807279225,-0.0012492773685032,0
0.12,0.000853629206549711,0.000488699081665287,-0.0423027583133668,-0.0244629130443455,0.00077482167913325,-0.00060593809934705,-0.0383622824420883,0.030270328068387,-1.71453672441691,-0.00121034129561279,0
0.13,0.000893851678448657,0.000511801019782446,-0.0442889782027568,-0.0256193299550686,0.000811314584776481,-0.00063457052519385,-0.0401620920120795,0.0316996849007085,-1.71454538897332,-0.00125383217371725,0
0.14,0.000932283939742443,0.000534150773240321,-0.0462544857743193,-0.0267380914573267,0.000846143193463846,-0.00066220245318915,-0.0419467819170546,0.0330888270543115,-1.71455377746368,-0.00129489939454562,0
0.15,0.000857009128812771,0.000490904447639487,-0.0424950148025945,-0.0245732933537542,0.000777835475369079,-0.000608624512189588,-0.0385359772874483,0.0304080825410557,-1.71456196140927,-0.00110486919402595,0
0.16,0.000853058843239214,0.00048879909000831,-0.042308654281375,-0.0244679117146657,0.000774222991949326,-0.000605980774578379,-0.0383664082683836,0.0302773784757084,-1.71456953170858,-0.00106310223907776,0
0.17,0.000852697778805862,0.000488695078052412,-0.0422984606085333,-0.0244627092880839,0.000773876128613967,-0.000605831757878838,-0.0383568439710416,0.0302710494721626,-1.7145768388513,-0.00102983038172674,0
0.18,0.000852522226190744,0.000488688472786755,-0.0422971393916746,-0.0244623781706666,0.000773699051397164,-0.000605805536002273,-0.0383553698442092,0.0302708036001258,-1.71458390798769,-0.000997996983166052,0
0.19,0.000852361283900817,0.000488686655877906,-0.0422962984663048,-0.024462285688197,0.000773535886953979,-0.00060578596675765,-0.0383543438066476,0.030270853906079,-1.71459074767545,-0.000967214651130106,0
0.2,0.000852205987761426,0.000488685120313242,-0.0422955048236063,-0.0244622048634689,0.000773378404825931,-0.000605767311218502,-0.0383533696131484,0.0302709139997994,-1.71459736540285,-0.000937432157732113,0
0.21,0.000852055872100779,0.000488683645286447,-0.042294743099371,-0.024462124055347,0.000773226171393919,-0.000605749289907443,-0.0383524335079902,0.0302709704363135,-1.71460376837496,-0.0009086161965625,0
0.22,0.000851910296161501,0.000488682218543147,-0.0422939886963684,-0.024462063574463,0.000773078550023257,-0.000605731804448278,-0.0383515080259702,0.0302710400598253,-1.71460996356079,-0.000880735358995225,0
0.23,0.000851769726551861,0.000488680838022927,-0.0422932720897005,-0.0244619827937514,0.000772935998692063,-0.000605714925065353,-0.0383506289459434,0.0302710872897852,-1.71461595770317,-0.000853759296706254,0
0.24,0.000851633580249617,0.000488679502207327,-0.0422925709543219,-0.024461922331464,0.000772797936639629,-0.000605698571908431,-0.0383497681543392,0.0302711493766814,-1.71462175732671,-0.000827658648282358,0
0.25,0.000851501799520213,0.000488678209651065,-0.042291889161308,-0.024461861876275,0.000772664303090048,-0.000605682740305766,-0.0383489322021599,0.030271207016577,-1.71462736874388,-0.000802405005233126,0
0.26,0.000860047674022597,0.000493629553077372,-0.0427175547239224,-0.0247097155612711,0.000780408933182839,-0.000611812090654858,-0.0387345113582686,0.0305777231746641,-1.71463275748498,-0.000795848499146572,0
0.27,0.000832811266988459,0.00047804735964047,-0.0413842239705807,-0.0239297144622136,0.000755684161826025,-0.000592490786466292,-0.0375265960172421,0.0296148580825398,-1.71463814423447,-0.000716290649677533,0
0.28,0.000830551610708913,0.000476755343278852,-0.0412148031029251,-0.0238650382190516,0.00075363003900449,-0.000590892037267551,-0.037368045584142,0.0295267541939707,-1.71464323605755,-0.000689008522261495,0
0.29,0.000849982432358828,0.000488093635748549,-0.0422385599701786,-0.0244325971192057,0.000771231901944358,-0.000604902377247895,-0.038299722912945,0.0302353927564275,-1.71464805506301,-0.000707198528953976,0
0.3,0.000844699669857171,0.000485195783313831,-0.0419833106360489,-0.0242875470726152,0.000766416545882479,-0.000601280432576935,-0.0380677746947913,0.0300554128994111,-1.71465235120145,-0.00067729117361173,0
0.31,0.000850495444220843,0.000488502274276508,-0.0422729572002177,-0.024453051872074,0.000771675654769497,-0.000605387195478892,-0.0383305636513935,0.030260907892465,-1.7146569409861,-0.000668680746469304,0
0.32,0.000850687308559331,0.000488662139818294,-0.0422869993264589,-0.0244610458910261,0.000771839912188574,-0.000605576364951974,-0.038343179402526,0.0302710038060274,-1.71466140919221,-0.000649177241016379,0
0.33,0.000850600638809721,0.000488668969924942,-0.0422872000359212,-0.0244613985775022,0.000771750539727399,-0.000605574036218098,-0.0383431965626845,0.0302715474431153,-1.71466573377327,-0.000629745287208247,0
0.34,0.000850503083727496,0.000488668386314415,-0.0422867201077773,-0.024461375894752,0.000771651542340873,-0.000605562700647972,-0.0383425981794461,0.030271616623289,-1.71466991808401,-0.000610915723572579,0
0.35,0.000850408264851205,0.000488667471741052,-0.0422862340297894,-0.0244613183866413,0.000771555382674558,-0.000605551324274785,-0.0383420028137141,0.0302716452454751,-1.71467396661131,-0.000592695790498148,0
0.36,0.000850316297678977,0.000488666569784675,-0.0422857516253004,-0.024461278243908,0.000771462123097545,-0.000605540267157711,-0.0383414125711006,0.0302716865386641,-1.71467788375746,-0.000575067050572765,0
0.37,0.000850227299092507,0.000488665696228899,-0.0422852833116186,-0.0244612351889865,0.000771371874429101,-0.000605529565036051,-0.0383408405395757,0.0302717220923024,-1.71468167378666,-0.000558010386320809,0
0.38,0.000850141152684779,0.00048866485094277,-0.0422848275235277,-0.0244611950424013,0.000771284518977284,-0.000605519204337157,-0.0383402842106448,0.0302717576008376,-1.71468534082338,-0.000541507236424215,0
0.39,0.000850057916659327,0.000488664033049623,-0.042284391494331,-0.0244611548933763,0.00077120011204425,-0.000605509195681168,-0.0383397510393813,0.0302717913741797,-1.7146888888592,-0.000525539638680839,0
0.4,0.000849977358185508,0.000488663241664425,-0.0422839675871024,-0.0244611147424504,0.000771118420986104,-0.00060549950784282,-0.0383392333507944,0.0302718224661778,-1.71469232175575,-0.000510090213624745,0
0.41,0.000849899477263322,0.00048866247592919,-0.0422835597837898,-0.0244610745890449,0.000771039443655824,-0.000605490142909554,-0.0383387349726372,0.0302718515908431,-1.71469564324966,-0.000495142145772119,0
0.42,0.000849824041062126,0.000488661735013834,-0.0422831602654677,-0.0244610344336531,0.000770962947552209,-0.000605481069510437,-0.0383382480572776,0.0302718777663071,-1.71469885695616,-0.000480679165326521,0
0.43,0.00084975116599724,0.000488661018114448,-0.0422827785617907,-0.0244609942756041,0.000770889045878378,-0.0006054723062891,-0.0383377819300853,0.0302719024928693,-1.71470196637269,-0.000466685530469966,0
0.44,0.000849680385944677,0.000488660324453755,-0.042282394893411,-0.0244609743732045,0.00077081727538435,-0.000605463788284148,-0.0383373140083965,0.0302719431128978,-1.71470497488411,-0.000453146010231196,0
0.45,0.00084961216749151,0.000488659653279286,-0.042282036093633,-0.0244609342088655,0.000770748095953933,-0.000605455584230619,-0.0383368765596893,0.0302719635015781,-1.71470788576459,-0.000440045867906162,0
0.46,0.000849546160928688,0.00048865900386254,-0.04228168804467,-0.0244608940422326,0.000770681159673535,-0.000605447645737316,-0.0383364526107528,0.0302719818062119,-1.7147107021828,-0.000427370845018031,0
0.47,0.000849482016548503,0.000488658375499106,-0.0422813364693993,-0.0244608741265504,0.000770616118691048,-0.000605439924351113,-0.0383360250345365,0.0302720161407344,-1.7147134272037,-0.000415107145799326,0
0.48,0.000849420317351432,0.000488657767507383,-0.0422810136465424,-0.0244608339532741,0.000770553548276995,-0.000605432505331882,-0.0383356314959758,0.0302720311587033,-1.71471606379353,-0.000403241422176367,0
0.49,0.000849360363922252,0.000488657179227122,-0.0422806876543156,-0.0244608140280247,0.00077049275459989,-0.000605425289958573,-0.0383352345070315,0.0302720624788981,-1.71471861482179,-0.000391760759241052,0
0.5,0.000849302448217167,0.000488656610020116,-0.0422803760257056,-0.024460770938937,0.000770434025003645,-0.000605418321642737,-0.0383348575616958,0.0302720697595441,-1.71472108306555,-0.000380652661192248,0
0.51,4.56201827203161,-0.0113749131232232,7.62447791166175,0.574188868829662,-0.388456638112397,4.54546384248134,-0.0580562037968355,7.64584761551697,0.0827597508820777,25.4438945195881,795.593236884596
0.52,4.45536958056319,0.0150905026328467,6.17847903470983,-0.745544184064373,-1.60709732169652,4.15545232450974,-2.94257112191117,5.48367709709785,0.372414067260637,53.4540508109015,795.593236884596
0.53,4.3161738383383,0.0320359409916154,6.43452757325333,-1.58869355818468,-3.26557617824309,2.82248031496456,-5.92918156505054,2.96173906369885,0.865473393376044,81.0630806394316,795.593236884596
0.54,4.14991597547603,0.0392125350171022,7.84516841974418,-1.94316445786994,-4.14942785377981,0.0747576931824146,-7.8615250204358,-1.87589445266577,1.56223060363352,109.237841781328,795.593236884596
0.55,4.0216987102812,-0.0439137755703407,7.00562701737998,2.21794916434658,-2.46846527777412,-3.17532173305098,-6.09594233533986,-4.10336391835787,2.46987199271663,138.097275526741,795.593236884596
0.56,3.91364129637967,0.0332209812057924,6.05004919053635,-1.63859496639001,1.62309715562795,-3.56135472169132,4.04089577532947,-4.7915811591491,-2.70547675547832,163.621062104849,795.593236884596
0.57,3.78851609382932,0.0660045182526688,6.41732098874566,-3.27353534464369,3.75434180412078,0.511984772688268,5.84364289941467,4.21306064392,-1.41784051147078,187.746699351041,795.593236884596
0.58,3.67530163882544,-0.0153767891652743,5.68566526238442,0.796894641676311,-0.206107218082549,3.66955016271099,0.500729957467376,5.71936185736766,0.0519241448344161,213.378332930241,795.593236884596
0.59,3.48777385381214,0.00945293468210995,9.36091685407777,-0.439959931346145,-3.4593132195006,-0.444755958586395,-9.2239419154953,-1.65506030999361,1.70137288094679,236.193504269672,795.593236884596
0.6,3.4540781852909,0.0127370426823679,5.34427766895734,-0.606896923301359,1.25120113938708,-3.21952077973652,2.51911290493786,-4.75223082884284,-2.76723907260773,259.390495470658,795.593236884596
0.61,3.29218100911626,0.0204643155113142,7.91023562566193,-0.987447548522697,2.33785359776363,2.31804122923186,4.88280533336117,6.30119769496834,-0.783437511733756,281.191644241387,795.593236884596
0.62,3.17690750342962,0.0314065957736533,8.25799052667765,-1.54017701409118,-3.0973647591259,0.707148646700604,-8.39656341784816,0.253526218538954,1.35622248456262,303.044148986696,795.593236884596
0.63,3.08528096787957,0.067322266357548,7.77501847408567,-3.32770143585559,1.45023798998349,-2.72402289100442,6.70517546626012,-5.15413727846204,-2.63055434432796,323.139531025242,795.593236884596
0.64,2.98546879778384,0.00735794493756814,7.55467499195966,-0.332296810289993,0.557551052835211,2.93295327364364,1.06597025618381,7.48647065159552,-0.185392772278619,343.736856103406,795.593236884596
0.65,2.93520641156401,-0.0110434678037707,5.30463010848755,0.59050214353824,-1.96707664036568,-2.17857020258592,-4.00653526128139,-3.52639597457585,2.40340372006464,362.974064014136,795.593236884596
0.66,2.82720805112715,0.0276287557031528,5.99087124028098,-1.33694305131186,2.59140654678612,1.1306992623036,4.9206563384824,3.66948172616104,-1.14959916680475,381.419778025786,795.593236884596
0.67,2.6885855858191,0.0266745383914389,8.23583572424281,-1.29534087148068,-2.66436465806955,-0.361060870356489,-7.96319127585825,-2.46870062059729,1.71541169217704,399.843770011519,795.593236884596
0.68,2.59756084716297,-0.0185350089259332,8.3170739466618,0.962845486341777,2.59759318496476,0.0132494035543008,8.31509751166574,-0.979767235775651,-1.57283114752021,417.543546762693,795.593236884596
0.69,2.52755344705853,0.0588909511878254,7.57630997531757,-2.91400617108828,-2.52562437201236,0.114961312477004,-7.63910458610479,-2.74517502716854,1.54860511869113,434.424373370515,795.593236884596
0.7,2.45851225650471,0.0738181941087367,6.88631305503607,-3.64639988348851,2.45648074435322,0.124233625831361,6.57059616901199,4.18865200106552,-1.4902490175842,450.606012379914,795.593236884596
0.71,2.37830355839409,0.0144156079677791,6.83198335538343,-0.67317397585836,-2.2750811771911,-0.693210835759085,-6.32304624185463,-2.67362039066454,1.87261810132426,466.427072209301,795.593236884596
0.72,2.30868919955542,0.0176685259156522,6.34636255742058,-0.837767999598093,1.86577904358815,1.35986269801739,4.60132483771989,4.45039129393838,-0.93331991228478,481.842402325486,795.593236884596
0.73,2.20628408280644,0.00823681770240869,7.62835404580633,-0.368146613401185,-1.03963154076401,-1.94600194210067,-3.24405825126035,-6.91400053800679,2.65466325210913,496.744633757721,795.593236884596
0.74,2.15936031965065,-0.0208307464359352,6.26293381349608,1.08599927827142,-0.164185226467256,2.15321018980701,0.667688201792042,6.32122827066278,0.0664576794465403,511.142663505005,795.593236884596
0.75,2.10004412636461,0.0822090090785242,5.64637383983646,-4.07278885779562,1.32830343778537,-1.62866621227915,6.79017806835469,-1.537084389163,-2.41829883039067,525.022750076745,795.593236884596
0.76,1.98128068093384,0.0270299161515858,8.09632710994354,-1.31160305665417,-1.9707318817581,0.205960198171883,-8.18172644257668,-0.574602182621023,1.48030665008857,538.469315997376,795.593236884596
0.77,1.94962871121176,0.0752751163422736,6.31247026791104,-3.72530201621955,1.46071799641847,1.29345328081874,1.98556644317349,7.05568436758999,-0.807464269973946,551.42568293305,795.593236884596
0.78,1.91053086733525,0.00877943605356268,5.02401532047359,-0.394553308869799,0.257285972940298,-1.8931479608489,1.09014344708923,-4.92016153379763,-3.00192117032555,563.895091023319,795.593236884596
0.79,1.79856450896853,0.0603570552642881,7.46721411873211,-2.97606338542732,-1.63768467883525,0.745966594258522,-8.03756404823109,0.117491019471244,1.17692327488459,575.971848560572,795.593236884596
0.8,1.72414603388913,0.0368225178790078,8.13083806527232,-1.79766988816458,1.30876833562448,1.123014197446,4.85660523130108,6.76428342825712,-0.840282400386029,587.681159363376,795.593236884596
0.81,1.67199735680005,0.0650754501345179,7.76580459440851,-3.22304855644146,0.541216120650315,-1.58331774641251,5.80267621174731,-6.08479348682744,-2.77331884644694,599.052900074828,795.593236884596
0.82,1.65629466337028,0.0323968002124926,5.62369671475502,-1.59664142829996,-1.65277710040614,-0.11264732995479,-5.4624284580543,-2.08257147074203,1.65840479098065,610.083767294888,795.593236884596
0.83,1.57203185058452,0.0299173399631812,7.02331785188364,-1.47065439024136,0.209059295051027,1.55835599194646,-0.659833793861798,7.14523878877407,-0.114328824411759,620.613745507967,795.593236884596
0.84,1.48922112415886,0.0074996978533928,8.46323802650368,-0.342601073947511,1.44468558342493,-0.361551334049593,8.30178213345511,-1.68053170091294,-1.81098655063652,630.734024258952,795.593236884596
0.85,1.46231224943367,-0.00354966178167027,7.21077797612472,0.218061854706385,-0.418745284380215,-1.40107890632607,-2.29040259059971,-6.84082787142152,2.84874228674554,640.492499357313,795.593236884596
0.86,1.40420691640337,0.00665890552580151,7.58831560087652,-0.292328613939118,-1.34971804482788,0.387430773898873,-7.38294395640621,1.77767494598942,1.29600823792107,650.012622928557,795.593236884596
0.87,1.38063781358339,-0.0200222114765567,6.27125859795035,1.02247305319122,0.238753431716245,1.35998472788942,2.17822923885511,5.96904120691632,-0.188286190004005,659.254223155429,795.593236884596
0.88,1.33962480428583,0.013518916829605,5.9347303288446,-0.648408991032064,1.33827299834466,-0.0616665166171943,5.95420333143622,0.43465041547548,-1.60675170386021,668.032276293757,795.593236884596
0.89,1.26553527566736,0.03074231756151,7.35846256576212,-1.50124433627397,0.196138336909016,-1.2506215961841,2.79334505428001,-6.97122150678391,-2.9617399967548,676.476072351205,795.593236884596
0.9,1.19728842222902,-0.0525606242880825,8.53686713071623,2.64681494192265,-1.05120140117118,-0.575532622363806,-8.82867480358983,-1.39220363336196,2.02784647020599,684.764118204522,795.593236884596
0.91,1.18071947677278,-0.0175514897564422,7.1630457613764,0.898688607935475,-0.853933564815665,0.815600395110539,-4.47555456404254,5.66447500990899,0.793490545754767,692.730665387751,795.593236884596
0.92,1.15575923660453,-0.011646408769636,6.32342053699315,0.616820097495111,0.421832425728368,1.07609128629407,2.93900344896018,5.63279442615659,-0.383671102558648,700.323175731399,795.593236884596
0.93,1.07387741952062,0.0571674680308491,8.38794197294717,-2.84459777511117,1.07532136670137,0.0128370507834103,8.18504805745139,3.38441949836415,-1.50567459149391,707.774232156799,795.593236884596
0.94,1.1047520037134,0.0253885004101945,4.83067411545966,-1.25171940326178,0.572321354865273,-0.945288227170438,3.65175197331395,-3.40101770058194,-2.57420093591272,714.952940186779,795.593236884596
0.95,0.984724163528438,0.0103966418653648,8.92659079256707,-0.488798355615142,-0.437319627887268,-0.882349880412187,-3.43922669644553,-8.25194926916372,2.69200417621196,721.788411398387,795.593236884596
0.96,1.02373235259481,-0.00867172429983248,5.1092591597904,0.44461282926149,-1.01030070440836,-0.165516208341081,-5.11702230461988,-0.343936714918072,1.72471194169606,728.524619706425,795.593236884596
0.97,0.999973463494312,-0.0385457105224664,4.48823297828779,1.95295874217122,-0.747690330957888,0.665125453192536,-1.88274096036686,4.51813784563618,0.805244057708638,734.872377622896,795.593236884596
