t,iq,id,vq,vd,ia,ib,va,vb,theta_e,omega,r
0,0,0,0,0,0,0,0,0,0,0,0
0.01,0.0010020617221477,0.000563852974175804,-0.04964424111873,-0.0282240998475338,-0.000250487402152797,0.00112219157582084,0.012194254924309,-0.0557893415922712,0.732148558266894,-0.00217241836539681,0
0.02,0.00111718539230977,0.000628485075798459,-0.0554238631118691,-0.0314593138053835,-0.000279354501261565,0.00125102268321427,0.0136505985329509,-0.0622507364377402,0.732132530489717,-0.00224722395869567,0
0.03,0.00116165985132794,0.000654254879182725,-0.0576520507047424,-0.0327492433901897,-0.000289896930337589,0.00130133117495221,0.0141796385161364,-0.064770438817749,0.732116748227624,-0.00216154229079987,0
0.04,0.00113347639886965,0.000639871349278324,-0.0562898855887032,-0.0320292628811892,-0.000281737848419085,0.00127075877930863,0.0138037080546326,-0.0632762399660733,0.732102669283941,-0.001928143881007,0
0.05,0.00115844159685588,0.000654838222547553,-0.0575498659682483,-0.0327784266065319,-0.000287276242008716,0.00129933536541287,0.0140878555365453,-0.0647143311032771,0.732089355272566,-0.00182682364012875,0
0.06,0.00115799871272967,0.00065561265759347,-0.057553459910684,-0.0328171853339304,-0.000286388206204611,0.00129952713354791,0.0140606331406316,-0.0647430845466666,0.732077049194762,-0.00167877374660428,0
0.07,0.00118611837377147,0.000672617134108408,-0.0589645351637351,-0.0336683584467692,-0.000292521342830531,0.00133181149930578,0.0143699901508889,-0.0663617220288838,0.732065956369368,-0.00161128779190497,0
0.08,0.00115631234412353,0.000656530352044783,-0.0575147403645608,-0.0328631390571201,-0.000284550458998577,0.00129889236529137,0.0139991777741792,-0.0647453032237658,0.732055506408783,-0.00141749328703733,0
0.09,0.00115319589487546,0.000655690645318163,-0.0573803354907738,-0.0328211073696118,-0.000283079816926862,0.00129601574510652,0.0139399973857632,-0.0646173696685826,0.732046105896706,-0.00129797316780587,0
0.1,0.00115172069379967,0.000655644190998799,-0.0573252550503826,-0.0328187655245931,-0.000282117245420608,0.00129488984919689,0.0139043698152776,-0.0645749544110535,0.732037525523649,-0.00119204757079454,0
0.11,0.00115045100341912,0.000655639232057319,-0.0572787850471462,-0.0328185173476842,-0.000281262146811976,0.00129394432594741,0.0138729885593065,-0.0645403322412488,0.732029686577315,-0.00109545531533672,0
0.12,0.00114929508712602,0.000655636649659383,-0.0572365300139173,-0.0328184043105784,-0.000280482214414142,0.00129308481588252,0.013844368176312,-0.0645089257337724,0.732022524583244,-0.00100721479364233,0
0.13,0.00120308399246849,0.000686525757429755,-0.0599063039004307,-0.0343645661690744,-0.000293447879030594,0.00135374187009225,0.0144782353356222,-0.0675282856036327,0.732015541468337,-0.00104820526745946,0
0.14,0.00125208119972881,0.000715653961782726,-0.06240539651099,-0.0358226008529163,-0.000304520744508575,0.00140965777403368,0.0150635764265545,-0.0703617858699066,0.732009148914824,-0.00108516804192147,0
0.15,0.00115214942077402,0.000658751704584343,-0.057417363058156,-0.0329743372257374,-0.000280047873290266,0.00129729537297729,0.0138479954014703,-0.064747922896334,0.732003211637576,-0.000783078162947553,0
0.16,0.00114572743334339,0.000655790658205199,-0.0571104743061839,-0.0328260973682082,-0.000277951870371907,0.00129054077683024,0.0137528331002349,-0.0644206374201735,0.731998304646418,-0.000709596694926107,0
0.17,0.00114468823007348,0.000655635207495173,-0.0570683744021031,-0.0328183363522842,-0.000277367197775955,0.00128966511427343,0.013730181520131,-0.0643841958344944,0.73199385083947,-0.000653982280514911,0
0.18,0.00114401395979418,0.000655625799344877,-0.0570434904884794,-0.0328178547018117,-0.000276918300992154,0.0012891584012627,0.0137136467195545,-0.0643654199705845,0.731989783312454,-0.000603825874865987,0
0.19,0.00114341330062902,0.000655624100755651,-0.0570215129599968,-0.0328177814466204,-0.000276513324210746,0.00128871149567346,0.0136987733730212,-0.0643490740213084,0.731986067128708,-0.000558037972339159,0
0.2,0.00114286537762157,0.000655622907294763,-0.0570014744540267,-0.0328177255680391,-0.000276143634422969,0.00128830406391636,0.0136852038052495,-0.0643341775279747,0.731982671858043,-0.000516206165701983,0
0.21,0.00114236495206426,0.000655621835312985,-0.0569831738494695,-0.0328176696119657,-0.000275805979258396,0.00128793196111024,0.0136728147696183,-0.0643205696258569,0.731979569783369,-0.000477986828972797,0
0.22,0.00114190771659342,0.000655620856671829,-0.0569664507824064,-0.0328176164937008,-0.000275497467601298,0.00128759197196316,0.0136614952675114,-0.0643081333435182,0.731976735585694,-0.00044306789665205,0
0.23,0.00114149006232766,0.000655619962424111,-0.0569511750778843,-0.0328175603968103,-0.000275215663824946,0.0012872814128648,0.0136511611171611,-0.0642967682959527,0.731974146132944,-0.000411164358726464,0
0.24,0.00114110818382041,0.000655619145262084,-0.0569372023975902,-0.0328175343524613,-0.000274958002383997,0.00128699745444236,0.0136416899059465,-0.06428638949536,0.731971780290048,-0.00038201582308072,0
0.25,0.00114075968025746,0.000655618398549111,-0.0569244546205472,-0.0328174810334987,-0.000274722858438451,0.00128673831203886,0.0136330708110092,-0.0642769007925304,0.731969618747503,-0.000355384383877221,0
0.26,0.00115224894392005,0.000662248497176484,-0.057495584506637,-0.0331493619671456,-0.000277467194979377,0.00129971637540183,0.0137677803019057,-0.0649235755496194,0.731967702295834,-0.000359064260692964,0
0.27,0.00111593647619892,0.000641660429849953,-0.0557071174415259,-0.0321188166798202,-0.000268510441770191,0.00125894577675405,0.0133389416672222,-0.0629044827794832,0.731965693364979,-0.000251067188671176,0
0.28,0.00111333096662744,0.00064011787699184,-0.0555186897660681,-0.0320416052120741,-0.000267914460347499,0.00125597714136557,0.0132703400530441,-0.0627127375641018,0.731964037548453,-0.000225257470715381,0
0.29,0.00113813152741548,0.000654809924547043,-0.0568089966346772,-0.0327770219785856,-0.000273558853459407,0.00128424490058414,0.0135855569254192,-0.0641640702531381,0.731962683352045,-0.000266445288124277,0
0.3,0.00113036133788389,0.000650756199228074,-0.0564268380099238,-0.0325740940199452,-0.000271380336715954,0.00127575589273981,0.0134810553753041,-0.0637441824403325,0.731961993687794,-0.000240231868444086,0
0.31,0.00113880312422065,0.000655362580472303,-0.0568461841208827,-0.0328046921280797,-0.000273594084996967,0.00128511437011369,0.013589701906829,-0.0642102521160517,0.731960725204163,-0.000244604289946454,0
0.32,0.00113910077642533,0.000655601763611339,-0.0568633525023192,-0.0328166599393361,-0.000273613546714482,0.00128549596590476,0.0135921962559364,-0.0642310378891479,0.7319595210421,-0.000230906188180336,0
0.33,0.00113895091440959,0.000655613843857718,-0.0568582189055009,-0.032817256101681,-0.000273502986098263,0.0012853928637921,0.0135882510346226,-0.0642276325966422,0.731958418292007,-0.000217384408751461,0
0.34,0.00113878979564375,0.000655614143568412,-0.0568523326372612,-0.0328172886883035,-0.000273393787885708,0.00128527348866099,0.0135842281224574,-0.0642232894631401,0.7319574106227,-0.00020497302656318,0
0.35,0.00113864144626915,0.000655613858930709,-0.0568468967714021,-0.0328172620771788,-0.000273293670530846,0.00128516319774249,0.0135805558577016,-0.0642192406166293,0.731956489961494,-0.000193630160692987,0
0.36,0.00113850590257968,0.000655613569810223,-0.0568419285240643,-0.0328172354333952,-0.000273202217246826,0.00128506240767501,0.0135772012514339,-0.0642155385090228,0.731955648802837,-0.000183266612813677,0
0.37,0.00113838180384685,0.000655613304131642,-0.0568373747340288,-0.0328172359003102,-0.000273118488982843,0.00128497012683554,0.0135741081409846,-0.0642121618306835,0.731954880281651,-0.000173797989564663,0
0.38,0.0011382687283142,0.000655613061304468,-0.0568332279243592,-0.0328172091953738,-0.000273042196208707,0.00128488604284604,0.0135713115042417,-0.0642090688277748,0.731954178125419,-0.000165147020452187,0
0.39,0.00113816511867797,0.000655612839432253,-0.0568294226969475,-0.0328172096009118,-0.00027297229215467,0.00128480899760217,0.0135687268859097,-0.0642062472097077,0.73195353660349,-0.000157243098229784,0
0.4,0.00113807035660619,0.000655612636710844,-0.0568259394930411,-0.0328172099786693,-0.000272908358162019,0.00128473853139306,0.0135663610645341,-0.0642036643620715,0.731952950479552,-0.000150021712343419,0
0.41,0.00113798417301258,0.000655612451487885,-0.0568227752496632,-0.0328171831988501,-0.000272850209454199,0.00128467444427523,0.0135642318661403,-0.0642012999405947,0.731952414969691,-0.000143423922963874,0
0.42,0.00113790512700554,0.000655612282253959,-0.0568198674324291,-0.0328171806187786,-0.000272796878538928,0.00128461566461224,0.0135622590130426,-0.0641991418109892,0.731951925703533,-0.000137395879955883,0
0.43,0.00113783294950615,0.000655612127628949,-0.0568172112573839,-0.0328171809273687,-0.000272748181465627,0.00128456199242513,0.0135604549037614,-0.0641971722265779,0.731951478687706,-0.000131888383367014,0
0.44,0.00113776737142418,0.0006556119863528,-0.0568148011908119,-0.032817154089564,-0.000272703934632083,0.00128451322771046,0.0135588379474885,-0.0641953670478128,0.731951070273456,-0.000126856481862032,0
0.45,0.0011377070682876,0.000655611857272736,-0.0568125782491613,-0.0328171543620356,-0.000272663249428758,0.00128446838537938,0.0135573281498019,-0.0641937187050052,0.731950697127405,-0.000122259105841743,0
0.46,0.00113765188742516,0.000655611739336101,-0.0568105414155898,-0.0328171546181756,-0.000272626020684444,0.00128442735199898,0.0135559448140161,-0.0641922083540132,0.731950356204157,-0.000118058732235059,0
0.47,0.00113760159600624,0.000655611631581629,-0.0568086850992751,-0.032817154858708,-0.00027259208992681,0.00128438995449607,0.0135546840242275,-0.0641908318744381,0.731950044721214,-0.000114221078242734,0
0.48,0.00113755561195421,0.000655611533129864,-0.0568069857318317,-0.0328171550855,-0.000272561065523533,0.00128435575999101,0.0135535298643373,-0.0641895717703336,0.731949760135963,-0.000110714821527732,0
0.49,0.00113751389901292,0.000655611443178453,-0.0568054465109216,-0.0328171281791306,-0.000272532920852356,0.00128432474161553,0.0135525044955337,-0.0641884123275315,0.731949500125895,-0.000107511344566766,0
0.5,0.00113747548195679,0.000655611360993457,-0.0568040233186649,-0.032817128382737,-0.000272507001965389,0.00128429617401764,0.0135515379465281,-0.0641873570086842,0.731949262568888,-0.000104584501077196,0
0.51,2.00333805078704,-0.0620523605307833,5.74109417844016,3.10749946279199,-0.145919491240454,1.99898007575233,2.86427216679048,5.86623049594212,0.0419031451404557,12.7665159054002,527.214921048913
0.52,2.03995670452931,-0.0266554506287217,2.40125579591452,1.33697342367929,-0.405798001897939,1.99936536207316,0.86678006455242,2.60810652633904,0.187177426094358,26.8327199864291,527.214921048913
0.53,2.0482392740716,-0.0254551148119894,0.487954513519541,1.27867567281328,-0.885516687135858,1.84710375548408,0.954344525045481,0.980988078940974,0.434611719017436,40.6728574587153,527.214921048913
0.54,1.91377451994919,0.0303225179459864,5.66447778599776,-1.51158113559923,-1.32937674158874,1.37702935597766,-5.06905640808991,2.94548013898654,0.783635668580223,54.5829392010049,527.214921048913
0.55,1.89365896425352,0.0127369899025148,5.03299629676485,-0.629190752576203,-1.78402858390979,0.635097248933033,-4.95977970566382,1.06184650381371,1.23552077372761,68.7937710154284,527.214921048913
0.56,1.85839762092205,-0.0546379092272744,4.9960713204165,2.7404168479927,-1.80029346945316,-0.464295641178961,-5.47843339752855,1.56760347291474,1.79380424770354,83.6102439634147,527.214921048913
0.57,1.8653452351424,0.0181612262662059,2.88942762238935,-0.904902653662167,-1.18950775292291,-1.43698085656846,-1.11805916788984,-2.81382026695539,2.45987498696303,97.8738441011635,527.214921048913
0.58,1.80486810121743,0.0668930126923279,4.38682252891095,-3.34117409741906,0.084484587472488,-1.80413023155727,3.69679799019125,-4.09161836797406,-3.05775281499713,110.815648340235,527.214921048913
0.59,1.71607589622527,0.0571653093212748,7.39885686281063,-2.84921091221181,1.3537376562765,-1.05620959670615,7.65859318835885,-2.05110606109246,-2.20005840546086,123.227585566445,527.214921048913
0.6,1.69903183822989,-0.00710893915076732,6.6856462014931,0.371031315325565,1.60999472978392,0.542841316042454,6.46118548039499,1.75744460977419,-1.24978118181798,136.255995129235,527.214921048913
0.61,1.7233674592453,0.00769547247496333,3.79319273701281,-0.379035919575812,0.352809853318795,1.68688465144579,0.388601359220579,3.79222472330785,-0.201711440562952,149.408117479892,527.214921048913
0.62,1.68892935970403,-0.0188743600652673,4.11087782720114,0.958815230895487,-1.37196888078028,0.985159892458396,-2.74426624928781,3.20743603368655,0.936875351101758,161.135046158254,527.214921048913
0.63,1.65684664309678,0.0227312645327195,4.24246539651071,-1.11880752997579,-1.38861155788242,-0.904110308780789,-2.89994757549328,-3.29249859363857,2.16165575666842,173.220947567687,527.214921048913
0.64,1.58871026588571,-0.0402793170367179,6.05830187803436,2.02418922983456,0.56187215593055,-1.4865807790704,0.0866169261939,-6.38692893272421,-2.80557507838956,185.478746012893,527.214921048913
0.65,1.55980834065481,-0.0244849754765007,6.14984181180044,1.24511933982018,1.53450231034453,0.280898973205111,6.27090757063119,-0.215858104234195,-1.40544157304439,196.546558245847,527.214921048913
0.66,1.53657713280133,-0.0177925736454025,5.7715183888616,0.896121704989354,-0.138197424161513,1.53045330953937,0.440906946090248,5.82400718474917,0.0784752906465145,208.433193776681,527.214921048913
0.67,1.54875877893669,-0.0374602709960552,3.78961532410439,1.89350865086609,-1.54150420188455,-0.154343198129463,-3.92181976699133,1.60183926497874,1.64640622729201,219.182565214723,527.214921048913
0.68,1.44647705736607,-0.047027738765024,7.46693842185351,2.35922599826529,0.264846018457901,-1.4228014872802,-1.20499600098259,-7.73751260705009,-2.99005539886173,230.332667646642,527.214921048913
0.69,1.38670259245391,-0.0460277717458055,9.08372409514879,2.32163676717968,1.30739679046366,0.464517241849646,9.35995942453804,0.543323371951474,-1.26258836076684,240.756621390703,527.214921048913
0.7,1.43112570265029,0.00951924046327723,5.4694352031554,-0.471358514630475,-0.727957885341076,1.23218858536144,-3.21751083543446,4.44797980151574,0.540267298541908,251.424868230863,527.214921048913
0.71,1.40745157743379,0.00903636541224195,5.3325935542592,-0.430722711319627,-0.936246248245776,-1.05092557365707,-3.19812619557299,-4.28883024916621,2.42026065620249,261.353523783749,527.214921048913
0.72,1.33307105328918,-0.0166785587970594,7.65598692051368,0.84026207562384,1.2628405411643,-0.427305950149234,6.94155557111908,-3.3369120959165,-1.90958274130951,271.664415814817,527.214921048913
0.73,1.33461587996286,-0.00314298786661338,6.30859225457132,0.183853130370516,-0.158629393698592,1.32515891155611,-0.552468661421643,6.28704354892912,0.116784059426212,281.198452907585,527.214921048913
0.74,1.24414784787607,0.0364177261972904,9.47419153987376,-1.81203641847716,-1.01696388721859,-0.717645156222268,-6.49009252199685,-7.13599890499036,2.21458318728768,290.973146069975,527.214921048913
0.75,1.22845670680408,-0.0590490487205508,8.98750343223527,2.96195984154177,1.18087031964467,-0.343712028926854,7.53548265351483,-5.724065445636,-1.90206811781866,300.371006841173,527.214921048913
0.76,1.26331301162558,0.0428296195406382,5.97714500311229,-2.11944297088129,-0.373199090529968,1.20769059799275,-3.95979301618866,4.95361889571572,0.333599880056829,309.408175023629,527.214921048913
0.77,1.22286512585127,0.0756054755764353,6.70098873674946,-3.77593562621553,-0.658840535437321,-1.03297843773481,0.0548633572960111,-7.69141923934673,2.6355849149129,318.607738462992,527.214921048913
0.78,1.14512590303213,-0.0308924801997614,9.37093203742128,1.55276100516126,1.08845890930462,0.357106261333284,9.42359628143872,1.19216907927201,-1.2807481568819,327.343938480458,527.214921048913
0.79,1.1939201705552,-0.0160596614364067,5.71728628946688,0.831521104916239,-1.0965225816372,0.472590218205694,-4.88014349230178,3.0924083427309,1.15041270220912,335.811779507424,527.214921048913
0.8,1.06258658376704,-0.040129648329122,11.032961716658,2.02144059469569,0.546723888249138,-0.912027207211754,3.53971843567888,-10.6434420990223,-2.63931832316326,344.390679058276,527.214921048913
0.81,1.0453954404746,-0.00558129825581299,10.6917734668389,0.281002619483977,0.0832423367691445,1.04209092272436,1.18822360684139,10.6292571235483,-0.0850497404870967,352.685785289885,527.214921048913
0.82,1.05582194865219,0.0310914501143067,9.02166988860032,-1.52707132161186,-0.632572843432408,-0.845918591400944,-3.93844913834732,-8.25900071345307,2.5289440019186,360.571439824605,527.214921048913
0.83,1.00365249214502,0.0258795356025883,10.4678723127384,-1.26898477027176,0.898149471280194,0.448682072954808,8.64450486175326,6.03814613918056,-1.08171888927911,368.377314924728,527.214921048913
0.84,0.998492596070698,-0.00850225976103366,9.56036259420714,0.441416729142463,-0.994907145625729,-0.0849677845533826,-9.56608409634486,-0.292261395226768,1.64747743742264,376.119034475427,527.214921048913
0.85,1.00343470125672,-0.0237289259860156,8.16597096189198,1.19299076952805,0.970885733936646,-0.254607842088404,7.51788312502539,-3.40407726779236,-1.85090736584083,383.728675918415,527.214921048913
0.86,1.01576922914266,0.00495426501393359,6.44045180246771,-0.247837184803803,-0.845496163458423,0.562981268953053,-5.51447525022676,3.33637608862035,0.988230367794141,391.064288173186,527.214921048913
0.87,0.964139674290872,-0.00127738277589245,7.94548682984109,0.0884506621256437,0.650340585984737,-0.711775291415411,5.28630626443843,-5.9324152384478,-2.40259124529408,398.08350103392,527.214921048913
0.88,0.938453036491788,0.0421612279541134,8.16382597340847,-2.07983942268079,-0.44722364833991,0.826112994213744,-5.98762250340496,5.92639547321594,0.54108091260504,404.94009774446,527.214921048913
0.89,0.94231585511299,0.0204774485050054,6.90550459805565,-0.998472996000363,0.34226523270301,-0.878198728749567,3.56901851899024,-5.99541899191494,-2.7482386072934,411.71356996215,527.214921048913
0.9,0.950560777895709,0.0148116636326884,5.43437444299843,-0.721268843831795,-0.261839645768551,0.91390654760597,-2.26816537400721,4.99079955197078,0.294612169825323,418.398655750135,527.214921048913
0.91,0.909027407254028,-0.0592718213593511,6.4661994220443,2.97968006439817,0.277113615496115,-0.867785699382576,-1.32936426887786,-6.99449918810838,-2.89760520768885,424.910247964794,527.214921048913
0.92,0.855832205518966,-0.0229799000629762,8.1000503870071,1.15597551565141,-0.225966421474969,0.825782063365486,-0.804646814910641,8.14245903693065,0.240256243682011,431.269552502241,527.214921048913
0.93,0.776815942415427,0.00779255355594552,11.0502837026327,-0.390351056558259,0.208903028639909,-0.748240106454314,3.45302955683458,-10.5041768233238,-2.85930183227519,437.408963776021,527.214921048913
0.94,0.788085873691036,-0.0185475908560098,9.49420048316814,0.925557646767398,-0.301450477717248,0.728389296270867,-2.55990562585727,9.18930807834758,0.368865776643174,443.45045235491,527.214921048913
0.95,0.719341918844339,0.00233808368792815,11.9595124397177,-0.122834847763389,0.342250384218209,-0.632710784912408,5.83210903087106,-10.4418164343001,-2.64249161022515,449.310413853333,527.214921048913
0.96,0.825160601288904,-0.023747533174234,5.71312326709365,1.18440019348306,-0.532063954825345,0.631159180577246,-2.62796705299809,5.20925814792146,0.671641799349691,455.019332730049,527.214921048913
0.97,0.691165391489571,-0.0216927876615228,11.4743163454907,1.07876699473775,0.548839547584744,-0.420660583411892,8.20079394135279,-8.09757078121592,-2.25612097451352,460.545328825382,527.214921048913
