t,iq,id,vq,vd,ia,ib,va,vb,theta_e,omega,r
0,0,0,0,0,0,0,0,0,0,0,0
0.01,0.000822267292887606,0.000465976356434237,-0.0407584083413152,-0.0233209223969869,-0.000776462745064696,0.000538853478447561,0.0384676419762101,-0.026932393000879,1.47969063023836,-0.00108217643327079,0
0.02,0.000930458142257157,0.000526376562293727,-0.046167452721453,-0.0263437870791043,-0.000878704710146119,0.000608853572044893,0.043578984577546,-0.0304351919929346,1.47968242495194,-0.00116611955579959,0
0.03,0.000972538147030493,0.000550323501805125,-0.0482658878724345,-0.0275422831511372,-0.000918425960442209,0.000636537633808376,0.0455594005921016,-0.0318200300279596,1.47967405907158,-0.00115813685076249,0
0.04,0.000949654561903147,0.000537972093171094,-0.0471518137185329,-0.0269241253604167,-0.000896756415702781,0.000622162109799566,0.0445059570426139,-0.0311034057796195,1.47966629637004,-0.00106579891849782,0
0.05,0.000972250513196808,0.000551208807643056,-0.0482852770334582,-0.0275865834818137,-0.000918049219973181,0.000637407122443239,0.0455741911829815,-0.0318666073565094,1.47965877749799,-0.00103774638903732,0
0.06,0.000973222729591314,0.000552223836747031,-0.04834910369924,-0.0276373713347914,-0.000918920442710218,0.000638513012580039,0.045632901721895,-0.031923320680294,1.47965160524291,-0.000982760560112879,0
0.07,0.000995346813070046,0.000565401766645042,-0.0494573904680162,-0.0282969135209094,-0.000939748888812193,0.000653656226154299,0.046676339217504,-0.0326813118458874,1.47964492255024,-0.000960627257910997,0
0.08,0.000973511055639413,0.000553309839648434,-0.0483922559678772,-0.0276917338170096,-0.000919100313995971,0.000639632837584537,0.0456705062966248,-0.0319819857742231,1.47963845454841,-0.000879892308707897,0
0.09,0.000971001532671507,0.00055237717573833,-0.0482814514362412,-0.0276450622608496,-0.000916682266390513,0.00063848112204843,0.0455642180986749,-0.0319256957520545,1.47963243063121,-0.000829149045190686,0
0.1,0.000970109508198725,0.000552302991425338,-0.048249829535933,-0.027641345473004,-0.000915797078202328,0.000638331233601355,0.0455328847886925,-0.0319193739384751,1.47962675728451,-0.000783376656169949,0
0.11,0.00096938884910992,0.000552294977554161,-0.0482259634053183,-0.0276409345608836,-0.00091507672801147,0.000638262536000688,0.0455089844827606,-0.031917035280834,1.47962140890488,-0.000740390774585165,0
0.12,0.00096871891647124,0.000552292184552319,-0.0482039314336719,-0.0276408000331596,-0.000914406614175712,0.000638203368996511,0.045486895340792,-0.0319151246964679,1.47961636645369,-0.000699877122365149,0
0.13,0.0010126016024368,0.000577558222510542,-0.0503839679770856,-0.0289053031047693,-0.000955803137029823,0.000667364869386351,0.0475425728954882,-0.0333731110202774,1.47961140912523,-0.000721131679721778,0
0.14,0.00104729530348197,0.000598044596137892,-0.0521545610773206,-0.0299305895435699,-0.000988483992891302,0.00069092994396161,0.0492122863923548,-0.0345555972257819,1.47960670420176,-0.000731766321168347,0
0.15,0.000973353105006047,0.000555804974152646,-0.0484640921848608,-0.0278165947998167,-0.000918692616259836,0.000642136522203336,0.0457295143339195,-0.0321145246943454,1.47960222043947,-0.000595152929100356,0
0.16,0.000966846799559742,0.000552554336312524,-0.0481512009080644,-0.0276539128548246,-0.000912506841952575,0.000638310497944714,0.0454326116191731,-0.0319242047126062,1.47959825241669,-0.000555071839830915,0
0.17,0.000965865673292442,0.000552302700592059,-0.0481108765800348,-0.027641338380268,-0.000911550336591998,0.000637973946007953,0.0453934813481517,-0.0319081789490849,1.47959453247642,-0.000524516244522497,0
0.18,0.0009653609022356,0.000552281829957429,-0.0480936269247524,-0.027640284397322,-0.000911047328000444,0.00063791038352539,0.0453762875303598,-0.0319057173920949,1.4795910270132,-0.000496297915744854,0
0.19,0.000964919198372955,0.000552278795397836,-0.0480790532725572,-0.0276401409437526,-0.000910605628334215,0.000637870141079546,0.0453616820779952,-0.031904397095554,1.47958772217759,-0.000469741547954445,0
0.2,0.000964505814289617,0.000552277214196335,-0.0480654637239489,-0.0276400443252353,-0.000910192119186139,0.000637833750510575,0.0453480584120742,-0.0319032044088729,1.47958460636593,-0.00044470793065535,0
0.21,0.000964116148149514,0.000552275821619527,-0.0480526543935863,-0.0276399765238142,-0.000909802326093026,0.00063779954351183,0.0453352147888953,-0.0319021033248778,1.47958166875698,-0.0004211063734562,0
0.22,0.000963748833749255,0.000552274516020351,-0.0480405802822229,-0.0276399087133239,-0.000909434891250933,0.000637767304096067,0.0453231086954696,-0.031901061513878,1.47957889915799,-0.000398854679453976,0
0.23,0.000963402210486821,0.000552273285460862,-0.0480291802284879,-0.0276398609519786,-0.000909088155887541,0.000637736878210456,0.0453116770899259,-0.0319000938268772,1.47957628795981,-0.000377875622393583,0
0.24,0.00096307575786119,0.000552272125135292,-0.0480184488289878,-0.0276397931129488,-0.000908761596296917,0.00063770822221235,0.0453009179566567,-0.0318991602327239,1.47957382610331,-0.000358096414774576,0
0.25,0.000962767784486804,0.000552271031006154,-0.0480083209799324,-0.0276397482169937,-0.0009084535230206,0.000637681186052788,0.0452907622702809,-0.0318982980390478,1.47957150504701,-0.000339448433799921,0
0.26,0.000971980942249571,0.000557672260035278,-0.0484684601269459,-0.0279100708437986,-0.000917134941709518,0.000643901234976838,0.0457242927968116,-0.0322095130328703,1.4795693512684,-0.000335171540594089,0
0.27,0.000944740846612803,0.000542159869455934,-0.047126727231968,-0.0271336993067503,-0.000891419947099096,0.000625973696908262,0.0444587991312359,-0.031314233783918,1.47956718226802,-0.000280781949516849,0
0.28,0.000943559593907776,0.000541566712081787,-0.0470295562030716,-0.0271040124003926,-0.000890296427631635,0.000625277124031284,0.0443646758596604,-0.0312759041552082,1.4795652356041,-0.000263876011350738,0
0.29,0.000960203696764136,0.000551444126425051,-0.0478992081895886,-0.0275983712757648,-0.000905970311861917,0.000636631414456608,0.0451856166842004,-0.0318475161846732,1.4795634708282,-0.000272844684301157,0
0.3,0.000952085772660577,0.000547117552128715,-0.0475009858584816,-0.0273818222437959,-0.000898279449914731,0.00063158448699354,0.0448087355960412,-0.0315956494030836,1.4795620817841,-0.000250804239710439,0
0.31,0.000960534524703361,0.000551869776848558,-0.0479221569402812,-0.0276196509443357,-0.000906259070000507,0.000637088158568189,0.0452064355079869,-0.0318709339800092,1.47956046576204,-0.000249701305088603,0
0.32,0.000961034467404286,0.000552234628848592,-0.0479502775680284,-0.0276379254977624,-0.000906722701148614,0.000637498451810154,0.0452327246297271,-0.0318917648812686,1.47955891153859,-0.000238182872272548,0
0.33,0.000960897451823637,0.000552262055982353,-0.0479467230481321,-0.0276392887391625,-0.000906582820777022,0.000637514611966654,0.0452290138745698,-0.0318928649856837,1.47955744370868,-0.000226468905660626,0
0.34,0.000960718494193873,0.000552263565746701,-0.0479409109477753,-0.0276393742036461,-0.000906403587587569,0.000637501064740905,0.0452231740202368,-0.0318924831332883,1.47955605962438,-0.000215355242394457,0
0.35,0.000960545590021202,0.000552263116283896,-0.047935223869038,-0.027639357800296,-0.000906230611681937,0.000637486045782464,0.0452174704743455,-0.0318920076334067,1.47955475468291,-0.000204871521274159,0
0.36,0.000960382670129319,0.000552262548427585,-0.0479298663401303,-0.0276393126537561,-0.000906067636929164,0.000637471750581978,0.0452121001078619,-0.0318915301481681,1.47955352437346,-0.000194986929728825,0
0.37,0.000960228741645402,0.000552262001925912,-0.0479247982841235,-0.0276392903833867,-0.000905913659126673,0.000637458231777463,0.0452070181709423,-0.0318910986258421,1.47955236442854,-0.000185667627124511,0
0.38,0.000960083602518054,0.000552261485790567,-0.0479200187077626,-0.0276392680891251,-0.000905768473671533,0.000637445483641064,0.0452022256324893,-0.0318906903550923,1.47955127082405,-0.000176881317716883,0
0.39,0.000959946845293647,0.000552260999075506,-0.0479155158783887,-0.0276392457716233,-0.000905631672467524,0.00063743347159745,0.0451977106874269,-0.0318903044408793,1.47955023976579,-0.000168597521002185,0
0.4,0.000959817887895573,0.000552260540162708,-0.0479112688513268,-0.0276392234324522,-0.000905502673722163,0.000637422144286766,0.0451934523638463,-0.0318899391396392,1.47954926767666,-0.000160787497143473,0
0.41,0.00095969632286597,0.000552260107469176,-0.0479072649153964,-0.0276391981620428,-0.000905381069662922,0.00063741146610361,0.045189438160882,-0.0318895905495581,1.47954835118386,-0.000153424149801411,0
0.42,0.000959581684551995,0.000552259699499082,-0.0479034880260091,-0.0276391757824438,-0.000905266394680167,0.000637401396045877,0.0451856514686737,-0.0318892631514492,1.47954748710787,-0.000146481932333018,0
0.43,0.000959473681911137,0.000552259314841417,-0.0478999304459786,-0.027639153383846,-0.000905158357156654,0.000637391908937266,0.0451820847516612,-0.0318889534792075,1.47954667245073,-0.000139936759174777,0
0.44,0.000959371849282108,0.00055225895216462,-0.0478965753290152,-0.0276391309675255,-0.000905056491685371,0.000637382963609087,0.045178721143303,-0.0318886601277588,1.47954590438609,-0.000133765922282801,0
0.45,0.000959275573811222,0.000552258610213874,-0.0478933981090814,-0.0276391314052103,-0.000904960186375656,0.000637374505405689,0.0451755340105315,-0.0318884037564246,1.4795451802491,-0.00012794801234811,0
0.46,0.000959185149883493,0.000552258287805783,-0.0478904192158196,-0.0276391089533617,-0.000904869732892081,0.000637366562272455,0.0451725477861523,-0.031888140787925,1.47954449752753,-0.000122462844517055,0
0.47,0.000959099848229698,0.000552257983824099,-0.0478876075814999,-0.0276390864866469,-0.000904784403589522,0.000637359068808817,0.0451697293716664,-0.0318878912784538,1.47954385385269,-0.000117291388363894,0
0.48,0.000959019114199864,0.000552257697216325,-0.0478849405375288,-0.0276390839600749,-0.000904703644796531,0.000637351975463513,0.0451670543030994,-0.0318876731357999,1.47954324699144,-0.000112415701863664,0
0.49,0.000958943358602194,0.000552257426990198,-0.0478824434248368,-0.0276390614632066,-0.000904627864358909,0.000637345320606129,0.0451645513856394,-0.0318874490204774,1.4795426748382,-0.000107818869144914,0
0.5,0.000958871646764154,0.000552257172209935,-0.0478800740244638,-0.0276390618147919,-0.000904556130311843,0.000637339019942118,0.0451621746107135,-0.0318872578159591,1.47954213540811,-0.000103484941801355,0
0.51,3.29867766360889,-0.00242755050678608,2.23184177135316,0.12401621918553,-0.113556819430348,3.29672338393056,0.0487562922762203,2.23475290332989,0.0336958293089704,10.334896195269,529.714489797119
0.52,3.19487600715464,-0.0129520299012791,4.96217688454338,0.6536275384018,-0.494835859145284,3.15634882873786,-0.102531277594455,5.00398998096206,0.151454985071319,21.7764352543453,529.714489797119
0.53,3.18899112684267,-0.013273388867543,2.79162010317388,0.672898728439452,-1.11428603952498,2.98801057763406,-0.333076042669901,2.85219141170072,0.352782791716666,33.1652731663323,529.714489797119
0.54,3.13578622494717,-0.00787631241567577,2.90331013484288,0.406181356533053,-1.87452765284469,2.51383439462234,-1.40347271232774,2.57380212511137,0.638221796727609,44.7584605031343,529.714489797119
0.55,3.08795598180702,0.0620005979442853,2.58503190500132,-3.08922228214403,-2.58201992111435,1.69484198280898,-3.83211150546259,-1.24121137123019,1.01000952511963,56.8068589989603,529.714489797119
0.56,2.95959050098072,0.00654439742429958,6.23646749676586,-0.315991284855394,-2.94423057670187,0.301206032221638,-6.23693819232084,0.306560459764789,1.47105843684321,68.7833380010945,529.714489797119
0.57,2.91909548090443,0.00503755585542076,5.85062744346724,-0.23638935589428,-2.63752695536581,-1.25083786452299,-5.18028709850248,-2.72953237513698,2.01535539914183,79.5545107129468,529.714489797119
0.58,2.88863687423613,0.0080019105478526,5.10008103605639,-0.378887616264958,-1.40484539916812,-2.52402385610859,-2.13641355856269,-4.6465169220493,2.63647446558271,89.9436779753724,529.714489797119
0.59,2.8642298662551,0.0503481446829539,3.77608110111354,-2.50401404737615,0.504790275357836,-2.81984652779631,3.18731302885356,-3.22023453924466,-2.94687909182899,101.16770858809,529.714489797119
0.6,2.80012276822862,0.00745132843960894,4.58673381595717,-0.352178427490798,2.31426535264246,-1.57636255886978,3.99520784545919,-2.28045412469014,-2.16609808794901,111.616675514773,529.714489797119
0.61,2.7905002453975,0.0479821114023369,2.86037208579145,-2.37240343555763,2.70968968048014,0.668412850024271,2.15724210795253,3.02594332694733,-1.3117563518368,121.58891914909,529.714489797119
0.62,2.67164799003724,0.0881002238507786,6.34264061261883,-4.38944502447101,1.07532301614939,2.44727298090179,-1.71590931476633,7.52010457288948,-0.381037052071479,132.196049378778,529.714489797119
0.63,2.67956806067278,0.0413377211075836,3.80497329456703,-2.03719155112277,-1.53008437254235,2.20014445249982,-3.87474195960796,1.90114332305267,0.623089661957329,141.750195070371,529.714489797119
0.64,2.59491073750217,0.00866570913320008,5.68266385344037,-0.411949689413205,-2.57455462858756,-0.324507772691499,-5.58276852374759,-1.1380099419858,1.69951884966211,151.914605173969,529.714489797119
0.65,2.55426842421407,0.0991522115940171,5.63130891409988,-4.92743512127727,-0.836679087094308,-2.41538536246704,3.07964324130946,-6.81960808746914,2.84693116195837,161.144710199677,529.714489797119
0.66,2.48719177680348,0.0516684918229243,6.71472406329897,-2.56063050558733,1.95186746780046,-1.54240265682743,6.89922358657354,-2.01123388367888,-2.21877385269431,170.872691380603,529.714489797119
0.67,2.50276967675401,0.0422495996674548,3.88049320435859,-2.07678442294038,2.03653490255071,1.45539227503934,1.8827719715005,3.97824468224029,-0.933431784970111,179.98867824547,529.714489797119
0.68,2.40689949622116,-0.00197989752492708,6.54517448582607,0.133661812132988,-0.983726099347884,2.19669116317376,-2.54813544727073,6.03027198991005,0.420218430479023,189.042031467183,529.714489797119
0.69,2.4145696438024,-0.0164364710999532,4.03403955462248,0.848501347533102,-2.32373538447849,-0.656254969715953,-4.1146101271077,-0.251819711156513,1.83923485194453,198.194537537578,529.714489797119
0.7,2.33355131479418,0.0491747841098148,6.12036645773273,-2.42004552997354,0.372914271593862,-2.30408655310765,3.48520496018624,-5.58290715752806,-2.96006517509575,206.790525031793,529.714489797119
0.71,2.29842507298083,0.0465195968677639,5.85417123266023,-2.28786342385236,2.27685614448187,0.317565719709804,5.41866594528041,3.18491746219057,-1.41197780151818,215.333538343345,529.714489797119
0.72,2.26012799150634,0.0157754354998626,5.74013374782235,-0.7571135913096,-0.430128013242392,2.21887748525687,-1.87394503719256,5.47820102137701,0.198454335378911,223.93749302469,529.714489797119
0.73,2.21342673729458,0.0093925080175421,6.11271363703434,-0.444245865919898,-2.11773183276644,-0.643861805875358,-5.70975958378413,-2.22739037736043,1.87019302445122,232.325269229569,529.714489797119
0.74,2.12557986291135,-0.0461565037412566,8.62117204735025,2.33481546651944,0.986349323873069,-1.88343706763645,1.74148407813475,-8.76031985365345,-2.68087945411151,240.411678516699,529.714489797119
0.75,2.0921916062078,0.0601917519637287,8.42231514511413,-2.96646794547847,1.66290389387303,1.27107804789192,4.67303501235865,7.60907801566263,-0.88939830022336,248.287862310112,529.714489797119
0.76,2.02457291495962,0.0745729084982498,9.93514296143271,-3.68788274656631,-1.6158567149232,1.22207351804528,-10.2541066284947,2.6759749752171,0.960092220433867,256.113966990732,529.714489797119
0.77,2.02419785419519,0.0436694781691371,8.10367204384024,-2.14343903827843,-0.591845953166436,-1.93623406229012,-0.138288206866365,-8.38121159957052,2.86651383147116,263.854307372234,529.714489797119
0.78,1.99156613509733,0.033691280240555,7.91544039293405,-1.64699649975471,1.98196922558114,0.198163472113428,7.67017254732613,2.55641295148903,-1.4542290202473,271.447282112715,529.714489797119
0.79,1.96298182598773,0.0411533230418119,7.56783685008625,-2.02261900193446,-1.01286130877016,1.68199382113963,-5.74949447555799,5.32038114161362,0.562981773196784,278.868099225659,529.714489797119
0.8,1.92647784439048,0.0571622201070333,7.644812068899,-2.82511365363827,-0.986509086487462,-1.65571260386959,-1.2477243568147,-8.05404262803274,2.63391445743322,286.134648259434,529.714489797119
0.81,1.9101673768134,0.00533227229024491,6.7331483605788,-0.230618658019615,1.90844905420867,0.0811791109830775,6.71579619542528,0.53530670881573,-1.52549374741859,293.301549027659,529.714489797119
0.82,1.82971495891612,0.0284287203920772,9.05659290310996,-1.38644445474446,-1.08505830803017,1.47353774678468,-6.58625794932371,6.3690901598049,0.650251977119754,300.305713432609,529.714489797119
0.83,1.84910827063695,0.00954936076663893,6.42460225392433,-0.437783660630067,-0.493112680417097,-1.78217071888214,-1.25873685998418,-6.31527910483467,2.87681818893233,307.158530818935,529.714489797119
0.84,1.75836172303378,0.0368596680316013,9.32214233696686,-1.80235394147895,1.60591331396368,0.717103208884137,7.66130848430524,5.60849086558471,-1.129864712271,313.885172303423,529.714489797119
0.85,1.6965611931957,0.03796060378156,10.7938700751419,-1.85394275185786,-1.56473665915438,0.656780082824892,-10.7227502041557,2.22875817115458,1.19576201283813,320.504967093429,529.714489797119
0.86,1.66746812906058,-0.0160515060508508,10.6653273654493,0.852789099512894,0.706327640764715,-1.51056574705342,3.64838972776416,-10.0581165958043,-2.71383233088378,326.992704482011,529.714489797119
0.87,1.68859282905857,0.0648848395379474,8.03175940249883,-3.199767868339,0.54978969236179,1.59790083513421,-0.743830202502957,8.61361655408037,-0.292975709292237,333.410888885103,529.714489797119
0.88,1.6135922707331,-0.0445119730562565,10.2077248566121,2.24775125957805,-1.30329432014067,-0.952410230417558,-9.68022683916761,-3.94249170138509,2.1742984916559,339.760764710915,529.714489797119
0.89,1.61830673553512,-0.0440830708533238,8.42884952934483,2.23122479354571,1.61890369216821,0.00329285565131888,8.36995362821227,-2.44289679054314,-1.59599583578945,345.902886442712,529.714489797119
0.9,1.5568144919519,-0.0249702354684949,10.0037279882681,1.28477881462521,-1.29093519105257,0.870506293781309,-7.46812670744019,6.77881359438264,0.961474491208597,351.881048015777,529.714489797119
0.91,1.55051519364003,0.0504902321722979,8.85768337727456,-2.47950824441269,0.587540264979259,-1.43577263739127,5.88273838528157,-7.07106109692819,-2.72061528482106,357.744244106877,529.714489797119
0.92,1.51984037566027,0.0320737054242678,8.94454080136064,-1.55884473117597,0.148463213553602,1.51291181642822,-0.868730727087419,9.03770512723969,-0.0767173909329037,363.557108427487,529.714489797119
0.93,1.46519699890226,0.0555088239615364,10.2264783961349,-2.75923028090612,-0.79157096299938,-1.23421995027872,-2.81371803519173,-10.2116209755415,2.60918681428642,369.261702956519,529.714489797119
0.94,1.47565331516729,0.0136537763170765,8.30534859552692,-0.648336192972116,1.20584389740209,0.8506936153928,6.36328845823501,5.37658954260335,-0.947152380218297,374.74414233816,529.714489797119
0.95,1.44727189151376,0.0431840189178786,8.36003501310422,-2.11125581357458,-1.4132683055012,-0.31485470319099,-7.58177775991839,-4.10660839743551,1.81983068740444,380.152312727524,529.714489797119
0.96,1.38556995495423,0.0327575884396912,10.0735118976703,-1.62400064008766,1.37763529173472,-0.151651451161059,10.175776460378,0.752724026404315,-1.65679831466039,385.565213817412,529.714489797119
0.97,1.4141488683719,0.0701230452632491,7.29468666483272,-3.47839991267428,-1.28593047908331,0.592551319599487,-8.06568659051653,-0.506378627256947,1.18854716251042,390.759148430202,529.714489797119
