t,iq,id,vq,vd,ia,ib,va,vb,theta_e,omega,r
0,0,0,0,0,0,0,0,0,0,0,0
0.01,0.0011486568169806,0.000647653484446416,-0.0567222949294801,-0.0324142155567118,-0.000400919468759072,0.00125623688000374,0.0195038688147199,-0.0623514170928143,0.822328927543027,-0.00149447255135191,0
0.02,0.00129630134232038,0.000729685381587907,-0.0641195109844526,-0.0365198236941591,-0.000453263477272591,0.00141682396449787,0.0221293266626148,-0.0703939067888485,0.822317708015816,-0.00158243715978303,0
0.03,0.00135326768229727,0.000762300246961475,-0.0669695503253054,-0.0381521471382307,-0.000472792280173614,0.00147949401697877,0.0231059584659666,-0.0735297333423687,0.822306462864394,-0.00154563477495387,0
0.04,0.00132046689607378,0.00074518739292022,-0.065401314074549,-0.0372956591465523,-0.000460389661652733,0.00144463782092165,0.0225390181965418,-0.0718351636219308,0.822296235962355,-0.00139599441921128,0
0.05,0.00135105729072646,0.000763411331139886,-0.0669479271837784,-0.0382077463178125,-0.00047038701748012,0.00147881328000666,0.0230508083732582,-0.0735562170467605,0.822286486756897,-0.00133827847107146,0
0.06,0.00135157318588594,0.000764726140779722,-0.0670131118278421,-0.0382735687826846,-0.000469856700247489,0.00148013203074262,0.023053101105329,-0.0736490173297732,0.822277349083911,-0.00124552426257647,0
0.07,0.00138213728211293,0.000783251627724231,-0.0685523120304061,-0.0392007335853042,-0.000479630692593066,0.00151451014445657,0.0235492539338612,-0.0753760548018977,0.822268999021891,-0.00120208288538504,0
0.08,0.00135065592264648,0.000766153726040557,-0.0670390527559055,-0.0383450144356002,-0.000468188928328687,0.00148056140726965,0.0230222830451086,-0.0737193950725748,0.822261040380699,-0.00107745456986835,0
0.09,0.00134670428507606,0.000764910599899158,-0.0668764041536561,-0.0382827844553148,-0.000466128917040463,0.00147696462042224,0.0229449298298581,-0.0735632735356314,0.822253775738764,-0.000997723695671348,0
0.1,0.00134501695209497,0.000764816477201041,-0.0668227024500994,-0.0382780731750013,-0.00046494678441988,0.00147575043041792,0.0229082961141198,-0.0735234276803869,0.822247059065035,-0.000926706827441904,0
0.11,0.00134360911985924,0.000764805899590861,-0.0667805647506336,-0.0382775582618372,-0.000463913328547335,0.00147478742692431,0.0228773163278495,-0.0734945147105375,0.822240842241762,-0.000861186476329101,0
0.12,0.00134231805244522,0.000764801652488491,-0.0667421539075783,-0.038277343203606,-0.000462961807245332,0.00147390830332202,0.0228488973265777,-0.0734683469387261,0.822235087539214,-0.000800553053542918,0
0.13,0.00140341489995527,0.000799988201313882,-0.0697707234994663,-0.0400383811848755,-0.000483769463852386,0.00154127272392067,0.0238688681066555,-0.0768199385631846,0.822229475277775,-0.000827037194343933,0
0.14,0.00145247298775302,0.000829183591662068,-0.0722991085372774,-0.0414995520702829,-0.000499834182356837,0.00159605419675569,0.0247264533060038,-0.0796114088823025,0.822224242803313,-0.000840876179581247,0
0.15,0.00134759535177696,0.000769456280201715,-0.0670702686908901,-0.0385102807614067,-0.000463637118121308,0.0014809175608294,0.0229295992764773,-0.0738626843785868,0.82221933341958,-0.000646660523000218,0
0.16,0.00133853758468629,0.000765126499005388,-0.0666431327485551,-0.0382935938403018,-0.00045994154653114,0.00147158254911935,0.0227638237684027,-0.0734133148630999,0.822215146995611,-0.000591404079845583,0
0.17,0.00133703994592965,0.000764810474509467,-0.0665862496988945,-0.0382777764384021,-0.000459053723141847,0.00147033348537009,0.0227326311799162,-0.0733630990189872,0.822211299745675,-0.000549997029878888,0
0.18,0.001336192620649,0.000764785420810503,-0.0665600866327969,-0.038276513861094,-0.000458444748697461,0.00146974006945203,0.0227140610135191,-0.0733444481757009,0.822207740638059,-0.000512429817354456,0
0.19,0.00133545017106125,0.000764781607876748,-0.0665379261147535,-0.0382763364154877,-0.000457898547708096,0.001469233469242,0.0226977042995629,-0.0733293103784127,0.822204446236135,-0.00047771445825696,0
0.2,0.00133476627847431,0.000764779481857777,-0.0665175774535697,-0.0382762345435204,-0.000457394463128692,0.00146876784384804,0.0226826416515863,-0.0733154554567313,0.822201396707412,-0.000445584017622354,0
0.21,0.0013341334922184,0.000764777615134981,-0.0664987536413231,-0.038276138414855,-0.000456927980464342,0.00146833708539258,0.022668708965296,-0.0733026373444314,0.82219857383878,-0.000415842068331372,0
0.22,0.00133354785416902,0.000764775894146826,-0.0664813335318921,-0.038276045122129,-0.000456496251797451,0.00146793842504437,0.0226558182104187,-0.0732907718583069,0.822195960782793,-0.00038831074699027,0
0.23,0.00133300550680258,0.000764774301280583,-0.066465195210919,-0.0382759806283146,-0.000456096439547775,0.00146756923206268,0.0226438612389987,-0.0732797954123349,0.822193541944833,-0.000362825720208947,0
0.24,0.00133250392061092,0.000764772826564003,-0.0664502777439959,-0.0382758871824464,-0.000455726675676411,0.00146722778455531,0.0226328316438588,-0.0732696245632411,0.822191302889392,-0.000339234893097968,0
0.25,0.00133203922226088,0.000764771461219956,-0.0664364482353758,-0.0382758225189802,-0.000455384108434812,0.00146691144631259,0.0226225917755412,-0.0732602114724866,0.822189230253884,-0.000317397477264595,0
0.26,0.00134494235690778,0.000772308924459541,-0.0670790423400044,-0.0386530601706843,-0.000459704516576303,0.00148121665385043,0.022836486789151,-0.0739739944368261,0.822187357793714,-0.000315961751394489,0
0.27,0.00130639016246081,0.000750398039526887,-0.0651917962804898,-0.0375564496701363,-0.000446370004885015,0.00143892539523046,0.0222000589205274,-0.0718861224300454,0.822185435486595,-0.000243366235864412,0
0.28,0.00130461139943451,0.000749462393937651,-0.0650228669810038,-0.0375096133885629,-0.000445701276763964,0.00143702997719331,0.0221080551406392,-0.071736867961232,0.822183789931733,-0.000224092466326169,0
0.29,0.00132845016350651,0.000763658046464463,-0.0662898354158661,-0.0382201029635093,-0.000453502393440674,0.00146365604839183,0.0225525995907392,-0.0731197565757959,0.822182366132633,-0.000242261241718334,0
0.3,0.00131743986981715,0.000757873066747923,-0.0657525454890002,-0.0379305702223357,-0.000449371923047725,0.0014519243336559,0.022355958145776,-0.0725419639316368,0.822181427864169,-0.000217546842348586,0
0.31,0.00132899471583423,0.000764266045646648,-0.066326323864811,-0.0382505419800967,-0.000453484262033387,0.00146447313643225,0.0225584513545598,-0.0731669424786556,0.822180133538096,-0.000220173468707647,0
0.32,0.00132964391520612,0.000764728465831297,-0.0663636308870422,-0.0382736613983082,-0.000453643335441854,0.00146525434375966,0.0225699572778651,-0.0732093005691167,0.822178894544614,-0.00020839178346052,0
0.33,0.00132945860045473,0.000764761269284819,-0.0663595171747407,-0.03827530967393,-0.000453483556214251,0.00146515276799536,0.0225657373900658,-0.0732077341975732,0.822177744443264,-0.000196373792849296,0
0.34,0.00132922555297891,0.000764762998633931,-0.0663526848936524,-0.0382754012116538,-0.000453310081617904,0.00146499589920082,0.0225605916024736,-0.0732031750476425,0.822176679573987,-0.000185162052220896,0
0.35,0.00132900496176307,0.000764762524703422,-0.066346120104898,-0.0382753792141991,-0.000453147348691425,0.00146484585808731,0.0225557248644739,-0.0731987129859702,0.822175693832689,-0.000174776828639874,0
0.36,0.00132880055225808,0.000764761935639124,-0.0663400317200078,-0.0382753455213515,-0.000452996656906206,0.00146470671286633,0.0225512204847906,-0.0731945649487504,0.822174781356188,-0.000165162964438113,0
0.37,0.00132861127674924,0.00076476137942747,-0.0663343917985527,-0.0382753146873902,-0.000452857129919767,0.00146457786138187,0.0225470476871733,-0.0731907227064672,0.822173936700148,-0.000156263618436421,0
0.38,0.001328436087494,0.000764760863733696,-0.0663291708461861,-0.038275283805198,-0.000452727987476771,0.00146445859846235,0.0225431864714888,-0.073187164169837,0.822173154824056,-0.000148025721775378,0
0.39,0.00132827357170527,0.000764760386282937,-0.0663243194165478,-0.0382752845464712,-0.000452608189202701,0.00146434796301458,0.0225395787124593,-0.0731838789942597,0.822172431061654,-0.000140400114590176,0
0.4,0.00132812352815442,0.000764759944290111,-0.0663198470773784,-0.03827525066329,-0.00045249758320548,0.00146424581803096,0.0225362761928433,-0.0731808252554207,0.822171761093763,-0.00013334128810138,0
0.41,0.00132798466047887,0.000764759535126992,-0.0663157072019464,-0.0382752196514513,-0.000452395215637646,0.00146415128108505,0.0225332189382948,-0.0731779987792779,0.822171140921692,-0.000126807115798142,0
0.42,0.00132785567230273,0.000764759156356775,-0.0663118517931658,-0.0382752202624181,-0.000452300132954073,0.00146406346974023,0.0225303519441206,-0.0731753880457731,0.822170566844716,-0.000120758602246037,0
0.43,0.00132773682806218,0.00076475880572337,-0.0663083096279003,-0.0382751891773815,-0.000452212525382868,0.00146398256390263,0.0225277391383761,-0.0731729663303813,0.82217003543647,-0.000115159650383473,0
0.44,0.00132762634992214,0.000764758481137697,-0.0663050062395301,-0.0382751897147534,-0.000452131087197114,0.00146390735344474,0.0225252826357355,-0.0731707294094074,0.822169543525726,-0.000109976846098493,0
0.45,0.00132752438589807,0.000764758180665498,-0.0663019623585399,-0.0382751556573706,-0.000452055923838319,0.00146383793903954,0.0225230424781416,-0.0731686429470782,0.822169088176822,-0.000105179258815088,0
0.46,0.00132742985665707,0.000764757902516409,-0.0662991363948246,-0.038275156130937,-0.000451986241786823,0.00146377358598976,0.0225209409471259,-0.0731667293406178,0.822168666672186,-0.000100738256902045,0
0.47,0.00132734256096802,0.000764757645032558,-0.0662965297107344,-0.038275124929585,-0.000451921891049249,0.00146371415726683,0.0225190239182888,-0.0731649410703594,0.822168276496155,-9.66273368022667e-05,0
0.48,0.001327261419489,0.000764757406678818,-0.066294098918361,-0.0382751253493346,-0.000451862078500533,0.00146365891817296,0.0225172163525322,-0.0731632950299395,0.822167915320508,-9.28219648634426e-05,0
0.49,0.001327186448022,0.000764757186034944,-0.0662918546053477,-0.0382751257432288,-0.000451806813519795,0.00146360787940706,0.0225155473886134,-0.0731617752892017,0.82216758098955,-8.92994309191463e-05,0
0.5,0.00132711731312281,0.000764756981785526,-0.0662897891836383,-0.0382750944732737,-0.000451755849785273,0.00146356081396189,0.0225140328550649,-0.0731603535499269,0.822167271508182,-8.60387127582932e-05,0
0.51,4.69468067628084,0.00324877554082739,5.266547222637,-0.157273219149728,-0.229499879421978,4.68906888541132,-0.418175485440194,5.25227415288883,0.0495965800193807,15.2460513518898,748.10062661224
0.52,4.6883904464226,-0.000223491063646164,5.58208844570397,0.0229322549764609,-1.03968195252487,4.57165904958463,-1.21524446257835,5.4482490949068,0.22356797932719,32.254070055421,748.10062661224
0.53,4.69186405125825,0.0737745648291279,5.40957253956353,-3.67338120422623,-2.27990179093199,4.1013508488802,-5.88454088151769,2.85120731377242,0.523077021204674,49.5604787615134,748.10062661224
0.54,4.68355919046487,0.0465043597484101,5.82595329774613,-2.30105177572418,-3.79089290928809,2.75082174929107,-6.08192476913468,1.49892034633881,0.952998021106276,68.0053841827247,748.10062661224
0.55,4.59547319099594,0.000106211812754609,10.2315213078578,0.0186287618974621,-4.5900073684808,0.224067440149843,-10.2184556585074,0.51724197338884,1.52204180337576,86.9424782018601,748.10062661224
0.56,4.69739672515217,0.0429494772344359,5.1367466524739,-2.11359059996343,-3.76009403594543,-2.81586105692605,-2.80092535769934,-4.79669141560643,2.22272355907844,104.061495497922,748.10062661224
0.57,4.59209141271166,0.0346987266653461,10.4034762491431,-1.69005508756054,-0.459268333820319,-4.56919907006494,0.72060299486658,-10.5151954612962,3.04897119549898,121.75255948526,748.10062661224
0.58,4.63142189712482,0.0176255628828215,8.43850977531765,-0.839195922255048,3.52395553326585,-3.00534804127562,6.98355724588896,-4.81067824921319,-2.27312757212365,139.984860351988,748.10062661224
0.59,4.55481392302753,0.0591685045538441,12.2705850934827,-2.90147870898014,4.24183035757324,1.66033309998526,10.27481867249,7.30848400713282,-1.18471956740443,157.260794026197,748.10062661224
0.6,4.59730518856042,0.1117450517868,10.1476468799708,-5.53628090901357,-0.0543598614745061,4.59834176185545,-5.89915226286954,9.94108374794068,0.0361229289705452,175.285277006365,748.10062661224
0.61,4.54803908507192,0.0154870806677128,12.6127365640419,-0.724098452020311,-4.46679656662755,0.855936797534576,-12.5292234718239,1.61987696916641,1.38487450344053,193.186864243012,748.10062661224
0.62,4.61187390240742,0.0350605172410002,9.42273543925214,-1.67418372382208,-1.29543545122117,-4.42633676117117,-0.967551116775726,-9.52127507929873,2.86448047551649,210.410321959118,748.10062661224
0.63,4.54966216437463,0.0605103256780777,12.535213297267,-2.95081964242586,4.40661272115351,-1.133512962089,12.8775044857327,-0.0937400130159087,-1.809268852899,228.212281082838,748.10062661224
0.64,4.45317712916698,0.00388310407025944,11.7453597869237,-0.122257085009994,0.321503219561793,4.44155798138947,0.715810939146684,11.7241647045117,-0.071387222626358,245.859385319568,748.10062661224
0.65,4.31566605361805,-0.0410776731276941,12.1657154495243,2.12439299659528,-4.20123513324377,-0.988070957360356,-12.3352276450273,-0.599864108054327,1.79226639906395,262.83842776303,748.10062661224
0.66,4.15684092141989,0.025471581011322,13.8574235534101,-1.20805569272013,2.45022867332316,-3.35802839414071,9.20797988591212,-10.4259624263641,-2.5051073011052,279.248303678556,748.10062661224
0.67,4.01535524804038,0.0067413430336678,14.8489585574178,-0.270136483521224,1.57239451196032,3.69468519801463,5.54308815743277,13.7781971839051,-0.400685300697551,295.171543652738,748.10062661224
0.68,3.98521739328232,0.0396303209305098,10.4293484422077,-1.91162329319372,-3.87287657814291,-0.940401640007643,-9.64036040119625,-4.4146419876484,1.81894751429452,310.621845981058,748.10062661224
0.69,3.88672322288051,0.0467096278369397,9.61061630897159,-2.25880646571284,3.26384904705815,-2.1109449539552,9.33582978551814,-3.21067511649016,-2.13287720934713,325.577908106937,748.10062661224
0.7,3.73450847947896,0.0703911742563463,11.6843306104946,-3.4326997600236,-1.06050741355459,3.58145676038525,-6.80049626777818,10.1024878109178,0.306731369512834,340.008438381084,748.10062661224
0.71,3.6279050986706,0.0632134010391573,11.6574425276828,-3.05860795748884,-1.09943229245894,-3.45788085007705,-0.407633033347447,-12.0451186890776,2.85117308855413,354.019450915298,748.10062661224
0.72,3.48557124471747,0.115186342482934,13.5376047695506,-5.6722473919631,2.5471588896804,2.38211174931362,5.56756903466469,13.5809907008448,-0.785834138040991,367.803706025553,748.10062661224
0.73,3.30426536292501,0.0406061972895027,17.4010252381804,-1.9632045214477,-3.07315690724483,-1.21471193100983,-15.3588724233512,-8.41159254933601,1.95950271950516,381.189709986128,748.10062661224
0.74,3.33196670283156,-0.012940737789926,11.0959342764039,0.74863735940323,3.3178504490979,0.306656108521611,11.118728832928,0.232560749020505,-1.48251582684918,393.933164233077,748.10062661224
0.75,3.15882982781402,0.0933766367209503,14.9742238805825,-4.5973629873861,-3.12526227811838,0.468679816445308,-15.4149657582894,-2.78243740888475,1.45149256269226,406.492890913852,748.10062661224
0.76,3.04094196299082,-0.034839719453768,16.1136736199289,1.82502799832843,2.96462447812752,-0.677896402127342,15.2388941806234,-5.5459272332078,-1.80704977119658,418.65504201821,748.10062661224
0.77,2.8785279133093,0.0453032598471264,19.7608103693584,-2.15973923295722,-2.76552084386664,0.799918617856042,-19.6341066659084,3.10740332751458,1.30497067039164,430.353563292134,748.10062661224
0.78,2.8113846970608,0.0236746037291258,18.6277702877353,-1.10840696098312,2.74460953769205,-0.609559584732467,18.4492425293793,-2.80140000284325,-1.78092170463774,441.84903114321,748.10062661224
0.79,2.76921980765102,0.00576029294416358,16.5274072040244,-0.196700809835202,-2.76155856300593,0.20592675190502,-16.4983872534293,0.998548011920127,1.49844516011838,452.860600058084,748.10062661224
0.8,2.68989789375535,0.0974955092114485,16.2723408364887,-4.78908362833146,2.67559486858977,0.293680357398879,15.4056593615176,7.09859549029904,-1.42524212772275,463.607003474225,748.10062661224
0.81,2.54440631058351,0.0547484780241212,19.5018270370962,-2.68670785327779,-2.32431825886645,-1.03660286546158,-16.4889644716655,-10.7542413737945,2.01181728823921,474.12843184768,748.10062661224
0.82,2.47856108172776,0.0569739120872559,18.9042407378955,-2.74489001981545,1.74729958758261,1.75882210975062,11.0203576755815,15.6030912257617,-0.759129132753515,484.106621681164,748.10062661224
0.83,2.44190118729531,0.0775600919817787,16.8902441673327,-3.79664450236345,-0.83155320527566,-2.29726277190448,-1.63255316507231,-17.2345475041457,2.82604068576848,493.935477386498,748.10062661224
0.84,2.37975237073693,-0.0544544295347713,16.2780258969746,2.78138918704898,-0.523301280268669,2.32214177021843,-0.487725879645806,16.5067373026511,0.198771869793594,503.522020052626,748.10062661224
0.85,2.20671909499122,0.0198072186480655,21.375791543745,-0.947203331341313,1.54054623507243,-1.58010087896741,15.7312027927763,-14.5034794778732,-2.35989332635273,512.699261008014,748.10062661224
0.86,2.18548805932184,0.0594981121688309,18.9250958726762,-2.87503667452977,-2.15599173479478,0.362764003570619,-19.1410144338913,-0.216000257968743,1.43131666219344,521.603931454625,748.10062661224
0.87,2.19016705582875,0.0523951071750781,15.2785117402049,-2.5291938521155,1.86668790581302,1.14675770849158,11.4481673543693,10.4292476604744,-0.995990137870783,530.290003290263,748.10062661224
0.88,2.09874875445617,0.0180570381715184,16.5384725964713,-0.829516710785266,-0.473683987480814,-2.04467500375075,-2.78411735429945,-16.3235371275711,2.92254497839825,538.726800251142,748.10062661224
0.89,2.07778491303452,0.0707566355823971,14.382429199966,-3.48172494826723,-1.14716864758932,1.73383988312096,-11.1763617643906,9.69874301231296,0.618551569954871,546.89334802926,748.10062661224
0.9,1.94605489005099,0.0215697477460183,17.8713680770779,-1.03425973309799,1.225915083775,-1.51153137462712,12.2065072707271,-13.0941464170672,-2.4490717147051,554.802314104585,748.10062661224
0.91,1.90827962030581,-0.0520473050391835,16.7392663793042,2.64395895744452,-1.89898261440738,-0.195205177735724,-16.8905510896368,1.37943530994503,1.64596344315866,562.487316916245,748.10062661224
0.92,1.77782835138304,-0.0367860309725512,20.3329278739429,1.87263600547817,0.799234363044687,1.58847451726007,11.1676940440549,17.0943654832333,-0.486849723370929,569.914320434171,748.10062661224
0.93,1.80981212406167,0.00727383035534013,15.8893802702587,-0.331581088679136,0.979066249505307,-1.52213734994194,8.92750543540486,-13.1484599133158,-2.56598074360465,577.124067239592,748.10062661224
0.94,1.71584646165646,-0.00770155319355392,17.8256778564141,0.415028478632829,-1.70273998287646,-0.211813466555998,-17.748420670955,-1.70897728643347,1.69006778010354,584.08064485972,748.10062661224
0.95,1.65232639389151,0.0416975308461111,18.3101976977717,-2.05753699898727,0.507338421561901,1.57306354672539,3.2053290251037,18.1444940429463,-0.286753421913671,590.848484824307,748.10062661224
0.96,1.53129636208166,0.0873426914065871,21.7450561919437,-4.34166401961707,1.17227161211219,-0.989078642830068,19.9975580291088,-9.58098054076166,-2.21466135037295,597.420484611461,748.10062661224
0.97,1.48278397658672,0.093479274865917,21.6312801769359,-4.64099418187935,-1.26328138203386,-0.781989031801851,-14.953659781696,-16.304575070287,2.18803937775979,603.778785184806,748.10062661224
0.98,1.52371730963338,0.0623288262010551,17.1334752438644,-3.06536697264425,-0.46882887744776,1.45113707344381,-8.80526821212636,15.0139834927846,0.353374520138612,609.916787730688,748.10062661224
