t,iq,id,vq,vd,ia,ib,va,vb,theta_e,omega,r
0,0,0,0,0,0,0,0,0,0,0,0
0.01,0.000446961239088823,0.000253241891465434,-0.021734972900956,-0.0126679769046086,-1.84472266132289e-05,-0.000513386311339801,0.00121045842369525,0.0251281013263138,-2.66202185366115,-0.00125042323137906,0
0.02,0.000563112833255281,0.000316848635009347,-0.0274308089615562,-0.0158497937514741,-2.12931625901197e-05,-0.000645783029903223,0.00140561974240085,0.0316494782798932,-2.662032135373,-0.00151824175388317,0
0.03,0.000609512830438326,0.000342263754623505,-0.0297062081592874,-0.0171211388186575,-2.2440821145756e-05,-0.000698675015829407,0.00148409591357923,0.0342547756812091,-2.66204341909415,-0.00157838727897224,0
0.04,0.000603205817206979,0.000338630491407104,-0.0294330203853445,-0.0169393869158425,-2.21348931633129e-05,-0.000691402859502045,0.00144926065650483,0.0339285302015609,-2.66205439479602,-0.00148855971341066,0
0.05,0.000617693814708534,0.000347141844141004,-0.030164091951278,-0.0173651580080654,-2.3009463607163e-05,-0.000708183361331872,0.00149008479399805,0.0347735647179999,-2.66206505710319,-0.00146074152949219,0
0.06,0.000620506088348866,0.000349047657812509,-0.030329786101681,-0.017460495127175,-2.34101940327259e-05,-0.000711557471970999,0.00149858506034469,0.0349645400066515,-2.66207537064448,-0.00140153220989546,0
0.07,0.000628970370474107,0.000354339412776802,-0.0307670075767774,-0.0177252014524923,-2.4207153663433e-05,-0.000721508253655396,0.00153207008200484,0.0354745582498886,-2.66208510781285,-0.00136238262279425,0
0.08,0.000622048925006154,0.000350657474358763,-0.0304598088422574,-0.0175410263509085,-2.41403806579595e-05,-0.000713668530514459,0.0015107226875399,0.0351170226117118,-2.66209459246151,-0.00128051596651368,0
0.09,0.000619904119597004,0.000349830704320689,-0.0303819840951571,-0.01749965491201,-2.44026935645753e-05,-0.000711383966452463,0.0015102338910218,0.0350288748490759,-2.66210355221878,-0.0012158483665465,0
0.1,0.000618908308204886,0.000349643925409251,-0.0303584037425513,-0.0174903230622963,-2.47024179158524e-05,-0.000710414075796457,0.0015131305499462,0.0350036357334216,-2.66211206373779,-0.00115742049271374,0
0.11,0.000618206907862962,0.000349600655697604,-0.0303478579573908,-0.0174881493203498,-2.49933434292198e-05,-0.00070977160564361,0.00151635023583272,0.0349932640834648,-2.66212016073316,-0.00110254673331792,0
0.12,0.00061759719350406,0.00034958961740427,-0.0303406129860662,-0.0174875981125759,-2.52702827142978e-05,-0.000709225356873607,0.00151947295251261,0.0349865700814441,-2.66212786605572,-0.00105049424232942,0
0.13,0.00063963922212217,0.000362446647223973,-0.0314277545632752,-0.0181307476999926,-2.65150216610626e-05,-0.000734712773937725,0.00158887175963584,0.0362478034587157,-2.66213538887243,-0.0010649505710339,0
0.14,0.000652178664318886,0.000369940650404318,-0.0321082109607799,-0.0185056337259286,-2.73850892312122e-05,-0.000749295103348564,0.00160786465817727,0.0370244576184602,-2.66214268038748,-0.00105351579405627,0
0.15,0.000624328016730066,0.000354144523617036,-0.0307288979986181,-0.0177154542314252,-2.62222794749258e-05,-0.000717297851761159,0.00154329208416526,0.0354361501912687,-2.66214968562479,-0.00092748147267382,0
0.16,0.000617409879305073,0.000350603103115774,-0.0304128704500394,-0.0175383002813025,-2.62759006792767e-05,-0.000709525948800611,0.00153211412208546,0.0350740258893233,-2.66215605679319,-0.00086594646482267,0
0.17,0.000615436850150741,0.000349808336408863,-0.0303347861203268,-0.0174985398880648,-2.64850978278516e-05,-0.000707408600695278,0.00153306491486517,0.0349863953437186,-2.66216205078929,-0.000821132805990624,0
0.18,0.000614644428225808,0.000349629217073769,-0.0303128862502992,-0.0174895876875194,-2.6695715966478e-05,-0.000706622743286461,0.00153542272657768,0.0349628263639214,-2.66216773908745,-0.000781719177127052,0
0.19,0.000614145954618344,0.000349588128076264,-0.0303043914246618,-0.0174875211800607,-2.68930100106592e-05,-0.000706161368865863,0.00153769669545755,0.0349543277079529,-2.662173148982,-0.00074496985542145,0
0.2,0.000613731600632847,0.000349578020575791,-0.0302992060979413,-0.0174870172803121,-2.70788019783005e-05,-0.000705788926357211,0.00153982132530644,0.0349494866030045,-2.66217829686189,-0.000710173604744677,0
0.21,0.000613351414946095,0.000349574899943447,-0.0302949544697601,-0.0174868596406316,-2.72548536058053e-05,-0.000705450027884168,0.00154181376744053,0.0349456340151745,-2.66218319606795,-0.00067709900476082,0
0.22,0.000612992774018227,0.000349573386293666,-0.0302910611651358,-0.0174867937326037,-2.74222234308352e-05,-0.000705130991423219,0.00154371402140579,0.0349421420147183,-2.66218785876596,-0.00064563067386575,0
0.23,0.000612652402482255,0.00034957227189304,-0.0302874015123947,-0.0174867306692857,-2.75813591965091e-05,-0.000704828353692311,0.00154550113248654,0.0349388589699582,-2.66219229640936,-0.00061568348585776,0
0.24,0.000612328569760056,0.000349571284190754,-0.0302839228115862,-0.0174866865777265,-2.77328253753437e-05,-0.000704540453396304,0.00154721410208446,0.0349357455459027,-2.66219651986938,-0.000587182234398413,0
0.25,0.00061202033668967,0.000349570360323342,-0.0302806094950928,-0.0174866424783535,-2.78770070224607e-05,-0.000704266428149034,0.00154884363582703,0.0349327791615815,-2.66220053948543,-0.000560056710938375,0
0.26,0.00061575385921366,0.000351894160461501,-0.030471942309519,-0.0176028863665173,-2.82194798993791e-05,-0.000708650814052753,0.0015638661948255,0.0351561544977811,-2.66220430942674,-0.000546215135918559,0
0.27,0.000606530281911469,0.00034666015817554,-0.0300369684636205,-0.0173410650669972,-2.78323520735703e-05,-0.000698052726031458,0.00153231461121293,0.0346494447873934,-2.66220808005312,-0.000495006561177789,0
0.28,0.000605797401704945,0.000346414292877094,-0.029959810524708,-0.0173287617548969,-2.7954649017915e-05,-0.000697288958624963,0.00155710590979929,0.0345753040741517,-2.66221154971698,-0.000470245754562317,0
0.29,0.000609662030703115,0.00034886030553978,-0.0302076694848438,-0.0174511274062583,-2.8344736255504e-05,-0.000701846051772724,0.0015514713287693,0.0348516582126451,-2.66221478563883,-0.000460268402171374,0
0.3,0.000601116248886799,0.00034428041112678,-0.0298025144569751,-0.0172220140515187,-2.82245282939845e-05,-0.000692151083336538,0.00153514622798316,0.0343864938894274,-2.66221753442255,-0.00041768372620763,0
0.31,0.000608235050369105,0.000348381058769655,-0.030154973828399,-0.017427146063331,-2.85816285313724e-05,-0.000700358714600931,0.00155469437586991,0.0347938326704854,-2.66222043574292,-0.000419273804889833,0
0.32,0.00060974536130453,0.000349299623045819,-0.0302361604522614,-0.0174730993368954,-2.8702062124246e-05,-0.000702122371045218,0.00155812204142955,0.034887058560961,-2.66222327658053,-0.000405086290044465,0
0.33,0.000609943442328679,0.00034950502051726,-0.0302535759217209,-0.0174833767597529,-2.87948617710171e-05,-0.000702392780531034,0.00155930372966057,0.0349072469675491,-2.66222599903224,-0.000387887501564644,0
0.34,0.000609840286313109,0.000349550600996333,-0.0302560639656766,-0.0174856572495037,-2.88847049376908e-05,-0.000702322199056825,0.00156027025899934,0.0349105023289714,-2.66222859449421,-0.000370648748153875,0
0.35,0.00060967333188865,0.000349560384037452,-0.0302551093622992,-0.0174861454510006,-2.89721224479379e-05,-0.000702178502822096,0.00156122998230677,0.0349098766282635,-2.66223106572528,-0.000354037200723917,0
0.36,0.00060949834417117,0.000349562164729869,-0.0302534229327668,-0.0174862335772942,-2.90560603178327e-05,-0.00070202399098381,0.00156216809042603,0.0349084172475036,-2.66223341792779,-0.000338179187444951,0
0.37,0.000609328012918653,0.000349562171706612,-0.030251634025836,-0.0174862300361391,-2.91361964141366e-05,-0.000701872795650433,0.00156306815849133,0.0349068248347197,-2.66223565665994,-0.000323075203465894,0
0.38,0.000609165074007776,0.00034956180002103,-0.0302498906423721,-0.017486207565572,-2.92125106383959e-05,-0.000701727987646954,0.00156392665669371,0.0349052642493109,-2.66223778735447,-0.000308697533862312,0
0.39,0.000609009593506732,0.000349561361436691,-0.0302482105142056,-0.0174861937778555,-2.92852528841179e-05,-0.000701589769278473,0.00156476008954722,0.0349037639519088,-2.66223981521519,-0.000295013166248489,0
0.4,0.000608861730369552,0.000349560924964834,-0.0302466163155334,-0.0174861654497365,-2.93544146369763e-05,-0.000701458313310346,0.00156553756774486,0.0349023333431825,-2.66224174520291,-0.000281989119640101,0
0.41,0.000608720859990959,0.000349560505250926,-0.0302450909972852,-0.0174861516179548,-2.94203003512972e-05,-0.000701333072189423,0.00156629288418603,0.0349009706804999,-2.66224358204109,-0.000269593637182247,0
0.42,0.000608586908481377,0.000349560104795293,-0.0302436443405594,-0.0174861217988107,-2.94829495448913e-05,-0.000701213981410489,0.00156699463739682,0.0348996705767757,-2.66224533022502,-0.000257796408194098,0
0.43,0.000608459367656682,0.000349559723412949,-0.0302422638768174,-0.0174861079256611,-2.95425994914767e-05,-0.000701100589884927,0.00156767706222671,0.0348984366900796,-2.66224699403382,-0.00024656856454932,0
0.44,0.000608337938633683,0.000349559360353337,-0.0302409469197491,-0.017486092576574,-2.95993902809653e-05,-0.000700992631977475,0.00156832608190881,0.0348972585957752,-2.66224857753975,-0.000235882626630159,0
0.45,0.000608222388586821,0.000349559014772696,-0.0302396935167556,-0.0174860786626152,-2.96534313110757e-05,-0.000700889900625337,0.00156894439335771,0.0348961376727143,-2.66225008461841,-0.00022571243998088,0
0.46,0.000608112593257573,0.000349558685838709,-0.0302385085747367,-0.0174860502308938,-2.97047817830782e-05,-0.000700792285105191,0.00156951570779734,0.0348950709118744,-2.66225151895884,-0.000216033112209607,0
0.47,0.000608007869832602,0.000349558372752808,-0.0302373685376507,-0.0174860348268639,-2.97537584003654e-05,-0.000700699179106856,0.001570075453142,0.0348940501105768,-2.66225288407126,-0.000206820952282268,0
0.48,0.000607908326891892,0.00034955807475318,-0.0302362889069249,-0.0174860208597345,-2.98003127898506e-05,-0.000700610678542139,0.00157060631274824,0.0348930836725626,-2.6622541832975,-0.000198053412585006,0
0.49,0.000607813498771568,0.000349557791113908,-0.0302352559940143,-0.0174860068760783,-2.98446613301806e-05,-0.000700526369815909,0.00157111342136311,0.0348921587768806,-2.66225541981694,-0.000189709033748193,0
0.5,0.000607723327261322,0.000349557521143983,-0.0302342759822003,-0.0174859914205514,-2.98868324059304e-05,-0.000700446200885291,0.00157159274193474,0.0348912802341925,-2.66225659665663,-0.000181767392128056,0
0.51,4.26510510985755,0.0285126973674634,2.35660542821163,-1.42254153994156,-0.198673015196312,4.26057080742439,-1.54602768226603,2.2775012585733,0.0532818663715848,16.4604522259891,448.567063422142
0.52,4.13410567764508,-0.000351136988221368,1.01590066873314,0.0256401809394515,-0.98487129438461,4.01507887976459,-0.21703254015461,0.992778154536594,0.240458855386995,34.5075612159911,448.567063422142
0.53,3.93349898537924,0.0277772102478396,3.35107732980116,-1.37778311614269,-2.05941699600746,3.35141574233103,-2.94330422226601,2.11304657795947,0.558068626290075,52.1004781421434,448.567063422142
0.54,3.7972889630804,-0.0155697048361063,2.41998296627313,0.794674113412303,-3.21276291596431,2.02430243062775,-1.61576150723308,1.96904526492501,1.00445105895935,69.7650764377367,448.567063422142
0.55,3.62710579343957,-0.00554266774762557,2.86641514117594,0.293187719622521,-3.62679447733665,-0.0478432558362342,-2.8696394889751,0.259738337206651,1.5824590480992,87.9471851658123,448.567063422142
0.56,3.47026280806905,-0.00687990267218574,3.3366179537419,0.362755217215554,-2.60874756281585,-2.28849458020561,-2.75131378649371,-1.92220788810667,2.28891038496975,104.39469383051,448.567063422142
0.57,3.32194267556322,0.0139388905439291,4.22635148933844,-0.674979493853051,-0.122271402167738,-3.31972094258081,0.536784637205508,-4.2461166354465,3.10897344488446,119.208302062011,448.567063422142
0.58,3.16749157504562,-0.00966223704967734,5.37305949724774,0.508577898559318,2.4785183718392,-1.97231917226025,3.87621004952871,-3.75545143648533,-2.24600028770549,134.26838444378,448.567063422142
0.59,3.03768482100123,0.00481640818892592,5.16354265440519,-0.218251680299629,2.83888723793379,1.08086609708408,4.74471434635754,2.04877824844085,-1.20542093725084,149.160414200006,448.567063422142
0.6,2.94555216643663,0.0467174162481954,3.97112294579343,-2.30932048931735,0.23355522509971,2.93664979849642,-2.05264819930437,4.10967321606969,-0.063505134368004,162.339767813568,448.567063422142
0.61,2.8736802304066,0.0192521964339282,1.40314945852947,-0.939073489648483,-2.64675495351638,1.11941812104939,-1.65594850200445,-0.329426745485745,1.177371336584,176.224538201618,448.567063422142
0.62,2.74636645604015,-0.00544188917383437,2.31499345416605,0.301924124641336,-1.60653444369877,-2.22746614031051,-1.60243792252348,-1.69780610622377,2.51477290273229,188.473133556954,448.567063422142
0.63,2.63596785857524,0.0114694904068955,2.21547557587995,-0.549017038672267,1.88465294878828,-1.8429707982699,1.9728580154918,-1.14786017736605,-2.34066187117995,201.160090452291,448.567063422142
0.64,2.53335763693439,0.0155600971351567,2.31350373027636,-0.746952564810196,1.86991270922855,1.70925992555322,1.19064639893296,2.11957514535039,-0.824111501313836,212.449075111464,448.567063422142
0.65,2.397112787584,0.0401798493626351,3.9149215572866,-1.9846490504519,-1.65109407234141,1.73829010840325,-4.15922902765436,1.40223270133181,0.776437817634518,224.120847729427,448.567063422142
0.66,2.3606554054708,0.00155570485583501,1.11184086510764,-0.0445767242331451,-1.49305490605149,-1.82851945877305,-0.668096542518173,-0.889845044680211,2.45750784836953,234.615558575883,448.567063422142
0.67,2.19736928176116,-0.00242511480566658,4.549132277987,0.150199976864224,1.93455271728266,-1.04208609321094,3.93126992475929,-2.29396628012626,-2.06600316411642,245.087458384462,448.567063422142
0.68,2.12692143168381,-0.00199645320169983,3.56332179491713,0.123966164829142,0.488515615972832,2.07006068880407,0.942310800204142,3.4387032701256,-0.232689512691543,255.246306706273,448.567063422142
0.69,2.01796058549072,-0.0212496177816054,4.87410135460649,1.09547212518906,-2.00537800283569,-0.225998974760211,-4.96013038171976,0.595004023838193,1.67248942123664,264.541121562165,448.567063422142
0.7,1.98735238068775,-0.0031307933407041,2.23229220642134,0.186507399099206,0.96453782812542,-1.73759778573964,0.917128229092726,-2.04371948079218,-2.63641887642061,273.774564541669,448.567063422142
0.71,1.86690420981269,-0.00112849035967505,4.23943894587777,0.0803834051201503,1.04793511568142,1.54504517585364,2.44830971259091,3.46194795149739,-0.596587138717448,282.749037420121,448.567063422142
0.72,1.79256153924423,0.0142693732772931,4.23006482825827,-0.692405312915652,-1.78791894995722,0.129716288010518,-4.26588314237726,-0.418466945173665,1.50633183251146,291.159498035592,448.567063422142
0.73,1.71588891169517,-0.012172273170502,4.48553411825166,0.640270616797045,0.875726841874177,-1.47564406952817,1.70885851223229,-4.19639909611855,-2.61309404816763,299.092910613216,448.567063422142
0.74,1.67029742052429,0.0119261698609063,3.22820468602088,-0.56751964187207,0.647489435050048,1.53973800954455,0.705396716141555,3.20090604542128,-0.390929251628257,306.903911174109,448.567063422142
0.75,1.63573027335229,0.0014945621846983,1.54832653928516,-0.0493016585971179,-1.55508774850543,-0.507265074024992,-1.45622110944231,-0.528361435203026,1.88702425442864,314.464947690449,448.567063422142
0.76,1.5707753918921,0.0218322834917896,1.54598815948023,-1.07067619597021,1.37273833924014,-0.763807195800401,1.8687869727233,0.209909876970995,-2.06465039787307,321.694865528432,448.567063422142
0.77,1.48041568936321,0.0161228667600173,2.97235261879754,-0.788104788919065,-0.448027907219537,1.41108523998297,-1.67879756773137,2.57635944219144,0.318329232953177,328.582676719716,448.567063422142
0.78,1.37464511337311,-0.016368205208987,5.31130506862637,0.835800340191958,-0.508548921028211,-1.27722163338372,-2.79616157490645,-4.59238545722131,2.75075983096799,335.148076220664,448.567063422142
0.79,1.39289356680426,0.00948721463294988,1.54559492854388,-0.445631790314191,1.2145963922967,0.681907691338084,1.12173432902238,1.15289352100353,-1.05241098586223,341.432608283006,448.567063422142
0.8,1.3113915068052,0.0232898846163838,2.86383155766382,-1.1370149336684,-1.30287534332938,0.15101636530727,-2.96103066324171,-0.852426865718389,1.47315901327046,347.481100738953,448.567063422142
0.81,1.21975773809235,0.0587779643204014,4.79461846247947,-2.91449806407272,0.919517881888237,-0.803586120844298,5.56794139052904,-0.693320876554409,-2.24086398633777,353.302660370838,448.567063422142
0.82,1.19399561943157,0.00827307288135098,3.53111277315196,-0.38873218315509,-0.42421059075628,1.11612694513074,-1.63977256538664,3.15135146575922,0.370140268075,358.898688051646,448.567063422142
0.83,1.17271559562376,0.0497506203812152,2.14585081431645,-2.46483103240437,-0.190152110233279,-1.15826558587456,2.18944423116916,-2.42619077860878,3.02127244856251,364.271265487758,448.567063422142
0.84,1.11195859654955,-0.00241445814850172,2.8246175658387,0.143325318580205,0.600118650903254,0.936117169421998,1.6500803245611,2.29700706631194,-0.57224478284315,369.42642252073,448.567063422142
0.85,1.08149753360416,0.0451067908285924,2.09812333590289,-2.2349738300583,-0.927411994783374,-0.558192197816001,-0.519655931022975,-3.0211235107255,2.15428175038496,374.347618373665,448.567063422142
0.86,1.03452084617047,0.024854596011662,2.28175895681319,-1.22267763063247,1.01814858645524,0.184998886492208,1.98714143770562,1.65910621480346,-1.3670354004805,379.07863630797,448.567063422142
0.87,0.952918883004125,0.0138842450348098,4.28424160298829,-0.675202410333686,-0.94135428086397,0.148658291881395,-4.33668078882776,-0.0618396596716601,1.4287393878365,383.604580074138,448.567063422142
0.88,0.942652547648469,0.00986991401929088,2.80516381460845,-0.473961859014033,0.842245046319338,-0.423455455439452,2.72774187995533,-0.808089170157857,-2.02618741754163,387.937512643749,448.567063422142
0.89,0.881739822340198,0.0345738749868651,3.9293117319093,-1.71041616811056,-0.629311174945506,0.618569246100094,-4.05830269884211,1.37666021923526,0.833196984693517,392.103586421209,448.567063422142
0.9,0.885008668645116,0.00464622349110205,1.92019863149404,-0.212121162989248,0.481806653823423,-0.742377450695538,1.23112431333388,-1.48878846626969,-2.5606673757521,396.105500537081,448.567063422142
0.91,0.845602838224575,0.00292848435707926,2.12473225390753,-0.126074504274881,-0.293011643827201,0.793219334494419,-0.861250827412103,1.94644006938439,0.357311273112644,399.922232438378,448.567063422142
0.92,0.760260825061043,-0.00218041602860905,4.69293775339857,0.128496544328297,0.124136344273513,-0.750060960433859,0.62615216049072,-4.65275290458141,-2.98044567294089,403.585945198544,448.567063422142
0.93,0.771932739387363,0.000140744086608635,2.4689693390072,0.0130336189465446,0.0068682273702521,0.771902196783872,0.0345504949796359,2.46876198437135,-0.00871523314266474,407.117916119008,448.567063422142
0.94,0.693888317254264,0.0335313678247767,4.79989399396135,-1.66108900813361,-0.139114990168513,-0.68062645332118,0.908517253434165,-4.99727880415141,2.98826336426689,410.496138448874,448.567063422142
0.95,0.722116729216383,0.0102796836029267,1.87184580260644,-0.509397340043,0.205141571738207,0.692441461824696,0.0156822730430738,1.9398573208075,-0.273786045986386,413.742363347517,448.567063422142
0.96,0.666257811388105,0.0201633304150148,3.19989413632895,-1.00540713457967,-0.26040884916245,-0.613590467989017,-0.223475696441022,-3.34667366247089,2.7704831864823,416.849060606537,448.567063422142
0.97,0.630834810999442,0.00332197008753871,3.57098132660947,-0.162491773458767,0.27523356552999,0.567635515678514,1.39447546953718,3.29146614387789,-0.446210464893862,419.807431016564,448.567063422142
