t,iq,id,vq,vd,ia,ib,va,vb,theta_e,omega,r
0,0,0,0,0,0,0,0,0,0,0,0
0.01,0.000796994869144232,0.000456032741883363,-0.0392696127267793,-0.0228318236871573,-0.000910416993742906,0.000119614299379377,0.0449955308045943,-0.0062287128851367,1.95988064644532,-0.00142853022500663,0
0.02,0.000882136454383324,0.000504757822358899,-0.043543696562074,-0.0252712893701296,-0.00100767684451533,0.000132410575152089,0.0498754726381686,-0.00686504230417385,1.95986994245365,-0.00154166419150996,0
0.03,0.000914533204432796,0.000523285914830127,-0.0451442499315987,-0.0261989318425389,-0.00104467905839376,0.000137276347646808,0.051708207234478,-0.00711678552247585,1.95985887762224,-0.00155662587639378,0
0.04,0.000895627819231993,0.000512645429159103,-0.0442313341412512,-0.0256661888005759,-0.00102314899534143,0.000134613000678951,0.0506613644642702,-0.00697067558276825,1.9598484105471,-0.00147991047203023,0
0.05,0.000914597074063716,0.000523531545873763,-0.0451734981230639,-0.0262112205927001,-0.00104482844688851,0.000137501287206405,0.0517397818088056,-0.00711814554577478,1.95983792412354,-0.0014725721573037,0
0.06,0.000915031859689165,0.000523874462107967,-0.0452075653622699,-0.0262283921804508,-0.00104535939992616,0.00013766437912961,0.0517777435202554,-0.0071216429499163,1.95982767334002,-0.00143219198493522,0
0.07,0.000940045653726043,0.000538315122451759,-0.0464449809813255,-0.0269513774262829,-0.00107397992184324,0.000141549036122023,0.0531968461782485,-0.00732178668204746,1.95981781507182,-0.0014384614052442,0
0.08,0.000915509810427009,0.000524338956895009,-0.045255393260498,-0.0262516416872212,-0.00104597511042527,0.000137933400874089,0.0518306761504025,-0.00712603116949962,1.9598080567477,-0.00135426824024514,0
0.09,0.000914540498083616,0.000523893983286052,-0.0452196047836751,-0.026229357853297,-0.00104490816013018,0.000137899112584971,0.0517890431557356,-0.00711947183444426,1.9597986744099,-0.00131480147953808,0
0.1,0.000914345047523016,0.000523877972080404,-0.0452213726581929,-0.0262285695873313,-0.00104471998345854,0.000137967937301875,0.0517903151753252,-0.00711854351178074,1.95978956954563,-0.00127786892836705,0
0.11,0.000914179882553939,0.000523875613554656,-0.0452242913097074,-0.0262284376041024,-0.00104456504326786,0.000138037627212358,0.0517929028153013,-0.00711777223450707,1.9597807311804,-0.00124206202299514,0
0.12,0.000914020230001699,0.000523873741804185,-0.0452271569653234,-0.0262283507261142,-0.00104441542287563,0.000138105404180307,0.0517954603822236,-0.00711704944282138,1.95977215142283,-0.00120730427329596,0
0.13,0.000957704560101773,0.000548951983525085,-0.0473775161057411,-0.027483929682928,-0.00109434589091572,0.00014475280892523,0.0542612858276224,-0.00746379819521852,1.95976352007016,-0.00125274031004427,0
0.14,0.00100679006625151,0.000577418362426762,-0.0498891275191477,-0.0289091368496598,-0.00115055888521376,0.000152487554987249,0.0571257030652158,-0.00783053557037653,1.95975516542285,-0.00130919281473586,0
0.15,0.000916590363268939,0.000525565641383261,-0.0453843753677977,-0.0263130721280655,-0.00104743170911648,0.0001387225727033,0.0519728844945845,-0.00713712614814392,1.95974698793664,-0.00111093514821585,0
0.16,0.000913509794947126,0.000523920447237532,-0.0452429583470253,-0.0262306981492725,-0.00104395629732653,0.000138376406118248,0.0518107384987973,-0.00711492667552927,1.95973938420026,-0.00107474170166209,0
0.17,0.000913276798872929,0.000523866754459026,-0.0452407215738003,-0.026228003997359,-0.00104371932257389,0.000138422770789056,0.051807594709572,-0.00711366379668897,1.95973201386154,-0.00104470759352664,0
0.18,0.000913140778550287,0.00052386355344705,-0.0452429650026405,-0.0262278357647103,-0.00104359125664443,0.000138478854475695,0.0518095559017426,-0.00711302807494663,1.95972485953039,-0.00101571873552183,0
0.19,0.000913011318437497,0.000523861996670652,-0.0452452680083337,-0.0262277678877775,-0.00104346991272976,0.000138533751766473,0.0518116117761116,-0.00711245180529007,1.95971791454171,-0.000987583505761433,0
0.2,0.000912885874653747,0.000523860534507225,-0.0452475141237645,-0.0262277029311244,-0.00104335234853468,0.000138586999980887,0.0518136175717275,-0.00711188930976531,1.95971117275946,-0.000960271671459242,0
0.21,0.00091276428988375,0.000523859116599824,-0.0452497031552096,-0.0262276162226492,-0.00104323839863447,0.000138638618524277,0.0518155637110816,-0.00711131813801072,1.95970462823707,-0.00093375896906143,0
0.22,0.00091264606384562,0.000523857740149055,-0.0452518173290729,-0.0262275512883069,-0.00104312759830194,0.000138688800657429,0.0518174502102475,-0.00711078560168113,1.95969827520337,-0.000908022010907781,0
0.23,0.00091253133026529,0.000523856403899304,-0.0452538705268301,-0.0262274863628762,-0.00104302007007644,0.000138737500481289,0.0518192816204261,-0.00711026658550365,1.9596921080553,-0.000883038099061126,0
0.24,0.000912419972727436,0.000523855106676873,-0.0452558637595651,-0.0262274214455704,-0.00104291570508639,0.000138784766842527,0.0518210588375179,-0.0071097609851804,1.95968612135381,-0.000858785199888495,0
0.25,0.000912311874816738,0.000523853847343682,-0.0452577979475122,-0.0262273565361601,-0.00104281439449239,0.000138830648445799,0.0518227826747445,-0.00710926872321627,1.95968030981957,-0.00083524192445,0
0.26,0.000921440148399101,0.000529123418751739,-0.0457118672161594,-0.0264911778139507,-0.00105325828821902,0.00014025162263313,0.0523429369933874,-0.00718152165382941,1.95967470208291,-0.000829454972557111,0
0.27,0.000889927071508765,0.000511088226085405,-0.0441753455327529,-0.0255882437648668,-0.00101725932227941,0.00013551693135153,0.0505787529138417,-0.00692886178162831,1.95966910419532,-0.000749179561602341,0
0.28,0.000885446081270444,0.000508485458025549,-0.0438719376125405,-0.0254579252149089,-0.001012125349215,0.000134812838175919,0.050248551709487,-0.0069235769097736,1.95966377207458,-0.000719542898948193,0
0.29,0.000911043402322624,0.000523362139640437,-0.0452225246188487,-0.0262027335023524,-0.00104145120231618,0.000138879096046837,0.0517806537917129,-0.00710097660892157,1.95965871311579,-0.000746161250784614,0
0.3,0.000906766438338448,0.000521010557647848,-0.0450187182382492,-0.0260850072504205,-0.0010366013524189,0.000138329357118513,0.0515473969144795,-0.00706954499317128,1.95965415466395,-0.000720006869496949,0
0.31,0.000911569748758294,0.000523757180208693,-0.0452600174342966,-0.0262225278648884,-0.00104208671705325,0.000139054898556678,0.051822785282132,-0.00710556622513137,1.95964929724555,-0.000709303205902605,0
0.32,0.000911641575689427,0.000523843248835015,-0.0452694181545346,-0.0262268249483975,-0.00104218515420257,0.00013911224329758,0.0518330796922617,-0.00710622378902062,1.95964456377366,-0.000690420217345263,0
0.33,0.000911561283884342,0.000523845013323063,-0.0452711958649868,-0.026226918578449,-0.00104211088597494,0.000139149105612796,0.0518347275324309,-0.00710587466855701,1.9596399682068,-0.000671812542295556,0
0.34,0.000911478372580754,0.000523844133731976,-0.0452726773642464,-0.0262268812645541,-0.00104203320978215,0.00013918437354446,0.051836052590492,-0.00710550972330025,1.95963550708412,-0.000653740268181915,0
0.35,0.000911397847783521,0.000523843197666992,-0.0452741128615456,-0.0262268381306287,-0.00104195773841475,0.000139218547773054,0.0518373338058513,-0.00710515007800083,1.95963117649002,-0.000636196481550806,0
0.36,0.000911319901424482,0.000523842286351142,-0.0452755166738433,-0.0262267732696593,-0.00104188467976375,0.00013925163473187,0.0518385783688717,-0.00710477578224187,1.95962697260644,-0.000619166004870148,0
0.37,0.000911243975026692,0.000523841401584475,-0.0452768655529079,-0.0262267272278907,-0.00104181351723064,0.000139283851727176,0.0518397801115134,-0.00710443336038965,1.95962289172598,-0.00060263382835667,0
0.38,0.000911170202315185,0.000523840542672159,-0.0452781707471505,-0.0262266840969645,-0.00104174437381475,0.000139315151220063,0.0518409433855501,-0.00710410401291232,1.95961893024906,-0.000586585372383831,0
0.39,0.000911098507777972,0.000523839708861518,-0.0452794329068926,-0.0262266626876022,-0.00104167717888906,0.000139345564827513,0.0518420758986625,-0.00710380508012199,1.95961508468262,-0.000571006483619887,0
0.4,0.000911029042432136,0.000523838899420634,-0.0452806638956137,-0.0262266195546563,-0.00104161207146776,0.000139375038201539,0.0518431721344944,-0.00710349203739975,1.95961135163478,-0.000555883422841364,0
0.41,0.000910961672561269,0.000523838113637492,-0.0452818612038993,-0.0262265764211538,-0.00104154892710535,0.000139403624847471,0.0518442379824938,-0.00710318610754149,1.95960772781367,-0.000541202852824438,0
0.42,0.000910896281750048,0.000523837350821481,-0.0452830230736128,-0.0262265332873207,-0.00104148763738587,0.00013943137162821,0.0518452717928934,-0.00710288812225682,1.95960421002317,-0.000526951826582868,0
0.43,0.000910832869998474,0.000523836610302167,-0.0452841533859943,-0.0262264901530276,-0.00104142820163906,0.000139458281193152,0.0518462771349286,-0.00710259677028674,1.95960079516093,-0.000513117775950894,0
0.44,0.00091077107076176,0.000523835891428095,-0.0452852376952562,-0.0262264687327145,-0.00104137028002627,0.000139484495062355,0.0518472488508785,-0.00710233777702679,1.95959748021539,-0.000499688500499337,0
0.45,0.000910711267883926,0.000523835193567443,-0.0452862988248925,-0.0262264255963409,-0.00104131422710985,0.000139509870221482,0.0518481915763003,-0.00710206245291654,1.95959426226309,-0.000486652156775158,0
0.46,0.000910653077521568,0.000523834516106673,-0.0452873212144351,-0.0262264041706554,-0.00104125968707984,0.00013953455459707,0.0518491073538576,-0.00710181702877153,1.95959113846593,-0.000473997247856458,0
0.47,0.000910596767102151,0.000523833858449683,-0.0452883217761758,-0.0262263610316023,-0.00104120690680709,0.000139558449161593,0.0518499953528945,-0.00710155505274771,1.95958810606889,-0.000461712613213887,0
0.48,0.000910541836368185,0.000523833220018494,-0.0452892788336263,-0.0262263396010657,-0.00104115542278941,0.00013958174582624,0.0518508519555538,-0.00710132506111503,1.95958516239792,-0.000449787418867303,0
0.49,0.000910488901991863,0.000523832600251424,-0.0452902265341929,-0.0262262964590542,-0.00104110580511205,0.000139604213039931,0.0518516922829892,-0.00710107406431635,1.95958230485708,-0.00043821114783279,0
0.5,0.000910437230886287,0.000523831998602899,-0.0452911313785205,-0.0262262750228681,-0.0010410573748511,0.00013962613083637,0.0518525017759286,-0.00710085506814798,1.95957953092592,-0.000426973590844848,0
0.51,3.34568479191085,-0.0300460745714541,5.5695113372112,1.50670459826672,-0.240213196655723,3.3371855078154,1.15376633510285,5.65317950588388,0.0628765388237649,19.2517115377425,454.726133361326
0.52,3.17034741222493,-0.0186345899875729,7.14770386687063,0.937701455912704,-0.89645989225027,3.04102114818887,-1.07976793788687,7.12762623804094,0.280791616424529,40.0455473631292,454.726133361326
0.53,3.05132450860318,-0.0383398015464845,6.16336426714636,1.92661519939049,-1.87303749646478,2.40910392760919,-2.18588152573852,6.0762510787075,0.648295202519001,60.1126060597372,454.726133361326
0.54,2.95009318071189,0.0214708632898497,4.42740033479712,-1.06565926010288,-2.6973232024911,1.19497209764763,-4.48543355072065,0.786377291937032,1.16103877958749,79.7436876612027,454.726133361326
0.55,2.77370244092146,-0.0119007992393889,6.40310279276361,0.607008022160614,-2.68678577787999,-0.689020350626891,-6.35742806803101,-0.975342234026579,1.81754370147939,99.4316701062497,454.726133361326
0.56,2.6272797573398,-0.0256511626380951,6.71607532127216,1.29299790873634,-1.28705704277974,-2.29057658114791,-4.46793412844701,-5.17832752313485,2.61990196657333,119.27797304485,454.726133361326
0.57,2.55049723017158,0.0157943019607512,4.33116927144594,-0.780523578544913,1.02227268143382,-2.33671653092142,2.4736310670951,-3.63997165627482,-2.72300431044218,136.883488857721,454.726133361326
0.58,2.40110718861872,0.0154722758580071,6.27214358928581,-0.761701821926019,2.38999415991776,-0.2312640009074,6.3152229797462,0.194765464674841,-1.6608157054428,152.72698917482,454.726133361326
0.59,2.30168864845186,0.0464521376380277,5.86678192389602,-2.30998822379165,1.11335044887808,2.01503826601042,0.689031113215751,6.26740870389269,-0.484597440591438,168.241504219657,454.726133361326
0.6,2.19646483020189,0.0446331709987914,5.44153237033161,-2.22422224126871,-1.55697553399296,1.54992808117492,-5.47050287653291,2.15198452451831,0.807984141523472,184.417333378311,454.726133361326
0.61,2.13053191329495,0.00126632266043092,3.67377376117987,-0.0499271223268172,-1.7063006438067,-1.27581579786667,-2.91102236701302,-2.24166347711413,2.21342374482637,198.697162217749,454.726133361326
0.62,2.01973312567538,0.0476858874986319,4.60219013093067,-2.36995450762902,1.06157089218288,-1.71891334385623,4.49643983675876,-2.56493024542104,-2.56473941350603,211.952939477478,454.726133361326
0.63,1.91036907441085,0.0290038511694634,5.15490686089742,-1.4415972296708,1.58149703231996,1.07201602628468,3.39570282086544,4.1376889285552,-0.959910915161341,225.898400618132,454.726133361326
0.64,1.8675606391657,0.00275217659526898,2.95912321407259,-0.122445554747544,-1.25970783049077,1.37874091011954,-2.08947859985769,2.09892407930289,0.741787610505407,238.122939557024,454.726133361326
0.65,1.80848048311152,-0.0120748179472147,1.75699964315615,0.623656915080186,-1.02771173820248,-1.48813844859427,-1.51886218553565,-1.08122770734386,2.53052512354913,250.080926717848,454.726133361326
0.66,1.66515028428013,0.0367344152036349,4.68634859652792,-1.82700204841094,1.57788231586846,-0.533256302136341,5.01830616186538,0.341178719824257,-1.874645209496,261.911668091929,454.726133361326
0.67,1.6236678170269,-0.0462503419331349,3.07407487173645,2.3346872386397,-0.181845069733159,1.61411543725707,2.06948541380138,3.25851667808711,0.0837088402570493,272.433601866384,454.726133361326
0.68,1.50020750480957,-0.0263002741346864,5.34794981004512,1.32696785177067,-1.26457895473377,-0.807560727840924,-5.25153058640399,-1.66818384791899,2.12158674286962,283.364406576725,454.726133361326
0.69,1.44567253543552,0.0475317135027287,4.70420554284957,-2.36186834327998,1.26146493293693,-0.707767310965606,5.26338270553354,-0.0690967108854008,-2.04923035562038,292.922740664653,454.726133361326
0.7,1.37494798663448,-0.0019663797118839,4.71937640967413,0.107625260132867,-0.186404771255474,1.36225515005544,-0.526475643713947,4.69115340714662,0.134560719470953,302.806843007434,454.726133361326
0.71,1.30268329983324,0.0548235370773116,5.261081185254,-2.72716079012932,-0.933025785508718,-0.910742709802239,-1.62165641601842,-5.69970277132402,2.38616972854422,311.49504037502,454.726133361326
0.72,1.25959894982209,-0.0459316070397997,4.19523244234441,2.30887452215903,1.25997633649615,0.0340420091638619,4.17325544510649,-2.34836449348544,-1.5802340361497,320.482731256334,454.726133361326
0.73,1.1947736374912,0.0323349372518742,4.60334733733427,-1.60100361728323,-0.83306225953513,0.857051261447797,-4.41408544484838,2.06636612832145,0.798262440993318,328.486139853881,454.726133361326
0.74,1.18862559487731,0.0597545473142329,1.99311573029982,-2.98130691594769,0.0534607893367517,-1.18892529400533,3.15720596789953,-1.70080913617776,-3.04642759884176,336.560284091188,454.726133361326
0.75,1.06004064441803,-0.0354248882963266,5.81166946054184,1.78888635672325,0.526360355821596,0.920807181959591,4.5736047100319,4.00721303055369,-0.552703404640692,343.973812899482,454.726133361326
0.76,1.04673068833949,-0.032735828441006,3.86691978299777,1.65172915804664,-0.94003492589949,-0.461574594691392,-4.20394043403235,-0.0903473673598432,1.99596883577683,351.144930022411,454.726133361326
0.77,0.995680350060657,0.032186954997824,3.95641277153892,-1.60657126897556,0.985034092950057,-0.148738681233241,4.11752833184082,1.13147412590045,-1.68834732875946,358.067040943294,454.726133361326
0.78,0.905483498138594,0.0401348980675248,6.19122843095636,-1.99420844368033,-0.718620966179573,0.55235412772182,-6.21508535101305,1.91856479712083,0.95977309293968,364.327383063233,454.726133361326
0.79,0.864901646536242,-0.0129479482397353,5.92069207717386,0.654703173474748,0.435461156195048,-0.747392861211554,2.33314998705483,-5.48084318841301,-2.62900479789575,370.68737465993,454.726133361326
0.8,0.872911782602978,0.0252440399763237,3.44223612996497,-1.25231471291232,-0.0701650179288494,0.870453394513732,-1.62047675573568,3.28501701650589,0.109344821930297,376.529398679443,454.726133361326
0.81,0.812124820541702,0.012773650044041,4.42069704244874,-0.627242563744408,-0.214083058345076,-0.783503882826983,-0.490393065308312,-4.4379623946565,2.89059264932528,382.130622414437,454.726133361326
0.82,0.744552033255096,0.0166838179705954,5.80033239758496,-0.832178687754323,0.416582391946404,0.617329078147617,2.43592549968263,5.32941312442769,-0.571217861770464,387.642374275745,454.726133361326
0.83,0.661702326018677,-0.0343402958265216,8.14086453789899,1.73333311455806,-0.47594486866244,-0.46098341203331,-7.27309541032502,-4.04724625674716,2.28837684343022,392.614832030797,454.726133361326
0.84,0.718980961603224,-0.00822231409454083,3.46601259335172,0.422017641303217,0.636411895753082,0.334635814791146,3.27813728194241,1.20214730694,-1.09814510477223,397.541852840814,454.726133361326
0.85,0.669167469046978,-0.0265760733752343,4.21927697559556,1.33250456808669,-0.639328074235552,-0.199376535231818,-4.4205411632478,0.191526616412721,1.83339760366848,402.29968721534,454.726133361326
0.86,0.698389330611831,-0.0295729762347152,1.17216473275946,1.49561674975193,0.693271833100483,0.0894224997711225,1.296239854642,-1.38946099697014,-1.48483766278683,406.650006729181,454.726133361326
0.87,0.577043772908305,-0.0438322615774982,5.65199408023371,2.20401573956043,-0.578620453954027,-0.00995757366456914,-5.5131934283635,2.53128834483085,1.51218935329899,410.912080280486,454.726133361326
0.88,0.532290644073061,0.0105107342529832,6.37428887525578,-0.525507808182998,0.522518815902277,-0.102068076940505,6.3695023793305,-0.580651841789881,-1.74396208287953,415.033328875435,454.726133361326
0.89,0.50442272172508,-0.00411837004365267,6.3759757666101,0.212673438234503,-0.488682867822731,0.125093156730913,-6.10928114638482,1.83711209297546,1.31203283260431,418.805701747599,454.726133361326
0.9,0.496526249525034,0.0367938282179838,5.4207156857031,-1.8317613264839,0.460345316198738,-0.1896689012891,5.7216121305438,0.051601647684532,-1.88764955936961,422.394901107306,454.726133361326
0.91,0.488554476193887,-0.0109200092238362,4.49284190990766,0.549355195710627,-0.462839300793334,0.156794465628318,-4.03417527222403,2.05252269937585,1.22181593765207,425.935580864584,454.726133361326
0.92,0.493925937872325,0.0292657330718703,2.99850391574177,-1.46729016793138,0.452676794217247,-0.199757440943976,3.32201535413339,0.328907519720722,-1.92719343219587,429.242729560227,454.726133361326
0.93,0.411814155728357,0.0103618228003216,5.9457556092021,-0.507411969799358,-0.384776922172286,0.147122351781188,-5.77452992744162,1.50475273335353,1.23074697477746,432.312723682633,454.726133361326
0.94,0.423292444419099,0.0546898290702903,4.21993574573959,-2.73196502861496,0.38801645373337,-0.177793989038475,4.8404050085231,1.35719194265602,-1.87196949056311,435.324970936937,454.726133361326
0.95,0.401751609421494,0.0280110969561277,4.21391267424236,-1.40387020586705,-0.383443013993645,0.123127707056193,-4.42723270901832,-0.357102396043384,1.32969583038501,438.191148418672,454.726133361326
0.96,0.38403506913124,0.0134261167340318,4.08589336166692,-0.673658102205137,0.376928070549563,-0.0747557660985149,4.14104180445342,0.010610153136094,-1.73163821793404,440.884836260661,454.726133361326
0.97,0.402506690155828,0.0314375858811256,2.19917742368546,-1.56330249312812,-0.399831318573338,0.0559899465452394,-2.29065034719274,-1.42590918812321,1.5096133816847,443.390676815829,454.726133361326
