t,iq,id,vq,vd,ia,ib,va,vb,theta_e,omega,r
0,0,0,0,0,0,0,0,0,0,0,0
0.01,0.000552905039341891,0.000306943411465857,-0.026644251497457,-0.0153612498157484,0.000605270424086596,-0.000183210136449893,-0.0292880873530628,0.00938573774196425,-1.35793441168912,-0.00346150828843488,0
0.02,0.000628148122683049,0.000347932272837096,-0.0304534743227369,-0.0174125725269533,0.00068746921840634,-0.000207395767207536,-0.0334444249387549,0.0105868891015251,-1.35795999041042,-0.00353580040073895,0
0.03,0.000655557227457545,0.000364116324608931,-0.0318629067035836,-0.0182225267725463,0.000717673123420652,-0.000217442553880756,-0.0349928714676849,0.0110817079921608,-1.35798455035274,-0.00330032616088229,0
0.04,0.000637846719684039,0.000355960917969562,-0.0311129127191766,-0.0178143785169301,0.000698635145378781,-0.000213226514709103,-0.0341733628660264,0.0108418951407237,-1.35800568992777,-0.00281502401859875,0
0.05,0.000651412143780776,0.000364774268887862,-0.0318407932624142,-0.0182554468507767,0.000713751692725031,-0.000218989884332346,-0.034977762030431,0.0111199648670253,-1.35802482952336,-0.00257818215054493,0
0.06,0.000650548942040105,0.000365500278119453,-0.0318737257005133,-0.0182917755695154,0.00071305752172991,-0.000219893951711491,-0.0350174334109216,0.0111491165940962,-1.3580418660062,-0.00227883399780324,0
0.07,0.000663529483638862,0.000374054865759134,-0.032554294377155,-0.0187199054187325,0.000727548412239096,-0.000225525444472478,-0.0357728907530126,0.0114244137028463,-1.35805652659414,-0.00211513859421102,0
0.08,0.000648168857265979,0.000366263368309116,-0.0318822257982264,-0.0183299697512114,0.000710886030125765,-0.000221162326508505,-0.0350334931302377,0.011185636862647,-1.3580698982624,-0.00177971237200598,0
0.09,0.000645284642854309,0.000365617841491748,-0.0317949028091597,-0.018297661757564,0.000707928006111722,-0.000221148399233139,-0.0349411893439251,0.0111728938807324,-1.35808136413225,-0.00156248421831784,0
0.1,0.000643756165063933,0.000365563093027267,-0.0317657072732187,-0.0182949239408092,0.000706420202983065,-0.000221424641489716,-0.0349119619383355,0.0111767309256342,-1.3580913766035,-0.00137956788691342,0
0.11,0.000642512383026814,0.000365557342840964,-0.0317446071897809,-0.0182946427797907,0.000705201295479407,-0.000221687767145389,-0.0348911800692795,0.0111812160987411,-1.35810013730988,-0.00122016040195942,0
0.12,0.000641432746762516,0.000365555794031338,-0.0317265596119918,-0.0182945637295568,0.000704143960077601,-0.000221919558974468,-0.0348734367438548,0.0111852159809474,-1.35810780439283,-0.00108071262700804,0
0.13,0.000670280744433514,0.000382155271257637,-0.0331296845139216,-0.0191252964218781,0.000735844174604986,-0.000232060936842568,-0.0364202169310387,0.0117013143668889,-1.35811517180876,-0.00115121286311725,0
0.14,0.000691782051184278,0.000395249142018519,-0.034308065362633,-0.0197805955094094,0.000759623320036041,-0.000240326241314852,-0.0377102891736143,0.0120933617359257,-1.35812173342573,-0.00118532169585575,0
0.15,0.000643578056593631,0.000368006897651368,-0.0319145190247496,-0.0184172342200243,0.000706753892454658,-0.000223876589102142,-0.0350828319095086,0.0112661415802173,-1.35812762430603,-0.000754008079748151,0
0.16,0.000638501767099924,0.000365754850806733,-0.0316919816384299,-0.0183045163058653,0.000701315665349864,-0.000222749758727721,-0.034841468327453,0.0112030844926455,-1.35813194740896,-0.000644808840342411,0
0.17,0.000637559142147726,0.000365568209360456,-0.0316632386872145,-0.0182951745389104,0.000700354056992354,-0.000222768871895301,-0.0348113596801197,0.0112001487844603,-1.35813565242259,-0.000574542339455275,0
0.18,0.000637064201439225,0.000365552329532937,-0.0316537340589378,-0.0182943895703593,0.000699866193299357,-0.00022286007686219,-0.0348018672491333,0.0112015001495215,-1.35813888760678,-0.000515432365937339,0
0.19,0.000636662277188532,0.000365550619044058,-0.0316468941915838,-0.0182942949036965,0.000699472330896968,-0.000222945214319445,-0.0347951297678547,0.0112029497202688,-1.35814171830862,-0.00046392500840268,0
0.2,0.000636313380322009,0.000365550129167308,-0.0316410399151602,-0.0182942749549438,0.000699130637365163,-0.00022302010404544,-0.034789375397453,0.0112042519828383,-1.35814419564458,-0.000418867520672579,0
0.21,0.000636008372036406,0.000365549783582233,-0.0316359289982551,-0.0182942592649536,0.000698831942894895,-0.000223085654328472,-0.0347843519998193,0.0112053907378835,-1.35814636377717,-0.000379435665995358,0
0.22,0.000635741431560824,0.000365549487936932,-0.031631452156145,-0.018294243481708,0.000698570529419755,-0.000223143028930242,-0.0347799514028307,0.0112063861476946,-1.35814826130472,-0.000344925494919633,0
0.23,0.000635507844076393,0.000365549229704061,-0.0316275321002959,-0.0182942290713113,0.000698341778228398,-0.000223193234665963,-0.03477609799129,0.0112072571385266,-1.3581499220011,-0.000314722560464722,0
0.24,0.000635303418628225,0.000365549003705667,-0.0316240980069869,-0.0182942131329322,0.000698141585141473,-0.000223237171920509,-0.0347727215943855,0.0112080168552701,-1.3581513754259,-0.000288289259761532,0
0.25,0.000635124371863552,0.000365548805885399,-0.0316210819685823,-0.0182942137278994,0.000697966245442947,-0.000223275653490452,-0.0347697593567217,0.0112086981876366,-1.35815264744834,-0.000265155102826217,0
0.26,0.000641300526372576,0.000369086579206393,-0.0319189788905312,-0.018471257531485,0.000704749692686305,-0.000225431006595321,-0.0350982993593573,0.0113189200142752,-1.35815365246605,-0.000290105609508691,0
0.27,0.000623720125614306,0.000359075781249676,-0.0310890868363653,-0.0179702681560954,0.000685452254519813,-0.000219356829276174,-0.0341813539980327,0.0110044035177837,-1.35815497885926,-0.000146961949082311,0
0.28,0.000623143905181918,0.000358741409523451,-0.0309436548332506,-0.0179535260563561,0.000684818260429994,-0.000219152174650128,-0.0340356549653784,0.0110187596113773,-1.35815582435924,-0.000128455367054087,0
0.29,0.000633517341545187,0.000364985669499434,-0.0315606079636169,-0.0182660298560298,0.000696275740919702,-0.000223066926246701,-0.0347046580688331,0.0111940399347094,-1.35815633842644,-0.000190583895357337,0
0.3,0.000627701115572801,0.00036200131908273,-0.0312822468182991,-0.0181166718780124,0.000689960789293517,-0.000221376951705552,-0.034401050602628,0.0111067764617812,-1.35815589897372,-0.000158353690049044,0
0.31,0.000633927663117579,0.000365255065689875,-0.0315807145124552,-0.0182795129939421,0.00069673364207839,-0.000223243761556759,-0.0347271556276543,0.0112029811401061,-1.35815648399659,-0.000190884292418532,0
0.32,0.000634435016831616,0.000365523885031563,-0.0316075048864814,-0.0182929710319673,0.000697286161527043,-0.000223399888213003,-0.0347561758229319,0.0112105038464283,-1.35815710687086,-0.000183627828557104,0
0.33,0.000634413131908281,0.000365546023401542,-0.0316088480777821,-0.0182940677280071,0.000697269317467688,-0.000223426533966983,-0.0347577139802832,0.0112113116853491,-1.35815766246079,-0.000173907390695848,0
0.34,0.000634349802081409,0.00036554778436716,-0.031607923859725,-0.0182941596643627,0.000697207676755479,-0.000223441960091855,-0.0347568245175435,0.0112116135325857,-1.3581581496936,-0.000165082346393058,0
0.35,0.000634290313860638,0.000365547869789928,-0.031606918765305,-0.0182941671949804,0.000697149451075637,-0.000223454895292806,-0.0347558388675505,0.0112118478319746,-1.35815857620797,-0.000157328781601298,0
0.36,0.00063423775234464,0.000365547824235765,-0.0316060114676331,-0.0182941688849617,0.000697097980337373,-0.000223466203512384,-0.0347549481756685,0.0112120539327213,-1.35815894949748,-0.000150540113032907,0
0.37,0.000634192000980956,0.000365547774421925,-0.0316052262540696,-0.0182941539799046,0.000697053175876141,-0.000223476037852021,-0.0347541738383255,0.0112122164279343,-1.35815927619769,-0.00014459847240042,0
0.38,0.000634151721279675,0.000365547730001847,-0.0316045234031579,-0.0182941541794944,0.000697013730088499,-0.000223484694284854,-0.0347534836533969,0.0112123748883517,-1.35815956212208,-0.000139398383542239,0
0.39,0.000634116505644885,0.000365547691056535,-0.0316039063707635,-0.0182941543640357,0.000696979243440044,-0.00022349226246514,-0.0347528777510396,0.0112125139825307,-1.3581598123605,-0.000134847316063772,0
0.4,0.000634085655582925,0.000365547656965616,-0.0316033611096881,-0.0182941530804067,0.000696949032043973,-0.000223498892306089,-0.0347523420438575,0.0112126354094581,-1.35816003136639,-0.00013086426767467,0
0.41,0.00063405870543597,0.000365547627128402,-0.0316028826431108,-0.018294153240375,0.000696922639733185,-0.000223504684214163,-0.0347518722379216,0.0112127432011855,-1.35816022303799,-0.000127378344040098,0
0.42,0.000634035073125681,0.000365547601014569,-0.0316024578637429,-0.018294153390482,0.000696899496665308,-0.000223509762893333,-0.0347514551761694,0.0112128388217623,-1.3581603907873,-0.000124327498976785,0
0.43,0.000634014409406093,0.000365547578159371,-0.0316020833147678,-0.0182941535317591,0.000696879260695483,-0.000223514203676758,-0.0347510874463962,0.0112129231055073,-1.35816053759947,-0.000121657430274939,0
0.44,0.000633996306823581,0.00036554755815669,-0.0316017508655623,-0.0182941536654247,0.00069686153287745,-0.000223518093978878,-0.0347507610720605,0.0112129978603317,-1.35816066608781,-0.000119320613188266,0
0.45,0.00063398047433984,0.000365547540650094,-0.0316014567157253,-0.0182941537923493,0.000696846028141532,-0.000223521496467055,-0.0347504723128947,0.0112130639686361,-1.3581607785398,-0.00011727545453973,0
0.46,0.000633966620916567,0.000365547525328411,-0.0316011956770964,-0.0182941539133983,0.000696832461491579,-0.000223524473652623,-0.0347502160753387,0.011213122595714,-1.35816087695625,-0.000115485552401343,0
0.47,0.000633954513723119,0.000365547511918844,-0.0316009643450341,-0.0182941540292568,0.000696820604891731,-0.000223527075626861,-0.0347499890119309,0.0112131745216497,-1.35816096308939,-0.000113919048178002,0
0.48,0.000633943919928851,0.000365547500182925,-0.0316007582346814,-0.018294154140611,0.000696810230362277,-0.000223529352361638,-0.0347497867217782,0.0112132207468749,-1.35816103847237,-0.000112548059545259,0
0.49,0.000633934781183667,0.000365547489911631,-0.0316005807657157,-0.0182941391335096,0.000696801280523485,-0.000223531316901925,-0.0347496093429078,0.0112132458227767,-1.35816110444648,-0.000111348184178938,0
0.5,0.000633926690318815,0.000365547480922159,-0.0316004170404597,-0.018294139237613,0.000696793357075744,-0.000223533055815506,-0.0347494486795583,0.0112132824829705,-1.35816116218638,-0.000110298065410647,0
0.51,2.64018976540294,0.0322230959602611,3.0509337944507,-1.60870360458603,-0.326674640386769,2.62009999896566,-2.00818359894036,2.8041617176041,0.136244355312103,41.4414572382397,511.993028598107
0.52,2.4082279164145,0.0120574686563653,3.99650990563583,-0.595258277899698,-1.35146553320868,1.9933007782313,-2.75030678676917,2.96010750174801,0.600817123693258,84.7814651258097,511.993028598107
0.53,2.1987303384615,0.00434333423275968,4.34993897420882,-0.20513891584798,-2.15534881044497,0.434632570266827,-4.30594877385544,0.650273950784598,1.37378722319403,125.871274688723,511.993028598107
0.54,2.01311507003338,0.0271719830604034,3.50480115747377,-1.35123114461018,-1.31103971736905,-1.52792194216191,-1.20893414161443,-3.55639353852087,2.44593796350393,166.502476752719,511.993028598107
0.55,1.86544322565736,0.00846372816048113,2.05636043396548,-0.412072277583345,1.13282556540882,-1.48211210817586,1.5824037118577,-1.3763794131817,-2.48444496618345,201.38551375264,511.993028598107
0.56,1.69863654813834,0.0044578581795115,2.87884658427094,-0.205430279979384,1.32908742832238,1.05778665289665,2.11946710929381,1.95903507582754,-0.895951696582082,231.718703254956,511.993028598107
0.57,1.48838130502287,-0.0265480501552025,5.76423590799575,1.33735225330169,-1.19563819658977,0.886810583475523,-3.75205372005985,4.57569880283042,0.914790352261963,262.119178133721,511.993028598107
0.58,1.42117701370808,0.021349283918609,2.7283896113623,-1.05129650619284,-0.317152753201119,-1.38550136317255,0.459411322761585,-2.88760721910745,2.9315824944053,287.48143570822,511.993028598107
0.59,1.29201388817281,0.0150945242128059,2.93855882052107,-0.747508650616122,1.18714824159649,0.510104679812877,2.3830217039273,1.87486124367099,-1.15327825744848,312.425123044955,511.993028598107
0.6,1.1869633217133,0.0140295206228923,2.81982544238174,-0.683727781078404,-1.10836187299591,0.424985544496016,-2.88188425420496,0.337108809566414,1.21646966028442,333.601579906248,511.993028598107
0.61,1.055316644251,-0.00894072067388541,4.15749487451144,0.455175920908549,0.600819131690313,-0.8676344432503,1.96144950283833,-3.69386851395378,-2.54440367700085,354.26883445291,511.993028598107
0.62,0.965602510184756,0.0259868093084118,4.16607816894356,-1.28104545334135,-0.0877237400997625,0.961960533159257,-1.76198507057334,3.98656410638928,0.117847163294541,372.031203554465,511.993028598107
0.63,0.884323405911589,0.0383261670877133,3.90032272790321,-1.90490395491684,-0.240978792578228,-0.851719439049179,0.955340041527683,-4.23420616695858,2.90917949756212,388.847743170193,511.993028598107
0.64,0.794032219654511,-0.0313105440831365,4.48507175954096,1.57087868906459,0.329621626273003,0.72306092379093,3.42234555848507,3.29713199952727,-0.467136420748875,404.287128523558,511.993028598107
0.65,0.739168017962307,0.0145196957711607,3.77083063080949,-0.708352221124939,-0.426688836225017,-0.60375228147358,-1.52902718575422,-3.51894904490649,2.54600606621318,417.789215393165,511.993028598107
0.66,0.679132252788467,-0.00165314123752905,3.51640365854725,0.0972289967770716,0.397082662936624,0.550952546458085,2.14168128696832,2.79065394356027,-0.626931437578612,430.314957463338,511.993028598107
0.67,0.581503372595659,-0.0274781053946278,5.35850617196533,1.38016770379374,-0.290875171245633,-0.504274581323536,-4.0551628489372,-3.76485133228197,2.57117396664337,441.961687497595,511.993028598107
0.68,0.509758857608443,0.028193511606909,6.25586465839257,-1.41245893097718,0.240121189886322,0.450544982409715,1.35169106353036,6.2692754066634,-0.434413183298,452.31799107073,511.993028598107
0.69,0.466776902137055,0.0110193823757046,5.98403967585091,-0.535867663693505,-0.11538760958734,-0.452424361313941,-0.819360860286934,-5.95185120578296,2.91547641785262,461.582739228338,511.993028598107
0.7,0.445554787937921,-0.00239137319208825,4.7511431017991,0.133514587263545,-0.0240708665595585,0.444910531571485,-0.0978516093156774,4.75201136165936,0.0486828874319875,470.206245468257,511.993028598107
0.71,0.401665944185777,0.0212907201039767,4.85510788007014,-1.05842437898905,0.130542714910703,-0.380456863606034,2.79812807708733,-4.10643567554309,-2.75810279429692,478.044070121041,511.993028598107
0.72,0.408066878482284,0.0296117213684726,2.63132888914456,-1.48122770717423,-0.263552683089518,0.312946344591202,-2.8971726379655,0.851068710017827,0.772367122364768,485.176179203355,511.993028598107
0.73,0.349302066523642,-0.0485707111951876,3.84894472158092,2.42685265513553,0.344015806969414,-0.0776155410911743,2.74705921503692,-3.62734819787193,-1.93086201444243,491.573665471259,511.993028598107
0.74,0.285521850372418,-0.0206959370564134,5.46102035020115,1.03422670613939,-0.280821575224068,-0.0555903925099064,-5.54667739385305,0.35600285605962,1.69386794139301,497.370928432747,511.993028598107
0.75,0.269412672604451,0.0223411935257636,4.8465886226173,-1.10447145110104,0.228507259858067,0.14445327715281,3.20332421595024,3.80105149013894,-0.924328163189465,502.498605918897,511.993028598107
0.76,0.217452611271481,0.0418179692677193,6.11801078450036,-2.08198721904721,-0.116564113439668,-0.18827423658187,-0.234916817638347,-6.45829240808508,2.77722271651954,507.259031290606,511.993028598107
0.77,0.211846361442325,-0.030752250189345,5.18193743100036,1.54602211758554,-0.0779622435540624,0.199365168291949,0.331429882857733,5.39748220558579,0.228613233524904,511.570137919708,511.993028598107
0.78,0.194962816665517,-0.00904314406969381,4.91403077673593,0.454307013009114,0.152637211591183,-0.121631245880677,3.39777960880579,-3.5789924653121,-2.28997345598886,515.493828839553,511.993028598107
0.79,0.181862277508252,0.00930660211938534,4.56780983846664,-0.468961324224629,-0.180783892206122,0.0218560092949785,-4.5893009869215,-0.152078583148562,1.50161373251955,518.94151787959,511.993028598107
0.8,0.144546050823182,-0.019730916190633,5.5080872883444,0.980306402006638,0.107665011292946,0.0984434619748288,5.08792194276369,2.32660192602432,-0.965773756662744,522.097166369837,511.993028598107
0.81,0.180959613909906,0.0177008939706622,2.86083040873957,-0.894017982052007,-0.0653287320074611,-0.16968164393381,0.0985284881822519,-2.99564866378183,2.8715837677998,524.911816421591,511.993028598107
0.82,0.109664411589332,-0.00448369545225127,5.64374169075919,0.217893847074858,-0.0513273353668512,0.0970149026607858,-2.23669654257665,5.18618227379564,0.445766673928425,527.454925289909,511.993028598107
0.83,0.113216831299859,-0.0345276067942818,4.77139729014196,1.73916921067934,0.117823796904079,-0.0113030705397988,3.74624958854608,-3.42878340874243,-1.96244475400522,529.702119645668,511.993028598107
0.84,0.104899647502874,0.00161854228224665,4.54572519491276,-0.0700263820450319,-0.0988399607646694,-0.0351741081107291,-4.23410966363095,-1.65554722016437,1.92811853709931,531.737276593884,511.993028598107
0.85,0.082569548415414,0.0415298775412772,5.07414190531847,-2.06954586626531,0.0733355399779539,0.0562526410958703,0.346007100912855,5.46902324496822,-0.450447392654592,533.528836783509,511.993028598107
0.86,0.105616587959711,0.0395235842035659,3.39761344080836,-1.97138711762596,-0.00375123274157649,-0.112707167533686,2.95259194809508,-2.59081937787013,-2.81677883397113,535.094945765938,511.993028598107
0.87,0.0763121053701636,0.00647156547504764,4.35410673304429,-0.321008712657455,-0.0655293772307799,0.0396398701495214,-4.04496318256603,1.64303526682445,1.11137032137041,536.573818846703,511.993028598107
0.88,0.0843845112536667,-0.0313848856465535,3.52594858269102,1.57031813673577,0.0692687728534413,0.0575116848470448,3.84680776463672,-0.316674091571697,-1.23394338644472,537.77517337877,511.993028598107
0.89,0.0563074972129734,0.0245396742159299,4.52312793681717,-1.23263235427254,-0.0457521747854573,-0.0409813171507938,-0.762147293053759,-4.62571079481913,2.71223952653148,538.892008754051,511.993028598107
0.9,0.0693072165701144,-0.0303558846521454,3.49477622677338,1.51219910695463,-0.0540629419488434,0.0529355108556353,0.0961927325207579,3.80669856601556,0.383112814554632,539.854316949909,511.993028598107
0.91,0.0119983513606691,0.00145917022926839,6.02593995788933,-0.083352650065112,0.0106660646066912,-0.00568547965768442,5.6509921731108,-2.09408392854741,-1.93950828104434,540.686194212648,511.993028598107
0.92,0.0707692123735972,0.00393874401536368,2.79724704290028,-0.207485208988285,-0.0652811292010123,-0.0276074137622235,-2.42049909101142,-1.41733033601068,2.02648604575053,541.36816082167,511.993028598107
0.93,0.0278458943398757,0.00524131959887671,4.63321590855477,-0.273447170350598,0.0128769510953751,0.0252398374244449,1.04346719809514,4.52245942123942,-0.285712117180867,542.080054529446,511.993028598107
0.94,-0.0134860760011795,0.00338356151555953,6.43953430343864,-0.170588484211337,-0.00991843724161835,0.0097440924217314,3.5028955771801,-5.40614696909736,-2.5931467850634,542.598507727322,511.993028598107
0.95,0.00618686843254943,0.0323299815517533,5.22328384100403,-1.60868527903652,-0.000136036453979609,0.0329163567580249,-5.4300345517945,-0.620715052983684,1.38584880006962,543.033556713259,511.993028598107
0.96,0.0402906151896625,-0.0149872648310065,3.30366044413256,0.760295448779279,0.0228118690327871,0.0364358396459743,3.08268065881584,1.41042598363876,-0.915497445790893,543.381823881329,511.993028598107
