t,iq,id,vq,vd,ia,ib,va,vb,theta_e,omega,r
0,0,0,0,0,0,0,0,0,0,0,0
0.01,0.000659834730110892,0.000372843842780616,-0.0323919338682071,-0.0186663168308489,8.54477720429788e-05,0.000753055828217816,-0.00452891297337203,-0.037110075599917,0.401344494121774,-0.00220862456820813,0
0.02,0.000730154938983328,0.00041288093841642,-0.0359472129603574,-0.0206707704745905,9.4845845425881e-05,0.000833427363262583,-0.00498586025522418,-0.0411658118970811,0.401328298296454,-0.00228479322885124,0
0.03,0.000756761266777366,0.00042826650363544,-0.0372798670202201,-0.0214410331484119,9.86292184182182e-05,0.000863928290024594,-0.00517501385337459,-0.0426933908132626,0.4013122852317,-0.00220748644876057,0
0.04,0.00073982735421573,0.000419438064499706,-0.0364883410579749,-0.0209990470230502,9.71291718943884e-05,0.000844889772671097,-0.00507793494316019,-0.041792027777465,0.401297931398377,-0.00199317396644879,0
0.05,0.000755157662449241,0.00042848386238811,-0.0372666296268785,-0.021451924380748,9.94799564180913e-05,0.000862534204396492,-0.00519141013963688,-0.0426853136821828,0.401284184466079,-0.00190010098485622,0
0.06,0.000754829327402176,0.000428788885513387,-0.037280167619321,-0.0214671860254914,9.99000341554447e-05,0.000862349815922735,-0.00520071803683404,-0.0427036708665552,0.401271384959214,-0.00176152053901253,0
0.07,0.000774675647142845,0.000440536570461864,-0.0382735314697968,-0.0220553276085259,0.000102973115451667,0.00088520696206292,-0.0053546551813551,-0.0438477862038406,0.401259718621264,-0.00170684251049586,0
0.08,0.000753962902870602,0.000429194168427622,-0.0372903435938972,-0.0214874821768832,0.000100631120951648,0.000861708228238165,-0.00521639813463653,-0.0427208474418959,0.401248660899936,-0.00151447934641235,0
0.09,0.000752499323857122,0.000428806497185734,-0.0372422680321356,-0.0214680719508097,0.0001008545209991,0.000860208468935389,-0.00521773557235816,-0.0426689568299896,0.401238601945892,-0.00140128419563476,0
0.1,0.000751798653772963,0.000428791463540299,-0.0372295348535873,-0.0214673258673595,0.000101122306554836,0.000859556638120433,-0.00522241743763854,-0.0426568951216204,0.401229327075112,-0.00129921993199826,0
0.11,0.000751176156993417,0.000428789243033286,-0.037218949964607,-0.0214672156839681,0.00010137072865005,0.000858981844481835,-0.0052268148488578,-0.0426470631137208,0.401220770520793,-0.00120514530915703,0
0.12,0.000750602787489846,0.000428787589954966,-0.0372092278613752,-0.0214671259211611,0.000101599908647637,0.000858452561560455,-0.00523086569519678,-0.0426380367445962,0.401212876480292,-0.00111835778783775,0
0.13,0.000786377370987634,0.000449291599132129,-0.0389692780956639,-0.0224936446111741,0.000106511395772519,0.000899392924823583,-0.00548885132651492,-0.0446591669683438,0.401205120096763,-0.0011622930553161,0
0.14,0.000824901597312852,0.000471977368974264,-0.0409616613801735,-0.0236294044530962,0.000112357641660348,0.000943716611294772,-0.00575667434958512,-0.0469368422272401,0.401197998684572,-0.00122282340525713,0
0.15,0.000751813326509821,0.000430251764209154,-0.0373178548680334,-0.0215404230017526,0.00010249358656876,0.000860136572432032,-0.0052568409996945,-0.0427665492850425,0.401191327886833,-0.000891320274547251,0
0.16,0.000748730847681296,0.000428831881958807,-0.0371807232045254,-0.0214693428252464,0.000102395030487554,0.000856743790748049,-0.00524519695420038,-0.0426125189148816,0.40118569361827,-0.000819871353717126,0
0.17,0.000748256194020049,0.000428782566523931,-0.0371695388505762,-0.0214668735964752,0.000102539422453176,0.00085628703603826,-0.00524751201615708,-0.0426012311795308,0.401180514740359,-0.000762584567956765,0
0.18,0.000747905641325594,0.000428779933320445,-0.0371634707216948,-0.0214667381090808,0.000102677980140798,0.000855962798221476,-0.00524996041059296,-0.0425955668680831,0.401175737551179,-0.000710051070617821,0
0.19,0.000747585326580781,0.000428778961277453,-0.0371580208701489,-0.0214667004470314,0.000102805939669192,0.000855667082995366,-0.00525224161966932,-0.042590511866349,0.401171330270741,-0.000661596772377122,0
0.2,0.000747290129451213,0.000428778113890187,-0.0371530065469278,-0.0214666478432657,0.000102923911205028,0.000855394573883127,-0.00525432442605471,-0.0425858537536658,0.401167264232517,-0.000616894565085582,0
0.21,0.000747017661403355,0.000428777333659053,-0.0371483719581865,-0.0214666115742001,0.000103032797667577,0.000855143047047157,-0.0052562605446337,-0.0425815532444307,0.401163513014867,-0.000575653521556363,0
0.22,0.000746766264529615,0.000428776613777503,-0.0371440928556424,-0.0214665767281729,0.000103133261493813,0.000854910971233652,-0.00525804676216148,-0.0425775820678211,0.401160052241982,-0.000537605639787602,0
0.23,0.000746534425427625,0.000428775949535108,-0.037140147571688,-0.0214665403960247,0.000103225908930537,0.000854696949201149,-0.00525968982555552,-0.0425739190251481,0.401156859425718,-0.000502503683013103,0
0.24,0.000746320425968705,0.000428775336637068,-0.0371365000815122,-0.0214665232834233,0.000103311424993445,0.000854499395548156,-0.00526122375277926,-0.0425705389301698,0.401153913819022,-0.000470119557745615,0
0.25,0.000746123045800874,0.000428774771120693,-0.0371331354018415,-0.0214664868900743,0.000103390299199468,0.000854317183402172,-0.00526261977040075,-0.0425674128568488,0.401151196281349,-0.000440242831058192,0
0.26,0.000753650890633013,0.000433103082615881,-0.0375053809850718,-0.0216831731539707,0.000104437654339609,0.000862937263930208,-0.00531685553382159,-0.0429947048843568,0.401148739425297,-0.000440633556470212,0
0.27,0.000727863659113066,0.000418493496594955,-0.0362553252687202,-0.0209517570669891,0.000101059267007357,0.000833492254014198,-0.00513172545769451,-0.041558273885734,0.401146232594878,-0.000322026918856834,0
0.28,0.000724614591668212,0.000416550019460361,-0.0360087172543983,-0.0208544625565276,0.000100540536749501,0.000829742023547704,-0.00513853763789661,-0.0412932410664594,0.401144079854128,-0.000287362578376767,0
0.29,0.000744702147787154,0.000428357295664567,-0.0370844312545246,-0.0214455916076485,0.000103568405497466,0.00085284514834205,-0.0052627805604786,-0.0425143691196971,0.401142274083418,-0.000339403442971655,0
0.3,0.000740850280260797,0.000426341292729942,-0.0368994235080164,-0.0213446550864902,0.000103217428326598,0.000848511754861878,-0.00524214405617732,-0.0423046295537435,0.401141157931244,-0.000313724101349265,0
0.31,0.000745103511512461,0.00042868965551322,-0.0371104443005922,-0.021462224725106,0.000103720061459645,0.000853344134838373,-0.00526805564797284,-0.0425447970500291,0.401139460586669,-0.00031062515242638,0
0.32,0.000745148541008594,0.000428769184476714,-0.0371162978763801,-0.02146620553282,0.000103777057727531,0.00085341647746776,-0.0052695027808774,-0.0425517319091453,0.401137863315375,-0.000293637657678735,0
0.33,0.000745047464575806,0.000428771592836954,-0.0371147535887372,-0.0214663234850941,0.000103820000272559,0.000853324212030915,-0.00527027711309684,-0.0425503484952891,0.401136388561564,-0.000277445242774201,0
0.34,0.000744948832704028,0.000428771401809679,-0.0371130646076413,-0.0214663104750441,0.000103859497599446,0.00085323319386632,-0.00527098251577571,-0.0425487813374288,0.401135027950635,-0.000262487400577331,0
0.35,0.000744857563091892,0.000428771143513718,-0.037111490812526,-0.0214663108394089,0.000103895968189177,0.000853148938110625,-0.00527165076894877,-0.0425473259976766,0.40113377268619,-0.000248686990749324,0
0.36,0.000744773483129756,0.000428770902413643,-0.0371100429016781,-0.0214662934252835,0.000103929564208144,0.000853071318011187,-0.00527224936324545,-0.0425459801184144,0.401132614612713,-0.000235955076301103,0
0.37,0.000744695980631285,0.00042877067987514,-0.0371087083423651,-0.0214662745391211,0.000103960532412748,0.000852999769747589,-0.00527279852517221,-0.0425447384895075,0.401131546205004,-0.000224208952083035,0
0.38,0.000744624268793183,0.000428770474554166,-0.037107464482506,-0.0214662748459888,0.000103989184740079,0.000852933567742694,-0.00527332642012601,-0.0425435882895505,0.401130560521121,-0.00021337229245014,0
0.39,0.000744558349620875,0.000428770285122328,-0.0371063268126584,-0.021466257383523,0.000104015524679506,0.000852872712671528,-0.00527379324443982,-0.0425425293135983,0.401129651155496,-0.00020337468051999,0
0.4,0.000744497347992362,0.000428770110350744,-0.0371052657942554,-0.0214662576579462,0.000104039897865732,0.000852816397796113,-0.00527424347131538,-0.0425415482006116,0.40112881219909,-0.000194151151527176,0
0.41,0.000744441207706903,0.000428769949105055,-0.0371042917197503,-0.0214662401687075,0.00010406232987027,0.000852764570376628,-0.00527464063173172,-0.0425406405359751,0.401128038200754,-0.000185641770721192,0
0.42,0.000744389228265814,0.000428769800339042,-0.0371033816304571,-0.0214662404156128,0.000104083097553959,0.000852716584595685,-0.00527502658626476,-0.0425397990182186,0.401127324130344,-0.000177791243905718,0
0.43,0.000744341323359113,0.000428769663087431,-0.0371025423779817,-0.0214662391942372,0.000104102237701195,0.000852672360141754,-0.00527538117730734,-0.0425390224322121,0.401126665348363,-0.000170548558134497,0
0.44,0.000744297348474583,0.000428769536459003,-0.0371017770271238,-0.0214662216706638,0.000104119809581881,0.00085263176318631,-0.00527568973412402,-0.0425383077850277,0.401126057573872,-0.000163866650231162,0
0.45,0.000744256544904368,0.000428769419631875,-0.0371010571363775,-0.0214662218826629,0.000104136112060623,0.000852594094519391,-0.00527599486598561,-0.0425376421622844,0.401125496857342,-0.000157702100969628,0
0.46,0.000744218884547836,0.000428769311847601,-0.0371003900771114,-0.0214662220845041,0.000104151158527551,0.000852559327599704,-0.00527627751274515,-0.042537025402155,0.401124979555476,-0.000152014852931688,0
0.47,0.000744184397511851,0.000428769212406593,-0.0370997854028169,-0.0214662045339826,0.000104164939458175,0.000852527489524837,-0.00527651775347992,-0.0425364593546178,0.401124502306645,-0.00014676795021961,0
0.48,0.000744152383298417,0.00042876912066324,-0.0370992155558472,-0.0214662047183026,0.000104177730421682,0.000852497934828718,-0.00527675915054173,-0.0425359324893021,0.401124062009733,-0.000141927298311381,0
0.49,0.000744122813806735,0.000428769036021493,-0.0370986859841857,-0.021466204894649,0.00010418954428659,0.000852470637112977,-0.00527698336411216,-0.0425354428789351,0.401123655803734,-0.000137461442513732,0
0.5,0.000744095572621486,0.000428768957931712,-0.0370981972414866,-0.0214662050634093,0.000104200428257139,0.000852445488715714,-0.00527719029073881,-0.0425349910194879,0.401123281049139,-0.000133341363569306,0
0.51,2.35808859416349,-0.00305083724708437,6.01385184007198,0.155346466287058,-0.206259583813004,2.34905259830791,-0.363505294918847,6.00486555881903,0.0862870438058305,26.2938484025225,493.439231893242
0.52,2.27210807221322,0.0320461055575294,4.52357579999775,-1.59887045073087,-0.820549004716031,2.11900952700959,-3.17550619691849,3.59656574107549,0.38355474028042,54.5995424014897,493.439231893242
0.53,2.18363079159868,0.0170371935691224,3.30573360441689,-0.844107553297835,-1.67861598777485,1.39670400069924,-3.09236494273373,1.44141294772073,0.884613907093551,82.0132025398976,493.439231893242
0.54,2.05290193845193,0.0390751707443107,4.13359165492928,-1.9447783048754,-2.05325791851511,0.00807204579836377,-4.10375437152054,-2.00697351328837,1.58589682794406,109.410663256794,493.439231893242
0.55,1.93445981029847,0.0138903495053593,4.22848942166975,-0.687909617940817,-1.18482526177878,-1.52922097766157,-2.01894622493565,-3.77851803918501,2.48959409628974,136.636056291817,493.439231893242
0.56,1.84640068372915,-0.0148327222880699,3.66173716985678,0.753859770311447,0.795863542368402,-1.66613826450711,0.868865731124337,-3.63616501216358,-2.7040015895528,160.110365693149,493.439231893242
0.57,1.76997383434796,0.0311442567241643,2.92536242663771,-1.54242819250147,1.76084081287748,0.182255235064161,2.71830058443767,1.88352647681227,-1.45006485868503,182.00790918356,493.439231893242
0.58,1.63207041793375,0.00476427677991964,4.94041774814841,-0.229862912003876,0.0568503387054907,1.63108693404636,-0.0720694691222085,4.94523715064861,-0.0319210099122741,204.813502761703,493.439231893242
0.59,1.58413987365689,-0.00494696266934769,3.11429802461368,0.263680301656623,-1.58367778607434,0.0385782535113868,-3.10587792975504,0.349144344154282,1.54331843366205,224.556868048558,493.439231893242
0.6,1.50125491211165,0.00703518734010289,3.08990896754905,-0.343104202255304,0.170917361792929,-1.4915103286394,0.706849592970856,-3.02747775784765,-3.02281068734694,244.263441528374,493.439231893242
0.61,1.413771228835,0.0223013659998634,3.52685898741369,-1.10093377164026,1.30724973658063,0.538836305956608,2.80356255958641,2.4064136097363,-1.16405194761073,262.315970547026,493.439231893242
0.62,1.29403608784118,-0.040558031682452,5.78153485792866,2.03839853877473,-0.975293056394763,0.851456284677859,-2.84603099015779,5.42967047981593,0.82175337187374,279.816410752586,493.439231893242
0.63,1.20335328327596,-0.019255058887831,6.8200595818938,0.981423424907088,-0.230333211691932,-1.1812605526536,-2.37234125347068,-6.46903405591739,2.93301984550846,295.763152198015,493.439231893242
0.64,1.16707152161405,-0.00307097024824898,5.19106166489616,0.161279523679465,1.05137984456528,0.506621939776282,4.7519975053603,2.09562687579691,-1.12439396184922,311.573633385196,493.439231893242
0.65,1.07022406282041,0.00301109603977212,6.96335091329257,-0.129789780776665,-1.00080464147148,0.379181593630708,-6.56420998961631,2.32728351110646,1.21144472756996,325.677015105017,493.439231893242
0.66,1.01888624167852,-0.0283146539124616,6.44046646170636,1.43085723797515,0.521957175144367,-0.875495060193531,1.8942237488669,-6.31972128096318,-2.63176555199026,339.553328175481,493.439231893242
0.67,1.01925495794402,-0.00631058926111866,3.54472922677338,0.321627232978058,0.0909410129257401,1.01520944883227,0.658278872834281,3.49788769026602,-0.0955314123316944,352.671385512532,493.439231893242
0.68,0.931779074228887,0.0199582851408658,5.27268847342747,-0.977907237847909,-0.548528511172746,-0.753476641142389,-2.20852706615532,-4.88671203384337,2.53373928200219,364.60510446109,493.439231893242
0.69,0.86262691701382,0.0256955982833278,6.09142111213862,-1.27085666591559,0.753767489422536,0.4202618631491,4.57802549807385,4.21451899624333,-1.03239746211497,376.274537071085,493.439231893242
0.7,0.822124438747689,0.0112174860227793,5.61048848311651,-0.554911956978893,-0.808568481776915,-0.149102096081338,-5.39500283528675,-1.63690338946104,1.76679402425901,387.39003449316,493.439231893242
0.71,0.752816455502917,0.00456497719316162,6.74461026638937,-0.226882544797069,0.75073240382357,-0.0561632668390443,6.74429650934332,-0.236025271269739,-1.6394047365836,397.745505841917,493.439231893242
0.72,0.730818718736947,0.00326562260497489,5.66040450384495,-0.143092746991162,-0.705555672621044,0.190519964254608,-5.50790474059494,1.31287472742887,1.31152657546788,407.308279342912,493.439231893242
0.73,0.667446350716932,0.0105146987508802,6.70157172067589,-0.509096598115282,0.615828028700914,-0.257586934920073,6.41152023207572,-2.01560194166882,-1.95120678331422,416.476850486475,493.439231893242
0.74,0.668577931524331,-0.0171283408576169,4.6293119392552,0.869188733279911,-0.613109367515978,0.267182959872154,-3.82756035312142,2.74514113083545,1.13421404703036,425.154315648625,493.439231893242
0.75,0.585917606626681,0.0195870056067111,6.85044895007006,-0.97659866280464,0.523998063128089,-0.26288613957717,6.63081344683506,-1.97856230606448,-2.00238020690342,433.338186402168,493.439231893242
0.76,0.567277990134244,0.0307224456684603,5.98257722098313,-1.53866063017886,-0.518076326129864,0.233120370329111,-6.13504685478512,0.721045650066516,1.20206963434342,441.013138417969,493.439231893242
0.77,0.534756711445843,0.00960214422904193,5.91445478856454,-0.482935737758512,0.515547620646646,-0.142364294876736,5.84859610847482,-1.00395514477068,-1.82226966531103,448.193870294657,493.439231893242
0.78,0.516107725439383,0.0249986890117874,5.24757205192258,-1.23832782450557,-0.512254004985974,0.0677344305826142,-5.33222346624748,-0.798662098176283,1.48772990314279,454.860693023121,493.439231893242
0.79,0.479824279322455,0.00604123706742106,5.52598423034877,-0.284134355832591,0.476368562232869,0.0577999004221188,5.43916394594129,1.01623305171601,-1.43746228325755,461.171662606152,493.439231893242
0.8,0.434434630504173,0.0293282955631476,6.33993156754821,-1.45167119879273,-0.412303966988967,-0.13999655676872,-5.29410567434588,-3.77816445638056,1.96553551128207,467.130804438718,493.439231893242
0.81,0.401698390357723,0.0374922204525235,6.56903945697739,-1.86297435547662,0.331643082135762,0.229739264127702,3.83036564719509,5.65254383842152,-0.871901286679169,472.805055532686,493.439231893242
0.82,0.380108677350887,0.011493077523525,6.34392218206104,-0.564056987783142,-0.201456453707708,-0.322536811368743,-2.70935571507061,-5.76393099774167,2.61350820085104,478.037633303547,493.439231893242
0.83,0.383747584480065,0.00365916131084201,4.9043809346803,-0.174205293289168,0.0597552460277774,0.379084302798129,0.545092357270462,4.87710715062842,-0.146809006644198,483.030399773618,493.439231893242
0.84,0.354707693827857,-0.0190658406913315,5.16819179756243,0.960777212431448,0.112855643030657,-0.336815466061285,0.450510625684099,-5.23739815981799,-2.87198206766105,487.676403786248,493.439231893242
0.85,0.307435324775499,-0.0386677928619597,6.40799104557486,1.93936513913664,-0.231562940978889,0.205889002838518,-2.76061152452407,6.09938606695223,0.718902284415101,492.019461811598,493.439231893242
0.86,0.300381724842336,-0.0245475092077303,5.7052844303288,1.23071431147773,0.288754318323378,-0.0863290477021584,4.86754921875724,-3.22054230688003,-1.94284829018217,496.047118596743,493.439231893242
0.87,0.315417765409948,5.14838514588563e-05,3.93511447737337,-0.00174469169790434,-0.312485782688457,-0.0429069342225019,-3.89821031581879,-0.537666558032594,1.70741469970985,499.883168713955,493.439231893242
0.88,0.239386642890511,0.0188783102070043,6.78086728842259,-0.946725593154301,0.199035906792249,0.134339358335702,4.71511801875013,4.96428369467245,-0.898382464556179,503.413648513343,493.439231893242
0.89,0.257368368234578,-0.0117092255366069,4.99299264872207,0.584462564608156,-0.0742723491884301,-0.246696576945097,-2.20662546826203,-4.51689894977055,2.80369206090097,506.648499322439,493.439231893242
0.9,0.185571735130432,0.00492862024211236,7.72628937333703,-0.250323445635552,-0.0403598854980149,0.181196688213105,-2.12223040568073,7.43332680656379,0.24571588265773,509.726052524665,493.439231893242
0.91,0.259913353596102,0.0435416178992336,3.22302505516692,-2.18204219964478,0.166697291630018,-0.204114763870897,3.86190247499542,-0.484673024717278,-2.29077859791741,512.502681565417,493.439231893242
0.92,0.215265598438257,-0.0337956852290352,4.68822191020306,1.689319094963,-0.217499452583413,-0.0132444077631538,-4.50703952812427,2.12598644770846,1.47589102136037,515.157115081514,493.439231893242
0.93,0.228703143865049,0.0346118441913901,3.28372740038864,-1.73500970653933,0.213159540220813,0.0898115704402162,1.89590640115043,3.19353459976961,-1.02183425624368,517.647885957693,493.439231893242
0.94,0.143656897620396,-0.00940459269557795,6.834368060403,0.467596947502818,-0.0418570563991211,-0.137745190214713,-2.84755368737647,-6.23046320010634,2.78121399523242,519.982833232148,493.439231893242
0.95,0.130791848626136,0.00995221606956322,6.82771850977031,-0.501050001226684,-0.0313671487962004,0.127364265978077,-2.60705791570895,6.33024803436079,0.317419197413647,522.091741169596,493.439231893242
0.96,0.117484960821751,-0.0288625220676542,6.89236449600241,1.44302768908237,0.114837055900308,-0.0380553779582308,5.06869685529543,-4.888284918694,-2.13169231270038,523.982251869969,493.439231893242
