t,iq,id,vq,vd,ia,ib,va,vb,theta_e,omega,r
0,0,0,0,0,0,0,0,0,0,0,0
0.01,0.00044796090094566,0.00025151757629821,-0.0220411954348143,-0.0125839624480428,0.000455599563655582,-0.000237400710950529,-0.0224235552687257,0.0118892630637829,-1.53955167313502,-0.00159235258795968,0
0.02,0.000536249737204916,0.000299107408159858,-0.0264253321428719,-0.0149649929403494,0.000545328466668678,-0.000282216026669709,-0.026879757908803,0.0141325088830664,-1.53956417297971,-0.00179052675586896,0
0.03,0.000569165957333939,0.000317352383777902,-0.0280626484416619,-0.0158778307889142,0.000578794498237129,-0.000299431713897853,-0.0285445870253583,0.0149941421786458,-1.53957710795649,-0.00177693192412013,0
0.04,0.000557590507257631,0.000311410866145484,-0.0275181669290543,-0.015580556060005,0.000567035711053627,-0.000293861198063322,-0.0279909154863849,0.0147143429519742,-1.53958908036426,-0.00160705413696474,0
0.05,0.000570297696054993,0.00031923654422057,-0.0281621793687968,-0.0159720896153055,0.000579977488031368,-0.000301293124163745,-0.0286466606714948,0.0150859148165389,-1.53960037457605,-0.00153519596173471,0
0.06,0.000571310070207015,0.000320435697108589,-0.0282318332716215,-0.0160320886515321,0.000581023570118874,-0.000302466267983274,-0.0287179917812907,0.0151440161270695,-1.53961096144586,-0.00142706167258476,0
0.07,0.000580450650641919,0.000326389046080366,-0.028697953483112,-0.016329941958468,0.000590342360046843,-0.00030813741279858,-0.0291930236433825,0.0154274725422768,-1.53962061115152,-0.00135924483478032,0
0.08,0.000571045458964009,0.000321530124256087,-0.0282544801166413,-0.0160868416439925,0.000580787499898194,-0.000303579342132425,-0.0287420488503116,0.0151985771908712,-1.53962977800779,-0.00122714657610894,0
0.09,0.000568617871545412,0.000320783006847856,-0.0281513517680691,-0.0160494702668962,0.0005783352795343,-0.000302913066355958,-0.0286376793489451,0.0151646768420747,-1.53963813219171,-0.00112974560415033,0
0.1,0.000567417903400109,0.000320667024253994,-0.0281071107288079,-0.0160436671737312,0.000577129952427852,-0.000302838959768245,-0.028593162447445,0.0151604746349495,-1.53964582007951,-0.00104398144194581,0
0.11,0.000566484180393452,0.000320648001763115,-0.0280747765825978,-0.0160427091510494,0.000576193943562217,-0.00030285311138065,-0.0285607067026608,0.0151607265562218,-1.53965290732179,-0.000965562688359105,0
0.12,0.000565651644459624,0.000320643953631087,-0.0280463544512238,-0.016042508183765,0.000575359705802097,-0.000302878749369077,-0.0285321930062003,0.0151615971812597,-1.53965944293115,-0.00089335490018631,0
0.13,0.00058821680243406,0.000333803479718824,-0.0291638886384543,-0.016700906757218,0.00059832162272369,-0.000315333165904629,-0.0296695833688826,0.0157850723706412,-1.53966573423165,-0.000911268944095772,0
0.14,0.000601978652089733,0.000342164340460716,-0.0298852217990113,-0.0171192282613559,0.000612335126306526,-0.000323265257251471,-0.0304034916829577,0.0161809193720515,-1.53967165733734,-0.000900139201882281,0
0.15,0.000569705146483896,0.000323942914776294,-0.0282785555063304,-0.0162075608830394,0.000579508513357029,-0.000306060204715877,-0.0287691479849412,0.0153198516808287,-1.53967719285742,-0.000720871485596995,0
0.16,0.000563857088713593,0.000321145723423411,-0.0280009489868142,-0.01606760840969,0.000573574821671826,-0.000303449033792904,-0.0284872496382466,0.0151887389936602,-1.5396819158912,-0.000649060735321609,0
0.17,0.000562441158585582,0.000320715705227694,-0.0279396891481386,-0.0160460985056213,0.000572144898457977,-0.000303065728216339,-0.0284252851809948,0.0151692672639726,-1.53968620808666,-0.000598387180342548,0
0.18,0.000561796847852687,0.000320649027549836,-0.0279155839901657,-0.0160427630072913,0.000571497629207334,-0.000303021380328629,-0.0284010280603755,0.015166795295443,-1.53969015591323,-0.000554241025487953,0
0.19,0.000561312727543759,0.000320638163620507,-0.0278987424919642,-0.016042217911539,0.000571012302486444,-0.000303027656298356,-0.0283841225634752,0.0151668775446975,-1.53969379496071,-0.00051395827515713,0
0.2,0.000560884392253246,0.000320635914113685,-0.0278840970998482,-0.0160421138771976,0.000570583087479554,-0.000303040642777682,-0.0283694301217786,0.0151673241967151,-1.53969715070738,-0.000476879849934329,0
0.21,0.000560492589828647,0.000320635031718894,-0.0278707471174813,-0.0160420618916027,0.000570190509205667,-0.000303053708160752,-0.0283560380383067,0.0151677750969187,-1.53970024542943,-0.000442696907505522,0
0.22,0.000560131659092627,0.000320634400735505,-0.027858453396499,-0.0160420334090415,0.000569828868382285,-0.000303065925519581,-0.0283437060845709,0.015168209747138,-1.5397030994672,-0.000411174347442929,0
0.23,0.000559798900865616,0.000320633846730251,-0.02784711931094,-0.0160420063308109,0.000569495456051744,-0.000303077215599929,-0.0283323367107196,0.0151686096114942,-1.53970573154552,-0.000382103622487357,0
0.24,0.000559492103256582,0.000320633339968941,-0.0278366692618575,-0.0160419806599896,0.000569188055249324,-0.000303087627704604,-0.0283218540930665,0.0151689775469731,-1.53970815892697,-0.00035529377935602,0
0.25,0.00055920911257853,0.000320632873151509,-0.0278270277720019,-0.0160419534890525,0.000568904508288386,-0.000303097230910163,-0.028312182459385,0.0151693134569493,-1.53971039753115,-0.000330568943902181,0
0.26,0.000563526692152342,0.000323248905569325,-0.0280423533270952,-0.0161728464793766,0.00057330069902942,-0.000305578952502141,-0.0285314416509192,0.0152935077953792,-1.53971239894439,-0.000325564333530575,0
0.27,0.000552167653786875,0.000316774173048833,-0.0274896938452571,-0.0158488978896549,0.000561745300086897,-0.00029946153747945,-0.027968950136639,0.0149869496655215,-1.53971446945321,-0.000261176683242149,0
0.28,0.000551670644245949,0.000316632629649609,-0.0274341478457042,-0.0158418207451195,0.000561243606509336,-0.00029933649298734,-0.0279131847360221,0.0149816511250649,-1.5397162245707,-0.000240762505055667,0
0.29,0.000557148042401933,0.000320017618007854,-0.0277399079149474,-0.0160111676270873,0.000566823085603082,-0.000302550502586144,-0.0282240364582809,0.0151414578529969,-1.53971775361964,-0.00024509046259629,0
0.3,0.000550251596207028,0.000316407851932945,-0.0274038755112999,-0.015830573618723,0.000559817503857951,-0.000299157333634754,-0.0278825397343767,0.0149714205103435,-1.53971874815989,-0.000208774564308638,0
0.31,0.00055667251984709,0.000319982719628444,-0.0277209671676971,-0.016009433302052,0.000566346008197339,-0.000302531707780628,-0.0282050159307547,0.0151403781891757,-1.53972006764155,-0.000218848224992884,0
0.32,0.000557604147829655,0.000320531117256188,-0.0277690531647143,-0.0160368706544681,0.0005672938328418,-0.000303051629307608,-0.0282539115594062,0.015166344834736,-1.53972136420719,-0.000208627000960061,0
0.33,0.000557633584850661,0.000320615067602899,-0.0277727680832394,-0.0160410711278098,0.00056732549749887,-0.000303135310406213,-0.0282577368520929,0.015170462021004,-1.5397225731939,-0.000195955744582124,0
0.34,0.000557522620288593,0.000320627756716546,-0.0277694295178783,-0.016041704321582,0.000567214642068358,-0.000303152074599215,-0.0282544026221653,0.015171230199099,-1.53972369036226,-0.000183730267621633,0
0.35,0.000557397452330449,0.000320629524645026,-0.027765231119707,-0.0160417904750227,0.000567089277005434,-0.000303158314819213,-0.0282501932907011,0.0151714758614085,-1.53972472101504,-0.000172365813778947,0
0.36,0.000557278163233006,0.000320629630460453,-0.0277611689091262,-0.0160417922223713,0.000566969760600147,-0.000303162665429916,-0.0282461186736339,0.0151716306566485,-1.53972567157504,-0.000161870245889165,0
0.37,0.000557167335848862,0.000320629494050429,-0.0277573810119925,-0.0160417941344616,0.000566858716700403,-0.00030316646894524,-0.0282423193638913,0.0151717749998257,-1.53972654822024,-0.000152188434791066,0
0.38,0.000557065217991591,0.000320629332324343,-0.0277538908138253,-0.0160417812810266,0.0005667563980003,-0.000303169937771704,-0.0282388181848845,0.0151718934050786,-1.53972735669038,-0.000143259164260025,0
0.39,0.000556971074583725,0.000320629177650769,-0.0277506722011769,-0.0160417684049641,0.00056666206917694,-0.000303173130141948,-0.0282355894133881,0.0151720015704666,-1.53972810228626,-0.000135024253483472,0
0.4,0.000556884054130866,0.00032062903414823,-0.0277476924795942,-0.0160417687852631,0.000566574877793561,-0.000303176079427893,-0.0282326007090628,0.0151721139233989,-1.53972878989723,-0.000127429759418718,0
0.41,0.00055680399697477,0.000320628901666026,-0.0277449527637963,-0.0160417544116687,0.000566494662898056,-0.000303178793022631,-0.0282298522476272,0.0151722025608254,-1.53972942403274,-0.000120425886446044,0
0.42,0.000556729956830266,0.000320628779458274,-0.0277424141626766,-0.0160417547489564,0.000566420477378681,-0.000303181301955183,-0.028227306008915,0.0151722982595985,-1.53973000885147,-0.0001139667036105,0
0.43,0.000556661890454176,0.000320628666743785,-0.0277400822629781,-0.0160417417941591,0.000566352276826645,-0.000303183608981735,-0.0282249666489836,0.0151723729657238,-1.53973054818901,-0.000108009850682297,0
0.44,0.000556598967972883,0.000320628562788491,-0.0277379227426465,-0.0160417420943183,0.000566289230674171,-0.000303185741166611,-0.0282228006332746,0.0151724543799638,-1.53973104558237,-0.000102516261561689,0
0.45,0.000556540934935094,0.000320628466912233,-0.0277359294623396,-0.0160417423773819,0.00056623108358319,-0.000303187707595681,-0.0282208013636905,0.0151725295199348,-1.53973150429324,-9.74499082791412e-05,0
0.46,0.000556487536887351,0.000320628378487852,-0.0277340957682677,-0.0160417279218721,0.000566177580291725,-0.000303189517262237,-0.0282189616867761,0.0151725839632897,-1.5397319273304,-9.27775647504125e-05,0
0.47,0.000556438118583358,0.000320628296936108,-0.0277323945267999,-0.0160417281759889,0.000566128065010943,-0.000303191191520634,-0.0282172553545662,0.0151726480654368,-1.53973231746779,-8.84685888791481e-05,0
0.48,0.000556392658400297,0.000320628221723396,-0.0277308298284941,-0.0160417284161648,0.000566082515336338,-0.000303192731967212,-0.0282156859595189,0.0151727070553904,-1.53973267726435,-8.44947216019438e-05,0
0.49,0.000556350632469222,0.000320628152357139,-0.0277293802628569,-0.0160417286442497,0.000566040406921264,-0.000303194155724126,-0.0282142320657368,0.0151727616668361,-1.5397330090796,-8.08299015589135e-05,0
0.5,0.000556312077376891,0.000320628088383198,-0.027728052042409,-0.0160417155971114,0.000566001775661198,-0.000303195462439705,-0.0282128994378092,0.0151727985117187,-1.53973331508952,-7.74500941800435e-05,0
0.51,2.4652660426861,-0.014049809725192,1.35710858926426,0.705154040827859,-0.137224271223281,2.46148401533744,0.636456881044121,1.39065041722292,0.0499919037672835,15.3743364481676,569.805725464884
0.52,2.43928205839038,-0.00124464753254275,0.664105459214359,0.0667960348059429,-0.546780787846751,2.37721039867622,-0.0834293207754444,0.662221503470749,0.225567084285348,32.4971875785523,569.805725464884
0.53,2.37663582711973,0.0213217626762773,1.77960726882145,-1.05980882870605,-1.17485347150834,2.06605222412153,-1.81006577295884,1.00690549815181,0.526017549999754,49.4882912392499,569.805725464884
0.54,2.3332308535457,0.0214308679348345,1.81482911551736,-1.06248601005029,-1.88814566264652,1.37088710500434,-2.09461618978971,0.187254526121419,0.951985403464251,66.8276349370451,569.805725464884
0.55,2.23830555963983,0.0262392515644059,4.18118902249549,-1.30427928665773,-2.23225336621946,0.166568861553149,-4.25475889166614,-1.03947721150063,1.50803748615251,85.0194719656397,569.805725464884
0.56,2.21632383312558,-0.0102152971577374,2.99220042294004,0.521650973475919,-1.79134644894063,-1.30509523998989,-2.73174667167653,-1.32775872467672,2.19582199441244,102.247095900376,569.805725464884
0.57,2.19132183393698,-0.00793785199166974,2.28366851431969,0.411760144604019,-0.294702877230372,-2.17142916152826,-0.723131648448948,-2.20494193097935,3.00307607019682,117.848369208677,569.805725464884
0.58,2.13015396160438,0.0432218936953308,3.32878036612698,-2.14456989601639,1.47139642037157,-1.54091421122371,3.86789510582719,-0.848142803500878,-2.35898057193276,133.688627788881,569.805725464884
0.59,2.09897762323231,-0.0275536565659681,2.61644397276852,1.39294766669324,2.0248869799222,0.553442847421197,2.88228920758956,-0.691730575148742,-1.31711875502338,150.21971279695,569.805725464884
0.6,2.04344861015934,-0.0187551877160395,3.49108776749142,0.958906600865416,0.310834736786049,2.01975635803815,1.50903255646525,3.29089902808328,-0.1618770860807,164.878452037295,569.805725464884
0.61,2.00704756755924,0.0193726872834474,3.1764032490215,-0.954014233583423,-1.78303143249733,0.921636669292487,-3.26554733227597,0.579552740429558,1.1033777718846,180.565603786574,569.805725464884
0.62,1.99657202572749,-0.00467377664374174,1.75130939336013,0.256566456766582,-1.2222482259856,-1.57874347890363,-1.27784603301952,-1.22475322163506,2.48044761815856,194.89065692816,569.805725464884
0.63,1.90869768777132,0.0187292893042266,4.08910780397275,-0.920536575730282,1.38415838198804,-1.31437560200792,3.61999416632513,-2.11277837350256,-2.32052845079371,209.766556275574,569.805725464884
0.64,1.87805622596174,0.026296145776497,3.73319034336411,-1.28979851175376,1.27505167216647,1.37914100383603,1.53643671741865,3.63863333603113,-0.732200429934676,223.439745749913,569.805725464884
0.65,1.83137566807103,-0.0117328339021598,4.02017976460469,0.606631858766897,-1.50533949568823,1.04308556682331,-2.94097482419066,2.80722543364168,0.958428812061399,237.725081176266,569.805725464884
0.66,1.80025758550788,0.00454779316412746,3.74307548446905,-0.1985960357438,-0.693424963036893,-1.66135784141726,-1.24956080696456,-3.5339287284189,2.74871625479291,250.960327395727,569.805725464884
0.67,1.77379037993502,0.0444502602262122,3.14144509071087,-2.19663692248723,1.7656087347754,-0.17588045163976,3.29570646250942,1.95760311099039,-1.64502917118835,264.13127515369,569.805725464884
0.68,1.71290366789493,-0.00439342700465295,4.25040678024481,0.241032779222516,-0.574738572256435,1.61360895239503,-1.18861325733397,4.08793996075049,0.339606683301826,277.345113211637,569.805725464884
0.69,1.64133487080227,-0.0151105821115959,6.00702909350884,0.774554364447644,-1.07572995248182,-1.23976350855182,-4.55876640169086,-3.98772891362503,2.41771204926521,289.95447533214,569.805725464884
0.7,1.64732945580549,0.0148757096440283,3.90959533278489,-0.711825797675136,1.63275067291176,-0.219182259336905,3.9677090022864,0.221171665329733,-1.69520971945032,302.057205748743,569.805725464884
0.71,1.59276965766879,0.0277193403102788,4.80530267386318,-1.35696677694354,-0.82890223025631,1.36036930165809,-3.71773672514294,3.33327560572009,0.5646468248806,314.151021593226,569.805725464884
0.72,1.59578544957147,-0.00572071331932333,2.83517396745306,0.312999149413448,-0.357944557830513,-1.55513331298137,-0.950613631423152,-2.68933330344336,2.91177823054621,326.068268385541,569.805725464884
0.73,1.51443861642678,0.0433599381503504,5.12029896301495,-2.14721120148773,1.24764701405222,0.859523900474928,2.86342701189961,4.75696995596672,-0.938924926137327,337.668737569552,569.805725464884
0.74,1.4773128229406,0.0152421811888022,5.23259246286628,-0.742649980788399,-1.4773786602202,0.00614778318383331,-5.22792168047129,-0.774846939252011,1.57695221097942,348.946420794445,569.805725464884
0.75,1.460956455827,0.0362719546952703,4.33560351243532,-1.79580967839483,1.23589874250329,-0.77991263536295,4.64326539934219,-0.680056357465776,-2.10891120601005,359.922418587471,569.805725464884
0.76,1.42298001366382,-0.00290252580241282,4.54511019548095,0.163784209488291,-0.76790847684863,1.19799712651022,-2.30687634183055,3.91958843500757,0.56797799683495,370.613404308996,569.805725464884
0.77,1.38229845114959,0.023724292126733,4.91099791053302,-1.16892371811587,0.225167654913149,-1.3640422930644,2.0327631949287,-4.62083941826339,-2.96083293876516,381.033488401254,569.805725464884
0.78,1.34526257578567,0.0208457372912207,5.10946323829169,-1.02523279359266,0.196030448555131,1.33106649188235,-0.35043737038182,5.19951060331181,-0.130727685198476,391.225831776109,569.805725464884
0.79,1.34053826073389,0.0268838972326032,3.70454943019626,-1.32693470470444,-0.507846022083839,-1.2409101459314,-0.0962126228469526,-3.93385120747105,2.77318707930182,401.195665162017,569.805725464884
0.8,1.28059033414566,-0.0201814133383375,5.08479062740267,1.02787932719438,0.634353091273074,1.1126163080523,3.47259034847397,3.85392629761923,-0.533936436600057,410.903399376316,569.805725464884
0.81,1.2467548716762,-0.0103713513718611,5.19349775433687,0.538496155499157,-0.725523050107754,-1.01396330246215,-3.49248493534454,-3.88135878400605,2.51220001642803,420.304944654234,569.805725464884
0.82,1.2178893824128,0.027215580990901,5.08065523840766,-1.33902675240909,0.764999692227877,0.948035182118131,2.0408160365603,4.84160306098556,-0.656610558326232,429.479605228592,569.805725464884
0.83,1.15234000227301,0.0336361750089923,6.82728915148978,-1.65639821692046,-0.694378102312707,-0.920248838160853,-2.60071136256425,-6.5262418450205,2.52436406053641,438.378036703382,569.805725464884
0.84,1.13146845125198,0.00426349266881604,6.36817608194017,-0.181451914253686,0.559040430652223,0.983723960491188,2.96741282862523,5.63746862628002,-0.513008782472348,447.067909283351,569.805725464884
0.85,1.08102137102738,-0.020508558456668,7.41782449002468,1.05986064122108,-0.347293152053376,-1.02392151658451,-3.51252764803474,-6.61888013680645,2.79562065197489,455.53113295272,569.805725464884
0.86,1.07602805444147,-0.0184611590562624,6.19005429654648,0.937435583299448,0.107923010942627,1.07076132356743,1.65727521668728,6.03730043340429,-0.117606753361689,463.885331141765,569.805725464884
0.87,1.07152717465158,-0.0191094383481872,4.9539277500107,0.973221907689145,0.200737556744345,-1.05272982762107,-0.1181027110108,-5.04723813422589,-2.9710036457493,471.925490597445,569.805725464884
0.88,1.06762803460111,0.0415826470946324,3.73489819334477,-2.05405962374438,-0.491375568035265,0.948740632598629,-3.63125299436907,2.23217990839283,0.516812744041465,479.678172670946,569.805725464884
0.89,0.976038793634745,-0.00672999400465088,6.92747565853504,0.369283480718957,0.78036712034887,-0.586279947616906,5.28589021939869,-4.49284474216422,-2.22201593435125,487.255813831548,569.805725464884
0.9,0.963875775080221,-0.0209106768591433,6.15350549978634,1.05748142310166,-0.949909311778221,0.164821314126027,-5.8353310476264,2.22099267461945,1.37730317780651,494.725952598463,569.805725464884
0.91,0.917653582628519,0.0285383420212778,7.09597611355246,-1.41098792303256,0.880660688792984,0.259498142365117,6.30030438816605,3.55667380279756,-1.25315376930774,501.889681251503,569.805725464884
0.92,0.92110061619753,0.0146559661970145,5.60168468432795,-0.70308130706249,-0.597695436042859,-0.70100021985601,-3.02395756719563,-4.7674810181872,2.45148240240076,508.828050495988,569.805725464884
0.93,0.884733470963096,-0.0241055394609719,6.10990688396452,1.21581476506515,0.0436740999708321,0.883983577147703,1.67984227568416,5.99894137348347,-0.0766052319966846,515.669097191191,569.805725464884
0.94,0.860072686182356,0.0184520126527759,6.03522060935392,-0.906676413688766,0.46026141717613,-0.726790843466601,4.09299679545745,-4.52695561664624,-2.55561127697132,522.245704850368,569.805725464884
0.95,0.834216701131689,0.0369254216782085,6.08184716042448,-1.81720826778048,-0.792881115374296,0.2619552024602,-6.34676650111109,-0.0983145545031476,1.29593726387329,528.553022702689,569.805725464884
0.96,0.799925984409387,0.0139947838739156,6.54690396626681,-0.692840451161254,0.715625826927832,0.357710931259951,5.4833927302169,3.64340275024459,-1.08976941661753,534.792075627185,569.805725464884
0.97,0.792444763477822,0.0033905198521865,5.70214633557582,-0.146867882694118,-0.229373389451798,-0.758530188588222,-1.486343830877,-5.50697966436246,2.85222142776557,540.715098210271,569.805725464884
