t,iq,id,vq,vd,ia,ib,va,vb,theta_e,omega,r
0,0,0,0,0,0,0,0,0,0,0,0
0.01,0.000579302774306111,0.000331553982139878,-0.0284836210142132,-0.0165968723666288,-0.000110675085756123,-0.000658233068741189,0.00571832241886189,0.0324665000754537,-2.78834667028777,-0.00130552733054458,0
0.02,0.000644582390025738,0.000368787257965167,-0.0317477627025854,-0.0184606799689879,-0.000123033443428172,-0.000732361434652977,0.00633819169452057,0.0361738091383887,-2.78835654155711,-0.00141951868947809,0
0.03,0.000670453718843043,0.000383571712866833,-0.0330188261714891,-0.0192007521316893,-0.000127963071073328,-0.000761748580873995,0.00659324986502805,0.0376223446954452,-2.78836680014496,-0.00144147436643854,0
0.04,0.000655693671643249,0.000375236671585524,-0.0323034062987737,-0.0187835253153768,-0.000125255789378426,-0.00074501526022141,0.00644962412320273,0.0368067008905506,-2.7883765714107,-0.0013717823795756,0
0.05,0.000670733902846556,0.000383873055029238,-0.0330447107584905,-0.0192158504116037,-0.000128163788539386,-0.000762113202951166,0.00659919810066185,0.037651725067806,-2.78838635452345,-0.00137057223094883,0
0.06,0.000671336526584838,0.000384279345414279,-0.0330801425640496,-0.0192361763630552,-0.000128343869328733,-0.00076281793269741,0.00660637503010542,0.0376919370965464,-2.7883959553386,-0.00133682965329391,0
0.07,0.000688842934691606,0.000394401393671533,-0.0339416351147891,-0.0197428663701087,-0.000131792896631395,-0.000782743687551741,0.0067841564858985,0.0386754520018615,-2.78840520888154,-0.00134322772383833,0
0.08,0.000671970913740711,0.000384773516841684,-0.0331225916818412,-0.0192609168967081,-0.000128602188035517,-0.000763581721499881,0.00661560144626569,0.0377402016015818,-2.78841440186268,-0.00127079504638858,0
0.09,0.00067103537726083,0.000384317320765413,-0.0330823679472059,-0.0192380802096651,-0.00012850449073464,-0.000762544999614397,0.0066084209296257,0.037694503206233,-2.78842326248183,-0.00123622400290767,0
0.1,0.000670875864972488,0.000384294337486799,-0.0330799274527922,-0.0192369411723797,-0.000128544668690891,-0.000762386274914594,0.00660852119330985,0.0376917624102292,-2.78843188237132,-0.00120431850641331,0
0.11,0.000670757223757794,0.000384291852872836,-0.0330793404330992,-0.0192368119633105,-0.000128589766458064,-0.000762273017605871,0.00660891920175221,0.0376911114851413,-2.78844027197098,-0.00117334917804853,0
0.12,0.000670643588420347,0.000384290373642436,-0.0330788574025601,-0.0192367293384672,-0.000128633903709848,-0.000762164833077418,0.00660931650392448,0.0376905757192869,-2.78844843762257,-0.00114321059386582,0
0.13,0.000702311539237252,0.000402481509473786,-0.0346319714357608,-0.0201473467814243,-0.000134756664479833,-0.000798168844914637,0.00692691962386467,0.0394627268746451,-2.78845664703779,-0.0011859936482041,0
0.14,0.000732981660547733,0.000420279608270042,-0.0362072921617177,-0.0210382708976493,-0.000140856134903365,-0.000833100602020559,0.00721838491907184,0.0412489001939079,-2.78846464010766,-0.00122727326202066,0
0.15,0.000673343609086011,0.000385986043801515,-0.03322576981417,-0.0193216153678206,-0.000129309532071288,-0.000765281573554482,0.00663906479789064,0.0378576203527853,-2.78847248031277,-0.0010614503077478,0
0.16,0.000670354158623576,0.000384365157338956,-0.0330841771139021,-0.0192404788111026,-0.000128828068770875,-0.000761915087694744,0.0066121771115903,0.037696656536482,-2.78847980201086,-0.00102778696493475,0
0.17,0.000670115132300694,0.000384287417355134,-0.0330769020691494,-0.0192365870703379,-0.000128843201821978,-0.000761663008830097,0.00661130935878762,0.0376884374997054,-2.7884869132758,-0.00100121811777593,0
0.18,0.000670012081757223,0.000384282591003158,-0.0330761544053145,-0.0192363415682462,-0.000128879580092863,-0.000761563755232505,0.00661159838126611,0.0376876053102248,-2.78849383399694,-0.00097565900066316,0
0.19,0.000669917870070694,0.000384281239078043,-0.0330757224358215,-0.0192362866503277,-0.000128916019902298,-0.000761474020016416,0.00661195008861493,0.0376871364628668,-2.78850056995237,-0.000950796694579124,0
0.2,0.00066982663581819,0.000384280081183499,-0.033075323252483,-0.0192362215901551,-0.00012895147409178,-0.000761387168381151,0.00661227416001935,0.0376866960578204,-2.78850712610759,-0.000926598728668292,0
0.21,0.000669737904493912,0.000384278961592516,-0.0330749365436907,-0.0192361579968364,-0.000128985964377439,-0.000761302700659955,0.00661258869367243,0.0376862690195877,-2.78851350726342,-0.000903046697293207,0
0.22,0.000669651376219528,0.000384277872175823,-0.0330745503188735,-0.019236110380631,-0.00012901959046978,-0.000761220332092947,0.00661291162740043,0.0376858490839693,-2.7885197180913,-0.000880123326321168,0
0.23,0.000669567176251645,0.000384276811795303,-0.0330741737533028,-0.019236064226272,-0.000129052311531367,-0.000761140179261071,0.00661322634035155,0.0376854398110491,-2.78852576313777,-0.000857811833759567,0
0.24,0.000669485429840676,0.000384275779663019,-0.033073816021722,-0.0192360006613243,-0.000129084086961976,-0.000761062358875913,0.00661351211892411,0.0376850432550372,-2.78853164682755,-0.000836095887073958,0
0.25,0.000669405653650462,0.000384274775027665,-0.0330734556876829,-0.0192359530662912,-0.000129115086534362,-0.000760986416627123,0.00661380785945734,0.0376846508155756,-2.78853737346809,-0.000814959589754073,0
0.26,0.000676141389201335,0.000388170682183773,-0.0334061417656629,-0.0194309733746344,-0.000130445963480176,-0.000768653047421173,0.00668197862562025,0.0380642114800776,-2.78854291134381,-0.000810185985933579,0
0.27,0.000654618923553636,0.000375838612454467,-0.032357476206934,-0.0188136584384518,-0.000126320259268056,-0.000744193381981237,0.00646553013339219,0.0368667455902366,-2.78854845436886,-0.000740414059474181,0
0.28,0.000652761121857884,0.000374771002612799,-0.0322030494427832,-0.0187602149244959,-0.00012596476547585,-0.000742080362539786,0.00646897085656438,0.0367033305502994,-2.78855374339494,-0.000716790137958602,0
0.29,0.000668311196772915,0.00038382229316734,-0.0330331799442477,-0.0192132998192943,-0.000129085215770424,-0.000759800247126693,0.00660728412411185,0.0376388849951536,-2.78855879494606,-0.000734064497125585,0
0.3,0.00066426966593792,0.000381585734452032,-0.0328384626074486,-0.0191013510408509,-0.000128387401130751,-0.000755234094207527,0.00656973400466079,0.0374174402266459,-2.78856338623667,-0.000707972289948221,0
0.31,0.000668744440754174,0.0003841425723304,-0.0330601961380638,-0.0192293356506475,-0.000129243132169364,-0.000760316286622404,0.00661334607602277,0.0376697169080319,-2.78856824087898,-0.000700499465106648,0
0.32,0.000668898541399591,0.000384262537570897,-0.0330706540054949,-0.0192353507508674,-0.00012930603233996,-0.0007605017465249,0.00661555349539711,0.0376815780827925,-2.78857298953539,-0.000683479435332616,0
0.33,0.000668845017205708,0.000384267431502793,-0.0330708838458752,-0.0192355898115909,-0.000129332645159226,-0.000760452617097723,0.00661587255565649,0.0376818458156505,-2.78857761258357,-0.000666440930063043,0
0.34,0.000668782994357133,0.000384266911240443,-0.0330706207248464,-0.019235555349189,-0.000129357021592269,-0.000760393656983237,0.00661610074273081,0.0376815572353425,-2.78858211228707,-0.000649834289307961,0
0.35,0.000668721952187801,0.00038426615529506,-0.0330703298482461,-0.0192355237393622,-0.000129380745986664,-0.000760335550931985,0.00661633667398195,0.0376812443904907,-2.78858649188581,-0.000633669806226137,0
0.36,0.000668662539832371,0.000384265407712695,-0.0330700452186589,-0.0192354921300114,-0.000129403825391077,-0.000760278992024531,0.00661656603840219,0.0376809381797659,-2.7885907545827,-0.000617936737046475,0
0.37,0.000668604940746412,0.000384264679500122,-0.0330697780111265,-0.019235444580066,-0.000129426209122461,-0.000760224155821185,0.00661677013225324,0.0376806435575999,-2.78859490349822,-0.000602623617667269,0
0.38,0.00066854867160316,0.000384263970672449,-0.0330695060158733,-0.0192354129726612,-0.000129448066634048,-0.000760170588423423,0.00661698666561108,0.0376803506861312,-2.78859894166973,-0.000587719241138159,0
0.39,0.000668493974066149,0.000384263280738587,-0.0330692432274205,-0.0192353813652493,-0.000129469316200109,-0.00076011851605484,0.0066171959523825,0.0376800671659254,-2.78860287205246,-0.000573212697279341,0
0.4,0.000668440673512395,0.000384262609196962,-0.033068982712003,-0.0192353497581179,-0.000129490019939046,-0.000760067774325913,0.00661740049847921,0.0376797864718818,-2.78860669752428,-0.000559093367013029,0
0.41,0.000668388828149559,0.000384261955557627,-0.0330687292230655,-0.0192353181510009,-0.000129510159428115,-0.000760018417335407,0.00661759876601762,0.0376795130458271,-2.78861042088534,-0.000545350914704399,0
0.42,0.000668338379769981,0.000384261319344166,-0.0330684816021191,-0.0192352865436769,-0.000129529756444005,-0.000759970389958214,0.00661779125812198,0.0376792457826715,-2.78861404486106,-0.000531975280601656,0
0.43,0.000668289328373661,0.000384260700092465,-0.0330682415557095,-0.0192352549360011,-0.00012954881259571,-0.000759923691701155,0.00661797748481005,0.0376789862662234,-2.78861757210414,-0.000518956673468802,0
0.44,0.000668241557545276,0.000384260097350903,-0.033068004923937,-0.0192352233282476,-0.000129567369692548,-0.000759878212845727,0.00661815898181492,0.0376787305761288,-2.78862100519692,-0.000506285563422305,0
0.45,0.000668195067284827,0.000384259510679738,-0.0330677733221974,-0.0192351917202966,-0.000129585429256598,-0.00075983395292392,0.00661833528539648,0.0376784802115859,-2.78862434665236,-0.000493952674952974,0
0.46,0.000668149857592313,0.000384258939650912,-0.0330675482976572,-0.019235160112049,-0.00012960299276889,-0.000759790911480006,0.00661850595291091,0.0376782366082243,-2.78862759891643,-0.000481948980136978,0
0.47,0.000668105628597635,0.000384258383847992,-0.0330673164495913,-0.0192351429772723,-0.000129620165329542,-0.000759748806686298,0.0066186892880389,0.037677992179015,-2.78863076437007,-0.000470265692026018,0
0.48,0.000668062805418284,0.000384257842865239,-0.0330671005354571,-0.0192351113672441,-0.000129636801384798,-0.000759708037020482,0.00661885034726779,0.0376777582562018,-2.78863384532996,-0.000458894258215765,0
0.49,0.000668021146391546,0.000384257316307961,-0.0330668898601551,-0.0192350797567941,-0.000129652985836984,-0.000759668375296765,0.00661900649528771,0.0376775297928248,-2.78863684405217,-0.000447826354586196,0
0.5,0.000667980409857981,0.000384256803791837,-0.0330666737741546,-0.0192350640716764,-0.000129668803546455,-0.000759629594342654,0.0066191764401284,0.0376773022864205,-2.78863976273101,-0.000437053879207402,0
0.51,3.70328160962435,0.0103059894141471,4.4389280493981,-0.512512295267335,-0.270762625535059,3.6933844227501,-0.847900821781511,4.38723321433402,0.0759621828618064,23.3598290695636,545.590606712269
0.52,3.55556479893877,-0.0207224347407373,5.20667533490062,1.04433694291865,-1.2098520981982,3.34346053651595,-0.759005601309173,5.25585560975456,0.341369786423248,48.9112896777519,545.590606712269
0.53,3.41518313071163,0.0371952505255799,5.73640201756979,-1.85167495203154,-2.40329233855886,2.42673551059509,-5.382066269728,2.7144743327974,0.791435283878909,73.8172706282359,545.590606712269
0.54,3.29015436087483,0.000576523453507782,5.37584998875505,-0.0151854304404617,-3.25458041738677,0.482516691447536,-5.32008736793439,0.772440351380099,1.42378597557298,98.8150145323037,545.590606712269
0.55,3.14461417962057,0.00996829549472955,5.61824330673861,-0.485533409580719,-2.46772400513102,-1.94911157712582,-4.09566131638579,-3.87633318059649,2.24248242875998,124.586107220427,545.590606712269
0.56,3.06808907709825,0.0229138272082303,3.00011669032729,-1.13095031946192,0.28979303452507,-3.05445831951062,1.43072759821799,-2.86927993063918,-3.0395320714958,148.010787435322,545.590606712269
0.57,2.89915007940875,-0.00706894085727461,5.81650263932341,0.373425350983633,2.76663641888158,-0.866512595741523,5.43389200115316,-2.10807190717421,-1.87675774716893,169.055060911254,545.590606712269
0.58,2.84629375256381,-0.00278912758171182,2.72610791848628,0.162423660057639,1.51044973846322,2.41245466127196,1.58651526639073,2.22283943146806,-0.560373386996791,190.38288526305,545.590606712269
0.59,2.65676547480776,0.00761762402675425,6.23595313401326,-0.36179573744612,-2.10162504239135,1.62531012349024,-5.16433738264145,3.51391904338959,0.915379699114276,211.636927753207,545.590606712269
0.6,2.54511101590557,-0.00500564263538128,6.71441918828308,0.274936743374145,-1.44497322209575,-2.09515334216098,-4.0489539609816,-5.36330001684528,2.53586365486001,230.376613934697,545.590606712269
0.61,2.49905178120886,0.0224433605597792,3.53024886587536,-1.1030053304888,2.27687877151894,-1.03033323221314,3.67490691702683,-0.417536783157308,-1.98676341891015,250.08058112793,545.590606712269
0.62,2.36874160848298,0.0302742605218632,5.16856798941488,-1.48996008104865,0.239479789332267,2.3567992636434,-1.02738845082974,5.28001411697207,-0.088484691193855,267.527722630496,545.590606712269
0.63,2.24940563795375,0.00228095794741034,6.10734956795492,-0.0935695962310302,-2.10079914254395,-0.804036000135491,-5.66811487869465,-2.27616953157236,1.93733954218487,285.446587866561,545.590606712269
0.64,2.21646099061686,-0.00413724277234473,3.20771493534616,0.234785074587236,1.80274673888277,-1.28950402680704,2.46853489454683,-2.06176977669585,-2.19358344603149,301.512120907546,545.590606712269
0.65,2.11989346588491,0.0203524530460202,3.29809663324599,-0.996852795764427,-0.143741877827064,2.11511247965806,-1.24906447565005,3.21107378213596,0.0774555154854048,318.050933363152,545.590606712269
0.66,1.97851414585106,0.0494485810642512,6.18450716852837,-2.44691965818589,-1.28050038107156,-1.50906665246357,-1.97759109592672,-6.35017150858988,2.46293555955653,332.824515180655,545.590606712269
0.67,1.91114451232466,0.00667210413940416,5.19009766685404,-0.309528601082485,1.85483758611474,0.460538155963598,4.95712067421535,1.56839930108331,-1.32393630975734,347.751680585017,545.590606712269
0.68,1.83184934010869,0.0298938558027261,5.05838594422348,-1.47651315517085,-1.74431893164006,0.560283064346485,-5.2691852686699,0.0551911455071661,1.27631866246258,361.976727123572,545.590606712269
0.69,1.78554643366227,0.00791740418958237,3.55043052509237,-0.36727428562065,1.32005627115342,-1.20236857620352,2.88149622640017,-2.10652007149882,-2.30513759513881,375.060368607437,545.590606712269
0.7,1.69340706202827,-0.00729609519264307,4.28796622719895,0.389877794719807,-0.808478199208328,1.48796630073975,-1.68754530485859,3.961167745055,0.493410507338995,388.05599875436,545.590606712269
0.71,1.61762859170149,-0.00621439289517661,4.3613453158413,0.330652049217447,0.393620845945245,-1.56901991988838,0.723967678010023,-4.31352924446553,-2.89963649349528,400.597706246596,545.590606712269
0.72,1.5455471457904,-0.0115380024028177,4.5126713443821,0.59962981938244,-0.133618115285658,1.53980365781739,0.241201719025176,4.54594108116672,0.0790940615167891,412.269760895318,545.590606712269
0.73,1.4830311639007,0.0426977938937175,4.23215322575335,-2.11010167262409,-0.040341976860695,-1.48309711738882,2.11682169498794,-4.22879603512558,-3.14000417439116,423.444772690916,545.590606712269
0.74,1.42517925480183,0.00787682660017697,3.77477792445475,-0.370562277770739,0.000393764831910355,1.42520096746531,-0.390376772524683,3.77278024222599,0.005250558868241,434.363572466826,545.590606712269
0.75,1.37568079769892,0.000956388161940797,3.03612320524116,-0.0284422885059085,0.117526285623561,-1.37065172236545,0.289819655842009,-3.02239270252344,-3.05536183740931,444.828423103926,545.590606712269
0.76,1.29813082689434,0.000981594702381461,3.86031609831337,-0.0333154278188136,-0.309004771513887,1.26081745643182,-0.954089215166047,3.74070368595695,0.241101616654712,454.745802905181,545.590606712269
0.77,1.22514521533663,0.042933919112381,4.6032619833123,-2.13480226861621,0.513004642019795,-1.11339586730809,3.97799360137171,-3.15007436746228,-2.67479991128826,464.11047877682,545.590606712269
0.78,1.16455902481259,0.00529932883146234,4.82462987813152,-0.240250094076613,-0.798479968464953,0.84773553961051,-3.49805640749305,3.33142235969263,0.760037070518133,472.979902389395,545.590606712269
0.79,1.14259377787836,0.0428490710807537,3.182092776988,-2.12023699189073,1.00861050199121,-0.538573522754195,3.78908065967912,0.513796747349289,-2.02376963686781,481.539278248447,545.590606712269
0.8,1.09101613567867,-0.0162422972327203,3.11524105827054,0.835982031872189,-1.09094176837873,0.020641669925506,-3.0852062995714,0.940794822388306,1.53699140826363,489.732454543265,545.590606712269
0.81,1.01566635973377,0.0325899255437039,4.32051094426801,-1.61148024964072,0.931163089219737,0.406909767413548,3.20918141174471,3.31131968873952,-1.12673707144767,497.593473916037,545.590606712269
0.82,0.937391271215497,0.00854916188285508,5.78180368227696,-0.411018533083893,-0.530946073948122,-0.772574753715768,-2.89028630200484,-5.02438405651609,2.54860020884922,505.048342367338,545.590606712269
0.83,0.925194347690544,0.0099807926917459,4.0335093995891,-0.48429176037164,0.0157308242997355,0.925114446102826,-0.459213528795379,4.03644144274493,-0.00621519296413098,512.151484481538,545.590606712269
0.84,0.896378350094233,-0.0236396662556731,3.18834498322668,1.19717457002594,0.548215711582721,-0.70958615679295,0.915749263426085,-3.28027041106646,-2.51015936447638,518.94998279074,545.590606712269
0.85,0.829193140413622,0.008002406721311,4.36198313561342,-0.388975781598186,-0.800718039960046,0.215582752336268,-4.32023701331751,0.716764384443897,1.31744652015894,525.384390168497,545.590606712269
0.86,0.775466850798973,0.0374571670829399,4.94470612843854,-1.86514142418111,0.705591070423192,0.323872069485792,3.53021395469469,3.93274213023087,-1.09221128384194,531.508229657349,545.590606712269
0.87,0.735242608755888,0.00214110810587742,4.94357948286152,-0.0982492871690432,-0.230962228908951,-0.698027740775031,-1.44588373349103,-4.72843010469909,2.82496536119747,537.283864468798,545.590606712269
0.88,0.697345538415616,-0.00491485816913574,4.88934703602437,0.25415085880388,-0.338840765683663,0.609509549793846,-2.12250389241194,4.41194790590361,0.50033189447742,542.805477876533,545.590606712269
0.89,0.714880317622758,0.00653833845193297,2.12793794786424,-0.318640482444875,0.697195800993372,-0.15816015133825,2.14707763907136,-0.140389738988,-1.78472687273083,548.067972352717,545.590606712269
0.9,0.645027155460908,-0.0249536559149435,3.82490411171213,1.25680755701412,-0.485859629620542,-0.424997807677289,-3.76439542796652,-1.42785985343973,2.25080857295861,553.010558449095,545.590606712269
0.91,0.594873820883906,0.0104829809269188,4.60704585806736,-0.517615419989267,-0.0123944411617565,0.594837064657558,-0.694348693467342,4.58374051984037,0.0384540533330373,557.683948432755,545.590606712269
0.92,0.569661451737765,0.00312260620548593,4.20423707230669,-0.148752754447059,0.478024661439307,-0.309865040495581,3.62059174780569,-2.1422073050559,-2.14043759856384,562.131146047406,545.590606712269
0.93,0.580795735609414,0.0353138506924661,2.04710784724795,-1.7588888385614,-0.543726939599065,-0.207199830374072,-1.14022722042545,-2.44626702763228,1.99560866049243,566.340364292634,545.590606712269
0.94,0.495486462972958,0.00440523798052114,4.76617916725908,-0.212053258547511,0.0643309517995026,0.491312293507589,0.366253330685055,4.75681499920243,-0.121305810315211,570.338055678275,545.590606712269
0.95,0.455988058787341,0.0387475687891551,5.26078556265355,-1.93052840568275,0.342925556029582,-0.30303225383698,5.37423155553139,-1.58758931997626,-2.20974313940987,574.101810765314,545.590606712269
0.96,0.482244759559917,0.00479782417851912,2.52811714401026,-0.228747153674254,-0.438139966638195,-0.201535100848789,-2.18851102330114,-1.28612637599967,2.01186619058737,577.65166872403,545.590606712269
