t,iq,id,vq,vd,ia,ib,va,vb,theta_e,omega,r
0,0,0,0,0,0,0,0,0,0,0,0
0.01,0.000629379968124784,0.000349958079666882,-0.0309147474516032,-0.0175168110897495,-0.000705535723622108,0.000144253750363426,0.034753938345464,-0.00739757056269579,1.87658187593014,-0.0019194306639543,0
0.02,0.00070272049528234,0.000390910528275899,-0.034628186632126,-0.0195666352661621,-0.000787800216858017,0.000161238810232715,0.0389120831840835,-0.00823494428295244,1.87656795026651,-0.00191690197590914,0
0.03,0.000729978087096767,0.00040726565922863,-0.036015591883797,-0.0203852837190014,-0.000818714610028216,0.000168640778445582,0.0404814571733417,-0.0085985042982668,1.87655476012741,-0.00177285185109201,0
0.04,0.000710471147774226,0.000398237712130862,-0.0351141627204446,-0.0199333904958299,-0.000797393002353332,0.000165912407555275,0.0394857153293109,-0.00843935810057405,1.87654354939428,-0.00150720271488679,0
0.05,0.000725259057512599,0.000407672923672405,-0.0358801917362114,-0.0204056690466136,-0.000814333403526746,0.000170467067494623,0.0403582882433457,-0.00865956455800416,1.87653338304233,-0.00137529737461381,0
0.06,0.000724017918613252,0.000408203316877153,-0.0358595061359043,-0.0204322208372,-0.000813307927052891,0.000171353757401183,0.0403464757407945,-0.00869147421031375,1.87652438831873,-0.00121051923399333,0
0.07,0.000740439721560954,0.000418634838183415,-0.0366942674779369,-0.0209543585032965,-0.000832106618040162,0.000176365204107502,0.0412996156334485,-0.00893846488813739,1.87651668076336,-0.00112800219189267,0
0.08,0.000721407421473258,0.000408818150048125,-0.0357973078849383,-0.0204629799415219,-0.000811001000326372,0.00017273773483258,0.0402962913063496,-0.00874012052834557,1.87650968045429,-0.000939128428803985,0
0.09,0.000718720072743454,0.000408261354706572,-0.0356927134612213,-0.0204351123018884,-0.000808269643568857,0.000173020403410334,0.0401881070293114,-0.00874526514270749,1.87650370982985,-0.000823495795896151,0
0.1,0.000717277728624524,0.000408228197542828,-0.0356453887485522,-0.0204334585325384,-0.000806883294442617,0.000173427075162014,0.0401424333244502,-0.00875813983837014,1.87649851407145,-0.000725877967822355,0
0.11,0.000716078926640763,0.000408224852693577,-0.0356069817443263,-0.0204332857986487,-0.000805738280255608,0.000173788328913121,0.0401057153301964,-0.00876971580630172,1.8764939857778,-0.000640995534754325,0
0.12,0.000715037672610039,0.000408223380623511,-0.0355736811135798,-0.0204332129374045,-0.000804744171443026,0.000174103475748609,0.0400739020272952,-0.00877982660550441,1.87649003876045,-0.000567021702726996,0
0.13,0.000748498730890314,0.000427363700835206,-0.0372220628926599,-0.0213912618955528,-0.000842413594737196,0.00018228938076018,0.0419341564025911,-0.00919753109656511,1.87648620859315,-0.000610925242003221,0
0.14,0.000777485835464739,0.000444844344800035,-0.0387306118738149,-0.0222662465695494,-0.000875317025602653,0.000190238850235697,0.0436360638764217,-0.00957809802564731,1.87648285186852,-0.000648268922825652,0
0.15,0.000716514834217598,0.000410289883349624,-0.0356908167815653,-0.0205366585153104,-0.000806772982674054,0.000175637838918982,0.0402166493764785,-0.00884363378024705,1.87647984299459,-0.000389919532299769,0
0.16,0.000712047852914826,0.000408336077224804,-0.0354825878172816,-0.0204388665393072,-0.000801924716841063,0.000175120659327609,0.0399886245195668,-0.0088131272914792,1.87647767952533,-0.000336296660560989,0
0.17,0.000711306147007024,0.000408225038264281,-0.0354546294618956,-0.0204333068956622,-0.000801183653193301,0.000175239466136163,0.0399602727548441,-0.00881631342064771,1.87647582348532,-0.000300665119569328,0
0.18,0.000710863750727791,0.00040821823506856,-0.0354402006106222,-0.020432960042787,-0.000800759434484626,0.000175367407533825,0.0399463941514291,-0.00882038943187602,1.87647420760717,-0.000270326399438844,0
0.19,0.000710491125515526,0.000408217391078214,-0.0354282539095509,-0.0204329253486057,-0.000800403581870541,0.000175479867631106,0.0399349783934954,-0.0088240078248128,1.87647279926404,-0.000243928453063224,0
0.2,0.000710167531427643,0.000408216942790591,-0.0354178974246388,-0.0204328910576029,-0.000800094638002229,0.000175577804165021,0.0399250808426752,-0.0088271407975605,1.87647157170045,-0.000220921898398337,0
0.21,0.000709885302732367,0.00040821656820858,-0.0354088594643805,-0.0204328735968801,-0.000799825191626463,0.000175663235866547,0.0399164471439305,-0.00882988671502261,1.87647050170458,-0.000200868604629505,0
0.22,0.000709639337411358,0.000408216242561108,-0.0354009812205833,-0.0204328574953031,-0.000799590366302442,0.000175737690916512,0.0399089210187644,-0.00883227942954052,1.87646956905087,-0.000183389315759296,0
0.23,0.000709424978848248,0.000408215958715937,-0.0353941137535642,-0.0204328398540841,-0.00079938571608768,0.000175802578135805,0.0399023594054944,-0.00883436170742624,1.87646875611036,-0.000168153626933147,0
0.24,0.000709238015841741,0.000408215711270274,-0.0353881196061571,-0.0204328405031726,-0.000799207220709309,0.000175859172092694,0.0398966370519983,-0.0088361944426822,1.87646804751707,-0.000154873554318402,0
0.25,0.000709075171058271,0.000408215495558031,-0.0353828986223875,-0.0204328227185876,-0.000799051751028764,0.000175908465409917,0.0398916472762668,-0.00883777329180262,1.87646742987705,-0.000143298079702931,0
0.26,0.000716348878286447,0.000412327672640058,-0.035739681526697,-0.0206386622847196,-0.000807225691309426,0.000177641516366632,0.0402938312023174,-0.0089267230029606,1.87646694272497,-0.000159010495375696,0
0.27,0.000694171470054555,0.000399767707621254,-0.0346612695717872,-0.0200099810034503,-0.000782296490867297,0.000172338185760347,0.0390762121769606,-0.00865173913081634,1.87646628726241,-7.28776800003423e-05,0
0.28,0.000692914556815882,0.000398942821025294,-0.0345259055613708,-0.0199686817194677,-0.000780849535725851,0.000171930102226726,0.0389346910585791,-0.0086531056054517,1.87646587706691,-6.13344449588779e-05,0
0.29,0.000707588147765361,0.000407690789146398,-0.0353181752208056,-0.0204065571286921,-0.000797475445230794,0.0001758569892463,0.0398220042776097,-0.00883227321181474,1.87646565821248,-0.000106671772457637,0
0.3,0.000702416852881891,0.000405033029436429,-0.0350647263651146,-0.0202735366146382,-0.000791744110105894,0.000174878398493288,0.0395402763958366,-0.00878167777057929,1.87646595539375,-9.46237995155055e-05,0
0.31,0.000708200979486649,0.000408035022158593,-0.0353480589798573,-0.0204237865576575,-0.000798163459448338,0.00017600084845044,0.0398556876398883,-0.00883971118011659,1.8764656541335,-0.000108655646478041,0
0.32,0.000708499537162614,0.000408204602024693,-0.0353639597543064,-0.0204322805243807,-0.000798499155523477,0.000176072967550587,0.0398734047305422,-0.00884303862513115,1.87646534680092,-0.00010416987396516,0
0.33,0.000708452622386266,0.00040821409862463,-0.0353628544222887,-0.0204327609303699,-0.000798457225582487,0.000176096358273001,0.0398724928096973,-0.00884384018796535,1.87646507601986,-9.91775322448151e-05,0
0.34,0.000708392048496736,0.000408214558205729,-0.035360930260641,-0.0204327705018144,-0.000798399556241686,0.000176115213702789,0.0398706586319797,-0.00884443777353166,1.87646483980799,-9.47559159147502e-05,0
0.35,0.000708337798958698,0.000408214516893013,-0.035359179957277,-0.0204327722072091,-0.000798347772688791,0.000176131664043394,0.0398689881541849,-0.00884497432920324,1.87646463390373,-9.08973100941345e-05,0
0.36,0.000708290476130469,0.00040821445590327,-0.0353576503740703,-0.0204327724357695,-0.000798302593492931,0.000176145990042319,0.0398675279544397,-0.00884544200076521,1.87646445442813,-8.75336917955435e-05,0
0.37,0.000708249206898963,0.000408214401328386,-0.0353563138642998,-0.0204327726453301,-0.000798263193269811,0.000176158482042699,0.0398662520763333,-0.00884585063365182,1.87646429798953,-8.46018003863816e-05,0
0.38,0.000708213234564589,0.00040821435367737,-0.0353551466694981,-0.020432772838266,-0.000798228850029738,0.000176169370609289,0.0398651378373073,-0.00884620749781465,1.87646416163114,-8.20462382365327e-05,0
0.39,0.000708181802427757,0.000408214312137233,-0.0353541232081103,-0.0204327730169576,-0.000798198841451528,0.000176178884742012,0.0398641608195639,-0.00884652039667027,1.8764640427753,-7.98187017853302e-05,0
0.4,0.000708154697910416,0.000408214275927996,-0.0353532435426552,-0.0204327562988022,-0.000798172964181393,0.000176187089464295,0.0398633159824019,-0.00884677330102415,1.87646393917559,-7.78770865207169e-05,0
0.41,0.00070813089097715,0.000408214244366038,-0.0353524654838542,-0.0204327564541,-0.00079815023537991,0.000176194295658007,0.0398625732373686,-0.00884701118994944,1.87646384887378,-7.61846922956893e-05,0
0.42,0.000708110052634585,0.000408214216854666,-0.0353517807033004,-0.0204327566000039,-0.000798130340823986,0.000176200603122155,0.03986191954647,-0.0088472205375473,1.8764637701629,-7.47095297006026e-05,0
0.43,0.000708092008259738,0.000408214192874348,-0.0353511875594692,-0.0204327567370764,-0.000798113113567009,0.000176206065099188,0.0398613533312936,-0.00884740189768042,1.87646370155531,-7.34237154094043e-05,0
0.44,0.000708076175776001,0.000408214171971802,-0.0353506631038846,-0.0204327568671536,-0.000798097998149129,0.000176210857357154,0.0398608526961973,-0.00884756222971166,1.87646364175399,-7.23029451304261e-05,0
0.45,0.000708062438768053,0.000408214153752161,-0.035350206906683,-0.0204327569906064,-0.000798084883233535,0.000176215015455182,0.039860417221362,-0.00884770170843392,1.87646358962861,-7.13260342140543e-05,0
0.46,0.000708050447989929,0.000408214137870912,-0.0353498061907586,-0.0204327571085328,-0.000798073435486021,0.000176218644949877,0.0398600347135685,-0.0088478242191855,1.87646354419417,-7.04745172209797e-05,0
0.47,0.000708039970610985,0.000408214124028208,-0.035349453394801,-0.0204327572216729,-0.000798063432626983,0.00017622181630706,0.0398596979546259,-0.00884793207235623,1.87646350459144,-6.97322988903338e-05,0
0.48,0.000708030890215901,0.000408214111962078,-0.0353491462658994,-0.0204327573303982,-0.00079805476342678,0.00017622456490721,0.0398594047895484,-0.00884802597610455,1.87646347007216,-6.90853499100605e-05,0
0.49,0.000708022973974032,0.000408214101444759,-0.0353488762511351,-0.0204327574354437,-0.000798047205663846,0.000176226961119778,0.0398591470563257,-0.00884810853097672,1.87646343998375,-6.85214417359762e-05,0
0.5,0.000708016047262398,0.000408214092277257,-0.0353486373441528,-0.0204327575373628,-0.000798040592649542,0.000176229057758311,0.0398589190221545,-0.00884818156766787,1.8764634137574,-6.80299154510695e-05,0
0.51,4.18250726073048,0.0329266139421731,5.70622958530411,-1.63699712248261,-0.462288934791238,4.15701095605225,-2.30080395249398,5.47239589498095,0.11862428700654,36.3754755170806,796.941831062837
0.52,4.00061563819204,0.00280807495629543,6.49275623258478,-0.115987658671334,-2.02940811563627,3.44767110815711,-3.39744704221472,5.53413861663032,0.532720344922417,76.5727799627992,796.941831062837
0.53,3.81427367386598,0.0003891021913911,6.92533314504839,0.00786861517958433,-3.61486592867701,1.2171393216217,-6.56099647817275,2.21667009237175,1.2461173815319,118.461842068805,796.941831062837
0.54,3.66348285926594,0.0538190689488562,6.4093240742469,-2.65209428356118,-2.87084264410007,-2.27645901898857,-3.28484771706873,-6.10924010440637,2.25591851422198,155.964523669966,796.941831062837
0.55,3.47531908884718,-0.0207068917269156,7.95255065663117,1.07607860981233,1.34515131834223,-3.20450299975405,2.03963150083468,-7.76150181740515,-2.75011916095379,193.13484085128,796.941831062837
0.56,3.2831612788567,0.0542003715496542,10.3259219343739,-2.65119344525496,3.08985107233385,1.1112632514654,8.71931496102344,6.13408812207811,-1.20904401532816,227.101112186578,796.941831062837
0.57,3.18799830171956,0.0378161516278002,7.86767290393552,-1.82664236913582,-1.7209912556851,2.68383165100685,-5.85105557972471,5.56794826403907,0.5820567750616,260.432368536676,796.941831062837
0.58,3.03651494772833,0.0814932122999277,8.54551656024258,-4.01009960063551,-1.60686423091546,-2.5777997429655,-0.86554008835889,-9.39987193762984,2.61101406127531,292.310249895541,796.941831062837
0.59,2.89935988591869,0.0339510014355187,8.83098282538529,-1.62412743628373,2.86977054282467,0.414556932288812,8.473865313251,2.96945352622684,-1.41562298893156,322.679792481692,796.941831062837
0.6,2.71560140175942,0.0660882452136168,11.7511242251593,-3.2272811073599,-2.33420236065168,1.38937322880544,-11.8236748329186,2.95041985935136,1.05822770501901,351.651735911498,796.941831062837
0.61,2.60476907216467,-0.00569565892900004,11.177705024368,0.337794220611153,1.47122906423524,-2.14949747624549,6.01403723843991,-9.42796641073344,-2.54356422119677,379.698299326334,796.941831062837
0.62,2.51711309671014,0.0573103201960081,9.7108288929443,-2.80042213281972,-0.776410449656133,2.39506359583528,-5.84764704681693,8.24303256853214,0.336246364123469,405.961689883432,796.941831062837
0.63,2.3779111264385,0.0647987451202816,11.2037799144332,-3.15559299692125,0.555390981041266,-2.313050163915,5.95877241647058,-9.99877406595352,-2.87869828610763,430.978049793438,796.941831062837
0.64,2.26235290000257,0.0550964601833669,11.5627224077923,-2.69336078677454,-0.767300178150169,2.12897315640322,-6.69496127904354,9.80450076645949,0.370266027914601,455.155120010963,796.941831062837
0.65,2.11684145656402,0.0846483264353141,13.8028321254653,-4.17816542776087,1.21207108454437,-1.73754619432342,11.671534706934,-8.47056778559432,-2.49252843173107,478.006135935518,796.941831062837
0.66,2.03239058297263,0.00876984585042995,13.1101064023826,-0.355655687897953,-1.79967665702307,0.9443793316874,-11.7989338626677,5.72595324417869,1.0918607736811,499.666254920727,796.941831062837
0.67,1.90865387567564,0.0553015162033857,14.5674413357913,-2.70608617977162,1.90158036892323,0.173233874723783,14.1395486743421,4.42791291354999,-1.45098115925752,520.601505126328,796.941831062837
0.68,1.88434737763243,0.028277643559155,11.3014865395874,-1.36545564546085,-1.24059013609528,-1.41862637045085,-6.26995080245159,-9.50135695882608,2.43805083235958,540.496754666524,796.941831062837
0.69,1.77219344107233,0.0372069845301871,12.6132275226584,-1.81953072844853,-0.291134713158564,1.74851209062783,-4.12049180403802,12.0592598405943,0.185982450499587,559.404160227272,796.941831062837
0.7,1.67516070351022,0.0343144510302877,13.3341074297217,-1.67764060331699,1.55570230614762,-0.622198681115068,13.0704027836359,-3.12689462802646,-1.93077572054907,577.354150250188,796.941831062837
0.71,1.54182644046715,0.012279878445467,16.0337143184069,-0.57933388150027,-1.09006591214907,-1.09047506854071,-10.831772319165,-11.8358916443296,2.36434646278766,594.500093258923,796.941831062837
0.72,1.53599174674019,0.0420460998566427,12.5273516066746,-2.06823206224048,-0.697832550644883,1.36896612515708,-7.80882247659639,10.0117138227945,0.498785425808499,610.802414195129,796.941831062837
0.73,1.45649268688583,-0.0112884154227824,12.847712383883,0.604712740342395,1.3787384414949,0.46965805137234,12.3837656384481,3.47444090600262,-1.25023152228279,626.310286267731,796.941831062837
0.74,1.3829830436313,-0.00437119600519142,13.0358477089688,0.27156944131934,0.350655051139709,-1.33779753379815,3.00243591246592,-12.6882801846594,-2.88840645264475,641.00598695182,796.941831062837
0.75,1.26575983309266,0.0410941526023803,15.5840717716357,-1.98667740401534,-1.22432050701838,-0.323845612202992,-14.3586059760243,-6.37499917775652,1.86183920376262,654.93455675853,796.941831062837
0.76,1.17381906132826,0.023943057665281,17.0025662672777,-1.12324250718628,-0.466590293448533,1.07736621295061,-8.09526350506611,14.993853480232,0.429092812345893,668.294970563647,796.941831062837
0.77,1.16680414748739,0.017522773866459,14.2783582401925,-0.850778885601462,0.930777693986492,0.703840784961299,10.734897959341,9.45289926689131,-0.908331486177134,681.036629570228,796.941831062837
0.78,1.08775582579573,0.0386314067291139,15.2913266107812,-1.87476887157613,0.885975289950832,-0.63226015826949,13.7885097855875,-6.87142093981831,-2.15511283676667,692.999016619535,796.941831062837
0.79,1.03764109833723,0.0432356786830323,15.0096285460818,-2.1263655444817,-0.900274908056083,0.517758112243823,-14.2939897355747,5.04898375511325,1.09052172805712,704.472399418279,796.941831062837
0.8,0.980538367947512,0.0611361933465128,15.140738735107,-3.02492366628005,0.0498298962912099,0.981177917907695,-3.19924336446376,15.1048659221631,0.0115268165431766,715.372213998828,796.941831062837
0.81,0.961489920735161,0.0506115241097347,13.5223599176713,-2.46226996434046,0.831393302144822,0.485602276762317,9.94997349406235,9.48235300902646,-0.989572992812741,725.699346979155,796.941831062837
0.82,0.869498489200339,-0.00635311343943867,15.6350013898515,0.345183975157502,0.820124812456017,-0.288900115552123,14.5913759410607,-5.62709237386414,-1.91679279882975,735.514301432524,796.941831062837
0.83,0.769063454587932,0.0605435263891876,18.3086145031783,-2.96942809641317,0.219618498769869,-0.739521352476338,9.34497041890435,-16.021685183387,-2.7743527746573,744.747868461264,796.941831062837
0.84,0.763167883838447,0.045052805339501,16.3304866958834,-2.22070029639717,-0.355208900055996,-0.676965000212287,-4.69844828370894,-15.796863272693,2.71734014922941,753.526965564744,796.941831062837
0.85,0.678783659361554,-0.0114241535096146,18.4076908804234,0.567953084946347,-0.61585311995214,-0.285661866802149,-17.0569960060404,-6.94438921042343,1.98827715149023,761.840081778366,796.941831062837
0.86,0.671414020631681,0.0537893633574565,16.7025193417551,-2.63882111195372,-0.636716427455949,0.219732277371653,-16.8323648198759,1.61524728546407,1.31843421332875,769.637849595233,796.941831062837
0.87,0.656328404139705,0.011092688614966,15.4777529426663,-0.541912586492039,-0.416614834474473,0.50726925938508,-10.4369731235335,11.4422068423994,0.704487629900707,777.090403460869,796.941831062837
0.88,0.623929746265209,0.0187939587851297,15.2204224207196,-0.947209603657373,-0.0705851135013843,0.620209063875547,-3.1131279173619,14.9287273157676,0.143433809956772,784.114108398332,796.941831062837
0.89,0.587210150308973,0.044648580772053,15.2290054686505,-2.18310132003336,0.2526231973062,0.531968774058814,3.43366113605935,14.9966166231065,-0.367464209607202,790.739880952763,796.941831062837
0.9,0.522569971873262,0.0511057992634507,16.7258913250239,-2.54056653987004,0.42045116109808,0.314502781153449,10.6422198209205,13.1511625434113,-0.831081308071014,797.011503753332,796.941831062837
0.91,0.492859007314945,-0.0395159892327041,16.5676610304717,1.96633009972285,0.455296508755943,0.192812353367626,16.3431997746427,3.35464859676911,-1.2502134510993,802.903579171685,796.941831062837
0.92,0.47511848687347,0.0213082776099777,15.863397236894,-1.04018504027077,0.473157779017954,-0.0480971456370981,15.8968210715962,0.142956745751698,-1.6272814376642,808.501903696705,796.941831062837
0.93,0.45215947160404,0.0546518005507016,15.4997537558738,-2.69039708548928,0.396570329938491,-0.223979866231665,15.3455197889937,-3.46347013498544,-1.96464047897282,813.706724206993,796.941831062837
0.94,0.45823296718428,0.00222460488248036,13.7416314182143,-0.0867592156677351,0.350842049754592,-0.294774926351257,10.6193127269449,-8.72182081923859,-2.26471440870685,818.675760236614,796.941831062837
0.95,0.353453238851942,0.0340691140690004,17.5960507072573,-1.711406772646,-0.347284968958781,-0.074047599040571,-16.2619451923906,-6.93534802252294,1.87696157765689,823.31740828632,796.941831062837
0.96,0.318690132212158,0.0324386048342708,18.0205661203802,-1.64775995518375,-0.320217067461564,0.00875746306372852,-17.8491389312767,-2.97727317874676,1.64489255289454,827.649920473458,796.941831062837
0.97,0.256294025015952,-0.0102819628898474,19.8793978276143,0.486017219253457,-0.255529276205873,0.0222965248738063,-19.6573407908832,3.00260283038657,1.4436641837736,831.738556933667,796.941831062837
