t,iq,id,vq,vd,ia,ib,va,vb,theta_e,omega,r
0,0,0,0,0,0,0,0,0,0,0,0
0.01,0.000552653472310729,0.000310813328343155,-0.0269973915933743,-0.0155555862140141,-9.31038455516705e-05,0.000627186144199907,0.0042540585825709,-0.0308664607767667,0.659685577568952,-0.00207049850515788,0
0.02,0.000624705110863336,0.000350689848000768,-0.0306113383957963,-0.0175513178843547,-0.000105741203356256,0.000708560966284727,0.00489139328726383,-0.034945344032774,0.65967006677896,-0.00218081000027908,0
0.03,0.000652272314095763,0.000366520559277779,-0.0319908360298737,-0.0183436185836369,-0.000110115164557796,0.000740048067792591,0.00511019128211779,-0.0365210607416102,0.659654623313995,-0.00211500428896967,0
0.04,0.00063621212072136,0.000358292628885015,-0.0312518145806765,-0.0179318204407874,-0.000106764456194115,0.000722316289003426,0.00498219402503186,-0.0356847844550386,0.65964069767073,-0.00189296487047814,0
0.05,0.00065080625289965,0.000367086201103834,-0.0319961868427667,-0.018371922348665,-0.000108749698854695,0.000739239177028072,0.00509011477790059,-0.0365427726754609,0.659627532516793,-0.00180145395808661,0
0.06,0.00065090993806282,0.000367743306239235,-0.0320357134112586,-0.0184048187783363,-0.000108284928120315,0.000739725125363933,0.00508789424607645,-0.0365942293288496,0.659615293682584,-0.00166284735882676,0
0.07,0.000665308516315015,0.000376578177595344,-0.0327646819332343,-0.0188469872906441,-0.000110118618050894,0.000756518628773197,0.00518478678989561,-0.0374413047056728,0.659604214843137,-0.00159425685117967,0
0.08,0.000650178821472769,0.00036845134024482,-0.0320610220354606,-0.0184402496571491,-0.000107261434645081,0.000739583581928237,0.00507461524812478,-0.0366360508442132,0.659593730870311,-0.00141501056297844,0
0.09,0.000648103939820839,0.00036784092402717,-0.0319871796136947,-0.0184097015084471,-0.000106465341854424,0.00073757087332966,0.00505315885386758,-0.0365590256279686,0.659584253808347,-0.0012991116173505,0
0.1,0.000647164122293061,0.000367793871385855,-0.0319661059905647,-0.0184073427818578,-0.000105920217729469,0.000736800271775523,0.0050417918517572,-0.0365409706413552,0.659575570184385,-0.00119673814006617,0
0.11,0.000646380359770761,0.000367789142069976,-0.0319505708990185,-0.0184071107469866,-0.000105437815298325,0.000736178843506837,0.00503216460401088,-0.0365285919003618,0.6595676038957,-0.00110313393287022,0
0.12,0.000645667785313745,0.00036778768292364,-0.031936631424434,-0.0184070373404575,-0.000104996943827159,0.000735615599677748,0.00502341394281266,-0.0365175678646908,0.659560294893663,-0.00101727837788506,0
0.13,0.000674941628954566,0.000384656179190235,-0.0333752739285016,-0.0192512691726111,-0.000109599072366612,0.000769086875470809,0.00523753494269582,-0.0381718286473531,0.659553194771121,-0.00105302970349269,0
0.14,0.00069805116855048,0.000398471779969174,-0.0345963203589735,-0.0199427051922161,-0.000112836532529515,0.00079581600277527,0.00543906965160686,-0.0395605029554648,0.659546624584335,-0.00107028948616159,0
0.15,0.00064812483384141,0.000370083905299952,-0.0321114505489605,-0.0185219542347892,-0.000104673307850378,0.000738966437551584,0.00503899655239545,-0.0367262380156055,0.659540505744382,-0.000802265447154971,0
0.16,0.000643599570971873,0.000367955872831592,-0.031906558821168,-0.0184154478170162,-0.000103578407602704,0.000734086810659969,0.0049974308226446,-0.0364990808005186,0.659535388187088,-0.000726141727078792,0
0.17,0.000642817313423596,0.000367795702589587,-0.0318817536919561,-0.018407439226496,-0.000103222244627396,0.000733370946721084,0.0049883907077505,-0.0364745938359638,0.659530733350529,-0.000670157994608564,0
0.18,0.000642374937484819,0.000367783053427075,-0.0318723274498189,-0.0184067962696179,-0.00010295804874552,0.000733014034582751,0.00498296730857164,-0.036466771762543,0.659526465841024,-0.000619924238093913,0
0.19,0.000641991292612712,0.00036778151203497,-0.0318647529760644,-0.0184067200230294,-0.0001027213225997,0.000732710304464621,0.0049782436112472,-0.0364607585601133,0.659522550666195,-0.000573927063460987,0
0.2,0.000641641175389819,0.000367780851824337,-0.0318578920533273,-0.0184066859330366,-0.000102504682652346,0.000732433575799611,0.00497393563980944,-0.0364553334557501,0.65951895851098,-0.000531732141671865,0
0.21,0.000641320044655232,0.000367780302455025,-0.0318515996495625,-0.0184066714635517,-0.000102305935084107,0.000732179790896379,0.00496997135447196,-0.0364503681646546,0.659515662706046,-0.000493018867730757,0
0.22,0.000641025515750184,0.000367779802524571,-0.0318458294239759,-0.0184066402086713,-0.000102123648915855,0.00073194703040583,0.0049663502319463,-0.0364458038853047,0.659512638801643,-0.000457499444545153,0
0.23,0.000640755317648168,0.000367779344055488,-0.0318405345229262,-0.0184066103783043,-0.00010195642213198,0.00073173349724769,0.00496302834763555,-0.0364416148646698,0.659509864365887,-0.000424910336980667,0
0.24,0.000640507295733489,0.000367778923349357,-0.0318356683802612,-0.0184065943340485,-0.000101802922087178,0.000731537488719718,0.00495996664368785,-0.036437771983063,0.659507318817981,-0.000395009793612359,0
0.25,0.000640279762916704,0.000367778537282362,-0.0318312027051587,-0.0184065797061833,-0.000101662103448073,0.000731357671737118,0.0049571568680374,-0.0364342454007579,0.659504983274697,-0.000367576010687354,0
0.26,0.000646467534930813,0.000371388313592572,-0.032136908594404,-0.0185872437245592,-0.000102599185094551,0.000738459857006859,0.00500161627988025,-0.036786551317976,0.65950290471964,-0.000368570416703143,0
0.27,0.000628129093686381,0.000360967244199008,-0.0312542915547521,-0.0180656777484259,-9.95969621781002e-05,0.000717582019594133,0.00487292991751258,-0.0357694563436241,0.659500734338695,-0.000270997807270784,0
0.28,0.000627333895049485,0.000360549282742542,-0.0311423938786258,-0.0180447597716116,-9.94387468720957e-05,0.000716697660652403,0.0048208347742183,-0.03566821559577,0.659498929498183,-0.000247334938442965,0
0.29,0.000638533450766457,0.000367235629649114,-0.0317678253613396,-0.0183794095028129,-0.000101015625122799,0.000729645680390524,0.00493952102693328,-0.0363675480873422,0.659497410424813,-0.000274613022810012,0
0.3,0.000633106953322106,0.000364398172110888,-0.0315072864258399,-0.0182373926886455,-9.993251947117e-05,0.00072361863832733,0.00489208834638477,-0.0360746318291808,0.659496543851034,-0.000243192318029843,0
0.31,0.00063880465669448,0.000367523706912865,-0.0317872796057425,-0.0183938158028681,-0.000100952488750508,0.000730036752206767,0.00493997386829839,-0.0363917609178784,0.659495161148074,-0.000250141849730724,0
0.32,0.000639151353780875,0.000367757719119914,-0.031807797390445,-0.0184055385495417,-0.000100979006490848,0.00073045426500249,0.00494323264229085,-0.036415165455816,0.659493833816785,-0.0002364438201297,0
0.33,0.000639071203678629,0.000367775069190544,-0.0318073342972882,-0.0184064024708685,-0.000100915292361004,0.000730401676241953,0.00494222161601927,-0.0364153348538386,0.659492611196937,-0.000222237201315595,0
0.34,0.00063896509211026,0.000367776198804993,-0.0318053294945844,-0.0184064530758942,-0.000100848563849708,0.000730318621228005,0.00494091238655127,-0.0364137870027631,0.659491489050989,-0.000209068848226869,0
0.35,0.000638864974938279,0.000367776126980741,-0.0318033539117603,-0.0184064577877923,-0.000100786525458186,0.000730239557998544,0.00493966070327328,-0.0364122336648962,0.659490459448832,-0.000196975949961885,0
0.36,0.000638773065969966,0.000367775978023775,-0.0318015367142992,-0.0184064428836072,-0.000100729639483755,0.000730166925811822,0.00493852466340377,-0.0364107930587534,0.65948951478507,-0.000185879810564333,0
0.37,0.000638688548446441,0.00036777583512269,-0.0317998575924484,-0.0184064431907886,-0.000100677334592221,0.000730100130883579,0.00493746404282896,-0.0364094705078431,0.65948864805465,-0.000175699017147362,0
0.38,0.000638611191393197,0.000367775703536216,-0.0317983240345393,-0.0184064282535736,-0.000100629460382632,0.000730038994566247,0.00493650726444034,-0.0364082533017946,0.659487852828827,-0.000166358121542336,0
0.39,0.000638540061631665,0.000367775582763563,-0.0317969069043803,-0.0184064285264772,-0.000100585441148134,0.000729982779669962,0.00493561219244807,-0.0364071371034842,0.659487123207928,-0.000157787838598657,0
0.4,0.000638474752636216,0.000367775471946231,-0.031795601997929,-0.0184064287836061,-0.000100545024512347,0.000729931164949793,0.00493478808665415,-0.0364061092883665,0.659486453780139,-0.000149924594102037,0
0.41,0.000638415032502474,0.000367775370266039,-0.0317944123963129,-0.0184064123498937,-0.000100508065388338,0.000729883967142278,0.00493404983216902,-0.0364051620992794,0.659485839579317,-0.000142710058231277,0
0.42,0.000638360084470654,0.000367775276970343,-0.0317933108787838,-0.0184064125802603,-0.000100474060592799,0.00072984054076489,0.00493335422374944,-0.0364042944831069,0.659485276049462,-0.000136090713275539,0
0.43,0.000638309676636378,0.00036777519136788,-0.0317922981925195,-0.0184064127982142,-0.00010044286551822,0.000729800702548173,0.00493271474632051,-0.0364034968332958,0.659484759010307,-0.000130017456667202,0
0.44,0.000638263459753682,0.000367775112824686,-0.0317913683405494,-0.0184064130047105,-0.000100414263869199,0.000729764176485498,0.00493212758488356,-0.0364027644300662,0.659484284626324,-0.000124445236745664,0
0.45,0.000638221201919626,0.000367775040758686,-0.0317905201571806,-0.0184063979844759,-0.000100388111439319,0.000729730779305925,0.00493160392167854,-0.0364020870471283,0.659483849378385,-0.000119332718560133,0
0.46,0.000638182260994534,0.000367774974636046,-0.0317897311222331,-0.0184063981719991,-0.000100364012842117,0.00072970000352396,0.00493110578807922,-0.0364014655501234,0.659483450038068,-0.000114641977246329,0
0.47,0.000638146521490788,0.000367774913966501,-0.0317890042853203,-0.0184063983506893,-0.00010034189553661,0.000729671757870606,0.00493064697044229,-0.0364008930405456,0.659483083642743,-0.000110338216698221,0
0.48,0.000638113750577743,0.000367774858300867,-0.0317883360660473,-0.0184063985211886,-0.000100321615232025,0.00072964585833941,0.00493022517548729,-0.0364003667026552,0.659482747474708,-0.00010638951144621,0
0.49,0.000638083657217097,0.000367774807226403,-0.0317877193019094,-0.0184063986843054,-0.000100302992108847,0.000729622074920966,0.00492983592318412,-0.0363998808887209,0.659482439040178,-0.000102766569837945,0
0.5,0.000638056242336411,0.000367774760364455,-0.0317871608479583,-0.0184063836279792,-0.000100286025361527,0.000729600408348831,0.0049294953525604,-0.0363994317071489,0.659482156051343,-9.94425167461524e-05,0
0.51,1.29001683327768,-0.0406447628441817,1.94644309738889,2.03497792577208,-0.0924364471642099,1.28734258459902,1.95513968761201,2.02662396405374,0.0401843176608769,12.226622862728,231.089099131344
0.52,1.22341262226679,-0.0362194009170311,2.23841108848482,1.81416668567804,-0.252409490195545,1.19763923557293,1.38886444928374,2.52442874844817,0.178119444968595,25.3013462551048,231.089099131344
0.53,1.18980747934989,-0.0184963774932135,1.01157224545493,0.92792583659444,-0.490828795233268,1.08400694078367,0.448280368908158,1.29744729251164,0.409628220630137,37.7723280638988,231.089099131344
0.54,1.13839498068285,-0.0224885555885087,0.755361149032601,1.12858353485574,-0.776650641059427,0.832623954086324,0.336108450562815,1.31578963747082,0.730878428101748,49.8033945009888,231.089099131344
0.55,1.09851523814009,0.00516718799195959,-0.0243565165629452,-0.254749850407174,-0.995568561834773,0.464333572923567,-0.084470466727394,-0.241568761292545,1.13909159906373,61.5386646946365,231.089099131344
0.56,0.998938168856798,0.0209876512424856,2.15625495303885,-1.04600687298431,-0.998311624298275,-0.0411320737939101,-2.08708292616563,-1.1779858488721,1.63298154355788,73.1816368021085,231.089099131344
0.57,0.984452989899086,0.00292490826166786,0.0517339124730544,-0.144997060349875,-0.790569153176845,-0.586648666967578,0.0452976964753229,-0.147134849386216,2.21216664994467,84.7644579299902,231.089099131344
0.58,0.876035452738013,0.0156241562305792,2.87722595698377,-0.780775804950835,-0.247575505651342,-0.840469272319515,-0.0108818645317451,-2.981261754721,2.87295978033978,95.2811958144427,231.089099131344
0.59,0.890561094119288,-0.0413459712106194,-0.108509334720291,2.07202010671686,0.435950042788477,-0.777660666285121,-1.90105273583504,-0.831288213518337,-2.67704763834702,104.596851993078,231.089099131344
0.6,0.83456018407035,-0.0115593124979101,0.622821518083589,0.582995739468461,0.798828379136708,-0.241862645372909,0.416888956410467,-0.744307915885164,-1.87864394126189,113.165428257577,231.089099131344
0.61,0.767109423417396,-0.00248876823941269,1.96217267357884,0.130649100729733,0.651675203652212,0.404700494696964,1.73881200707745,0.918544279011252,-1.01831163451367,121.585007250609,231.089099131344
0.62,0.740961973979238,0.0180295641592133,1.13219304306868,-0.900469992933728,0.088638751795025,0.735862000477807,-0.788345737071709,1.21293787713471,-0.0955502615401332,130.216877020497,231.089099131344
0.63,0.702829485199437,-0.0145902151663348,1.02963276456471,0.731468135903304,-0.554901551727068,0.431585944552413,-0.338488936640033,1.21680503922334,0.889001547395071,138.194370041746,231.089099131344
0.64,0.668693902840674,-0.00640804976364823,0.991481892091531,0.324729362187889,-0.624209292446602,-0.239906977850539,-1.04243512772366,-0.0425970128072683,1.92814533705695,145.218535937717,231.089099131344
0.65,0.644268279493664,-0.00109910932474006,0.552264659181111,0.0617850264671172,-0.0788519172114937,-0.639425679148958,-0.129834021577794,-0.540330241719736,3.01718934391234,151.931178403595,231.089099131344
0.66,0.547135356893645,0.0217814815671477,3.6546176028611,-1.09051013084104,0.453195292318171,-0.307319961478332,3.67959735485846,-1.00299824263445,-2.12689601686302,158.89149077243,231.089099131344
0.67,0.569532141078134,0.00888189853126056,0.939639351434679,-0.442943966030246,0.464792698103726,0.329262047056781,0.496527733097572,0.912459137754768,-0.938857029098682,165.087518385085,231.089099131344
0.68,0.555272185775755,-0.00737920575814077,0.262785747537432,0.37517988381133,-0.166745029032851,0.529695901689488,0.283764271294903,0.359574933305928,0.291684734633872,170.598134668447,231.089099131344
0.69,0.480744236520787,0.0267548285223923,2.55972156570592,-1.33474078100002,-0.480511187732809,0.0306568142640743,-2.57047315230897,-1.31391598653159,1.56267785128534,176.217224203347,231.089099131344
0.7,0.451799610132178,0.00225751805326752,2.60044240277819,-0.112886928646739,-0.121367159389273,-0.435198801382917,-0.577136935665142,-2.5381010827619,2.87462181807419,181.581589760858,231.089099131344
0.71,0.417081390868214,-0.00560035839617842,3.11402032255437,0.285264286856716,0.37079585762892,-0.191046283889437,2.6147460641535,-1.7151097057131,-2.05998267378066,186.314097378825,231.089099131344
0.72,0.419400353611835,-0.040689147391563,1.76893380395365,2.04112929004487,0.231061256159415,0.352367647815769,2.69914285082338,0.099817094217602,-0.677113942748778,191.060598344976,231.089099131344
0.73,0.369047154540228,0.0351322813740227,3.06724638245101,-1.75868806275154,-0.223068944998602,0.296091751398098,-3.36755827368426,1.07728146093035,0.740570629722809,195.604396935265,231.089099131344
0.74,0.377763006076723,0.00851639983013402,1.59572924937407,-0.420655772450416,-0.312815320783783,-0.211952808212413,-1.05678696878345,-1.26747955360758,2.18884671154162,199.518659404976,231.089099131344
0.75,0.366014387706527,-0.0112402123640725,1.11155573116131,0.560719873030537,0.192967835364985,-0.311217430258534,0.0710839540353018,-1.2429440819955,-2.61726679444099,203.544615548124,231.089099131344
0.76,0.319776177775066,0.000754099545885987,2.41774452522034,-0.0369216634679418,0.286951271120425,0.141125265423765,2.15066315443543,1.10521481831363,-1.11136462317419,207.21171973928,231.089099131344
0.77,0.329594759433019,0.0114472491727389,1.02287859931696,-0.566230398585235,-0.123894564047361,0.305636846533344,-0.933995907862505,0.703241876823839,0.419840368241592,210.547294010326,231.089099131344
0.78,0.290496630587065,-0.0281262846283597,2.0235058719608,1.40519012434842,-0.255882911542005,-0.14036850020649,-2.41358931630555,0.493681994447706,1.97601689209609,214.017323804987,231.089099131344
0.79,0.297092986611057,0.0341055112527149,0.859185635169088,-1.70354906267639,0.0884174564285354,-0.285674258535827,1.90530564866855,-0.100447746506528,-2.72714204697028,216.987992354528,231.089099131344
0.8,0.299408321572038,-0.00755799018166507,-0.0584117009817365,0.383721629022519,0.267031739710482,0.135633757705685,0.112354416600413,-0.371524831554576,-1.12606161759292,219.876865772942,231.089099131344
0.81,0.226854816307285,0.00761817653115672,2.77907315182371,-0.382218103753273,-0.101262354151587,0.203143003638202,-1.6587474386208,2.26227655181524,0.495998521653648,222.59706326912,231.089099131344
0.82,0.206704259984574,-0.0116463676871724,3.10109219937831,0.588805527573377,-0.168263653752782,-0.120621854578012,-2.9336231910065,-1.16504066518504,2.1364661571861,225.008820720133,231.089099131344
0.83,0.186160264711976,0.0287018790092155,3.41179819750709,-1.44026853364382,0.0903632470054014,-0.165269251849621,3.21747074867549,-1.83374544878364,-2.48826362131166,227.481374283068,231.089099131344
0.84,0.235280870858944,-0.0323741471278903,0.316160303247958,1.62395602600348,0.14858566383782,0.185276750015418,1.3461352161224,-0.96182664324605,-0.812677822619229,229.633736160006,231.089099131344
0.85,0.200588595134434,0.00991814817611644,1.41764917105814,-0.496691285431674,-0.148063542214935,0.135688399017806,-1.40826401636504,0.522708202955531,0.878388073603493,231.770227314697,231.089099131344
0.86,0.17864091629205,-0.0135015123075505,1.93267473557605,0.675637890116054,-0.0830014981394498,-0.158762776225604,-1.59540764466601,-1.28311832635797,2.5844346388732,233.675221232342,231.089099131344
0.87,0.169823833624007,-0.0144166324156451,1.82740601824013,0.727948210156578,0.161570651677341,-0.0542484863707873,1.38771182846681,-1.39412238820834,-1.97941528485082,235.465446517632,231.089099131344
0.88,0.159171248884978,0.025817903019335,1.79954121655105,-1.29519286948342,0.063899414599795,0.148050381295432,-0.816622845304337,2.06131033271407,-0.246650945528034,237.236751081654,231.089099131344
0.89,0.158130811734563,0.0290579996427487,1.36949726375837,-1.44929907934649,-0.15560095594906,0.0404729968103241,-1.47120090484085,-1.34594148254362,1.49805926194928,238.771302923825,231.089099131344
0.9,0.12191842695995,0.0203818923797594,2.69955890661802,-1.02474908921758,-0.00659447772567932,-0.123434343814411,1.32074188273631,-2.56775580329187,-3.02932223217036,240.24831213088,231.089099131344
0.91,0.107731836376313,-0.0232356265651699,2.95590509833002,1.16538467183541,0.0956315510820548,0.0547781831437393,3.1700434391527,-0.215223087904722,-1.26303982481057,241.628048679967,231.089099131344
0.92,0.12850975117983,0.00918954207342761,1.48183892415426,-0.461961153180855,-0.0550573349545467,0.116481301930928,-1.1297013687772,1.06443859455102,0.512933384206311,242.950449588646,231.089099131344
0.93,0.119812166664623,0.00669951878900867,1.50881000433213,-0.335407462440002,-0.0939442316667119,-0.0746613699943073,-0.903935301131594,-1.2537570603595,2.29818124851764,244.117831251593,231.089099131344
0.94,0.126960423816506,-0.00563290658575254,0.770516866839825,0.288142898145462,0.106548166157991,-0.0692688035167331,0.459142735970798,-0.68257638388797,-2.19159232984308,245.204166923964,231.089099131344
0.95,0.078083911784201,-0.0439448233200396,2.85338868097807,2.19671982741697,-0.0109110896395628,0.088933643234885,3.11754996119007,1.80230053109474,-0.390531615004647,246.201442656162,231.089099131344
0.96,0.0767287456953802,-0.0305368003225834,2.57777323209274,1.53384593921455,-0.0804880423115949,-0.0184789511275549,-2.31372161500629,1.90900248548595,1.41770466144782,247.146303710905,231.089099131344
