t,iq,id,vq,vd,ia,ib,va,vb,theta_e,omega,r
0,0,0,0,0,0,0,0,0,0,0,0
0.01,0.000478737672800131,0.000227255868176948,-0.0184541924548837,-0.0113654489382214,0.000483539830652077,-0.000216850688612935,-0.0186956397208607,0.0109637449877759,-1.54917101804237,-0.0151672299680488,0
0.02,0.000690685279696813,0.000310188007172041,-0.0288796520978196,-0.0155130363708231,0.00069719670764529,-0.000295261758837467,-0.0292066096074849,0.0148883363063019,-1.54928776477492,-0.0155581300210729,0
0.03,0.000759045586675239,0.000349004787989467,-0.0336794814079328,-0.0174543265971828,0.000766343453154853,-0.000332674400123343,-0.0340454415540182,0.0167292825387207,-1.54938570485636,-0.0112262880254603,0
0.04,0.000723263741831271,0.00035364399715914,-0.0340030090175728,-0.0176863304197927,0.000730649708531419,-0.000338120570798965,-0.0343728880032641,0.0169562813223385,-1.54944314856319,-0.00545504145009892,0
0.05,0.00069453711704447,0.000364089253037589,-0.0337295182870152,-0.0182087262700244,0.000702143687377097,-0.000349194835881642,-0.0341101645459929,0.017485273543644,-1.54946883016286,-0.00233290131612151,0
0.06,0.000666464600592658,0.000367716119289869,-0.0330105273596211,-0.0183901134432797,0.000674152151397443,-0.000353424793973104,-0.0333950677908504,0.017682212425528,-1.5494766111171,-0.000562316090522404,0
0.07,0.000652580342076071,0.000372204795508115,-0.0324885710798041,-0.0186145952967867,0.000660367640186997,-0.000358206773326826,-0.0328780607725738,0.0179176875937042,-1.54947409311815,-0.0001573857406595,0
0.08,0.000642301582622149,0.000370534911068556,-0.0320938792236749,-0.0185310785339863,0.000650056394577873,-0.000356754996079826,-0.0324817170327044,0.0178425338409073,-1.5494719057778,0.00011849348621263,0
0.09,0.000638197302314221,0.000369955425802915,-0.0318837443000577,-0.0185021056098272,0.00064594171909128,-0.000356261293574768,-0.0322710635116203,0.0178179550571223,-1.54946902044143,7.9867708814148e-05,0
0.1,0.000637609209852038,0.000369754418977232,-0.0318081427299114,-0.0184920497778099,0.000645350240999125,-0.000356071483390207,-0.032195303061565,0.0178094443957525,-1.54946686572053,-5.44287948775763e-05,0
0.11,0.000638434238785024,0.00036968471455688,-0.0318044672044973,-0.0184885542502442,0.000646174014442669,-0.000355983438503901,-0.0321915747691677,0.0178059901804773,-1.54946568920581,-0.000176552683234502,0
0.12,0.000639469574495434,0.000369660531626127,-0.0318268514450326,-0.0184873572161586,0.00064720875622988,-0.000355936892168898,-0.0322139362594057,0.0178043017391015,-1.5494652469845,-0.000253337493551599,0
0.13,0.00066248066564438,0.000380690700888765,-0.0326395966988775,-0.0190389968548486,0.000670449075451885,-0.000366475209695707,-0.0330382225335633,0.01833855298891,-1.54946744224851,-0.00107072749256161,0
0.14,0.000675403608860794,0.000387072541472723,-0.0335908070411347,-0.0193581646496503,0.000683503780861212,-0.000372582566383299,-0.0339959531825507,0.0186374897313864,-1.54947121505789,-0.00134194329807646,0
0.15,0.00065545356862712,0.000375696797209824,-0.0325918120765129,-0.018789239287042,0.000663314533353022,-0.0003616369642368,-0.0329849952210599,0.0180901027549075,-1.54947445786487,-0.000252746871044357,0
0.16,0.000643577608292544,0.000371747318032753,-0.0321529874356252,-0.018591719925639,0.000651357737357741,-0.000357940364228875,-0.0325420926124823,0.0179019233388343,-1.54947258939634,0.000114715221209521,0
0.17,0.000638491757812856,0.00037037634193385,-0.031907488670219,-0.0185231452107126,0.000646244882944866,-0.000356676198710859,-0.0322952411128685,0.0178385017083551,-1.54946958399827,0.000109009353673718,0
0.18,0.000637465101187422,0.00036990054247025,-0.031811447636559,-0.0184993620375664,0.00064520916325686,-0.000356220861546679,-0.0321987572515069,0.0178166952039097,-1.54946719797593,-2.37265930331047e-05,0
0.19,0.000638187210159641,0.000369735443633571,-0.0317993886062682,-0.0184910934043153,0.000645928074020431,-0.000356039515619426,-0.0321865489832606,0.0178086415980483,-1.54946582962493,-0.000155652067078542,0
0.2,0.000639270156667347,0.000369678147128839,-0.031820373134723,-0.0184882389959004,0.000647009749946927,-0.000355958774500251,-0.0322074777530242,0.017805322361333,-1.54946527381736,-0.000242863477582161,0
0.21,0.000640113176393593,0.000369658244528416,-0.0318456885277031,-0.0184872429519987,0.000647852184634043,-0.000355920838397281,-0.0322327677053037,0.0178037837502492,-1.54946518599548,-0.000285249706977347,0
0.22,0.000640589256219291,0.000369651315755197,-0.0318639430461852,-0.0184868974858327,0.000648327971536884,-0.000355903823730517,-0.0322510088600783,0.0178030523396796,-1.54946528947062,-0.000297869986559508,0
0.23,0.000640778256274267,0.000369648894431361,-0.0318735864042937,-0.018486777394941,0.000648516828999653,-0.000355897459069959,-0.0322606450643324,0.0178027309353156,-1.54946542419947,-0.000295953692667801,0
0.24,0.000640804391436381,0.000369648044344204,-0.0318769794801405,-0.0184867351625184,0.000648542904440911,-0.000355896116684338,-0.032264034684527,0.0178026195719065,-1.54946552435085,-0.000289659570512036,0
0.25,0.000640765392277,0.000369647745101574,-0.0318770409469075,-0.0184867208726127,0.000648503888384768,-0.000355896684654988,-0.0322640948627857,0.0178026057316865,-1.54946557882226,-0.000283972577800141,0
0.26,0.000643280812324877,0.000371286633122056,-0.0319417190368301,-0.0185686793882138,0.000651053936844502,-0.000357481102661024,-0.0323305185787067,0.0178831439540694,-1.54946489461058,-0.000441664842474533,0
0.27,0.000639647485521085,0.00036805880581801,-0.0318704355390809,-0.0184072506609877,0.000647351934236636,-0.000354332701727786,-0.0322557753686784,0.0177233319021142,-1.54946673878867,-0.000150594425426039,0
0.28,0.000638144994689523,0.000367683354117827,-0.031400526497625,-0.0183884732512574,0.00064584179162865,-0.000353989354823733,-0.0317855734365618,0.0177145797056887,-1.54946669901543,-8.95681924127043e-05,0
0.29,0.000638794768820583,0.000368965592615455,-0.0318151695003365,-0.0184525914044603,0.000646519120562193,-0.000355256797196204,-0.0322015073913679,0.0177698075847428,-1.54946569971355,-0.000191125802727017,0
0.3,0.000625143243551148,0.000363624500278917,-0.031238057707037,-0.0181854805421224,0.000632758510270045,-0.000350204968327943,-0.031618916178269,0.0175149105498054,-1.54946076087865,2.48845149797131e-05,0
0.31,0.000635259277749764,0.000367556808906181,-0.031562587604326,-0.0183821393412766,0.000642956236875341,-0.000353920379751642,-0.0319475728800725,0.017704591780533,-1.54946046958144,-0.000427356754728065,0
0.32,0.000640574752278711,0.000368921939402908,-0.0317793756234958,-0.0184504097724614,0.000648299049633267,-0.000355172849292198,-0.0321657392409376,0.0177682738293562,-1.54946209128591,-0.000533743275136052,0
0.33,0.000642440934829958,0.000369395749713005,-0.0318858844231322,-0.0184741055132296,0.000650174297587337,-0.00035560787028416,-0.0322726984021398,0.0177897481096223,-1.54946382783942,-0.000484784056148594,0
0.34,0.000642486584761591,0.000369560159822393,-0.0319183832146954,-0.01848233730068,0.000650223020295993,-0.000355772043876023,-0.0323053441877315,0.0177973232832485,-1.54946501919,-0.000398633581514896,0
0.35,0.000641887925915505,0.00036961720466075,-0.0319143432832188,-0.0184851793726746,0.000649625500288791,-0.000355842235817888,-0.0323013550856127,0.0178002703145837,-1.54946562088096,-0.000328647750818942,0
0.36,0.000641268132572038,0.00036963700638116,-0.0318990052779022,-0.0184861716565888,0.000649006200802759,-0.000355875379393438,-0.0322860382579082,0.0178015958229983,-1.54946581615313,-0.000287819793423648,0
0.37,0.000640849794746328,0.000369643890876232,-0.0318849029817119,-0.0184865155728615,0.000648588108874998,-0.000355891177910446,-0.0322719466998899,0.0178022400943897,-1.54946580521442,-0.000270818947747433,0
0.38,0.000640642051825764,0.000369646292205914,-0.031875955110776,-0.0184866359151689,0.000648380492373241,-0.000355897958717015,-0.0322630048289618,0.0178025487245677,-1.54946572670239,-0.000267777875134591,0
0.39,0.000640576975736382,0.000369647133902885,-0.0318717719440046,-0.0184866770331232,0.000648315475881861,-0.000355900139334425,-0.0322588248334653,0.0178026766229531,-1.54946565128407,-0.000270585008828081,0
0.4,0.00064058296943906,0.000369647430369436,-0.0318706104205519,-0.0184867069049085,0.000648321491964484,-0.000355900276160383,-0.0322576650827677,0.0178027296832417,-1.54946560233749,-0.00027446757405142,0
0.41,0.000640611665826463,0.000369647534824862,-0.0318708659994862,-0.018486712672882,0.000648350192348697,-0.000355899753408824,-0.0322579211416186,0.0178027292466077,-1.54946557902462,-0.000277414073426708,0
0.42,0.000640638499560704,0.000369647571167331,-0.0318714967467112,-0.0184867140844542,0.00064837702310319,-0.0003558992131224,-0.0322585518929902,0.0178027169916066,-1.54946557242288,-0.000279044691583704,0
0.43,0.00064065561261294,0.000369647583336679,-0.0318720162940287,-0.0184867140857,0.00064839413202478,-0.000355898861188036,-0.0322590712972743,0.0178027059564165,-1.5494655738197,-0.000279671383218191,0
0.44,0.000640663645272786,0.000369647587082745,-0.0318722982492356,-0.0184867155839077,0.000648402161623366,-0.000355898695997129,-0.0322593531545757,0.0178027015595075,-1.54946557751119,-0.000279740081206241,0
0.45,0.000640665857163891,0.000369647588055454,-0.031872377842263,-0.0184867156536827,0.000648404371878328,-0.000355898651893806,-0.0322594326732743,0.0178027000361906,-1.54946558075285,-0.000279592820670337,0
0.46,0.000640665216879624,0.000369647588227876,-0.031872329561323,-0.0184867157365662,0.000648403731033425,-0.000355898667016379,-0.0322593843695714,0.0178027012131991,-1.54946558274772,-0.000279420532528058,0
0.47,0.000640663936311089,0.000369647588234358,-0.03187223345833,-0.018486715822398,0.000648402450438499,-0.000355898694915346,-0.0322592882743724,0.0178027033776145,-1.54946558364081,-0.000279297624447348,0
0.48,0.000640662772157876,0.000369647588239449,-0.031872122120963,-0.0184867159076931,0.000648401286474674,-0.000355898719888458,-0.0322591769603736,0.0178027058444673,-1.5494655838531,-0.000279233176968259,0
0.49,0.000640662073665948,0.000369647588262662,-0.0318720183210681,-0.0184867159908478,0.000648400588175508,-0.000355898734749101,-0.032259073187535,0.0178027081385398,-1.54946558375935,-0.000279210637777221,0
0.5,0.000640661782627645,0.000369647588291398,-0.031871926255673,-0.0184867160721316,0.000648400297263594,-0.000355898740876898,-0.0322589811477974,0.0178027101780802,-1.54946558359198,-0.000279210171869446,0
0.51,0.699919685869399,-0.0415058249349747,0.499505990085265,2.077072953198,-0.118686190317932,0.691031032876865,2.0090596480556,0.726235235713914,0.110861299577345,32.3297325322647,125.458837149264
0.52,0.500662108354285,0.0115842893014264,0.824974228520057,-0.578023340848531,-0.208026963540869,0.455545305036001,-0.88005491430871,0.490098773808963,0.45150809501343,59.1994576880423,125.458837149264
0.53,0.388499415848718,-0.0166272949145012,-0.730464749689522,0.833703648530523,-0.328232093041591,0.208499295318966,1.07597690657307,0.266297241130158,0.962109509985434,79.1105513849567,125.458837149264
0.54,0.250610195508463,0.00276200395107139,0.764794580908351,-0.136041409134648,-0.25058769371424,-0.00434816255378153,-0.76062772509259,-0.15768157725807,1.59916711500432,94.0794665445531,125.458837149264
0.55,0.117696236134219,0.0115434000868321,3.3901547206987,-0.57838049679326,-0.0932435524067725,-0.0727412814039729,-2.05811207992471,-2.75533077793112,2.33106326000114,105.066378795742,125.458837149264
0.56,0.115978768925366,0.0461853356810478,0.826119491245234,-2.31106581337536,-0.0475902281204701,-0.115409402826876,2.30086409289274,-0.854121205452991,3.12944963723946,112.353104086996,125.458837149264
0.57,0.0627652325977297,0.00770510729812983,1.71214682848307,-0.385461978868106,0.0411163191273973,-0.0480446813178819,1.52358353864075,-0.871045865738708,-2.31159525278206,117.180433294868,125.458837149264
0.58,0.0681354278972145,-0.0402566823993894,0.129182443638062,2.01494589372063,0.0622636415875451,0.0488495235268426,0.392472963044805,-1.98057063283407,-1.43919361267097,120.841240941957,125.458837149264
0.59,0.0411499337101667,0.0379535130814277,0.600091030654304,-1.89668159273203,0.053766262399371,0.0155876626591417,-1.31289238780248,1.49459823609242,-0.543604999429766,123.179497144186,125.458837149264
0.6,0.0344907278613316,0.043243195969832,0.229906563304003,-2.16461695411985,0.028023085718748,0.0476895268679553,-2.10338162920737,-0.560543760848627,0.366257977640172,125.093084345947,125.458837149264
0.61,0.0448835689314337,-0.0236343123779083,-0.779176591400093,1.18132490211058,-0.049698723353656,-0.0101563959462046,1.07813792829501,0.916658765574295,1.28770350058284,126.352785340219,125.458837149264
0.62,0.0200349766643992,0.0376097549614687,0.262348216961969,-1.88085914351383,-0.0386339478106851,0.0179808796994474,0.922333759622262,-1.66004763201053,2.2165230138259,126.880012278019,125.458837149264
0.63,-0.000975055872838818,-0.0361684793747118,1.06940190742605,1.81080123077718,0.0361600355112961,0.00124958635392482,-1.80263111873661,-1.08311706973579,-3.13400147981336,127.47335158859,125.458837149264
0.64,0.00371348801483081,0.0190554923272739,0.60368196136244,-0.952966061793883,-0.00816036381748525,-0.0176156249800387,1.04767775673465,0.418267310997162,-2.1970760072807,128.080562188631,125.458837149264
0.65,0.0243366033036336,0.0219770761105284,-0.616562114483616,-1.10074426450589,0.0299318814908999,-0.0133919604666796,-0.926220987907373,0.856680487941105,-1.25700262930803,128.568293500589,125.458837149264
0.66,0.0399852386776667,-0.0160263871098002,-1.45857505721544,0.801516405583219,-0.00287524903340512,0.0429813603658498,0.311158478792572,-1.63494652726796,-0.314406644048176,128.64229555656,125.458837149264
0.67,-0.000930649437497264,0.00583852751338538,0.588890083802162,-0.290932153685895,0.00526845537070053,0.00268288835157351,-0.581741587196722,0.304975039264969,0.629077467122282,128.671120250378,125.458837149264
0.68,0.00507687927534987,0.0242605537234429,0.119278584681496,-1.21179739187961,-0.00514633646761667,0.0242459149364716,-0.115807718331676,-1.21213401573616,1.57366015698969,129.01195021534,125.458837149264
0.69,-0.0267401208666577,0.0467638405295786,1.71062684036369,-2.34104496108277,-0.0223726496111866,0.0490036263394292,0.902929080261113,-2.75525947467793,2.51851965245717,128.969087663288,125.458837149264
0.7,-0.019984214661957,-0.0417747170691226,1.43254544443664,2.08861403481533,0.0333290648534518,0.0321507271745885,-1.5295308520504,-2.01867045587676,-2.82039098343899,128.693318552214,125.458837149264
0.71,0.0122811905229463,-0.0196910704080515,-0.181145739639245,0.985658333654023,0.0176497060266699,0.0150683035424656,-0.470077248359958,-0.885078250927795,-1.87727072240296,128.680727129857,125.458837149264
0.72,0.0207188608798569,0.0397336657494217,-0.624462644739526,-1.9856703194363,0.040292350098499,-0.0196102502173129,-1.68327922492714,1.22450449696766,-0.933605235400736,128.789956072267,125.458837149264
0.73,0.00910283557814784,-0.032048312887825,-0.129041566898852,1.60162115442104,-0.0321454342498403,0.00875368673233832,1.60293006595543,-0.111612059979237,0.0108778632976889,128.951721491818,125.458837149264
0.74,-0.0104609554449339,0.0399790586536976,0.797399850399618,-2.00114767882366,0.031599641000799,0.0266311736180985,-1.80539556607144,-1.17515335334936,0.956203776443964,128.99432078594,125.458837149264
0.75,0.00409795616438779,0.0155117760137974,0.0870259168609807,-0.775841522816725,-0.00892030811272754,0.0133355368471416,0.170046055014015,-0.761963199837262,1.90206946333393,128.8485556703,125.458837149264
0.76,0.0221851002155943,0.0294641308031045,-0.778846920978378,-1.47229362322038,-0.0346456739597565,-0.012648752959587,1.63524164515071,0.316600381013186,2.84625777224031,128.759473314841,125.458837149264
0.77,-0.05095445358488,-0.0440203037276203,2.97428147247889,2.20343514695032,0.00435610946117877,0.0671949982570716,0.0376577851720552,-3.70135902278651,-2.49381292097914,128.373530905086,125.458837149264
0.78,-0.00267872281992866,-0.0332204293302964,0.557469556860821,1.66015774962291,-0.00327783023344106,0.0331666746870404,0.587340359489916,-1.64982646438159,-1.552747907324,128.29737998607,125.458837149264
0.79,0.0364230994646149,-0.0153222952017415,-1.3528224829597,0.766145270242649,0.0083946446290109,0.0386127549704908,-0.150541626290961,-1.54739925819748,-0.612276536951499,128.234333745833,125.458837149264
0.8,0.00315044051129265,-0.010067996820473,0.297152999867584,0.504661930688235,-0.0105460658398936,-0.000265199345545157,0.381849682337698,0.444043229556403,0.328405561461494,128.304975772104,125.458837149264
0.81,0.0306888745353409,-0.00396906849307781,-1.17731072624158,0.200629236140489,-0.0304838277928915,0.00531947065430132,1.18380107716322,-0.157884914494683,1.26941595506435,128.489423167561,125.458837149264
0.82,0.0189245840605361,-0.0234482123190737,-0.562525402883554,1.17153333814062,-0.00117375024983034,-0.0301094811176759,-0.24853735141979,1.27559961438276,2.21087646246924,128.432982394184,125.458837149264
0.83,-0.00591345830786374,-0.00523123142459199,0.693044632655954,0.260699300964041,0.00517170270770467,0.00596558986853787,-0.253740361325856,-0.695622611342235,-3.13157026497648,128.307290488165,125.458837149264
0.84,0.0196934702810378,-0.0143909174863703,-0.673601401773302,0.720420002087133,0.0243896180419311,0.000278943683107208,-0.966746339695252,-0.195308326919294,-2.19042384796125,128.484755575344,125.458837149264
0.85,-0.00718434941753211,-0.0365467152931528,0.656479589433255,1.8298126412662,-0.0183788828677367,0.0323958938726187,1.2017176765055,-1.528088472391,-1.24885673278648,128.472367702112,125.458837149264
0.86,-0.0597695578533763,0.00646393814980529,3.31069200776278,-0.323144215774606,-0.0119104941560065,-0.0589264174318475,0.692999366056773,3.2534375102494,-0.307166832768206,128.13592082418,125.458837149264
0.87,-0.0149668008355146,0.00125773768022429,1.255896050386,-0.0643341542205304,0.00982948960907629,-0.0113564151626857,-0.791508923503134,0.977203866544405,0.629611670462431,127.752684284751,125.458837149264
0.88,0.0204712860678773,0.0188059247524564,-0.543549689287,-0.940751052429998,-0.0203835559153634,0.0189009790040932,0.539166262123289,-0.943270135836041,1.56614306781719,127.811863690822,125.458837149264
0.89,0.00444430677403208,-0.0434436981772784,0.318173686849724,2.17447705293515,0.0322004378362915,-0.0294998063920986,-1.93445302739285,1.04282138142432,2.50188249327325,127.656065371582,125.458837149264
0.9,0.0146609324137711,0.0292262599955489,-0.307417329804086,-1.45984135600998,-0.0236507185513958,-0.0225778813127195,1.30578807733793,0.721498230394958,-2.84435277546521,127.984380326674,125.458837149264
0.91,0.00479241902884497,0.0319397575431862,0.289184624727311,-1.59915684530145,-0.00601484753662794,-0.0317322706590101,0.800647691961782,1.41417595666502,-1.90705829520699,127.594422922459,125.458837149264
0.92,-0.033736430751172,0.0389284636596644,2.12191552801546,-1.94822899714158,-0.00586118157765333,-0.0511783019769532,0.651128190789259,2.8060922672813,-0.970756617787283,127.866624606325,125.458837149264
0.93,0.000898514968230442,-0.0510504986014771,0.41279354954723,2.55426070582388,-0.0509906271584916,0.00262995790674535,2.56679490734703,0.325899020374509,-0.0339329223241485,127.814613382636,125.458837149264
0.94,0.0245219265013407,0.0360161070394636,-0.760316007513792,-1.79970713774915,0.0030777535667831,0.0434627688786323,-0.518740721077955,-1.88359610247061,0.902336279471631,127.734609714279,125.458837149264
0.95,-0.0591844910083704,-0.00134160067763053,3.46161322024331,0.0660485937873674,0.0574250349941569,0.0143864249978216,-3.35541483706896,-0.85341653047153,1.8389335738664,127.350452809283,125.458837149264
