t,iq,id,vq,vd,ia,ib,va,vb,theta_e,omega,r
0,0,0,0,0,0,0,0,0,0,0,0
0.01,0.000442802840818163,0.000225796434813292,-0.0205643153081229,-0.0112933830072963,-0.000492835390883026,-6.45884146283526e-05,0.0233448647478867,0.00233427799207009,2.17266480162621,-0.00627092141487564,0
0.02,0.000608367068911601,0.000298247291392948,-0.0287043012183642,-0.0149170660039555,-0.000670331899477996,-9.85752600886466e-05,0.0321063511085524,0.0039544892331759,2.17261531049324,-0.00686841457397505,0
0.03,0.000669068118638966,0.000329966018040761,-0.0319549172800105,-0.0165035086759214,-0.000738330487521454,-0.000106760534080216,0.0356842182614203,0.00448543242729686,2.17256896936343,-0.00580953942072052,0
0.04,0.000653167228210006,0.000330847072861699,-0.0316192977237256,-0.0165475631564712,-0.000725724968530972,-9.70076475305772e-05,0.0354326422043463,0.00425789870449977,2.17253447103364,-0.00397315532051058,0
0.05,0.000648062590914323,0.000339746050800334,-0.0316533137601482,-0.0169926595636498,-0.000726556518383276,-8.67647761005644e-05,0.0357127353097407,0.00390938457316308,2.17251057846677,-0.00280269184407097,0
0.06,0.000634689288304396,0.000342415809624049,-0.0312270784991628,-0.0171261903647305,-0.00071704448247306,-7.6982397493034e-05,0.0354370041622852,0.00355746595261939,2.17249457607081,-0.00184796927567309,0
0.07,0.000627511092363329,0.000346818151439711,-0.0310075120858189,-0.0173463798723273,-0.000713619522744851,-6.92833166389115e-05,0.0353806664347855,0.00325132942928381,2.17248514748559,-0.00129748019063484,0
0.08,0.000614550502340508,0.000344537279078055,-0.0304955508018675,-0.0172322977115578,-0.000701644424971037,-6.38228603914272e-05,0.0348940608712081,0.00305535906980885,2.17247857782876,-0.000777357983463536,0
0.09,0.000606359701060034,0.000343852489243299,-0.0301659922874508,-0.0171980422072232,-0.000694504658719892,-5.97486438740967e-05,0.0346029987243556,0.00289693384981771,2.17247496854369,-0.000473243877674936,0
0.1,0.000601441657426613,0.000343646841205298,-0.0299652558465837,-0.0171877542383092,-0.000690333996089991,-5.71331129982862e-05,0.0344316963501944,0.00279172709191654,2.17247305889866,-0.000302314646041941,0
0.11,0.000598611365247543,0.000343585058940876,-0.0298483014031248,-0.0171846705926552,-0.000687965821623595,-5.5581360263168e-05,0.0343335377705051,0.00272803669167944,2.17247208850335,-0.000209774243599316,0
0.12,0.000597043715659717,0.000343566487405767,-0.0297827699859301,-0.0171837446084609,-0.000686662983512315,-5.47090189188599e-05,0.0342789915764867,0.00269169153187807,2.17247161805385,-0.000161557409394864,0
0.13,0.000617459925932627,0.000354706330395413,-0.0307163121171411,-0.0177409048871414,-0.000709799360748261,-5.70807186067628e-05,0.0353639624441798,0.00276074202685921,2.1724704712703,-0.000459861108195508,0
0.14,0.000628830391528849,0.000361079133097251,-0.031374609910345,-0.0180596412537072,-0.000722780299520771,-5.82618253511903e-05,0.0360870729191689,0.00287053259265709,2.17246884768956,-0.000581357865519181,0
0.15,0.000607302345549283,0.000348816591842297,-0.0302928405886027,-0.0174463307963891,-0.000698092007985072,-5.61845356081704e-05,0.0348481299477877,0.00276378152639371,2.1724673322299,-0.00014331713651232,0
0.16,0.000598172764653434,0.000345136315128955,-0.029876189068233,-0.017262256325744,-0.000688482527360235,-5.40512896570395e-05,0.0344004550562423,0.00267971241366447,2.17246776821615,-6.44052611244854e-06,0
0.17,0.000594814828604026,0.000344031843631515,-0.0297144889646678,-0.0172070097580991,-0.000685089072877839,-5.30617751598998e-05,0.0342358778364869,0.00263376308954013,2.17246869133079,9.33343502479055e-06,0
0.18,0.000593942989154918,0.000343700431935945,-0.0296656092897504,-0.0171904425527207,-0.000684182705185158,-5.28420968996693e-05,0.0341862022539502,0.00261978341519349,2.17246955287773,-1.47571612743133e-05,0
0.19,0.00059401289187426,0.000343601017107661,-0.0296615569193042,-0.0171854665404759,-0.000684184026832232,-5.29640642121783e-05,0.0341800432837201,0.00262161404748358,2.17247020216306,-4.53833561806135e-05,0
0.2,0.000594349447164888,0.000343571213300082,-0.029671852003424,-0.0171839730507381,-0.000684444586395932,-5.31794331203317e-05,0.0341876839357546,0.0026286875490517,2.17247064174299,-7.10803106545396e-05,0
0.21,0.000594690252598934,0.000343562288804872,-0.0296841281282363,-0.0171835256599693,-0.000684720476366379,-5.33798845036754e-05,0.0341975502728309,0.00263601444942491,2.17247091955615,-8.95187399269189e-05,0
0.22,0.000594955679406475,0.000343559622279747,-0.029694232046656,-0.0171833912604771,-0.000684937773037054,-5.35324348975801e-05,0.0342058033171468,0.00264185001087473,2.17247108636646,-0.00010163288916785,0
0.23,0.000595138636768687,0.00034355882870126,-0.0297013985567318,-0.0171833643601102,-0.000685088146707005,-5.36367131266833e-05,0.034211695827653,0.00264593188768869,2.17247118236665,-0.000109125520861413,0
0.24,0.0005952558669868,0.000343558594160241,-0.0297060747824245,-0.0171833525278354,-0.000685184654370242,-5.37032980281492e-05,0.0342155440173896,0.0026485903173085,2.17247123553721,-0.000113546836856879,0
0.25,0.000595326996745649,0.000343558525658772,-0.0297089460725737,-0.0171833495326345,-0.000685243252644019,-5.37436350916903e-05,0.0342179093061044,0.00265021897642325,2.17247126390386,-0.000116052582468263,0
0.26,0.000598356381495123,0.000345350175652906,-0.0298422279697831,-0.0172729587305557,-0.000688754743964425,-5.39815317115908e-05,0.0343785055601274,0.00265179730753943,2.17247156587872,-0.000181713876396612,0
0.27,0.000593036482793281,0.000341646278394634,-0.0296101441848209,-0.0170876954046221,-0.000682272623094001,-5.4023302760568e-05,0.034082316708601,0.00267313685800876,2.17247085148903,-5.80603593043193e-05,0
0.28,0.000592052816252541,0.00034132159307332,-0.0294412956070366,-0.0170714561944927,-0.00068127791957819,-5.37341923349355e-05,0.0339339280240502,0.00259095204123457,2.17247085322637,-4.12618898143648e-05,0
0.29,0.000593893892860914,0.000342887137245487,-0.029644679342706,-0.0171497700397956,-0.000683681798242302,-5.34859198113704e-05,0.034145921850196,0.00264152356605823,2.17247122144964,-8.95404620516716e-05,0
0.3,0.000582910055192752,0.000338020993526828,-0.0291270203071057,-0.0169063738771845,-0.000671872388843641,-5.12817474275252e-05,0.0335813963718615,0.00254923662330921,2.1724732301563,7.87015097928168e-06,0
0.31,0.000591455248275934,0.000341896720795888,-0.0295097467346124,-0.0171002343909446,-0.000681110688390397,-5.29236106524127e-05,0.0340066406899316,0.00260606169383937,2.17247347381337,-0.00014978485753003,0
0.32,0.000594908809674328,0.000343059893110045,-0.0296701264237495,-0.0171584001335048,-0.000684616169300562,-5.391922496685e-05,0.0341717801187701,0.00264887535704608,2.17247305581948,-0.000190090920898862,0
0.33,0.000596058485447063,0.000343408948318788,-0.0297277395853735,-0.0171758612984794,-0.000685761550390002,-5.42818557675012e-05,0.0342291605593624,0.00266707322767403,2.17247253343461,-0.000186139770676174,0
0.34,0.000596258608265541,0.000343513674254029,-0.0297415675592114,-0.01718110164143,-0.000685985830437595,-5.4308496288391e-05,0.0342435275056057,0.00267056519581791,2.17247209725092,-0.000169805527305229,0
0.35,0.000596129039477172,0.00034354508131252,-0.0297391532811255,-0.0171826748237159,-0.000685896809549046,-5.42090513884984e-05,0.034242428496208,0.00266789105060924,2.17247178503394,-0.000153432104356565,0
0.36,0.000595929736885419,0.000343554492160027,-0.0297324055088509,-0.0171831467712762,-0.000685737844648051,-5.40883425989746e-05,0.0342371333903015,0.00266367556595625,2.17247158022268,-0.000140730014001078,0
0.37,0.000595754299127045,0.000343557307433626,-0.0297258680472523,-0.0171832883897414,-0.000685594816115263,-5.39866329314809e-05,0.0342318244779434,0.0026598541236228,2.17247145369148,-0.000131986127054582,0
0.38,0.000595625543820537,0.000343558147092959,-0.0297208620263558,-0.0171833309629314,-0.000685489150996296,-5.39130109698527e-05,0.0342277218669904,0.00265698294448129,2.17247137909688,-0.000126396101557468,0
0.39,0.000595539745740638,0.000343558396175233,-0.0297174358413422,-0.0171833443374518,-0.000685418563294714,-5.38642128906743e-05,0.0342249050413976,0.00265503116950527,2.17247133685642,-0.000123009292963365,0
0.4,0.000595486078280044,0.000343558469375212,-0.0297152462861192,-0.0171833474523052,-0.00068537436312103,-5.38337596794727e-05,0.0342231018210825,0.00265378847220033,2.17247131382013,-0.000121045023979673,0
0.41,0.000595454180483253,0.000343558490547555,-0.0297139179275826,-0.0171833490617251,-0.00068534807957316,-5.38156790134477e-05,0.0342220076803914,0.0026530348485154,2.17247130172432,-0.00011994919483009,0
0.42,0.000595435961485406,0.000343558496512535,-0.0297131401090853,-0.0171833491842558,-0.000685333063741498,-5.38053575278024e-05,0.034221366541135,0.00265259427494698,2.17247129563038,-0.000119360292600277,0
0.43,0.00059542594976774,0.000343558498122733,-0.0297126974308848,-0.0171833492877247,-0.000685324811263287,-5.37996873234761e-05,0.034221001668549,0.00265234352307936,2.17247129270696,-0.00011905587711621,0
0.44,0.000595420652870603,0.000343558498529601,-0.0297124496273059,-0.0171833493802275,-0.000685320444862187,-5.37966879153684e-05,0.0342207974379255,0.0026522031390199,2.17247129139179,-0.000118905249697776,0
0.45,0.000595417975318204,0.000343558498623532,-0.0297123114231143,-0.0171833494666361,-0.000685318237600309,-5.37951719106039e-05,0.0342206835542856,0.00265212482249971,2.17247129085457,-0.000118834622855587,0
0.46,0.000595416636542004,0.00034355849864424,-0.0297122294528966,-0.0171833495499293,-0.000685317133949904,-5.37944139885037e-05,0.0342206160265957,0.00265207835045174,2.17247129067151,-0.0001188038736186,0
0.47,0.000595416054465395,0.000343558498650999,-0.0297121802038916,-0.0171833496314614,-0.000685316654098266,-5.37940844891385e-05,0.034220575472516,0.0026520504058955,2.17247129063589,-0.000118791999714183,0
0.48,0.000595415821634752,0.000343558498655451,-0.0297121461386011,-0.0171833497121808,-0.000685316462156962,-5.37939527088336e-05,0.0342205474351215,0.0026520310581315,2.17247129065211,-0.000118788457102364,0
0.49,0.00059541570521943,0.000343558498659724,-0.0297121169704867,-0.0171833497926293,-0.000685316366186379,-5.37938868308637e-05,0.0342205234347181,0.00265201448292549,2.17247129068046,-0.000118788209766666,0
0.5,0.00059541564701177,0.000343558498663082,-0.0297120904040521,-0.0171833498729424,-0.000685316318201176,-5.37938538985633e-05,0.0342205015790414,0.00265199938034349,2.17247129070586,-0.000118789006257341,0
0.51,2.15013465391627,-0.00317002155651788,0.574172716651119,0.161449531189124,-0.292166319314073,2.13019433875569,0.0828028911091741,0.590663983066241,0.134829989563875,40.8361900044422,459.274677906938
0.52,1.94120148713445,-0.0193217023565924,1.41336366909731,0.972356802056007,-1.09698119763979,1.60164565177811,0.0206482479253323,1.71541489485384,0.590572526364737,82.929068693903,459.274677906938
0.53,1.77181143631529,0.0247309611303694,0.948885490666085,-1.22822937079326,-1.72046705967123,0.424170346538189,-1.20171521716462,-0.982248236705368,1.34303037384522,122.06209806884,459.274677906938
0.54,1.56688622393127,-0.00981485612044741,2.52485309475117,0.500447608528661,-1.0781950191833,-1.13698032997699,-2.10976098333365,-1.47453028187272,2.37646196407255,159.837917490391,459.274677906938
0.55,1.40380918709678,0.00978188727841589,2.681939118644,-0.484471615428164,0.708615889733382,-1.21187434988674,1.78636599881416,-2.05825331301791,-2.60551086569092,193.995844538112,459.274677906938
0.56,1.2570781172295,0.0355901160280848,3.49802725328465,-1.77101370073643,1.12416036176091,0.563715823994441,2.24293244365947,3.21588840697218,-1.07768118593673,222.129731668032,459.274677906938
0.57,1.11716799872376,-0.0407998535924848,4.56044351479037,2.05455630783444,-0.705062250649421,0.867534545787539,-1.10454273730613,4.87840465881215,0.645944200551801,248.074369133356,459.274677906938
0.58,1.00792869198615,-0.00429137510723399,4.19456838981136,0.218556603630889,-0.550887451627207,-0.844074451496374,-2.48998689986317,-3.38262268133843,2.55909730038144,273.015386769069,459.274677906938
0.59,0.939678502185472,-0.0173210377168275,2.8409354342457,0.879026866620492,0.938322535442006,-0.0533528377764962,2.76683372441549,-1.09006124379805,-1.64602582826721,293.572692263558,459.274677906938
0.6,0.851457611145307,0.0167451760903163,2.58228832604591,-0.836065286400124,-0.452646944653034,0.721367595609785,-2.11457460226195,1.70170279820685,0.580047834737711,313.766909890376,459.274677906938
0.61,0.785857311636017,0.032654395636942,1.86776515145213,-1.62276469347142,-0.186080424167579,-0.764206843431682,1.22511918884032,-2.1496499446402,2.94427448699589,330.757395275219,459.274677906938
0.62,0.690129725562202,-0.0339155377617152,2.93752363339187,1.69656132094496,0.498876047059714,0.478071115500927,3.33039854624432,0.644834037280923,-0.855795015235449,346.810035806465,459.274677906938
0.63,0.641120195695275,-0.00849201100755717,2.11767963142934,0.435350183378121,-0.630678656508205,-0.115549347918133,-2.1606574084327,0.075208822108655,1.73875612632992,360.628934870716,459.274677906938
0.64,0.569728659807818,-0.0145670695452385,2.61493495260913,0.727417121123874,0.551296121076125,-0.144483674537875,2.30939722728778,-1.42608026459823,-1.85267453413621,373.792750407399,459.274677906938
0.65,0.479321558332822,0.0207849438276107,4.51080543256703,-1.02807558052378,-0.371483477577343,0.30361356369498,-4.22856622858948,1.87710753559248,0.928931180207072,384.868230561705,459.274677906938
0.66,0.453533246435518,-0.0336333055837824,3.29394144457611,1.68182783228825,0.300603762271307,-0.34126380261488,0.647703854339119,-3.64130125296298,-2.49347934089007,395.468175262355,459.274677906938
0.67,0.370925594786265,-0.0134853839686631,5.2818057973339,0.687354718289267,-0.169817665183937,0.330044865192299,-1.62207753831557,5.07334144811845,0.438863131422606,404.540825889994,459.274677906938
0.68,0.369819768406604,-0.026957700665209,3.30940599743672,1.35257275490434,0.133263302480131,-0.346026402087411,-0.332495310302725,-3.55964436170333,-2.84674070231678,412.997734407948,459.274677906938
0.69,0.313526187291616,-0.00178743473798525,4.34100651659374,0.0844960071361877,-0.0664843385936943,0.306401203917868,-0.813635438497782,4.26491201850071,0.207971278592943,420.493199788698,459.274677906938
0.7,0.330530641021277,-0.0093584200060389,1.89740859288547,0.47912778119938,0.066295267049948,-0.32394910440642,-0.144277373071622,-1.95164208775385,-2.9680384401757,427.115131161439,459.274677906938
0.71,0.285399416778075,0.0245410731057375,2.66789703420928,-1.22905395691925,-0.0285626338295065,0.285025029278427,-1.70040141845972,2.39517916454317,0.185655046727509,433.247400796827,459.274677906938
0.72,0.245337872094968,0.00210521918643769,3.37896988441096,-0.101180715346033,0.0561775713978281,-0.238828775284202,0.900174498364262,-3.25842920583044,-2.9019904710961,438.628792511604,459.274677906938
0.73,0.201045699852666,-0.0272589424769069,4.38090559578316,1.370992798216,-0.0913178283577996,0.181172507843279,-0.132261165471571,4.58851414687069,0.332108787652623,443.474958226049,459.274677906938
0.74,0.179067206426378,0.0263245653306718,4.37626756019165,-1.32142145661465,0.0555757079671607,-0.172248041617734,3.12045080878381,-3.34075727558107,-2.6835244650623,447.959756114514,459.274677906938
0.75,0.117209678422232,-0.0285881859270696,6.51518691824789,1.43998589189929,-0.0909215779936283,0.0793010702676344,-2.57868859558944,6.15398936264553,0.614323630465268,451.804069617698,459.274677906938
0.76,0.176519611887205,-0.00620930195207238,2.70989673146697,0.317212573543532,0.130627738502551,-0.118887016722814,1.71714507107658,-2.12027755657293,-2.3443367278055,455.171614849936,459.274677906938
0.77,0.131230831619231,-0.00797647791352683,4.1967447392085,0.393520653207319,-0.114978172464038,0.0637587266514156,-3.32860576169337,2.58609910749697,1.00377528132606,458.254658292731,459.274677906938
0.78,0.117934363448225,-0.00854488667605438,4.16533038191446,0.434683600141634,0.114053774327519,-0.0311972071168554,3.78313146535903,-1.79634165418002,-1.91012422203371,461.016163849579,459.274677906938
0.79,0.103754627279851,0.008984590374776,4.23429549536765,-0.442947427796475,-0.102482578364602,0.0185220592247846,-4.25710401003921,-0.0502614523308519,1.47837189206968,463.437415074643,459.274677906938
0.8,0.0789585127517081,0.00213674373525012,4.90256982909925,-0.112150195700249,0.0781682827071445,0.0113460120028014,4.81179582501598,0.945721700051665,-1.39959943075139,465.621118195073,459.274677906938
0.81,0.0665802142085656,0.0364001922608058,5.00839923908303,-1.82468191542505,-0.0757850489239672,0.00381120456994989,-3.71586540739788,-3.82176285300782,2.02086421156588,467.536991866763,459.274677906938
0.82,0.0718515026578406,0.0125760594553912,4.27738283669751,-0.621344135019914,0.0614569254278242,0.0392917551475378,2.73266523802946,3.34882265321164,-0.828679526454931,469.290825899358,459.274677906938
0.83,0.103726539587614,0.00885764684044589,2.24992712471329,-0.445919593744982,-0.0595877930629678,-0.0853636212930066,-0.740148274502149,-2.17098983930321,2.61736639336362,470.868419792953,459.274677906938
0.84,0.0760596363493223,-0.00223051228134747,3.26861523148163,0.102404600123384,0.0136298892884985,0.0748616696621954,0.779664094855669,3.17591815587131,-0.209412419253014,472.161628591228,459.274677906938
0.85,0.0396717487238654,0.00760076994304381,4.71940748720958,-0.371217885635354,-0.00300285188120595,-0.0402815370997202,0.90978463856196,-4.6457401628139,-3.02670408015278,473.46306716677,459.274677906938
0.86,0.0291877974317234,-0.0169971191765751,4.93311137130393,0.84945949829047,-0.0279595536320717,0.0189497477532901,-1.37037451784978,4.81448262243743,0.447825558930059,474.495439268107,459.274677906938
0.87,0.0213227558927081,-0.0288438452116929,5.02316798940037,1.43305985739946,0.0354575395953211,0.00542127395566334,2.55184544912018,-4.55784620280577,-2.35328853697725,475.508713846219,459.274677906938
0.88,0.019728362081968,0.0389277149496402,4.88734694050029,-1.93775903724266,-0.00143911619997317,0.0436177051918215,-5.24844873677825,0.307987111165337,1.13470958384245,476.202664483378,459.274677906938
0.89,0.0272649987936073,-0.022131995572128,4.24883389241581,1.10999789736879,0.0290276033158978,0.0197636948204271,4.1405866712146,-1.46295139894135,-1.65488925747173,476.983360633257,459.274677906938
0.9,0.0484651782739332,-0.0200085618436219,3.00479333019567,0.993413224167259,-0.0412810303704064,-0.032327891730389,-3.16133586517311,0.146997750693499,1.84362828224504,477.516323465551,459.274677906938
0.91,0.0253072420913038,0.0105243141553278,3.97608265991612,-0.523099003337395,0.0266261809990566,0.00650109037880338,2.89468174882566,2.7755510189499,-0.937215068909386,478.046731729858,459.274677906938
0.92,0.0364187707065877,0.0400653249152082,3.2440780767506,-1.99757010942909,-0.053410938418616,-0.00887855717912647,-0.0804017781800686,-3.80891906768888,2.56856052023512,478.526003312127,459.274677906938
0.93,0.0239822188164827,-0.0132818677419832,3.71937342357562,0.659977384579384,-0.00810792598737952,0.0261880958884064,1.40515386529041,3.50640149255847,-0.205528540939305,478.877819415926,459.274677906938
0.94,0.0146885327328407,-0.0117445067371616,4.03880510940217,0.57719850083392,0.0139933854363701,-0.0125646964297651,0.0926481719028155,-4.07878917539765,-2.97692995739962,479.21977319773,459.274677906938
0.95,0.0363432685175366,-0.0114874604719873,2.8081904422421,0.583888356114852,-0.0284686076907762,0.0253442950342265,-0.935524282130013,2.71139327465632,0.537246825542805,479.582840225223,459.274677906938
0.96,0.00651501873478353,-0.00939751290013014,4.21962138970055,0.469730551074402,0.0109065633062039,0.0034359270467313,3.04721244377712,-2.9564079193374,-2.23020658645726,479.69460113985,459.274677906938
