t,iq,id,vq,vd,ia,ib,va,vb,theta_e,omega,r
0,0,0,0,0,0,0,0,0,0,0,0
0.01,0.00124700127040107,0.000710943019249643,-0.0617331564519496,-0.0356051655273142,-0.000510884164772979,0.00134143561723472,0.0250310571644666,-0.0667244827254399,0.882049215801428,-0.0015551085487421,0
0.02,0.0013810081963129,0.000787992677426276,-0.0684708636371241,-0.0394639530796829,-0.000565355753387757,0.00148609857347089,0.0277794774122663,-0.0739862378729345,0.882037757653689,-0.00165181594989997,0
0.03,0.00142393309221467,0.000812592458259801,-0.070606356897616,-0.0406959406896049,-0.000582842397349317,0.00153237942239409,0.0286442425563788,-0.076294984050963,0.882026144762093,-0.00162922768184673,0
0.04,0.00139872844355728,0.00079878870909307,-0.0693847900777279,-0.0400046304566464,-0.000572141108133678,0.00150570887391099,0.0281397458721839,-0.0749851602275551,0.882015459761432,-0.0015244448908519,0
0.05,0.00142292571540489,0.00081274559305134,-0.0705960130019654,-0.0407036121956111,-0.000581934789065522,0.00153186973723622,0.0286297594896191,-0.0762949406521228,0.882004893356363,-0.00148460038221158,0
0.06,0.001422696304913,0.000812951157632405,-0.0706033700748864,-0.0407138984791619,-0.000581611543585852,0.00153188849890475,0.0286281301749193,-0.0763078472897168,0.881994788554648,-0.00141615531021366,0
0.07,0.00146235744351212,0.000835868536135168,-0.072574209266381,-0.0418616501904588,-0.000597648697875767,0.00157479571253653,0.0294193617620065,-0.0784468913394597,0.881985260562133,-0.00140339074042493,0
0.08,0.00142218280893366,0.000813290838371209,-0.0706126582596483,-0.0407309246410889,-0.000580970473217482,0.00153183525192967,0.0286230465554748,-0.0763274323850545,0.881976025437819,-0.00128895009956482,0
0.09,0.00142102086021313,0.000812947342689479,-0.070571485747026,-0.0407137154930179,-0.00058027847204426,0.00153083655627527,0.0286015365253866,-0.0762882254229057,0.881967326885679,-0.00122877844369604,0
0.1,0.00142050114446575,0.000812938552948567,-0.0705611552135343,-0.0407132908898372,-0.000579870181779672,0.00153050421906685,0.0285932002801442,-0.0762815677466617,0.881959054104387,-0.00117231223439542,0
0.11,0.00142001662532662,0.000812934975139171,-0.0705518116526981,-0.0407130856877047,-0.00057948637287722,0.00153019803739847,0.028585517398443,-0.0762756951378058,0.881951184982606,-0.00111861323720351,0
0.12,0.00141955558303176,0.000812931643373258,-0.0705429136680696,-0.0407129173354147,-0.000579121123379988,0.00152990674048103,0.028578184444623,-0.0762701231190178,0.881943699804104,-0.00106753446350456,0
0.13,0.00148703114053663,0.000851587859889637,-0.0738798505218291,-0.0426488809388901,-0.000606626737521714,0.00160264390847151,0.0299230225458495,-0.0798859942680068,0.88193621771527,-0.0011046786181505,0
0.14,0.00158456644426443,0.000908232545772878,-0.0788233383716126,-0.0454857633793367,-0.000645902512420143,0.00170837557871191,0.0319353660389385,-0.0852185762507551,0.881929173841341,-0.00118380531559797,0
0.15,0.00142086609685614,0.000814356096930958,-0.0706467374613363,-0.0407842599363769,-0.000579194727594226,0.00153185175044156,0.0286113579120958,-0.0763918030348472,0.88192240244573,-0.000925606219065836,0
0.16,0.00141791005763095,0.000812941028523097,-0.0705123731901735,-0.0407133918790023,-0.00057780298523674,0.00152888382738477,0.0285522182263068,-0.0762518582433298,0.881916315906978,-0.000880720632552527,0
0.17,0.00141751312014965,0.000812917203758487,-0.070503484693225,-0.0407121954356392,-0.000577502869297995,0.0015286164535015,0.028545676222086,-0.0762454495698027,0.881910531940228,-0.00084119793436438,0
0.18,0.00141717330449482,0.000812914434151073,-0.0704968868527773,-0.04071207749252,-0.000577233898804719,0.0015284014781119,0.0285402385071558,-0.076241321444771,0.881905030268204,-0.000803653747053253,0
0.19,0.00141685110659919,0.000812912098731593,-0.0704906602642416,-0.0407119432364321,-0.000576978664897296,0.00152819787946093,0.0285351182602285,-0.0762374090092913,0.881899797030044,-0.000767942173736069,0
0.2,0.00141654435290548,0.000812909881544453,-0.0704847216663365,-0.040711842773579,-0.000576735670199726,0.00152800403990968,0.0285302183510019,-0.0762336983967438,0.881894819127329,-0.00073397301891392,0
0.21,0.00141625250037009,0.000812907772406297,-0.0704790675000679,-0.040711742315281,-0.000576504482657373,0.00152781961393322,0.0285255565557306,-0.0762301616239319,0.881890084102017,-0.000701661255808914,0
0.22,0.00141597508332855,0.000812905765997992,-0.0704736969589073,-0.0407116389487783,-0.000576284727813623,0.00152764430856429,0.0285211331949855,-0.0762267962741809,0.881885580103614,-0.000670926018326541,0
0.23,0.00141571128687989,0.000812903857322046,-0.0704685907021367,-0.040711538494232,-0.0005760757623298,0.001527477608708,0.028516928775172,-0.0762235948728763,0.881881295860285,-0.000641690386101518,0
0.24,0.00141546041252907,0.00081290204162681,-0.0704637340931228,-0.0407114380404046,-0.000575877033436425,0.00152731907310767,0.0285129330269152,-0.0762205461792729,0.881877220649853,-0.000613881191798416,0
0.25,0.00141522137351193,0.000812900314388837,-0.0704590921695945,-0.0407113713278899,-0.000575687689325692,0.00152716801352612,0.0285090967314507,-0.0762176543086806,0.881873344273323,-0.000587428837989818,0
0.26,0.00142836558349669,0.000820461145966334,-0.0711131766105694,-0.0410900107461082,-0.000581022003481325,0.00154136243746524,0.0287730198082965,-0.0769258487237723,0.881869682942798,-0.000579801581054334,0
0.27,0.00137568264904997,0.00079049245746571,-0.0685252099782579,-0.0395891445620633,-0.000559400513660142,0.00148473975548717,0.027729139365841,-0.0741221937057319,0.881866059285715,-0.000486965302789849,0
0.28,0.00136081627911251,0.000781782652279413,-0.0676825748133565,-0.0391529492273422,-0.000553456749052599,0.00146856756325025,0.0273557347934986,-0.0732499019826799,0.881862691662679,-0.000444953103821692,0
0.29,0.00141352750312483,0.000812426101522428,-0.0704008584848707,-0.0406876254649619,-0.000574660690385789,0.00152573302495901,0.0284781960424053,-0.0761626948811171,0.881859640855457,-0.000492813698450703,0
0.3,0.00140940459275651,0.000810241992314702,-0.0702024644055948,-0.0405782304949874,-0.000572862758882869,0.00152142750457534,0.0283944037520624,-0.0759521996672117,0.881857117328819,-0.000470442044749206,0
0.31,0.0014139680852286,0.0008128519098813,-0.0704325127782735,-0.0407089379022229,-0.000574721836731036,0.00152634490985072,0.0284886698974224,-0.0761994236780332,0.88185423227339,-0.000456909852743994,0
0.32,0.00141387340374501,0.000812889968535055,-0.0704329050401855,-0.0407108381977999,-0.00057462035125338,0.00152631567989321,0.0284875547317098,-0.0762012183929829,0.881851477690381,-0.000438209907119552,0
0.33,0.00141371290607622,0.000812889391475849,-0.0704298072039719,-0.0407108342033298,-0.0005744928279784,0.00152621470775963,0.0284849663294286,-0.0761993205844447,0.881848857344027,-0.00042033022418497,0
0.34,0.00141355943230904,0.000812888289167185,-0.0704268190004697,-0.0407107673899796,-0.000574371256108401,0.0015261177213739,0.0284825122415668,-0.0761974403271852,0.88184636484449,-0.000403321453918637,0
0.35,0.00141341352553253,0.000812887232266378,-0.0704239785477336,-0.0407106976554098,-0.000574255682494898,0.00152602551016105,0.0284801833372937,-0.0761956482691497,0.881843993956717,-0.000387142536871044,0
0.36,0.00141327444824311,0.000812886226762591,-0.0704212601864646,-0.0407106645150674,-0.000574145524920912,0.00152593761338086,0.0284779342353295,-0.0761939587709968,0.88184173874716,-0.000371753006269638,0
0.37,0.00141314251130719,0.000812885270276275,-0.0704186901278568,-0.0407105976663228,-0.000574041016188217,0.00152585423013777,0.0284758294306778,-0.0761923343907198,0.881839593572011,-0.000357114347458437,0
0.38,0.00141301670536349,0.000812884360421124,-0.0704162281162948,-0.0407105644959979,-0.000573941370430427,0.00152577472005601,0.0284737945995607,-0.0761908017073643,0.881837553062174,-0.000343189924600551,0
0.39,0.00141289695301619,0.000812883494925555,-0.0704138799926631,-0.0407105313103518,-0.000573846521509063,0.00152569903516938,0.0284718552807674,-0.0761893385721607,0.881835612111024,-0.000329944889355346,0
0.4,0.00141278325426529,0.00081288267162854,-0.0704116549206504,-0.0407104981091393,-0.000573756463342187,0.00152562717665209,0.0284700181770268,-0.0761879509499944,0.881833765861168,-0.000317346093669337,0
0.41,0.00141267529888246,0.000812881888474084,-0.0704095462334736,-0.0407104312134193,-0.000573670950678718,0.00152555894839538,0.0284682992003216,-0.0761866087381974,0.881832009691683,-0.000305362006819124,0
0.42,0.00141257231033599,0.000812881143505453,-0.0704075233564994,-0.0407103950763312,-0.000573589378612946,0.00152549385778413,0.0284666334391523,-0.0761853423770473,0.881830339207879,-0.000293962636497919,0
0.43,0.00141247444406754,0.000812880434862932,-0.0704056019946112,-0.0407103618359615,-0.000573511861902265,0.00152543200464139,0.0284650504098568,-0.076184140463766,0.881828750228612,-0.000283119453756962,0
0.44,0.00141238135082696,0.000812879760775755,-0.0704037722759758,-0.0407103285827114,-0.000573438125989609,0.00152537316788521,0.0284635440385704,-0.0761829945904212,0.88182723877767,-0.000272805321604175,0
0.45,0.0014122927977836,0.000812879119559841,-0.0704020296942025,-0.040710295317351,-0.000573367986425423,0.00152531720039809,0.0284621105575813,-0.0761819020010483,0.881825801071942,-0.000262994427090765,0
0.46,0.00141220866852214,0.000812878509612663,-0.0704003752669738,-0.0407102620396206,-0.000573301348854809,0.00152526402902594,0.0284607504780312,-0.0761808634454386,0.881824433513518,-0.000253662216711926,0
0.47,0.0014121284973813,0.000812877929411122,-0.0703987922307178,-0.0407102287513104,-0.000573237849559518,0.00152521335854118,0.0284594505978146,-0.0761798683655882,0.881823132679825,-0.00024478533495055,0
0.48,0.00141205201251507,0.000812877377504548,-0.0703972731022867,-0.0407102291172978,-0.000573177274639022,0.00152516501688962,0.0284581834900152,-0.0761789380831044,0.881821895315331,-0.000236341565833086,0
0.49,0.00141197964120046,0.000812876852513703,-0.0703958451724478,-0.0407101958051755,-0.000573119950043332,0.00152511927644348,0.0284570127903422,-0.0761780380627466,0.881820718323241,-0.000228309777326173,0
0.5,0.00141191076234077,0.000812876353126935,-0.0703944829483936,-0.0407101595728377,-0.000573065392673843,0.00152507574303908,0.0284558990420537,-0.076177175923803,0.881819598757972,-0.0002206698684521,0
0.51,3.42138151035037,-0.0210074436468379,7.25315667520495,1.05486593297007,-0.211293560638653,3.41491548699065,0.649766693325671,7.30060457331142,0.0556549831841124,17.0070807270556,480.573248326373
0.52,3.31520243399147,-0.0665249789823133,7.83904222959036,3.33771499641472,-0.880926412332472,3.196711029672,1.30435605703624,8.41959498735335,0.248834654421946,35.6316427189396,480.573248326373
0.53,3.18695446129698,-0.030000369639171,9.58020888397971,1.51178656106297,-1.76404527741432,2.65437808531329,-3.96035337726227,8.85333281844197,0.577143040343903,53.9052132034314,480.573248326373
0.54,3.19539843990928,-0.0196218020457753,4.41041596076608,0.995952062973728,-2.76422139141441,1.60313327709744,-3.29661622017801,3.0945130401375,1.03910313352609,72.1747959954165,480.573248326373
0.55,3.04657379331399,0.0620570214783756,6.78357108610935,-3.09512010447048,-3.04402477813418,-0.139198067973383,-6.56444908305957,-3.53618627582238,1.63685941942133,91.0825439727653,480.573248326373
0.56,2.93415342139838,0.0306051927455955,7.37960761646098,-1.52243198338722,-2.06198029304538,-2.08768538080317,-4.03643366181861,-6.36267325977901,2.37281920106331,109.327090666381,480.573248326373
0.57,2.86864165552763,-0.0383076039588388,6.32404031287216,1.9342746546636,0.304899012020796,-2.85264947247609,-1.33781555462856,-6.4765078445332,-3.04846726981357,125.582470188639,480.573248326373
0.58,2.71865163621971,0.0984663095308349,9.69411726849017,-4.90926909287017,2.33875846684113,-1.38959388564129,10.8610475928224,-0.338345722443163,-2.07070676599381,141.253657798872,480.573248326373
0.59,2.63633529610243,-0.0675676623795077,9.22305984721465,3.39642024139591,2.14347765883869,1.53633743316184,9.53881986536926,2.36884338391201,-0.974540819621421,157.9339170669,480.573248326373
0.6,2.65479430716073,0.039584399162468,4.13692474448011,-1.96281993191484,-0.592151362911808,2.58821492565663,-2.88930129738337,3.552287493933,0.239825982236049,173.021588306051,480.573248326373
0.61,2.51226155477889,0.102548437923087,7.36732286200241,-5.10747377523903,-2.51108306884856,0.128203444113644,-7.41910652072706,-5.0319571691185,1.56058210298082,187.481196250868,480.573248326373
0.62,2.31718038480304,-0.0329698682961212,12.8920595817767,1.66626323294714,-0.315138442604664,-2.29588756473921,-3.5820812888353,-12.4960124464458,2.99095546139625,202.425644350096,480.573248326373
0.63,2.37474777207221,0.0642514500535957,6.38522820275626,-3.18769347241776,2.3204349171504,-0.509055031470192,6.87024084333098,1.93192122768906,-1.75970484675105,215.696766631624,480.573248326373
0.64,2.28123112326063,0.00459713115855265,7.08513209912208,-0.21478982201456,0.293275679105379,2.26230544962282,0.683640683896303,7.05534314863373,-0.126901602875419,229.678167270157,480.573248326373
0.65,2.18727503876354,0.0839291169888632,8.29726160354203,-4.17131414620068,-2.18884016450709,0.0139615943632125,-8.15966856141907,-4.43443579181117,1.60277060457648,242.187429939911,480.573248326373
0.66,2.12548200499999,0.0600020595455321,7.64361111151314,-2.98774326231852,0.539592678479752,-2.05672403157534,5.01495196456656,-6.49628027556284,-2.85679723158946,255.178228227751,480.573248326373
0.67,2.05174787083059,0.0485791980754589,8.00968612247344,-2.39821351906235,1.68943509692841,1.16526319653974,5.07593540824731,6.64389792176688,-0.943320065804337,266.993243728895,480.573248326373
0.68,1.96596246160024,-0.0202204919650095,8.81602110365412,1.03714698546031,-1.72386969994666,0.945352064747516,-7.1779603233914,5.22252693294568,1.05890548894779,278.885874867445,480.573248326373
0.69,1.91136428698817,-0.0787946962710186,8.23306054222853,3.95876326548178,0.0844439453777825,-1.91112303680932,-3.9344107661286,-8.24472585399294,-3.13863685831032,290.391073969704,480.573248326373
0.7,1.76629252550693,0.0166436993458136,12.3770535835546,-0.799266434016941,1.46694750850735,0.983936637021737,9.76210105123729,7.65059901629668,-0.97055809973134,301.029551071625,480.573248326373
0.71,1.85365507168852,-0.0172110062344442,4.79838681899186,0.885781031561932,-1.7790302237888,0.520946068588813,-4.33548690651024,2.23890093216024,1.27664959578616,311.826036831031,480.573248326373
0.72,1.77923411686461,0.0415065931888369,5.46817635109283,-2.06665734452514,0.749334511356663,-1.61427836198811,4.27111537483339,-3.9911901284194,-2.68367571958157,322.166068177191,480.573248326373
0.73,1.69446182578191,0.0619379491541646,6.84144039866955,-3.06451517480913,0.538616284048432,1.60777165267194,-1.00459931389287,7.42881822389734,-0.286720048826405,331.795713960875,480.573248326373
0.74,1.66239110595786,0.0644901074981138,5.53892832783665,-3.19818373478466,-1.39883931723931,-0.900528582377244,-2.7034539344834,-5.79650265647129,2.1815524845845,341.345218819239,480.573248326373
0.75,1.51548013706777,-0.0178922482042642,10.0394834577618,0.913651246949368,1.51535144610555,0.0266490746290023,10.0445953322067,-0.855623347002391,-1.56501784533334,350.65171570099,480.573248326373
0.76,1.41430237579859,0.0380662516878948,12.386273700036,-1.89895945486364,-1.19856442043071,0.75176032070381,-11.6317088666087,4.66145599849179,1.03751286644018,359.585350110305,480.573248326373
0.77,1.43426538597538,0.0431257198042262,8.79501027540337,-2.13792461423348,0.728348271924454,-1.23631946514661,6.49857781957388,-6.30011219928174,-2.57914781017099,368.027402179698,480.573248326373
0.78,1.3499175129967,0.0890664102273712,10.4368608763501,-4.42503955472076,-0.11269040049691,1.34815095258722,-5.92804748716766,9.66267525083068,0.149278648587618,376.224237499006,480.573248326373
0.79,1.3679814451422,0.0889654789310397,7.03041330179017,-4.42444901479691,-0.364878211492989,-1.32142044084101,2.90477044633422,-7.78233698400608,2.93712281551036,384.169151811987,480.573248326373
0.8,1.31242228991671,-0.0309670859756666,7.32765897002101,1.57363119986736,0.603318174912158,1.16594099649369,4.90031205039387,5.67078856446702,-0.501102302830322,391.956345838555,480.573248326373
0.81,1.22696221606631,-0.00801817561775386,9.19646753034248,0.415239354685344,-0.823314146947549,-0.909755124322264,-6.5213477227243,-6.49765054751651,2.39949569538966,399.442893819154,480.573248326373
0.82,1.15206708874907,0.036141299832002,10.6553280729855,-1.80352361961902,0.945038068473164,0.659899855787842,7.46226880806928,7.81685729853071,-0.929866057274593,406.52484544077,480.573248326373
0.83,1.09713030052441,0.0166259195565063,11.2172110753837,-0.830505421046595,-0.96895301241921,-0.514879963927147,-9.42390210427736,-6.14049124200134,2.07438266382112,413.272647627318,480.573248326373
0.84,1.07899149930678,0.0944228704354657,9.9770910630063,-4.72832815371054,1.02542164741633,0.348781850226679,7.22255292230219,8.35069832368743,-1.15564882775894,419.82103358046,480.573248326373
0.85,0.98454074629506,0.00428088716485984,12.6118603207623,-0.214924225291426,-0.918088210925965,-0.355602086704947,-11.6620844561003,-4.80634989485983,1.94467991325034,426.105530410716,480.573248326373
0.86,1.01858011777479,-0.0708531606800951,8.90802067994841,3.56287877010704,0.920640899153861,0.441526852535194,9.59407352140121,-0.026283660629935,-1.19306140317158,432.084326962194,480.573248326373
0.87,1.00402454150548,0.0371784556600891,7.66061825277464,-1.83307939726391,-0.93002567545881,-0.38013124114961,-6.2231886269337,-4.82878612127525,1.99582005768512,437.928585861983,480.573248326373
0.88,0.949380703430027,0.092243651848071,8.45040569064073,-4.58694876198441,0.871894576498857,0.386823549985572,5.09977546688391,8.15118061809776,-1.05637049754674,443.573011541042,480.573248326373
0.89,0.900929949209329,-0.01491453446615,9.00873783330078,0.77963565547537,-0.711309377251045,-0.553114984931159,-7.67056617576029,-4.78827773293441,2.21517634186869,448.936300742036,480.573248326373
0.9,0.837387291344052,0.0403684599155298,10.372056095139,-1.99009087781106,0.604957565651461,0.580407987558353,5.68467799973414,8.90081150131804,-0.75793541636669,454.101512398998,480.573248326373
0.91,0.74661413373477,-0.0610186655441659,13.1557636785226,3.08588340809024,-0.339832053673342,-0.667585288583766,-9.53020446174263,-9.5797702107536,2.58918800391648,459.06089636898,480.573248326373
0.92,0.784143447429958,0.00569542747198593,9.56284905909727,-0.257088363171133,0.245539396994188,0.744730681901289,2.68356267242273,9.18219298080447,-0.311215926913658,463.851091179391,480.573248326373
0.93,0.74593225981186,0.0433939321132576,9.81572067991917,-2.15928643459105,-0.0700355257113992,-0.743903888086765,1.80696416808474,-9.88664608793395,3.10583200378152,468.424863605978,480.573248326373
0.94,0.750784576971271,-0.0686741596720298,7.96167341033723,3.435823299502,-0.268224236481369,0.704591640731407,1.16602176904742,8.59264327622061,0.272525402893287,472.793711452034,480.573248326373
0.95,0.599910200104324,-0.0811529702625323,13.9622861470556,4.05447843650275,0.411044691369994,-0.444432575840462,4.70186373383024,-13.7577871502949,-2.52966205245334,476.937355596444,480.573248326373
0.96,0.678917654104968,-0.0462953997974905,8.49856976161609,2.31032309640067,-0.590004629011357,0.339067814519417,-5.77853804117155,6.64618529004052,0.981112920990381,480.93631164214,480.573248326373
0.97,0.607366980066386,0.00138737697450764,10.6076285465738,-0.0779611306274531,0.595952251790119,-0.11720702571142,10.4277623297455,-1.94669825969923,-1.76270544961275,484.787958239819,480.573248326373
0.98,0.563754327698353,0.0154468050798199,11.3370877603958,-0.779686616274758,-0.552010422819569,-0.115507743828525,-10.848459050602,-3.38354936921671,1.80446236566192,488.510692159888,480.573248326373
