t,iq,id,vq,vd,ia,ib,va,vb,theta_e,omega,r
0,0,0,0,0,0,0,0,0,0,0,0
0.01,0.000948186394554849,0.000543889048976218,-0.0469215386956978,-0.027247218413021,0.000137424063294364,-0.0010844295104998,-0.0065351258019377,0.0538640310000243,-2.494750889068,-0.00093679098691834,0
0.02,0.00105895428413534,0.000607653385386169,-0.0524850478198816,-0.0304416246182367,0.000153288634443306,-0.00121125117428648,-0.00733855343404897,0.0602288833330695,-2.49475786136706,-0.00102602878002579,0
0.03,0.00108676901700624,0.000623580860078382,-0.0538615777124519,-0.0312395514778719,0.000157332517000749,-0.00124304724949417,-0.00753094877313119,0.0618082837554124,-2.49476509680705,-0.001030811500135,0
0.04,0.00107185373414654,0.000615144381042382,-0.0531366538242956,-0.0308169120595432,0.000155067644552966,-0.0012260616063415,-0.00743091767391277,0.0609751384668553,-2.49477192207986,-0.000993844402644962,0
0.05,0.00108666133721699,0.000623629860978514,-0.0538732635453552,-0.0312419872108525,0.000157211427861343,-0.00124299301375997,-0.00753519754358532,0.061819180582482,-2.49477884779479,-0.000986512027640504,0
0.06,0.00108666939826414,0.000623688047192809,-0.0538820325236396,-0.0312449045101967,0.000157161418149112,-0.00124303557872665,-0.00753773457905787,0.0618279875472714,-2.49478563329352,-0.00096471402112617,0
0.07,0.00111618024357463,0.000640639056386344,-0.0553411312723865,-0.0320940951702185,0.000161410358943677,-0.00127680203349602,-0.00773896538637589,0.0635041744301194,-2.49479221810359,-0.000973297236016513,0
0.08,0.00108669139301114,0.00062380483423456,-0.0538992566436984,-0.0312507766496139,0.000157065189475084,-0.00124312556932679,-0.00754261827515337,0.0618453702188178,-2.4947987342733,-0.00092263471562247,0
0.09,0.00108638443178766,0.000623683367563731,-0.0538919615842601,-0.031244684030839,0.000156969282352478,-0.00124280840076175,-0.0075426932221046,0.0618359246922333,-2.49480505512671,-0.000902012335727471,0
0.1,0.0010862916765439,0.000623680622707507,-0.0538950152315808,-0.031244539850404,0.000156907905070421,-0.00124273369431902,-0.00754426677903122,0.061838321258283,-2.49481122783215,-0.00088208198095652,0
0.11,0.00108620246503332,0.000623678764849935,-0.0538980643699504,-0.0312444623244861,0.000156848135782763,-0.00124266232705054,-0.00754579332530172,0.0618407533255003,-2.4948172561636,-0.000862619294622846,0
0.12,0.00108611553056259,0.000623676956224549,-0.0539010510646068,-0.0312443589143496,0.000156789875441352,-0.00124259278382496,-0.00754731158928493,0.0618431189188603,-2.49482314350042,-0.000843611825779645,0
0.13,0.00113618531925574,0.000652409924112247,-0.0563702563694038,-0.0326837838876426,0.000164024828358452,-0.00129986601019274,-0.00788618528449336,0.0646810916267272,-2.49482912336652,-0.000874860437419851,0
0.14,0.00122773848030471,0.000705253388201746,-0.060998813868293,-0.0353310947057685,0.000177016157059254,-0.00140477378881119,-0.00856232560763744,0.0699701945590795,-2.49483490029715,-0.000948573236209733,0
0.15,0.00108688803131688,0.000624250896670281,-0.053960539040026,-0.0312731203309661,0.000156775683171408,-0.0012435578634626,-0.0075591275388102,0.0619080561766985,-2.49484058197769,-0.000788349604091292,0
0.16,0.00108578640533228,0.000623674070680119,-0.0539129620662918,-0.0312442038153598,0.000156565541088806,-0.00124233195877216,-0.00755320395908327,0.0618527029382682,-2.49484592525772,-0.000770067576152684,0
0.17,0.00108570185030133,0.000623668383440707,-0.0539152358041256,-0.0312439226452938,0.000156512646835909,-0.00124226186918528,-0.00755447580290328,0.0618543874710834,-2.4948511420722,-0.000753217417756774,0
0.18,0.00108562649219455,0.000623666789012855,-0.0539178107321941,-0.0312438422808236,0.000156462180539577,-0.00124220156590348,-0.00755577641626747,0.0618564324655816,-2.49485623686143,-0.000736768660473502,0
0.19,0.00108555288031714,0.00062366525994968,-0.0539203240268248,-0.0312437648346421,0.000156412862956256,-0.00124214267648075,-0.00755704491197894,0.0618584291459016,-2.49486121248999,-0.000720704670877202,0
0.2,0.00108548113108266,0.000623663766805286,-0.0539227849530457,-0.0312436873958012,0.000156364784229228,-0.00124208527654714,-0.0075582890250444,0.06186038317205,-2.49486607174516,-0.000705016397113469,0
0.21,0.00108541071368603,0.000623662308543234,-0.0539251704378227,-0.0312436358426024,0.000156317621914047,-0.0012420289423202,-0.00755947403265675,0.0618622917435409,-2.4948708173487,-0.000689695051307736,0
0.22,0.0010853423404922,0.000623660884348245,-0.0539275193621309,-0.0312435584166404,0.000156271802575001,-0.00124197424226555,-0.00756066450679433,0.0618641547206678,-2.49487545195874,-0.00067473205150203,0
0.23,0.00108527548069533,0.000623659493425687,-0.053929808517252,-0.0312434809972638,0.000156227003735287,-0.00124192075272231,-0.00756182564979675,0.0618659691945089,-2.49487997817137,-0.00066011901646,0
0.24,0.00108521025071076,0.00062365813499873,-0.0539320468052425,-0.0312434035845389,0.000156183292979736,-0.00124186856655276,-0.00756296267003733,0.0618677422878908,-2.49488439852197,-0.000645847760973211,0
0.25,0.00108514623615142,0.000623656808309253,-0.0539342166340292,-0.0312433520497645,0.000156140418112493,-0.00124181735300153,-0.00756404416798009,0.0618694755679791,-2.49488871548601,-0.000631910291272484,0
0.26,0.00109393542023225,0.000628707236462303,-0.0543715430315056,-0.0314963529843445,0.000157400542248405,-0.00125187561767081,-0.00762538347122518,0.0623709745783891,-2.49489291958751,-0.000627258313937923,0
0.27,0.00105324168697661,0.000605405087332358,-0.0523758496348427,-0.0303289970306838,0.000151472164375426,-0.00120535868287106,-0.00735425547690196,0.0600748916956105,-2.49489709669518,-0.000572819027874255,0
0.28,0.00103375179610402,0.000594105955369638,-0.0513139282592592,-0.0297629303303259,0.00014874129414377,-0.00118299648755624,-0.00716591972635821,0.0588863383962666,-2.49490114632285,-0.000540160609393324,0
0.29,0.00108453360204899,0.000623441991445029,-0.0539241436756639,-0.0312325831766652,0.000155922501221258,-0.00124120152444444,-0.00756556189269758,0.0618550709019779,-2.49490499681156,-0.000578970340166654,0
0.3,0.00108275579194491,0.000622467989022122,-0.0538410950354813,-0.031183791648556,0.0001556242420562,-0.00123919635152462,-0.00755424258705826,0.0617594186755037,-2.49490853315772,-0.000565814130313441,0
0.31,0.00108478265133387,0.00062364116653316,-0.0539453671396372,-0.0312425721192638,0.000155904561028481,-0.00124152143480501,-0.00756992716529069,0.061878082962951,-2.49491228258228,-0.000555807737933321,0
0.32,0.00108474355004091,0.000623648378988683,-0.0539479548325962,-0.0312429367371816,0.000155870694950188,-0.00124149514555084,-0.00757096858005292,0.0618803956139844,-2.49491594735261,-0.000543991149789888,0
0.33,0.00108469071134643,0.000623647338076826,-0.0539497610995917,-0.0312428881351467,0.000155835245143757,-0.00124145290605102,-0.00757187423249763,0.0618818349948961,-2.494919526431,-0.000532436080302331,0
0.34,0.00108463933476819,0.00062364626407882,-0.0539515358737678,-0.031242810765002,0.000155800806937777,-0.00124141180024333,-0.00757278903925009,0.0618832312812057,-2.49492302179923,-0.000521151160662024,0
0.35,0.00108458894079019,0.000623645214771157,-0.0539532576263319,-0.0312427592576856,0.00015576704284534,-0.00124137148056275,-0.00757365630740989,0.0618846002222223,-2.49492643541561,-0.000510130179596349,0
0.36,0.00108453959454911,0.000623644189981908,-0.0539549319252177,-0.0312427077524303,0.000155733989858954,-0.00124133199920309,-0.00757449991354934,0.0618859306936422,-2.49492976919197,-0.000499366964710587,0
0.37,0.00108449152887558,0.000623643189141456,-0.0539565728366462,-0.0312426562484877,0.000155701786383651,-0.00124129354194822,-0.00757532821864713,0.061887233934934,-2.49493302499539,-0.000488855487201889,0
0.38,0.00108444421297412,0.000623642211690872,-0.0539581560643236,-0.0312426306013999,0.00015567011076656,-0.00124125568513085,-0.00757610583595801,0.0618885061471013,-2.49493620465006,-0.000478589859266775,0
0.39,0.00108439835919023,0.000623641257083589,-0.0539597194005853,-0.0312425790994077,0.000155639390420561,-0.0012412189972365,-0.00757689669783779,0.061889746347864,-2.49493930993681,-0.00046856433080959,0
0.4,0.00108435355314326,0.000623640324786346,-0.0539612443474057,-0.0312425275987621,0.000155609373922372,-0.00124118314750947,-0.00757766891581447,0.0618909553657248,-2.49494234259475,-0.000458773286221598,0
0.41,0.00108430991124852,0.000623639414278069,-0.0539627388552289,-0.0312424760992563,0.00015558012970552,-0.00124114822882429,-0.00757842717569704,0.0618921395583711,-2.49494530432285,-0.00044921124123556,0
0.42,0.00108426720067538,0.000623638525050012,-0.0539641933677296,-0.0312424246011095,0.000155551515818065,-0.00124111405532033,-0.00757916561730018,0.0618932913111854,-2.49494819678009,-0.000439872839854511,0
0.43,0.00108422523987651,0.000623637656605256,-0.0539656007786622,-0.0312423989538709,0.000155523421248519,-0.00124108048206574,-0.00757985922846784,0.0618944205391034,-2.49495102158639,-0.000430752851350839,0
0.44,0.00108418462477768,0.000623636808457894,-0.0539669928783579,-0.031242347456634,0.000155496203458487,-0.00124104798463954,-0.0075805683287651,0.0618955214756827,-2.49495378032413,-0.000421846167335825,0
0.45,0.00108414482458512,0.000623635980134218,-0.0539683450988045,-0.0312422959607604,0.000155469541086753,-0.00124101613937408,-0.00758125738827039,0.0618965901000709,-2.49495647453873,-0.000413147798900241,0
0.46,0.00108410577416807,0.000623635171171313,-0.0539696560414498,-0.0312422703126183,0.000155443393377392,-0.00124098489425204,-0.00758190484300933,0.0618976408796867,-2.494959105739,-0.000404652873818314,0
0.47,0.00108406795303451,0.000623634381116595,-0.0539709515395864,-0.0312422188174346,0.000155418047755474,-0.00124095463194228,-0.00758256742518611,0.0618986632970968,-2.49496167539915,-0.000396356633819867,0
0.48,0.00108403076526187,0.000623633609528779,-0.0539722035648949,-0.0312421931681302,0.000155393143731726,-0.00124092487679525,-0.00758318690196979,0.0618996661381546,-2.49496418495803,-0.000388254431922909,0
0.49,0.00108399469035666,0.00062363285597629,-0.0539734378599746,-0.0312421416736154,0.00015536896879784,-0.00124089601148093,-0.00758381995224188,0.0619006388150459,-2.49496663582167,-0.00038034172983315,0
0.5,0.00108395913239779,0.000623632120037732,-0.0539746263737436,-0.0312421160236074,0.000155345162535516,-0.00124086756034967,-0.0075844083360464,0.0619015900927422,-2.49496902936283,-0.000372614095401194,0
0.51,4.62813036555434,-0.0143798231088547,8.59515813197698,0.724418264626297,-0.322986203570764,4.61686878437992,0.1496161352383,8.62433418577287,0.0667370168327686,20.5298023096266,613.046318180334
0.52,4.60750233778466,0.00714258652133404,9.62844527444239,-0.349128755177722,-1.36306263379936,4.40127130106442,-3.19602768234926,9.08923849089027,0.301879857010651,43.6374578830231,613.046318180334
0.53,4.53207803161949,-0.0206481151133826,13.4015500326558,1.04823003036091,-2.96032282669421,3.43171187472068,-7.91056059226707,10.8684571393735,0.707229135994733,67.030559540214,613.046318180334
0.54,4.53806657502674,0.0710381861748548,13.1041418895475,-3.53953206664168,-4.3362840764623,1.34005039886172,-13.5709699340503,0.274949015785853,1.28672662488297,91.2992349194492,613.046318180334
0.55,4.50500853059664,0.032555005722724,14.7590864670589,-1.6118640693044,-4.01115847453618,-2.05104104817594,-12.3477356936789,-8.24391668802417,2.0506961157449,117.391525050177,613.046318180334
0.56,4.50094112146331,-0.042739045943565,12.5980280471017,2.1652328485731,-0.576736471046688,-4.46404218706456,-3.87741470693283,-12.1804843563202,3.00361305747544,142.124422451999,613.046318180334
0.57,4.33392081783762,0.031220417660009,10.9110199580527,-1.53296987492152,3.59793467113319,-2.41634237475215,9.9469450742064,-4.73905442606035,-2.15499708061688,164.478638187169,613.046318180334
0.58,4.1684338144931,-0.0161918744631944,9.09365566571467,0.846048620249318,3.16863531249902,2.70847796723406,7.48261159726871,5.23649647367685,-0.867419628213242,187.171491161064,613.046318180334
0.59,3.87077631275747,-0.0215952110024695,13.9018608745572,1.11230534643569,-2.16440949290001,3.20915988439138,-6.78329198797945,12.185479422865,0.587790947690027,209.123737628127,613.046318180334
0.6,3.7588780435943,-0.00803361491576693,10.7288091242531,0.442720672265703,-3.05065105266691,-2.19607760346628,-8.97858797594811,-5.88967781601574,2.19259769629734,228.736744309893,613.046318180334
0.61,3.59502553717057,-0.0122571887928246,9.67951973047745,0.645573411573552,2.59605448479664,-2.48693786885658,6.51872941813063,-7.18442997151697,-2.33814025575369,249.064772077446,613.046318180334
0.62,3.47025590584766,-0.017486279032234,7.88241838724558,0.91947070657521,1.48316393049035,3.13738849639591,4.23398856013158,6.71202554259979,-0.446640293559802,266.944670471167,613.046318180334
0.63,3.27328673468367,-0.00621152264975589,9.35858411828151,0.344632470400479,-3.27312674397152,-0.0329537307164998,-9.36108739512473,0.26816230056094,1.57896631465256,285.336408892312,613.046318180334
0.64,3.12483677690926,0.00167267485548123,9.38690613817176,-0.0388434742170399,1.73457233753533,-2.59920497191411,5.24707381579244,-7.78355523099575,-2.5525837284933,301.883960217148,613.046318180334
0.65,2.95785303649363,-0.000194271455769446,10.276407703726,0.0486644446457599,0.810803765750094,2.84455477653032,2.86440737658176,9.86924991589309,-0.277739189093561,318.129121689905,613.046318180334
0.66,2.79058864553117,0.0564188652771189,11.5745375882956,-2.79737857288428,-2.42222867466857,-1.38685843709442,-8.48759936035829,-8.35200002160832,2.11100576063682,333.840685912991,613.046318180334
0.67,2.61657774031419,0.0366286023467649,13.8158983070853,-1.79051917009971,2.59935205172319,-0.301976218964416,13.9262776495897,0.379204109623053,-1.67245377773821,348.126786308484,613.046318180334
0.68,2.5560061896995,0.0251452488670444,10.3579901753345,-1.22045112938533,-2.03887281647945,1.54168659705658,-9.04949128179734,5.18499459712524,0.933210426434699,362.282331238013,613.046318180334
0.69,2.46933458523698,0.00609496839346235,8.51958004269054,-0.275088916850662,1.17232558932108,-2.1733161654739,4.3049726479956,-7.35704618145046,-2.64444194143152,375.898659139384,613.046318180334
0.7,2.37056769717168,0.0493336700816307,7.72689998475532,-2.44494773623189,-0.321538159113279,2.34917820314075,-3.62182827939124,7.25018018547947,0.156835270926973,388.646266709763,613.046318180334
0.71,2.19461056806272,-0.0179931598377677,11.051943518014,0.945276190038693,-0.182411200133318,-2.18709063674084,-1.95017723382249,-10.9195151612838,3.05018304454979,400.610378955299,613.046318180334
0.72,2.12991937150107,0.0172241799945111,8.92990440803616,-0.822613502418686,0.547770406882573,2.05834904299919,1.43001969555256,8.85296161639465,-0.252006510815222,412.270732960424,613.046318180334
0.73,2.0140246383765,0.0308408350888593,9.60853251085347,-1.51217719280218,-0.681134917523612,-1.89560059749586,-1.67959547319389,-9.58068556633531,2.8119474247063,423.478073177692,613.046318180334
0.74,1.93115932239448,0.0314385634215344,8.93379735731388,-1.54872082506115,0.652228370643292,1.81795568270217,1.41355550192376,8.95617844052404,-0.328188278755444,434.051554541056,613.046318180334
0.75,1.85867287943726,0.0206064795076746,7.95297109485703,-1.01060503297481,-0.482249084267604,-1.79513935962542,-0.999220357829248,-7.95440949692716,2.89023357451273,444.174915322773,613.046318180334
0.76,1.67877960554766,-0.0200405818783655,12.592957867765,1.02143713539772,0.151789404764408,1.67202349431043,2.30423154721589,12.422416780067,-0.102470721440189,453.755284722255,613.046318180334
0.77,1.70330697359527,-0.0127162174977412,7.20914291896316,0.655866184067719,0.208627678983966,-1.69052975130504,0.178031134249949,-7.2367262621076,-3.02626931742189,462.865027829222,613.046318180334
0.78,1.55118266820643,-0.0123051692835123,10.8274982757769,0.650592437108267,-0.61362883823016,1.4247030343996,-3.6045237514972,10.2306108300564,0.398761547156094,471.541351044824,613.046318180334
0.79,1.5070341792117,-0.00770604242104249,9.22491006165074,0.424074776775859,1.02691290752073,-1.1030236990969,5.93942976249158,-7.07120775810411,-2.39702645984317,479.826144300117,613.046318180334
0.8,1.50305835021132,-0.0110069166322173,5.76994937710435,0.590113246187743,-1.37652184042074,0.603732705092597,-5.0259707312182,2.89485192481603,1.15014605197202,487.768989795878,613.046318180334
0.81,1.35142403171564,0.063968015521127,9.86855557519933,-3.16873872652368,1.35291661430738,-0.00744682746758189,9.72754128541518,3.5783005461129,-1.52900206505268,495.318473418456,613.046318180334
0.82,1.34374930293807,0.0496720272589928,6.92653615271888,-2.45231999933565,-1.16602262159683,-0.66971691434741,-4.57567518211776,-5.7492584810404,2.12909802644347,502.546326768819,613.046318180334
0.83,1.26223844065198,0.0387882747542764,7.82731710156579,-1.90822341952119,0.577707813912273,1.12294438556086,1.64242812711302,7.88737215265905,-0.444426975136561,509.430464765185,613.046318180334
0.84,1.25757149049395,0.0391662751208366,5.03129760386396,-1.92692855293167,0.1776832785989,-1.24557163716759,2.76345932332909,-4.624965058793,-2.96876234116597,515.982876853155,613.046318180334
0.85,1.0556795869445,0.0276339941869298,12.2327533034259,-1.35332483283015,-0.765545285785649,0.727436212555714,-9.99145001618182,7.18628332726816,0.837088625711446,522.230507993804,613.046318180334
0.86,1.02025201123247,0.0139266286210181,11.2431344259156,-0.670089506448989,1.01958747050403,-0.0393637828446747,11.2563479043716,0.389517036354069,-1.59573538306612,528.196345940582,613.046318180334
0.87,0.987931015457401,-0.0483861753688734,10.2181198761834,2.43428933518335,-0.706350219004421,-0.69240037650331,-9.25514240485793,-4.96770343692557,2.29728357143994,533.889222665376,613.046318180334
0.88,0.97965267828731,-0.0202402668136981,8.1221330779045,1.0180277837706,0.03112627954326,0.979367241231799,1.442269605143,8.05762276914227,-0.0524290528327339,539.294061871086,613.046318180334
0.89,0.876588476635623,-0.0064021650772883,10.8485358629948,0.32262261325172,0.619899889048631,-0.61981648303795,7.38559091577508,-7.9528524785819,-2.36343058333546,544.4724975844,613.046318180334
0.9,0.839165646267852,0.0110799142354562,10.428771407261,-0.55198827510586,-0.837645368481258,-0.0516912278583483,-10.35831389705,-1.33014936414676,1.6456310510106,549.35654470357,613.046318180334
0.91,0.832883421294382,-0.0335269530213527,8.56800543034808,1.68650727016411,0.438117233970292,0.70913478221291,6.19082079951421,6.15863309956786,-0.593651429841469,553.994028459418,613.046318180334
0.92,0.806134842718731,-0.00693630359256896,7.82590429416727,0.359315880731667,0.276929724387806,-0.757107274237393,2.28647943109042,-7.49305663496628,-2.79953964897323,558.435158911897,613.046318180334
0.93,0.795783841071799,0.00780715335287901,6.3581118528803,-0.373234190973601,-0.766793516261644,0.212980226250152,-6.23894290495003,1.28081283715554,1.30968156738776,562.648397915055,613.046318180334
0.94,0.698978033018094,0.0157048234836938,9.29640286400665,-0.765354177846535,0.528226885675427,0.458031974180992,6.37080217326632,6.81335107686102,-0.833986773283731,566.692603833353,613.046318180334
0.95,0.619324518144998,0.0357368547469911,11.4755887926367,-1.76737496902273,0.0836824062501813,-0.614684664235998,3.93503481482196,-10.9237472245085,-2.94864668075507,570.51824556842,613.046318180334
0.96,0.654990737097387,-0.0221886080793214,7.97118624869581,1.12768214063133,-0.628047192212353,0.187248296029778,-7.19881589473719,3.60395989647155,1.2471801877546,574.181223528836,613.046318180334
0.97,0.616009785434436,0.0393863229202625,8.26610452983868,-1.97821908521105,0.474987941939768,0.394215414711275,4.65302766807807,7.11274689324826,-0.814208222604135,577.665802779583,613.046318180334
