t,iq,id,vq,vd,ia,ib,va,vb,theta_e,omega,r
0,0,0,0,0,0,0,0,0,0,0,0
0.01,0.000434086031322001,0.00021957221038882,-0.0206412405920081,-0.0109818337261766,-0.00024296003577569,-0.000421441643860444,0.0120931411305749,0.0200104328479558,3.08693164718057,-0.00347443032417679,0
0.02,0.000603483885016744,0.000292516341801907,-0.0290184263330341,-0.0146301093553994,-0.000325066179098589,-0.000586592353259329,0.0161944191263156,0.0281753430459666,3.0869041836192,-0.00380771456999159,0
0.03,0.000666198114818683,0.000324993433436359,-0.032313856922659,-0.0162544371236033,-0.000360939316140634,-0.000647428351270356,0.0179972534454949,0.0313765986659146,3.08687859932564,-0.00318619409116854,0
0.04,0.000650246515499033,0.000326695981779129,-0.0318435218391879,-0.0163395958919452,-0.000361778798860867,-0.00063140074130781,0.0180571423380466,0.0309019722286205,3.0868598737365,-0.00212506974353334,0
0.05,0.000643023384010049,0.000335662766764688,-0.0316900739635295,-0.0167880624566382,-0.000370344847263133,-0.000623693241490965,0.0184969288947042,0.0307239881904386,3.0868473106044,-0.00144724940095033,0
0.06,0.000628011320281618,0.000338461893596786,-0.0311080100654245,-0.0169280710239703,-0.000372323255182323,-0.000608547504694105,0.0186051212145694,0.0301349853727244,3.08683925089621,-0.000910688778233771,0
0.07,0.000619366211714718,0.000342734904126123,-0.0307695703348636,-0.0171417815044669,-0.000376119400797736,-0.000599679843803121,0.0188001216434466,0.0297852741792083,3.08683482983547,-0.000612341009884851,0
0.08,0.000606305536060322,0.000340669451516084,-0.0302036958104729,-0.0170384813828444,-0.000373343947941062,-0.00058675069219341,0.0186660914897366,0.029225846727544,3.08683189705756,-0.000342627062332635,0
0.09,0.00059811338458879,0.000340024205394918,-0.0298427946723587,-0.0170062039686368,-0.000372252112671206,-0.000578605604613822,0.0186141504189379,0.0288672265980055,3.0868304662632,-0.000193202422833458,0
0.1,0.000593366583268313,0.000339822613497517,-0.0296307108126967,-0.0169961157808624,-0.000371791366849643,-0.000573876720489574,0.018592486918075,0.0286560012057396,3.08682984035808,-0.000116435847572278,0
0.11,0.000590810564596892,0.00033975963289177,-0.029514910507546,-0.0169929693856713,-0.00037158870593852,-0.000571327896221587,0.0185830133575192,0.0285405424854728,3.08682961264256,-8.03826021693825e-05,0
0.12,0.000589539075243961,0.000339739964387698,-0.0294563781654096,-0.0169919869143522,-0.000371499499599525,-0.000570059370977236,0.0185788299761148,0.0284821507376068,3.08682956263946,-6.55045383512736e-05,0
0.13,0.000609668870240757,0.000350525848091154,-0.0304016155128016,-0.017531433554371,-0.00038337132491921,-0.000589568425842458,0.0191692207332616,0.0293964345582766,3.08682906717543,-0.000238856091202292,0
0.14,0.000621018291165841,0.00035670605883083,-0.0310273281580184,-0.0178405474184817,-0.000390163987616576,-0.00060056223086063,0.0195121449456212,0.0300042734362545,3.08682824685681,-0.000310456849891673,0
0.15,0.000600680151683294,0.000345031948783024,-0.0300061913392505,-0.0172566683958321,-0.000377394587862734,-0.000580893290854004,0.0188732701465325,0.0290166124278391,3.08682745840756,-7.30259405394118e-05,0
0.16,0.000591542951506718,0.000341386179033445,-0.0295762797361257,-0.0170743214812287,-0.000373253972200267,-0.000571969456307814,0.0186676561212845,0.0285973319037175,3.08682774048306,2.89882068709801e-06,0
0.17,0.000588047406393551,0.000340247713731335,-0.0294053682402498,-0.0170173884205858,-0.000371925563789629,-0.000568541672936425,0.0186014375205954,0.0284298032383125,3.0868282899138,1.0610726249411e-05,0
0.18,0.000587133233085787,0.000339892266963315,-0.0293554174242757,-0.0169996032119328,-0.000371520324996762,-0.000567648513298089,0.0185809305281891,0.0283809101725656,3.08682879341166,-4.75668912062809e-06,0
0.19,0.00058723865281802,0.000339781328771026,-0.0293549143370571,-0.0169940619998648,-0.000371415112952343,-0.000567759985042558,0.0185753595651335,0.0283807180320938,3.08682916411947,-2.37029915299238e-05,0
0.2,0.000587637314960758,0.000339746725287693,-0.0293699519248899,-0.0169923280222023,-0.000371402245020393,-0.00056816003350448,0.0185744444119531,0.0283958324842173,3.08682940620512,-3.93070002112929e-05,0
0.21,0.000588033533845561,0.000339735943038927,-0.0293862906151397,-0.0169917871040652,-0.000371413083868329,-0.000568556302445822,0.0185747944967519,0.0284121789820978,3.08682955123245,-5.01975259265828e-05,0
0.22,0.000588335747813378,0.000339732588714386,-0.0293991872444711,-0.0169916174840317,-0.000371426230599712,-0.000568858276912795,0.0185753287451127,0.0284250670600812,3.08682963187819,-5.70561740366097e-05,0
0.23,0.000588537553710906,0.000339731547493828,-0.0294079741557593,-0.0169915660226013,-0.000371436213244929,-0.000569059852722748,0.0185757571353163,0.0284338443882633,3.08682967347808,-6.10441115106318e-05,0
0.24,0.000588660604686209,0.000339731225091914,-0.0294134113882085,-0.0169915497211282,-0.000371442615418427,-0.000569182744171944,0.0185760379099994,0.0284392747267547,3.08682969311737,-6.31987869972007e-05,0
0.25,0.000588730104626068,0.000339731125413091,-0.0294165201920066,-0.0169915437683095,-0.000371446315357435,-0.000569252148414787,0.0185762018958886,0.028442379347732,3.08682970128946,-6.4274974081442e-05,0
0.26,0.000591571674150151,0.000341431528252919,-0.0295465445780689,-0.0170765866435454,-0.000373299610659994,-0.000571996446512592,0.0186682295777838,0.0285675569891701,3.08682986458523,-0.000100015129407992,0
0.27,0.000586728525572481,0.000337960854527063,-0.0293266914140705,-0.016903008152857,-0.000369569275565311,-0.000567350378929327,0.0184828889151465,0.0283575268890293,3.08682946360251,-3.31733245403211e-05,0
0.28,0.000585710104124062,0.000337631496960313,-0.0291963326191236,-0.0168865355993858,-0.000369184669246449,-0.000566351510818212,0.0184593058418155,0.0282282651042203,3.08682946071887,-2.30522480192963e-05,0
0.29,0.000587291520250843,0.000339075370771053,-0.0293499867523263,-0.0169587468457177,-0.000370712823294692,-0.000567851599862985,0.0185398134566033,0.0283777401132158,3.08682966380887,-4.83642630878263e-05,0
0.3,0.000576187486434991,0.000334229856517275,-0.0288162999723869,-0.0167163985661517,-0.000365266166055957,-0.00055702984161229,0.0182685857611886,0.0278581388360228,3.08683077827008,6.61833810044892e-06,0
0.31,0.000584629108216286,0.000338013276793728,-0.0292076505344679,-0.0169056230082618,-0.00036950588471555,-0.00056525177631139,0.0184789430253827,0.0282385481869329,3.08683091639812,-8.27925962579937e-05,0
0.32,0.00058824049986576,0.000339194788782674,-0.0293794675221954,-0.0169647190945211,-0.00037088343086869,-0.000568792994969797,0.0185473617134167,0.0284068685235706,3.08683067367592,-0.000106459805140974,0
0.33,0.000589496294413832,0.000339563714362803,-0.0294424130144955,-0.016983175650285,-0.000371320712315674,-0.000570026600997605,0.0185692445629199,0.0284687037928852,3.08683036933857,-0.000104063209927287,0
0.34,0.000589722263570844,0.000339678882262062,-0.02945660518158,-0.0169889395207019,-0.000371448219637792,-0.000570245834122301,0.018575783775715,0.0284825545199063,3.0868301174024,-9.41053651078229e-05,0
0.35,0.00058957417291392,0.00033971481746473,-0.0294522645054831,-0.0169907257578759,-0.00037147609572316,-0.000570095933048558,0.0185773347688113,0.0284781193053159,3.0868299410812,-8.41334043149989e-05,0
0.36,0.000589344195135149,0.000339726020858327,-0.0294431590861826,-0.0169912881505872,-0.000371474757812771,-0.000569865645477662,0.0185774010976744,0.0284689946862665,3.08682982981977,-7.65034003219311e-05,0
0.37,0.000589142796842985,0.000339729508984007,-0.0294347079770879,-0.0169914634411646,-0.000371467253996483,-0.000569664334108079,0.0185771153944164,0.02846054544789,3.08682976501942,-7.13987858530809e-05,0
0.38,0.000588997743418312,0.000339730592806205,-0.0294284492112911,-0.0169915177986602,-0.000371460416591846,-0.000569519425784346,0.018576828091492,0.0284542924379237,3.08682972995011,-6.82825316675741e-05,0
0.39,0.000588904320144143,0.000339730928682082,-0.0294243407700794,-0.0169915356244315,-0.000371455648382446,-0.000569426117659176,0.0185766215120103,0.0284501888540234,3.08682971240077,-6.65193715148354e-05,0
0.4,0.000588849022871735,0.000339731032497899,-0.0294218693004933,-0.0169915402385488,-0.000371452729846084,-0.000569370894645114,0.0185764910683081,0.028447720689057,3.08682970444224,-6.55928899175351e-05,0
0.41,0.00058881858026692,0.000339731064570873,-0.0294204850585441,-0.0169915418666783,-0.000371451097339983,-0.000569340494771743,0.0185764170147788,0.0284463383756176,3.08682970134626,-6.51452322969546e-05,0
0.42,0.000588803155238592,0.000339731074548104,-0.029419768261562,-0.0169915434492115,-0.000371450263489297,-0.00056932509200479,0.0185763793848694,0.0284456225507521,3.08682970049441,-6.49521755755555e-05,0
0.43,0.000588795937488652,0.000339731077730455,-0.0294194205024273,-0.0169915435515437,-0.000371449871571693,-0.000569317884918794,0.0185763604508785,0.028445275308242,3.08682970054257,-6.48839137773855e-05,0
0.44,0.000588793027105612,0.000339731078808541,-0.0294192696269377,-0.0169915436406916,-0.000371449713165992,-0.000569314978957613,0.0185763522726085,0.0284451246599472,3.08682970085989,-6.48706173699041e-05,0
0.45,0.000588792095783039,0.000339731079214753,-0.0294192106943714,-0.0169915437237731,-0.000371449662409163,-0.000569314049130287,0.0185763491205664,0.0284450658172475,3.0868297011865,-6.48775845146605e-05,0
0.46,0.000588792037575378,0.00033973107939027,-0.0294191936288137,-0.0169915438041772,-0.000371449659254669,-0.000569313991094048,0.018576348259576,0.0284450487775615,3.08682970143894,-6.48892293024494e-05,0
0.47,0.000588792270406022,0.000339731079475859,-0.0294191913821581,-0.0169915438836886,-0.000371449671987473,-0.00056931422363411,0.0185763482111608,0.0284450465330796,3.08682970160893,-6.48995923369773e-05,0
0.48,0.000588792503236665,0.000339731079520497,-0.0294191899695753,-0.0169915439631999,-0.000371449684716872,-0.000569314456151955,0.0185763482102719,0.028445045120197,3.08682970171308,-6.4907117422822e-05,0
0.49,0.000588792736067308,0.000339731079544107,-0.0294191893868115,-0.0169915440427111,-0.000371449697450923,-0.000569314688654218,0.018576348256085,0.0284450445350525,3.08682970177218,-6.49119871836906e-05,0
0.5,0.00058879285248263,0.000339731079556022,-0.029419183596689,-0.0169915441225791,-0.000371449703817132,-0.000569314804905948,0.0185763480180207,0.0284450387498176,3.08682970180336,-6.49148833375707e-05,0
0.51,3.79078273773583,-0.00321540080933924,3.53807199210972,0.17259637856036,-0.491041833390187,3.75884583634114,-0.284169554117487,3.53086258522702,0.129052494649241,39.4960121475455,656.277510133663
0.52,3.5675804990241,0.031768837766264,2.86210383458504,-1.56403741308298,-1.91825208200689,3.00814707518537,-2.87147828958213,1.54675913507183,0.57657421733492,82.4892067980934,656.277510133663
0.53,3.32082734257683,0.0358176549774134,3.00031002624211,-1.76485410499392,-3.22643331575496,0.786959466936156,-3.32204440262204,-1.03951491210582,1.34234290047947,126.205641985752,656.277510133663
0.54,3.07502643735867,0.0664049274889654,4.88857415259344,-3.27961969426636,-2.11084995306117,-2.23707614544325,-0.844030419076744,-5.82594844090622,2.40680925148566,163.414426124417,656.277510133663
0.55,2.87205196632698,0.0183939095295613,4.72925188708748,-0.881263824080178,1.60699131076184,-2.38046208966377,3.39837570823298,-3.40492171493632,-2.54138685347113,200.320076127522,656.277510133663
0.56,2.66697713778928,0.0414684709007574,5.72230902657006,-2.03678482502329,2.19669575357739,1.51294892636355,3.48041695453684,4.97795247482164,-0.952120859761982,233.846203901784,656.277510133663
0.57,2.48323755294279,-0.0089183298852018,6.28652691603414,0.485377031794779,-1.9123343659587,1.58414821078287,-4.51579349452177,4.4004114175666,0.875394374434547,264.839171454922,656.277510133663
0.58,2.314353195622,0.035452169086005,6.58199255630845,-1.73395653276814,-0.533813545130758,-2.25222793460467,0.273433206514337,-6.80106356023853,2.92418846850306,293.993879512031,656.277510133663
0.59,2.13890467553416,0.00491098848518656,7.70039282823591,-0.206932072905752,1.91231352396782,0.958120198555251,6.78355363790592,3.64996857980962,-1.10403164270553,321.245361096902,656.277510133663
0.6,1.9952160274162,-0.00751341248374382,7.80484865962479,0.421081179761447,-1.94538859068643,0.44317793114357,-7.50822311844168,2.17245427185341,1.34304371497705,346.34246726941,656.277510133663
0.61,1.87613370169512,0.0582797435911466,7.23526396634222,-2.85463798688719,1.34115721263338,-1.31322942631924,7.25721661372532,-2.79835839739992,-2.31461974594928,369.667912073105,656.277510133663
0.62,1.70483473203278,0.00615922316499595,9.6582735462733,-0.274404168943782,-0.77825124026568,1.5168468632661,-4.68364733207875,8.45109420201242,0.47766300370024,391.840932996874,656.277510133663
0.63,1.61684080390239,0.026269770939928,8.27890977002036,-1.26358357207894,0.427685335279938,-1.55947091669433,3.53205473776934,-7.59352222312989,-2.85767742179378,412.181930217139,656.277510133663
0.64,1.52635717423649,0.018078805259599,7.49675779472515,-0.873236138406892,-0.33716403573007,1.48876239862277,-2.59168055411057,7.08851964035067,0.234559593251428,431.329918219442,656.277510133663
0.65,1.41673290119012,0.00298706312331876,7.96728969946857,-0.0932279614405082,0.443201259508207,-1.34562761543862,2.59686481380534,-7.53277437249199,-2.82131035266023,448.929826214448,656.277510133663
0.66,1.31919743641043,-0.0048397735363116,8.16206597275495,0.274326745020827,-0.672834857403744,1.13472399917434,-3.90063851236001,7.17492824372006,0.531551011742255,465.611794043296,656.277510133663
0.67,1.19690143256722,-0.00512515897401011,9.97431188200209,0.279163384728695,0.910319505396196,-0.777121422064273,7.37606747036498,-6.72000434430253,-2.28170485647914,481.007516970944,656.277510133663
0.68,1.13752903583959,0.0488161775254005,8.89254789984473,-2.38412645914689,-1.08206434052851,0.354248626705797,-9.20598465870555,0.106365351102778,1.297299212153,495.227962741611,656.277510133663
0.69,1.04465259744036,0.0342722474436965,9.74284457134894,-1.66695364428202,1.01709022314208,0.240834204947164,8.96490396322346,4.16320209980598,-1.30549558082028,508.620086389817,656.277510133663
0.7,0.98630059279198,-0.00423731055834287,9.13197600317603,0.248428764343357,-0.610900455024859,-0.774343236680607,-5.88128792012385,-6.99036157678137,2.46934383113207,521.085727202455,656.277510133663
0.71,0.9268430988625,0.0220563076055786,8.81467125184308,-1.07545543551543,-0.0234518025996616,0.926808838741334,-1.50670853589752,8.75127779582514,0.0490911692602073,532.710813664033,656.277510133663
0.72,0.868849477710418,0.0125584916646482,8.63831497234228,-0.605787796374247,0.645988979521748,-0.58116724698404,6.90335354439206,-5.2279225564997,-2.28896765902164,543.541882981837,656.277510133663
0.73,0.792518459099903,-0.0109113007987497,9.59434859595652,0.564842693129944,-0.780403815854261,-0.138471833595551,-9.55998833810309,-0.988531852824207,1.73263774037463,553.605506409005,656.277510133663
0.74,0.708293503297969,0.0329596534365808,11.1502514617989,-1.63094271331807,0.342625817537401,0.620784644402225,3.46534088848069,10.722849169978,-0.457818666365547,562.916666965862,656.277510133663
0.75,0.644285900483215,0.0331883143253562,11.8626643526344,-1.63981329640576,0.313675794015334,-0.563749307776139,7.68343870853875,-9.18567160323405,-2.58237511302715,571.617425460583,656.277510133663
0.76,0.611647995538438,0.0314140086260887,11.1775024635473,-1.54428226532932,-0.612377572067426,-0.00968605249590426,-11.0487359663528,-2.29059000771386,1.63792666512278,579.72226846931,656.277510133663
0.77,0.596406829407432,0.0370364127015693,9.76832504058327,-1.81629214064131,0.248855392460585,0.543271383079318,1.81481308772233,9.76859993526571,-0.367523621544455,587.272744744479,656.277510133663
0.78,0.554313480190614,0.0644235456718038,9.86124114466895,-3.18040592824858,0.362217558779647,-0.424514154851956,9.38889134352747,-4.38266792275954,-2.31951052286102,594.282989850968,656.277510133663
0.79,0.471172875386342,0.0296571326643981,12.125904026476,-1.46287563942698,-0.429578122367823,-0.195821502396042,-10.0066600986602,-7.00316408958242,2.06136148783092,600.852591445368,656.277510133663
0.8,0.439498639973156,-0.0189493516762826,11.9482519853408,0.940577045142038,0.131302708848595,-0.419854416573443,2.1628026570311,-11.7884560206071,-2.88158385918127,606.944496147305,656.277510133663
0.81,0.410561454288146,0.00750551476330349,11.7564586507292,-0.370678133951153,-0.410629968153951,0.000264107828582505,-11.7480935263528,-0.577945310009162,1.5884322130157,612.576192700998,656.277510133663
0.82,0.381178601911767,-0.00362094289278379,11.6990588574011,0.20590900504326,0.0665065375967508,0.375349328279317,2.35284583476708,11.4618712758917,-0.184864687494067,617.784203311359,656.277510133663
0.83,0.318700468286318,0.00925236980821911,13.4141572373955,-0.429148367151413,0.296134663658514,-0.118151833726121,12.7455126588261,-4.20424663576039,-1.92139975729548,622.620754750129,656.277510133663
0.84,0.292291512560274,0.0100800269509178,13.4044988743153,-0.519731597919498,-0.144393298187885,-0.254335429495241,-5.75170462403518,-12.1189357999475,2.65971333591541,627.163737529159,656.277510133663
0.85,0.286105140070894,0.0325781715078199,12.4925161003858,-1.62702314812041,-0.221168986025916,0.184395683393204,-11.3324124297568,5.50332548236162,0.989202249796078,631.309937460029,656.277510133663
0.86,0.25899830227093,0.0296816934376755,12.6902138747399,-1.45764588165908,0.180687194692284,0.187918230033132,6.53797404671443,10.9736573241307,-0.651679311057887,635.214244425798,656.277510133663
0.87,0.232192449432905,0.00257984188890505,12.956193334043,-0.147280507508779,0.17682007784015,-0.150514614673882,10.0527497839955,-8.17476966264921,-2.26489389797394,638.837306014666,656.277510133663
0.88,0.250220397633689,0.00337403565330231,11.0444785835161,-0.173511137339572,-0.165853851197963,-0.187387650477173,-7.07631548459607,-8.48153125673617,2.43056314095198,642.206237778897,656.277510133663
0.89,0.199001802547898,0.0310646660121414,12.6847107552266,-1.53078850538111,-0.131534747078153,0.152529804309993,-10.6576138340158,7.04701835934632,0.866475535580508,645.25731312292,656.277510133663
0.9,0.164733125698629,-0.0407896788481698,13.5266242401984,2.01806440122002,0.0712245902600316,0.154038496309422,10.0359957617858,9.29090610933138,-0.675831371698458,648.159489228891,656.277510133663
0.91,0.212650633137332,0.0289660666994812,10.3104476574173,-1.45143238079121,0.155241504321159,-0.148187044406218,9.20200321418684,-4.87187065699061,-2.19756836926321,650.854773533634,656.277510133663
0.92,0.176841722603769,0.0263998217367802,11.3463412106102,-1.29431932806361,-0.116144485970974,-0.135942649009574,-4.91836056962781,-10.3065246663325,2.58276123113518,653.334984843875,656.277510133663
0.93,0.159101169547718,-0.0447080782731637,11.5164091024769,2.21371879518339,-0.161988545981031,0.0327369116637854,-9.24098243218696,7.22028207259058,1.09744858165396,655.663964362381,656.277510133663
0.94,0.128565756543268,-0.0241834606968244,12.3639216784662,1.21610098620172,0.0241062860099132,0.128580249267242,5.618737250327,11.0803994779825,-0.371258413301269,657.834109940176,656.277510133663
0.95,0.0928858270246445,-0.0124632298422606,13.5301031770152,0.645986856167891,0.0930359404730521,-0.0112881681617481,12.933175836963,-4.0266554073095,-1.82491871406264,659.805040476898,656.277510133663
0.96,0.149805673290659,0.0193534209875901,10.111713570398,-0.980895365684209,-0.0375785560560227,-0.146301561094661,-0.266544631099818,-10.1556812183045,3.01864953651609,661.639239122073,656.277510133663
0.97,0.107401097209759,0.0265234347470733,11.6930313959845,-1.30547752373439,-0.10793610371328,0.0242546034360145,-11.6629291358807,-1.55156010643448,1.59186790524762,663.330484520484,656.277510133663
