t,iq,id,vq,vd,ia,ib,va,vb,theta_e,omega,r
0,0,0,0,0,0,0,0,0,0,0,0
0.01,0.000422178229026268,0.000234465711246041,-0.0205983417518319,-0.0117268861424549,-0.000118863408869684,-0.000468059950055275,0.00607705326005001,0.0229102807751864,-2.88332689528392,-0.00239526843152015,0
0.02,0.000569388884377852,0.000310735270854407,-0.0278295875168615,-0.0155415250456215,-0.000155017940415969,-0.000629864706389561,0.00791891023195638,0.0308758125859151,-2.88334709295616,-0.00301441028007833,0
0.03,0.000634675539577612,0.000344345177426211,-0.0310516485276262,-0.017222543095627,-0.000170855842489567,-0.00070156605023476,0.00872209152591762,0.0344201392556375,-2.88336951114101,-0.00311177736727833,0
0.04,0.000637386212980233,0.000345604522703882,-0.0312342776651622,-0.0172855296107606,-0.000171396329268649,-0.000704504768560081,0.00873709490643492,0.034612610531205,-2.88339094529091,-0.00284588173864032,0
0.05,0.000652068894972775,0.000354970256802606,-0.0319944582277794,-0.0177539604629849,-0.000176716885790975,-0.000721088669500404,0.00899659960816634,0.0354670222164294,-2.8834109141326,-0.00267125502705444,0
0.06,0.000654563770512399,0.000357823197203815,-0.032159468841559,-0.0178966511731535,-0.000178851624711999,-0.000724225977483856,0.00909308763284807,0.0356628282205168,-2.88342935577353,-0.00244345936537998,0
0.07,0.000659391305984212,0.000362387717594208,-0.0324330870862853,-0.0181249430059797,-0.000182044444023932,-0.000730055869554325,0.0092445522724813,0.0359855102811943,-2.88344587417054,-0.00225500854354901,0
0.08,0.00065280568620039,0.000360080493085566,-0.0321498991213254,-0.0180095471541675,-0.000181505972941823,-0.000723096679028986,0.00920582095500006,0.0356821056378973,-2.88346117706841,-0.00201394269209486,0
0.09,0.000648773464803822,0.000359375369439756,-0.0319867747012267,-0.0179742787129314,-0.000181863370914,-0.000719015562497304,0.00921384838660443,0.0355152565659583,-2.88347485838524,-0.00180957720634772,0
0.1,0.000645786792889103,0.000359158842986406,-0.0318710521946609,-0.017963448777312,-0.000182425191123776,-0.000716070321971788,0.00923335134987933,0.0354004898669438,-2.88348713689088,-0.00162996697807315,0
0.11,0.000643317015169811,0.000359091426803758,-0.0317774545702765,-0.0179600802606634,-0.000182998292729689,-0.000713663127581195,0.00925437479499927,0.0353090307016369,-2.88349817241361,-0.00146982904609489,0
0.12,0.000641168723960585,0.000359069607716167,-0.0316968106266551,-0.0179589951529547,-0.000183532584769173,-0.000711578601490119,0.00927425869903669,0.0352306888435243,-2.88350809621107,-0.00132626065784843,0
0.13,0.00065987003177113,0.000370615621579229,-0.0326265136956697,-0.0185364735759188,-0.000189929874167684,-0.000732605651552619,0.00959566035792978,0.0362769010647232,-2.8835173626715,-0.00131669841189315,0
0.14,0.000669955651479939,0.000377223521602294,-0.0331758585151802,-0.0188669655408944,-0.000193751330448625,-0.00074404205670737,0.00977532304794125,0.0368923167644557,-2.88352602153846,-0.00126333533892184,0
0.15,0.000646701446417558,0.000364594141826279,-0.0320269188869302,-0.0182353050870387,-0.000187480625484534,-0.000718333254221556,0.00945808589335315,0.0356201417212416,-2.88353397132623,-0.001018862626388,0
0.16,0.000637997731357677,0.00036074303111526,-0.0316202024493274,-0.0180426803340187,-0.000185982941586678,-0.000708933695880323,0.0093758675128389,0.0351776722503597,-2.88354057700278,-0.000879565494754904,0
0.17,0.000634303840033276,0.00035956821970734,-0.0314546137142516,-0.0179839321407109,-0.000185793761047912,-0.000705061234546431,0.00936152391043787,0.0350025200411167,-2.8835463344388,-0.000781557986327967,0
0.18,0.000632381726287033,0.00035920940126186,-0.031373490636094,-0.0179659756558833,-0.000185940928605401,-0.000703110242256528,0.00936504259054367,0.0349194526480323,-2.88355145102367,-0.00070263791380154,0
0.19,0.000631126692983232,0.000359099419115535,-0.0313234684629431,-0.0179604747796868,-0.000186158071681382,-0.000701867842084915,0.00937264860678371,0.0348696399315294,-2.8835560325006,-0.0006347746218261,0
0.2,0.000630158224783327,0.000359065358267482,-0.0312862407153779,-0.0179587825164082,-0.000186375158472329,-0.000700921978592656,0.00938065555358296,0.0348331742589913,-2.88356014662638,-0.00057478749894278,0
0.21,0.00062934156053761,0.000359054496425101,-0.0312553902685352,-0.0179582299874992,-0.000186575640936137,-0.000700128889157037,0.00938812241158606,0.0348031694348006,-2.88356384508742,-0.000521184518055977,0
0.22,0.000628625191949147,0.000359050754925117,-0.0312285200843804,-0.017958045720677,-0.000186757149162816,-0.000699434660137726,0.009394916521282,0.0347771105229376,-2.88356717124019,-0.000473087101813186,0
0.23,0.000627987054620346,0.000359049227142223,-0.0312046500264653,-0.0179579688790861,-0.000186920597379223,-0.000698816698825636,0.00940103716792883,0.0347539829329478,-2.88357016302468,-0.000429861891443347,0
0.24,0.000627415215865931,0.000359048412929644,-0.0311832815056788,-0.0179579238420451,-0.000187067604802078,-0.000698263078761152,0.00940653967970545,0.0347332849790115,-2.88357285421002,-0.000390992295754012,0
0.25,0.000626901297083572,0.000359047851092277,-0.0311640794374672,-0.0179579037557948,-0.000187199885551064,-0.000697765575611692,0.00941150401985353,0.0347146906449047,-2.88357527505203,-0.000356031608723882,0
0.26,0.000629580506237354,0.000360890270978255,-0.0312990024980751,-0.0180500440901476,-0.000188299125253147,-0.000700825827827243,0.00946623872693299,0.0348686388233825,-2.8835773382047,-0.000344975994312188,0
0.27,0.000622920422059013,0.000357099119380864,-0.0309809935716423,-0.017860434692485,-0.000186334399684509,-0.000693418434118232,0.00936412576932725,0.0345127547244042,-2.88357954698699,-0.000275854640808138,0
0.28,0.000621856004262647,0.000356755858257804,-0.0308952405035433,-0.0178432690286758,-0.000186275329783713,-0.00069230133175716,0.00936947032386096,0.0344254435156872,-2.88358132672611,-0.000246023988826847,0
0.29,0.000624031410241956,0.000358347950675084,-0.0310426139057607,-0.0179228977785615,-0.000187260674761335,-0.000694810689619501,0.00940891077973359,0.0345882428120005,-2.88358280138103,-0.000239688222446896,0
0.3,0.000614056633260318,0.000353247441494896,-0.0305600882507142,-0.0176677850936286,-0.000184874588398559,-0.000683864526304845,0.00928538512402704,0.0340565888941418,-2.88358347748957,-0.000170815835694496,0
0.31,0.000621174078012139,0.000357278124493732,-0.0309080587672879,-0.0178693922103048,-0.00018695653775557,-0.000691774635576095,0.00939156916119971,0.034444472755701,-2.88358455035175,-0.000199482926373772,0
0.32,0.000623417092606358,0.000358506796908055,-0.0310196369767628,-0.0179308410334793,-0.000187573023706166,-0.000694256692845495,0.00942255407278235,0.034568025877732,-2.88358570125553,-0.000197815922352095,0
0.33,0.000624026380173468,0.000358881235496804,-0.0310517973956288,-0.0179495648511215,-0.000187780369587035,-0.000694941146531036,0.00943249028381321,0.0346038888983531,-2.8835867994722,-0.000187020133514198,0
0.34,0.000624097403143255,0.000358995258125109,-0.03105762099503,-0.0179552767520507,-0.000187873197870215,-0.000695038722294296,0.00943656214627159,0.0346109676254972,-2.88358780868306,-0.000174160984257877,0
0.35,0.000623999904902998,0.000359029900859915,-0.0310550412205743,-0.0179570039372515,-0.000187932206750361,-0.000694953118344231,0.0094389220668575,0.0346089052966115,-2.88358872373857,-0.000161527622942137,0
0.36,0.000623857529862232,0.000359040354951676,-0.0310500701527352,-0.0179575342208038,-0.000187979215599211,-0.000694817967925655,0.0094407317406775,0.0346042262734147,-2.88358954932528,-0.000149802306534475,0
0.37,0.000623711018117578,0.000359043445403116,-0.0310447027621018,-0.0179576815508661,-0.000188020102755544,-0.000694676954251399,0.0094422694094659,0.0345990671069125,-2.88359029281416,-0.000139132521059936,0
0.38,0.000623572833215358,0.000359044300591812,-0.0310395620399691,-0.0179577316879184,-0.00018805665216582,-0.000694543435422059,0.00944365268654743,0.0345941030082328,-2.88359096190469,-0.000129493067557362,0
0.39,0.000623446461070457,0.000359044483040186,-0.0310348347882146,-0.0179577305372156,-0.000188089490316048,-0.000694421179296485,0.00944487854918482,0.0345895262409038,-2.88359156388437,-0.000120807822610772,0
0.4,0.000623332024817,0.000359044468242599,-0.0310305427342113,-0.0179577354723402,-0.000188119050226883,-0.000694310425011613,0.00944599716090502,0.0345853723893561,-2.88359210543125,-0.0001129902087177,0
0.41,0.000623228880844733,0.000359044400376819,-0.0310266692107852,-0.0179577374492352,-0.000188145639757462,-0.000694210585918411,0.00944700424019169,0.0345816229737263,-2.88359259259414,-0.000105956215742807,0
0.42,0.000623136094497676,0.000359044322689682,-0.0310231819242508,-0.0179577230707481,-0.000188169543016717,-0.000694120768312251,0.00944789526277908,0.0345782432997166,-2.8835930308284,-9.96281965933149e-05,0
0.43,0.000623052450089254,0.000359044247728925,-0.0310200331805482,-0.0179577235111166,-0.000188191085750893,-0.000694039799026938,0.0094487127109078,0.0345751951596914,-2.88359342504621,-9.39356006363217e-05,0
0.44,0.000622977245789126,0.000359044178746004,-0.0310171997777729,-0.0179577224599349,-0.000188210453261943,-0.00069396699946419,0.00944944688750251,0.0345724519165563,-2.88359377966803,-8.8814725652483e-05,0
0.45,0.000622909550279735,0.000359044116215923,-0.0310146458733901,-0.017957722831613,-0.000188227886407681,-0.000693901468507937,0.00945010989370947,0.0345699796202665,-2.88359409867046,-8.42081873239843e-05,0
0.46,0.000622848894561244,0.000359044059819365,-0.0310123576322629,-0.0179577083238168,-0.000188243507039046,-0.000693842751929698,0.0094506896209358,0.0345677607004473,-2.8835943856314,-8.00643379259369e-05,0
0.47,0.000622794062944869,0.000359044009040572,-0.0310102829470061,-0.0179577086413879,-0.000188257627078736,-0.000693789673542341,0.00945122819749054,0.0345657523230916,-2.88359464376876,-7.63367081677762e-05,0
0.48,0.000622744819263921,0.000359043963346025,-0.0310084178289527,-0.0179577089347449,-0.000188270308285469,-0.000693742004316713,0.00945171238338365,0.0345639468154567,-2.88359487597821,-7.29834931606682e-05,0
0.49,0.00062270046502395,0.000359043922235095,-0.0310067343159661,-0.0179577077517179,-0.000188281730206166,-0.000693699068260566,0.00945214799917725,0.034562316745824,-2.88359508486348,-6.99670859799922e-05,0
0.5,0.000622660650984035,0.000359043885250753,-0.0310052213135941,-0.0179577080042261,-0.000188291983137374,-0.000693660527135582,0.00945254077231802,0.0345608521078063,-2.88359527276794,-6.72536567082682e-05,0
0.51,0.695506281654214,0.00188257085511285,0.531180883736791,-0.094049701222583,-0.00819958673843381,0.695460493968431,-0.101739741653824,0.52976174127212,0.0144963649892631,4.50501260983411,165.628717819925
0.52,0.741390431272423,0.0261563640106263,-2.29588639703296,-1.30811855236906,-0.0226167335133756,0.741506851165753,-1.15442933645887,-2.37688060328159,0.0657571124726003,9.47620740692891,165.628717819925
0.53,0.662952457417781,-0.0291736418537141,1.08863775682314,1.45984284466719,-0.130032671098534,0.650729257542846,1.27655091029164,1.29872671110611,0.153251055890974,14.3752786210424,165.628717819925
0.54,0.704408761933756,0.0091517097576733,-1.52029629704735,-0.457038078582921,-0.183420325710943,0.680170891612268,-0.0248209721679828,-1.58731488855592,0.27639368252922,19.2028110620615,165.628717819925
0.55,0.684430735130376,0.0286167992319388,-1.06443457622837,-1.43054594425615,-0.262311801099197,0.632816617507381,-0.849158660197395,-1.56793247160391,0.434742863194396,23.9844342259752,165.628717819925
0.56,0.672894186413056,0.0298831000610687,-1.03917466113318,-1.49361528261463,-0.37117928838075,0.562054731903316,-0.598044155696765,-1.71846262008755,0.628030177330701,28.7398033562753,165.628717819925
0.57,0.674679458881906,0.0332978583466376,-1.69440841467615,-1.66412551462498,-0.487763244026896,0.467320165822119,0.189156311134608,-2.36739381897249,0.856112974934482,33.488236553188,165.628717819925
0.58,0.638643062621437,0.0137212123226808,-0.486666895121751,-0.684578205259463,-0.568611473315391,0.291091438411013,0.139068908220821,-0.828342818336697,1.11912895365501,38.2865194333529,165.628717819925
0.59,0.640425775284627,-0.0188677039843191,-1.20100662544654,0.945886791029047,-0.635802156533727,0.0790998207938406,1.33130357401267,0.751498190038283,1.4175701331695,43.1691931505516,165.628717819925
0.6,0.60952943509476,-0.0451495306060992,-0.324305345648779,2.25957799029913,-0.591360379247191,-0.154458778376324,-0.0889938738114833,2.28099687458897,1.7523431302661,48.1695481828169,165.628717819925
0.61,0.591140358774548,0.0428781450531397,-0.0583222577664829,-2.14437755373233,-0.525686452813029,-0.273750273833935,1.17507887521033,-1.79469947783368,2.12331220471651,52.9763530057599,165.628717819925
0.62,0.611709921843716,-0.0362055979120058,-1.6753699968059,1.81191913765904,-0.322554393054656,-0.52101683017284,-0.517039479575461,2.41300347371752,2.52813861956302,57.4240549549809,165.628717819925
0.63,0.594430920449534,-0.0193852707751602,-1.35462148030778,0.970914681481376,-0.0856599347902663,-0.588545906010087,-0.717031685093596,1.50450664212531,2.96446253680933,61.5864102933498,165.628717819925
0.64,0.52673897637836,-0.0368061101092499,1.51901048599764,1.84284083368583,0.185376673090623,-0.494412912504669,-1.33359024702525,-1.98115931916386,-2.85263396831518,65.5418768979471,165.628717819925
0.65,0.539898232145449,0.0156240179462708,0.355776011073272,-0.779138324365755,0.370031089557852,-0.393460549192922,0.803027347356647,0.297960027433265,-2.35794136785136,69.4410247989448,165.628717819925
0.66,0.522948954983641,0.0320213624146477,0.664138095199715,-1.59886794210361,0.49656119500832,-0.167116596366971,1.05763744192069,1.37071556029309,-1.83428120527922,73.442063534489,165.628717819925
0.67,0.499613550092951,0.0420849761431426,1.23756633149567,-2.1029756270045,0.490766724639946,0.102629755137728,0.584096561872764,2.36915768133635,-1.28060923660285,77.6337648107595,165.628717819925
0.68,0.488208889396947,0.0408775095028003,1.20880872342139,-2.04440942151604,0.344475865944819,0.348360830534833,-0.793301189039469,2.23863834418866,-0.696256190462572,81.7382158023627,165.628717819925
0.69,0.512326484771267,-0.0302332521600781,-0.532289519373926,1.51347799663279,0.0124456179530785,0.513066840799543,1.46400997998202,-0.656218376182789,-0.0831958804463729,85.4813150050635,165.628717819925
0.7,0.511259189181099,-0.013427891690505,-0.97288110806475,0.673949586278226,-0.281434408779284,0.427037399243229,1.08612380991553,-0.470149725947453,0.556445165320325,88.9997151425092,165.628717819925
0.71,0.477731022717731,0.0357689663417997,0.211759390105605,-1.78604038826847,-0.43665692696961,0.197071248916596,-0.810092437589723,-1.60578097833547,1.22157983159673,92.4683100080194,165.628717819925
0.72,0.459677472532419,0.00919731802175852,0.578564638562912,-0.456445651387356,-0.436170103020797,-0.145408427002747,-0.392106996905611,-0.623964563612008,1.91259036139779,96.0987419881438,165.628717819925
0.73,0.461571887082275,-0.0176396652175683,-0.0865498597710887,0.882805355215737,-0.210266316137808,-0.411275869741364,-0.727802405782242,0.507089569564944,2.63078473988422,99.7949514066265,165.628717819925
0.74,0.467276758689259,-0.0145286044099785,-0.876409410179733,0.728085589354245,0.122066600126257,-0.451285269747261,-0.910829023143383,0.68453821681231,-2.90850943750324,103.126583611019,165.628717819925
0.75,0.436940673460827,-0.000266432554891276,0.169545219774306,0.0161172896737605,0.367955647401973,-0.235639268068169,0.134021067812928,-0.105089019202904,-2.1410039116632,106.257141166154,165.628717819925
0.76,0.412850097553594,-0.0242777217952741,0.896177893701713,1.21833035814165,0.397583463560094,0.113850780977297,1.14060862228359,-0.99321480531732,-1.35064015421417,109.398110656398,165.628717819925
0.77,0.411697184003842,-0.0111670993664532,0.422437585257946,0.558891772974775,0.20084586519212,0.359555578263197,0.696292762452755,0.077394549506813,-0.536535822589085,112.734198286452,165.628717819925
0.78,0.383414243461356,-0.0222550467120346,1.33350665849468,1.11396046667502,-0.135118869026165,0.359506134059336,0.667671076353513,1.60417058424764,0.301532646696114,115.83759615506,165.628717819925
0.79,0.389634427896875,-0.00976854514508155,0.578037741473171,0.491311437869197,-0.361276743712789,0.146251585731782,-0.334480254365378,0.680909332428462,1.16107700174683,118.666326366324,165.628717819925
0.8,0.378507642378478,0.0302693447126821,0.675716666918766,-1.51010470559206,-0.351101499937802,-0.144609838218825,0.0822868677322196,-1.65234321713193,2.04129785625334,121.526927545675,165.628717819925
0.81,0.374944522719401,0.0068110775751166,0.347693817542541,-0.340750882795362,-0.0805907819173616,-0.366244333423689,0.265522964021162,-0.408043760472502,2.94316156362211,124.545305774379,165.628717819925
0.82,0.377251056860971,-0.0347171613818459,-0.236235396262123,1.73779539695873,0.276125590458568,-0.259380607391994,-1.45750297481097,-0.975410212451783,-2.41670342921529,127.313498585233,165.628717819925
0.83,0.370185874851789,0.0378585714136952,-0.311245369200814,-1.89043658302697,0.372111842388524,-0.00190528829531068,-0.492486910735003,1.85150770915228,-1.47400172056828,129.871882140371,165.628717819925
0.84,0.335590971628582,-0.00876212713958777,0.975776485807591,0.442432176414278,0.15693112642868,0.296767074771531,0.864085406335049,0.633436967298626,-0.512526722365149,132.484544142067,165.628717819925
0.85,0.346829946303805,0.0224145596119348,-0.0465731517550254,-1.12125421692123,-0.136622813985363,0.319574139808618,-0.979385336129177,-0.547890902281811,0.46853633957541,135.105866379505,165.628717819925
0.86,0.352990709458929,0.0256579896385936,-0.775004627224278,-1.28114157925897,-0.348482240780548,0.0618134391308266,0.639182027309747,-1.3540318512832,1.4678030934919,137.510599983823,165.628717819925
0.87,0.309010386079051,0.0016124325876796,1.00548212414972,-0.076462931238126,-0.190032129104827,-0.243675621578073,-0.553647393762681,-0.842802138830906,2.48447330565095,139.890723625551,165.628717819925
0.88,0.292712628055476,-0.0116964371120239,1.3736707710812,0.584442508737691,0.118732597005863,-0.267806011270289,-0.0371460458328046,-1.49236878975051,-2.76421763490591,142.339372013038,165.628717819925
0.89,0.296439577276811,0.00187219359152727,0.781713669784957,-0.0923616333449558,0.293203536463897,-0.0437220115040771,0.786922483039158,-0.0189720460230015,-1.71250834473734,144.550468320382,165.628717819925
0.9,0.28244673771504,0.0379743176417402,1.09755388456489,-1.8957390707518,0.20019797073767,0.202827465987088,-0.854577969047574,2.0169649597147,-0.645227580118142,146.658108005639,165.628717819925
0.91,0.26531654617713,0.0136591948770872,1.54283624364017,-0.684210634580294,-0.100120308164051,0.246080001571007,-1.27381146045307,1.10720017629193,0.437844061300372,148.868397091561,165.628717819925
0.92,0.246723411553416,-0.0309740875463394,2.08250249562815,1.55005662838087,-0.247636271602905,-0.0225413596417113,-2.02842497554256,1.62018033381476,1.53668387612031,150.892418893023,165.628717819925
0.93,0.290511199473837,-0.00540429365549241,-0.482209444707707,0.274342862938582,-0.132369841776177,-0.258658439641533,-0.014229595762158,0.554605692014695,2.64998448885012,152.85589762934,165.628717819925
0.94,0.252665216865064,-0.00479220148788347,1.01338131500979,0.238737323094559,0.153986674968726,-0.200376597786883,0.410123698970338,-0.956940829201166,-2.50532922735784,154.88415643065,165.628717819925
0.95,0.237456479705707,0.0149784207461615,1.39531275137594,-0.748694488272587,0.235433478678743,0.0343658254593397,1.21069149364047,1.02062099632952,-1.36285654037531,156.770881351875,165.628717819925
0.96,0.215062160614658,-0.0143161621442207,2.16076222604637,0.719769478381637,0.0302227667008107,0.213408691949819,1.14879531972693,1.96652760288081,-0.207153143618679,158.556177354306,165.628717819925
