t,iq,id,vq,vd,ia,ib,va,vb,theta_e,omega,r
0,0,0,0,0,0,0,0,0,0,0,0
0.01,0.000739897289696348,0.000424308158255326,-0.0364743606725708,-0.021243363481148,-0.000478514030786213,0.00070605221818415,0.0234457639189976,-0.0350992255287718,1.11630693099487,-0.00135329710366375,0
0.02,0.000819049159225348,0.000469682129027893,-0.0404408943446113,-0.0235150553862314,-0.000529703526684809,0.000781573413937296,0.026011959253421,-0.0388818947713189,1.11629674767797,-0.00147167083647701,0
0.03,0.000849247239101459,0.000486972129380542,-0.0419273242791159,-0.0243807036995238,-0.000549236793394603,0.000810371317789866,0.0269670296665153,-0.0403125110239414,1.11628613693554,-0.00149785245767501,0
0.04,0.000831771472706205,0.000477044660150101,-0.0410763986538251,-0.0238836613909858,-0.00053788556936888,0.000793784923546857,0.0264203056828577,-0.0394926227975756,1.1162760025195,-0.00143677106225152,0
0.05,0.000849487054246309,0.000487205290201979,-0.0419506860097778,-0.0243923675389651,-0.000549333387521742,0.000810697279807175,0.0269820774709637,-0.0403337965755498,1.11626577004324,-0.00144082032963594,0
0.06,0.000849979959782941,0.000487529988066549,-0.0419805899366128,-0.0244086271663379,-0.000549625506930318,0.000811210961112071,0.0270013993119474,-0.0403618067827506,1.11625568074079,-0.00141326325802194,0
0.07,0.000873274325227989,0.000500954713734552,-0.0431280845550954,-0.0250807518034895,-0.000564652344005202,0.000833505490518627,0.0277368783346482,-0.0414697645118539,1.11624588748899,-0.00142892058018346,0
0.08,0.000850589516979204,0.000487968411239023,-0.0420215724534699,-0.024430582357066,-0.000549964798275914,0.000811883253565059,0.0270277907784834,-0.0404000548440486,1.11623611673724,-0.00135918406469281,0
0.09,0.000849763310827798,0.000487549781037292,-0.0419864623200708,-0.0244096212581546,-0.000549398603929139,0.000811149583874174,0.0270050664405637,-0.0403660626598881,1.11622663294334,-0.00133088404342533,0
0.1,0.000849655393447738,0.000487534827676321,-0.0419864508501958,-0.0244088695997724,-0.00054930067968873,0.000811093865779855,0.0270050113497892,-0.0403656330574953,1.11621734727716,-0.00130447819231484,0
0.11,0.000849572854830444,0.000487532870494867,-0.041987573790497,-0.0244087683678798,-0.000549220006529444,0.00081106086079006,0.027005697596835,-0.0403662807719208,1.11620825293984,-0.00127865915451824,0
0.12,0.000849492411731374,0.000487531361077733,-0.041988691550238,-0.024408707774052,-0.000549141172000758,0.000811029073977701,0.0270063688964324,-0.0403669576798884,1.11619934590181,-0.00125337326429163,0
0.13,0.000890111224042166,0.00051086595577092,-0.0439850372517793,-0.0255769708685551,-0.000575380776662873,0.000849834676733309,0.0282865962297044,-0.0422934204645238,1.11619033716513,-0.00130344387148512,0
0.14,0.000935667728926915,0.000537226613674292,-0.0463095518943173,-0.0268967326648813,-0.000604727245075297,0.000893527555511771,0.0297951093748107,-0.0445001155284076,1.11618153559927,-0.00136327647246137,0
0.15,0.000852084327444374,0.000489123107364619,-0.0421308054881185,-0.0244883801235602,-0.000550749355360576,0.000813611862502177,0.0270979922506067,-0.040501658585047,1.11617285124744,-0.0011834189954024,0
0.16,0.000849273028006176,0.000487576802504294,-0.0419976371213862,-0.0244109714334826,-0.000548895988367873,0.000810992606866885,0.0270120116807729,-0.0403738563313406,1.11616466256374,-0.00115508438759074,0
0.17,0.000849111034482436,0.000487525837641474,-0.0419942418041682,-0.0244084271562186,-0.000548766335109273,0.000810880077877482,0.02700975517116,-0.0403702958441151,1.11615665291112,-0.0011321792934258,0
0.18,0.00084903757619889,0.000487522926493155,-0.0419950920763526,-0.0244082663515977,-0.000548695256591131,0.000810849508261878,0.0270102730060698,-0.0403707366409067,1.11614880855593,-0.00110990479159398,0
0.19,0.00084896830895535,0.000487521584920593,-0.0419960549119641,-0.0244082043700287,-0.000548627385585551,0.000810822099575213,0.0270108550882745,-0.0403713113007,1.1161411257654,-0.00108809423710457,0
0.2,0.000848900555110229,0.000487520319420112,-0.0419970010255784,-0.0244081438508958,-0.000548560969565307,0.000810795336064234,0.0270114278856721,-0.0403718756681627,1.11613360120051,-0.00106673303765301,0
0.21,0.000848834140039578,0.000487519081496895,-0.0419979237287452,-0.0244080833389137,-0.000548495870273637,0.00081076909932056,0.0270119858972957,-0.0403724255859015,1.11612623160313,-0.00104581177371706,0
0.22,0.000848769121951058,0.000487517869077026,-0.0419988278379492,-0.0244080228337542,-0.000548432138301567,0.000810743414851422,0.0270125333220407,-0.040372963254391,1.11611901378114,-0.00102532137949651,0
0.23,0.00084870550084467,0.00048751668158913,-0.0419997150772228,-0.0244079623350519,-0.000548369771340411,0.000810718283913558,0.0270130715831594,-0.0403734895142879,1.11611194460875,-0.00100525298113501,0
0.24,0.00084864316030509,0.000487515518519633,-0.0420005814865122,-0.0244079018428422,-0.000548308662522486,0.000810693656650205,0.0270135969997495,-0.0403740027085511,1.11610502102508,-0.000985597887702986,0
0.25,0.000848582158539982,0.000487514379367023,-0.0420014316549843,-0.0244078413568365,-0.000548248861907224,0.000810669559869755,0.0270141135741402,-0.0403745049328443,1.11609824003098,-0.000966347587264586,0
0.26,0.000857095187771852,0.000492421846564277,-0.042422504556626,-0.0246535526264655,-0.000553736186112344,0.000818820903534585,0.0272842190900906,-0.0407803621686565,1.11609163119598,-0.000963519387431896,0
0.27,0.000827896710278541,0.000475669275786196,-0.0409948655818505,-0.023814816942028,-0.000534856987363967,0.000790950204428152,0.0263697508399547,-0.0394000095265852,1.11608501174819,-0.00089056958666011,0
0.28,0.000823794687182342,0.000473287585116588,-0.040716913264575,-0.0236955680130531,-0.000532212799514086,0.000787012300341439,0.0261721661979304,-0.0391709673835618,1.11607862587035,-0.00086492354417905,0
0.29,0.000847543245788922,0.000487053224575806,-0.0419650794148013,-0.0243847690337884,-0.000547497185222142,0.000809813082893789,0.0269905490731808,-0.0403385065644479,1.11607248185306,-0.000891724105714799,0
0.3,0.000843589089378236,0.000484845461436127,-0.0417744631677166,-0.0242742232726784,-0.000544909940152478,0.000806096042861045,0.0268676278340139,-0.0401556255463126,1.11606679798948,-0.000868334162146205,0
0.31,0.000848090648028873,0.000487422542725919,-0.0419985197120338,-0.0244032572284297,-0.000547817302983989,0.000810391686151075,0.0270120002624595,-0.0403701184439665,1.11606082206126,-0.00085983621133275,0
0.32,0.000848187334979211,0.000487504358786272,-0.0420065773004947,-0.0244073419992426,-0.000547863470901608,0.00081051087118335,0.0270172078632258,-0.0403774857964891,1.11605495192274,-0.000843449273174205,0
0.33,0.000848140303227459,0.00048750605207138,-0.0420075200045611,-0.0244074341748577,-0.000547815814843446,0.000810494884482561,0.0270177821121803,-0.0403781380164114,1.11604920211235,-0.000827135457501512,0
0.34,0.000848089953455646,0.00048750519121117,-0.042008232347477,-0.0244073780950563,-0.000547766396020652,0.000810475080431709,0.0270182193055459,-0.0403785526733199,1.1160435706994,-0.000811148955172896,0
0.35,0.000848040185804811,0.000487504267143636,-0.0420089063642831,-0.0244073378736953,-0.000547717622154853,0.0008104554112375,0.0270186197814889,-0.0403789616150188,1.11603805526404,-0.000795491407781345,0
0.36,0.000847991524098765,0.000487503359485387,-0.0420095694705639,-0.0244072976540134,-0.000547669926913774,0.000810436179848324,0.0270190150380423,-0.0403793627023482,1.11603265341811,-0.000780156315369368,0
0.37,0.000847943793714526,0.000487502470414596,-0.0420102142056368,-0.0244072574363022,-0.000547623150555347,0.000810417312830342,0.02701939827843,-0.0403797527213453,1.11602736282221,-0.000765137046045174,0
0.38,0.000847897052859755,0.000487501599630216,-0.0420108449320963,-0.0244072172203929,-0.000547577343633569,0.00081039883676464,0.0270197733296545,-0.0403801336496819,1.11602218118533,-0.000750427095787208,0
0.39,0.000847851592520515,0.000487500746759236,-0.0420114774925584,-0.0244071567915044,-0.000547532765890342,0.0008103808803932,0.0270201632132848,-0.0403804943466554,1.11601710626337,-0.000736020094238297,0
0.4,0.000847806830724296,0.000487499911433299,-0.0420120839907286,-0.0244071165796431,-0.000547488892873436,0.000810363188977923,0.0270205250205232,-0.0403808589382594,1.11601213585845,-0.000721909802226478,0
0.41,0.000847763000249884,0.000487499093291925,-0.0420126774045338,-0.0244070763692057,-0.000547445932104237,0.000810345865649759,0.0270208792033958,-0.0403812150221506,1.11600726781806,-0.000708090109073428,0
0.42,0.000847720042889617,0.000487498291982009,-0.0420132560031682,-0.0244070361602365,-0.000547403829727171,0.000810328885701464,0.0270212241220776,-0.0403815618947471,1.11600250003413,-0.000694555029951258,0
0.43,0.000847678016851158,0.000487497507158066,-0.0420138239452182,-0.0244069959522802,-0.000547362636501215,0.000810312275545965,0.0270215634294657,-0.0403819014379186,1.11599783044226,-0.000681298703287169,0
0.44,0.000847636922134505,0.000487496738480699,-0.0420143823422576,-0.0244069557453804,-0.000547322350925423,0.000810296036009336,0.027021898042594,-0.0403822341944328,1.11599325701947,-0.000668315388226426,0
0.45,0.000847596351340579,0.000487495985618626,-0.0420149120494678,-0.0244069357483101,-0.000547282605545114,0.00081027998893462,0.0270222018054849,-0.0403825699619316,1.11598877778553,-0.000655599462146737,0
0.46,0.000847556886437281,0.000487495248246159,-0.0420154432317658,-0.024406895542986,-0.000547243921731127,0.00081026439076278,0.0270225194936901,-0.0403828857341957,1.11598439080083,-0.000643145418221639,0
0.47,0.000847518236440468,0.00048749452604511,-0.0420159624970792,-0.0244068553387351,-0.000547206036669394,0.00081024911444301,0.0270228301222262,-0.0403831938344061,1.11598009416503,-0.000630947863036911,0
0.48,0.000847480401350141,0.000487493818703856,-0.0420164709117277,-0.0244068151354952,-0.000547168948980735,0.000810234160732798,0.02702313457407,-0.0403834947809869,1.115975886018,-0.000619001514254734,0
0.49,0.000847443090183883,0.000487493125916642,-0.0420169550159219,-0.0244067951378035,-0.000547132395913525,0.000810219402543727,0.0270234118083685,-0.0403838008605436,1.11597176453714,-0.000607301198326742,0
0.5,0.00084740688490691,0.000487492447384466,-0.0420174449058552,-0.0244067549352776,-0.000547096898946257,0.000810205096261384,0.0270237065421304,-0.0403840890402655,1.1159677279371,-0.000595841848250951,0
0.51,3.6950314276718,-0.0705833096808762,7.7077939632902,3.53639036148482,-0.329394543415119,3.68099694238615,2.98745379038546,7.93670362427924,0.0701475332944844,21.5319304207772,532.836168535358
0.52,3.57389553136071,0.0393767100245097,6.75530700423852,-1.96670957965898,-1.06805970525839,3.41079583973825,-3.95985742661365,5.81563826704594,0.314486071665451,44.9992170290474,532.836168535358
0.53,3.42519049928344,0.0487443500279512,7.37229731178998,-2.4333728231839,-2.24284919703551,2.58919552127651,-6.72217950786958,3.8838606584189,0.728073740201537,67.7284119751339,532.836168535358
0.54,3.31294218996276,0.0423423561003047,6.27568593290033,-2.1105723116148,-3.18666436251783,0.90694491002168,-6.60919639207997,-0.396575921956008,1.30630148212928,90.0049844223377,532.836168535358
0.55,3.22369848963768,-0.0064899529449387,3.92737786669978,0.33664526784998,-2.86062038750697,-1.48631257485125,-3.64328818744538,-1.50468539151215,2.04796940122973,112.421708117989,532.836168535358
0.56,3.01905648754572,0.0345742452096891,7.08455848636378,-1.72099345101234,-0.591113978673841,-2.96082449963521,0.384058688909692,-7.28047294676722,2.95598991031937,135.267735470656,532.836168535358
0.57,2.92644115023513,0.0209657280979691,5.21421802705735,-1.03821637611326,2.24980425401988,-1.87159776291227,4.69053339250379,-2.50297010991472,-2.25752020527904,156.10617841963,532.836168535358
0.58,2.77997396860253,-0.0309491960432025,6.82657014901813,1.56334506874025,2.38737224958186,1.42466377112984,6.68683379410319,2.08143258681597,-1.04390259897887,174.744601963735,532.836168535358
0.59,2.66215692199621,0.0222295025117525,7.27172962226538,-1.09659936394527,-0.772314587586918,2.54776447222162,-3.21430044447978,6.61429168671552,0.302679727264346,192.661625723484,532.836168535358
0.6,2.53905743983473,0.0187348608763602,7.64019863517451,-0.92478616637785,-2.48600444459197,-0.516667764875169,-7.27382695207585,-2.51382300683665,1.78308836864553,211.445893528757,532.836168535358
0.61,2.52452931564131,0.0498463393929111,2.83512207285758,-2.48113751689128,0.594933540096732,-2.45393296688219,3.12153441174387,-2.10949839109409,-2.88399882148572,228.981669751979,532.836168535358
0.62,2.38413132043059,-0.0389653390237144,5.02452078103455,1.96908098096616,2.15781509358889,1.01461050289423,5.38992146427351,0.268021636466891,-1.14761158605203,244.669666304414,532.836168535358
0.63,2.2865850728901,0.00161865701663011,4.86738665505972,-0.0660086475836341,-1.48005044345464,1.74296431416253,-3.20345010942794,3.66520359431988,0.704712380093697,260.985174713602,532.836168535358
0.64,2.16586004273422,0.0718818886691603,6.01568096053715,-3.58371892109574,-1.03694136423489,-1.9028582022237,0.500239697044754,-6.98435530094864,2.67581989784638,276.340526855779,532.836168535358
0.65,2.0482300258647,0.00553859478900331,7.57589311435226,-0.257763061033071,2.04679913983525,0.07674761270315,7.5594227738279,0.561894654054632,-1.53061339681298,290.289289232029,532.836168535358
0.66,2.04503933596207,0.00959331742517699,3.07819983067806,-0.466482804442243,-1.23258616981996,1.63187292744869,-2.23768474461537,2.16464486420807,0.651588172493076,305.000759680876,532.836168535358
0.67,1.95922120378501,-0.0235923859804299,3.2970960566449,1.20027629242107,-0.377937163005323,-1.92256802918818,-1.84974065806175,-2.98160444774365,2.9354472043355,317.900238188784,532.836168535358
0.68,1.81964159708143,0.00743511262890034,6.12629246867791,-0.359717263822411,1.50498371422978,1.02282688791016,4.84934995705484,3.76093883434493,-0.969789073043602,331.111994052111,532.836168535358
0.69,1.78904186970923,0.0409981613459018,3.78956616778761,-2.03517900098446,-1.782102282646,0.162674875117066,-3.91930285562161,-1.77252092568886,1.50267829182478,343.146749276267,532.836168535358
0.7,1.63489831321962,0.0434681615410626,7.72868316325618,-2.16487699660536,1.27383638928721,-1.02573038804738,7.45886870779704,-2.96386798766016,-2.22213632194794,355.125590200478,532.836168535358
0.71,1.61401376842631,0.0501189027435107,5.16078090833857,-2.49283903250741,-0.61694922406139,1.49228884737907,-4.39186414175308,3.68231386308227,0.423068010604202,366.244428071583,532.836168535358
0.72,1.55586255054831,0.0342976362439038,4.59213503115735,-1.70608182961103,-0.0257385277548502,-1.55602767720874,1.73131673085746,-4.58268062722731,-3.13609176102642,377.225718662941,532.836168535358
0.73,1.48121238601525,0.0327603722599824,4.98869044288721,-1.62348921136106,0.514381301499816,1.3894154350456,0.093536583776779,5.24537896265421,-0.332454635666858,387.412645431971,532.836168535358
0.74,1.46937213362779,-0.0133070351142228,2.31313890219754,0.676851072263258,-0.815686210257496,-1.22224692704101,-1.86096803112643,-1.53151459085735,2.54404993223274,397.573471635242,532.836168535358
0.75,1.40797814700873,0.0220317239169338,2.38617283660119,-1.08473335706925,1.01621314304372,0.974781363803236,0.932908788660335,2.44952004566454,-0.790558253212131,406.761612247564,532.836168535358
0.76,1.33419875794191,0.0110939647643259,2.99899007458789,-0.544945818234982,-1.06482650551953,-0.803961388930454,-2.04634180359347,-2.25906897529808,2.2258150422583,416.155294184522,532.836168535358
0.77,1.25344401574886,-0.0136370476631757,4.28683285307983,0.701294709048273,1.03049930299305,0.713707962836644,3.94348452986253,1.82144995591933,-0.975943720944792,424.606840333484,532.836168535358
0.78,1.25136757711598,0.0547885353435995,1.55151352742223,-2.73015382422304,-1.06507464245896,-0.65919542068581,0.254687771250984,-3.12986713278201,2.16876614641618,433.125431061743,532.836168535358
0.79,1.09826768962165,-0.0271961078582353,6.59049082569222,1.36858589560458,0.850914357841954,0.694893014764092,6.04539398925252,2.95986624560817,-0.910747119136705,441.126719057748,532.836168535358
0.8,1.12965102117288,-0.0358544550357869,2.51237677572015,1.81143084634542,-0.77778229141382,-0.820031510824987,-3.05997430391234,-0.479453891073863,2.35090146513642,448.590152064915,532.836168535358
0.81,1.08328159671677,-0.0144864317904479,2.31262290598856,0.734016625250433,0.614215734039402,0.892439301325134,1.93551735692329,1.46313966267602,-0.616164114643393,456.089505632743,532.836168535358
0.82,1.01050880438365,0.083123488023863,3.68113249048441,-4.14588054194734,-0.460891558431889,-0.903114903743899,2.43599737717975,-4.9804596835002,2.75178516295442,462.925867839217,532.836168535358
0.83,1.01005980711132,-0.0469544294280875,1.44342301795772,2.36484506508453,0.0672512681762036,1.00891169054252,2.5125368217572,1.16752769129432,-0.113012116726901,469.515650204073,532.836168535358
0.84,0.911576921811741,-0.00701074016005099,4.16205290178594,0.356786118850914,0.197746224596065,-0.889897783745618,0.522688908414602,-4.14448754333872,-2.930623803568,476.033763255094,532.836168535358
0.85,0.885663727162022,-0.0121873389691151,3.42887231760778,0.625676265316977,-0.495980277331243,0.733861249378993,-1.35759122635832,3.21023086732915,0.580573704429015,482.001097027565,532.836168535358
0.86,0.810427943140769,0.0166245338286681,5.1676127377535,-0.820890620019236,0.67043827475174,-0.455612056355304,4.78012921535628,-2.1280149205128,-2.14717085244343,487.808579848261,532.836168535358
0.87,0.787017359433137,0.00152323064164323,4.39035844668945,-0.0718244628199305,-0.781030996883239,0.0968980195270737,-4.36669860825789,0.460813746013954,1.44929824358219,493.444468829792,532.836168535358
0.88,0.758840426381794,-0.0623007623677046,3.98766519454517,3.1292999470436,0.683963216738466,0.334536239967617,4.8537953259405,-1.46104852630986,-1.19781131304804,498.705587746577,532.836168535358
0.89,0.717404127968281,0.0408387239446423,4.26074374786648,-2.03294127366685,-0.474678345421708,-0.539459871155461,-1.02818705970046,-4.60756105520329,2.47685053512266,503.740409121798,532.836168535358
0.9,0.711764780529865,-0.0639477435655359,2.81314368825628,3.2070687317992,0.00422973375327408,0.714619147561991,3.46075750072683,2.49443877103112,-0.0955221490520995,508.647741325664,532.836168535358
0.91,0.62924198829941,-0.00177149388150166,5.29974072674435,0.0892622977848603,0.307710308436592,-0.548874288076445,2.50064673606271,-4.67354099478516,-2.63344718448528,513.289745300518,532.836168535358
0.92,0.637109198495186,-0.0169422983507633,3.35589782288139,0.860917052485548,-0.587245696622459,0.247664418273978,-2.70087904413279,2.16990339827487,1.14510481668734,517.575612239388,532.836168535358
0.93,0.617889264751401,0.0161456466507109,2.78064576750943,-0.800810188329301,0.603659938226224,0.132825089427818,2.50668930693704,1.44561286677576,-1.32809019438965,521.793807065534,532.836168535358
0.94,0.598731643995515,-0.00471684710922135,2.26013998950132,0.237516378647369,-0.348905923282292,-0.486586566673141,-1.52339195606168,-1.68639371158557,2.51163857418127,525.864732360172,532.836168535358
0.95,0.547637596245018,-0.00907761696533613,3.44972536305984,0.458660532433262,-0.0619187588525079,0.544201623714001,0.1233883280683,3.47789446145895,0.0967174354493059,529.58691226916,532.836168535358
0.96,0.50245336749926,-0.0205307817510366,4.37837524060182,1.03805435466012,0.391221184084075,-0.31595392802513,2.6064695322335,-3.66797535001019,-2.29099834042971,533.141187071913,532.836168535358
0.97,0.493559878257352,0.0360439110591843,3.5203773551133,-1.80010163407138,-0.494828519942069,0.00672702027615773,-3.4074955295038,-2.00559139203193,1.63010155088059,536.604702159389,532.836168535358
