t,iq,id,vq,vd,ia,ib,va,vb,theta_e,omega,r
0,0,0,0,0,0,0,0,0,0,0,0
0.01,0.000673411158364002,0.000377306705340602,-0.0330354832862642,-0.0188738382180368,0.000770910991088644,3.923240908804e-05,-0.0380125332512509,-0.00161624282216838,-1.00923884003749,-0.00180209523817097,0
0.02,0.000855732947946421,0.00047428035849683,-0.0420424107092457,-0.0237246992163603,0.000976872801936087,5.42242150195957e-05,-0.0482193801142952,-0.00230586915170395,-1.00925356931477,-0.00215833043799662,0
0.03,0.000928465866433317,0.000513276423280569,-0.0456473311693353,-0.0256753736158031,0.00105920253140758,5.99295360171488e-05,-0.0523094702320952,-0.00257351456797804,-1.00926943629469,-0.00219462732560311,0
0.04,0.000918967007327295,0.000508312520618667,-0.0452330193119685,-0.0254270658684988,0.00104852000039423,5.90574969591315e-05,-0.0518265986201086,-0.00256230174414438,-1.00928446195979,-0.00200880531428444,0
0.05,0.000939534267886745,0.000521115698061066,-0.046284401114505,-0.0260675172392731,0.00107274728180393,5.91564086252096e-05,-0.0530575973375443,-0.00257926468498422,-1.0092986339616,-0.00191649427785299,0
0.06,0.000942519569367945,0.000524064211101531,-0.0464741582337134,-0.0262150151487374,0.00107684493998308,5.82358242994975e-05,-0.053296788809868,-0.00255474173588885,-1.00931193892721,-0.00178397024261716,0
0.07,0.000953486579702054,0.000531875785772523,-0.047049924567399,-0.0266057777024797,0.00109028805628856,5.74496603782027e-05,-0.0539922448854955,-0.00252988165264389,-1.00932408689687,-0.00168612416356857,0
0.08,0.000942184671096098,0.000526538479610125,-0.0465358978229741,-0.0263387839634255,0.00107788019104064,5.59376324203535e-05,-0.0534150078357988,-0.00248158513129038,-1.00933559105544,-0.00153253165703802,0
0.09,0.000937669390744784,0.00052530451370772,-0.0463500452284577,-0.0262770509864719,0.00107340168535052,5.45668429365977e-05,-0.0532248451505793,-0.00243432946056367,-1.00934609467534,-0.00140860279358266,0
0.1,0.000934985172469641,0.000525017056533294,-0.0462508118856234,-0.0262626711540677,0.00107097700669503,5.33707178096149e-05,-0.0531332127968792,-0.0023931556797614,-1.00935574628315,-0.00129884193570953,0
0.11,0.000932881510397373,0.000524948097460841,-0.046177398409376,-0.0262592254242826,0.00106916003030537,5.22995895438629e-05,-0.0530692555057055,-0.00235651518384064,-1.00936463051505,-0.00119883997485462,0
0.12,0.000931036217184909,0.000524929733758182,-0.0461142832501974,-0.0262583219255169,0.00106758864428756,5.13239679066194e-05,-0.0530153669066697,-0.00232324380440507,-1.00937281227629,-0.00110700348047044,0
0.13,0.000963251264193362,0.000544034751818196,-0.0477135411961276,-0.027213985114512,0.00110503038261164,5.22940021529188e-05,-0.0548779413812248,-0.00236527990865717,-1.00938062124215,-0.00111480709637196,0
0.14,0.000981147093154326,0.000555126054990434,-0.048666690520224,-0.0277688185804803,0.00112608447452336,5.2424341406191e-05,-0.0559801872784685,-0.00240264100824084,-1.00938801035697,-0.00108682901806126,0
0.15,0.000939514457940811,0.000531882333667503,-0.0466013544569828,-0.0266060952454066,0.00107846806950396,4.99285149769794e-05,-0.0536128739598016,-0.00228698211698751,-1.00939491368131,-0.000896748322525611,0
0.16,0.000928167390930873,0.000526520366333237,-0.046066712580365,-0.0263378882084253,0.00106600838583327,4.84202755492162e-05,-0.0530175213697146,-0.00222907852112178,-1.00940084725491,-0.00080202705754002,0
0.17,0.000924471025828152,0.000525282237048611,-0.0459038568995471,-0.0262759518640635,0.00106222047874378,4.74948491089377e-05,-0.0528467007474867,-0.00219452608147355,-1.00940620629728,-0.000734884842876368,0
0.18,0.000922756468912949,0.000524995230534618,-0.0458363138272503,-0.0262615867552023,0.0010606165171827,4.68198300300279e-05,-0.0527818876617315,-0.002170469773009,-1.00941111587628,-0.000678070475665031,0
0.19,0.000921599831503692,0.00052492767831259,-0.0457947188405032,-0.0262582123786179,0.00105960164905415,4.62564828753472e-05,-0.0527448900685973,-0.00215094459550469,-1.00941563140486,-0.000626997498639709,0
0.2,0.000920640289215677,0.000524910841462361,-0.0457615676773808,-0.0262573661751315,0.00105878060350632,4.57555160679663e-05,-0.0527163853070039,-0.00213379354904472,-1.00941978896691,-0.000580269308514034,0
0.21,0.000919782884702258,0.000524905798788036,-0.0457323197268436,-0.0262571265526358,0.00105805227975573,4.52992924473019e-05,-0.0526915067886845,-0.00211822443036569,-1.0094236180565,-0.000537307009845112,0
0.22,0.000919000003824453,0.000524903566978318,-0.0457057131706719,-0.0262569986799811,0.00105738852159681,4.48806868398421e-05,-0.0526689230176654,-0.00210398295608525,-1.00942714490443,-0.000497754392064672,0
0.23,0.000918280318907779,0.000524902067287681,-0.0456812732794621,-0.0262569245777467,0.00105677863506067,4.44954021845015e-05,-0.0526482013337401,-0.0020908641840975,-1.00943039343752,-0.000461327635792066,0
0.24,0.000917617968544981,0.00052490081378294,-0.0456587868401526,-0.0262568561406468,0.00105621740122008,4.41407053240299e-05,-0.052629135704636,-0.00207879414279691,-1.00943338563582,-0.000427776395774792,0
0.25,0.000917007696433896,0.000524899688355561,-0.0456380634667343,-0.0262568123322864,0.00105570030900571,4.38138758842867e-05,-0.0526115751179968,-0.00206765433522101,-1.00943614173062,-0.000396872852259099,0
0.26,0.000922368040428403,0.000528320676330685,-0.045907980091237,-0.0264279443802446,0.00106205924068287,4.37688053569541e-05,-0.0529311733225281,-0.00206634240221742,-1.00943860003267,-0.000385897210703223,0
0.27,0.00090891629266746,0.000520675763016639,-0.0452592838669838,-0.0260455137537638,0.00104660233656142,4.30769819450975e-05,-0.0521784540406177,-0.00204462631814823,-1.00944112774826,-0.000321332989540352,0
0.28,0.000907667617120495,0.000520293294448563,-0.0451523288253543,-0.0260263810500428,0.00104534178095937,4.27337852059366e-05,-0.0520777322510729,-0.0020037745632948,-1.00944328707148,-0.000294955693296854,0
0.29,0.000913066146693601,0.000523834409645454,-0.0454753189002385,-0.0262035317164969,0.00105179695840026,4.26079249254932e-05,-0.0524454616710223,-0.002025648935325,-1.0094451796572,-0.000290079157745351,0
0.3,0.000899735845632506,0.00051689286844975,-0.0448283875849398,-0.0258562800881321,0.00103681722864686,4.13867581636415e-05,-0.0517129604874881,-0.00197516355804053,-1.00944644321983,-0.000239244897937973,0
0.31,0.000910630131959489,0.000523049382395221,-0.045365653699415,-0.0261642545795937,0.00104931700757744,4.19727443147375e-05,-0.0523317233068661,-0.00200037221902285,-1.00944801010902,-0.000253257868244805,0
0.32,0.000913096794796937,0.000524468652620974,-0.0454912731459214,-0.0262352378489375,0.001052160714882,4.20827079629887e-05,-0.0524758544822683,-0.00200707094616852,-1.0094495724967,-0.000243640502295215,0
0.33,0.000913475193969956,0.000524795501724379,-0.0455145859889135,-0.0262515975375662,0.00105265509675494,4.20059032094355e-05,-0.052504301358347,-0.0020055547582733,-1.00945104140859,-0.000229146718437058,0
0.34,0.000913350072466014,0.000524870462102,-0.0455129469302917,-0.0262553536161516,0.00105258913671991,4.1874408892316e-05,-0.0525049160094713,-0.002001431144725,-1.00945240187177,-0.000214386725213341,0
0.35,0.000913116213388644,0.000524887366836626,-0.0455056480797859,-0.0262562002495698,0.00105240021672489,4.1734288723984e-05,-0.0524991904266576,-0.00199676319386649,-1.00945365685198,-0.000200438659808235,0
0.36,0.000912871293552388,0.00052489091338327,-0.0454974834548697,-0.0262563805624911,0.00105219481802446,4.15996931094324e-05,-0.0524923770244072,-0.0019922036281431,-1.00945481327356,-0.00018750293295282,0
0.37,0.000912638247769846,0.000524891407101028,-0.0454895975930657,-0.026256403688544,0.00105199784203815,4.14740990014059e-05,-0.0524857157413794,-0.00198793031818315,-1.00945587856362,-0.000175565832825449,0
0.38,0.000912421732899565,0.00052489122234002,-0.0454822414567785,-0.0262563947337258,0.00105181449526828,4.13579678005161e-05,-0.0524794856406607,-0.00198397057377796,-1.00945685982533,-0.000164565115978923,0
0.39,0.000912221923604532,0.000524890904642625,-0.0454754455355943,-0.0262563740648674,0.00105164521630711,4.12509236221479e-05,-0.0524737233896693,-0.00198032303413229,-1.00945776366699,-0.000154431037858612,0
0.4,0.000912037713962356,0.000524890577966082,-0.0454691757660579,-0.0262563533270115,0.00105148913522821,4.11522663321053e-05,-0.052468406364828,-0.00197695938572621,-1.0094585961922,-0.000145096251769056,0
0.41,0.000911868172650465,0.000524890269189945,-0.0454634055571407,-0.0262563325236456,0.00105134547820725,4.10614714345329e-05,-0.0524635120700365,-0.00197386517331797,-1.00945936302663,-0.0001364979481428,0
0.42,0.00091171153582985,0.000524889982941349,-0.0454580651383494,-0.0262563304878803,0.00105121275478723,4.09775905836199e-05,-0.0524589914781033,-0.00197098703990914,-1.00946006935364,-0.000128578079081355,0
0.43,0.000911567780511399,0.000524889718837895,-0.0454531703302756,-0.0262563095650489,0.00105109094552829,4.09006068004996e-05,-0.0524548379480085,-0.00196836503141317,-1.00946071994714,-0.000121283128374487,0
0.44,0.000911434950629884,0.00052488947545731,-0.0454486389855705,-0.0262563103220674,0.00105097839398146,4.0829475378783e-05,-0.0524510035423375,-0.00196592084558983,-1.00946131920522,-0.000114563790385252,0
0.45,0.000911312848560992,0.000524889251241283,-0.0454444756788207,-0.0262562892984671,0.00105087493220573,4.07640881485122e-05,-0.0524474690076129,-0.00196369349523131,-1.00946187117834,-0.000108374646936565,0
0.46,0.000911200216731757,0.000524889044696956,-0.0454406307991202,-0.0262562870448913,0.00105077949498393,4.07037729972115e-05,-0.0524442139396742,-0.0019616220470217,-1.00946237959744,-0.00010267386284758,0
0.47,0.000911096741114042,0.000524888854436668,-0.045437100883973,-0.0262562659338922,0.00105069181589334,4.06483603017566e-05,-0.0524412153849249,-0.00195973633010249,-1.00946284789938,-9.74229037863188e-05,0
0.48,0.000911001164135327,0.000524888679178262,-0.0454338343222469,-0.0262562665056348,0.00105061082980015,4.05971783755432e-05,-0.0524384512389812,-0.00195797438524872,-1.00946327924958,-9.25862759551321e-05,0
0.49,0.000910913404585783,0.000524888517739945,-0.0454308374413794,-0.0262562453206684,0.00105053646745671,4.05501819091858e-05,-0.0524359037409066,-0.00195637620066859,-1.0094636765637,-8.81312862117385e-05,0
0.5,0.000910832321314563,0.000524888369032191,-0.0454280627146395,-0.0262562458198332,0.00105046776236414,4.05067615371315e-05,-0.0524335557869014,-0.00195487956115573,-1.00946404252744,-8.40278210914023e-05,0
0.51,1.2199776910728,0.0559584161378342,2.9041024733799,-2.79924004084014,0.0372706007174927,1.22069153080298,-2.84338172967136,2.86089781738269,0.015313382133776,4.72679322486204,183.392350153909
0.52,1.24905142401672,-0.0379589935569443,0.205313495133379,1.89981202884007,-0.123925455098633,1.24346806416918,1.88115196432194,0.335718130783886,0.0689522382935937,9.88570958175959,183.392350153909
0.53,1.17940780631279,-0.0438073499988022,2.46264616345525,2.19279387184175,-0.231225507306874,1.1573489630514,1.77225762886284,2.78066071064146,0.160066150403783,14.9476778159854,183.392350153909
0.54,1.20156242845439,-0.0163537453899691,0.152288177122531,0.819799993281673,-0.356874145541177,1.1474583036894,0.742810787514838,0.378808463246957,0.287919789591264,19.9141608872784,183.392350153909
0.55,1.14914278723924,-0.0107825089066327,1.57083426222316,0.541595020743109,-0.511535674219789,1.02906591720978,-0.198768552966394,1.64964738905608,0.451931980871898,24.8304205697299,183.392350153909
0.56,1.12877640008686,-0.0211554986239469,1.36687572703554,1.06115371491481,-0.701757112908985,0.884375865227407,0.0140425745284221,1.7303754696415,0.652028535837533,29.751084678545,183.392350153909
0.57,1.13726111657281,0.0240731925045461,-0.31892993472429,-1.20097064363755,-0.867424688801032,0.735878233897585,-0.509857622250376,-1.13317783034069,0.888426489824484,34.7549481202893,183.392350153909
0.58,1.06621223741502,0.0145547646678491,1.92110744214384,-0.725332372697021,-0.972477953517565,0.43738656393443,-2.05111058489076,0.098520168959579,1.16178788905214,39.8455491557139,183.392350153909
0.59,1.03098685762921,0.0079961737926515,2.36547152736827,-0.398535708706454,-1.0252250420739,0.109139600989025,-2.39316494489738,-0.164462167134156,1.47249714796515,44.8777302916965,183.392350153909
0.6,1.02967752442296,0.0501228902930855,1.24087293812123,-2.50570925768635,-1.01051450658907,-0.2039817158624,-0.588328419448476,-2.73353511107612,1.81861884718056,49.4906749889796,183.392350153909
0.61,0.975632612902958,0.0174806459136803,2.85629887856025,-0.871849574303274,-0.800595435935429,-0.557863349128415,-1.80267275563042,-2.38095272947305,2.19729383970321,53.7706265036793,183.392350153909
0.62,0.94739210931572,-0.0207726483691101,3.2347933620785,1.04320863188918,-0.465125662956222,-0.825615787987058,-2.54660557076885,-2.25099364990759,2.60662130766381,57.8925608937481,183.392350153909
0.63,0.98750478577884,0.0218918273453838,0.182284288564067,-1.08986798558732,-0.11597818732374,-0.980914886269819,1.06751352506346,-0.285402630807866,3.04606952080384,62.0235038406441,183.392350153909
0.64,0.883196214343254,0.00142177596921916,4.2544776360601,-0.0668959564291818,0.322189553623428,-0.822332941096912,1.62065081145086,-3.93427832925758,-2.7665658812496,66.4014694715303,183.392350153909
0.65,0.920436495091782,-0.0044393875020094,1.24699847940946,0.224079286247275,0.710941392137783,-0.584624141310832,0.816176516745212,-0.969057597714525,-2.26382508564764,70.6854297066657,183.392350153909
0.66,0.896224809666494,0.0344681165455415,1.43931577394515,-1.72101314065045,0.879210584525435,-0.177188342106314,1.69574812667557,1.46899775979922,-1.7312234502874,74.5781149673838,183.392350153909
0.67,0.841068660773313,-0.0562928526442004,3.25126466785806,2.82172504522986,0.752846274597944,0.379193702766585,4.09312040194801,-1.33387388702853,-1.17103943472366,78.2487862798394,183.392350153909
0.68,0.90438208865738,-0.0281128525807625,-0.909557555819643,1.41346265489673,0.474910266288842,0.770167211544333,0.678263847590409,-1.53789784354754,-0.583634864840213,82.0664417674292,183.392350153909
0.69,0.849010800764022,0.0365993360086719,0.788318752752212,-1.82905426668114,0.0089562425421466,0.849752103221738,-1.85373489687111,0.728390622212793,0.0325420974086744,86.0054378787282,183.392350153909
0.7,0.879246302339219,-0.0207803875459446,-1.66112965263942,1.04377536102511,-0.566398754207304,0.672828608128521,1.85362250862487,-0.642574760382252,0.676094434829119,89.5282669527191,183.392350153909
0.71,0.80853896746871,0.0410321088160965,0.996532596692649,-2.04616251265113,-0.778755709820443,0.221265542485317,-1.42992171640168,-1.77064455196763,1.34466971328813,92.8748264689043,183.392350153909
0.72,0.769965464201671,-0.0632660327202491,1.9608987348111,3.16892877300919,-0.658756575286913,-0.403595318946729,-3.17896537008379,1.94458545515421,2.03849116247582,96.4687311686337,183.392350153909
0.73,0.748596073643019,0.00452191305493155,2.08731491750508,-0.22363181634048,-0.284029691815765,-0.692635303271832,-0.572847935947834,-2.01958906622097,2.7584750428988,99.8935654411729,183.392350153909
0.74,0.81598605810437,0.0264135121104788,-2.1107444381091,-1.3148036014344,0.263213158194573,-0.772819354051099,0.485436816997373,2.43891403908724,-2.7809682308007,102.992739488206,183.392350153909
0.75,0.687422102479326,-0.00965356857479298,3.45092846632083,0.490353259160397,0.625041772249679,-0.286295513947224,2.90653435063871,-1.92390531653455,-2.0143602167919,106.213920838821,183.392350153909
0.76,0.727200763641553,0.0235646569896059,0.547315204363122,-1.17655554085409,0.691802793081909,0.225355583875715,0.114179315613896,1.29259427413533,-1.22349187643004,109.482447596306,183.392350153909
0.77,0.680018981828174,0.0249668268326884,2.11002301142207,-1.24282281556355,0.294085299449143,0.613647288543368,-0.298245602043006,2.43060799399615,-0.41020498280176,112.404198165528,183.392350153909
0.78,0.638967587327288,-0.0111552271496028,3.33025191059698,0.563841849199799,-0.273461301579151,0.577601015655488,-0.858538829094305,3.26671187861453,0.424720969686997,115.443566665526,183.392350153909
0.79,0.670639211491845,0.0358034767815387,0.896538256229124,-1.78848364163941,-0.632719777742481,0.22517665019614,-1.36844218587116,-1.45939047729601,1.28222320878516,118.431813488521,183.392350153909
0.8,0.644618360855854,0.0696559290103379,1.45281033598555,-3.47751749845011,-0.574548356504788,-0.300464582998444,0.725650505026705,-3.69827218697159,2.1602810654143,121.132557426888,183.392350153909
0.81,0.585164107682903,0.0339105268119868,3.61480090275603,-1.69590864916269,-0.0822786991465309,-0.580342289012053,1.39056669590468,-3.74288872090947,3.05864084112214,124.020560531813,183.392350153909
0.82,0.606783410575199,0.0285286586996903,1.77646861678348,-1.42300560631421,0.43110170298712,-0.427961813013824,2.27212061520722,-0.13510592869547,-2.30555787513521,126.663797300071,183.392350153909
0.83,0.606078946544899,-0.0272926849234515,1.1008999000074,1.37379737595724,0.588127969245052,0.148936469298141,1.35528932437836,-1.123606099685,-1.36777343962095,129.215524545333,183.392350153909
0.84,0.588264937318253,0.00736418298074745,1.21102737454809,-0.366838670389145,0.241525211941447,0.536447052061675,0.146955501147091,1.25680626696413,-0.410528367793321,131.908028326021,183.392350153909
0.85,0.582570314008013,-0.0167132818056591,0.808420473323298,0.843534543772631,-0.326169049372102,0.482991983146522,0.279279513445513,1.13450303727914,0.565281224396109,134.319214037658,183.392350153909
0.86,0.542788407737436,0.0119968467044932,2.05834531818676,-0.599856047330929,-0.542611811758726,0.0183194335312289,-2.06519386539561,-0.575835935621583,1.55914621801125,136.860900146931,183.392350153909
0.87,0.526215156719658,0.0470256282569981,2.2265057751306,-2.34778619957228,-0.323861805516515,-0.417405476487843,0.77278962101632,-3.14200958102317,2.57085420649787,139.131950981322,183.392350153909
0.88,0.578768644817611,0.0313628402283323,-1.0557388073238,-1.56185878959053,0.227420246276915,-0.533138634460634,0.935180607931038,1.63689478539716,-2.68425810701003,141.422428387834,183.392350153909
0.89,0.534545142010565,0.0190710807912637,0.471831354806457,-0.951089394097655,0.532005477380012,-0.055429116963084,0.535504816594802,0.916749941012984,-1.63894867064709,143.691247201647,183.392350153909
0.9,0.537208656129442,0.0241127433296784,-0.274783349727606,-1.19758441132182,0.313675897063393,0.43678598445092,-1.15319621108792,0.424090568465073,-0.577945498706999,145.813158654262,183.392350153909
0.91,0.468192212911868,0.0313928149769947,2.52427141223353,-1.56944245470007,-0.196488970838448,0.426123856880062,-2.5860564825633,1.46540357930052,0.499003473658631,147.981728421494,183.392350153909
0.92,0.536377377124897,0.0272297975453348,-1.47875394414125,-1.35361825247051,-0.536819661179626,0.0163341340981362,1.50593159675573,-1.32331614764854,1.591100686067,149.987389012821,183.392350153909
0.93,0.395708612172481,-0.0642793106225626,4.92890720027154,3.21538490935276,-0.111705153993011,-0.385018303581766,-5.0190522162347,-3.07277417896136,2.69818137369115,152.047449353919,183.392350153909
0.94,0.400777518982618,0.0170448222473291,4.10943150724033,-0.845870018727196,0.23813260214629,-0.322809556057969,3.23658275787912,-2.66972947181558,-2.46351439751501,153.941092922718,183.392350153909
0.95,0.466419390043964,0.0389121377400646,0.224515644750019,-1.94697258244744,0.462086908030406,0.0744102902788616,-0.250348163404753,1.94381977266912,-1.32790140948725,155.9213832296,183.392350153909
0.96,0.470414886942165,-0.0466630219433029,-0.525476778515235,2.34175580048065,0.0375074827241912,0.471233267303345,2.21143524170733,-0.932469970335962,-0.178298870844987,157.706768419569,183.392350153909
0.97,0.405357190772352,0.0238387390488503,2.16530824174106,-1.19372729945684,-0.324464939150037,0.244141845763185,-2.46415193636404,0.203715197601048,0.984474158462457,159.539600366816,183.392350153909
