t,iq,id,vq,vd,ia,ib,va,vb,theta_e,omega,r
0,0,0,0,0,0,0,0,0,0,0,0
0.01,0.00053251399988196,0.00030128300104872,-0.0259062297000293,-0.0150761227910217,-0.00024937013242418,-0.000558710250349816,0.0125487255083857,0.0272204280604812,-3.04651822920727,-0.00174941958510446,0
0.02,0.000616171934940675,0.00034746654089707,-0.0300568454624808,-0.0173871445134128,-0.000287412069983713,-0.000646370754659575,0.0144557131782088,0.0315714920457541,-3.046531725076,-0.00192640865540045,0
0.03,0.000647904338430406,0.000365362801621851,-0.0316238867692818,-0.0182826700557225,-0.000302225010855259,-0.000679654361701188,0.0151989172369477,0.033216248337029,-3.0465456297535,-0.00192237538126036,0
0.04,0.000633210477255416,0.000357465413103198,-0.0309475481533423,-0.017887475508631,-0.000295766392285808,-0.000664273491316121,0.0148701153946258,0.0325052639571782,-3.04655860423666,-0.00176698722496039,0
0.05,0.000648412278847494,0.000366450863805912,-0.0317130706956994,-0.018337118958442,-0.000303277285167968,-0.00068025554554553,0.0152455050009787,0.0333098087942818,-3.04657110347635,-0.00171776481955333,0
0.06,0.000649489092560737,0.000367430970646407,-0.0317952898687223,-0.0183861556100622,-0.000304158924897399,-0.000681416867967611,0.0152869176030264,0.0333961274124977,-3.04658302111311,-0.00162491123738907,0
0.07,0.000662460872136207,0.000375294623440039,-0.0324495275080581,-0.0187796473343728,-0.00031076422469769,-0.00069507269989729,0.0156169469989157,0.0340845706432205,-3.04659410325803,-0.00157953524773901,0
0.08,0.000649862367525139,0.000368393488229702,-0.0318685571066708,-0.0184343235288004,-0.000305096549529138,-0.000681873121893539,0.0153286471098096,0.033473299714975,-3.04660481305011,-0.00144966388556461,0
0.09,0.000647826126585543,0.000367636678677838,-0.0317955271339198,-0.0183964521903924,-0.000304543048334104,-0.000679771247926441,0.0152982055983685,0.0333968547080001,-3.04661477121905,-0.00136202891454383,0
0.1,0.000647050162532473,0.000367551929197135,-0.0317817988767569,-0.0183922178278859,-0.000304538621405185,-0.000678987895004369,0.0152956045354385,0.0333826436695254,-3.04662412617791,-0.00128359398554419,0
0.11,0.000646452666033306,0.000367540792146638,-0.0317752743213305,-0.0183916602456958,-0.00030459016216335,-0.000678389354594138,0.0152959618554961,0.0333759610454009,-3.0466329257054,-0.0012102685273457,0
0.12,0.000645905926947921,0.000367537815177067,-0.0317698756405832,-0.0183915043330875,-0.0003046446502554,-0.000677842274516978,0.0152965947862344,0.033370445274192,-3.04664120408632,-0.00114133828356937,0
0.13,0.000673756644110544,0.000383626132683089,-0.0331347652002483,-0.0191965672909141,-0.000318025729090301,-0.000707090277685295,0.0159689095628353,0.0348053844685584,-3.0466493010667,-0.00117106582387546,0
0.14,0.000692996083263411,0.000395059280822045,-0.0341646429386271,-0.0197686644182191,-0.000327589077432097,-0.000727324413951056,0.0164410734881015,0.0358847324437969,-3.04665700854515,-0.0011744765090554,0
0.15,0.000649972620895255,0.000370542279575948,-0.0320248290110318,-0.0185418520396019,-0.000307265803044094,-0.000682168392075193,0.0154228715664509,0.0336381477327315,-3.0466643368644,-0.000967869594500553,0
0.16,0.000644606711879878,0.000367859756842972,-0.0317822195161792,-0.0184076213435777,-0.000305108349973347,-0.000676570401718624,0.0153124572811612,0.0333838082446529,-3.04667081081453,-0.000897063059924916,0
0.17,0.000643635619619966,0.000367565113713984,-0.0317506538936448,-0.0183928748300439,-0.000304911154459348,-0.000675573912721191,0.0153009704226009,0.0333508946104055,-3.04667685265402,-0.000844797603379609,0
0.18,0.000643195513393085,0.000367531682825529,-0.0317437962542153,-0.0183911946994787,-0.000304923418104629,-0.000675130887621763,0.0153001371181416,0.0333438217256111,-3.04668253112515,-0.000797292693634,0
0.19,0.000642836316819264,0.000367526889163275,-0.0317399880352892,-0.0183909585932405,-0.000304956290629292,-0.00067477122440529,0.0153004410603421,0.0333399265418745,-3.04668787275272,-0.000752793727876666,0
0.2,0.000642504827292544,0.000367525294328895,-0.031736713583759,-0.0183908781508832,-0.000304989504978012,-0.000674439542819836,0.0153008388015824,0.0333365823117214,-3.04669289806068,-0.000710951723214293,0
0.21,0.000642193652260548,0.000367524112458446,-0.0317336636385925,-0.0183908151601633,-0.000305021001690562,-0.000674128213895396,0.0153012226926847,0.0333334677807679,-3.04669762584415,-0.000671589519115997,0
0.22,0.000641900928275842,0.000367523035181343,-0.0317307929986617,-0.0183907689197487,-0.000305050662781729,-0.000673835348024072,0.0153015969115293,0.0333305376155349,-3.04670207372528,-0.000634557996774067,0
0.23,0.000641625725578246,0.000367522025280736,-0.031728099344871,-0.0183907088145809,-0.000305078550944996,-0.000673560011092973,0.0153019317576791,0.0333277863534925,-3.04670625827644,-0.000599718904035267,0
0.24,0.000641366762033701,0.000367521075396006,-0.0317255599633051,-0.0183906625351291,-0.000305104791255571,-0.000673300921323241,0.0153022574728712,0.0333251937683823,-3.04671019508732,-0.000566942410432657,0
0.25,0.000641123048897188,0.000367520181624731,-0.0317231643060863,-0.018390617688903,-0.000305129483754419,-0.000673057089608648,0.0153025632121378,0.0333227479615482,-3.04671389882543,-0.000536106399382737,0
0.26,0.000646781797397604,0.000370876651407409,-0.0320049691241045,-0.018558585129209,-0.000307937090940401,-0.000679007313677262,0.0154431930410236,0.0336191451308724,-3.04671732052611,-0.000527755892925329,0
0.27,0.00063105489115665,0.000361916891622186,-0.0312545554011001,-0.0181102367131088,-0.000300509773134631,-0.000662501311957017,0.0150680634142689,0.0328295807476861,-3.046720776132,-0.000445939520332104,0
0.28,0.000630542817250546,0.000361726708675429,-0.0311595495655086,-0.0181007125716437,-0.00030037099541188,-0.000661972598579949,0.0150676829157286,0.0327340534654312,-3.04672385995903,-0.000419206198918929,0
0.29,0.000639131196550595,0.000366883793424743,-0.031659263270279,-0.018358774878777,-0.000304693219450029,-0.000671010019525119,0.0152773416494611,0.0332559227505732,-3.04672665658379,-0.000425945427780047,0
0.3,0.000632554429579305,0.000363382804553474,-0.0313473192983234,-0.0181835826454162,-0.000301832397392489,-0.000664130539058287,0.0151325574938402,0.032928753524987,-3.04672883807285,-0.000385765618136274,0
0.31,0.000639093262336475,0.000367063897895149,-0.0316693282778722,-0.0183677836388837,-0.000304879265386659,-0.000670987881141791,0.0152855130775452,0.0332667239044165,-3.04673136309765,-0.000387690306776774,0
0.32,0.000639710996730972,0.000367465937348564,-0.0317053086621897,-0.0183879155373716,-0.000305222626070386,-0.000671640173742377,0.0153022277579223,0.0333044120323255,-3.04673380490839,-0.000370025329565182,0
0.33,0.000639649825760914,0.000367509411853617,-0.0317081703416784,-0.0183900883382381,-0.000305273246996186,-0.000671582691904255,0.0153041965135422,0.0333074313716921,-3.04673610985157,-0.000351144614165534,0
0.34,0.000639517638127899,0.000367513702950318,-0.0317072594978211,-0.0183902985764893,-0.000305291495499282,-0.000671450842659947,0.0153045643310474,0.0333065113338431,-3.04673827922782,-0.000333119084347957,0
0.35,0.000639384693429275,0.000367513736347515,-0.0317059861276925,-0.0183902949369642,-0.000305305490421895,-0.000671317875610359,0.0153047492890468,0.0333052121055756,-3.04674032027314,-0.000316130232682702,0
0.36,0.000639258325376783,0.000367513329889912,-0.0317047226943183,-0.0183902817854076,-0.000305318342966745,-0.000671191450823341,0.0153049198074943,0.0333039237171311,-3.04674224049351,-0.000300143638837093,0
0.37,0.000639139583301188,0.000367512899574644,-0.031703539001144,-0.0183902519136218,-0.000305330372759237,-0.000671072650140716,0.0153050623381395,0.0333027148663468,-3.04674404703149,-0.000285103095702406,0
0.38,0.000639027708953246,0.000367512489463593,-0.0317024147481769,-0.0183902372571218,-0.000305341700069732,-0.000670960720847568,0.0153052108203941,0.0333015682661034,-3.04674574661632,-0.000270952957259929,0
0.39,0.000638922528486147,0.000367512103028875,-0.0317013580821796,-0.018390222575885,-0.000305352349137138,-0.00067085548828065,0.015305349522738,0.0333004904863575,-3.04674734557986,-0.000257640550667406,0
0.4,0.000638823459820651,0.000367511739381807,-0.0317003557144898,-0.0183902064168412,-0.000305362378259923,-0.000670756371079777,0.0153054784560951,0.0332994680694636,-3.04674884987887,-0.000245116284190972,0
0.41,0.000638730386546685,0.000367511397232519,-0.0316994166613412,-0.0183901916903573,-0.000305371800992812,-0.00067066325152962,0.015305599851087,0.0332985101810247,-3.04675026511842,-0.000233333497766338,0
0.42,0.000638642960190834,0.000367511075317201,-0.0316985375392413,-0.0183901617169078,-0.000305380652663233,-0.000670575780998012,0.0153056975996285,0.0332976117925811,-3.0467515965705,-0.000222248293264979,0
0.43,0.000638560538915668,0.00036751077244105,-0.0316976994090895,-0.018390145497016,-0.000305388996233163,-0.000670493318907942,0.0153058025310554,0.0332967567205989,-3.04675284919628,-0.000211819371420897,0
0.44,0.000638482831688679,0.000367510487478993,-0.0316969000983824,-0.0183901459361623,-0.000305396861308852,-0.000670415574006857,0.0153059178992446,0.0332959430060445,-3.04675402766192,-0.00020200787802055,0
0.45,0.000638409898264739,0.000367510219372435,-0.0316961542685578,-0.0183901311331803,-0.000305404244155332,-0.000670342604343093,0.0153060107045364,0.0332951821563481,-3.04675513635845,-0.000192777259153522,0
0.46,0.00063834133041521,0.000367509967125581,-0.0316954524308301,-0.0183901163133708,-0.000305411185237676,-0.000670274002169728,0.0153060971401932,0.0332944661039832,-3.04675617941604,-0.000184093125030583,0
0.47,0.000638276837099059,0.000367509729800757,-0.0316947904097976,-0.0183901000224923,-0.00030541771381401,-0.000670209476480322,0.0153061762835674,0.0332937904951453,-3.04675716072125,-0.000175923121853023,0
0.48,0.000638216127283426,0.000367509506516112,-0.0316941633022194,-0.0183900851720686,-0.000305423859038636,-0.000670148736352101,0.0153062516193417,0.0332931506684046,-3.04675808392948,-0.000168236811281642,0
0.49,0.000638158850945342,0.000367509296441484,-0.0316935627774414,-0.018390085522312,-0.00030542965555547,-0.000670091432207621,0.0153063377494749,0.0332925395808816,-3.04675895248069,-0.0001610055570328,0
0.5,0.00063810512604885,0.000367509098795465,-0.0316930033125934,-0.0183900706431142,-0.000305435093602674,-0.000670037680420437,0.0153064031176253,0.0332919687136633,-3.04675976961032,-0.000154202418189533,0
0.51,4.72250326333889,-0.0144037132112303,3.87567252367318,0.729171502951023,-0.493328461424587,4.69668729727126,0.332305209717896,3.92964398375545,0.101603777127602,31.5113409567426,712.663127494299
0.52,4.67972696843799,0.013371073937136,6.01544622841482,-0.650934108661543,-2.08265594073001,4.19077170903953,-3.27456102476862,5.08788351240822,0.464071798654271,67.468294951781,712.663127494299
0.53,4.71248187703208,0.0237916179337312,4.3786687208424,-1.16139120315412,-4.17853946928641,2.17895832591065,-4.42446258898963,0.972471126706904,1.09517384918443,105.253388262034,712.663127494299
0.54,4.51200749344754,-0.0109617506061497,7.13565830447867,0.582126396626058,-4.07051216968889,-1.94660279906245,-6.69475035102051,-2.53708658059494,2.01443965019707,144.808057610007,712.663127494299
0.55,4.32776188921196,0.0584076848206982,5.40031438189252,-2.87867298715126,0.205757599320283,-4.32326245301896,3.20280743960689,-5.2146119793354,-3.08054017833327,178.886550947597,712.663127494299
0.56,4.07252103248019,0.0546820951633992,6.83309043716787,-2.69282294379206,4.05824608115944,-0.345045556816799,7.00776937636189,2.198542402787,-1.64218937397786,213.855237045294,712.663127494299
0.57,3.92138495980421,0.00825080296279634,4.33965069383632,-0.356593779569138,-0.150357121406341,3.91851002483987,-0.53182001144368,4.32167730673745,0.0404562283565565,244.84929789144,712.663127494299
0.58,3.71233479760863,0.0582687252050386,4.56633783387845,-2.86099023288343,-3.46718461723378,-1.32795170239371,-3.17301700907425,-4.35530359284972,1.95226190112271,275.877635449915,712.663127494299
0.59,3.54334134527229,0.0406334097753231,3.50350068596513,-1.97981846753352,2.83447253289317,-2.12666039211252,3.99628583621286,-0.473178334488598,-2.20301235935766,305.065786267321,712.663127494299
0.6,3.31709046623902,0.0139304375579701,5.94099327919136,-0.643818882438644,-0.421578382100419,3.29022109987307,-1.41804038581078,5.80508960835154,0.131635918280355,332.319320793059,712.663127494299
0.61,3.16793652658801,0.0454649846012622,4.90618056160196,-2.21406992606972,-1.50163198345186,-2.78980111971978,-0.298654548452203,-5.37433891760243,2.66215992921269,358.062827590017,712.663127494299
0.62,2.97182606539587,0.0378523047422021,6.54286905694324,-1.83014007900048,2.36055483691425,1.80581389458087,4.01519332627002,5.48058124269187,-0.905030589548663,382.677042520917,712.663127494299
0.63,2.85149069029494,0.036472471646113,4.75943812765212,-1.76737911932685,-2.62304816211037,-1.11890470428724,-3.63935869199654,-3.53990798656837,1.98678311046107,406.113454134848,712.663127494299
0.64,2.65559299804342,0.0274468636665653,7.08814398079731,-1.32123283287011,2.51876984627875,0.841858636030608,6.26724983218126,3.56497136484868,-1.23790022507616,428.342538132284,712.663127494299
0.65,2.49053318277449,0.0146823901944666,8.24241253774546,-0.682110020600589,-2.29230011619348,-0.973823025185804,-7.29669457995689,-3.8936983356977,1.97841270392386,449.295368246969,712.663127494299
0.66,2.39523929566967,0.0333159567322969,6.32785474316998,-1.60839439810655,1.95254422005785,1.38775080803861,4.1564173999335,5.03516361085212,-0.9389904360659,468.996700746998,712.663127494299
0.67,2.25736447087897,0.00439032754292312,6.92737733775832,-0.154543117915531,-1.22815311696199,-1.89403103212676,-3.62779352892971,-5.90352051461146,2.5682643602066,487.630409163166,712.663127494299
0.68,2.14000535884245,0.0154262830001974,6.72335734225166,-0.725149687746454,0.173209026870239,2.13303997597145,-0.227329361461765,6.75852775260008,-0.0738167183831775,505.625395384816,712.663127494299
0.69,2.02083671148948,0.0422531749571167,6.84079676177632,-2.06232678767002,1.02527731835793,-1.74194510985804,5.34748484190178,-4.73857552231696,-2.58870543350478,522.437727137692,712.663127494299
0.7,1.90289161887121,0.00604440653058275,7.33781018679611,-0.240442835673043,-1.83156650922068,0.516136774820163,-7.13350301700141,1.73620442376671,1.2992950131907,538.20263808849,712.663127494299
0.71,1.78501987943387,-0.0153247464140971,7.92033315908358,0.809482713063643,1.47600047977471,1.00396882497993,7.03644550980369,3.72496633557826,-0.982071009575481,553.481054087919,712.663127494299
0.72,1.73154473008269,0.0555455380108316,5.68712216218238,-2.72083225376388,-0.0807130759760095,-1.73055420557593,2.63786463024701,-5.72607691471217,3.12705401958644,567.539601760603,712.663127494299
0.73,1.64967741430791,-0.0138397144223297,5.00615846341117,0.732889696821159,-1.44151302992814,0.802288784366521,-3.99195138995251,3.10854853086551,1.05454129857862,581.163893632261,712.663127494299
0.74,1.50818593101948,0.0243263381652901,7.65296331683521,-1.16233435001183,1.21662297228798,0.891653024755026,5.39680197592942,5.54917985855992,-0.922206526614738,593.700640768396,712.663127494299
0.75,1.43758594146524,0.0282646100802783,6.853542583808,-1.37442456527345,0.443692294400687,-1.36769491304565,3.54134982854653,-6.02651891439413,-2.80823691929322,605.819569600851,712.663127494299
0.76,1.36107093954931,0.0189745871919138,6.66625369892746,-0.919671804918578,-1.35575430748859,-0.12167331330608,-6.53565055084136,-1.603123976651,1.67424240191547,617.157906515454,712.663127494299
0.77,1.27123647890141,0.0536462407196082,7.29057674333171,-2.63809522403957,0.111635092794455,1.26746112780226,-2.30245520826991,7.40342864323148,-0.0456759952368582,627.751887058398,712.663127494299
0.78,1.22953594803436,0.00216100241487949,5.68094315422242,-0.0762511850328683,1.2206200109801,-0.147817814336189,5.64996498163782,-0.597348366526492,-1.68955251256606,637.927462699846,712.663127494299
0.79,1.11774826479566,0.00545828187043562,7.81889507110537,-0.251108481487826,-0.139289033692491,-1.10904893552435,-0.687149402235194,-7.79268896475657,3.02153684710218,647.434400930552,712.663127494299
0.8,1.07341407348718,0.00378240359295934,6.71908345795132,-0.145403214180924,-1.07167028830043,0.0612770178073363,-6.71722530397001,0.214729656345503,1.51720323446718,656.315895180088,712.663127494299
0.81,1.02023521044286,-0.00425623292471605,6.20150442409333,0.246506294547398,-0.0823939239229232,1.01691161928984,-0.229254295881913,6.20216614926755,0.0766752837881784,664.810161683057,712.663127494299
0.82,0.965690094784038,0.0386932864404474,5.92504609444412,-1.91515903046221,0.941662992026884,0.217543878393632,5.20952102408204,3.41099634020555,-1.30371190611318,672.823352105429,712.663127494299
0.83,0.892908258706656,0.012497336064629,6.7485968582544,-0.611228006436531,0.428127037140862,-0.783676324731232,3.85028093825453,-5.57606455554519,-2.62759468935601,680.279200501184,712.663127494299
0.84,0.85334158931225,0.0404079437198566,6.03757411421057,-1.98448001575793,-0.615263915060977,-0.592684557576341,-2.70243239080246,-5.75215796816028,2.38482160439688,687.263141940675,712.663127494299
0.85,0.775410597399751,0.0346900718426802,7.34834134643896,-1.70271224222922,-0.698452006145655,0.338570215399109,-7.42255947596437,1.34274359033775,1.16413594258869,693.875594121211,712.663127494299
0.86,0.723838356959328,0.040603314919877,7.47025948118616,-2.00647953085131,-0.115931472309151,-0.715646903099772,1.21581926527953,-7.63888213930233,3.03702817882973,700.127814849938,712.663127494299
0.87,0.709672939981515,0.0117587917497152,5.85545929595758,-0.570428928372068,-0.673681870655993,-0.223442807167432,-5.33791313621081,-2.47355535195956,1.90762059563199,705.98040342282,712.663127494299
0.88,0.643365354469949,0.00226814228870623,6.94892793925409,-0.103862396809819,-0.468799995615282,0.440625337347725,-5.1510442055133,4.66531140388989,0.819894404303396,711.522105181543,712.663127494299
0.89,0.63527395155339,0.015618949165033,5.27689651554878,-0.775975426869632,0.159357320836071,0.615160295688228,0.441609347665462,5.31533215170706,-0.228896865684377,716.633936665061,712.663127494299
0.9,0.593158560587047,0.0154117556721766,5.39683184172154,-0.768651874749459,0.566233992959521,0.177351812586491,4.85776552492438,2.47360743393764,-1.24128540282324,721.458883600432,712.663127494299
0.91,0.538670529077086,-0.00300617675127715,6.24334927033798,0.151923905506267,0.431059006477939,-0.323052795884975,4.88326165083236,-3.89310244329687,-2.21951951702083,725.932069995921,712.663127494299
0.92,0.459714573560679,-0.00884296771552304,8.39789614956835,0.462850981393602,-0.00232642517405143,-0.459793730892456,-0.666705093819413,-8.38417527773526,3.1172995753756,730.1214904228,712.663127494299
0.93,0.460776871128978,0.00313247301192535,6.64462318095829,-0.132798259764371,-0.37421369578649,-0.268866597479861,-5.29151620614843,-4.02100843505621,2.20061845885927,734.051892844504,712.663127494299
0.94,0.40688303021411,0.0201004797458588,7.73930207987362,-0.984114032687492,-0.388157316661049,0.123659722968814,-7.73315892910081,1.03127595246717,1.311741687021,737.676972538946,712.663127494299
0.95,0.429215239911494,0.00817422406443219,5.09081085833836,-0.386824162201823,-0.178814432463888,0.390279308769956,-2.55676636083893,4.41915533828823,0.448669912663408,741.088199071454,712.663127494299
0.96,0.367385852705031,-0.0081257243125463,6.73123515720468,0.425671982978321,0.132255724431684,0.342851010671482,2.95453324354451,6.06312268484412,-0.390278343253108,744.26821069096,712.663127494299
0.97,0.335172580126357,-0.0198668303876648,6.98002244478073,1.0112361077864,0.306160140451151,0.137845267663214,6.88294139373548,1.53897029397465,-1.20694774421134,747.188471989269,712.663127494299
