t,iq,id,vq,vd,ia,ib,va,vb,theta_e,omega,r
0,0,0,0,0,0,0,0,0,0,0,0
0.01,0.00138167566071026,0.000778252019025426,-0.0685996938172339,-0.0389947667793719,-0.00145111898846274,-0.000639497863826903,0.0723315620716631,0.0315381508061108,2.49885534173774,-0.0017117078234202,0
0.02,0.00154565753917595,0.000874218212123803,-0.0768681816606905,-0.0438032195778612,-0.00162623341036484,-0.000713217782892107,0.0811369915894726,0.0352736161035,2.49884326802249,-0.00171910031054215,0
0.03,0.00157978024003911,0.000894863213096991,-0.0785991445628868,-0.0448376275032525,-0.00166322006956351,-0.000728137883352768,0.0830029294227688,0.0360382029709704,2.49883192771047,-0.00155937458971988,0
0.04,0.00155698485499821,0.000884339448436567,-0.077512276792762,-0.0443103337774683,-0.00164113939230576,-0.000716184050211385,0.0819297171598084,0.0354835198251554,2.49882252721398,-0.00135596435819987,0
0.05,0.00157371047897706,0.000894894737194388,-0.0783736137054637,-0.0448392234732492,-0.00165962014072022,-0.000723230427191924,0.0828696713842455,0.0358552207022129,2.49881381717393,-0.00122010427309303,0
0.06,0.00157121861770966,0.000894937387458087,-0.0782817840183582,-0.0448413638685746,-0.00165816610291129,-0.000721197647849572,0.08281661275635,0.0357798026022442,2.49880619098953,-0.0010773292864353,0
0.07,0.00161116083486459,0.000918317427486003,-0.0802805197609762,-0.0460128250059755,-0.00170082751534981,-0.00073914267665658,0.0849526238956305,0.0366768811565346,2.49879960017807,-0.0010124547910324,0
0.08,0.00156719962805037,0.000895035897051996,-0.0781342585384698,-0.0448462904798753,-0.0016558448064304,-0.000717901043452621,0.0827325697300564,0.0356577345469836,2.49879372555113,-0.000844030360971562,0
0.09,0.0015652559581035,0.000894922791922134,-0.0780589399156517,-0.0448406226360442,-0.00165459278127261,-0.000716404736193722,0.0826830639264139,0.0356004280716396,2.49878867758136,-0.000749114944121398,0
0.1,0.00156375610583862,0.000894918427235159,-0.0780028782509874,-0.0448404105178021,-0.00165369335969079,-0.000715199567999864,0.082649444850812,0.0355553188242766,2.49878427791435,-0.000666659615819051,0
0.11,0.0015624503179293,0.000894915061281231,-0.0779540863193724,-0.0448402244752377,-0.00165291065537175,-0.000714150074048791,0.0826201840306774,0.0355160596859345,2.49878044295295,-0.000594789027423492,0
0.12,0.00156131197326092,0.000894912128316122,-0.0779115460559352,-0.0448400755378874,-0.00165222831267956,-0.00071323516320724,0.0825946827188986,0.0354818230878014,2.49877710021452,-0.000532143136770307,0
0.13,0.00163229504569446,0.000935106600365624,-0.081429591127823,-0.0468540423224998,-0.00172695383737946,-0.000745950342721553,0.0863157064799428,0.0370901389599904,2.49877372452829,-0.000569150489412162,0
0.14,0.00177487659898775,0.0010180719477086,-0.0886175239281573,-0.0510110818307657,-0.00187883342233848,-0.000810334747773653,0.0939519875203322,0.0403512088751001,2.49877092929183,-0.000716289232335572,0
0.15,0.00155951393972426,0.000895479603640526,-0.0778581810342416,-0.0448685202629052,-0.00165161085786398,-0.000711441510537787,0.0825857674177016,0.0354213422186789,2.49876843429432,-0.000371339341834631,0
0.16,0.00155775223512843,0.000894905621031691,-0.0777785664140872,-0.0448397643895695,-0.00165009665132816,-0.000710372534574167,0.0825150891917008,0.0353747073433595,2.49876663088988,-0.000335946920204693,0
0.17,0.00155721152617997,0.000894901569050261,-0.0777582747046374,-0.0448395578757602,-0.00164977038939788,-0.000709939587445543,0.0825028153441225,0.0353584600319235,2.49876506094158,-0.000306516145799236,0
0.18,0.00155674512837597,0.000894900354102885,-0.0777408265593505,-0.044839519273111,-0.00164949080062434,-0.000709564751908837,0.0824923733294021,0.0353444047234814,2.49876369250923,-0.000280870442780033,0
0.19,0.00155633922851935,0.000894899305776523,-0.0777256466471296,-0.0448394463213086,-0.0016492474859166,-0.000709238529625452,0.0824832572998142,0.0353322000210659,2.49876249971728,-0.0002585164424946,0
0.2,0.00155598505508427,0.000894898391949524,-0.0777123935136185,-0.0448394074392039,-0.00164903517767848,-0.000708953881672396,0.0824753181376436,0.0353215297404983,2.498761460022,-0.000239031609892909,0
0.21,0.00155567628362773,0.00089489759533349,-0.077700835590102,-0.0448393713483131,-0.00164885008497801,-0.000708705723727042,0.0824683926938271,0.0353122256564028,2.49876055377344,-0.000222047683049685,0
0.22,0.00155540732621085,0.000894896900903677,-0.0776907672742965,-0.0448393351519788,-0.00164868885834727,-0.000708489563817965,0.0824623560105591,0.0353041235230134,2.49875976384324,-0.000207243667190087,0
0.23,0.00155517282772528,0.000894896295558725,-0.0776819851175765,-0.0448392959530202,-0.00164854828782086,-0.00070830109884333,0.0824570843410573,0.0352970610014725,2.49875907530186,-0.000194339767667703,0
0.24,0.0015549685972265,0.000894895767875911,-0.077674335640864,-0.0448392595829735,-0.00164842586125542,-0.000708136959681587,0.0824524908108783,0.0352909106751427,2.49875847513594,-0.00018309210187057,0
0.25,0.0015547902489538,0.000894895307894935,-0.0776676484254501,-0.0448392602104354,-0.00164831894967904,-0.000707993623179736,0.0824485010117193,0.035285514720335,2.49875795200229,-0.000173288089862381,0
0.26,0.00156673599496048,0.000901478564437019,-0.0782591963426476,-0.0451691008383139,-0.00166074958294962,-0.00071360780739627,0.0830671345641034,0.0355612237985136,2.49875750427647,-0.00018171451396118,0
0.27,0.00150739577261145,0.000868350841482122,-0.0753316935640291,-0.0435092375607688,-0.00159866200350463,-0.000685970114319965,0.0799836564060489,0.0342130459951071,2.49875700710733,-9.01447290749408e-05,0
0.28,0.00147352283346747,0.000848031495254345,-0.0735375639219121,-0.0424911069284962,-0.0015620929632182,-0.000671038398273525,0.0780932367012193,0.0333873307873741,2.49875660145635,-3.5647844938742e-05,0
0.29,0.00155384952344284,0.000894675182950664,-0.0776272246295351,-0.0448282234102207,-0.00164757988440649,-0.000707370164051646,0.0824154870925418,0.0352596526514377,2.49875645870507,-0.000144701258850473,0
0.3,0.00155193535889644,0.000893653096912124,-0.0775315640018763,-0.0447769969797321,-0.00164561412311752,-0.00070645125352695,0.0823171298425091,0.0352138184466194,2.49875674833456,-0.00014733081589216,0
0.31,0.00155426607075935,0.000894888192808935,-0.0776478198520202,-0.0448388942493776,-0.00164800008939509,-0.000707575862855929,0.082436374463759,0.0352697395872093,2.49875645107402,-0.000145140811910031,0
0.32,0.001554189353425,0.000894893729387824,-0.0776450866788777,-0.0448391855960875,-0.00164795871758302,-0.000707510705459223,0.0824349784941196,0.0352673555992628,2.49875618775713,-0.000140224076731964,0
0.33,0.00155411143354911,0.00089489355444385,-0.0776421560696977,-0.0448391488671688,-0.00164791202946321,-0.000707448065107008,0.082433200384281,0.0352650130396742,2.49875595821497,-0.000135922322827113,0
0.34,0.00155404321417066,0.000894893378600727,-0.0776395835950033,-0.0448391491616615,-0.0016478711348967,-0.000707393238126827,0.0824316655582822,0.0352629373653805,2.4987557581348,-0.0001321726190571,0
0.35,0.00155398384235664,0.000894893225214768,-0.0776373428563674,-0.0448391494283808,-0.00164783554395528,-0.000707345521593514,0.0824303286690579,0.0352611293461922,2.49875558373553,-0.000128904194604039,0
0.36,0.00155393192112321,0.000894893091514291,-0.0776353782199082,-0.0448391496716987,-0.00164780441931126,-0.00070730379358798,0.082429156485841,0.0352595441783062,2.49875543172079,-0.000126055277044138,0
0.37,0.00155388675197843,0.00089489297497252,-0.0776336671323596,-0.0448391498938149,-0.00164777734225554,-0.000707267491815155,0.0824281355919152,0.0352581635718432,2.49875529921757,-0.000123572022077942,0
0.38,0.00155384783123494,0.000894892873388026,-0.0776321951941397,-0.0448391130508061,-0.0016477540108567,-0.000707236210314392,0.0824272277937578,0.0352569980015307,2.49875518372139,-0.000121407496395738,0
0.39,0.00155381337229974,0.000894892784841168,-0.077630882489537,-0.0448391132399108,-0.00164773335411794,-0.000707208516652279,0.0824264445687344,0.0352559389040088,2.49875508304967,-0.000119520790644356,0
0.4,0.00155378356997742,0.000894892707658708,-0.0776297469340583,-0.044839113414522,-0.0016477154888274,-0.000707184564615774,0.0824257670717797,0.0352550226701815,2.49875499529945,-0.000117876246241684,0
0.41,0.00155375737653006,0.000894892640382448,-0.0776287433170217,-0.0448391135777173,-0.00164769978690614,-0.000707163513737604,0.0824251682614913,0.0352542129749101,2.49875491881215,-0.000116442781435837,0
0.42,0.00155373467554235,0.000894892581741159,-0.0776278720173972,-0.0448391137298446,-0.00164768617857268,-0.000707145269218845,0.0824246484163319,0.035253510002146,2.49875485214249,-0.000115193303863209,0
0.43,0.00155371488493767,0.000894892530625901,-0.0776271093839573,-0.0448391138727633,-0.00164767431489482,-0.000707129363753757,0.0824241934040833,0.0352528947164596,2.49875479402997,-0.000114104198503243,0
0.44,0.00155369753905476,0.000894892486071531,-0.0776264368437945,-0.044839114007957,-0.00164766391672768,-0.000707115423396848,0.082423792130785,0.0352523521607186,2.49875474337654,-0.000113154881354345,0
0.45,0.00155368252147459,0.000894892447235852,-0.0776258527083327,-0.0448391112254087,-0.00164765491428509,-0.000707103353893611,0.0824234412887883,0.0352518826489309,2.49875469922485,-0.000112327410402651,0
0.46,0.00155366925012793,0.000894892413384552,-0.0776253314659394,-0.044839111347715,-0.00164764695863737,-0.000707092688421642,0.0824231302744887,0.03525146220236,2.49875466074013,-0.000111606146516977,0
0.47,0.00155365784142641,0.000894892383878363,-0.0776248820716769,-0.0448391114641327,-0.00164764011957261,-0.000707083519341252,0.082422862152069,0.0352510996735663,2.49875462719515,-0.000110977457870182,0
0.48,0.00155364782970876,0.000894892358159319,-0.0776244839819616,-0.0448391115761333,-0.00164763411794302,-0.000707075473228141,0.0824226246298122,0.0352507785663782,2.49875459795602,-0.000110429462299718,0
0.49,0.00155363921497496,0.000894892335741591,-0.0776241395726996,-0.044839111683713,-0.00164762895375082,-0.000707068549462518,0.0824224191514938,0.0352505007368959,2.49875457246993,-0.000109951802735117,0
0.5,0.00155363153156373,0.00089489231620115,-0.0776238276264018,-0.0448391117883452,-0.00164762434784769,-0.000707062374790499,0.0824222330160452,0.0352502491620954,2.4987545502551,-0.000109535451451019,0
0.51,3.60969407811803,-0.0254321346726486,5.7886307541055,1.28186764663158,-0.310909305957398,3.5963694936065,0.819921386189135,5.87189574084269,0.0791910761951052,24.1501267580426,710.319900191152
0.52,3.40613597269124,-0.0985592344408197,12.5746308071459,4.95633239865338,-1.2738010083935,3.16052324436486,0.287383577696358,13.5131040646194,0.354192167173348,50.8233454119938,710.319900191152
0.53,3.35167616423872,-0.0212481874434525,11.5637814758351,1.09389684421316,-2.48032853084805,2.25436354088172,-7.76698633873594,8.6366414502708,0.826747874800542,78.4865420069894,710.319900191152
0.54,3.24196931718135,-0.0231372785294388,13.0254125681954,1.18015374467685,-3.23667344419181,0.186669233851104,-12.9217636201714,2.02043568994201,1.50605029225666,106.116706118126,710.319900191152
0.55,3.1065087655581,0.0907089440165737,16.4769047380292,-4.49990312164115,-2.22100331247693,-2.17388341660274,-8.19362403211385,-14.9867288982823,2.37466472175607,130.867572544369,710.319900191152
0.56,3.12291610161885,-0.015260361212003,11.8304889073432,0.795549532538407,0.905404850581555,-2.98882584185128,2.61202111139776,-11.5659289535733,-2.85233654299549,156.911947758783,710.319900191152
0.57,2.96017182465986,0.0290119978916008,16.580347423009,-1.41712881161872,2.9559483272245,-0.160712209587272,16.6269852026595,0.67789217943908,-1.61531146831526,181.11903990469,710.319900191152
0.58,2.88461567247881,-0.0258068004496323,16.8920477973027,1.36003389242763,0.547088038526764,2.8323785493752,4.68480620758865,16.2862998183212,-0.199751353489406,204.60964863179,710.319900191152
0.59,2.79240031761779,0.0455106177009567,18.0027082622307,-2.21687387804,-2.73748098222538,0.552963490756687,-18.1055091828624,1.09661834537412,1.38777770779223,227.872395347422,710.319900191152
0.6,2.69053458879866,0.042785803570369,19.6473706432187,-2.0811965931448,-0.0397852264975868,-2.69058063143658,2.10310653076073,-19.6450374235225,-3.14047742871949,250.564768322075,710.319900191152
0.61,2.65164016694774,0.0422043980685732,18.2396007529388,-2.0439926962681,2.5068746445002,0.865191483400609,16.4472436083696,8.14549688207834,-1.22255381178036,272.433385883587,710.319900191152
0.62,2.62289356481018,-0.0341613210832701,16.3779429322759,1.79827848789191,-1.99944594614811,1.69792625181799,-11.163047163793,12.1184651764088,0.85374427870871,293.71783230443,710.319900191152
0.63,2.42233739898969,-0.0317298972249846,23.1344645849141,1.68217886120698,-0.107204973150241,-2.42017196799192,-3.00580680801002,-22.9999631039847,3.08422703711902,314.564566835289,710.319900191152
0.64,2.43099599819267,0.0587157491025367,19.3969797270932,-2.90782062488167,1.81483752860373,1.61850357651535,12.1732263660431,15.3789077362739,-0.818372204793695,334.92811859406,710.319900191152
0.65,2.34952667845886,0.0836663083035152,20.2892873241241,-4.1139679371521,-2.3389615790686,-0.237769627109915,-19.5379928724408,-6.84446833766007,1.70769919226615,354.286451057072,710.319900191152
0.66,2.29851691996786,0.119858263625917,19.7240055124481,-5.95667584095577,2.12927358796193,-0.873922206117726,20.5838331392857,-0.907851212123145,-1.90816468392594,373.412084716047,710.319900191152
0.67,2.16278075562694,0.00871131163546657,23.3341069471916,-0.363931851915438,-1.68511278970935,1.35576228366871,-18.4661858869413,14.2693017420176,0.897313227938162,391.882233476437,710.319900191152
0.68,2.08637825757041,0.0504830848692317,24.1331839379094,-2.50421630024112,1.2958680226032,-1.63592446143302,17.3629493763466,-16.9472609944435,-2.44747595868467,409.866820633749,710.319900191152
0.69,2.03778641002812,0.0364938478597692,23.5312209115013,-1.72118805450058,-1.15506781971138,1.67920325919589,-15.0813423025665,18.1448053243249,0.620442894049746,427.127086445638,710.319900191152
0.7,1.98466803300576,0.088757090465351,23.1555144712077,-4.37920408513271,1.16760534931521,-1.60732161392589,17.856991021872,-15.3780086646592,-2.46865670294816,444.159241334629,710.319900191152
0.71,1.91603390609711,0.0843332983095104,23.6685396530872,-4.19293152583453,-1.37996226472112,1.33191673255623,-20.5127116750867,12.5303273630364,0.847099127485352,460.576967059215,710.319900191152
0.72,1.71435065889417,0.0169614937948411,30.8903632595141,-0.835538779464148,1.55017698819131,-0.732282171846864,28.4093577242178,-12.1581684909427,-2.00221634693107,476.424035951037,710.319900191152
0.73,1.62827815639261,-0.0562794332236269,32.366318194746,2.83363839086931,-1.62917382327496,-0.0158045165989347,-32.285918825758,3.63696378732589,1.54594694506225,491.690924262502,710.319900191152
0.74,1.66153288505087,0.0622928050070518,27.9079214700586,-3.08083583002351,1.49357048337574,0.730629271826606,23.1355614133069,15.9087846261623,-1.07836609879443,506.589521429309,710.319900191152
0.75,1.53156449056101,0.00762984690967904,31.6386454733077,-0.372834061888154,-0.67763568178828,-1.3735202532466,-13.5215459055499,-28.6061302686586,2.68825533371174,521.063057817393,710.319900191152
0.76,1.56231937650703,0.0441952618810908,27.3884498409559,-2.20595611254972,-0.38280522075975,1.51533996790857,-9.57895868844216,25.7533876898976,0.275723740569397,535.010901490693,710.319900191152
0.77,1.48564586916035,0.0624940854351818,28.5503671927074,-3.11365033432246,1.29944682808537,-0.722832691738867,26.9091734333447,-10.0356699017568,-2.036393903254,548.498709142516,710.319900191152
0.78,1.44878446487051,0.0400960105021007,27.7739852747442,-1.95443678239309,-1.31532770621705,-0.608684763211715,-24.0039847653897,-14.1075439592091,2.03188154292307,561.519621507125,710.319900191152
0.79,1.37440547948676,0.00680510636840503,28.9322010373124,-0.237595732800236,0.128918756790801,1.36836277560573,2.33448926531201,28.8388430500575,-0.0889853241921218,574.066737534192,710.319900191152
0.8,1.19418131096508,-0.0102899670611111,35.426889464659,0.552555218049742,1.02463657030062,-0.613428712796337,29.9501764575009,-18.930312849362,-2.11886070526527,586.314997928387,710.319900191152
0.81,1.25691971920997,-0.0397404313330837,29.8003554124793,2.01202980897528,-0.97548980990438,-0.793628447823114,-24.9189690408356,-16.4667673999534,2.22214978083874,598.070563152174,710.319900191152
0.82,1.24943656038309,0.0690531942689809,27.7709004322295,-3.35383840041562,1.01917810964098,-0.726041350674549,25.2654136292123,-12.0054161517925,-2.13457099540986,609.289691038024,710.319900191152
0.83,1.15266893180178,0.000415481428275882,30.2266058917722,-0.0314984215478517,-0.802185182738158,-0.827734722940401,-21.005365679347,-21.7353009770739,2.37222899292033,620.326467244,710.319900191152
0.84,1.15320713107288,0.0375915849516151,27.8525936620191,-1.79730104364417,-0.690987879912713,0.92403223116418,-18.8014762157753,20.6276939295373,0.674675133931427,630.798925126948,710.319900191152
0.85,0.956503545421934,-0.0357175071188923,35.4134339078004,1.76739533539466,0.755601047516455,0.587572829282936,29.7796288148318,19.2460046519936,-0.947173939465954,640.982424377461,710.319900191152
0.86,0.986587569455484,0.0405140502311364,31.6533047666049,-1.93646147188957,0.561273537639296,-0.812384414188308,20.5925851896989,-24.1169446838665,-2.49596082521407,650.713200702674,710.319900191152
0.87,0.918624369607432,-0.0400579323014596,32.8661265510985,1.99964752543762,-0.652897663822016,-0.647456570707776,-25.6677855813829,-20.6239096208009,2.30843137327169,660.117271401944,710.319900191152
0.88,0.794675586252999,0.0261982758783197,36.9303584064903,-1.21015532025996,-0.604664062154905,0.516310961518224,-29.614827668931,22.0970095277733,0.897008960262264,669.071724906644,710.319900191152
0.89,0.851188447029225,0.0896463804520528,31.996346142575,-4.43042506136732,0.450814931360902,0.727546660734721,9.92183757993665,30.7400711082005,-0.449801334333488,677.748751238247,710.319900191152
0.9,0.696827596699938,-0.0385960109644438,37.6568933540746,1.9100785587108,0.693830866596856,-0.0752135635536247,36.8452741932531,-8.0072334051525,-1.73410962266313,686.1138030321,710.319900191152
0.91,0.566802671267547,0.0213180788914068,42.164144572223,-1.05540466752105,0.0820653602760354,-0.56123524950453,8.70204206344575,-41.2698852729877,-2.95880547913298,694.057345615447,710.319900191152
0.92,0.6877110285807,0.0109577354770785,34.1511936714261,-0.455564321096855,-0.579034211794084,-0.371195248313222,-28.2015142319056,-19.266192230473,2.15679290931629,701.665647911806,710.319900191152
0.93,0.663791850746996,0.0708248826360984,33.414743593358,-3.50438226084885,-0.538210462345638,0.394924402057197,-30.6471147908712,13.7688103856208,1.04405680204306,709.023435341883,710.319900191152
0.94,0.631455226907974,-0.0696015951484522,33.1572387713092,3.47878686725237,-0.0595357106121503,0.632483663661376,4.00643407861615,33.0976272107092,-0.0159274658200812,716.081653093236,710.319900191152
0.95,0.534589253472769,-0.00133174390772384,36.1798071585603,0.020829069785021,0.45642208603263,0.278327725625799,30.9471607016602,18.7417214894038,-1.02569078079336,722.759849385565,710.319900191152
0.96,0.516652701569214,0.0250708245096723,35.2922019196576,-1.30885997090704,0.462295440739779,-0.23203768174927,32.8020003378499,-13.0874521812698,-1.98749536962499,729.164381049554,710.319900191152
0.97,0.340879817472904,0.0798896264389063,42.3374161652595,-3.95018199052314,-0.212046528480529,0.27859948336683,-35.1667477166777,23.9031504270917,0.880785721433784,735.244068902267,710.319900191152
0.98,0.453227894660198,0.00388097823106229,35.0209281986427,-0.101296804375083,2.93914780903092e-05,0.45324450975857,-0.398894501935735,35.0188028937796,0.00849791688257022,741.068233583498,710.319900191152
