t,iq,id,vq,vd,ia,ib,va,vb,theta_e,omega,r
0,0,0,0,0,0,0,0,0,0,0,0
0.01,0.000492731283533992,0.000271495239719143,-0.0239433695884345,-0.013587038460166,0.000560860408708954,4.39247641545791e-05,-0.0274706076749883,-0.00180506934306526,-0.989027997542217,-0.00312965419029593,0
0.02,0.000560610444367596,0.000308237629665853,-0.0273840265127557,-0.015425813879732,0.000637764104930289,5.05119108579771e-05,-0.0313557105630097,-0.00215871651501626,-0.989050922406621,-0.00313772320947509,0
0.03,0.000584517825254253,0.00032271791276085,-0.0286217107994019,-0.0161504825487057,0.000665696618514239,5.15359229604841e-05,-0.0327880430620547,-0.0022326324824057,-0.989072466879337,-0.0028638167741026,0
0.04,0.000567740805975066,0.000315502196747685,-0.0278898496602653,-0.0157893748367389,0.000647715226975951,4.83347045643746e-05,-0.0319781832477957,-0.00213163504794787,-0.989090504993649,-0.002374814218203,0
0.05,0.000579144496565787,0.000323333117529212,-0.0285035179178607,-0.0161812795988477,0.000661546778693546,4.80469811100621e-05,-0.0327062855797794,-0.0021408471976776,-0.989106435183332,-0.00212800899038333,0
0.06,0.000577804488489493,0.000323998790148892,-0.0284961059265489,-0.016214584395478,0.000660793545869748,4.67454026983989e-05,-0.0327184206301993,-0.00210849509378613,-0.989120260700459,-0.00183450267538174,0
0.07,0.000588711423388515,0.000331517435554737,-0.029067790046005,-0.0165908616581898,0.000674038227455486,4.64480143126398e-05,-0.0334028477872816,-0.00210781128650547,-0.989131805114473,-0.00167429770414565,0
0.08,0.000574842004632228,0.000324693677245277,-0.0284438103747878,-0.0162493612005362,0.000658701025321658,4.45227309680673e-05,-0.0326938775263618,-0.00204999033013132,-0.989142122877265,-0.00136443197880047,0
0.09,0.000571925878931272,0.000324111330533426,-0.0283389866991814,-0.016220216763945,0.000655944868670519,4.34015533854587e-05,-0.0325902967107734,-0.00201647199571388,-0.989150691869595,-0.00116779911887478,0
0.1,0.000570332848508787,0.000324060902779982,-0.0282924006866699,-0.0162176990618225,0.000654586401272658,4.25637177374701e-05,-0.0325500025861711,-0.00199274461865286,-0.989157964553483,-0.00100713779464128,0
0.11,0.000569065898785871,0.000324055915123133,-0.0282570150885615,-0.0162174465872617,0.00065352530304122,4.18677868073226e-05,-0.0325203091706158,-0.00197331370375763,-0.989164153034814,-0.000871052244412129,0
0.12,0.000567996234898604,0.000324054901175716,-0.0282273131962755,-0.0162174024693568,0.000652631187513589,4.12775352897445e-05,-0.0324954773180096,-0.00195686151999854,-0.989169420550418,-0.000755281358705001,0
0.13,0.00059358438480847,0.000338720565251512,-0.0294778728807361,-0.0169513391474047,0.000682069177757802,4.30776039903556e-05,-0.0339436308473973,-0.0020304712159475,-0.989174500054253,-0.000831512835523657,0
0.14,0.000612226600981344,0.000350155532958957,-0.0304804125598612,-0.0175236062184874,0.000703928440013571,4.37613933850568e-05,-0.0350957269831977,-0.00210291993209527,-0.989178932922932,-0.000872008388398536,0
0.15,0.000569892410750826,0.000326277125072859,-0.0283737096372279,-0.0163286028736394,0.000655436972350572,4.04536457332802e-05,-0.0326789196026875,-0.00194393517994518,-0.989182838790611,-0.000492982123588255,0
0.16,0.000565215095174298,0.000324242359851252,-0.0281595244263133,-0.0162267752395143,0.000650410970496628,3.95825869851158e-05,-0.0324440148728074,-0.00191126908699416,-0.989185409896692,-0.000407147537921721,0
0.17,0.00056437076643807,0.000324068757503165,-0.02812764731098,-0.0162180868853726,0.000649610178278513,3.9262423212255e-05,-0.0324126099227508,-0.00190094804452236,-0.989187523069603,-0.000357772834125385,0
0.18,0.000563965911631411,0.000324053765141109,-0.0281155620954477,-0.0162173351305915,0.000649263723350508,3.90513729004793e-05,-0.0324021021629874,-0.00189487891439517,-0.989189314292215,-0.000318114151296921,0
0.19,0.000563652463327177,0.000324052316546286,-0.0281067672062522,-0.0162172718048745,0.000649001075378476,3.88793959751199e-05,-0.0323947214129717,-0.00189005083412629,-0.989190838253948,-0.000284593149858873,0
0.2,0.000563389053706574,0.000324052047342234,-0.0280994424423556,-0.0162172531516344,0.000648780877465624,3.87340710230286e-05,-0.0323885931730936,-0.00188600043035139,-0.989192135397662,-0.000256083279420047,0
0.21,0.000563164954211074,0.000324051900284057,-0.0280932106584676,-0.0162172522233748,0.000648593585705713,3.86103653268903e-05,-0.0323833875725728,-0.00188254192572877,-0.989193239538606,-0.000231817616067693,0
0.22,0.000562974420586334,0.000324051782078135,-0.0280879150509355,-0.0162172392612868,0.000648434350291019,3.85051823161184e-05,-0.0323789572983868,-0.00187961310796571,-0.989194179399311,-0.000211162551205318,0
0.23,0.00056281213762784,0.000324051682037734,-0.0280834003364533,-0.0162172396687593,0.000648298725093635,3.84155949409945e-05,-0.0323751866027708,-0.00187710664781074,-0.989194979423079,-0.000193580669165524,0
0.24,0.000562673952639769,0.000324051596919084,-0.0280795528524699,-0.016217238572404,0.000648183239276326,3.83393109786659e-05,-0.0323719723812621,-0.00187497185464849,-0.989195660415477,-0.000178614705780908,0
0.25,0.000562556469629286,0.000324051524459808,-0.0280762828003854,-0.0162172254773799,0.000648085054688723,3.82744551314105e-05,-0.0323692338687498,-0.00187316759036096,-0.989196240086321,-0.000165875450055566,0
0.26,0.000568077011748688,0.000327172167583726,-0.0283431931900599,-0.0163734018540163,0.00065441231215701,3.86994084718118e-05,-0.032678058164659,-0.00188928639155756,-0.989196636081768,-0.000196701492231599,0
0.27,0.000552694871222347,0.000318397106196467,-0.0276070452497211,-0.0159342558410082,0.000636738576268581,3.75808914374199e-05,-0.0318216955968906,-0.00185179533579912,-0.98919737885712,-7.28801186846431e-05,0
0.28,0.000552260805378134,0.000318120195034162,-0.0275034361543374,-0.0159204001442083,0.0006362237661438,3.75735949740968e-05,-0.0317275102091088,-0.00180644318436009,-0.98919772567071,-6.2691310829368e-05,0
0.29,0.000561236764885368,0.000323545981578986,-0.0280193064361332,-0.016191936407567,0.000646704663602872,3.79708642145511e-05,-0.0323077353831116,-0.00186294718214714,-0.989197816753265,-0.000124169128818055,0
0.3,0.000555934926474375,0.000320854157749901,-0.0277615169442726,-0.0160572191651372,0.000640795715519311,3.7307961503704e-05,-0.0320183205584763,-0.0018339190219417,-0.989197086618852,-0.000101750984810513,0
0.31,0.000561688640478132,0.00032377897394343,-0.0280390324166839,-0.0162035936921615,0.000647210222846009,3.8024732131225e-05,-0.0323306212831963,-0.00186405870268049,-0.989197337083476,-0.000137213157732963,0
0.32,0.000562204719785146,0.000324028137281332,-0.028065131610073,-0.0162160641517037,0.000647778343815003,3.809984229621e-05,-0.0323592807611587,-0.00186796613550475,-0.989197655585536,-0.000134311771435437,0
0.33,0.000562205864855165,0.000324049334705124,-0.0280663338325789,-0.016217114484285,0.000647790956371368,3.80825766440003e-05,-0.0323608628580594,-0.00186773983200044,-0.989197937233586,-0.000128532054838554,0
0.34,0.000562162791260667,0.00032405111365997,-0.0280652422607603,-0.0162172048678061,0.000647755951146076,3.8057271277555e-05,-0.0323600008590322,-0.00186705685049839,-0.989198178030441,-0.000123281142800268,0
0.35,0.000562121754865769,0.000324051242149626,-0.0280641013701938,-0.0162172123078633,0.000647721740105964,3.80344873264971e-05,-0.0323590520171503,-0.00186641723796926,-0.989198383105967,-0.000118778360772578,0
0.36,0.000562086364607964,0.00032405123344922,-0.028063106003966,-0.0162172124608709,0.000647692170363343,3.80149395393435e-05,-0.0323582207129818,-0.00186586464697,-0.989198557679842,-0.000114942210280105,0
0.37,0.000562056213039637,0.000324051215982583,-0.0280622553710293,-0.0162172126031057,0.000647666972187088,3.79982938335152e-05,-0.0323575102913742,-0.00186539241630371,-0.989198706280667,-0.000111676489043037,0
0.38,0.000562030601668856,0.000324051200257104,-0.0280615318826643,-0.0162172127359643,0.000647645567848714,3.79841551998057e-05,-0.032356906063483,-0.00186499075714747,-0.989198832772126,-0.00010889662422626,0
0.39,0.000562008715588372,0.000324051186798056,-0.0280609096527657,-0.0162172128611285,0.000647627276838335,3.79720733893054e-05,-0.0323563864063467,-0.00186464534081331,-0.989198940443437,-0.000106530357639164,0
0.4,0.000561990147344556,0.000324051175335069,-0.028060380958844,-0.0162172129794418,0.000647611758652431,3.79618229738934e-05,-0.0323559448728811,-0.00186435183350956,-0.989199032094969,-0.000104516155151507,0
0.41,0.000561974314860801,0.000324051165576892,-0.0280599274517837,-0.0162172130921013,0.000647598526847224,3.79530828828734e-05,-0.0323555661359458,-0.00186410007682573,-0.989199110109964,-0.000102801635285231,0
0.42,0.000561960868891142,0.000324051157270309,-0.0280595408295151,-0.0162172131998271,0.000647587289536176,3.79456601511069e-05,-0.0323552432626431,-0.00186388544365236,-0.989199176517746,-0.00010134220985946,0
0.43,0.000561949343774291,0.000324051150199679,-0.0280592056315137,-0.0162172133035827,0.000647577657566629,3.79392980247318e-05,-0.0323549633381315,-0.00186369938392414,-0.989199233044704,-0.000100099924710503,0
0.44,0.000561939564887265,0.000324051144180871,-0.0280589197420341,-0.0162172134037241,0.000647569484980998,3.79338997740263e-05,-0.0323547245974692,-0.00186354068744417,-0.989199281161407,-9.90424726734566e-05,0
0.45,0.000561931299399423,0.000324051139057633,-0.0280586771987351,-0.016217213500741,0.000647562577191056,3.79293368113858e-05,-0.0323545220612134,-0.00186340603784837,-0.989199322118891,-9.81423533931354e-05,0
0.46,0.000561924198064797,0.000324051134696572,-0.0280584653470335,-0.0162172135953564,0.000647556642338951,3.79254166965211e-05,-0.0323543451577547,-0.00186328844813831,-0.989199356982724,-9.7376158154631e-05,0
0.47,0.000561918144468068,0.000324051130984347,-0.0280582824453653,-0.0162172136878105,0.000647551583121862,3.79220749833343e-05,-0.0323541924336902,-0.00186318693204526,-0.989199386659071,-9.67239610973586e-05,0
0.48,0.000561913080401572,0.000324051127824431,-0.0280581290649106,-0.0162172137782208,0.00064754735087861,3.7919279275371e-05,-0.0323540643677965,-0.0018631017782649,-0.989199411920155,-9.61688010292349e-05,0
0.49,0.000561908714827008,0.000324051125134557,-0.0280579936284557,-0.0162172138671867,0.000647543702401326,3.79168693314082e-05,-0.0323539512878661,-0.00186302660499472,-0.989199433422828,-9.56962403242807e-05,0
0.5,0.000561904989536712,0.000324051122845052,-0.02805787576192,-0.0162172139548274,0.000647540589035439,3.79148128708058e-05,-0.0323538528824304,-0.00186296118854743,-0.98919945172594,-9.52939894554181e-05,0
0.51,2.67314766780968,0.0355945736352088,1.27791810465913,-1.77770964825034,-0.330410602848893,2.65288790963991,-1.93580984993295,1.02272503665477,0.137224264652876,41.8401155834256,658.573543113117
0.52,2.48120254087205,0.0175526026708267,2.54017576721581,-0.870664275325352,-1.40378374221961,2.04598762160731,-2.16631909992515,1.58669807020042,0.6084206886875,86.2902782960532,658.573543113117
0.53,2.30048092023668,-0.0166496615947233,3.54892909427714,0.845573184271152,-2.26917136221429,0.378617226907013,-3.35102283986696,1.44240689573198,1.39822936655303,129.019976352813,658.573543113117
0.54,2.12927541742416,-0.015039700292278,3.96448678565147,0.762246983005163,-1.26014393601631,-1.71641406902677,-2.97994230478712,-2.72362255036296,2.50123518586599,172.038245093328,658.573543113117
0.55,1.99433025936053,0.0197528917562173,3.2239550575992,-0.97827329456772,1.37060587444485,-1.44885571989451,2.94262051058208,-1.64069783415031,-2.37403663861972,210.785037327381,658.573543113117
0.56,1.83968712146936,0.0214757662768038,4.63033190265209,-1.05698286772719,1.2082587783439,1.38745112994739,2.19476072106223,4.21191306755837,-0.704800405310304,244.248541355487,658.573543113117
0.57,1.71356705079825,-0.0333328699292099,4.53307943326248,1.67722879638094,-1.61416342262045,0.576107249453911,-3.644467849622,3.17486372569727,1.20853113938506,278.121144186988,658.573543113117
0.58,1.58347910648944,-0.00779084730864343,5.23726397473935,0.406062378363978,0.351923491201115,-1.54389657501116,0.742468642578137,-5.2002462356136,-2.92239694278988,308.123011006521,658.573543113117
0.59,1.47215013254176,0.0209497252188054,5.44171568078364,-1.03641604411487,0.800998630275204,1.23534047858342,2.01772943523197,5.15899173222673,-0.561022081519676,336.612575077045,658.573543113117
0.6,1.36392197066271,0.037252290496126,5.76418782520906,-1.84701269939432,-1.25240871694414,-0.541427078124102,-4.44757962346707,-4.10564887550467,2.00614695196572,362.787113948238,658.573543113117
0.61,1.2760680085761,0.011399853940973,5.40603473013313,-0.563957358607807,1.275350294766,0.0442848147961547,5.3762820661197,0.799281271676719,-1.52715328342262,387.794500942211,658.573543113117
0.62,1.19102538175607,0.0184346520260091,5.38768510880628,-0.899525524209678,-1.17015687974544,0.222742391939513,-5.46211990068673,0.0392834682744955,1.39817082955532,409.945817528292,658.573543113117
0.63,1.1292816822434,0.0127404630164418,4.27636959381653,-0.626390803773938,1.09723639799755,-0.267416761175741,4.30736136656766,-0.355443947439688,-1.79857282794513,431.653924674489,658.573543113117
0.64,1.01937863002788,-0.030870078496605,6.03728410210018,1.54900507539942,-1.01430825184736,0.106134458769272,-5.77497009023509,2.34476790108848,1.43626446638674,451.255159338304,658.573543113117
0.65,0.95669656670042,0.0341386737377033,5.67997110325212,-1.68508118402307,0.955395798907934,0.0604370516323395,5.48595923962035,2.23736933735846,-1.4719530761042,469.185715167828,658.573543113117
0.66,0.899904985893456,-0.0214513258930409,5.15516174836847,1.08790800715275,-0.796040905264133,-0.420247570087835,-5.09976199596097,-1.3235044648284,2.03269846732089,486.451194282156,658.573543113117
0.67,0.809967458825747,0.0152123021469769,6.55341491289984,-0.757858862380028,0.487027590503589,0.647366066906135,3.22673270432004,5.75411097657818,-0.626206224873616,502.458097871256,658.573543113117
0.68,0.738904952813337,0.0132514222738113,7.28852955108786,-0.663320323782208,-0.0366904152100972,-0.738112418887577,0.431719193639844,-7.3059068846288,3.10985704080841,517.098223335458,658.573543113117
0.69,0.688728632181356,-0.00604881777404453,7.16192136354293,0.325641452074422,-0.43090791319968,0.537310047667789,-4.17567517202168,5.82776945585903,0.667160205265825,530.486877177957,658.573543113117
0.7,0.652605972932459,0.0422740715199676,6.48883478914534,-2.09648799976507,0.64415646802068,-0.112889759221639,6.6781197480747,1.37947652548223,-1.67959961786862,543.098965515519,658.573543113117
0.71,0.618180710101492,0.000610109691353888,5.86219232060493,-0.018337047714877,-0.441915684341645,-0.43227108451558,-4.17379033541853,-4.1164437670209,2.34614922775861,555.004978285183,658.573543113117
0.72,0.541681039128202,-0.00842615940015269,7.53107109435708,0.425787901214768,-0.10087006895995,0.532273029094336,-0.867459913413163,7.49305281335337,0.171732856883793,565.933850886154,658.573543113117
0.73,0.489932600199059,0.0155588734691427,8.12381828999781,-0.780813992342605,0.453916660780224,-0.185028906789103,7.88800768208344,-2.09414156802581,-1.92611427704671,576.051569623483,658.573543113117
0.74,0.489711535459364,-0.0196465298334279,6.28622283271695,0.978295517876193,-0.341520918116476,-0.35152074844217,-5.23143074184857,-3.62019226231292,2.33052531711927,585.429127165028,658.573543113117
0.75,0.445318997294551,-0.00629541743178852,6.76478121809954,0.308772156656714,-0.167139637182761,0.412811074602511,-2.16204165778311,6.41741233235712,0.370571686432037,594.179575855455,658.573543113117
0.76,0.400438581567077,0.00137574632918205,7.37505819240393,-0.0647923593314359,0.400118682374881,0.016062076453687,7.36524187984866,0.38586713062336,-1.52723900365889,602.260065304936,658.573543113117
0.77,0.391556160610928,0.00606124412361295,6.30439969681968,-0.283741658399344,-0.0937198955283038,-0.380223022415609,-1.13735337644071,-6.20744650907845,2.91540205342655,609.808762915972,658.573543113117
0.78,0.335025453064268,0.0267807668307058,7.71614144425935,-1.32118623407135,-0.291290937128094,0.167656952197025,-7.53870209992481,2.11005746402929,1.12830422477842,616.753692952389,658.573543113117
0.79,0.347674389421058,0.000112417926833419,5.77060433665166,0.0137565337099424,0.199173131804103,0.284969397066494,3.31556942496094,4.72303536305487,-0.609682893135296,623.198941410827,658.573543113117
0.8,0.30933850912925,0.0105249111524514,6.47250542275691,-0.508560106292777,0.223165721500558,-0.21447178773025,5.15628070335898,-3.94521598109634,-2.3023206900534,629.139083911921,658.573543113117
0.81,0.276608057105427,0.00379903953384278,6.96980964224882,-0.173114798229657,-0.203244753198228,-0.187664648387517,-4.93617049685922,-4.92366083402252,2.33009303776594,634.645132717646,658.573543113117
0.82,0.257987662814138,-0.00412539988432642,6.83076504161726,0.222671753462026,-0.172906244104291,0.191515231347938,-4.32817892922195,5.28921552975576,0.718388691217581,639.808993477768,658.573543113117
0.83,0.253422811248804,-0.000807295317394277,6.06488504418964,0.0562441535661253,0.191046895289108,0.166507828006281,4.62157836693075,3.92772292841071,-0.857106513273178,644.529189340185,658.573543113117
0.84,0.231657148148931,-0.0131468491961736,6.23625752164247,0.67330577169061,0.16629836427629,-0.161810778291537,3.71986825467757,-5.05042856659475,-2.39920874141013,648.89988781574,658.573543113117
0.85,0.203536877446704,-0.000941467016419104,6.80395787214722,0.0619854791897482,-0.140933622809419,-0.146853194731031,-4.77834655628202,-4.84407773612813,2.37213538257589,652.843995498868,658.573543113117
0.86,0.208930779633156,0.0366672705592026,5.73040920326718,-1.81988886503358,-0.139050383059278,0.160192229460259,-5.59531194766855,2.20047025115997,0.88859456782285,656.600353809011,658.573543113117
0.87,0.192486611049391,0.00476461147159708,5.81865902466868,-0.223007718673151,0.107679322276835,0.159621303433334,2.94576626776984,5.02284644236865,-0.568721717795326,659.983660936864,658.573543113117
0.88,0.172470017176474,0.0220880663215584,6.12909999467631,-1.08989321084898,0.147437003370392,-0.0921743973988317,6.02336643720479,-1.57251095988253,-2.00214811108724,663.146883269802,658.573543113117
0.89,0.116547917547756,0.0279747468443221,8.28611418665269,-1.38511278303079,-0.0582380039589695,-0.104758476700444,-0.890361949282033,-8.35377048614773,2.86978212442141,666.042899906148,658.573543113117
0.9,0.143468288223164,0.0427855040207831,6.3419617615227,-2.12523343493537,-0.138935770890296,0.0557727590057764,-6.51025175568368,-1.53418324042497,1.47888468090306,668.711513152878,658.573543113117
0.91,0.0859490399182659,-0.0100964248512831,8.66044684894709,0.520609706362325,-0.0191890963055279,0.0843857442974016,-0.404331346140676,8.66665392480422,0.106661121014739,671.180880467061,658.573543113117
0.92,0.102388602399589,-0.00320977769612929,7.32970570282818,0.1763758615436,0.0960998170184507,0.0354761010149083,7.00815914385714,2.15439076051183,-1.24849515588049,673.419504503596,658.573543113117
0.93,0.099000234944496,-0.00267769412162486,7.0109708739846,0.149343207473618,0.0543589289922974,-0.082784801767503,3.56130152972359,-6.04095583528528,-2.58761196142278,675.520002329759,658.573543113117
0.94,0.0579779856603585,-0.0230300511044336,8.60253841200519,1.16156897387145,-0.0238397323349268,-0.0576497808955473,-6.82361811011067,-5.36573811310757,2.37137179793058,677.433241530536,658.573543113117
0.95,0.0663677623691069,-0.00863971155150701,7.76948441065321,0.426318688253935,-0.0621278051116764,0.0248889599939619,-6.57064475632551,4.16812465234786,1.06031367035577,679.161847480674,658.573543113117
0.96,0.0720042300672186,-0.0391090971597602,7.09758388169348,1.94203191034178,-0.0209872916511859,0.0792064657548396,3.56416383615595,6.43769532111445,-0.238551721162615,680.759889021703,658.573543113117
