t,iq,id,vq,vd,ia,ib,va,vb,theta_e,omega,r
0,0,0,0,0,0,0,0,0,0,0,0
0.01,0.000377949708586071,0.000212028160486316,-0.0181124880303532,-0.0106046964562048,0.000409412099190703,0.000142069194745972,-0.0199521862102346,-0.00651399071307698,-0.725543649315194,-0.00258130974865412,0
0.02,0.000506967676282724,0.000280647505430323,-0.0243528663135471,-0.0140367310206687,0.000546361995660201,0.000193048742026386,-0.026660774177189,-0.00890477600532604,-0.725565547700144,-0.00329054483186569,0
0.03,0.000564269008545765,0.000310812550702367,-0.0271330847018312,-0.0155454427015084,0.000606957325618782,0.000215885989719175,-0.029634562558999,-0.00998287414322163,-0.725590249475262,-0.00346179911536246,0
0.04,0.000566899515453781,0.000311834101897493,-0.0273143247362843,-0.0155965391517816,0.000609472347975661,0.000217161287482328,-0.0297932986309922,-0.0100838348854376,-0.725614413373817,-0.00324861669935685,0
0.05,0.000581030801240595,0.000320261040733225,-0.0280395458975416,-0.0160180125025863,0.000625159057586533,0.000222126267963368,-0.0305900917216011,-0.0103459725080528,-0.725637516255288,-0.00312757542519502,0
0.06,0.000584355084206913,0.000322813438493433,-0.0282485045635771,-0.0161456746226429,0.000629279368294013,0.000222905489277204,-0.0308244886794389,-0.0104168957348068,-0.725659436108211,-0.00294087597362797,0
0.07,0.000589932305540458,0.000326943254519659,-0.028560574783628,-0.0163522235802891,0.000636074472948127,0.000224324055018515,-0.031186311727603,-0.0105126404304409,-0.725679679396822,-0.00278632199705004,0
0.08,0.000584952303587948,0.000324835724891901,-0.028368734124165,-0.0162468162363597,0.000631197263942639,0.000221985268948686,-0.0309803489885443,-0.0104384907996131,-0.725698932373992,-0.00256604056180643,0
0.09,0.000582295486514249,0.00032419563519177,-0.0282838122765532,-0.0162148078802056,0.000628959150230734,0.000220411503405095,-0.0309002311589848,-0.0103956599506037,-0.725716695603838,-0.00237661372195107,0
0.1,0.000580471984001865,0.000324000396722063,-0.0282354205594263,-0.0162050419697469,0.000627606504856494,0.000219166731847995,-0.0308609802946319,-0.0103654355751831,-0.725733142630098,-0.00220575775180555,0
0.11,0.00057898960305869,0.000323940073207417,-0.0282004433964447,-0.0162020304992991,0.00062658087490714,0.000218088373555972,-0.0308356715660537,-0.0103408007004666,-0.725748390115217,-0.00204884683289499,0
0.12,0.00057768277796355,0.000323920721941467,-0.0281712321158508,-0.0162010617951463,0.000625702136698716,0.000217114859439484,-0.0308157055126097,-0.0103191577163745,-0.725762531807132,-0.00190380051296579,0
0.13,0.000594999715365126,0.000334368777882366,-0.0290253983868598,-0.0167236224568475,0.000645013579081287,0.000223124681978208,-0.0317736358752414,-0.010610813487319,-0.7257760158207,-0.00189778381555697,0
0.14,0.000604495362616307,0.000340347071536809,-0.0295668716119626,-0.0170226353879868,0.000655790572364316,0.000226250961824221,-0.032356816456721,-0.01081695156949,-0.72578886798233,-0.00184209632853335,0
0.15,0.000583749341300227,0.000328890481748459,-0.0285488292189292,-0.0164496162515828,0.000633454289807643,0.000218329808266021,-0.0312526371368886,-0.0104354298706808,-0.725800959380842,-0.00157819776074981,0
0.16,0.000576374339553345,0.000325417386451937,-0.0282230928048997,-0.0162759144266068,0.000625963766430564,0.0002151121052308,-0.0309066206686147,-0.0103067529679608,-0.725811585387045,-0.00142365181606933,0
0.17,0.000573409568390391,0.000324364018856861,-0.0281046742336004,-0.0162232295868559,0.000623210107649377,0.000213587714005934,-0.0307887140942408,-0.0102528521118632,-0.725821250063142,-0.00130976128422306,0
0.18,0.000571925407230597,0.00032404408512662,-0.0280548342260378,-0.0162072259293263,0.000621987593422943,0.000212684447408285,-0.030743753825486,-0.010225922769736,-0.725830152931696,-0.00121373331827915,0
0.19,0.000570961946201626,0.000323946492172572,-0.0280281882783207,-0.0162023503578705,0.000621276842101294,0.000212023487543024,-0.0307225048338658,-0.0102089760513616,-0.725838391533184,-0.00112779260691906,0
0.2,0.000570203418207252,0.000323916332148473,-0.0280098774314733,-0.0162008318008214,0.000620752416355071,0.000211471430593104,-0.0307092928417842,-0.0101960540368422,-0.725846027761645,-0.0010490923139826,0
0.21,0.00056954363171961,0.000323906651678925,-0.0279949667738252,-0.0162003465633928,0.000620308724666494,0.000210979983735052,-0.0306991048203286,-0.010185006464018,-0.725853109697207,-0.000976417405466674,0
0.22,0.000568945915083633,0.000323903216949005,-0.0279818109785574,-0.016200186138411,0.000619910790136141,0.000210531139057982,-0.0306903192042304,-0.0101750716804022,-0.725859678894079,-0.000909106396904143,0
0.23,0.000568396257993081,0.000323901711150184,-0.0279698323246318,-0.0162001051760072,0.000619546093723268,0.00021011725854578,-0.0306823694273303,-0.0101659792595963,-0.72586577290576,-0.000846697720618268,0
0.24,0.000567887773854405,0.000323900823360432,-0.0279587833251753,-0.0162000653340777,0.000619209092189742,0.000209734039241209,-0.0306750629127513,-0.0101575684664803,-0.725871426246356,-0.000788812850994371,0
0.25,0.000567416542629663,0.000323900153876945,-0.0279485523277965,-0.016200034141914,0.000618896892207087,0.000209378793930327,-0.0306683016075292,-0.0101497763486876,-0.725876670827798,-0.000735116851445833,0
0.26,0.000569842656524942,0.000325572050985676,-0.0280748205630314,-0.0162836552676729,0.000621758763403806,0.000210080588605879,-0.030814707411125,-0.0101885615122834,-0.725881412491878,-0.000706894846651989,0
0.27,0.000563677832969571,0.000322124825359823,-0.0277929698705453,-0.0161112416314884,0.000615089347384469,0.000207755137670567,-0.0304987139099016,-0.01009206277107,-0.725886192350756,-0.000617084678972619,0
0.28,0.000562706224856082,0.00032181620135464,-0.0276975881169444,-0.0160958016982468,0.000614214443831533,0.000207230740805593,-0.0304238941450529,-0.0100308466669468,-0.725890399630959,-0.000569777948803968,0
0.29,0.000564709737824003,0.000323267002174147,-0.0278604675375288,-0.016168359362434,0.000616630228449213,0.000207763817953428,-0.0305863183540684,-0.010104386444811,-0.725894167860524,-0.00054788758374857,0
0.3,0.000555867171170596,0.000318670469128449,-0.0274467840884238,-0.015938463168841,0.000607323289174945,0.00020419990770192,-0.0301398004861892,-0.0099475118312954,-0.725896965795704,-0.000458018205622335,0
0.31,0.000562138652516545,0.000322313131589441,-0.0277519582762761,-0.0161206576197875,0.000614211343768703,0.00020647044494056,-0.0304786723534466,-0.0100547163974839,-0.725900071374747,-0.000472902837385763,0
0.32,0.000564001629498039,0.000323416926681869,-0.0278475935684399,-0.0161758552089394,0.000616274172808555,0.000207129163735867,-0.0305834693662174,-0.0100895074616767,-0.725903149388768,-0.000456634952682216,0
0.33,0.000564438075374459,0.000323751245023779,-0.0278750768548952,-0.0161925793760388,0.000616814532295683,0.000207231856469338,-0.0306142505738517,-0.010098871140729,-0.725906069189945,-0.000431720740675888,0
0.34,0.000564421066239163,0.000323852362268705,-0.0278805706868625,-0.0161976380115674,0.000616879432279109,0.000207150328487739,-0.0306217083665871,-0.010099538389976,-0.725908798898664,-0.000405399939372857,0
0.35,0.000564267613062608,0.000323882814712015,-0.0278791378670114,-0.0161991630995308,0.00061680086862514,0.000207013780411894,-0.0306219234860677,-0.010097376656659,-0.725911338111385,-0.000379934477686522,0
0.36,0.000564080223203884,0.000323891863696731,-0.0278756699418631,-0.0161996145729923,0.000616683731447924,0.000206866171584797,-0.030619982873376,-0.0100944111197907,-0.725913695980679,-0.000355968014562201,0
0.37,0.000563891668702714,0.000323894438627208,-0.0278717512474458,-0.0161997430618154,0.000616560943483801,0.000206722094552882,-0.0306174997464126,-0.0100913280665507,-0.725915884108553,-0.000333622578551336,0
0.38,0.000563712078030401,0.000323895063457192,-0.0278678909057412,-0.0161997725882882,0.000616442614187932,0.000206586113914852,-0.0306149797353773,-0.0100883591950814,-0.725917914274261,-0.000312856216991525,0
0.39,0.000563543837804933,0.00032389510846363,-0.0278642279445506,-0.0161997715251503,0.000616331355106933,0.000206459097950735,-0.0306125663810787,-0.0100855627496434,-0.72591979773808,-0.000293579337917467,0
0.4,0.000563387084581382,0.000323894988149868,-0.027860793315601,-0.0161997765820821,0.000616227569175209,0.000206340867038319,-0.0306103077933643,-0.0100829371851416,-0.725921545053529,-0.000275692277963713,0
0.41,0.000563241661740798,0.00032389482739616,-0.0278576032238846,-0.016199763801541,0.000616131247941768,0.000206231215009375,-0.0306081969130022,-0.0100805102222053,-0.725923166047209,-0.000259097174780506,0
0.42,0.000563106716279028,0.000323894663355635,-0.0278546380531781,-0.0161997509866945,0.000616041854909705,0.000206129473555383,-0.0306062341267964,-0.0100782550910458,-0.725924669845975,-0.000243701476365565,0
0.43,0.000562981395183174,0.000323894506642961,-0.0278518766834609,-0.0161997501067922,0.000615958833580128,0.000206034992393256,-0.0306044144532188,-0.0100761477901447,-0.725926064921863,-0.000229418745749889,0
0.44,0.000562865250795692,0.000323894359874828,-0.027849316713347,-0.0161997372267102,0.000615881890421384,0.000205947430095654,-0.0306027184779293,-0.0100742021706622,-0.725927359134312,-0.000216168607067745,0
0.45,0.00056275739200036,0.000323894223288151,-0.0278469321786444,-0.0161997377355878,0.000615810435615195,0.000205866115516627,-0.0306011480278843,-0.0100723817361815,-0.72592855977572,-0.00020387643411783,0
0.46,0.00056265742934012,0.000323894096437354,-0.0278447208768007,-0.0161997233436954,0.000615744211731948,0.000205790753478392,-0.0305996805526446,-0.0100707034111483,-0.7259296736111,-0.000192472976062998,0
0.47,0.000562564588121259,0.000323893978708225,-0.0278426601582552,-0.0161997237950993,0.000615682705376463,0.000205720761110311,-0.0305983233258606,-0.0100691303185377,-0.725930706916681,-0.00018189398232105,0
0.48,0.00056247865350945,0.000323893869469384,-0.0278407540910528,-0.0161997108089625,0.000615625774693353,0.000205655974546968,-0.030597057956641,-0.0100676840956817,-0.725931665514896,-0.00017207984546416,0
0.49,0.000562398734391274,0.000323893768116526,-0.0278389718582247,-0.0161997112106047,0.000615572828819715,0.000205595724392613,-0.0305958841048445,-0.0100663237218432,-0.725932554806288,-0.000162975266956268,0
0.5,0.000562324577829169,0.000323893674082989,-0.0278373137083602,-0.0161997101338788,0.000615523700477899,0.000205539818749858,-0.0305947908683474,-0.0100650590977619,-0.725933379802684,-0.000154528946097523,0
0.51,2.45725616824981,0.0148193400111738,0.141899771563025,-0.7399132592861,-0.134579876418913,2.45361279465672,-0.747170745540791,0.0966594715743727,0.0608255496544517,18.6820923158409,409.917984434615
0.52,2.38115278483282,-0.0101773478103232,-0.568176196656837,0.511971835353971,-0.651056426007345,2.29044050201704,0.646069468774663,-0.409308675891884,0.272670742344522,39.0045209861196,409.917984434615
0.53,2.28926420409692,-0.00624525784415281,-0.382232342309091,0.316695240323164,-1.35584029429208,1.84457764699104,0.481226557055884,-0.12173101303522,0.631130385045159,58.6774631607033,409.917984434615
0.54,2.16565138754109,-0.0431973872078035,1.43381366045578,2.16651470734379,-1.97893446849812,0.880755537030726,-0.377816892178008,2.57038168100216,1.13210951264094,77.9454515814309,409.917984434615
0.55,2.09244348511801,0.0340602746230929,0.697625815257915,-1.69687412802013,-2.05644689603743,-0.387951033634707,-0.341672179570296,-1.80258805781189,1.7735323947323,97.0652183280848,409.917984434615
0.56,1.98208964562478,-0.0240822872051796,1.624671965595,1.2117581914605,-1.07501086327537,-1.66541615330521,-1.90763880325999,-0.684712426248228,2.55624450397115,116.549990329545,409.917984434615
0.57,1.89589067977313,0.0110692453565117,1.44502460312936,-0.547616595037116,0.619338432576392,-1.79191068521207,0.996530435278338,-1.18106186559942,-2.80297757153957,135.186624516124,409.917984434615
0.58,1.79977441396325,0.0329105519349924,2.3539165126643,-1.63916127061685,1.76491512441349,-0.354041874927148,2.60897301634256,1.1920706437457,-1.75048479521112,151.650908736271,409.917984434615
0.59,1.76764025067316,-0.02336128122934,0.418716393956429,1.17783394956624,0.953210189956423,1.48878747275217,1.21387540107505,-0.298534322957286,-0.582712515013883,166.836422696815,409.917984434615
0.6,1.66398191799007,-0.0281941347745605,2.05151448441501,1.42101244909892,-1.08763093613389,1.25963870986808,-0.223108777612659,2.48560063839927,0.695306820865604,181.941656068952,409.917984434615
0.61,1.59535113995603,0.0414187696404663,1.64305910097576,-2.06490064076056,-1.4080171441868,-0.75123131984335,-0.410109084653034,-2.60677356212574,2.08686968609295,197.707789317198,409.917984434615
0.62,1.53553659644597,0.0167230584434586,1.20241284553537,-0.828106465217824,0.64879765336048,-1.39183831844885,1.26656523017462,-0.726202097598687,-2.69450417609113,211.707138370251,409.917984434615
0.63,1.45958660866334,0.0160291515029857,1.92639445087421,-0.790715198192845,1.30511414021806,0.653702595137982,1.35097953897274,1.5846388832441,-1.09546524927321,224.532132899676,409.917984434615
0.64,1.38847015828884,-0.0154983961807473,2.21092405071918,0.783472658228024,-0.79546885968001,1.13812076425228,-0.599139291139418,2.26782862537105,0.598846983402618,237.934320199243,409.917984434615
0.65,1.35485946555173,0.0118870596338742,0.731363683419642,-0.586309423067444,-0.93352588922578,-0.981995360338875,-0.0707697737421138,-0.934688833851842,2.39026605582761,250.454780526377,409.917984434615
0.66,1.30051761577147,0.00915272192568556,0.686075751308626,-0.446046464083834,1.16999589441974,-0.567925565801985,0.811249392920195,0.107386252108927,-2.01566483939813,261.69208719936,409.917984434615
0.67,1.24978621046332,0.010205367556442,0.247430114509082,-0.503722130240175,0.0780915214057738,1.24738584073885,-0.48953519683715,0.274432026405976,-0.0543570378305319,273.551301767119,409.917984434615
0.68,1.17714494539544,-0.0155694257927146,1.17108663180038,0.788205497882175,-1.06854890389615,-0.494080832933128,-1.39067612682125,0.242346273671965,1.99067597910252,284.116480689527,409.917984434615
0.69,1.09872917697249,-0.00305027436141085,2.55518360309211,0.164708479062503,0.907016442153044,-0.620109895234997,2.01198402635382,-1.58367054853051,-2.17326194096026,294.222755444907,409.917984434615
0.7,1.07561995357123,0.00220481868223815,1.04153559069262,-0.103274491802888,-0.0214606018559044,1.07540810314688,-0.126164485039562,1.03901132335084,0.0220029354768264,304.422743336924,409.917984434615
0.71,1.03710952091743,0.021156638562851,0.663232118502766,-1.04646006195114,-0.796574991976082,-0.664463726542815,0.186031578251092,-1.22488683402421,2.28641368210476,313.398444239703,409.917984434615
0.72,0.970387525630729,0.000709881116566335,1.53797868725085,-0.030019239735152,0.966013461711196,-0.0920350238967782,1.53397733967874,-0.114861301334485,-1.66505110418607,322.741861512692,409.917984434615
0.73,0.937747612485498,0.0181389625839253,1.01362732595404,-0.896787018036115,-0.612615855424484,0.710212236143816,-1.34439124094147,0.15581881439255,0.731093717719154,330.901972658301,409.917984434615
0.74,0.844487670949352,0.025153749574123,3.43677326851758,-1.25408456900511,0.0134204414312085,-0.844755603269307,1.4096543139564,-3.37594628520032,-3.09593020945719,339.328202210338,409.917984434615
0.75,0.845624465091831,0.00755388117937272,1.34682120434504,-0.368368628955269,0.470091404114653,0.702959365013535,0.430625705849711,1.32822599911809,-0.580498404152615,346.80659202426,409.917984434615
0.76,0.828909687711254,0.00549282408346384,0.135213715547381,-0.270617565999696,-0.759673070625005,-0.331690016830711,-0.0136288517144782,-0.302209977169306,1.98909610054497,354.399174818044,409.917984434615
0.77,0.725848683380965,-0.006693325880259,3.39466411190337,0.343344003137863,0.722899711199378,-0.0657047892095873,3.34352115409667,-0.680070459028699,-1.67065899334615,361.19951257681,409.917984434615
0.78,0.698086472665895,0.0143185386530743,2.89058548937166,-0.713418548345513,-0.580386733776914,0.388176484506772,-2.8195411764468,0.956367110899593,1.0018100304117,368.067754913924,409.917984434615
0.79,0.671480804622403,0.0169317706504337,2.47996730023086,-0.838312552338304,0.354558993468809,-0.570491959613888,2.06237456004768,-1.61233275712256,-2.56030614996462,374.189375529096,409.917984434615
0.8,0.637116142588275,-0.0237366539337017,2.44661130519705,1.18982002822152,-0.153059226964985,0.618912983324322,0.666329608532233,2.63772315284761,0.205199815592639,380.388280671608,409.917984434615
0.81,0.6044418737421,0.0197175868950151,2.49094269777138,-0.977305129780269,-0.0964329815513722,-0.597025495297258,0.652559720453071,-2.59501187887794,3.01406294348566,385.883160857694,409.917984434615
0.82,0.614626162448732,0.0068059219007191,0.349980546376479,-0.337669339459252,0.256771497278613,0.558462208501769,-0.165665624635924,0.457232836164263,-0.419886905790243,391.490283356817,409.917984434615
0.83,0.562334270632331,0.0360377428023574,1.5038151159607,-1.79308403870324,-0.378935152435728,-0.417045202684788,0.46345113419807,-2.29386645623819,2.46803454721122,396.444784162471,409.917984434615
0.84,0.487895298866299,-0.010174980215447,3.72193202170475,0.511779362673774,0.372841143719982,0.31485684751613,3.21504292261075,1.94375798288277,-0.890367535148166,401.434053074934,409.917984434615
0.85,0.5286070600556,-0.00486408836384278,0.327424345918121,0.252940047995627,-0.462120427369325,-0.256697865016887,-0.408466330533984,0.0658834349441593,2.0686343377658,405.966264915292,409.917984434615
0.86,0.490851071845645,0.0233289926660899,0.832940677132177,-1.1617848543701,0.469242109551762,0.145913876153865,0.385486387843683,1.37656618593237,-1.22182636762499,410.396554658614,409.917984434615
0.87,0.408729469791778,-0.0260961141442666,3.65023079464679,1.30514954954395,-0.391936932801754,-0.118853806651918,-3.85194609345303,0.436017767980174,1.80146923623351,414.563007316757,409.917984434615
0.88,0.45191001750318,7.04805339574177e-05,0.270983861259195,0.00392743119226526,0.447356664322996,0.0639897161505827,0.268804216381127,0.0345249335182654,-1.42856451208494,418.369533673385,409.917984434615
0.89,0.403422422115301,0.0150190788643908,1.45585017827676,-0.750836874964288,-0.403304569512738,-0.0179066357939101,-1.38982068449731,-0.866979941716095,1.65237894628113,422.226405080125,409.917984434615
0.9,0.402017857300335,0.00072706071816292,0.415986714848504,-0.0278179462397627,0.401599804672785,0.0183434754727965,0.414198905396924,0.0475189628615628,-1.52334351827168,425.590768097986,409.917984434615
0.91,0.363650686090309,-0.0197939141470512,1.2232245891858,0.993078032820209,-0.362632401718087,-0.0336357214191284,-1.26017555446907,0.945748352775411,1.60890855047307,428.898873008096,409.917984434615
0.92,0.309875048481146,-0.0218937210356993,2.87023957377708,1.09369706058976,0.308334253850004,0.0378400395711064,2.92280762299048,-0.944269066636962,-1.51921902680363,431.97907812453,409.917984434615
0.93,0.322522905848168,-0.00325358563227224,1.24600922265158,0.168796426919862,-0.321014709136682,-0.0313235875037344,-1.25597428230238,0.0596642176579708,1.65797761953131,434.811430485577,409.917984434615
0.94,0.279481543470432,-0.0163618813531286,2.44086737984571,0.817574129842111,0.274305600317604,0.0559828718129712,2.53239795571905,-0.461759263742408,-1.42794868468302,437.499564306903,409.917984434615
0.95,0.260956112797354,0.0161768863130663,2.48221898427347,-0.802304505166677,-0.258312290284263,-0.0404295083471179,-2.2510494710586,-1.3182867228889,1.78796244297243,439.943293045151,409.917984434615
0.96,0.245458722495504,-0.00666860844830276,2.35643286004376,0.336111305209676,0.231749097348418,0.0811591687115815,2.3467656209922,0.39804240165195,-1.26110216601249,442.350492342947,409.917984434615
