t,iq,id,vq,vd,ia,ib,va,vb,theta_e,omega,r
0,0,0,0,0,0,0,0,0,0,0,0
0.01,0.000547732560382993,0.000307739466778544,-0.0269203241192282,-0.0153968613689894,-0.000301911400302477,0.000550966463121168,0.0146946721281044,-0.0273099579228473,1.01317087500187,-0.00233722682044321,0
0.02,0.000655652949807107,0.000365991488175616,-0.0322697706560072,-0.0183113320541342,-0.000362645905447861,0.000657509321051545,0.0176908950468555,-0.0326140339766367,1.01315251323567,-0.00263221745722302,0
0.03,0.000695944693239056,0.000388324331247941,-0.034265614180776,-0.0194286965553728,-0.000385002060622593,0.00069778808789139,0.0187924216352815,-0.0346186576011889,1.01313347955982,-0.00261695819291718,0
0.04,0.000681865105802158,0.000381057126921256,-0.0335988425362924,-0.0190651116090122,-0.000376889370262006,0.000684177578609222,0.0184184810243071,-0.0339576244339898,1.01311582456398,-0.00237202490853404,0
0.05,0.000697474864971383,0.000390632815459881,-0.0343838029678677,-0.0195442042061848,-0.000385054682251642,0.000700569821971407,0.0188303825093276,-0.0347798579516738,1.01309913594426,-0.00227020587794281,0
0.06,0.000698777928959982,0.000392100976025673,-0.0344673228718606,-0.0196176515988424,-0.000385372288675724,0.000702511187471574,0.0188618294517321,-0.0348866735293066,1.0130834605083,-0.00211464891576916,0
0.07,0.000710019772245821,0.000399383606947431,-0.0350354818750353,-0.0199820117152438,-0.000391046085452299,0.000714645577563299,0.0191505492101278,-0.0354967920713202,1.01306913953393,-0.00201761653806462,0
0.08,0.000698566284380634,0.000393440680392147,-0.0344921191484761,-0.0196846816250494,-0.000384464016463681,0.000703546617293705,0.0188464158016926,-0.0349571964760039,1.01305551039962,-0.00182591353568926,0
0.09,0.000695646588847625,0.000392526273878008,-0.0343649064965521,-0.0196389273585777,-0.000382462030106029,0.000701230238785425,0.0187622643305511,-0.034851279797201,1.01304306002457,-0.00168462335432198,0
0.1,0.000694220979280492,0.000392384184520524,-0.0343095917285176,-0.0196318217940469,-0.000381319639786276,0.000700359513855753,0.0187186937616408,-0.0348161889842741,1.01303157696143,-0.00155999486726173,0
0.11,0.000693114875714547,0.000392360817960773,-0.0342688100314927,-0.0196306481524946,-0.000380386120699414,0.000699758273682341,0.0186843449862544,-0.0347938060622319,1.01302096765865,-0.00144579546463199,0
0.12,0.000692127503854519,0.000392355798628233,-0.0342328230831893,-0.0196304019161467,-0.000379544200828083,0.000699235120633151,0.0186536017745868,-0.0347747321552521,1.01301116256934,-0.00134040982464213,0
0.13,0.00071974662985505,0.000408456113860355,-0.0355963455928329,-0.0204359378161161,-0.000394448176389772,0.000727517865265444,0.0193837357469954,-0.0361800796361646,1.01300171292039,-0.00136699175394012,0
0.14,0.000736605975341431,0.000418683535039158,-0.0364790608122168,-0.0209476343599398,-0.000403331876634174,0.000745122582339539,0.0198614731610442,-0.0370816281585944,1.01299280124153,-0.00135085165117637,0
0.15,0.000697148762487063,0.000396394014519348,-0.0345121384173413,-0.0198324505974221,-0.000381648087547274,0.000705329248688523,0.0187826978904789,-0.0350945017743793,1.01298445727448,-0.0010879625116092,0
0.16,0.000690020471560705,0.000392970186888831,-0.0341722671019182,-0.0196611466974196,-0.000377407677738413,0.000698653894099503,0.0185847736590029,-0.0347693933853601,1.01297730595177,-0.000982357051976804,0
0.17,0.000688304416149574,0.000392443469339225,-0.0340964657682455,-0.0196347858864876,-0.000376226023544853,0.00069730110076325,0.0185341905124154,-0.0347070248903999,1.01297078937265,-0.000907562195837184,0
0.18,0.000687527319084185,0.000392361706495441,-0.0340659734385467,-0.0196306997364841,-0.000375605822423378,0.00069682263838997,0.0185102751577344,-0.0346875284799123,1.01296478181628,-0.000842220439010135,0
0.19,0.000686943475152795,0.000392348337620838,-0.0340443609923376,-0.0196300310217388,-0.000375113697533754,0.000696504321602809,0.018492100584836,-0.0346756232712742,1.01295923183685,-0.000782456695136017,0
0.2,0.000686426163158522,0.000392345532695463,-0.0340254731235914,-0.0196298860072512,-0.000374672722680959,0.000696230023320923,0.0184759750357775,-0.0346655966690211,1.01295410263574,-0.00072732388619561,0
0.21,0.000685951621284811,0.000392344406680932,-0.034008187563221,-0.0196298387736225,-0.000374267418352451,0.000695979640332147,0.0184611706875799,-0.034656493885817,1.01294936198859,-0.000676384152331315,0
0.22,0.000685513821061151,0.000392343590924427,-0.0339922468118286,-0.0196297882254509,-0.000373893373392743,0.000695748832222038,0.0184475215499243,-0.0346480934216791,1.01294498040725,-0.000629305446025973,0
0.23,0.000685109186603629,0.00039234287131338,-0.0339775099604413,-0.0196297554245044,-0.000373547647963397,0.000695535535353966,0.0184348959665108,-0.0346403390838149,1.01294093068615,-0.000585792932950949,0
0.24,0.000684735169375055,0.000392342211322048,-0.0339638840350366,-0.0196297225652454,-0.000373228081340961,0.000695338379684816,0.0184232235986238,-0.0346331670363689,1.01293718768923,-0.00054557611272219,0
0.25,0.000684389557484315,0.000392341601967881,-0.0339512903068478,-0.0196296896505463,-0.000372932785223915,0.000695156195925371,0.0184124368345271,-0.0346265360538875,1.01293372818487,-0.000508405305177225,0
0.26,0.000689669677768994,0.000395541849109662,-0.0342135684003876,-0.0197898165343971,-0.000375716075475685,0.00070066757414642,0.0185500751816324,-0.0349012866798473,1.01293062339697,-0.000500120309555433,0
0.27,0.000675771932217163,0.000387622177950818,-0.0335374132508994,-0.0193935735186013,-0.000368115702919306,0.000686592664158363,0.0181860863882599,-0.0342072367089443,1.01292742384293,-0.000404840656804389,0
0.28,0.000675163496716944,0.000387448869489021,-0.0334663411545823,-0.019384894667334,-0.000367689387691889,0.000686124542591311,0.0181302909976989,-0.0341622991011624,1.01292469330478,-0.000373996450070879,0
0.29,0.000681865698496008,0.000391588498292325,-0.0338420106411287,-0.0195920140412912,-0.000371182324579619,0.000693185447553508,0.0183392750489678,-0.0345369322480548,1.01292230094596,-0.000379425242741332,0
0.3,0.000673435604038778,0.000387170160243306,-0.0334314467628372,-0.0193709525034702,-0.000366368279652551,0.000684974838541045,0.0181079315779439,-0.0341320706596687,1.01292069964859,-0.000325126470400541,0
0.31,0.000681278171941921,0.000391545159877087,-0.0338178234989841,-0.0195898462390922,-0.000370704275969681,0.00069283901417681,0.0183197759383591,-0.0345223561109035,1.01291862905637,-0.000338982768838867,0
0.32,0.000682411940826568,0.000392216688973795,-0.0338758251013098,-0.0196234448047887,-0.000371309235473912,0.000694009682745154,0.0183511265075445,-0.034581603031167,1.01291659844036,-0.000323160126495657,0
0.33,0.000682444440363449,0.000392319530511713,-0.0338797615390089,-0.0196285909719732,-0.000371281048081171,0.00069411484031078,0.0183516761915768,-0.0345880876378653,1.01291470221823,-0.000303781674835566,0
0.34,0.00068230591982203,0.000392335064666668,-0.0338751510858569,-0.0196293682579356,-0.000371154087968575,0.000694055339418551,0.018347292567311,-0.0345863385564991,1.01291294639284,-0.000285081453111932,0
0.35,0.000682149877849555,0.000392337211303231,-0.0338695158174194,-0.0196294733848777,-0.000371019442471924,0.000693975155557591,0.0183423999369193,-0.0345834742561841,1.01291132301748,-0.000267666474272612,0
0.36,0.000682000995276047,0.000392337320193072,-0.0338640757899026,-0.0196294751865195,-0.000370892035124755,0.00069389698706279,0.0183377319021289,-0.0345806233877889,1.01290982250682,-0.000251548725533825,0
0.37,0.000681862461047514,0.000392337132861294,-0.0338589984947537,-0.0196294786644502,-0.000370773642950893,0.000693824003116437,0.0183333746508222,-0.0345779638732304,1.01290843562933,-0.000236648110871274,0
0.38,0.000681734474999689,0.000392336915477057,-0.0338543049359696,-0.0196294629420541,-0.000370664288567803,0.000693756538585171,0.0183293567553976,-0.0345754892810565,1.01290715379067,-0.000222875460120298,0
0.39,0.000681616151423406,0.000392336707747882,-0.0338499616559655,-0.0196294471912822,-0.000370563193982083,0.000693694161279666,0.0183256394052585,-0.0345731983121913,1.01290596903745,-0.000210145842577468,0
0.4,0.000681506662811429,0.000392336514692524,-0.0338459372608818,-0.0196294462068677,-0.000370469649365243,0.000693636440159138,0.0183221878788625,-0.0345710870350865,1.01290487401685,-0.000198380342625917,0
0.41,0.000681405626910235,0.000392336336084874,-0.0338422220005899,-0.0196294304021872,-0.000370383325798634,0.000693583175234071,0.0183190093314937,-0.0345691253138428,1.01290386193238,-0.000187505952343114,0
0.42,0.000681312087199389,0.00039233617096826,-0.0338387766109409,-0.0196294308182907,-0.00037030340792008,0.000693533861680018,0.0183160538013217,-0.0345673188130394,1.01290292650259,-0.000177455181871938,0
0.43,0.000681225777834118,0.000392336018343156,-0.0338355957205283,-0.0196294135122096,-0.000370229666674943,0.000693488360096131,0.0183133344993083,-0.0345656360004093,1.01290206192194,-0.000168165651086971,0
0.44,0.000681145916923553,0.00039233587726818,-0.033832647628726,-0.019629413881047,-0.000370161435486813,0.000693446257767509,0.0183108056060995,-0.0345640902229267,1.01290126282399,-0.000159579704181062,0
0.45,0.000681072180414951,0.000392335746870855,-0.0338299229090909,-0.0196293979903659,-0.000370098436445362,0.000693407384261652,0.0183084769175,-0.0345626477929655,1.01290052424944,-0.000151644052112312,0
0.46,0.000681003961036541,0.00039233562634307,-0.0338273974931932,-0.019629398318744,-0.000370040151594081,0.000693371419120876,0.0183063106613826,-0.0345613236072832,1.01289984161412,-0.000144309441916825,0
0.47,0.000680940863932278,0.000392335514938547,-0.0338250573845763,-0.0196293986284749,-0.000369986243394416,0.000693338154260834,0.0183043034129778,-0.0345600965587641,1.0128992106813,-0.000137530351015819,0
0.48,0.00068088266886682,0.000392335411966985,-0.0338228969964804,-0.01962938123239,-0.000369936522645444,0.000693307473967723,0.0183024596605914,-0.0345589487567758,1.01289862753494,-0.000131264704687479,0
0.49,0.00068082882678062,0.000392335316790489,-0.0338208937524937,-0.0196293815096904,-0.000369890521361228,0.000693279088379051,0.0183007413957973,-0.0345578983306941,1.0128980885557,-0.000125473614924815,0
0.5,0.000680778942815351,0.000392335228819058,-0.0338190325790123,-0.0196293817724757,-0.000369847902542122,0.000693252789203536,0.0182991450787861,-0.0345569223562434,1.01289759039879,-0.000120121139079007,0
0.51,1.37254317052983,-0.0234699109611051,2.27754607693061,1.17490579824108,-0.0706972444143434,1.37092213174958,1.095819344347,2.31663543351936,0.0344255632850571,10.5688724799888,363.325865353563
0.52,1.42131781283675,0.00486305392311959,-0.539727704869108,-0.242134005290856,-0.214639478864959,1.40502593160877,-0.155899424447024,-0.570640203086458,0.155014979881307,22.3080546985958,363.325865353563
0.53,1.3742659429577,0.0109937867412187,1.38449044313511,-0.548185965390711,-0.475490006742153,1.28943282058767,-1.0021846490016,1.10133898918059,0.361287528731327,33.9685163095741,363.325865353563
0.54,1.36784860658842,0.00761404878979038,1.20845295614255,-0.378203253164618,-0.825288765699459,1.09085573633507,-1.03479616463929,0.729789795462896,0.653247413256641,45.6843422064309,363.325865353563
0.55,1.36573081742511,-0.0205979485399468,0.715295813954284,1.03442299571055,-1.182589783564,0.683466418310926,-0.0827830405062635,1.25492071610913,1.03167420860113,57.59936455585,363.325865353563
0.56,1.33146709468703,-0.0514168612899495,1.7333915390228,2.57744277018053,-1.33168047895685,0.045556775835098,-1.54134379849768,2.69668625463632,1.49800215464406,69.6627255722485,363.325865353563
0.57,1.30079366793401,-0.00478394070151689,2.3969248412604,0.243142162946013,-1.14918113729685,-0.60948319608252,-2.23478768181289,-0.900050455958233,2.05476059325671,82.314031185366,363.325865353563
0.58,1.31788981323973,-0.0235085196013142,0.632744339927423,1.17929839331059,-0.537214728897981,-1.20365549281759,-1.33631255220467,-0.0733407321710168,2.70396766769925,94.6459339811468,363.325865353563
0.59,1.25788239641032,0.0183977888145296,2.84997603477999,-0.916716396357082,0.352196747027431,-1.20771025217787,1.71402234622828,-2.45455897195408,-2.84321332637234,106.018851308126,363.325865353563
0.6,1.26874908975749,0.00492929013574395,1.587365465515,-0.240835265121516,1.13721074487177,-0.562583569267619,1.53145739381106,-0.482046675102349,-2.02631364002796,116.79872921731,363.325865353563
0.61,1.27976013503292,0.0320661136979855,0.266173993844531,-1.59657107362301,1.17149487644305,0.516153071612343,-0.439307161900101,1.55785012296824,-1.13074118937891,127.61530567248,363.325865353563
0.62,1.24397954674405,0.0234270719909188,1.08182266224481,-1.16643939858472,0.213249720885257,1.22578892838937,-0.987421566382015,1.24736514035018,-0.153415346367519,139.203046138842,363.325865353563
0.63,1.1746796674957,-0.00931023619939036,3.5294378965577,0.470100074541272,-0.932639123115008,0.714243143307071,-2.49624403018924,2.53903361290983,0.909315073572174,150.46909463723,363.325865353563
0.64,1.18858302898309,0.0262046168870977,1.97967170627931,-1.30367263762275,-1.06677893866527,-0.524784712766116,-1.15557013848221,-2.0696183381912,2.05001361812563,160.657287833238,363.325865353563
0.65,1.14914563541787,-0.016494848132554,3.05154781308744,0.835568307431347,0.157790059658402,-1.13838045858485,-0.453675380637071,-3.13118142255383,-3.01821401320736,170.937476146376,363.325865353563
0.66,1.14866083711285,-0.0133972073483423,1.96470865564534,0.674733039730624,1.13712674174597,-0.162923224519165,1.83798702212725,-0.968064296916085,-1.72476685424469,181.910549233871,363.325865353563
0.67,1.14861010889904,0.0255468877144484,1.00206512287975,-1.2702839740985,0.422771396853171,1.06828000624358,-0.843322905646611,1.38078324227782,-0.354598987175218,191.729904845443,363.325865353563
0.68,1.09652369250666,0.021423083977606,2.64791046288779,-1.0604223510094,-0.960149389264381,0.530034250827989,-2.83695690932969,0.29597445260943,1.08592831802314,201.415331777019,363.325865353563
0.69,1.07960003307363,0.00237552316768141,2.34229489022687,-0.11400257671042,-0.557906532598948,-0.924273863855471,-1.10828325517782,-2.06665192196751,2.60071890898296,211.72534218944,363.325865353563
0.7,1.05036690050764,0.0314719387146606,2.82565643896958,-1.5645702860629,0.892629703299795,-0.554502769511033,3.22923307749539,-0.0653316334624225,-2.09670551474275,220.82971699199,363.325865353563
0.71,1.0348473895899,0.064240613627732,2.52732143080331,-3.20867717973906,0.502317652409778,0.907035254142764,-1.81282275462402,3.66014159817531,-0.44375946258975,230.356644691635,363.325865353563
0.72,0.991210451364735,-0.00109967190370092,3.59389315379797,0.0626512834888878,-0.949788672338739,0.283550429500632,-3.42457391528028,1.0919188078885,1.27956959475942,239.540160895096,363.325865353563
0.73,1.03883351291149,-0.0144188307260011,0.179308114624725,0.735072062094453,-0.0628666991509074,-1.03702977216925,-0.746370093819732,-0.124153209759512,3.06716593073711,248.304915350044,363.325865353563
0.74,0.994729362046435,0.0120675640086789,1.22244976027889,-0.597342185782239,0.975635156081623,0.194340351023655,1.07211887388363,0.837712494584813,-1.36204529100317,257.291249724401,363.325865353563
0.75,0.967557985767884,-0.0170173122350032,1.54076290760782,0.865148807198072,-0.523536519291287,0.813859667084733,-0.0749233531865653,1.76545158166505,0.554047824206425,265.535298889575,363.325865353563
0.76,0.88752980052855,0.00998567727049871,4.37135072985857,-0.49460147367756,-0.515857699317924,-0.722287819799847,-2.09471324816602,-3.86852869049162,2.53265078133831,274.136395178249,363.325865353563
0.77,0.865826892229201,-0.0301329185586561,4.40483669532624,1.52100492453182,0.86140295667824,-0.0924615937247749,4.14584562956618,-2.1279112549046,-1.7125137283539,281.922571993373,363.325865353563
0.78,0.888687885822339,-0.0187352327090538,2.09516294210164,0.943057063381819,-0.35059099568036,0.816825024775744,0.0886495342626099,2.29591063389352,0.384353941107074,290.071248712178,363.325865353563
0.79,0.834209568020904,-0.0098140915092283,3.74893957842437,0.504876611027915,-0.46549160183361,-0.692329031885963,-2.54386547710746,-2.79967797959347,2.53789759648295,297.554902770069,363.325865353563
0.8,0.831329537709159,-0.0083316539835387,2.69993186800718,0.423503044735905,0.830491940664579,0.0382276499016989,2.71341746294362,-0.326117452114936,-1.53482041507457,305.338277767901,363.325865353563
0.81,0.793253018158468,0.0188151453554873,3.51226573561154,-0.927791037347635,-0.514600798058615,0.603978790314448,-3.03234777171215,2.00041840571562,0.729378972912031,312.519236182128,363.325865353563
0.82,0.77486997949332,0.0272368517630718,3.29199347407073,-1.35380163383005,-0.100272972431641,-0.768837214378743,1.03694744514571,-3.40510497534084,3.04703884394961,319.603027307498,363.325865353563
0.83,0.746352841815465,0.0231954221729591,3.60602867270201,-1.15827709814828,0.58477916728991,0.464342457244135,2.00489465336988,3.21332321021908,-0.868627129156422,326.504702975923,363.325865353563
0.84,0.758306684508584,0.00506575126520736,1.92528685884519,-0.240574595842098,-0.758011221105452,0.0217641513619065,-1.93011793621481,-0.198117079799924,1.54877228413945,332.928782925813,363.325865353563
0.85,0.694579456023706,0.0356478107270221,3.96971794369912,-1.78004041727461,0.508925089558395,-0.474032319950652,4.18456689396162,-1.19021189273939,-2.26943376753933,339.539776067238,363.325865353563
0.86,0.668749369223248,0.0107235550985119,4.19174241972412,-0.52296832051854,-0.149619272131979,0.651885562715681,-1.51085499324504,3.94480893922217,0.24164413090279,345.630666918412,363.325865353563
0.87,0.66478115042749,0.0265288168700795,3.27637077618938,-1.31829302673047,-0.248785998487221,-0.617043987933551,0.138313249609614,-3.52893346669733,2.79822418653621,351.685994481909,363.325865353563
0.88,0.656090946472951,0.011878891068622,2.60388519851949,-0.592770416398532,0.51548605451902,0.406042566356295,1.64085234647159,2.10694054750125,-0.885503877442309,357.625812913681,363.325865353563
0.89,0.621086672647752,-0.0184353799143097,3.30027674939871,0.936186905040115,-0.607046092856623,-0.132603013995718,-3.4162911924824,0.311812494870641,1.75618420567822,363.102515120821,363.325865353563
0.9,0.601553779855412,0.0270516997500377,3.18182181237113,-1.34626943961783,0.571840947364227,-0.188670812356558,3.42729867270514,0.435953274793562,-1.84454657546911,368.589479759036,363.325865353563
0.91,0.576143041406069,-0.0144496307169433,3.37672776522673,0.723352591887955,-0.452021313860248,0.357528079742761,-2.13225269377965,2.71643660380904,0.876520931095894,373.895080509873,363.325865353563
0.92,0.516050709747806,0.0291625696530447,5.34913358079959,-1.44638543031337,0.218920995804086,-0.46822258392364,3.80899307034481,-4.02452887532514,-2.64778318025149,378.802110942929,363.325865353563
0.93,0.51951557189563,0.0253162374811035,4.10893385492909,-1.25932142945321,-0.0513789938194603,0.517588195688757,-1.85003941821092,3.87899239982864,0.147633978950733,383.725017835943,363.325865353563
0.94,0.543093773872264,0.0222990614583846,1.88571581551054,-1.11521956517979,-0.110650924648594,-0.532169585973451,0.792450215913093,-2.04246455800968,2.97762570083779,388.45066661411,363.325865353563
0.95,0.460533341484919,-0.00550473590641887,5.00634844550007,0.287546223317065,0.192045269678725,0.418616620705259,2.40167057920913,4.40206610778009,-0.442068606953504,392.852463673091,363.325865353563
0.96,0.471745561609955,-0.0109573322101917,3.42635360398047,0.558140933616811,-0.291007665864843,-0.371454541546812,-2.6063737267614,-2.29308445499429,2.45381592899051,397.122114142193,363.325865353563
0.97,0.425825095797049,-0.0119972575894447,4.69556193553426,0.601991293822405,0.326817829237072,0.273241748078513,4.05874545704204,2.43665359114028,-0.90261333645696,401.347060109713,363.325865353563
