t,iq,id,vq,vd,ia,ib,va,vb,theta_e,omega,r
0,0,0,0,0,0,0,0,0,0,0,0
0.01,0.000545760473679058,0.000304217283082939,-0.0266092413739907,-0.015220582657326,0.000581432362786015,-0.000228777309761757,-0.0284001846679756,0.0115389502881621,-1.43714104770668,-0.00138991008392318,0
0.02,0.000654833995579334,0.000362131548404634,-0.03202117739417,-0.0181181473720337,0.000697247682213666,-0.000271647731012066,-0.0341498283817281,0.0136898607517445,-1.43715188448585,-0.00154071866326925,0
0.03,0.000694854645908237,0.00038433846873945,-0.0340253106908035,-0.0192292070423833,0.000739867288232497,-0.00028833215793029,-0.036283975716601,0.0145243683952749,-1.43716291187539,-0.00150134385805276,0
0.04,0.000679987144436424,0.00037718815617305,-0.0333661225658365,-0.0188714680489307,0.000724176832716139,-0.000283233713941772,-0.0355828585846183,0.0142580018357164,-1.43717289815036,-0.00132681623960288,0
0.05,0.000694638146493553,0.00038666507254059,-0.0341312160566125,-0.0193456103567595,0.000739957123489521,-0.000290681076583826,-0.0364041650578759,0.0146263227100201,-1.4371821190631,-0.00124277286146891,0
0.06,0.000695154680851996,0.000388130370346411,-0.0342074771136182,-0.019418920214147,0.000740661785642496,-0.000292070768795085,-0.0364893882442723,0.0146891285759531,-1.43719057893906,-0.00113054663829134,0
0.07,0.000705473664267573,0.000395311044382754,-0.0347525659448726,-0.0197781833656112,0.000751843093302446,-0.000297818528368382,-0.0370773635438797,0.0149728584322246,-1.43719810315254,-0.00105752241512688,0
0.08,0.000693585698343597,0.000389465509461431,-0.0342195823470515,-0.019485729218484,0.000739280369632086,-0.000293613758334778,-0.0365100706477734,0.0147542604178357,-1.43720511623802,-0.000931025153814969,0
0.09,0.00069008128434309,0.00038855886573271,-0.0340876987880615,-0.0194403640950131,0.00073568459314432,-0.000293186545649993,-0.0363732280192641,0.0147270923223462,-1.43721134874797,-0.000837790719332627,0
0.1,0.000688161586327167,0.0003884170999462,-0.0340286986926282,-0.0194332750601303,0.000733761473924228,-0.00029330583323808,-0.0363137269068965,0.0147281279328943,-1.4372169494131,-0.000757348979294201,0
0.11,0.000686644572848924,0.0003883939017303,-0.0339858159225147,-0.0194321091485477,0.000732253404870783,-0.000293488574529422,-0.036270996570605,0.0147328665797015,-1.43722199305988,-0.000685482972066999,0
0.12,0.000685314221276785,0.000388389184527169,-0.0339489401942258,-0.019431877679497,0.000730932941203661,-0.000293664393492387,-0.0362343515312233,0.0147377128338759,-1.43722653694204,-0.00062083689396199,0
0.13,0.000712489773180481,0.000404296532364909,-0.0352906414705587,-0.0202277533021459,0.000759983541453236,-0.000305814289543932,-0.0376700247617598,0.0153479840208542,-1.43723086219235,-0.000636580714849525,0
0.14,0.000728836870711891,0.000414377102893412,-0.0361749811571502,-0.0207320995507295,0.000777526202182298,-0.00031363126826165,-0.0386135881161718,0.0157302265176368,-1.43723486655801,-0.00062721236470983,0
0.15,0.000689713872316797,0.000392409385175997,-0.0342346096148938,-0.0196330019612554,0.000735825220571193,-0.000297071701802426,-0.0365440819474253,0.0148994407987246,-1.43723853837327,-0.000471592440141597,0
0.16,0.000682311700453363,0.000389007215348022,-0.033894300884301,-0.0194627970605156,0.000728035056142061,-0.000294687677374891,-0.0361840952408402,0.0147761751971255,-1.43724151329617,-0.00041152257555396,0
0.17,0.000680426070508126,0.000388479778812301,-0.0338189051060278,-0.019436399351643,0.000726095213339074,-0.000294417929378066,-0.0361058170892888,0.0147601468367318,-1.43724413643423,-0.000371165765090682,0
0.18,0.000679548549253572,0.000388397526040874,-0.0337906759129089,-0.0194322878025272,0.000725213860835092,-0.00029445496273618,-0.0360772570583189,0.014759915685378,-1.43724649004236,-0.000337168893549883,0
0.19,0.000678899088965146,0.00038838426261176,-0.0337720644186403,-0.0194316241913484,0.00072456779353896,-0.000294529830421756,-0.0360586916499104,0.0147618125684914,-1.43724860895088,-0.000306943910509054,0
0.2,0.000678338163057435,0.000388381733408772,-0.0337564655919624,-0.0194314944106666,0.000724010963139539,-0.00029460339366595,-0.0360431862568801,0.0147638297451901,-1.43725051779442,-0.000279781003116917,0
0.21,0.000677836831166391,0.000388380913175106,-0.0337426058250817,-0.0194314621686517,0.000723513479114412,-0.000294670576990955,-0.036029420210077,0.0147657051712497,-1.43725223761025,-0.000255319240945515,0
0.22,0.000677386034249339,0.000388380399841919,-0.0337301607389355,-0.0194314282181997,0.000723066170941372,-0.000294731211135838,-0.036017058529008,0.0147673843652654,-1.43725378715362,-0.000233281282309891,0
0.23,0.000676979813692191,0.000388379972156223,-0.0337189434783046,-0.0194314117848173,0.000722663098688962,-0.000294785882823533,-0.0360059183345427,0.0147689118803817,-1.43725518328884,-0.000213425462839803,0
0.24,0.000676613872836174,0.00038837959210707,-0.0337088384788392,-0.0194313952616422,0.000722299994463107,-0.000294835137794355,-0.035995882523964,0.014770286210078,-1.43725644120445,-0.000195535455193313,0
0.25,0.00067628419535269,0.000388379250424168,-0.0336997342326023,-0.0194313786567899,0.000721972872463775,-0.000294879511784524,-0.0359868403821664,0.0147715227095942,-1.43725757458492,-0.000179416591232638,0
0.26,0.000681527551769391,0.000391536422274963,-0.0339593966763327,-0.0195893373634041,0.000727589612528461,-0.00029731116616996,-0.0362652076161825,0.0148935381126499,-1.43725854093338,-0.000180683773017961,0
0.27,0.000667907817933445,0.000383739287349704,-0.0333065459311769,-0.0191992305955837,0.000713052702945594,-0.000291397557872843,-0.0355662142775878,0.01459386375463,-1.43725960789815,-0.00012934650000834,0
0.28,0.000667316892591133,0.000383566888345742,-0.0332167053216015,-0.0191906025995231,0.000712443844264791,-0.000291305958988013,-0.0354760126910273,0.0145973033160581,-1.43726043514812,-0.000116629427172992,0
0.29,0.000673860894668729,0.000387633179479411,-0.0336037481159674,-0.0193940404194272,0.000719470774371455,-0.000294465264543029,-0.0358866855218361,0.0147474232830213,-1.43726110185472,-0.000125455156784554,0
0.3,0.00066536605293365,0.000383243168093819,-0.0331939609695411,-0.019174403643022,0.000710467009258349,-0.00029124549617563,-0.0354513009291868,0.0145843087714568,-1.43726133860977,-9.91936908385948e-05,0
0.31,0.000673338361660853,0.000387582855838103,-0.0335832784543634,-0.0193915350314019,0.000718945957872973,-0.00029448553289059,-0.0358660527422536,0.0147476941691669,-1.43726190108385,-0.000113300715636811,0
0.32,0.000674567814360473,0.000388254660528424,-0.0336462831273831,-0.0194251399662977,0.000720253737555758,-0.000294988086420568,-0.0359329620692429,0.0147726323967204,-1.43726247914737,-0.00010887671135041,0
0.33,0.000674652687068646,0.00038835854825669,-0.0336536081108356,-0.01943034446608,0.000720351528729656,-0.000295080133573637,-0.0359409068788747,0.0147768344943118,-1.43726301222478,-0.000101947552675088,0
0.34,0.00067455368746406,0.00038837451346465,-0.0336517254412565,-0.0194311348361742,0.000720255393647504,-0.000295109484601805,-0.035939139067895,0.0147778858181337,-1.43726349462953,-9.51988541554478e-05,0
0.35,0.000674434187280377,0.000388376876757711,-0.033648562912352,-0.0194312603930068,0.000720137143543979,-0.000295128049939234,-0.0359360149801213,0.0147784469372071,-1.43726392963689,-8.90314507364538e-05,0
0.36,0.000674321507978715,0.000388377144697386,-0.0336454702231496,-0.0194312636362582,0.00072002538731244,-0.000295143599408073,-0.0359329444611198,0.0147788759854291,-1.43726432164007,-8.34597126611937e-05,0
0.37,0.000674218887874386,0.000388377097887402,-0.0336426289907064,-0.0194312654689927,0.000719923570265472,-0.000295157469677172,-0.0359301235456728,0.0147792687615278,-1.43726467484497,-7.84370216923441e-05,0
0.38,0.000674126279487716,0.000388377011077304,-0.0336400605199913,-0.0194312672729596,0.000719831680796948,-0.000295169942152536,-0.0359275734764902,0.0147796239368012,-1.43726499308406,-7.39111433855557e-05,0
0.39,0.000674042809700419,0.000388376925945153,-0.0336377435019409,-0.0194312661400779,0.000719748858091201,-0.00029518117689286,-0.0359252726959701,0.0147799415908553,-1.43726527981729,-6.98332571376028e-05,0
0.4,0.000673967790733415,0.000388376848166192,-0.0336356638549398,-0.0194312503697973,0.000719674420328729,-0.000295191273350168,-0.0359232056440683,0.014780212114521,-1.43726553816368,-6.61590737751765e-05,0
0.41,0.000673900037016228,0.000388376777917597,-0.0336337806076774,-0.0194312506481187,0.000719607191688697,-0.000295200391575002,-0.0359213357580747,0.0147804714766159,-1.43726577093347,-6.28486369586166e-05,0
0.42,0.000673839035387695,0.000388376714594736,-0.0336320846373193,-0.0194312509066996,0.000719546662751488,-0.000295208601119305,-0.0359196518197277,0.0147807050576233,-1.43726598065862,-5.986593716933e-05,0
0.43,0.000673784029148225,0.000388376657534408,-0.0336305529974821,-0.0194312511477524,0.00071949208279281,-0.000295216003718091,-0.0359181310535109,0.0147809159968622,-1.43726616962087,-5.71785283462799e-05,0
0.44,0.000673734494428873,0.000388376606120145,-0.0336291728847881,-0.0194312513727962,0.000719442931919215,-0.000295222669990323,-0.0359167607398692,0.0147811060744029,-1.4372663398755,-5.47571763671116e-05,0
0.45,0.000673690034483653,0.000388376559794132,-0.0336279365469572,-0.0194312355214601,0.000719398816296179,-0.000295228653541229,-0.0359155310300052,0.0147812604716027,-1.43726649327464,-5.25755412783434e-05,0
0.46,0.000673649812990032,0.000388376518052928,-0.0336268130679983,-0.0194312357202294,0.000719358906486863,-0.000295234066419249,-0.035914415535596,0.0147814152049714,-1.43726663148716,-5.06098908083658e-05,0
0.47,0.000673613491407969,0.000388376480443098,-0.0336257953213588,-0.0194312344523063,0.0007193228664611,-0.000295238954330874,-0.0359134048392464,0.0147815539165138,-1.43726675601647,-4.88388422085079e-05,0
0.48,0.000673580895117914,0.00038837644655563,-0.0336248834134023,-0.0194312346285843,0.000719290522699796,-0.000295243341095584,-0.0359124994138984,0.0147816795257757,-1.43726686821712,-4.72431296485076e-05,0
0.49,0.000673551442041543,0.000388376416022419,-0.0336240562057177,-0.0194312347955895,0.000719261297897062,-0.000295247304722829,-0.0359116780977694,0.0147817934503491,-1.43726696930987,-4.58053946401655e-05,0
0.5,0.000673524957555874,0.000388376388511295,-0.0336233121239208,-0.0194312349538453,0.000719235018615799,-0.000295250868924122,-0.0359109393143149,0.0147818959398897,-1.43726706039417,-4.45099972066185e-05,0
0.51,3.77859573405177,-0.0319809024167462,2.20491149288877,1.60457188171856,-0.243769466685524,3.7708599744124,1.47843464547057,2.29140057915397,0.0560922640237121,17.1973379365256,407.05897514543
0.52,3.60345320374008,-0.00905910218847222,3.14622315665545,0.462363853439488,-0.904075714372461,3.48820930587014,-0.333833430053478,3.16244458060867,0.251086263799304,35.8877536263536,407.05897514543
0.53,3.4196672168016,-0.002464991434598,4.69322466581389,0.137172785086308,-1.87944313298098,2.8568905228834,-2.46190802066309,3.99802239045343,0.581162277764905,54.1345896865665,407.05897514543
0.54,3.28187280611462,0.0205677071240753,3.77753330488356,-1.01093829132677,-2.82917657752819,1.66339172754251,-3.77524172276302,1.01946261975831,1.04555716870364,72.6971275675639,407.05897514543
0.55,3.12796526690183,0.0164565719133316,3.61129117492248,-0.808323282849197,-3.12015724093402,-0.221486617090985,-3.53935513949298,-1.08063669945717,1.64692423938629,90.9694607660826,407.05897514543
0.56,2.99219880314638,-0.00338392032906421,3.6679286483946,0.190072081106543,-2.07775273058303,-2.15318571401126,-2.68658085090732,-2.5044183550813,2.37289058885433,106.80330903451,407.05897514543
0.57,2.87096323862302,-0.00253823614536336,3.34104425983256,0.154253247200092,0.202557607516351,-2.86380983583142,0.0788985842376586,-3.34367250547017,-3.0718642370832,122.067583120998,407.05897514543
0.58,2.68940974762358,-0.00640760442859956,5.67829289845602,0.340137191229578,2.2996518363009,-1.3944774217624,4.67127876661419,-3.24620674543274,-2.11828095282018,137.754885112259,407.05897514543
0.59,2.59893251340497,-0.00358045517531402,4.43176231816766,0.208819171539599,2.2629618520276,1.27807147106903,3.96429207159448,1.99211221125377,-1.05805561029573,151.393180491124,407.05897514543
0.6,2.48000496305758,-0.00593206403991386,4.34637338864849,0.31710275239361,-0.262403841383857,2.46609083981126,-0.134137487753616,4.3558607557527,0.103613958521769,165.553462094723,407.05897514543
0.61,2.36010386793909,0.0371659249785138,5.02557743171747,-1.8273143508397,-2.3019357885021,0.522075855651031,-5.29406031330697,-0.753944068244291,1.3635168734252,178.038936808432,407.05897514543
0.62,2.24965027743425,-0.00652287580647992,5.05512962075593,0.348596866596778,-0.922293671860875,-2.05191210862312,-2.40335230455282,-4.46091391513507,2.71627165746989,190.854165192865,407.05897514543
0.63,2.13051774074112,0.0504462818001445,6.1442621806177,-2.48934161510193,1.78395541862249,-1.16582748952302,6.53356984488705,-1.12305142483762,-2.12595950769041,202.387723766574,407.05897514543
0.64,2.03061975244901,-0.0156404127855272,6.22293323997436,0.812177725587196,1.13229105389415,1.68569812564986,4.18023522164799,4.6808294413289,-0.599184377852985,213.738249091151,407.05897514543
0.65,1.94042465241501,0.0146233027478561,6.03991807952518,-0.711704003154112,-1.63292508096001,1.04834028476202,-5.48704469354384,2.62287504973705,1.00760054097803,224.732273632426,407.05897514543
0.66,1.84618136051576,-0.0141298684963056,6.47285296425387,0.740799967549964,-0.790371903039562,-1.6685015804563,-3.48274960750516,-5.50609346635115,2.69155079570414,234.804672461069,407.05897514543
0.67,1.79463277588332,0.017007734314756,4.82294648651371,-0.816651859156825,1.72859647514828,-0.482649240552738,4.86950985061216,-0.46433488521801,-1.83359979298203,244.538786037394,407.05897514543
0.68,1.69585591483525,0.0376058949045284,5.6746054974843,-1.85554574937452,0.0470190221199745,1.69562103630857,-1.82401739106934,5.68481821496321,-0.00555103465522789,254.006972821628,407.05897514543
0.69,1.62831639414463,-0.0237124914327878,5.16536201593649,1.20529254431638,-1.53898903348304,-0.532437147942416,-5.28299758754999,-0.47289677838306,1.88931089403195,263.047432999356,407.05897514543
0.7,1.53222862043953,0.0209414853260561,6.35168924276905,-1.03296890212344,0.978667304299227,-1.17914095790002,4.90876279008377,-4.16113312213766,-2.43516821955583,271.495237137748,407.05897514543
0.71,1.4704536879642,0.0341992452303972,5.98845191718469,-1.68046015622063,0.62505639846152,1.33143086022676,0.88077298830847,6.15708873122227,-0.41566684049129,279.500055742001,407.05897514543
0.72,1.35765947311418,-0.0217772272087097,8.28043135725727,1.12418243778621,-1.35002731889999,-0.145395085148256,-8.34841920168007,0.365001984509507,1.66204179796925,287.18374902999,407.05897514543
0.73,1.30766580102514,-0.00560959547272954,7.57289760349003,0.31366829139559,0.799391605056612,-1.03488858168264,4.35455234138328,-6.20363117989178,-2.48817232214677,294.54752410472,407.05897514543
0.74,1.28828337421121,0.0549911342293296,5.45789606247868,-2.72047765441464,0.436018093004811,1.21350166859601,-0.972322415510392,6.02031703627688,-0.302281129859954,301.617503146457,407.05897514543
0.75,1.21857383268421,0.0272271601356837,6.01042048215699,-1.33403193606731,-1.14877335715459,-0.407410453772997,-5.14456203977151,-3.38205218731495,1.93394585073742,308.345292042022,407.05897514543
0.76,1.17214903460176,0.02333906845349,5.5276829269978,-1.14132314135594,1.02087666162445,-0.576445065192373,5.40778114152813,-1.61672514044604,-2.06491404520785,314.748802568027,407.05897514543
0.77,1.14040617082193,-0.00222422595837868,4.45213091090683,0.137060947083487,-0.300960051390423,1.0999791948473,-1.03429194292902,4.33249299224588,0.265118656686236,320.84135460405,407.05897514543
0.78,1.04859368811217,0.0348661934453007,6.4812832886809,-1.72008643621306,-0.53580592604354,-0.902040123171177,-1.61569792695599,-6.50809116600317,2.6388396256805,326.682490673661,407.05897514543
0.79,1.02706120261316,-0.0174327161174558,5.12654829855619,0.897843336811865,0.961797865965779,0.360698597901482,5.13091598352694,0.872537268473172,-1.22897518284259,332.206427554952,407.05897514543
0.8,0.966219831288905,0.04101023417595,5.85723168996453,-2.02564907227721,-0.895439470875788,0.365309123456854,-6.19716948072645,0.0742136179883799,1.22585991389936,337.461338705596,407.05897514543
0.81,0.888099356550739,0.0488703308429705,7.54915412877596,-2.41817291716173,0.44337496893125,-0.771056037696192,6.14395188876513,-5.00890641815647,-2.56476851919592,342.474615079343,407.05897514543
0.82,0.842802882648873,-0.00672803795214236,7.70502852058579,0.365264557006058,0.0239076275795439,0.842490587982711,0.64505837943054,7.68666262995663,-0.0363524718191603,347.23905891535,407.05897514543
0.83,0.786800755154025,0.0283950452983748,8.48046280235569,-1.39212863547574,-0.477385650062252,-0.626070801126424,-3.75880786444417,-7.7283656045792,2.52620628453128,351.811858883341,407.05897514543
0.84,0.774385897398811,-0.0211892330680872,7.16026290962424,1.082880186088,0.702059736102872,0.327466988613113,7.00017567087075,1.85459834177427,-1.16171316920494,356.190864326509,407.05897514543
0.85,0.751783137447458,0.017022634221414,6.42993954183865,-0.8510814301229,-0.745744100039612,0.0966094875376532,-6.48392734637467,-0.164767349116713,1.46460520255636,360.346274416822,407.05897514543
0.86,0.665526617138193,-0.0294143284008361,8.96545088969813,1.47145191792759,0.568733877986393,-0.346889978040932,6.61953567420199,-6.22304008185139,-2.16265637266546,364.283848574929,407.05897514543
0.87,0.640884595759844,0.0221643785330671,8.50632712671369,-1.10486448626107,-0.299975643007691,0.566779444193364,-5.19469220862387,6.82594312731425,0.521353639294543,368.025037317752,407.05897514543
0.88,0.676527079366715,-0.0128662624057978,5.12045726309084,0.656934427727072,0.0740248429785941,-0.67258810013763,-0.190947145050407,-5.15889373928848,-3.05098995490229,371.573654410339,407.05897514543
0.89,0.645210075013944,-0.00856455687732394,5.15599706954752,0.449634689143396,0.191534596275024,0.616184948667012,2.02323108827643,4.76371841089452,-0.314644628127017,374.950256022735,407.05897514543
0.9,0.568627425456636,-0.0212692946052545,7.51468948565179,1.0891724884689,-0.348064345355025,-0.450156354355934,-5.65176512743781,-5.07093736104884,2.44601613345756,378.190199989961,407.05897514543
0.91,0.552057863180979,-0.021756329718228,6.93788950462451,1.0954571462204,0.469028699612987,0.291981679428876,6.57154460815762,2.47974567255974,-1.05336852583437,381.289578003508,407.05897514543
0.92,0.50793218288199,-0.00583952426290837,7.78617079711784,0.287451949727353,-0.498514712703723,-0.0975309369831165,-7.70992998658715,-1.12430596690445,1.75250286465739,384.230375839926,407.05897514543
0.93,0.48962341763904,-0.0281144094695569,7.41976068217583,1.40970628378556,0.489021056105193,-0.0371472449330626,7.16687934247724,-2.38242751782291,-1.70397067993481,386.994345979018,407.05897514543
0.94,0.490164649357615,0.0375818335371833,6.18006645197033,-1.86551611439842,-0.430296022679863,0.237737482441834,-6.39669090778258,0.869319937733521,1.14255980535743,389.622253599007,407.05897514543
0.95,0.43288512350828,-0.0270909584924395,7.88560184818905,1.37766563342106,0.347402833653677,-0.259681961938471,5.11670503487723,-6.15629829457069,-2.27519327272146,392.116968423047,407.05897514543
0.96,0.46516112057301,-0.00235563684209014,5.16402687077191,0.112189002851731,-0.267689884858764,0.380424161511821,-2.85824313494756,4.30234890216267,0.608115120154465,394.511700581585,407.05897514543
0.97,0.432143712597929,-0.00713890155729467,5.7435991099223,0.35246066450587,0.16165576879367,-0.400832339849336,1.73097700338599,-5.48788464431178,-2.77476274224244,396.772068131113,407.05897514543
