t,iq,id,vq,vd,ia,ib,va,vb,theta_e,omega,r
0,0,0,0,0,0,0,0,0,0,0,0
0.01,0.00118671186350128,0.000679173669223542,-0.0589707773102657,-0.0340404912401608,0.000247835773332962,0.00134467072155145,-0.0125897984356505,-0.0669164000510944,0.337550347328703,-0.00113720245548427,0
0.02,0.0013448623290106,0.000770225381995004,-0.0668998757953599,-0.0386040490010752,0.000281386368260404,0.00152404840304315,-0.0142705334681198,-0.0759092738421813,0.337541956667468,-0.00124785690692012,0
0.03,0.00137109160427959,0.000785251645639662,-0.0682054445509753,-0.0393571842822186,0.000286891738698644,0.00155377136817881,-0.0145494709552236,-0.0773904614015434,0.337533376187041,-0.00122642971895801,0
0.04,0.00135821291155108,0.000778147810467538,-0.0675769762137859,-0.0390011266364505,0.000284465835789068,0.00153926460243465,-0.0144222347057151,-0.0766794283964369,0.337525464871455,-0.00116986119481285,0
0.05,0.00137054475384215,0.000785259459612158,-0.0681948322685173,-0.0393575583032984,0.000287104823375411,0.00155325341190328,-0.0145545645810695,-0.0773803411312216,0.337517528016313,-0.00113819167387351,0
0.06,0.00137029499326083,0.000785270628837815,-0.0681903797637437,-0.0393581331696112,0.000287209925236527,0.00155301924904898,-0.0145571721268527,-0.0773762190765975,0.33750989407671,-0.00109570175229859,0
0.07,0.00140287296958989,0.000803954292888855,-0.0698084180776491,-0.0402945709418986,0.000294063272167508,0.00158994398197626,-0.0149055611024278,-0.0792129530450503,0.337502600039837,-0.0010876989932934,0
0.08,0.00136984622974399,0.000785303581889727,-0.0681829966756871,-0.0393597836496169,0.000287411931111435,0.00155260258621692,-0.0145622860256569,-0.0773695898291336,0.337495525264652,-0.00101574720015975,0
0.09,0.00136952266028659,0.000785257408941166,-0.0681739812153414,-0.0393574573212062,0.000287485988655082,0.00155228003970368,-0.0145635986531478,-0.0773602142952715,0.337488771451709,-0.000978053896898435,0
0.1,0.0013692852132551,0.000785253216268834,-0.0681689425312935,-0.0393572560896732,0.000287570718401136,0.00155205273454798,-0.0145655787107228,-0.0773552987814322,0.337482287922993,-0.000941941979139872,0
0.11,0.00136905754510543,0.000785249281228868,-0.0681641179098082,-0.0393570636391556,0.000287652047943619,0.00155183481556331,-0.0145674760500248,-0.0773505919192008,0.337476063776701,-0.000907274937908217,0
0.12,0.00136883907375298,0.000785245503547616,-0.0681594893830245,-0.0393568683252597,0.000287730091838175,0.00155162569743011,-0.0145692864427403,-0.0773460727501781,0.33747008863586,-0.000873994797725251,0
0.13,0.00142718816953699,0.000818652054220044,-0.0710502902907089,-0.0410312147587645,0.00029994268844715,0.00161774276100749,-0.0151925320490348,-0.0806281049319213,0.337464048359957,-0.000898526839003686,0
0.14,0.00157104883820532,0.00090163193015876,-0.0782833235299209,-0.0451902271054879,0.000330620838245119,0.00178096166461443,-0.0167226480291377,-0.0888301098256071,0.337458353412596,-0.00100990495838276,0
0.15,0.0013686827188487,0.000785496178404591,-0.068169560866179,-0.0393694250023388,0.000288045139968223,0.00155155619572865,-0.01457913358637,-0.0773594824024388,0.337452852260991,-0.000778462859973516,0
0.16,0.00136802520637644,0.000785232000717057,-0.0681422636511054,-0.0393561818727048,0.000288021381181959,0.00155084684743963,-0.0145760653321955,-0.0773292665588246,0.337447805181157,-0.000749882010875826,0
0.17,0.00136784672962413,0.000785228350277162,-0.0681384379271254,-0.0393560228644248,0.000288084539118807,0.00155067583206263,-0.0145775565246841,-0.0773255333290595,0.337442960564169,-0.000722897520608049,0
0.18,0.00136767677730847,0.000785225407450484,-0.0681348325546661,-0.0393558603629559,0.000288145240406306,0.00155051314993645,-0.0145789564469061,-0.0773220096808152,0.337438309763857,-0.000696993640342118,0
0.19,0.0013675133181514,0.000785222583466882,-0.0681313547332055,-0.0393557304862553,0.000288203614198439,0.00155035668724033,-0.0145803305077418,-0.0773186198930999,0.337433845025168,-0.000672126081658539,0
0.2,0.00136735637824741,0.000785219872324385,-0.0681280136635913,-0.0393556006213638,0.00028825965790189,0.00155020646452441,-0.0145816454664166,-0.0773153617433593,0.337429558904459,-0.000648253382687844,0
0.21,0.00136720584118117,0.000785217269516553,-0.0681248111241275,-0.0393554707669683,0.000288313417041352,0.00155006236844228,-0.0145829012888401,-0.077312236806263,0.337425444255814,-0.000625335742761804,0
0.22,0.00136706147412203,0.000785214770719421,-0.0681217427079745,-0.0393553409219845,0.000288364975398003,0.00154992417593518,-0.0145840999664547,-0.0773092408242738,0.337421494219279,-0.000603334953493659,0
0.23,0.00136692292782404,0.000785212371781043,-0.0681187979359329,-0.0393552110856409,0.000288414455016183,0.00154979155422488,-0.0145852454797661,-0.0773063638138981,0.337417702209374,-0.0005822143350706,0
0.24,0.00136678985304122,0.000785210068715361,-0.0681159660777662,-0.0393550812576178,0.000288461977674451,0.0015496641706591,-0.0145863418720983,-0.0773035955586244,0.337414061904138,-0.000561938675102189,0
0.25,0.00136666199085837,0.000785207857694278,-0.0681132405324882,-0.0393549840195766,0.00028850763499247,0.00154954177794368,-0.0145874225448079,-0.077300940528023,0.337410567234237,-0.000542474169913409,0
0.26,0.00137496013799262,0.000789970496010128,-0.068526917018765,-0.0395936988160471,0.00029025989279768,0.00155894770927964,-0.0146759923303394,-0.0777702680408932,0.337407219529744,-0.000532192181186403,0
0.27,0.00132575970726768,0.000761954554442034,-0.0660979758316717,-0.0381895303499919,0.000280115913768449,0.00150324602753612,-0.0141553227060208,-0.0750133953136746,0.337403942739983,-0.000465191457407876,0
0.28,0.00128358151596575,0.00073751155684374,-0.0639141431827569,-0.0369644089485712,0.000271018257546059,0.00145535353391666,-0.0137224376503226,-0.0725470876923131,0.337400801640032,-0.000405916019459927,0
0.29,0.00136600617912212,0.000785092688553005,-0.0680938049299758,-0.0393492204840409,0.000288635631329937,0.00154888117147377,-0.0145893944054763,-0.0772805084961578,0.337397933212091,-0.000471913275979702,0
0.3,0.00136498711841815,0.000784575936170788,-0.0680460022841857,-0.0393233037377197,0.000288489202041931,0.0015477477873901,-0.0145809549936726,-0.077226785477455,0.337395448556087,-0.000457152151553996,0
0.31,0.0013660057353137,0.000785195153233221,-0.0680991801299124,-0.0393543603570206,0.000288740571934157,0.00154891316079695,-0.0145928695937588,-0.0772872057361116,0.337392699837623,-0.000442954233802614,0
0.32,0.00136591186649317,0.000785194877996975,-0.0680972475241514,-0.0393543329506807,0.000288775474385205,0.00154882373072378,-0.0145936875160455,-0.0772853344887799,0.337390059789877,-0.000428252373658652,0
0.33,0.00136581901922303,0.000785193277196401,-0.0680952556307259,-0.0393542682689896,0.00028880862380609,0.00154873485614582,-0.0145944817179199,-0.0772833964948928,0.337387525357863,-0.000414136173175048,0
0.34,0.0013657301561497,0.000785191737389992,-0.0680933555271802,-0.0393541710203069,0.000288840354459564,0.00154864979046842,-0.0145952069589006,-0.0772815358120773,0.337385092319279,-0.000400584704281611,0
0.35,0.00136564475945706,0.000785190259137173,-0.0680915256361248,-0.0393541063281406,0.000288870844615237,0.0015485680441,-0.0145959321482179,-0.0772797535779343,0.337382756617782,-0.000387575379993709,0
0.36,0.00136556262239219,0.000785188839986333,-0.0680897597730169,-0.0393540416306955,0.000288900166475223,0.00154848942002337,-0.0145966289089216,-0.0772780331214046,0.337380514359272,-0.000375086511110114,0
0.37,0.0013654838613704,0.000785187477575086,-0.0680880676613263,-0.0393539769271411,0.000288928285106442,0.00154841402624401,-0.0145972943113893,-0.0772763835632982,0.337378361805466,-0.000363097276119917,0
0.38,0.00136540824356107,0.000785186169636813,-0.0680864414932573,-0.039353912217973,0.000288955281037631,0.00154834164128396,-0.0145979312187869,-0.0772747974840843,0.337376295367518,-0.000351587686503491,0
0.39,0.00136533565254391,0.000785184913994521,-0.0680848790994184,-0.0393538445925773,0.000288981196121864,0.00154827215358285,-0.014598537869674,-0.0772732718232303,0.337374311600426,-0.00034053855340957,0
0.4,0.00136526608832878,0.000785183708558788,-0.0680833839718669,-0.0393537798715828,0.000289006033539269,0.00154820556151456,-0.0145991188569629,-0.0772718117546232,0.337372407196687,-0.000329931455661362,0
0.41,0.00136519931808013,0.000785182551322524,-0.0680819478346063,-0.0393537151450008,0.000289029873413807,0.0015481416437982,-0.0145996744201726,-0.0772704084594671,0.337370578981249,-0.000319748709045702,0
0.42,0.00136513522538264,0.000785181440359909,-0.0680805681191375,-0.0393536504130954,0.000289052757210095,0.0015480802890727,-0.014600205645885,-0.0772690594698714,0.337368823906063,-0.000309973336830288,0
0.43,0.0013650733185035,0.000785180373821516,-0.0680792233084824,-0.0393536182217353,0.000289074850504786,0.00154802103187595,-0.0146007505942047,-0.0772677552120815,0.337367139045104,-0.000300589041458668,0
0.44,0.00136501434807831,0.000785179349931686,-0.0680779539121395,-0.0393535534776026,0.0002890959075313,0.00154796457913851,-0.0146012346499213,-0.0772665123250419,0.337365521589461,-0.000291580177379822,0
0.45,0.00136495733064175,0.000785178366985451,-0.0680767136212261,-0.0393535212716366,0.0002891162564076,0.00154791000149732,-0.0146017347720032,-0.0772653086164267,0.337363968842545,-0.000282931724963315,0
0.46,0.00136490301682756,0.000785177423346643,-0.068075542706056,-0.0393534565160292,0.000289135651157241,0.00154785800599025,-0.0146021764125866,-0.0772641605047175,0.337362478215248,-0.000274629265459947,0
0.47,0.00136485065600294,0.000785176517444167,-0.0680744062935494,-0.0393534242954236,0.000289154342622934,0.0015478078830655,-0.014602632722955,-0.077263056589507,0.337361047222705,-0.000266658956961467,0
0.48,0.0013648006495538,0.00078517564776916,-0.0680733269629556,-0.0393533595288242,0.000289172200232911,0.00154776001030026,-0.0146030350016574,-0.0772619966008563,0.337359673479181,-0.000259007511322769,0
0.49,0.00136475224684918,0.000785174812873481,-0.068072269579469,-0.0393533272960659,0.000289189474638785,0.00154771367823927,-0.0146034564669279,-0.0772609688923827,0.337358354694058,-0.00025166217200998,0
0.5,0.00136470582320472,0.000785174011367085,-0.0680712552480199,-0.0393532950563884,0.000289206043717826,0.00154766923995156,-0.0146038595967816,-0.0772599825764524,0.337357088668783,-0.000244610692828659,0
0.51,2.77187727153592,-0.0658103058917593,7.79290972143526,3.30143900202459,-0.204357963550738,2.76511707302826,2.90756034203929,7.94827240775816,0.050033915358027,15.26590298847,483.692944233612
0.52,2.76537533417238,0.0355845103027483,5.18901824178291,-1.77704597287973,-0.578715423986451,2.7043770917279,-2.88379992190456,4.66556542272285,0.223679791665299,32.0624692668723,483.692944233612
0.53,2.60799180692239,-0.0254656970374609,10.0851762121297,1.2866952767639,-1.31777566988372,2.25071922961582,-3.89374011854082,9.39175978473784,0.519918566778432,48.774395853139,483.692944233612
0.54,2.64313825919682,0.00783773586354997,5.13719421691993,-0.378292823184722,-2.12994231382937,1.56511565933405,-4.3718297592949,2.72414655225671,0.940049326890526,66.009855487473,483.692944233612
0.55,2.50397345777702,-0.0323631814882106,8.61748651823744,1.63259186135337,-2.49835261348029,0.170776671369576,-8.45673336625954,2.32596019952058,1.48962277092022,83.6898287655482,483.692944233612
0.56,2.42324912464629,-0.0358835629852805,9.68041554882812,1.81402596749054,-1.99232249421431,-1.37988225194732,-9.04947340877486,-3.88692248862773,2.16173150414469,99.392683662666,483.692944233612
0.57,2.36514475698589,0.00735501690394214,9.76535050223541,-0.345845591891753,-0.46747294274063,-2.31849797618564,-1.56110893139014,-9.64596384553012,2.94574242745412,114.598945316247,483.692944233612
0.58,2.29026428442971,-0.0394396665438239,10.3230139322199,1.99149605431836,1.51144988000151,-1.72115811013249,5.15824019248708,-9.16096235642209,-2.4381953552141,130.650171898122,483.692944233612
0.59,2.24963178961396,0.0534746175123906,9.61334241293917,-2.65489992597434,2.23422570143661,0.268213047035196,9.13589397227897,4.0000359114176,-1.42755473599997,144.937425227574,483.692944233612
0.6,2.18365820908225,0.0640673842777183,9.93675230807962,-3.19481266616217,0.728876520413648,2.05941904958903,-0.00252312148910327,10.4377137361519,-0.310834677241103,159.935862642569,483.692944233612
0.61,2.09479194944039,0.054212586955137,11.6853155815264,-2.68795510642912,-1.62377208310196,1.32455899761519,-10.8874664608836,5.02342283280792,0.912411392844611,173.584024829219,483.692944233612
0.62,2.08744077169895,0.0222708029681207,9.18304742854846,-1.09669197410252,-1.65506041009871,-1.27227355664568,-6.54276635634584,-6.53630643156364,2.23683782557334,187.731991087907,483.692944233612
0.63,2.02044998663773,0.0349231454383809,9.94822488553506,-1.71534787783591,0.971321519722474,-1.7719966929754,6.42160960526137,-7.7892571399839,-2.62288711828037,200.76221445884,483.692944233612
0.64,1.92568959555308,-0.0175435475183754,11.9574017925026,0.909433793182498,1.70956501579122,0.886552678222602,11.0759590934044,4.59670073125921,-1.10150248377794,213.869241773394,483.692944233612
0.65,1.87439762709507,-0.000964081788859927,11.8327029990164,0.0690392257785755,-0.921668171676698,1.63214434877294,-5.75287478721126,10.3403122951049,0.513543025270443,226.795088685136,483.692944233612
0.66,1.92889501174497,-0.00270748533161047,6.60004283779779,0.155518508106679,-1.53486450911795,-1.1682612017274,-5.35141892845618,-3.86614367545886,2.21999130370715,239.034527649859,483.692944233612
0.67,1.84901403763093,0.0096972785376247,8.0794882260632,-0.445329359969912,1.41260668539763,-1.19310070863159,6.48528800447516,-4.83916188331778,-2.26690794119991,250.87528781596,483.692944233612
0.68,1.72740357165368,0.0448148402806409,11.6514769519237,-2.20888249349495,0.688334536765029,1.58496909583996,2.31437689354565,11.6309817567521,-0.383774424943233,262.555084767915,483.692944233612
0.69,1.69045016761251,0.00475356124671741,11.002019259475,-0.205072003722488,-1.69036712104604,-0.0174172791277324,-10.9983834713553,-0.349347004549991,1.58391180785718,274.043563267633,483.692944233612
0.7,1.71985974444772,-2.55342232987621e-05,7.11698682645126,0.0320019256288863,0.812637066190625,-1.51576335220141,3.3344924891066,-6.28758184449447,-2.64948005092813,285.117146668538,483.692944233612
0.71,1.63532471904592,0.0302428426411252,8.96084635989099,-1.48836963378226,0.83863327969938,1.40424206903023,3.15978522220942,8.51632367878557,-0.519877216801076,295.901860203734,483.692944233612
0.72,1.55837480902337,-0.0483917018413832,10.4913375635977,2.45132617399829,-1.54218168412275,-0.229236679791968,-10.7051822562207,1.21500483364607,1.68731755004344,306.317516162816,483.692944233612
0.73,1.44738378782946,0.00383093279134539,13.77135897819,-0.16710160996826,1.06357197601995,-0.981707266522272,10.2571863124876,-9.19066809351448,-2.31354287564793,316.406854738775,483.692944233612
0.74,1.41082761007565,0.0369120465652555,13.366506703387,-1.82278340784993,-0.0221777529194634,1.41113613510846,-2.38070958231924,13.2784887200417,0.0418723775886936,326.244699644598,483.692944233612
0.75,1.45869901838232,0.0810265804896732,8.78622669732747,-4.02765013931252,-0.972855714746354,-1.08991737818091,-2.32937375449246,-9.38049908765071,2.46837347298996,335.744675613275,483.692944233612
0.76,1.37067799249624,0.0403334336817979,11.0616205993615,-1.98333510161968,1.33770244103279,0.301557829016269,10.2217357805933,4.67003062530365,-1.31965553810012,344.928160900691,483.692944233612
0.77,1.28737194319151,-0.00276655357140265,13.1354698631551,0.18123371801038,-1.21935139325719,0.412936258636979,-12.3738215230945,4.41157059345122,1.24211729828703,353.865860049777,483.692944233612
0.78,1.28404751556378,0.0632809928939346,11.240701438072,-3.12817900040029,0.805989748293384,-1.00158026734412,9.80728258956035,-6.32108225598479,-2.4147388496976,362.601165206076,483.692944233612
0.79,1.28635273354315,0.00338757533877715,9.07317983586067,-0.156137519486249,-0.345504214123797,1.23908904796359,-2.61027281418946,8.6909980493821,0.274563650764063,371.128220719108,483.692944233612
0.8,1.1499980189072,0.016017388955082,13.8907696069511,-0.78413614626506,-0.149964290477292,-1.14029062603402,-0.840466857041781,-13.8874751208234,3.02475629382748,379.246622215953,483.692944233612
0.81,1.14566371578669,-0.023523160509749,12.1954570232817,1.21373829040446,0.476889464978913,1.04195735370631,6.39496800646744,10.4549852625703,-0.449756787111179,387.04723550987,483.692944233612
0.82,1.06870065139527,0.0453434830914914,14.1662160948089,-2.2302480215309,-0.743367462197654,-0.769143634113526,-7.736311689851,-12.0749809987362,2.41563799036526,394.65071247878,483.692944233612
0.83,1.14172188887811,0.0209914425634661,8.63882290637962,-1.04089988906276,0.939091426831435,0.649674383253638,6.40503242847381,5.88967684826926,-0.947203365703476,402.130719810676,483.692944233612
0.84,1.06200418927156,0.0107453022167196,10.8010558723495,-0.511846329877195,-0.958324245609567,-0.457802358913675,-9.47318826665322,-5.21377969304113,2.02657214890788,409.214369063078,483.692944233612
0.85,1.00484530345234,0.048433432403009,11.8983542778634,-2.38497886200992,0.963654638991466,0.288841856376097,10.4257397276699,6.20990417193945,-1.23141926121017,416.097598214262,483.692944233612
0.86,0.963227572496196,-0.00696225258254698,12.1956620866561,0.356378379247051,-0.925659594558558,-0.26647728679875,-11.839889792141,-2.94587660825297,1.84386758950243,422.892700606172,483.692944233612
0.87,0.900404367276251,-0.0408906264423205,13.6443778533396,2.0795276217948,0.861000022721712,0.266606505573668,13.7278555259492,1.42809831355429,-1.31589472588973,429.27725729071,483.692944233612
0.88,0.943874928281776,0.0622801410858771,9.80946760449793,-3.10337114230485,-0.923678027950609,-0.203954889360071,-8.55149835499177,-5.72087781858326,1.85400452821003,435.562552753696,483.692944233612
0.89,0.911932115706487,-0.0296565901492435,9.74565777309508,1.50518030091004,0.844167688741463,0.3462377944146,9.65775678533127,1.99277370615029,-1.21407739246975,441.599775295351,483.692944233612
0.9,0.817293331197091,0.0574821672121539,12.9053686894076,-2.84132147924581,-0.75360257028677,-0.321489898478658,-10.1902975897429,-8.41305436749615,2.04424155420568,447.37018915701,483.692944233612
0.91,0.788902665753752,-0.0621964220767356,12.758558185544,3.12646459320188,0.599804399231659,0.516207800807846,12.1414275937008,5.01411246517056,-0.938841480814748,452.968811659006,483.692944233612
0.92,0.772888971744522,0.0236734584899996,12.0564986047818,-1.14756218724933,-0.538809144235497,-0.554619239992081,-7.28520624371263,-9.67480374825662,2.40127293649711,458.295005364052,483.692944233612
0.93,0.752193436283054,0.0646665462203057,11.5897875459888,-3.2342489593273,0.419330211523919,0.62780482754649,2.7546487482066,11.7130462291443,-0.503117529925223,463.53122675427,483.692944233612
0.94,0.748059202304774,0.00802790846802739,10.3480463869118,-0.363105257629016,-0.177235685153988,-0.726804326744979,-1.98989834035775,-10.1614080741223,2.91313600635867,468.540117889799,483.692944233612
0.95,0.686536370699905,0.0159917671573917,11.9941088952996,-0.792983299744488,-0.040614773559025,0.685520506680408,-1.77828144582623,11.8880269938038,0.0824666345170394,473.378430956844,483.692944233612
0.96,0.648704002134341,-0.00619448160838832,12.513774373576,0.346879165219738,0.064692922905659,-0.645499868097144,0.783482272617458,-12.494039769287,-3.05125348430188,478.000508394514,483.692944233612
0.97,0.62156782310667,0.062031702657633,12.4879115954375,-3.09364082729378,-0.225852518666647,0.582396025628697,-8.40808643409471,9.73769131265485,0.469413519760542,482.502578214555,483.692944233612
0.98,0.607096234784261,0.0472558902567513,11.8952195256826,-2.37398277261158,0.438076096977597,-0.42295187753462,10.6843956898942,-5.74244987009961,-2.2609484213066,486.809331737447,483.692944233612
