t,iq,id,vq,vd,ia,ib,va,vb,theta_e,omega,r
0,0,0,0,0,0,0,0,0,0,0,0
0.01,0.00082176180813059,0.000466211370985095,-0.0406584989627239,-0.023336605345147,-3.14534791333777e-05,-0.000944275484373212,0.00179516057886062,0.0468453635425436,-2.65883787248746,-0.00134446556925081,0
0.02,0.000916394747775979,0.000519618822738707,-0.0454013289590161,-0.0260099498647473,-3.48374914595061e-05,-0.00105288622551754,0.00196179851526012,0.0522871830355871,-2.65884792222648,-0.00142634512963242,0
0.03,0.000953607827006175,0.000540911520008308,-0.0472555092182096,-0.0270757841613581,-3.64333266492715e-05,-0.00109573070273421,0.00204565412928499,0.0544242274966589,-2.65885808653374,-0.00140922356669206,0
0.04,0.000931600764884018,0.000529023261110435,-0.0461892643864366,-0.026480703346878,-3.61293275985401e-05,-0.00107071950930936,0.00201402634832184,0.0532035665362179,-2.65886745465215,-0.00129725495110714,0
0.05,0.000952822840196957,0.00054139200234234,-0.0472531857617305,-0.0270998214636855,-3.72435298878966e-05,-0.00109525777079313,0.00206902877551776,0.0544332895195791,-2.65887655976007,-0.0012612241161254,0
0.06,0.000953228943079409,0.000542030144847642,-0.047290255734079,-0.0271317706764614,-3.76297469018807e-05,-0.00109591336244976,0.00208059216792167,0.0544809361489454,-2.65888522636392,-0.0011931139044256,0
0.07,0.000977097893464906,0.000556094680691075,-0.0484825791319245,-0.0278357735135732,-3.90168954066228e-05,-0.00112358322752669,0.0021511562158582,0.0558637923284594,-2.65889329938013,-0.00116979839839908,0
0.08,0.000953170275588785,0.000542786483661942,-0.0473185752020167,-0.027169629140357,-3.83443030073192e-05,-0.00109621186617322,0.00210184528338731,0.0545235596158041,-2.65890110217796,-0.00106697597355299,0
0.09,0.000951217801205011,0.000542093271408066,-0.0472366278790017,-0.0271349238435428,-3.86445073695366e-05,-0.00109416041889906,0.00210953750598115,0.0544348505728178,-2.65890836457477,-0.00100598449447145,0
0.1,0.000950510325102504,0.000542054589841417,-0.0472152100484213,-0.0271329994332261,-3.89461044859029e-05,-0.00109351554970196,0.00211814635801272,0.0544149719669691,-2.65891520341614,-0.00095048263386164,0
0.11,0.000949905994148263,0.000542050016305116,-0.0471980990589934,-0.0271327716532327,-3.92295987142898e-05,-0.00109297788471675,0.00212623728150684,0.0543996963906211,-2.65892164782621,-0.000898288193827642,0
0.12,0.000949339963895418,0.000542047359285305,-0.0471821440539974,-0.0271326341787668,-3.94966008773657e-05,-0.00109247504560803,0.00213385125669862,0.0543854873456627,-2.65892772079718,-0.000849107952398341,0
0.13,0.000993798167898885,0.000567587973380892,-0.0493851916426466,-0.028411081327739,-4.14914488716545e-05,-0.00114370860174974,0.00224406581711389,0.0569302280374916,-2.6589337128675,-0.000877486464747633,0
0.14,0.00103482255320947,0.000591696924047466,-0.0514806419751264,-0.0296178826684675,-4.38121302794845e-05,-0.00119123610749447,0.00234076859239271,0.0593464091106709,-2.65893936795858,-0.000902674342941878,0
0.15,0.000952512654222271,0.000544615851870111,-0.0473720231798269,-0.0272612028558022,-4.03177761062483e-05,-0.00109647674826765,0.00216053210921439,0.0546133121344999,-2.65894475800391,-0.000719269872390491,0
0.16,0.000947570770128932,0.000542171763873144,-0.0471378014617281,-0.0271388486488784,-4.04517291304165e-05,-0.00109096482232674,0.00216112165928253,0.0543490476991622,-2.65894951762271,-0.000673040718949722,0
0.17,0.000946907066921587,0.000542043201744385,-0.0471138695558121,-0.0271324189147826,-4.0650762979253e-05,-0.00109031708296832,0.00216677641763038,0.0543248556431154,-2.65895398533642,-0.000636437870017893,0
0.18,0.000946501171874341,0.000542034853391455,-0.0471021353379971,-0.0271320010108459,-4.08363393355005e-05,-0.00108995350544887,0.00217208093404875,0.0543142586865317,-2.65895819458606,-0.000602327456160095,0
0.19,0.000946130958464868,0.000542032837298492,-0.0470916818834147,-0.027131894468233,-4.10106969763964e-05,-0.0010896244811902,0.00217705356501239,0.0543049411915631,-2.65896216118228,-0.000570204049408031,0
0.2,0.000945782488797714,0.000542031240652031,-0.0470818495477984,-0.027131825028874,-4.117508307812e-05,-0.00108931491979716,0.00218175830844206,0.0542961915508123,-2.65896589916044,-0.000539933234794767,0
0.21,0.000945454158982782,0.00054202975152629,-0.0470725854052733,-0.0271317584869878,-4.13299804982693e-05,-0.00108902325548608,0.00218619015649031,0.0542879469857965,-2.65896942169976,-0.000511407144170942,0
0.22,0.000945145063628749,0.000542028348824751,-0.0470638695356511,-0.0271316693976589,-4.14758046398352e-05,-0.00108874867616955,0.0021903365001512,0.0542801780209752,-2.65897274121717,-0.000484525160146533,0
0.23,0.00094485337870165,0.000542027026816415,-0.0470556345680789,-0.0271316253621481,-4.16134100321829e-05,-0.00108848956317866,0.00219428913075683,0.0542728563335963,-2.65897586941398,-0.000459192521258828,0
0.24,0.000944578658132798,0.00054202578083168,-0.0470478806370887,-0.0271315558683241,-4.17430118513558e-05,-0.0010882455189192,0.00219798613406407,0.0542659492981759,-2.65897881731692,-0.000435319930746616,0
0.25,0.000944319944672571,0.000542024606506438,-0.0470405810391361,-0.0271314892698358,-4.18650620561326e-05,-0.00108801569315148,0.00220146558950874,0.0542594464011287,-2.6589815953172,-0.000412823238638106,0
0.26,0.00095374891023821,0.000547505958559923,-0.0475103834286164,-0.0274058743841422,-4.23472813715955e-05,-0.00109891149152224,0.00222662128100402,0.0548029254872813,-2.65898417605497,-0.000408443023694775,0
0.27,0.000923813749140387,0.000530473944660825,-0.0460400107202514,-0.0265533085325234,-4.11559458448296e-05,-0.00106449078774147,0.00215395406077496,0.0531048139347867,-2.65898676802176,-0.000336725548018998,0
0.28,0.000921558326238841,0.00052919216538195,-0.045874703179122,-0.0264891524766115,-4.10697526996089e-05,-0.00106189800450654,0.00217396615073815,0.052928607216487,-2.65898909903748,-0.00031436679446382,0
0.29,0.000942211906609662,0.000541355061986954,-0.046955513366958,-0.0270979758691869,-4.22607429260959e-05,-0.00108583728509535,0.0022117794191881,0.0541685200422022,-2.65899119821181,-0.000332984882604421,0
0.3,0.000935923864057935,0.000538008754968959,-0.0466488102232567,-0.026930486419926,-4.22165721819773e-05,-0.00107871435550362,0.0022058434923558,0.0538191122980161,-2.65899283892288,-0.000309217376021382,0
0.31,0.00094268722456411,0.00054181096600694,-0.0469859690668223,-0.0271208071440175,-4.24478820318489e-05,-0.00108646974350544,0.00221806327040487,0.0542060851253792,-2.65899478006353,-0.000305360741796075,0
0.32,0.00094289614006335,0.000542007452863542,-0.046999902384687,-0.0271306357571912,-4.25269921110685e-05,-0.00108674590629456,0.00222040383920572,0.0542229843106254,-2.65899663646995,-0.000290979599459592,0
0.33,0.000942754049579777,0.000542016945100516,-0.0469963273203767,-0.0271311036089449,-4.26032442355782e-05,-0.00108662437408507,0.0022225723100141,0.0542200307724926,-2.65899838737477,-0.000276836359762757,0
0.34,0.000942601338646953,0.000542016777780194,-0.0469920299971387,-0.0271311079861036,-4.26757587050103e-05,-0.00108648895559651,0.00222465994428963,0.0542162225900871,-2.65900003744812,-0.000263475770656723,0
0.35,0.000942456628052746,0.000542016147373178,-0.046987939793731,-0.027131063679317,-4.2744046453873e-05,-0.00108636041269303,0.00222660316720362,0.0542125754854558,-2.65900159242397,-0.000250883433176727,0
0.36,0.000942320040601705,0.00054201552873771,-0.0469840732642778,-0.0271310418203071,-4.28084771367669e-05,-0.00108623907432832,0.00222845760327696,0.0542091371216022,-2.65900305777879,-0.000239016757754872,0
0.37,0.000942191252976998,0.00054201494444738,-0.0469804247480652,-0.0271310199373075,-4.28692264663294e-05,-0.00108612466439762,0.00223020625590189,0.0542058920450843,-2.65900443867774,-0.000227834013665103,0
0.38,0.000942070174686789,0.000542014393733651,-0.0469769996089949,-0.0271309726602784,-4.29263411005109e-05,-0.00108601710220815,0.00223182442858598,0.0542028332237001,-2.65900573998842,-0.000217295787582639,0
0.39,0.000941955880768957,0.000542013874727186,-0.0469737609398138,-0.0271309507349356,-4.29802536652351e-05,-0.00108591556739319,0.00223337444944566,0.0541999515053366,-2.6590069662979,-0.00020736493294543,0
0.4,0.000941848222524243,0.000542013385606527,-0.0469707101204301,-0.0271309287886118,-4.3031036292779e-05,-0.00108581992722748,0.00223483343862244,0.0541972363285418,-2.65900812192902,-0.000198006443871166,0
0.41,0.000941746734291359,0.000542012924652977,-0.0469678321580274,-0.0271309068225571,-4.30789080230784e-05,-0.00108572976827701,0.00223620857683653,0.054194674404777,-2.65900921095519,-0.000189187332030324,0
0.42,0.000941651066824342,0.000542012490245837,-0.0469651174120225,-0.0271308848378414,-4.31240336978351e-05,-0.00108564478028107,0.00223750454796311,0.0541922571868631,-2.65901023721509,-0.000180876510376058,0
0.43,0.000941560987292547,0.000542012080857005,-0.0469625616061006,-0.0271308628349036,-4.31665239718351e-05,-0.00108556475614974,0.00223872353383798,0.0541899808794226,-2.65901120432654,-0.000173044683566525,0
0.44,0.000941476146450009,0.000542011695046963,-0.0469601542091191,-0.0271308408147462,-4.32065433720592e-05,-0.00108548938572051,0.00223987060802423,0.0541878361472264,-2.65901211569825,-0.000165664244697076,0
0.45,0.000941395878081115,0.000542011331458541,-0.0469578684646344,-0.0271308383129835,-4.32444033767966e-05,-0.00108541807810362,0.00224097566674175,0.054185808348388,-2.65901297454305,-0.000158709177989755,0
0.46,0.000941320525087042,0.000542010988812466,-0.0469557276950968,-0.0271308162597491,-4.32799470317498e-05,-0.00108535113632803,0.00224199344337457,0.0541839000044867,-2.65901378388822,-0.000152154967088449,0
0.47,0.000941249537667315,0.000542010665903382,-0.0469537101998973,-0.027130794192076,-4.33134315287097e-05,-0.0010852880727075,0.00224295146948009,0.0541821009534909,-2.65901454658658,-0.000145978508637952,0
0.48,0.000941182624783629,0.000542010361594991,-0.0469518069081556,-0.0271307721108364,-4.33449938571445e-05,-0.00108522862880522,0.00224385410148033,0.0541804031550351,-2.65901526532693,-0.000140158030847327,0
0.49,0.000941119353056435,0.000542010074816372,-0.0469500013008962,-0.0271307724544094,-4.33748369484126e-05,-0.00108517242013401,0.00224472901886948,0.0541788023839485,-2.65901594264238,-0.000134673016744681,0
0.5,0.000941060007168436,0.000542009804557992,-0.0469483124990844,-0.0271307503460605,-4.34028304023077e-05,-0.00108511969830149,0.00224552772616537,0.0541772947468122,-2.65901658092076,-0.000129504131853986,0
0.51,4.66250744150634,0.0165546731244628,6.17524429152876,-0.822157963172989,-0.30137566691532,4.65278652064498,-1.24127569094345,6.10481944332019,0.0682333762635607,21.0108572227422,793.835623298159
0.52,4.58826022966532,-0.00986144603024441,5.33711827879514,0.507890126661802,-1.40254647259552,4.36864882720689,-1.13661712500604,5.23935925603053,0.308504138308689,44.5073791997376,793.835623298159
0.53,4.46862404225002,0.040558537872956,6.64890577965614,-2.00802201910318,-2.91997950608084,3.38289306807608,-5.89809122121199,3.66778140600146,0.721160983178038,68.2002012358707,793.835623298159
0.54,4.3380855573648,0.00326562044689771,8.00602482472072,-0.140253459286589,-4.19308292820219,1.11222862960513,-7.77581742138445,1.91122158740956,1.31226681219633,93.3083402425534,793.835623298159
0.55,4.22793030713067,-0.0169924311351846,8.68847388446194,0.880984876377714,-3.67601170998766,-2.08868890280567,-8.00353995094519,-3.4941466836708,2.08348183364458,116.524755665236,793.835623298159
0.56,4.12806458178342,-0.00643240924859412,9.37543519600648,0.363689410111918,-0.507650912887553,-4.09673639839176,-1.52830308551824,-9.25717801386254,3.016746977124,138.21982737435,793.835623298159
0.57,4.10577244327487,0.00500390734927447,5.632867321605,-0.212248729091121,3.39269028336664,-2.31236784188711,4.77774631033007,-2.99121780884202,-2.16782943037103,161.302933702047,793.835623298159
0.58,3.93379316909408,0.0120788791747746,10.0291435558949,-0.552206043090933,3.11156427234183,2.40687398415854,7.57476482344789,6.59633154474749,-0.909337651562163,182.062519766061,793.835623298159
0.59,3.81514748925185,0.0362809768256992,11.371527099104,-1.768627239269,-1.81915873597716,3.35370364930208,-7.06334432100681,9.0856391013534,0.506524305266642,203.70920609804,793.835623298159
0.6,3.78344476705248,0.0113625648795688,8.71327113747629,-0.522283594899549,-3.32049212329152,-1.81353673036319,-7.38275634216913,-4.65712173566893,2.07369369109471,224.369145530413,793.835623298159
0.61,3.69748877118001,0.00226076624742666,8.86652222074108,-0.0468107757751919,2.23534308148952,-2.94527921122994,5.40190569615318,-7.03113236893545,-2.49177162969873,244.035032962353,793.835623298159
0.62,3.64674754323282,0.0492328802283113,7.18181444031336,-2.39852571745977,2.18303822588482,2.9215639005327,2.28018392825273,7.2202593807804,-0.628217062156356,263.800823837036,793.835623298159
0.63,3.49819006124257,0.0330025513370052,10.4611739864418,-1.58953371130291,-3.42665749384822,0.70458590166486,-10.5716620766349,0.450266067358411,1.37743766177687,283.195680260448,793.835623298159
0.64,3.41938861988679,0.0471729604527864,10.3677564168217,-2.29977391948511,1.22631071714013,-3.19227283405357,5.98627096797666,-8.77176681730946,-2.76102968446632,302.023501441599,793.835623298159
0.65,3.32809398261958,-1.71311968779619e-05,10.9851300659465,0.0633309412797743,1.53792468216343,2.95143985699093,5.13248321929419,9.7126056945368,-0.480371098924748,320.349513630533,793.835623298159
0.66,3.23284232327835,0.0615126100385152,11.87629371714,-3.01399460267887,-3.04495449438456,-1.08779842595067,-10.0382153489898,-7.02600516140297,1.93293703007402,338.208401938259,793.835623298159
0.67,3.21380735197982,0.0739058508523314,9.04064584550913,-3.62704753360379,3.10701312723451,-0.824917691422728,9.6388442932458,1.40763340593557,-1.80731860516743,355.571248546916,793.835623298159
0.68,3.09269751046277,0.0307494307397855,11.392595428938,-1.45913857289084,-2.32756119974984,2.03670868808785,-9.59770667868265,6.30906827450197,0.861886050477814,372.502229874414,793.835623298159
0.69,3.02491009159383,0.0508341181607398,11.1508309015571,-2.45706272039613,1.43955650540728,-2.66089124872381,7.61110662370116,-8.51171210566555,-2.62887772648809,389.076212669346,793.835623298159
0.7,2.96463899048655,0.0667734555021925,10.5283587945334,-3.28211523430877,-0.766181432782913,2.86470051669132,-6.09936454299882,9.18783823809058,0.28385869925173,405.534425756719,793.835623298159
0.71,2.86164314015241,0.0328220006105061,12.0971212902731,-1.57366763660427,0.459223220049484,-2.8247464982672,3.62825425107387,-11.6469972281116,-2.96896197689481,421.298897763004,793.835623298159
0.72,2.84242448162564,0.0706509690726211,9.65115034883416,-3.44645430564148,-0.426670563377794,2.81110667238413,-5.07844415948575,8.90124459026161,0.175481363980255,436.517128195129,793.835623298159
0.73,2.74669332807659,0.02621616294581,11.0165929069672,-1.25194027189513,0.759795935514048,-2.63964423020914,4.34792955650948,-10.1994206842283,-2.85178422095581,451.743457671311,793.835623298159
0.74,2.64231144353963,0.0022175082458179,12.8730713684096,-0.0292211133986765,-1.2955823449818,2.30288537912219,-6.34681141940704,11.1997680840328,0.513297735216572,466.302368196957,793.835623298159
0.75,2.59959610993048,0.0174139786890349,11.7647823288064,-0.812349249197204,1.9287133038458,-1.74306287120909,9.32169968560801,-7.22329076793965,-2.29897740725922,480.665746233205,793.835623298159
0.76,2.51947461927027,0.0179396652723399,12.5260657088419,-0.814122995119894,-2.40525159282111,0.750225941945922,-12.2210100900413,2.86566410671521,1.27556785214836,494.499191403734,793.835623298159
0.77,2.50413635537603,0.0852985528597283,10.1362895837703,-4.20995949769745,2.45348955840894,0.50829491067118,8.85587064300825,6.48395563314617,-1.3324640995906,508.213548195395,793.835623298159
0.78,2.41455238368994,0.0815564057995865,11.5368241031444,-3.98872629501075,-1.61866961271081,-1.7934947297933,-4.38652562264555,-11.3915161767553,2.44114976304926,521.300589628561,793.835623298159
0.79,2.30548003600847,0.0995744246604804,13.9061803054224,-4.91268610036982,0.0360406688214237,2.30734790022463,-5.29381723471262,13.7656033101766,0.0275448118406183,534.293405222004,793.835623298159
0.8,2.26767331197995,0.00945069439569252,12.8298447567917,-0.418132498586848,1.695519943364,-1.50586974441537,9.90446186867735,-8.16586715307482,-2.29285613340222,546.928624063639,793.835623298159
0.81,2.22745416997205,0.0167527863767094,11.9390313688902,-0.744730267235218,-2.19051045301067,-0.4043472399167,-11.5833613576983,-2.9867763316428,1.76085294067173,559.046048692301,793.835623298159
0.82,2.15943412604546,0.0662707928139337,12.4403428630503,-3.23027151026854,0.862285878713699,1.98091156442706,1.61302112153771,12.7512723852082,-0.379880969571411,570.970639072557,793.835623298159
0.83,2.07358227249647,0.0929078627145392,13.9083376506087,-4.57934379093794,1.27641927472382,-1.63680455365915,12.5166814078334,-7.59900863887785,-2.43450033056824,582.614648517586,793.835623298159
0.84,2.00602529167281,0.0585449725811201,14.5050112943641,-2.87262874848238,-1.92973182991465,-0.551089874031241,-12.956216387027,-7.12627571097063,1.87814670276522,594.014887393401,793.835623298159
0.85,2.00466226714259,0.0812212923338243,11.8614574237847,-4.01398346466611,0.101879627812526,2.00371860426319,-3.89151066671046,11.9022006453323,-0.0103074798722274,605.077654461807,793.835623298159
0.86,1.92071095796386,-0.00631919010527493,13.4167914564081,0.362842074027423,1.86339456731365,-0.465758738739271,12.9164292119723,-3.64798626197227,-1.81901959522986,615.764987487882,793.835623298159
0.87,1.89982134425729,0.0735297609093629,11.8630163442217,-3.63507199879482,-0.822705338262748,-1.71402558097274,-1.38039673985357,-12.3304261913486,2.73276965832083,626.159644618678,793.835623298159
0.88,1.8154376728016,0.0363830288854824,13.5299793759685,-1.77842992222344,0.985804926662884,-1.52490206740805,9.04553378753345,-10.2177039202055,-2.54766406505665,636.29825191295,793.835623298159
0.89,1.75498236130401,0.0807166235755061,14.0530460713747,-3.99983417557957,-1.51056055921797,-0.897042395176904,-9.5424598397156,-11.064729437439,2.15263999361939,646.150761683281,793.835623298159
0.9,1.70018869327807,0.0765611217215048,14.3228662829839,-3.79320601946878,-0.955578309532077,1.40832286513486,-11.6068108725635,9.20949791437697,0.641165978525111,655.76966628891,793.835623298159
0.91,1.65883158615255,0.0398967989006794,13.9734478291398,-1.95626332665238,1.21879292263269,1.12599191716475,8.67111353614258,11.1308580298296,-0.800908630032213,665.092253083723,793.835623298159
0.92,1.68846984212696,0.0486754929430533,10.1306236202525,-2.38668356924603,1.36119672124791,-1.00022157417716,9.69033770037154,-3.79778206953543,-2.17568485121375,674.125925761461,793.835623298159
0.93,1.57564552259133,0.00335528759795162,13.4630923507886,-0.1102208239969,-0.533787686918297,-1.48247791757968,-4.43016810833078,-12.7137962390402,2.79810942965186,682.89794596884,793.835623298159
0.94,1.52140368990874,0.0752396787943396,13.9256025896695,-3.69548282288358,-1.51975134221792,0.103373375488196,-13.9915871673717,-3.43722116214207,1.55229487332112,691.398039588683,793.835623298159
0.95,1.50229082715601,0.0226816969821484,12.6701423617696,-1.05396095001945,-0.519582968681891,1.40976087596117,-5.54389088068647,11.4415302759166,0.368210586903709,699.708874651981,793.835623298159
0.96,1.36732198206362,0.0427889593033038,17.2647047752357,-2.11519320504658,0.969188245044413,0.96544002576047,10.3056153825446,14.012079248198,-0.756051817772915,707.774028274365,793.835623298159
0.97,1.42007494004333,-0.0537368781447182,12.4903972990175,2.72470289561771,1.3887919045674,-0.301259909745482,11.4197607341706,-5.74657248548969,-1.82223193864705,715.604714380388,793.835623298159
