t,iq,id,vq,vd,ia,ib,va,vb,theta_e,omega,r
0,0,0,0,0,0,0,0,0,0,0,0
0.01,0.000927433426754593,0.000526010154779972,-0.0456240519096469,-0.0263439196557015,0.000943412457577733,-0.000496782023507855,-0.0464247244278971,0.024905846246896,-1.53955296901988,-0.00149434167696462,0
0.02,0.00102667224243942,0.000583225426526333,-0.0506538948285208,-0.0292094160723828,0.00104438415590734,-0.000550880682573031,-0.0515413254315608,0.0276133812009026,-1.53956384595578,-0.00155381472458667,0
0.03,0.00105786507116853,0.0006012490181516,-0.0522208227499939,-0.0301120696247139,0.00107611848247701,-0.00056793300863573,-0.0531353699591578,0.0284672359928625,-1.53957462121179,-0.0014978218155091,0
0.04,0.00103867202160731,0.000591163104279313,-0.0513267876095477,-0.0296069538088537,0.00105661455748956,-0.000558461333694739,-0.0522257328143522,0.0279907783414308,-1.53958425676385,-0.00136713740612322,0
0.05,0.00105606873088821,0.00060135592462466,-0.0522149716010376,-0.0301174457070614,0.00107431558289012,-0.000568116309218869,-0.0531291495944607,0.0284737995108551,-1.53959358250589,-0.00130224144180861,0
0.06,0.00105542917989201,0.000601499179440977,-0.0522212618795232,-0.0301246156956101,0.00107367587020409,-0.000568288784314088,-0.0531354128061851,0.0284812318731869,-1.53960227924678,-0.00121285243536711,0
0.07,0.00108452583890996,0.000618443117676322,-0.0536739372026901,-0.030973216692683,0.00110328217280622,-0.000584325792886595,-0.0546136146052258,0.0292845486030104,-1.53961026345042,-0.00118160744115029,0
0.08,0.00105424473235067,0.000601738957781326,-0.052230460185351,-0.0301366287778005,0.00107249063691192,-0.000568582063326971,-0.0531445382861912,0.028493778542202,-1.53961782766563,-0.00105296860225521,0
0.09,0.00105305121345117,0.000601496091530486,-0.0522021317011448,-0.0301244518152829,0.00107128618822005,-0.000568383945239818,-0.0531156465870159,0.0284828586865538,-1.53962475766753,-0.000980567901594584,0
0.1,0.00105236125925147,0.000601490141017815,-0.0521961647574243,-0.0301241528792606,0.00107059273280972,-0.000568406377664767,-0.0531094902755544,0.0284830869947069,-1.53963118080369,-0.000914175510559303,0
0.11,0.00105172782852808,0.000601487776165985,-0.052190932562599,-0.0301240507876384,0.00106995615128554,-0.00056843012279762,-0.0531040878362372,0.028483464197516,-1.53963713531009,-0.00085263813676809,0
0.12,0.00105114113481405,0.000601485628606164,-0.0521861066666855,-0.0301239265813589,0.00106936653756393,-0.000568452157227375,-0.0530991031812022,0.028483783510233,-1.53964265539556,-0.000795590493598991,0
0.13,0.00110108941268701,0.000630050374619167,-0.0546443877549616,-0.0315545282314182,0.00112017707358424,-0.000595453350906197,-0.0556005894574522,0.0298374230959347,-1.53964812671869,-0.000825556463549163,0
0.14,0.00117389279157709,0.00067251870437578,-0.0583731280731894,-0.0336814489299804,0.00119426455970488,-0.000635639721292523,-0.0593936009791395,0.0318474841361544,-1.53965312402238,-0.000899464164197422,0
0.15,0.00105144847009737,0.000602501285082968,-0.0522664053060928,-0.0301747904692787,0.00106969672220612,-0.000569473973328208,-0.0531805144078352,0.0285329281848827,-1.53965782368146,-0.000642119618954946,0
0.16,0.00104913145983493,0.00060149285388837,-0.052170751517252,-0.0301242888155998,0.00106734715587167,-0.000568542454128805,-0.0530832202961239,0.028485642234531,-1.53966183977578,-0.000597379127043824,0
0.17,0.00104870682307555,0.000601476926989267,-0.0521660560449038,-0.0301234901754648,0.00106692011538019,-0.000568543720273817,-0.0530783963359149,0.0284851874847069,-1.53966555758886,-0.000558907013898759,0
0.18,0.00104833975806537,0.000601475376675138,-0.0521629972580639,-0.0301234294646494,0.00106655122044508,-0.000568557271745053,-0.0530752389670523,0.0284854049338741,-1.53966900408093,-0.000523288259625632,0
0.19,0.00104800022154253,0.000601474129313635,-0.0521601969352299,-0.0301233553787475,0.00106620999297625,-0.000568569998737505,-0.0530723466825096,0.0284855876050995,-1.53967219912745,-0.000490268849887679,0
0.2,0.00104768531060477,0.000601472975524066,-0.0521575920578353,-0.0301233062587953,0.0010658935145458,-0.000568581802374985,-0.0530696571650087,0.0284857767600109,-1.53967516107425,-0.000459658434855468,0
0.21,0.00104739333348156,0.000601471905809564,-0.0521551735204517,-0.0301232542012011,0.00106560008425151,-0.000568592744363638,-0.053067159960886,0.0284859456979112,-1.53967790692736,-0.000431281251500167,0
0.22,0.00104712266036414,0.000601470914017094,-0.052152929946725,-0.0301232050277984,0.00106532806393002,-0.000568602886432829,-0.0530648434314963,0.0284861014314975,-1.53968045245241,-0.000404974370699975,0
0.23,0.00104687177785047,0.000601469994478291,-0.0521508506395973,-0.0301231558288675,0.00106507593243573,-0.0005686122858888,-0.0530626963782291,0.0284862421634672,-1.53968281226438,-0.000380586750249339,0
0.24,0.00104663928895671,0.000601469141936518,-0.0521489259220939,-0.0301231066053332,0.00106484228560197,-0.000568620995640894,-0.0530607087429653,0.0284863689170541,-1.5396849999126,-0.000357978367466712,0
0.25,0.00104642379669585,0.000601468351516385,-0.0521471417724143,-0.0301230544479574,0.00106462571983171,-0.000568629067881707,-0.0530588660624987,0.0284864798890405,-1.53968702795733,-0.000337019415244743,0
0.26,0.00105614692764256,0.000607024815134384,-0.0526290818842415,-0.0304013478698549,0.00107451591018622,-0.000573882407566598,-0.0535491757080573,0.0287497477079319,-1.53968888515552,-0.000334810629588998,0
0.27,0.0010168701488457,0.000584803872518803,-0.0507224963873154,-0.0292884793952147,0.00103456598286322,-0.000552895737032514,-0.0516088483410627,0.0276968127760998,-1.53969073963556,-0.000248739319171091,0
0.28,0.00100560249590522,0.000578115304925761,-0.0500348124588375,-0.0289534813973639,0.00102309486267384,-0.00054656251932474,-0.050911033373107,0.0273834479878069,-1.53969238553807,-0.00021273801925058,0
0.29,0.00104508387693217,0.000601129924085234,-0.05211076751153,-0.0301061125667502,0.00106327209448614,-0.000568339641887971,-0.0530217907040884,0.0284710346677884,-1.53969376229519,-0.000266354807515098,0
0.3,0.00104207503504448,0.000599565313873958,-0.0519680314838042,-0.0300277714499687,0.00106021553549179,-0.000566870322530291,-0.0528766616054838,0.0283972183851232,-1.53969467392569,-0.000251948440810892,0
0.31,0.00104541671814372,0.00060143753507914,-0.0521365582587377,-0.0301215124405602,0.00106361307601028,-0.000568639119052153,-0.053047984523511,0.0284857430439669,-1.53969598630874,-0.000244344902556406,0
0.32,0.00104533988557215,0.000601463988019483,-0.0521380767977646,-0.030122863093961,0.00106353640576313,-0.000568669252614156,-0.0530495093917826,0.0284871108826129,-1.53969721266949,-0.000231763365633926,0
0.33,0.00104521991585241,0.000601463931910858,-0.0521371081987919,-0.0301228560586713,0.00106341584570395,-0.000568674136030419,-0.0530485086513529,0.0284871942867545,-1.53969834970987,-0.000220013980031159,0
0.34,0.00104510797876971,0.000601463526410904,-0.0521361736335222,-0.0301228315444098,0.00106330335069855,-0.000568678331997967,-0.0530475437476825,0.0284872547595478,-1.5396994037979,-0.000209120460422278,0
0.35,0.00104500407434398,0.000601463145394054,-0.0521352989678489,-0.0301228070120163,0.00106319892895355,-0.000568682220695232,-0.0530466409047686,0.0284873092704576,-1.53970038098327,-0.000199021674298726,0
0.36,0.00104490785332924,0.00060146279208643,-0.0521344916501785,-0.0301227824619506,0.00106310222830305,-0.000568685822216998,-0.0530458074076214,0.0284873578863689,-1.53970128687647,-0.000189659660895932,0
0.37,0.00104481844636223,0.000601462464540842,-0.0521337313373372,-0.0301227828057877,0.00106301237678701,-0.000568689167215233,-0.0530450235492313,0.0284874264155226,-1.5397021266786,-0.000180980668100624,0
0.38,0.00104473572952457,0.000601462160880438,-0.052133033252122,-0.0301227582223226,0.00106292924774755,-0.000568692262826764,-0.0530443028587646,0.0284874648435943,-1.53970290521162,-0.000172934865060376,0
0.39,0.0010446588954123,0.000601461879364439,-0.0521323768960053,-0.0301227585309169,0.00106285203157583,-0.000568695137193726,-0.0530436262691041,0.0284875238404936,-1.53970362694541,-0.000165476056408095,0
0.4,0.00104458782010657,0.000601461618378297,-0.0521317744888444,-0.030122733918357,0.00106278060200679,-0.000568697796984753,-0.0530430043275606,0.0284875534572251,-1.53970429602406,-0.000158561417031638,0
0.41,0.0010445220999054,0.000601461376425575,-0.0521312229191919,-0.0301227092929841,0.00106271455330332,-0.000568700257358703,-0.0530424345891331,0.0284875788907666,-1.53970491628876,-0.000152151246195229,0
0.42,0.00104446086544271,0.00060146115211926,-0.0521306945352392,-0.030122706647734,0.00106265301445153,-0.000568702547758522,-0.0530418899975919,0.0284876231720937,-1.53970549130104,-0.000146208739592597,0
0.43,0.00104440405476577,0.00060146094417198,-0.0521302009071796,-0.0301227068995232,0.00106259592161155,-0.000568704672347547,-0.0530413814302525,0.0284876670429144,-1.53970602436244,-0.000140699778033768,0
0.44,0.00104435172232632,0.000601460751391068,-0.0521297583675179,-0.0301226822393591,0.00106254332743174,-0.000568706631507095,-0.0530409242601098,0.0284876823624264,-1.53970651853331,-0.000135592731549114,0
0.45,0.00104430282789125,0.000601460572671164,-0.052129327507823,-0.0301226824683492,0.00106249419053404,-0.000568708459494852,-0.0530404805650195,0.0284877202832843,-1.5397069766511,-0.000130858277782995,0
0.46,0.00104425754233114,0.000601460406986775,-0.0521289285706424,-0.0301226826863604,0.00106244868017897,-0.000568710152779193,-0.0530400697287901,0.0284877554277513,-1.53970740134622,-0.000126469233640059,0
0.47,0.00104421592010105,0.000601460253387141,-0.0521285751075044,-0.0301226579980497,0.0010624068493794,-0.000568711711316677,-0.0530397044531127,0.0284877626206877,-1.53970779505686,-0.000122400399210854,0
0.48,0.00104417703738364,0.000601460110991101,-0.0521282309657832,-0.0301226581975109,0.00106236777345159,-0.000568713165351589,-0.053039350086219,0.0284877928758549,-1.53970816004366,-0.000118628413085507,0
0.49,0.00104414094863394,0.000601459978981812,-0.0521279081955731,-0.0301226583884005,0.00106233150560731,-0.000568714514607362,-0.0530390178388112,0.0284878210455738,-1.53970849840216,-0.00011513161822226,0
0.5,0.00104410782472209,0.000601459856601578,-0.0521276239625035,-0.030122633677459,0.00106229821550589,-0.00056871575508517,-0.0530387240391362,0.0284878218181544,-1.53970881207514,-0.000111889937604234,0
0.51,4.59811238106663,0.0449165461292277,10.0959718119775,-2.24192892625243,-0.402470926913937,4.58068467786459,-3.21315287387088,9.83008345578749,0.0974057241965348,29.9419916670575,744.752655471554
0.52,4.51896662699956,-0.00916769553214514,14.0550118666878,0.476583015154612,-1.93721120703226,4.08268981946042,-5.56839630728044,12.913692442835,0.441006569442773,63.8462891163835,744.752655471554
0.53,4.52974746681769,0.040605631863222,13.5178142338875,-2.00475426197966,-3.87895884587538,2.33964510182323,-12.6573618141037,5.15184755400296,1.03701818918729,99.2020852873888,744.752655471554
0.54,4.48414900350847,0.0512059405590102,15.7998028998697,-2.53748714812355,-4.25528143083019,-1.41520114416514,-14.1062812840574,-7.55549078728017,1.90328324664711,136.966345808484,744.752655471554
0.55,4.53659672396199,0.0565237371857588,13.1794906048984,-2.78652893600036,-0.54230331180822,-4.50442137091213,1.35827836072542,-13.4021937014266,3.03423463285941,171.161500173173,744.752655471554
0.56,4.55256470170833,0.0098462281593315,12.3832802231463,-0.451597805888131,4.35317564284669,-1.3325930113789,11.979966596863,-3.16701278830633,-1.86569528178537,207.214542765823,744.752655471554
0.57,4.51419801196897,0.0474167376936379,14.3038760595261,-2.30935848639877,1.02159524985125,4.39733728337496,0.835555097553681,14.4649871975034,-0.217768443631367,241.720522225522,744.752655471554
0.58,4.23044657522704,-0.0164528337116641,15.7076832722335,0.879345454165478,-4.20146501675138,-0.494611599744307,-15.7063934028746,-0.902091172057503,1.68409144131934,276.850916823711,744.752655471554
0.59,3.98289166143346,0.0616222762762295,14.6189858036458,-3.0348040336752,2.47892382926723,-3.11803783497583,11.6196368467118,-9.3759704031394,-2.45442097002492,308.877931981819,744.752655471554
0.6,3.69031521521586,0.0172996212374991,16.5893422143464,-0.785107182449917,0.31482775734342,3.67690211288725,0.555202758436289,16.5986270001363,-0.0807269628795661,338.544796629911,744.752655471554
0.61,3.49698470650562,0.0332665301065698,14.2554677371717,-1.58119096730748,-2.10132793431777,-2.79543013005429,-7.18399803296741,-12.4140524222737,2.50651635390871,366.575286519151,744.752655471554
0.62,3.25500780877965,0.0307545993933869,15.0937595569197,-1.45464216726778,2.73788974405491,1.76067641263217,11.8192459918494,9.4996308128816,-0.989854538602081,392.948368641117,744.752655471554
0.63,3.02186337627669,0.0618324311847456,16.2053355324561,-3.01157714510845,-2.79291520907101,-1.15546793524027,-13.63656934393,-9.25885917101093,1.98352770762583,417.687242667572,744.752655471554
0.64,2.82134355483806,-0.00456187685949461,16.3249761133648,0.274270672153827,2.57507603812738,1.15281553728641,15.022422671089,6.39584916916329,-1.15148852557816,440.95019329344,744.752655471554
0.65,2.63933623033281,0.0957519457351892,16.0810137627334,-4.75123871825842,-2.24697768648067,-1.38793207626218,-10.7242871607649,-12.8904203922352,2.16038347883647,462.627848737306,744.752655471554
0.66,2.46866322634188,0.0128469535804976,15.9817360373565,-0.585098100733483,1.5197322089685,1.94547608115153,9.30973939147689,13.0033449165207,-0.657944449699487,482.668455004495,744.752655471554
0.67,2.32609469079953,0.122519195822491,15.0982912600576,-6.05691933836921,-0.56336514284947,-2.26016529920556,3.06999777250321,-15.9755996607911,2.94993510732139,501.405855836116,744.752655471554
0.68,2.13566250101123,-0.00441808556567941,17.0215259476367,0.25414483605405,-0.852931096071032,1.95795362127418,-6.53246095682372,15.7201745865412,0.408765820238454,519.316394530505,744.752655471554
0.69,2.02986119723355,0.0181420253991007,15.1437034268335,-0.857306976796899,1.8323210662015,-0.873650458406682,14.0891584395457,-5.61803730832496,-2.00677484485102,535.786750934784,744.752655471554
0.7,1.87839496450964,0.123356304345105,16.1497103050067,-6.10076993215511,-1.77378140096091,-0.630304658178878,-12.4153857819919,-11.9954463270459,1.9778019924464,551.151634339347,744.752655471554
0.71,1.77117832786448,-0.0203064902134181,15.1869956387373,1.05148696547908,0.350813529581256,1.73620704125526,4.20652141920485,14.6306404138496,-0.210837529763801,565.793522371297,744.752655471554
0.72,1.61148637605469,0.0701993870177885,17.4099116832856,-3.4437127390881,1.15828780392553,-1.12257991137599,15.3040977732909,-8.98603213853117,-2.29700600752009,579.207331402678,744.752655471554
0.73,1.52410147154397,0.0564266414568136,16.2267772197503,-2.79587367565017,-1.41137850464424,-0.577996520799881,-13.6239784809961,-9.2472925172159,1.99649389019538,592.017232297605,744.752655471554
0.74,1.36080100413617,0.0498020032028395,19.3610057109182,-2.42768743965056,-0.0812254206124157,1.35928732923814,-4.27737939706621,19.038020746296,0.0962661533946445,603.729837487676,744.752655471554
0.75,1.35175268764404,0.0367152420811919,14.9575782074318,-1.79679073950264,1.33131324461271,-0.237040887343807,15.058558951959,-0.444302918486053,-1.71984569653895,614.850287603117,744.752655471554
0.76,1.21195412970349,-0.014914463115452,17.504393701835,0.753799287957586,-0.362729497496732,-1.15649581294579,-6.16009494785961,-16.4019889790452,2.82535919672771,625.214262941339,744.752655471554
0.77,1.13828106345294,0.0382542834374265,16.9747728454908,-1.85564836774515,-1.02876628957452,0.4886584605345,-16.3083582323428,5.06199523768083,1.16094679309813,634.851414983647,744.752655471554
0.78,1.08649427926762,0.0313351122161468,15.5588048099517,-1.54234758788864,0.485671137042308,0.972406938880475,5.14873682612049,14.7629858867166,-0.434376987064012,644.008861202618,744.752655471554
0.79,0.936834750727926,-0.0348819748970643,19.3482817375558,1.74421491589017,0.878306660567991,-0.32780102554153,17.192410685457,-9.04540251681673,-1.96522161946838,652.559295620036,744.752655471554
0.8,0.912215821511483,0.0542731977370891,17.1317189125745,-2.66141153892689,-0.316558872838894,-0.857247785086347,-2.42266642519404,-17.1671078423604,2.84727787509298,660.397929042052,744.752655471554
0.81,0.869324339591889,0.0620599700452356,16.0258105376803,-3.07097235374799,-0.852484968862417,0.18123362037032,-16.296078902921,-0.833838699558259,1.43258834958816,667.789470514335,744.752655471554
0.82,0.770041067582012,-0.00138795340138421,17.9369063556229,0.074311602189682,-0.0554104894662976,0.768046124809308,-1.1843219577301,17.8979192456845,0.0702175247213861,674.762770630673,744.752655471554
0.83,0.670166488724531,0.0109578405682061,20.0828428671506,-0.562219075896459,0.637989052429292,0.205458428543731,18.83176112766,7.00010290972344,-1.24289388909771,681.253198016108,744.752655471554
0.84,0.66658341830404,0.0250753471388589,17.63039905123,-1.20644902786781,0.373170036237295,-0.552907180860123,11.379247727348,-13.5203258511805,-2.51029557120057,687.209894121829,744.752655471554
0.85,0.649487491606062,0.0660628756504398,15.9816288482071,-3.26674297136787,-0.417978255567701,-0.50149026228285,-6.22918766332432,-15.0758512641215,2.54813912596378,692.824622466106,744.752655471554
0.86,0.614700695198569,-0.0199803099069734,15.3921492196059,1.02139654502679,-0.126056546559502,-0.601968358413526,-4.63494552225427,-14.7132181560168,2.90267554012659,698.079975715248,744.752655471554
0.87,0.578865580040959,-0.0334367283764821,15.0019384773306,1.67300352389233,-0.562970138629844,-0.13880921284905,-15.0547498321349,-1.10072992164465,1.75484185394547,702.975706140652,744.752655471554
0.88,0.495034729627698,0.0808253711896467,17.1809535911431,-4.06668036113013,-0.231400820328703,0.445023352776813,-13.5374917817099,11.3339918705085,0.641343334521242,707.499943077704,744.752655471554
0.89,0.44561116137369,-0.00300712764456285,17.743660321636,0.128636352358299,0.187028062645301,0.404473551348694,7.67194879061887,15.9998509578955,-0.439864972568208,711.764650905521,744.752655471554
0.9,0.349069576588423,-0.0104834904743744,20.7830737535399,0.56352671148636,0.347117423990837,0.0383271031270674,20.7616964587144,1.09803331272075,-1.49085004495143,715.712648240179,744.752655471554
0.91,0.37306290094666,0.0406214064195754,17.9046423815327,-1.99628949622499,0.186249406453356,-0.325787024477671,12.1322473813665,-13.3180315377551,-2.51379004755358,719.441344366433,744.752655471554
0.92,0.318653845425958,0.0384821839984334,19.0435515362313,-1.89999521528782,-0.150739573516428,-0.28337031013521,-5.09102545447628,-18.4485310188396,2.77289375884817,722.910565511769,744.752655471554
0.93,0.337756965765861,0.00893881777395061,16.6340112650106,-0.431826999994081,-0.330898911903034,-0.0683050546295435,-16.0974356446831,-4.21300023590196,1.80081894541743,726.111111473827,744.752655471554
0.94,0.362480311607148,0.0674236139222677,14.0049647681998,-3.37310772004088,-0.228258426944101,0.289544488025863,-12.7578514640876,6.68985200656902,0.851492918064977,729.148573707305,744.752655471554
0.95,0.274963087258034,0.00513244559260852,17.0864559748766,-0.268514627535195,0.0261021959932467,0.273769459064667,1.03627800162889,17.0571159868817,-0.0763925943893239,731.962237862987,744.752655471554
0.96,0.250058893141825,-0.0199922528490422,17.1198159341877,0.979414420994999,0.197225514197185,0.155020117284663,14.8019993964179,8.65726077330259,-0.984428232345819,734.561704471027,744.752655471554
0.97,0.23836918513803,0.00429236871024367,16.5813229245252,-0.243919554551301,0.226212696981543,-0.0752735582847624,15.8976905406646,-4.71838978357443,-1.87402161315976,736.984521175468,744.752655471554
