t,iq,id,vq,vd,ia,ib,va,vb,theta_e,omega,r
0,0,0,0,0,0,0,0,0,0,0,0
0.01,0.000625974549731512,0.000336805615691765,-0.0296078158343458,-0.0168475690053464,0.000432127064934197,0.000564400885385942,-0.0213444684451471,-0.0265495198951801,-0.159812583018841,-0.00391481335690602,0
0.02,0.00080895880341298,0.000425911537213027,-0.0385923907200618,-0.0213047881854207,0.000549239085906228,0.000730856627296637,-0.0271757118157959,-0.0347094700106522,-0.15984364042184,-0.00439863130200478,0
0.03,0.000877177583330672,0.000462057505951366,-0.0420978498052862,-0.02311288159367,0.000595806722467676,0.000792434225009345,-0.0295198688895078,-0.0378815468868117,-0.159874540951685,-0.0040807527482321,0
0.04,0.00086167239517988,0.000458174593376406,-0.0416606712834403,-0.0229186414516166,0.000589525335176318,0.000777729486271362,-0.0292594899920939,-0.0374801000956132,-0.15990070127032,-0.00329730014536925,0
0.05,0.000871950628946575,0.000469757731749573,-0.0423750752984955,-0.0234980613377677,0.00060261438214218,0.000786019167892381,-0.0299460979764562,-0.03809248100572,-0.159922547073079,-0.00280612689399562,0
0.06,0.000867167613566566,0.000472522125770153,-0.042349097004534,-0.0236363423310649,0.000604595994822675,0.000780846023493401,-0.0300791669925803,-0.0380442690680632,-0.159940667139884,-0.00230528663770296,0
0.07,0.000869937705685019,0.000479420091106567,-0.0426328653612517,-0.0239813812498585,0.000611858281780648,0.000782473436319456,-0.0304655426175372,-0.0382690288429261,-0.159954978517471,-0.00195568796653012,0
0.08,0.000855215596243057,0.000474826029409677,-0.0420801111615106,-0.0237515817473154,0.000604987349411904,0.000768663633401428,-0.030151095683063,-0.0377595659399744,-0.159967115567536,-0.00153935013215556,0
0.09,0.000846818806935527,0.000473726557286532,-0.0417931200818652,-0.0236965915032481,0.000602571675849785,0.000760543436183524,-0.030051451262189,-0.0374847117113803,-0.159976648045697,-0.00123458545842231,0
0.1,0.000841113358527162,0.000473462443317474,-0.0416099481056453,-0.0236833809607098,0.000601407798810897,0.000754948360256796,-0.0300095133906378,-0.0373057558714703,-0.159984217727782,-0.000999329908857437,0
0.11,0.000836852991749796,0.0004733982104692,-0.0414773237553367,-0.0236801684135144,0.000600670230309274,0.000750749005924236,-0.0299854388589253,-0.0371751559302053,-0.159990253945152,-0.000813763409585849,0
0.12,0.000833537105298601,0.000473381960617967,-0.0413754290366251,-0.0236793398278732,0.000600129542372269,0.000747475162744645,-0.0299685668875221,-0.0370745500492833,-0.159995074916599,-0.000666164246746411,0
0.13,0.000862046566919175,0.000490381914523045,-0.0427487120214123,-0.0245297044472942,0.000621457754682372,0.000772909415632626,-0.0310270235994686,-0.0382946809141852,-0.159999529481277,-0.000751454158567908,0
0.14,0.000877355605963573,0.000500208874725884,-0.043651335425323,-0.0250212791553647,0.000633601364064603,0.000786454759745097,-0.0316562808503687,-0.0391073315083927,-0.160003552447849,-0.000755196572374527,0
0.15,0.00084024498712203,0.000479785934919851,-0.041816369031267,-0.0239996776268997,0.000607529362203754,0.000753069887720201,-0.0303555077314703,-0.0374584622684763,-0.16000700146334,-0.000405709783564736,0
0.16,0.000828609752258039,0.000474905666070552,-0.0412955880393031,-0.0237555621409085,0.000600859019277607,0.000742359718839725,-0.0300316053615071,-0.0369831718968654,-0.16000884876505,-0.000276385165466446,0
0.17,0.000824692930243449,0.000473739333193273,-0.0411265817333964,-0.0236972167659358,0.000599084420162895,0.000738678037121736,-0.0299471224169559,-0.0368255844009208,-0.160010053828372,-0.000217810794696443,0
0.18,0.000823169500112745,0.00047346048001726,-0.0410653158486215,-0.0236832804023716,0.000598567054257831,0.000737217968860732,-0.0299236351388148,-0.0367672952016257,-0.160010936048374,-0.000184366093130877,0
0.19,0.000822431939275005,0.000473393721408036,-0.0410383960258608,-0.0236799300402003,0.000598384135207121,0.000736500059022822,-0.0299160634894514,-0.0367412327008673,-0.160011617088599,-0.000161625331301265,0
0.2,0.00082198548540933,0.000473377668242098,-0.041023446805064,-0.0236791343368796,0.000598297549180352,0.000736061544749298,-0.0299129158261276,-0.0367265851596757,-0.160012154294071,-0.000144638984935065,0
0.21,0.000821671454812678,0.000473373751480923,-0.041013461657915,-0.0236789434487351,0.000598243962277897,0.000735751894216487,-0.0299111521298406,-0.0367167452026891,-0.160012581588854,-0.000131415976242305,0
0.22,0.000821433436645517,0.000473372750945167,-0.041006074611749,-0.0236788796669996,0.000598205301710843,0.000735516872125786,-0.0299099246961156,-0.0367094524887156,-0.160012922534167,-0.000120951569085669,0
0.23,0.000821246822868806,0.00047337246020446,-0.0410003329443177,-0.0236788687596644,0.000598175481611884,0.000735332525698762,-0.0299090090996218,-0.0367037777614384,-0.160013194901465,-0.000112617832202587,0
0.24,0.000821098684366038,0.000473372349428529,-0.0409957865929012,-0.0236788649926119,0.000598151929196025,0.000735186167083003,-0.029908288993611,-0.0366992835786161,-0.16001341258131,-0.000105965122425443,0
0.25,0.000820980639229994,0.00047337228993676,-0.0409921658258229,-0.0236788654856364,0.000598133190065156,0.000735069535359031,-0.0299077189633907,-0.0366957037837601,-0.160013586582986,-0.000100649613398887,0
0.26,0.000826085719719032,0.000476379838478838,-0.0412290616042594,-0.0238293065912075,0.000601915693920246,0.000739630221289898,-0.0300939819745555,-0.0369056042126492,-0.160013553655614,-0.000137340154203382,0
0.27,0.000815193320350699,0.000469727109471389,-0.0407286741415607,-0.0234965336641085,0.000593612845895289,0.00072993663841791,-0.0296857524578941,-0.0364646142522673,-0.16001409681643,-4.68612506327721e-05,0
0.28,0.000814219946695349,0.00046936765030156,-0.0405410224788399,-0.0234785534928069,0.000593102953967538,0.000729032920203995,-0.0296381062724607,-0.0362822220147378,-0.160014185778056,-3.77329040979552e-05,0
0.29,0.000818776946654721,0.000472415305629077,-0.0408945606247498,-0.0236310014882484,0.000596837644419715,0.000733046202888582,-0.0298449313680502,-0.0366069582410955,-0.16001403840779,-7.35269472131461e-05,0
0.3,0.000805854053774899,0.000466085168165624,-0.0402811397577407,-0.0233143423770927,0.00058852849126499,0.000721297688155709,-0.0294345373795238,-0.0360518625026829,-0.160012857640385,-1.32452139399958e-05,0
0.31,0.000816893466486546,0.000471631229250626,-0.0407928687718703,-0.0235917628345792,0.000595762532031003,0.000731312489583537,-0.0297899435940103,-0.0365128563241463,-0.160012734226609,-9.39328407837757e-05,0
0.32,0.000820037646011527,0.000472956388475271,-0.0409410201441504,-0.0236580528247453,0.000597571865290262,0.00073420525201691,-0.0298789987100539,-0.0366485474471604,-0.16001292223398,-0.000111159771950298,0
0.33,0.000820854787309926,0.000473272980877839,-0.0409815352701771,-0.0236738919595807,0.00059801478258406,0.000734961370474366,-0.0299010994718106,-0.03668601428326,-0.16001315813406,-0.000110813980297465,0
0.34,0.00082100153411766,0.000473348587436737,-0.0409906566130327,-0.0236776774059435,0.000598112962045675,0.000735094068051739,-0.0299062977322589,-0.0366944095586368,-0.160013372280631,-0.000106321905953624,0
0.35,0.000820967542107471,0.000473366618999592,-0.0409909947600118,-0.0236785811524403,0.000598125478711404,0.000735057530328981,-0.0299072503729532,-0.0366945940424132,-0.160013551107683,-0.000101471987330706,0
0.36,0.000820895132080679,0.000473370899888732,-0.040989183146797,-0.023678798279011,0.000598118274456404,0.00073498527638077,-0.0299071814077491,-0.0366927666335444,-0.160013696345955,-9.72189355124525e-05,0
0.37,0.000820823885975118,0.000473371900587399,-0.0409871178530441,-0.0236788495325639,0.0005981079964352,0.000734914711142246,-0.0299069072247482,-0.0366907160646318,-0.16001381313374,-9.37066896800796e-05,0
0.38,0.000820762767947588,0.00047337212192829,-0.0409852711570118,-0.0236788614662781,0.000598098545658182,0.00073485428266388,-0.0299066282013754,-0.0366888882603121,-0.160013906700161,-9.08653935097521e-05,0
0.39,0.000820712825778716,0.000473372160602089,-0.0409837416732038,-0.0236788646310639,0.00059809068146305,0.000734804927567745,-0.0299063903765358,-0.0366873755725099,-0.160013981560248,-8.85839812450949e-05,0
0.4,0.000820672429662141,0.000473372158476963,-0.0409824929354722,-0.0236788648524003,0.000598084286955949,0.000734765012044731,-0.0299061938272985,-0.0366861409617899,-0.160014041423345,-8.67571745171769e-05,0
0.41,0.000820640066202752,0.000473372148881839,-0.0409814876569083,-0.0236788650457246,0.000598079156111896,0.000734733034930886,-0.0299060356008462,-0.0366851470634627,-0.160014089284846,-8.52958871601547e-05,0
0.42,0.00082061422200137,0.000473372139324094,-0.040980681606137,-0.0236788652162688,0.000598075056977241,0.000734707499526752,-0.0299059087430984,-0.0366843501384892,-0.160014127548075,-8.4127431102778e-05,0
0.43,0.000820593500074135,0.000473372131232442,-0.0409800302479012,-0.0236788653689095,0.000598071769793173,0.000734687025316172,-0.0299058062336048,-0.0366837061622176,-0.160014158137302,-8.31932586173337e-05,0
0.44,0.000820576969098476,0.000473372124655752,-0.0409795073490347,-0.0236788655068929,0.000598069147349686,0.000734670691945964,-0.0299057239522579,-0.0366831891900698,-0.160014182591304,-8.24464340804599e-05,0
0.45,0.00082056369775182,0.000473372119372522,-0.040979082572236,-0.0236788656334832,0.000598067041942807,0.00073465757929062,-0.0299056571137174,-0.0366827692349889,-0.160014202140309,-8.1849396832793e-05,0
0.46,0.000820553329808259,0.00047337211514227,-0.0409787511338081,-0.0236788461860454,0.000598065397300323,0.000734647335124613,-0.0299055856791805,-0.0366824446619111,-0.160014217768579,-8.13721082539802e-05,0
0.47,0.000820544831489787,0.000473372111759465,-0.0409784717299258,-0.0236788462953138,0.00059806404908276,0.000734638938439117,-0.0299055417272923,-0.0366821684363753,-0.16001423026202,-8.09905512339957e-05,0
0.48,0.000820538079401137,0.000473372109054541,-0.040978246506857,-0.0236788463992708,0.000598062977924296,0.000734632267065893,-0.0299055063109965,-0.0366819457752713,-0.160014240249896,-8.06855248524032e-05,0
0.49,0.000820532724296347,0.00047337210689206,-0.0409780646539764,-0.0236788464983058,0.0005980621284141,0.000734626975941811,-0.0299054777266208,-0.0366817659909987,-0.160014248234404,-8.04416791038539e-05,0
0.5,0.00082052841692945,0.000473372105163142,-0.0409779140087585,-0.0236788465936537,0.000598061445093758,0.000734622720059555,-0.029905454052242,-0.0366816170641949,-0.160014254617336,-8.0246742715925e-05,0
0.51,4.22868293438971,0.0312225037759724,4.00727029925353,-1.55407880089935,-0.51179687936348,4.19771344408055,-2.05556676368274,3.77465514328489,0.128707345926756,39.1850453086733,528.135221259979
0.52,3.93324665015434,0.0113064879433864,2.01158092029789,-0.549442660947687,-2.10846609583624,3.32038066647923,-1.54618540691279,1.39916250808322,0.568637847018737,80.3955561947555,528.135221259979
0.53,3.57755466570754,-0.00582605481595633,3.64465961771508,0.314879272592632,-3.4524902888669,0.937679121192452,-3.43265973069739,1.26472916411382,1.30396995862234,120.166754580663,528.135221259979
0.54,3.28233945143623,-0.00719504395337234,2.52650079793621,0.379799682202433,-2.37747201623742,-2.26305785500949,-2.09506500161538,-1.46224372783053,2.32935203146758,158.619615898428,528.135221259979
0.55,2.97068409256872,0.023027483072797,5.02264294972301,-1.12394231577059,1.32390510829426,-2.65946789923283,3.275344684605,-3.97017703970639,-2.67194854644422,190.414706241597,528.135221259979
0.56,2.7312333794256,0.0127778656904226,4.47637244091809,-0.61770105048666,2.51351820642645,1.06865582518551,3.86691917429934,2.33803355771884,-1.16410893803906,221.335893707118,528.135221259979
0.57,2.47946413936419,-0.021016646573311,5.69549122035096,1.08189831471807,-1.3396118862925,2.08653399491358,-2.12099724554832,5.39541424627073,0.562274027836164,248.66991920036,528.135221259979
0.58,2.25702871191875,0.0140416201745597,6.23952001862211,-0.682082311520379,-1.39845366317457,-1.77163854255781,-3.29738067265666,-5.34079835249988,2.47959689043206,274.659826899115,528.135221259979
0.59,2.07387738814972,0.0179479430165911,6.11283329077173,-0.862057193239634,2.05246536370269,-0.297784285243577,6.17325206426059,0.0288512787534099,-1.70622304038773,297.208639990409,528.135221259979
0.6,1.92348255577833,0.0348256909754482,4.691588170483,-1.71505568241914,-0.983502149494781,1.65339695568687,-3.92895870816179,3.08475266833078,0.55471829797692,318.842479795757,528.135221259979
0.61,1.76142518200537,0.0205074077191781,4.72471239230728,-1.00813550946398,-0.331507515783518,-1.73006993863053,0.157195179631307,-4.82851261476708,2.96391433080881,338.605217972575,528.135221259979
0.62,1.56880678111564,0.0400911613995454,7.17610449216827,-1.98069639438748,1.12411877933134,1.09504291589481,3.59282569905527,6.52006421636054,-0.772949964163266,356.19032425722,528.135221259979
0.63,1.48768251892566,0.0838798202206325,4.56529322366795,-4.16183696627045,-1.43542231803643,-0.399747257952028,-2.98155838520415,-5.41046197172686,1.89872523698203,372.273362904555,528.135221259979
0.64,1.31615709866609,0.0489358859099507,6.94634660986454,-2.41944977460207,1.31430620876775,-0.0852256938573729,7.01044756867395,2.22690218084948,-1.59838652793864,387.222722390743,528.135221259979
0.65,1.19868701419979,-0.0267454483531431,7.15298647000968,1.36045575446093,-1.15969214279554,0.304433918867634,-6.50163350646464,3.27792877402846,1.29176752724389,400.967947061652,528.135221259979
0.66,1.09573911071353,0.00575727741391693,7.10384803183439,-0.27128100702448,0.991470030422555,-0.466545307300799,6.55778332738878,-2.74476375580691,-2.00536091495687,413.592089496027,528.135221259979
0.67,0.963035611680714,0.0128167678617832,9.02888486661367,-0.6296927385775,-0.837868039824766,0.474951583578657,-8.21645210914488,3.7956803892993,1.06841099236914,425.016162661763,528.135221259979
0.68,0.915935529079878,0.0772470933985532,7.05751273166789,-3.85546109491311,0.771724290551196,-0.499346198786588,8.04156815334795,0.079043324215704,-2.06095904236552,435.494115300874,528.135221259979
0.69,0.87965907372219,0.0110332497545131,4.90731639987268,-0.544190513823398,-0.804343250458729,0.356305703046433,-4.72552599228921,1.43083949483995,1.16633989285011,445.078135067352,528.135221259979
0.7,0.819410510914644,-0.0518653136700195,4.2902886969594,2.6014252555047,0.806555660864538,-0.153595449434078,3.50832105176972,-3.58687522238294,-1.82218847246777,453.842383893982,528.135221259979
0.71,0.674861521417341,-0.0249212917125276,8.21725235804897,1.25140230209732,-0.675321510328195,3.94765064189589e-05,-8.16538408006535,1.55426730730952,1.53382663509678,461.793567105221,528.135221259979
0.72,0.619020912391137,0.0144561891097302,7.97690210143329,-0.718034477499964,0.605585976550354,0.129079418912103,7.59465785036667,2.54316982967977,-1.33744197657193,469.090277749274,528.135221259979
0.73,0.628097626424504,-0.0135383237843508,4.77539484584732,0.685445624005805,-0.526798648995097,-0.342305562250932,-4.42043421858963,-1.93235425228805,2.12546884005775,475.712644825931,528.135221259979
0.74,0.562534377443817,0.0455225504986435,5.50530500102489,-2.26701739648382,0.375828434381762,0.421034697287716,1.51537562947042,5.75772417990625,-0.647980557297779,481.803265304973,528.135221259979
0.75,0.521687500199919,0.00960916969965104,5.22158075541674,-0.466777283752988,-0.131842629398667,-0.504844238434394,-0.772400630452075,-5.18518889569546,2.90456028925559,487.38674926545,528.135221259979
0.76,0.434416018311522,-0.017072776689561,7.46342031015667,0.870778783721475,-0.108557371397545,0.420979873372568,-0.727288181099319,7.4787666307936,0.213090010276569,492.471933712428,528.135221259979
0.77,0.43879340014579,0.00867139622226085,5.31435171288918,-0.413269953488253,0.275613359695609,-0.341543726455699,3.73486623470538,-3.80314348816897,-2.44286066621544,497.089353027498,528.135221259979
0.78,0.365234493090818,0.0613773731401821,7.18969402348436,-3.050376931081,-0.321396297396337,0.184032162669522,-7.8011362229444,-0.372522756436069,1.21725964109903,501.37741229964,528.135221259979
0.79,0.340678513673316,0.0114811642101378,6.78325378970678,-0.57469159195933,0.33646513845488,0.0546340316544401,6.54397807515849,1.87594065825257,-1.37613662133528,505.298133943655,528.135221259979
0.8,0.323567280779637,0.00721714728552111,6.15920392292008,-0.370669011764841,-0.23733177330888,-0.220048862265024,-4.16403821478713,-4.55345739259622,2.34072698318816,508.778163567289,528.135221259979
0.81,0.278455652884855,0.0127985481701777,7.04640772970104,-0.647552188551124,0.0681718449674813,0.27028494780976,0.773270645020195,7.033721507114,-0.201138699428977,512.003530332264,528.135221259979
0.82,0.238122348026584,0.0457258298362732,7.79659563976553,-2.28869576991888,0.0556659861690423,-0.235996614653129,5.27733004102286,-6.17857746859041,-2.72023327887621,514.981440572522,528.135221259979
0.83,0.223508633965941,-0.0190651937316491,7.40454882868617,0.961175892069089,-0.204714750356107,0.0917140232242772,-6.00953459768607,4.43133121884459,1.06450585922609,517.627171410943,528.135221259979
0.84,0.225555673162955,0.0437334335723541,6.25888300019318,-2.17300336102077,0.229607903139802,-0.00825746472983244,5.84661155439236,3.11651942865122,-1.41522854999964,520.060276400573,528.135221259979
0.85,0.191998869429332,0.0299154388559396,6.95711270944974,-1.47981679430848,-0.151062110698841,-0.122224130413336,-3.5735094046534,-6.14990288797785,2.40562825983638,522.341525038037,528.135221259979
0.86,0.14860489262116,-0.00128559953625487,8.2498062126953,0.050457210842036,0.00482094345223814,0.14853223684219,0.38935930976409,8.24076742816177,-0.0410967387949546,524.381923642669,528.135221259979
0.87,0.132545961630726,-0.0312381825384832,8.24000135053718,1.55003202500393,0.106633616873719,-0.0846966808402218,3.88786920185125,-7.42864015851413,-2.47349266649602,526.260974540981,528.135221259979
0.88,0.169835160400527,-0.0364244813794249,5.64560709386098,1.81848939905576,-0.17361469655725,-0.00535366149160183,-5.22759219788488,2.80215327299289,1.39035385858509,527.931269899746,528.135221259979
0.89,0.158074349378131,-0.0232035542098189,5.5415280169074,1.16735116109543,0.122263033358487,0.102847729840133,5.3275395088202,1.92056353121691,-1.01718103882423,529.517282175473,528.135221259979
0.9,0.121485052867449,-0.000235039077924354,6.74488114544958,0.0255509698602604,-0.0324131925477542,-0.117081417237909,-1.83676985716623,-6.49001933819211,2.86957894270655,530.916688989574,528.135221259979
0.91,0.0812898106955841,-0.0322263502305287,8.19089452947204,1.62452695342101,-0.066287635415019,0.0570308720184963,-2.36459065014377,8.00865482291371,0.48288980439258,532.193110700517,528.135221259979
0.92,0.073514896860307,-0.00852230843133868,8.0389745686987,0.410025272941047,0.0724054741671774,-0.0153139515477438,7.49063258891232,-2.94680441471087,-1.89463841130076,533.383007211799,528.135221259979
0.93,0.103020957866057,-0.0139284510433606,6.09984469171853,0.687319183772693,-0.0868055393513474,-0.0572024286724686,-5.79505561458293,-2.02431305567088,2.01906767888482,534.426349695165,528.135221259979
0.94,0.0918972720185613,-0.0266715847731485,6.20453901193854,1.33571421790227,0.00578069160543948,0.0955147404505058,3.34414808081313,5.39417374916376,-0.342919699325639,535.428272441958,528.135221259979
0.95,0.0504120695576827,0.0313416393079384,7.84981379945378,-1.5574691551993,-0.00666539965518321,-0.0589851469357688,4.77649302174613,-6.42109034889735,-2.6978873656824,536.352289055819,528.135221259979
0.96,0.0307171184625358,0.0170287415311772,8.45939578818385,-0.838982834354295,-0.0272981442482191,0.0220982063837886,-8.47670282257443,0.640920084911193,1.39647595976625,537.136051102315,528.135221259979
