t,iq,id,vq,vd,ia,ib,va,vb,theta_e,omega,r
0,0,0,0,0,0,0,0,0,0,0,0
0.01,0.000499791354200411,0.000283270086380344,-0.024316322022038,-0.0141753033766619,-0.000572726438622907,-4.49195511300956e-05,0.0280849636975055,0.00185945062038531,2.16469945291994,-0.00166969282977364,0
0.02,0.000574498222011273,0.00032472827635419,-0.0280274045368674,-0.0162499419907032,-0.00065784138956904,-5.23580626833301e-05,0.0323215671892877,0.00221637411165113,2.16468660946086,-0.00183393093042756,0
0.03,0.000603080172341102,0.000340887385657454,-0.0294379144947894,-0.0170585748431618,-0.000690572446546297,-5.49508875488768e-05,0.03394308882269,0.00233506031126872,2.16467336450185,-0.00183518576183277,0
0.04,0.000589275907826216,0.00033339722693231,-0.0288006190024772,-0.0166837526015181,-0.000674941115394801,-5.34256232550148e-05,0.0332051986636863,0.0022886759271774,2.16466096331384,-0.00169563147748882,0
0.05,0.000603514575535217,0.000341752864728466,-0.0295159523035667,-0.0171018757366844,-0.000691418103546906,-5.44597972927438e-05,0.0340320522397816,0.0023420107702984,2.16464894595396,-0.00165620032485273,0
0.06,0.000604489258288888,0.000342588968832459,-0.0295898959297957,-0.0171437192150876,-0.000692694386080037,-5.43042580792509e-05,0.0341167769572131,0.00234831422805268,2.16463743248794,-0.00157447905826998,0
0.07,0.00061709580735005,0.000350145962125262,-0.0302234974549864,-0.0175218804847918,-0.000707371761120939,-5.50874015569445e-05,0.0348535296766534,0.00238905069296185,2.16462666490653,-0.00153862375115323,0
0.08,0.000604944844744793,0.000343427289051489,-0.0296614296178735,-0.0171856758952313,-0.000693542198882771,-5.38496649702435e-05,0.0341995906425273,0.00235284143867676,2.16461621072069,-0.00141919674165829,0
0.09,0.000603205224058079,0.000342751966635652,-0.0296002990213468,-0.0171518825894459,-0.000691723043448895,-5.34292441024783e-05,0.0341300395666512,0.00234631150832719,2.16460643421638,-0.00134089780871701,0
0.1,0.000602593276666605,0.000342682776236034,-0.0295923348250215,-0.017148418737658,-0.000691177629585467,-5.31378073808628e-05,0.0341215222737267,0.00234441108208789,2.16459719759618,-0.00127050139537581,0
0.11,0.000602123998053094,0.000342674449622979,-0.0295900872751691,-0.0171479944344501,-0.000690784485189931,-5.28761049694155e-05,0.0341194425282573,0.00234320712635607,2.16458846098512,-0.00120429546647638,0
0.12,0.000601691517949331,0.000342672301136072,-0.0295885117100587,-0.0171478901029574,-0.000690425267807772,-5.26302034066642e-05,0.0341180976445831,0.00234213008051981,2.16458019624858,-0.00114170563347435,0
0.13,0.000628030118822873,0.00035786464646385,-0.0308787298699127,-0.017908140870313,-0.000720756058304617,-5.47689670758832e-05,0.0356128495410706,0.0024336013180226,2.16457207885404,-0.00117307880872632,0
0.14,0.000646863146606227,0.000369007290245265,-0.0318845729036829,-0.0184657357695161,-0.000742600196012121,-5.60647801585029e-05,0.0367585174443026,0.00253392621375485,2.16456432364675,-0.00118109077655143,0
0.15,0.000605351347089061,0.000345309346869305,-0.0298195189002753,-0.0172798608085018,-0.000694935294535799,-5.24760408785697e-05,0.0343834559802418,0.00236119712430877,2.16455691357175,-0.000982306122467371,0
0.16,0.000600649111948307,0.00034293178357543,-0.0296079822883022,-0.0171608716208086,-0.000689708020686576,-5.18112928918159e-05,0.0341415686083889,0.00234124388498114,2.16455030473675,-0.000917142901467576,0
0.17,0.000599863602183159,0.000342692364931904,-0.0295845593598273,-0.0171488891942433,-0.000688923324977678,-5.15659820858331e-05,0.0341154652340096,0.00233785905876806,2.16454409525489,-0.000868519658349503,0
0.18,0.000599508501042372,0.000342667420712086,-0.0295811157566546,-0.0171476512098959,-0.000688615345536044,-5.13839462460796e-05,0.0341119321043796,0.00233675833817663,2.16453822556243,-0.000823901639507605,0
0.19,0.00059921386763983,0.000342664035058308,-0.0295798484851274,-0.0171474755805342,-0.000688369527978606,-5.12180929441573e-05,0.0341107964344925,0.00233600552069577,2.16453267328563,-0.000781839006641293,0
0.2,0.000598939385271132,0.000342662858936011,-0.0295788521214828,-0.0171474204513682,-0.000688141631798584,-5.10618909632561e-05,0.0341099520162587,0.00233531462742709,2.16452742085856,-0.00074206306807111,0
0.21,0.000598680211528248,0.000342661949401322,-0.0295779312996098,-0.0171473769594225,-0.000687926557438248,-5.09142299773181e-05,0.0341091760537489,0.00233466603336153,2.16452245204546,-0.000704436501639126,0
0.22,0.000598435124039675,0.000342661109195338,-0.0295770628391042,-0.0171473349196021,-0.000687723182388725,-5.07745787228729e-05,0.0341084436722964,0.00233405468811448,2.16451775152776,-0.000668841782840272,0
0.23,0.000598203191479559,0.000342660316251679,-0.0295762353812368,-0.0171472914213296,-0.000687530723316263,-5.06424241742738e-05,0.0341077438634099,0.0023334761542279,2.16451330481803,-0.000635169045095268,0
0.24,0.000597983889982314,0.00034265956619487,-0.0295754561206399,-0.0171472493736049,-0.000687348744447546,-5.05174671734278e-05,0.0341070842506517,0.00233293157710108,2.1645090982116,-0.000603314493182117,0
0.25,0.000597776299303895,0.000342658856539154,-0.0295747105452636,-0.0171472215729187,-0.000687176482460003,-5.03991857878412e-05,0.0341064599952086,0.00233240178831441,2.16450511874387,-0.000573179951105346,0
0.26,0.000603184897924758,0.00034585437888162,-0.0298444014984746,-0.0173071346314315,-0.000693447403864988,-5.07737190778833e-05,0.0344194694610376,0.00235060247029267,2.16450141254883,-0.000564548805408134,0
0.27,0.000587940838842738,0.000337166260258758,-0.0291173073686061,-0.0168723576440732,-0.000675951744394243,-4.94444768033657e-05,0.0335735790564275,0.00230408988739844,2.16449768358537,-0.000484100704432556,0
0.28,0.00058743427509425,0.000336959002538781,-0.0290255286003771,-0.0168619887147206,-0.000675416085464655,-4.93306035138337e-05,0.0334917127655754,0.00226122753717321,2.16449431411404,-0.000457437456160691,0
0.29,0.000596015904436254,0.000342084967349255,-0.0295220963188829,-0.0171184986082898,-0.000685396978199944,-4.98805122436817e-05,0.034046813131009,0.00232630206240934,2.16449122830436,-0.000464399803906215,0
0.3,0.000590187355300125,0.000338968600230706,-0.0292465815776623,-0.0169625584761332,-0.000678822555647777,-4.92012626092114e-05,0.0337312132037057,0.00230134305162067,2.16448873661,-0.000425762135648826,0
0.31,0.000596061693241117,0.000342285650771181,-0.0295366659755114,-0.0171285468631701,-0.000685547463321773,-4.97361478846204e-05,0.0340645232297167,0.00232594319037219,2.16448592227077,-0.00042533886057955,0
0.32,0.000596557855316734,0.000342617862786785,-0.029566944758393,-0.0171451671547665,-0.00068614470567907,-4.97364806683006e-05,0.0340989248883965,0.00232901278790912,2.16448320116561,-0.000406946639418934,0
0.33,0.000596490733054478,0.000342650766434857,-0.029569706063979,-0.0171468222003035,-0.000686107604278935,-4.96698873451947e-05,0.0341021455669018,0.00232909768210321,2.16448062076556,-0.000387641075015357,0
0.34,0.00059637068692064,0.000342653676414418,-0.0295695890105848,-0.0171469615852056,-0.000686009848815058,-4.95986442078136e-05,0.0341021322040677,0.00232883339801356,2.1644781790369,-0.000369175918208153,0
0.35,0.000596250942701985,0.00034265359951389,-0.0295691779889189,-0.0171469638689997,-0.000685910665830111,-4.95301366172653e-05,0.0341017981701796,0.00232852279900397,2.16447586908106,-0.000351686395580594,0
0.36,0.000596137182769443,0.000342653242954199,-0.0295687643053221,-0.0171469373746747,-0.000685816280228176,-4.94652945134843e-05,0.0341014455393649,0.00232823881945952,2.16447368384591,-0.000335138964296039,0
0.37,0.000596029312891132,0.000342652877156727,-0.0295683585524264,-0.0171469236249349,-0.000685726765558249,-4.94038363518536e-05,0.0341011063359355,0.00232795273779651,2.16447161660313,-0.000319484783266345,0
0.38,0.000595927321986431,0.000342652528228132,-0.0295679755508581,-0.0171469098593476,-0.000685642127596588,-4.93457298646387e-05,0.0341007857211634,0.00232768320439734,2.16446966098263,-0.000304675835665903,0
0.39,0.000595830860809373,0.000342652197827861,-0.0295676124851156,-0.0171468960788411,-0.000685562078119921,-4.92907741164296e-05,0.0341004813760123,0.0023274284377352,2.16446781095734,-0.000290666505270726,0
0.4,0.00059573974365142,0.000342651885216177,-0.0295672739208762,-0.017146866625394,-0.000685486463097091,-4.92388618745363e-05,0.034100188339153,0.00232720377609455,2.16446606082562,-0.00027741361858082,0
0.41,0.000595653352399269,0.000342651589460683,-0.0295669420300998,-0.0171468528192516,-0.000685414769952412,-4.91896443929247e-05,0.0340999093664927,0.0023269731011209,2.16446440519348,-0.00026487633112532,0
0.42,0.000595571734175171,0.00034265130965583,-0.0295666315415236,-0.0171468389996457,-0.000685347037516478,-4.91431452459368e-05,0.0340996479178067,0.00232675745912848,2.16446283895868,-0.000253016003630609,0
0.43,0.0005954944815255,0.000342651044942534,-0.0295663338863671,-0.0171468251678178,-0.000685282927834011,-4.90991338699576e-05,0.0340993969025071,0.00232655189091866,2.16446135729367,-0.000241796083153685,0
0.44,0.000595421198078452,0.000342650794507776,-0.0295660402997373,-0.0171468240649273,-0.000685222112144849,-4.90573860467633e-05,0.0340991561935327,0.0023263407764817,2.16445995563239,-0.000231181990452389,0
0.45,0.000595352036293483,0.000342650557582247,-0.0295657689120486,-0.0171468102082244,-0.000685164716622977,-4.9017984711508e-05,0.0340989265741428,0.00232615523315719,2.16445862965481,-0.000221141013415954,0
0.46,0.000595286716213994,0.000342650333437772,-0.0295655156190614,-0.0171467963403942,-0.000685110509023755,-4.89807710338283e-05,0.0340987117802298,0.00232598226320352,2.16445737527437,-0.000211642206247048,0
0.47,0.000595224888594019,0.000342650121385505,-0.0295652724199492,-0.0171467824624212,-0.000685059199677506,-4.8945547544994e-05,0.0340985051895348,0.00232581725822855,2.1644561886251,-0.000202656294089028,0
0.48,0.000595166378810576,0.000342649920773691,-0.0295650393853607,-0.0171467685747734,-0.00068501064366768,-4.89122145757194e-05,0.0340983068694389,0.00232566013259441,2.16445506604996,-0.000194155582802011,0
0.49,0.000595110906909886,0.000342649730985589,-0.0295648110010651,-0.0171467688662326,-0.000684964608777296,-4.888061364355e-05,0.0340981201944473,0.00232549592253586,2.16445400408912,-0.000186113873613217,0
0.5,0.000595058567136123,0.0003426495514376,-0.0295645998941031,-0.0171467535038688,-0.000684921172969967,-4.88507956939132e-05,0.034097938950319,0.00232535630843094,2.16445299946966,-0.000178506382369003,0
0.51,4.27318673500135,0.0207297718731413,5.30220939530411,-1.03159069065507,-0.406228241482091,4.25388448496851,-1.55607581570965,5.17264263993376,0.100058209955824,30.8167581815329,574.862776148035
0.52,4.04619801398367,-0.00263283995616514,5.60593979573334,0.143725638826262,-1.7609336221987,3.64291615034189,-2.30701766970385,5.11125107232241,0.449617361456973,64.3048663160707,574.862776148035
0.53,3.8826980024051,-0.0063807776846212,2.96365039354326,0.337285565282647,-3.35340009032428,1.95706216723372,-2.38669120263188,1.78904731937888,1.04087557557181,96.9718079098303,574.862776148035
0.54,3.61664776510178,0.0137340173767462,5.04403356156162,-0.668606574558509,-3.45615105736896,-1.06552782633604,-4.61507414284347,-2.1425218733447,1.87364678781917,130.399957263856,574.862776148035
0.55,3.42914309477867,-0.00417291387684071,4.05540128706776,0.231199275297787,-0.669062210222021,-3.36324181951451,-1.02279167374307,-3.93111051691134,2.94400567542148,160.679030779624,574.862776148035
0.56,3.20293299692174,0.0258957938029168,6.43542961294683,-1.26772222726115,2.81113127709941,-1.53524959463281,6.27139611981546,-1.92131846840874,-2.06258039780345,187.456107027131,574.862776148035
0.57,3.06362173178783,-0.0102260268805565,4.0370059776226,0.536648027990899,1.68946473294398,2.5556978701026,2.68414656877686,3.06280354685549,-0.587447555748034,215.223720194912,574.862776148035
0.58,2.86481289136618,0.0393249297549041,5.66454648423896,-1.93685253707387,-2.51044768032951,1.38070699171341,-5.9104023366631,0.95164533374614,1.08169112754172,239.585805524853,574.862776148035
0.59,2.7069015632201,0.0165353233426869,5.34423780519695,-0.801282674172533,-0.595070566854674,-2.64073484286945,-0.360214734072094,-5.39195483918242,2.92606046274829,263.954036477912,574.862776148035
0.6,2.55773116893069,0.060533061259935,5.40482753992591,-2.99460211349977,2.50449999424655,0.522621050900247,4.5823553398612,4.14509615012299,-1.34141331976878,285.59107302395,574.862776148035
0.61,2.4372988046702,-0.0176452646283356,3.95817459436618,0.911870663494617,-1.81526814017255,1.62651111213083,-2.31530567567859,3.33736630512722,0.832946587050978,307.359287686449,574.862776148035
0.62,2.25417066400078,-0.00502021888454495,6.46388611608606,0.282266756217603,0.0398239822961386,-2.25382444646282,-0.18243080258617,-6.46747379164875,-3.12615205479312,327.066586989119,574.862776148035
0.63,2.12986930759617,0.0519521240516307,6.20973571915768,-2.56467300100241,1.34398822486108,1.65309949551393,1.76979827663774,6.48121742914582,-0.658237005871606,345.653592169942,574.862776148035
0.64,2.0389399467646,0.0126745535133662,4.50392459175821,-0.60420416351754,-1.9038479687365,-0.729931272625776,-3.9755266339408,-2.20126949333416,1.94312528391391,363.695375031365,574.862776148035
0.65,1.90574115928159,0.0269411190324084,5.36624500702883,-1.32358180894947,1.90290925646353,-0.107291899694664,5.41729246170935,1.09608241695177,-1.61298390204388,380.540977952783,574.862776148035
0.66,1.78986931950739,-0.0100029376853587,5.77712332909425,0.523736232964802,-1.69214156074099,0.583428811500797,-5.27751548849514,2.40775494392164,1.23318433880666,396.209601796407,574.862776148035
0.67,1.72639747535169,0.0228354921719923,3.79850081255666,-1.10671942604952,1.48664776664695,-0.877979567260579,3.84610051258823,-0.927872382419883,-2.09103165445672,410.903061988163,574.862776148035
0.68,1.639117620804,-0.000761829343255749,3.22569231958712,0.0730296686522041,-1.35638031598264,0.920293210682852,-2.62740763497947,1.87273954216768,0.974186784658748,424.929326822592,574.862776148035
0.69,1.51882360845027,-0.00198889538219915,4.55552719241796,0.131476071424276,1.27724574332884,-0.821871291893755,3.75641961221863,-2.58058630066035,-2.14387792113824,438.198292077944,574.862776148035
0.7,1.44695698658418,0.0518081409043548,3.71938073397894,-2.56311618878254,-1.27664609735109,0.683039784058705,-4.4676912208043,-0.665652159195054,1.11531114576336,450.721251935705,574.862776148035
0.71,1.33821416774188,0.0247176050689745,4.98251884265023,-1.20998428369853,1.29078909302975,-0.353965585983832,5.12702725131772,-0.0561030160287737,-1.81997263512025,462.481145196954,574.862776148035
0.72,1.22421056747031,0.0251715535771194,6.73297510243259,-1.23503647061869,-1.22422318722797,-0.0245501215651499,-6.67728364713208,-1.50736588440828,1.6114058321373,473.55537396299,574.862776148035
0.73,1.18875512405728,0.0434205561514269,4.77366812406772,-2.14844372393316,1.10792400977746,0.433045584468405,3.52507083612664,3.87008958474315,-1.16168228156911,483.968012779345,574.862776148035
0.74,1.11633560001425,0.0109858640385627,4.86375776729044,-0.52550289259331,-0.743620682481576,-0.83267889468479,-2.80848419845261,-4.00558477828694,2.42247345532737,493.765599304534,574.862776148035
0.75,1.06472888628146,0.0189369433828567,4.11623467900158,-0.922751599600659,0.237251331207135,1.03813198339483,-0.0575093622209815,4.21800321484441,-0.206894411125861,502.95244799783,574.862776148035
0.76,1.00626462971234,0.0332637127878727,3.89495468321778,-1.63887066431005,0.333555412883077,-0.949955665352309,2.93863703642239,-3.03660689039968,-2.77086927669796,511.589079192611,574.862776148035
0.77,0.936850400511621,0.0252106187140274,4.37890709357682,-1.23537193708894,-0.779885381655485,0.519714382824651,-4.36509358256358,1.28332738324501,1.0098829383387,519.742615220463,574.862776148035
0.78,0.862154823956008,0.00818714357793235,5.2958048468263,-0.384066580102916,0.855290423152807,0.10888646313327,5.19469622272757,1.09917572171189,-1.43467231078482,527.410440333014,574.862776148035
0.79,0.809249510454323,-0.0173495249105406,5.26669539368971,0.885198700770842,-0.497428197083506,-0.63855380738935,-4.01139391374908,-3.52567383325452,2.45835773690871,534.62881160931,574.862776148035
0.8,0.756305456419059,0.00739768160443161,5.37288894228212,-0.364511922795274,-0.0825124971083774,0.751827345155323,-1.00029097399762,5.29152364591677,0.119092809893639,541.393484306628,574.862776148035
0.81,0.734543896988009,-0.0143894959679035,4.04414306159232,0.72712937319395,0.613776056167271,-0.403783044557709,2.92295644702097,-2.88792933376239,-2.17226931929856,547.748980932849,574.862776148035
0.82,0.648089720743771,-0.0267225425172156,6.1182059903784,1.34692424411027,-0.612605138217244,-0.213188473051794,-6.24615605483648,-0.481854748553733,1.86448160450155,553.640290772612,574.862776148035
0.83,0.66810405425096,0.0307531065871513,2.98987622635345,-1.52284163311791,0.25171693807585,0.619634863413163,-0.439009212687256,3.32651129558378,-0.339871251555553,559.16933405782,574.862776148035
0.84,0.61368658691318,0.0176983493628546,3.70598207996743,-0.865699084708975,0.35071414967007,-0.503908765302329,2.89984257347974,-2.46468073618878,-2.50473338854775,564.364624209349,574.862776148035
0.85,0.538796497561121,0.0256596054433549,5.5436470647784,-1.26567517224923,-0.539127112580875,-0.0173792294377031,-5.42509002932949,-1.70362982896638,1.6506090062341,569.28393182244,574.862776148035
0.86,0.527704337248181,0.00563142626735597,4.27635796472401,-0.281523124851157,0.231099157017979,0.474443632202948,1.57712438367539,3.98486780090644,-0.442599323107645,573.881524917386,574.862776148035
0.87,0.512043426170103,-0.0161372987152593,3.34826353099204,0.81220369999848,0.317966514726878,-0.401679198124928,1.34204004346125,-3.173243143065,-2.50350394311081,578.13549260754,574.862776148035
0.88,0.473206686464274,0.0381801319812048,3.68540479260973,-1.89907763922808,-0.472477468432778,-0.0463393182508422,-3.29022977282375,-2.52251707768868,1.74907040247677,582.100136763416,574.862776148035
0.89,0.403559253927812,-0.00521064536140176,5.65206113935444,0.27677178790397,0.0960903685951084,0.391987070346856,1.68438526834935,5.40233690298447,-0.253307117467654,585.81664558834,574.862776148035
0.9,0.359033590185304,-0.0392772292525234,6.43124167565845,1.9619011353989,0.308029674805612,-0.188588279217594,3.88689589959991,-5.48652584259648,-2.22913148408892,589.339640550932,574.862776148035
0.91,0.375560229825986,-0.00612616922354778,4.23219530298704,0.305048320269834,-0.320539798467781,-0.195799013722074,-3.80193991056922,-1.88408717334043,2.10283877473656,592.587590726604,574.862776148035
0.92,0.316327123633462,-0.0156060469501632,5.91420979606885,0.786620166718297,-0.0703120133910475,0.308808384958258,-0.252581330232099,5.96094384055267,0.174576410834086,595.589265334374,574.862776148035
0.93,0.283308924199786,0.0448338166355763,6.35417935851457,-2.23119813156444,0.27241291053125,-0.0898065911904337,6.63026967884628,1.18040857682454,-1.73229791999914,598.395782738857,574.862776148035
0.94,0.267314218452876,-0.0278782698347897,5.99205240284512,1.38878100836542,-0.0981002537585883,-0.250220761585752,-3.98739832580732,-4.68338118019316,2.66403967743113,601.069153340034,574.862776148035
0.95,0.240694069213835,-0.036986894514906,6.23135585105556,1.84646240785524,-0.197839252711745,0.141990476465956,-3.15989314510845,5.67928644088353,0.795810568620301,603.484292948469,574.862776148035
0.96,0.26947035501962,-0.00669689316151871,3.7671282963583,0.341388193677784,0.231148308670059,0.138670761198559,3.44584757513479,1.5601076850473,-1.05528174446868,605.735137260369,574.862776148035
0.97,0.215639201578464,-0.00628325278860969,5.50509476503179,0.326183363195583,-0.205200183470731,0.0665779935607957,-5.07500894374325,2.15794999463195,1.22792890121034,607.792945247876,574.862776148035
