t,iq,id,vq,vd,ia,ib,va,vb,theta_e,omega,r
0,0,0,0,0,0,0,0,0,0,0,0
0.01,0.000473321844413758,0.000267809919381303,-0.0234058124853241,-0.0133999923299256,0.000327749526170223,-0.00043397692267384,-0.0161448938495599,0.0216040333069235,-1.97985711957077,-0.00130592155714387,0
0.02,0.000556992254954671,0.000313814292483002,-0.0275706112756435,-0.0157018429464341,0.000386213351184182,-0.000509469360818862,-0.0190502599243956,0.0253727033411911,-1.97986733340664,-0.0014668586680216,0
0.03,0.000588536133967874,0.000331472331953953,-0.0291393989174979,-0.0165853766600398,0.000408125223310673,-0.000538221599282727,-0.0201378906439408,0.0268075483519317,-1.97987798511557,-0.00147499579318568,0
0.04,0.000576072832151452,0.000324737736326716,-0.0285375470629879,-0.016248406525349,0.000399363828615664,-0.000527089212307588,-0.0197194720752404,0.026259183689884,-1.97988800815062,-0.00136184510186761,0
0.05,0.000589886097623314,0.000332916344242242,-0.0292308475010043,-0.0166576352606368,0.000408778783407402,-0.000540091479907659,-0.0201925216027554,0.0269106174107105,-1.97989767265347,-0.00132678453924086,0
0.06,0.000591201080415169,0.000333998525295451,-0.0293073698046,-0.0167117728759389,0.000409549768766559,-0.000541611225222352,-0.0202409444859432,0.0269909140978499,-1.97990691901191,-0.00125912773358461,0
0.07,0.000602050533380169,0.000340627609199127,-0.0298532117574704,-0.0170434726707558,0.000416862102122785,-0.000552012681653086,-0.0206095554683937,0.0275125505235406,-1.97991554569845,-0.00122358852750138,0
0.08,0.000591763080110508,0.000335017333560487,-0.0293565279321697,-0.016762754317125,0.000409650897169669,-0.000542776472607223,-0.0202653062841997,0.0270575872120211,-1.97992390028877,-0.00112956277755482,0
0.09,0.000589794036727815,0.000334272363469674,-0.0292692913215823,-0.0167254802657697,0.000408136498034701,-0.000541312864904635,-0.020199887007616,0.026988843425902,-1.97993169660558,-0.0010636940582597,0
0.1,0.000589022807757479,0.000334172268375451,-0.0292405414878439,-0.0167204690118858,0.0004074647699025,-0.000540917215753022,-0.020175305536229,0.0269729567715437,-1.97993903951635,-0.00100476107322822,0
0.11,0.000588447639860419,0.000334157714583363,-0.0292209306420436,-0.0167197480392712,0.000406939120490703,-0.000540677866466833,-0.0201574134036759,0.0269646332620554,-1.97994596498001,-0.00094961515742479,0
0.12,0.000587926489036019,0.000334154569903289,-0.029203486869264,-0.0167195916594383,0.000406458705849516,-0.000540470307728934,-0.0201412955451806,0.02695768173162,-1.97995249807762,-0.000897654900420056,0
0.13,0.000612364947268788,0.00034830139015556,-0.0304165267429343,-0.0174274358725031,0.000423248236611886,-0.000563174588589302,-0.0209724225282988,0.0280898222402412,-1.97995888308774,-0.00091838392608583,0
0.14,0.000628165719114574,0.000357710010138769,-0.0312307837280353,-0.0178981970990916,0.000433998055629315,-0.000578095415769907,-0.0215320017302689,0.0288458006155652,-1.97996499121494,-0.000916492239668677,0
0.15,0.000592264910672741,0.000337272514308721,-0.0294405310749942,-0.0168755915746642,0.00040918860998854,-0.000545064358381616,-0.0202962130517595,0.0271954811821774,-1.97997081200655,-0.000768619841488022,0
0.16,0.000586878540811867,0.000334562994057725,-0.0291814844561016,-0.0167400203542224,0.000405322077518603,-0.000540437630198286,-0.0201123485116503,0.0269681433151672,-1.97997598944392,-0.000713185710365336,0
0.17,0.000585796499381539,0.000334203002216111,-0.0291342435917639,-0.0167220060091443,0.000404469974361205,-0.000539678816721736,-0.0200760442677509,0.0269329181707701,-1.97998082966817,-0.000672694512188993,0
0.18,0.000585337193135961,0.00033415444240945,-0.0291173531756895,-0.0167195834354452,0.000404065446051526,-0.000539453368102783,-0.0200613893055052,0.0269240670283227,-1.97998538964518,-0.000636153483976723,0
0.19,0.000584982938561226,0.000334147204384189,-0.0291053149548249,-0.016719212876331,0.000403740997647597,-0.000539307518419704,-0.0200503765712101,0.0269190237039959,-1.97998969056053,-0.000601914203191556,0
0.2,0.000584659665893604,0.000334145487934226,-0.0290944960162674,-0.0167191297885815,0.000403442909038476,-0.000539178960249929,-0.0200403746799216,0.0269147242604562,-1.97999374782972,-0.000569646282258914,0
0.21,0.00058435630028254,0.000334144545945343,-0.0290843680440298,-0.0167190830685468,0.000403162900692219,-0.000539058938123053,-0.0200309984559365,0.0269107284188262,-1.97999757535316,-0.000539210008284293,0
0.22,0.00058407033876552,0.000334143746888382,-0.0290748240580662,-0.0167190407077301,0.000402898920369376,-0.00053894588241814,-0.020022162130582,0.026906964522423,-1.98000118615399,-0.000510497726174256,0
0.23,0.000583800457725679,0.000334143004803875,-0.0290658142249592,-0.0167190137147889,0.000402649781174595,-0.00053883919291392,-0.0200138152695226,0.0269034231002779,-1.98000459250546,-0.000483411267063573,0
0.24,0.000583546044758801,0.000334142306162237,-0.0290573232303697,-0.0167189713349084,0.000402414920282172,-0.000538738618492634,-0.0200059557438687,0.0269000700851511,-1.98000780598392,-0.000457858496652543,0
0.25,0.000583305907832346,0.000334141647152508,-0.029049305885202,-0.01671894431001,0.000402193239597134,-0.000538643686026552,-0.019998529566216,0.0268969159280842,-1.98001083751058,-0.000433752564274178,0
0.26,0.000588120278508881,0.000337023384190715,-0.029290229648163,-0.0168631223961806,0.000405461967872245,-0.000543204212146677,-0.0201621180616328,0.0271251072819902,-1.98001364753372,-0.000425845593953877,0
0.27,0.000575175280468774,0.000329647758855496,-0.0286555250647075,-0.0164940823307482,0.000396518998814755,-0.000531287993238816,-0.0197265821517508,0.0265340502991497,-1.98001647965006,-0.000366862051556721,0
0.28,0.000574721508145789,0.000329505186831744,-0.0286099917775935,-0.0164869485133904,0.000396158071020832,-0.000530977648154276,-0.0196875795194992,0.0265094381958681,-1.98001902471054,-0.000345901301485293,0
0.29,0.000581359151296216,0.000333525128677451,-0.0289665697704569,-0.016688086387708,0.000400646876638966,-0.0005373076907086,-0.0199346205620846,0.0268358956361823,-1.98002135075172,-0.000346959630269786,0
0.3,0.000574774574474883,0.000330015189705024,-0.0286442478970463,-0.0165124711255579,0.000396001604549748,-0.00053146831146631,-0.0197087407398467,0.0265465662319881,-1.98002320721186,-0.000313744853073962,0
0.31,0.000581100376318251,0.00033359198040356,-0.0289587878254808,-0.0166914331675217,0.000400380746939269,-0.000537267637427693,-0.0199260435206838,0.0268359483364921,-1.98002529983664,-0.000315712233884987,0
0.32,0.000581850863631025,0.000334065629252886,-0.0289983499664163,-0.0167151400072552,0.000400879706057069,-0.000538001610990055,-0.0199528513347802,0.0268734800472335,-1.98002733144643,-0.000302170165667393,0
0.33,0.000581826506647684,0.000334128041448461,-0.0289995719147495,-0.0167182567831565,0.000400831490686339,-0.000538049949348757,-0.019952680477391,0.0268768640818349,-1.98002925609358,-0.000287232733822137,0
0.34,0.000581700530662339,0.000334135972960773,-0.0289956468403239,-0.0167186595611638,0.000400711783554241,-0.000538007827378067,-0.0199488704152968,0.0268757080346654,-1.98003107289751,-0.000272837482974482,0
0.35,0.000581567437693969,0.000334136703378777,-0.0289912410631745,-0.0167186876526236,0.000400588467913955,-0.000537956225454372,-0.0199447712002626,0.0268740149024715,-1.98003278699035,-0.000259214682698455,0
0.36,0.000581439714928801,0.00033413649756659,-0.0289869772235439,-0.0167186801283824,0.000400470503936396,-0.000537905862191036,-0.0199408189873592,0.026872343625125,-1.98003440405084,-0.000246357239905495,0
0.37,0.000581318918869189,0.000334136184781363,-0.0289829390820032,-0.0167186682211672,0.00040035898665665,-0.000537858119971009,-0.0199370780449186,0.0268707562966025,-1.98003592955422,-0.000234226964346596,0
0.38,0.000581204874896095,0.000334135873958961,-0.0289791245701183,-0.0167186548410354,0.000400253709716404,-0.000537813031385035,-0.0199335451773195,0.0268692548688622,-1.98003736868164,-0.000222783405222639,0
0.39,0.000581097350178834,0.000334135578625894,-0.0289755284685995,-0.0167186399881608,0.000400154451475869,-0.000537770518206948,-0.0199302154640332,0.0268678373645063,-1.98003872632364,-0.000211987781067446,0
0.4,0.000580995937267863,0.000334135299714674,-0.028972136501016,-0.0167186265739116,0.00040006083525897,-0.000537730421056009,-0.0199270745244258,0.0268665008672396,-1.98004000709369,-0.000201803419074339,0
0.41,0.000580900286915183,0.000334135036537724,-0.0289689369515434,-0.0167186131439691,0.00039997253857246,-0.000537692602113987,-0.0199241120712764,0.0268652394690874,-1.98004121534475,-0.000192195710660758,0
0.42,0.000580810049874829,0.000334134788238457,-0.0289659177671962,-0.0167185996991286,0.000399889239127439,-0.000537656923304106,-0.0199213169357535,0.0268640484577611,-1.98004235518267,-0.000183132005114591,0
0.43,0.00058072487689873,0.000334134553980467,-0.0289630665969513,-0.0167185847851521,0.000399810614751924,-0.00053762324646955,-0.0199186782608891,0.0268629216627108,-1.9800434304813,-0.000174581500214309,0
0.44,0.0005806445933681,0.000334134332971353,-0.0289603795465198,-0.0167185713125719,0.000399736503584893,-0.000537591502890012,-0.019916191217238,0.0268618602782914,-1.98004444489483,-0.000166515137772965,0
0.45,0.00058056869057847,0.000334134124462547,-0.0289578357027398,-0.0167185716690076,0.000399666437363605,-0.000537561490859823,-0.0199138315963612,0.0268608674169391,-1.98004540187077,-0.000158905504916484,0
0.46,0.00058049725461215,0.000334133927747808,-0.0289554436853693,-0.0167185581696628,0.000399600493584324,-0.000537533245308219,-0.0199116182348407,0.0268599211755908,-1.98004630466129,-0.000151726740928682,0
0.47,0.000580429893181957,0.000334133742160873,-0.0289531879326014,-0.0167185446586805,0.000399538310961874,-0.000537506610771793,-0.0199095312643987,0.0268590281245759,-1.9800471563344,-0.000144954449366769,0
0.48,0.000580366097583623,0.000334133567072471,-0.0289510468214483,-0.0167185435188876,0.000399479421487862,-0.000537481385423477,-0.0199075458422762,0.0268581910781106,-1.98004795978443,-0.000138565615149004,0
0.49,0.000580306186733867,0.000334133401889394,-0.0289490399037686,-0.0167185299849638,0.000399424116503798,-0.000537457696730581,-0.0199056896868214,0.0268573951510583,-1.98004871774193,-0.000132538526344068,0
0.5,0.000580249651928307,0.000334133246051899,-0.0289471451384818,-0.0167185164412877,0.000399371928146661,-0.000537435342798107,-0.0199039375797204,0.0268566429862061,-1.98004943278265,-0.000126852700381674,0
0.51,2.35792275688872,-0.03178427701701,3.10176966319732,1.59215190766708,-0.125982290099793,2.35476929449583,1.46693242549236,3.16291511104207,0.0399709848219788,12.3148665710251,622.229094280321
0.52,2.3250346388313,-0.0337977434825924,3.19176650953626,1.69477376112873,-0.450972816012763,2.28112951812198,1.09375091649956,3.44432003238144,0.180644884905694,26.0339707100278,622.229094280321
0.53,2.3086220969116,0.013379849459588,2.45812411299341,-0.664008982796202,-0.932087547234987,2.11213820831155,-1.611369765472,1.97148917395871,0.42139140814173,39.636579546496,622.229094280321
0.54,2.252346765394,0.0276468435760053,3.66420231605941,-1.37582401833797,-1.53545562321368,1.64809172338253,-3.52552438320601,1.69998475459948,0.762306292968154,53.4333236883843,622.229094280321
0.55,2.22713057813965,-0.00908800467157855,3.19413986358039,0.464442326389495,-2.08375873111514,0.786220550745764,-2.8181380864522,1.57363714634059,1.20592245607006,67.7451298284339,622.229094280321
0.56,2.17498423665391,0.0298151045784567,3.94032169280573,-1.48383012070135,-2.14290438808198,-0.373371334857154,-3.59749141287827,-2.18767968500032,1.75700804566548,82.4453554796739,622.229094280321
0.57,2.16585056771497,-0.00892092603548988,2.76700475382583,0.456773448970972,-1.43869484832932,-1.61899518158123,-2.18669476739311,-1.75593943108388,2.41097360240576,95.7704952541472,622.229094280321
0.58,2.14086052793076,-0.0207312445930143,2.53952207860304,1.05119807831156,0.0580778838632512,-2.14017301729564,-1.00673318282979,-2.55747494340563,-3.12414560884552,108.28669445424,622.229094280321
0.59,2.12727363419593,-0.0049286727843236,1.64113887891343,0.263166805903202,1.6130182471037,-1.38689925411728,1.06988206700475,-1.27198504327377,-2.28327857278525,121.345491377937,622.229094280321
0.6,2.08362660375048,-0.0180282248073992,2.10151726843241,0.915142775154442,2.02594470148605,0.487209305398665,2.25370974061144,-0.417915701440035,-1.34344492797828,134.776103112363,622.229094280321
0.61,2.03743473725631,0.00911009233328053,2.95013172103757,-0.438075502163114,0.632226383359591,1.93688231509946,0.485827904791865,2.94264482464213,-0.311039367580777,146.81075209418,622.229094280321
0.62,1.99183271346515,-0.00814899808905778,3.64857742330619,0.42208574892188,-1.44931414441083,1.36636469341479,-2.35372916970636,2.81961568107712,0.810758303075333,159.545526353211,622.229094280321
0.63,1.95064604530138,0.0124810004232222,4.14867435096936,-0.606887335642379,-1.75749694945175,-0.846392487023172,-3.4593920742796,-2.36905415408041,2.02600585218598,171.700408341609,622.229094280321
0.64,1.94282568664543,-0.0203136821396322,3.08297392965069,1.03940234144431,0.378547603172076,-1.90569829891933,-0.452527719418424,-3.22184793891079,-2.95596064233006,183.552812519696,622.229094280321
0.65,1.90234306455783,0.0326199143081159,3.53427455774853,-1.61335636631047,1.90250054752376,-0.0215606296880264,3.5248360485035,1.63387461129466,-1.56498307684145,195.579182962315,622.229094280321
0.66,1.90665328194366,0.00828438720346793,1.89103587605043,-0.389815949102713,0.179922088653164,1.89816316754713,-0.21796745464322,1.91845337378864,-0.0901601534951743,207.056313720043,622.229094280321
0.67,1.8237639995082,0.0429401267277677,4.5251197109164,-2.127064650785,-1.81041844987565,0.224374723922698,-4.71447557482775,-1.66578284331895,1.47103023868393,218.526929886777,622.229094280321
0.68,1.83178564956085,0.0289753064683742,2.65681085893446,-1.43235429951784,-0.0799554254595641,-1.83026920540711,1.35784168579538,-2.69565367505095,3.11375209516523,229.970610270022,622.229094280321
0.69,1.780297173909,0.00422039564514998,3.83376979602564,-0.184461909707509,1.7664834820366,0.221386419772343,3.7794989708697,0.668733559982085,-1.44374969014049,240.703358025072,622.229094280321
0.7,1.76583127265115,0.0255012563524133,3.07863545293101,-1.25514446095193,-0.601517222472138,1.66041784759672,-2.26409053656656,2.43460015446721,0.362002932749385,251.847825964421,622.229094280321
0.71,1.69075193633387,-0.030892024107056,5.45674599885462,1.56396799556263,-1.3002582661237,-1.0811682888187,-5.23658968253839,-2.19093616609261,2.2461841276835,262.498868621607,622.229094280321
0.72,1.711318036983,-0.00316538167539571,3.05132698811637,0.187776464315917,1.50043165383233,-0.822997141867742,2.58197879650818,-1.6368389912696,-2.07434216735294,272.807097243331,622.229094280321
0.73,1.6416092355024,0.0432375799363797,5.11173139930155,-2.13976683637648,0.100895485068525,1.63907610302216,-1.95882394386122,5.18376395774518,-0.0351462964850249,283.340901275669,622.229094280321
0.74,1.63376054713035,-0.0128265810430999,4.12654325747493,0.661508457040239,-1.42114208650564,-0.806035493327258,-3.9270998768905,-1.4296290607966,2.07887882374421,293.628488191749,622.229094280321
0.75,1.60757888607152,-0.0291568283466143,4.12876599285504,1.48189883621905,1.46310403880532,-0.66669825799513,3.08660016719837,-3.11699088744171,-2.01649372113147,303.473630860641,622.229094280321
0.76,1.59261376793241,0.0551672166877011,3.55963219342029,-2.72824329885499,-0.331283193809179,1.55875382312427,-3.50750164138375,2.79494634758373,0.244040435218928,313.126005815876,622.229094280321
0.77,1.57655139112854,0.0036505062799736,3.03513288117747,-0.152235329216579,-0.848340572903152,-1.32885134135907,-1.49876342593708,-2.64365568766806,2.575729854499,322.772017894474,622.229094280321
0.78,1.54055910359119,0.0188700293021953,3.51753040707754,-0.917258829398264,1.49179699993343,0.384993689108248,3.15484470291314,1.80591772385263,-1.30598516036221,332.307886804734,622.229094280321
0.79,1.4600797693373,-0.00619419730017989,6.23853861196562,0.332945377280088,-1.3435476505968,0.571621388231817,-5.59851720639229,2.77251180826476,1.16429654602365,341.699687590647,622.229094280321
0.8,1.49979910060377,0.0202933216295109,2.97777397495035,-0.993491413588898,0.780208623177282,-1.28104787786969,2.42462895683304,-1.99382483093506,-2.58102317036492,350.879558842281,622.229094280321
0.81,1.45613677380161,-0.0147203937929712,3.90390622505948,0.756870408585421,-0.0487105042534521,1.45539626246124,0.665525805439591,3.92051170534465,0.0233475395956834,359.874141844833,622.229094280321
0.82,1.42076109062169,0.0366921124708753,4.42964792295313,-1.81671274535865,-0.649216009832662,-1.26428911263171,-0.284063425247848,-4.77928173378678,2.69302117667383,368.69520902927,622.229094280321
0.83,1.40016231744864,0.0209949321089908,4.23199535248034,-1.03148551389193,1.0715346634097,0.901503614795226,2.52132763549054,3.55199295935335,-0.856369526659251,377.359002761691,622.229094280321
0.84,1.354987771276,0.0335816751119499,5.27720127962431,-1.66192757302607,-1.27563267529398,-0.458127566222724,-4.32058502916788,-3.45592268567791,1.94036685344099,385.847220596323,622.229094280321
0.85,1.32471981981555,-0.0116990950942531,5.58892594764908,0.603831568252135,1.31876642219778,0.125994418613772,5.62018683701176,-0.119187785459518,-1.48437697634613,394.194355797324,622.229094280321
0.86,1.33214456747888,0.0114434871297958,4.03486177671404,-0.553072151692962,-1.31825795501896,0.192187580479128,-4.07259110739608,-0.000184728566798298,1.43461724877977,402.362861534816,622.229094280321
0.87,1.30567280911487,-0.00599634145995454,4.18907257236178,0.320850278933953,1.24937857775972,-0.379302794621825,3.90817078586653,-1.54190629627911,-1.87013883032237,410.374599869118,622.229094280321
0.88,1.27557431318795,-0.0134393573959511,4.53995020379628,0.695503742594145,-1.17804850328454,0.489358936468087,-3.90046934193291,2.42512107358659,1.16655119137085,418.231888161387,622.229094280321
0.89,1.25643291236008,-0.00828485981407432,4.35807527234567,0.441179993908044,1.13393366385611,-0.541190121988233,3.72797576465557,-2.29992533891782,-2.02268728477184,425.9501679335,622.229094280321
0.9,1.20610936737459,-0.00313509252655114,5.75990976645906,0.18707785354992,-1.09087513322044,0.514491086992928,-5.12293283048316,2.63952985499257,1.1275006234576,433.479943637614,622.229094280321
0.91,1.21659836890656,0.0247541983135277,4.1363441324194,-1.20409560678288,1.1207205364105,-0.474035695731881,4.28797955351066,-0.415235307685608,-1.9506054678483,440.883801076633,622.229094280321
0.92,1.13803795397265,-0.00776916784640719,6.96439820810443,0.422559531831535,-1.10115029089724,0.287504402589266,-6.61679569071018,2.21346193696415,1.30857654176674,448.246786096447,622.229094280321
0.93,1.12158204704876,-0.00429106759688008,6.69074043260066,0.229774853340408,1.11727300564805,-0.0983144565838079,6.64167691162347,-0.84079237703048,-1.66239116136468,455.478369967487,622.229094280321
0.94,1.14903595017099,-0.0171474598797282,4.23518977688594,0.877659590126413,-1.13692837036445,-0.167246915744669,-4.31358907551818,0.316335407360946,1.70193074335926,462.50726689543,622.229094280321
0.95,1.07839347447079,0.0358127817721527,6.71154377727066,-1.76590302338729,1.00525926956447,0.392006176066337,5.47273537263766,4.26759896233344,-1.16578187321175,469.351218702208,622.229094280321
0.96,1.09997183021747,0.00325366964037044,4.60513536873327,-0.128543597601119,-0.822753578500782,-0.730085722845104,-3.34986179470282,-3.16262883962579,2.29954673145886,476.062413198617,622.229094280321
0.97,1.0549348298821,-0.0331827072275064,5.82134980923442,1.67489836172382,0.447457127807972,0.955913545322568,4.12633874009494,4.43471833666699,-0.469242747945821,482.773097098135,622.229094280321
