t,iq,id,vq,vd,ia,ib,va,vb,theta_e,omega,r
0,0,0,0,0,0,0,0,0,0,0,0
0.01,0.000565164864862233,0.000273208012615868,-0.027416132026252,-0.0136661391369482,-0.000177600681510064,-0.000602089644952825,0.00902272783734358,0.0292745288017507,-2.97814178628524,-0.00378529894396652,0
0.02,0.000736022402126177,0.000347081429202723,-0.0360463442616657,-0.0173613563601667,-0.000222708074955686,-0.000782684871630036,0.0112653915705466,0.0383907095800205,-2.9781688964592,-0.0033998855702381,0
0.03,0.000768357193552502,0.000377261660342076,-0.0378895455421104,-0.0188709978619541,-0.000247242048477013,-0.000819494055324886,0.0124558565289409,0.0404547136910395,-2.97818920875733,-0.00224357759569747,0
0.04,0.000717720319802374,0.000374476946821574,-0.0356308917144627,-0.0187316970489083,-0.000252740154927793,-0.000769075974949878,0.0126862531174136,0.0382033493366846,-2.97819994671158,-0.00101818979520176,0
0.05,0.000701313896749138,0.000383980787534111,-0.0349200464594245,-0.0192071014786219,-0.000264789890522604,-0.000754432727846429,0.0132711406862504,0.0375792391730353,-2.97820484810446,-0.000519670502153187,0
0.06,0.000685984579055405,0.000386312361509635,-0.0342184180263192,-0.0193237189857323,-0.000269585417245293,-0.000739686275501752,0.0135004085758859,0.0369058967638997,-2.97820688979952,-0.000234982812182804,0
0.07,0.000684634830179421,0.000391867157183932,-0.0341572256818976,-0.0196015805950664,-0.000275285951909057,-0.00073925798220631,0.0137845315363287,0.0368907131732761,-2.97820711528299,-0.000206654621199443,0
0.08,0.000675701646528696,0.000388247347601207,-0.0337371555020884,-0.0194205216059316,-0.000273167733084787,-0.000729854853818403,0.0136742280215768,0.0364467805002372,-2.97820754702323,-9.48497640997485e-05,0
0.09,0.000671722121574529,0.000387359203213703,-0.0335463382721873,-0.0193760943666729,-0.000272938681734285,-0.000725783877569688,0.0136614285639785,0.0362512787908171,-2.97820749031095,-6.28138318910769e-05,0
0.1,0.000670435489181241,0.000387141330061281,-0.0334826093501085,-0.0193651938194101,-0.000272932880218775,-0.000724478983470736,0.0136610336617981,0.036186627638487,-2.97820733496803,-6.22328505550795e-05,0
0.11,0.000670286940713509,0.000387087903666607,-0.0334737013681991,-0.0193625185324015,-0.000272904239930315,-0.000724323756261067,0.0136598385643694,0.0361774047936047,-2.9782072131842,-6.95765690986037e-05,0
0.12,0.000670472564327991,0.000387074811007319,-0.0334815342394612,-0.0193618634331657,-0.000272861078710138,-0.000724504796780562,0.0136579156273186,0.0361850277234911,-2.97820714488421,-7.61332427670244e-05,0
0.13,0.000698199807347797,0.000400831548160724,-0.0348137163207782,-0.0200499834369775,-0.000281924950390463,-0.000754100274054292,0.0141202014374097,0.0376113891162459,-2.97820773398405,-0.000285497742222252,0
0.14,0.000712118238536697,0.000408761562119757,-0.0355663360877523,-0.02044664950674,-0.000287486012513842,-0.00076912300247235,0.0143891952107348,0.0384184955450599,-2.9782085336421,-0.000354633150284106,0
0.15,0.00068258329288563,0.000392392237962075,-0.0340892508906574,-0.0196278523543464,-0.000276139246712956,-0.000737318612652818,0.013821585324428,0.0368278887997909,-2.97820915608281,-4.24223591697544e-05,0
0.16,0.000670997447200537,0.000388375959711291,-0.0335272157391303,-0.0194269425282261,-0.000274060539508534,-0.000725233949092012,0.0137147483374692,0.0362406673400625,-2.97820854812306,1.92439818598754e-05,0
0.17,0.000668115935838523,0.000387390688376026,-0.0333795612473706,-0.0193776618504607,-0.000273556597217224,-0.000722230736870683,0.0136901164977388,0.0360869726928722,-2.9782078645635,-3.40894546851836e-06,0
0.18,0.000668438559320489,0.000387149048401289,-0.0333883297421596,-0.0193655818156088,-0.000273265374029263,-0.000722509881331129,0.013676754895235,0.0360936656155049,-2.97820741651101,-3.83077030117205e-05,0
0.19,0.000669426573366102,0.00038708980905255,-0.0334321692658232,-0.0193626143143801,-0.000273046052022622,-0.000723475162583955,0.0136666879205027,0.0361364416647472,-2.97820719268725,-6.32379980607586e-05,0
0.2,0.000670210455251719,0.000387075290341577,-0.0334683029680924,-0.0193618865140937,-0.000272904158766295,-0.000724246266714433,0.0136600892230938,0.0361719769347182,-2.97820710699677,-7.6460316367704e-05,0
0.21,0.00067065300793016,0.00038707172991588,-0.033489113005889,-0.0193617080454764,-0.000272828645832047,-0.000724682351902745,0.0136565274554858,0.0361924810729664,-2.978207087005,-8.18994408454998e-05,0
0.22,0.0006708474214777,0.000387070853953585,-0.033498425427963,-0.019361665473954,-0.000272796160868842,-0.000724874032849058,0.0136549708240824,0.0362016625014868,-2.97820709054387,-8.34097394812115e-05,0
0.23,0.000670908772341285,0.000387070636481048,-0.0335014518690111,-0.0193616537697106,-0.000272785972777728,-0.000724934529103175,0.0136544672852924,0.0362046466242207,-2.97820709853433,-8.33959058711365e-05,0
0.24,0.000670914709521323,0.000387070581478036,-0.0335018054409538,-0.0193616523809783,-0.000272784957198879,-0.000724940376599229,0.0136544086244761,0.0362049951780303,-2.97820710464652,-8.30136882997777e-05,0
0.25,0.00067090487242527,0.000387070567169924,-0.0335013657538584,-0.0193616510290526,-0.000272786545629835,-0.000724930667261743,0.0136544789322609,0.0362045610805193,-2.9782071080268,-8.2683234814434e-05,0
0.26,0.000675161886726468,0.000389481048432264,-0.0337022870653831,-0.0194822229248914,-0.000274472368520765,-0.000729523117724546,0.0137407577126424,0.0364224208560484,-2.97820695453285,-0.000132234897559076,0
0.27,0.000667566818491955,0.00038418861699243,-0.0333467056195814,-0.019217499191075,-0.000270486173717116,-0.000721168205348725,0.0135374153513186,0.0360285086625005,-2.97820742789843,-2.9591171812983e-05,0
0.28,0.000666075349326781,0.000383885449043184,-0.0332003561358527,-0.0192023331113165,-0.000270429604701733,-0.000719647301022344,0.0135462543623734,0.0358816420640875,-2.97820737251237,-2.0020319568585e-05,0
0.29,0.00066868269998334,0.000386289053641238,-0.0333950201170885,-0.0193225596900689,-0.00027237688838576,-0.000722610972026681,0.0136332058713404,0.036093273324356,-2.97820709504932,-6.34603858782193e-05,0
0.3,0.000655907662904168,0.00038107141393675,-0.0327672686621969,-0.0190615765250918,-0.000269305855375683,-0.000709157698284756,0.0134777651002001,0.0354314470930323,-2.97820587809957,-3.44718586685819e-05,0
0.31,0.000668029859219087,0.000385598869800903,-0.0333475955872795,-0.019288031618218,-0.000271801291764072,-0.000721854860062179,0.0136068119832132,0.0360408790515937,-2.97820599330435,-0.000136161687687502,0
0.32,0.000672061431773035,0.000386709621686394,-0.0335465594296928,-0.0193435998062327,-0.000272241794073618,-0.000726013295430073,0.0136292925836403,0.0362462258270171,-2.97820643643324,-0.000141094779766033,0
0.33,0.000672612098951309,0.000386982067895292,-0.0335781202063,-0.0193572186820142,-0.00027242130093267,-0.000726600847320146,0.0136376094187841,0.0362795766380031,-2.97820679524574,-0.000120482012064246,0
0.34,0.000672104938749231,0.000387048868047195,-0.0335569132801998,-0.0193605649637556,-0.000272569854789193,-0.000726111251261073,0.0136443680777985,0.0362591936530338,-2.97820700004738,-0.000101269043774285,0
0.35,0.000671526995655302,0.000387065239250816,-0.0335306473984793,-0.0193613855589198,-0.00027268008199874,-0.000725543643216098,0.0136494534401125,0.0362334098106774,-2.97820709099366,-8.95393385085484e-05,0
0.36,0.000671146550571519,0.000387069251390147,-0.0335128986307002,-0.0193615858662399,-0.000272745944960366,-0.000725168909443486,0.0136525391464957,0.0362159295992906,-2.97820712023815,-8.4002752994163e-05,0
0.37,0.000670955804113456,0.000387070236390112,-0.0335038213286987,-0.0193616358644024,-0.000272777945940463,-0.000724980862630962,0.0136540651067583,0.0362069812747692,-2.97820712349303,-8.20415276044257e-05,0
0.38,0.000670882520679398,0.000387070479745432,-0.0335002394207279,-0.0193616477566051,-0.000272790103172582,-0.000724908595930959,0.0136546593156686,0.0362034490631759,-2.97820711916906,-8.16853893442021e-05,0
0.39,0.000670865233006863,0.000387070540780087,-0.0334993267068316,-0.0193616507872664,-0.000272792972083909,-0.0007248915496671,0.0136548106020177,0.0362025490600057,-2.97820711459455,-8.18549694178016e-05,0
0.4,0.000670868085183614,0.000387070556503025,-0.0334993994985019,-0.0193616523156918,-0.000272792521535571,-0.000724894367217566,0.0136548001635488,0.0362026211709527,-2.97820711165895,-8.20903674591401e-05,0
0.41,0.000670874837272272,0.000387070560689344,-0.0334996805219232,-0.0193616523798315,-0.000272791426328158,-0.000724901030458165,0.0136547544634401,0.0362028984819105,-2.97820711021595,-8.22544136479341e-05,0
0.42,0.000670880017754088,0.00038707056181977,-0.0334998997885204,-0.0193616524477003,-0.000272790584396509,-0.000724906142278991,0.0136547188450143,0.0362031148467927,-2.97820710967522,-8.23400080771823e-05,0
0.43,0.000670882869929469,0.000387070562107358,-0.0335000141007894,-0.0193616525210542,-0.000272790120660601,-0.000724908956548946,0.0136547003191101,0.0362032276502307,-2.97820710955659,-8.23745661542286e-05,0
0.44,0.000670884092290347,0.000387070562160992,-0.0335000527943922,-0.0193616525982421,-0.000272789921905781,-0.000724910162631555,0.0136546941024322,0.0362032658406819,-2.97820710958553,-8.23837735693961e-05,0
0.45,0.000670884499743973,0.000387070562157105,-0.0335000530704072,-0.0193616526773479,-0.00027278985566521,-0.000724910564643317,0.0136546941375608,0.0362032661251442,-2.97820710964003,-8.23833464008603e-05,0
0.46,0.000670884557951634,0.000387070562145343,-0.0335000364698285,-0.0193616527572749,-0.000272789846214982,-0.000724910622062801,0.0136546969181356,0.0362032497580948,-2.9782071096806,-8.23807167994788e-05,0
0.47,0.000670884441536312,0.000387070562136854,-0.0335000110822826,-0.0193616528376125,-0.000272789865158738,-0.000724910507190444,0.0136547011277333,0.036203224721419,-2.97820710970276,-8.2378524693255e-05,0
0.48,0.000670884441536312,0.000387070562133334,-0.0334999913569618,-0.0193616529176764,-0.000272789865162169,-0.000724910507187273,0.0136547044155883,0.0362032052716883,-2.97820710971228,-8.23772544673624e-05,0
0.49,0.000670884325120991,0.000387070562132069,-0.0334999656524605,-0.0193616529980142,-0.000272789884099176,-0.000724910392321314,0.0136547086760489,0.0362031799225397,-2.9782071097153,-8.23766822287809e-05,0
0.5,0.000670884325120991,0.000387070562131846,-0.0334999456730952,-0.0193616530780781,-0.000272789884099128,-0.000724910392321213,0.0136547120048905,0.0362031602222745,-2.97820710971554,-8.23764937121507e-05,0
0.51,1.71387879086663,-0.010664703448711,2.13282283386632,0.536532510849629,-0.123183293795192,1.70947948856132,0.395323022304327,2.16345096637209,0.0657121396664554,20.0019276489475,413.100239572362
0.52,1.68000475659842,0.0189024180349781,1.11836376995647,-0.938411406196928,-0.466174704892034,1.61414200989867,-1.22095573239875,0.800387773991066,0.292407090622312,41.7740285095144,413.100239572362
0.53,1.56663664832326,-0.0142643293902125,3.97799487170371,0.725599621755707,-0.993886016982108,1.21109225255962,-1.93039196559532,3.55310074013643,0.678102934073845,63.5796274978405,413.100239572362
0.54,1.51208489443837,0.0126776890723421,3.61890108762406,-0.628997451541102,-1.41932478643581,0.52161154358185,-3.61913886964757,0.627627850129307,1.22699519310823,85.9643758495059,413.100239572362
0.55,1.44638116649529,0.0120867522887858,4.28689936156739,-0.59158876765044,-1.35816969226131,-0.497533572129553,-3.80472282698306,-2.06193298049454,1.93029760181796,105.501816049067,413.100239572362
0.56,1.34595304059287,-0.0212015080813614,6.75335484879189,1.07760877299784,-0.465065393935509,-1.26323128159088,-3.43798007934409,-5.91179628838613,2.77308546762642,124.747785502688,413.100239572362
0.57,1.32579859638165,0.0227155065941749,5.12804317304193,-1.12098730318131,0.747936390853945,-1.09491966264368,3.8792973737601,-3.53616900111033,-2.52516948292698,143.348377018475,413.100239572362
0.58,1.24211670799072,-0.0192202848442508,6.85205728915802,0.967570668228975,1.22308219349553,0.217470190079836,6.9186213511572,0.139859541084467,-1.41030284588835,161.219960033502,413.100239572362
0.59,1.2151653707834,-0.00656137999780043,5.85787740535065,0.355065377210454,0.195457650815659,1.19936076173779,1.3235504496093,5.71743065769497,-0.166947539611375,177.714144716521,413.100239572362
0.6,1.13146200305545,-0.0146370132532968,7.65927212572274,0.749303095747449,-1.05884719067001,0.399077853714609,-6.85826327081281,3.4914366002249,1.19742666067789,194.124458396609,413.100239572362
0.61,1.13535576436773,0.00129775807210536,5.20592305863566,-0.0559783999538928,-0.50988428027647,-1.01442220824763,-2.28259746100515,-4.67915775591171,2.67698217095062,209.694514626654,413.100239572362
0.62,1.0705887276587,0.00501560309213728,6.29139991352774,-0.245810867394888,0.964131116568523,-0.46544233813501,5.78431059488705,-2.48674220544546,-2.01587084530713,224.418833881682,413.100239572362
0.63,0.966904975047781,-0.0196541143700896,9.39088476662675,0.989557167585362,0.285220423218852,0.92408918680108,3.89078180149773,8.60405468724577,-0.319697885465891,238.436690081635,413.100239572362
0.64,0.95887695374356,-0.0245668132843764,7.76097328966212,1.24983889389814,-0.956992261633154,0.0649180399406838,-7.61068617155233,1.96780579877474,1.47744980258417,251.822369288995,413.100239572362
0.65,0.887628772879206,0.00478476925373644,9.34162021845098,-0.22293696055204,0.197153198980067,-0.865470015998118,2.34102362306374,-9.0462797652079,-2.91222523579613,264.674246545777,413.100239572362
0.66,0.880119121796899,-0.0291728837059645,7.80404754571279,1.46173309223298,0.686453932930584,0.551581112494255,7.11940093579438,3.51481892052563,-0.927045652418481,276.904553052549,413.100239572362
0.67,0.854392291064268,0.00168426055285664,7.2280761525224,-0.082641262362409,-0.777565409917739,0.354091876584478,-6.61810897732195,2.90732660862148,1.14544429122555,288.603483278026,413.100239572362
0.68,0.83429662354165,0.0345020461421642,6.42462028093538,-1.71896312894621,0.0988492323747835,-0.829138152843005,2.72050737420333,-6.06872471115539,-2.98160236028703,299.727296875499,413.100239572362
0.69,0.787206094374907,-0.0136302532878837,7.04933181600867,0.701651694668513,0.52415025879288,0.587491042513028,5.29875511571573,4.70197707103084,-0.745793181886914,310.260262620349,413.100239572362
0.7,0.697461003916231,0.0219199775496083,9.86833347334233,-1.06312469151741,-0.697344565264083,0.0253553681941271,-9.87345064211817,-1.01450089623373,1.56587035894141,320.287767476939,413.100239572362
0.71,0.660099036905613,0.0252826854781921,10.1070812062302,-1.25770333897377,0.45981830278818,-0.474275322075379,8.17672658477592,-6.07256540154292,-2.33338767147025,329.97733545877,413.100239572362
0.72,0.622125451031315,0.0203315599535117,10.416925376602,-1.0147437025884,-0.0537645894211339,0.620131290998477,-2.24580796870949,10.2224451894504,0.119151643130426,339.11363416724,413.100239572362
0.73,0.580787583214325,-0.0264120650230977,10.9928552247855,1.3497257476009,-0.257957438080092,-0.521027613600159,-6.50110337262862,-8.96662035134908,2.63643288104792,347.628559280795,413.100239572362
0.74,0.557564275445874,0.0132102567067794,10.6982017994867,-0.667400058834996,0.494918936763048,0.257114134518263,9.05243547367121,5.74024011484646,-1.06797636615449,355.880501153908,413.100239572362
0.75,0.528883601906898,0.00191702229068151,10.7151573231726,-0.0859821271468683,-0.528880272152039,0.00268273533208417,-10.7152705775865,-0.0704686855093858,1.56934853125862,363.592027209817,413.100239572362
0.76,0.501945711302457,0.00936352736003605,10.7314346646924,-0.432317245505649,0.447706872133021,-0.227146933469106,9.84743600393123,-4.28702604515091,-2.02165939915383,370.856479705898,413.100239572362
0.77,0.476248047880437,-0.0380329872464824,10.6960154621962,1.90277516408088,-0.343506148329291,0.332057581284923,-5.64691133928618,9.28103940401205,0.722652733292248,377.812678809412,413.100239572362
0.78,0.417376244274108,0.041672593015114,12.4059557554473,-2.05037957835769,0.113894548786372,-0.403692415150089,6.44644652023751,-10.7960697424192,-2.76709366043068,384.267632883096,413.100239572362
0.79,0.462842845072739,-0.0346273387322341,8.93270618658943,1.73241251875081,-0.0680398195779505,0.459122134921095,1.08126545443739,9.03467531060734,0.0724493129044808,390.397630277266,413.100239572362
0.8,0.385189845856205,0.0151650291983808,11.6743060057837,-0.724068629848156,-0.0862475515365268,-0.375716056770627,-1.45077663309038,-11.6064181924609,2.95529676695168,396.139537318136,413.100239572362
0.81,0.378598656372038,0.0413389531380118,10.8713027378288,-2.06168548248211,0.186658672499388,0.331970468014891,2.37195528169819,10.8078489251019,-0.403459943593736,401.647616444887,413.100239572362
0.82,0.35737796607994,-0.0161511814824968,10.872644871394,0.793849451928238,-0.182974346093399,-0.307408945826904,-6.64028802164145,-8.64587638365377,2.55953630534037,406.781644783248,413.100239572362
0.83,0.322701812477264,0.0359835250933852,11.5570849428302,-1.77796756036773,0.240650895960881,0.217987201751577,6.32056614453909,9.83757209041025,-0.723724894182846,411.64693918696,413.100239572362
0.84,0.290452693289804,-0.000532414332066619,12.1702311489658,0.0130792140715292,-0.214137521496442,-0.196234992780805,-8.99641702988229,-8.1962904968981,2.31076401787879,416.225034915191,413.100239572362
0.85,0.245430174254066,0.0140836429867728,13.4823622958839,-0.672764157294733,0.201838684249005,0.140340532187927,10.1953151490166,8.84772590562368,-0.905904056564543,420.402062011181,413.100239572362
0.86,0.270821266570506,0.00170911037711496,11.2879857969293,-0.0732782613242122,-0.22143159289992,-0.155933091904632,-9.14544488868444,-6.61701071808834,2.19064919437539,424.403295659467,413.100239572362
0.87,0.212217283976657,-0.0280022784155305,13.3361573561218,1.38173395428836,0.158898701783442,0.143427702297801,11.7672773354112,6.42599921095495,-0.967719810127714,428.143461773478,413.100239572362
0.88,0.21319861116089,0.01733537641978,12.4408105201149,-0.835882748442353,-0.184375855012803,-0.108442183511979,-9.6963294631182,-7.83923856692798,2.18359560525983,431.620096347494,413.100239572362
0.89,0.186965839061516,0.0439286173250917,12.9324464331043,-2.18373251221952,-0.185942212448235,-0.048077458605116,-10.4325656121343,-7.94848621930925,2.05458591593007,434.879712471465,413.100239572362
0.9,0.182454789768455,-0.0264251454496404,12.3880040483878,1.3065721152076,0.142789122795896,0.11661605821097,11.2917428461639,5.25987818216519,-1.02978541141894,437.850296764532,413.100239572362
0.91,0.131898899478553,-0.0326452094145474,14.1718033160371,1.62169875989196,-0.0884641212539888,-0.103136456367924,-12.4819119961338,-6.904476013214,2.18999704826573,440.637732291472,413.100239572362
0.92,0.173642805087236,0.0230005660381598,11.3689082921938,-1.124106844021,0.145986024617017,0.0967932353687967,7.82953610224792,8.31949856521919,-0.853622614588415,443.209094828563,413.100239572362
0.93,0.151752676603929,-0.0065782708116925,11.7714557337622,0.330535147700732,-0.0971698362331239,-0.116748325168957,-8.15982086425011,-8.4908036745138,2.40414197556172,445.623426898292,413.100239572362
0.94,0.123118649485639,-0.0421517509666096,12.5445726510658,2.08613056034821,0.0352569309190747,0.125267397126652,8.84354866327896,9.13837462314299,-0.604214519592243,447.824890219475,413.100239572362
0.95,0.0721298037089158,0.0346016865746507,14.4659242836432,-1.72672366017519,-0.0628079457909359,-0.0495494424027147,-4.81402269372278,-13.7502627423271,2.68602234269882,449.823757691987,413.100239572362
0.96,0.0697973992904305,0.0418520282288693,13.9924154543623,-2.0702640474547,0.0602322440740672,0.0547297541414161,2.06051126418192,13.9938549657998,-0.293083999676363,451.642352530951,413.100239572362
0.97,0.10493230935879,-0.002418521902449,11.6651861200265,0.124795331390888,-0.00992289262416203,-0.104490071286849,-1.49404930854248,-11.5697864177883,3.02386734043704,453.313400659817,413.100239572362
