t,iq,id,vq,vd,ia,ib,va,vb,theta_e,omega,r
0,0,0,0,0,0,0,0,0,0,0,0
0.01,0.000677099565625783,0.00036657038134623,-0.0327653807052472,-0.01834113687532,0.000767120234039658,6.60621887155167e-05,-0.037452802374827,-0.00269352351227203,-0.988687523039325,-0.00306549896882737,0
0.02,0.000803857767427343,0.000431462818554696,-0.0391400733372923,-0.0215879919139367,0.000908680868432288,8.15263969127606e-05,-0.0445627729949147,-0.00348511100662795,-0.988710385285344,-0.00311843587579118,0
0.03,0.000844965164428008,0.000456341281677321,-0.0412924560369824,-0.0228327649758726,0.000956697747968557,8.33241471101996e-05,-0.0470451093193472,-0.00362763988568676,-0.988731648799705,-0.00277330463856371,0
0.04,0.000819301213852881,0.000447271406388612,-0.040217107630408,-0.0223789741823312,0.00093027505753074,7.6775694915971e-05,-0.0458974266742912,-0.0034147410278568,-0.988748884488641,-0.00219061436123446,0
0.05,0.000832099016853176,0.000458530021183332,-0.0409558149566536,-0.0229422860431981,0.000947155891490755,7.43926837045279e-05,-0.046824218378448,-0.00334960309573929,-0.988763304694348,-0.001879109695161,0
0.06,0.000828419990941021,0.000460091221666387,-0.0408851751468197,-0.0230203971248253,0.000944941707676825,7.10547868760084e-05,-0.0468081879569878,-0.00324496082473967,-0.98877527007977,-0.00154720001705576,0
0.07,0.000838237733989088,0.000469038721434238,-0.041437559375881,-0.0234680801022926,0.000958062203474935,6.89683634761423e-05,-0.0475157512532407,-0.00317419179594368,-0.988784709886579,-0.0013506778602466,0
0.08,0.000820868717475929,0.000461546931370887,-0.0406786003307834,-0.023093233342163,0.000939435102617842,6.56712201642633e-05,-0.0466757179523993,-0.00306974016738687,-0.988792832619828,-0.00104898204153752,0
0.09,0.000814801332077541,0.000460504722197984,-0.0404444604375333,-0.0230410805086186,0.000933794134262922,6.32006703931053e-05,-0.0464514767839891,-0.00298430488964559,-0.988799192689132,-0.000851441401289295,0
0.1,0.000811274774988768,0.00046035874469766,-0.0403206783790964,-0.0230337916765944,0.000930768236550001,6.13793465449288e-05,-0.0463440816684691,-0.00292211537375659,-0.988804289027208,-0.00070001026912742,0
0.11,0.000808666100065752,0.000460337497606035,-0.040232053009472,-0.0230327287350975,0.000928577596395161,5.99593243017613e-05,-0.0462694742642124,-0.00287409701557584,-0.988808393375552,-0.000579243012521698,0
0.12,0.000806603006345812,0.000460333763472042,-0.0401625151914449,-0.0230325320251617,0.000926852288629695,5.88253236313421e-05,-0.0462112856041224,-0.00283588448413736,-0.988811702398672,-0.000482082388723169,0
0.13,0.000840263930319597,0.000479641260468311,-0.0417999857838907,-0.0239985784803292,0.000965584925925214,6.11960960010249e-05,-0.0481102135708973,-0.00292881047058887,-0.988814906233283,-0.000571148735536375,0
0.14,0.000860469207932523,0.000492288609830958,-0.0429084717386798,-0.0246313827834685,0.000989416083653122,6.17344845110045e-05,-0.0493840636393029,-0.00300935595171363,-0.988817708031275,-0.000601625583952403,0
0.15,0.000811303020832021,0.000464770255678751,-0.0404610952442556,-0.0232545141610807,0.000933217704398031,5.76948730211161e-05,-0.0465827548674385,-0.00281417948836909,-0.988820104301661,-0.000286427448001758,0
0.16,0.000802354311419901,0.000460947261464975,-0.0400437647990763,-0.023063229683128,0.00092364080854678,5.59685241293238e-05,-0.0461289850080467,-0.00274452269581838,-0.98882129982638,-0.000209193029229322,0
0.17,0.00080042229979389,0.000460415991519636,-0.0399587483057663,-0.023036640851987,0.000921734867857114,5.53495856423376e-05,-0.046043351108255,-0.002719964453623,-0.988822137113891,-0.000177366873891069,0
0.18,0.000799773804312642,0.000460342034760128,-0.0399334782889031,-0.0230329497562636,0.000921152512124347,5.50543044531142e-05,-0.0460202139339325,-0.00270912757173642,-0.988822790517584,-0.000156943501614208,0
0.19,0.000799407328333174,0.000460331636492823,-0.0399205457775045,-0.0230324371812179,0.000920840678661478,5.48610669893621e-05,-0.046009130044205,-0.00270242303424399,-0.988823313703313,-0.000141375367991555,0
0.2,0.000799138977786116,0.000460330091664967,-0.0399114086708884,-0.0230323476260512,0.00092061567794455,5.47144645593033e-05,-0.0460014490005511,-0.00269745604442966,-0.988823734984957,-0.000128975632131853,0
0.21,0.00079892698547287,0.00046032979613899,-0.0399042471997655,-0.0230323366350093,0.000920438439907652,5.45978723990221e-05,-0.0459954613241736,-0.00269351313804726,-0.988824074620675,-0.000119002474722001,0
0.22,0.000798756844478702,0.000460329689815055,-0.0398985082538424,-0.0230323357170452,0.000920296263977391,5.45041873258763e-05,-0.0459906673547452,-0.00269034676757036,-0.988824348504163,-0.000110964119485456,0
0.23,0.00079861982364511,0.000460329622400277,-0.0398938865381605,-0.0230323361652004,0.000920181774433627,5.44287238350245e-05,-0.0459868073043615,-0.00268779580659436,-0.98882456937722,-0.000104482295322823,0
0.24,0.000798509506971255,0.000460329570574811,-0.0398901658039659,-0.0230323160489396,0.000920089599237777,5.43679652326093e-05,-0.0459836884967916,-0.00268575923644892,-0.988824747501926,-9.92550961651326e-05,0
0.25,0.000798420332834867,0.000460329529129869,-0.0398871520638452,-0.0230323163706867,0.000920015089920296,5.43188511662053e-05,-0.0459811714393331,-0.00268409579381415,-0.98882489115256,-9.50395896866157e-05,0
0.26,0.000805341202679165,0.000464234977285087,-0.0402180523629941,-0.0232277232096457,0.000927943365846261,5.4860519953067e-05,-0.0463650087983643,-0.00270274314429712,-0.988824894564496,-0.000130494525617219,0
0.27,0.000788404914705664,0.000454347320564391,-0.0394120972147716,-0.02273300618517,0.000908360174916746,5.38106853822378e-05,-0.0454197985768729,-0.00267298977137538,-0.988825323809804,-3.22835029796046e-05,0
0.28,0.000787928707277709,0.000454152699718725,-0.039276537772922,-0.0227232689454926,0.000907855385882724,5.37114581617132e-05,-0.0453012026785231,-0.0026066083089579,-0.988825381176495,-2.83371063433596e-05,0
0.29,0.000796447395843685,0.000459471383272906,-0.039795881287887,-0.0229893851409108,0.00091789525698025,5.39509370267654e-05,-0.0458813284540754,-0.0026697745084511,-0.988825244718589,-7.56576274877483e-05,0
0.3,0.000786438801889089,0.000454525205440548,-0.0393092829960671,-0.022741912089169,0.000906815447601278,5.25822735264659e-05,-0.045338802260686,-0.00260908119896632,-0.98882432467652,-4.83230560698085e-05,0
0.31,0.000796627157444006,0.00045952334227367,-0.0397966769050456,-0.0229919908742116,0.00091807393895592,5.40071539857784e-05,-0.0458834230332877,-0.00266807567223755,-0.988824359534876,-9.97373002621712e-05,0
0.32,0.000798269232881304,0.000460217614488578,-0.0398768054621041,-0.0230267315413982,0.000919827328830522,5.43296050691478e-05,-0.0459694573373727,-0.00268308990710168,-0.988824545459113,-0.00010330731101183,0
0.33,0.000798462066883997,0.000460314016991151,-0.0398875692732078,-0.0230315384483233,0.000920041417986194,5.43549048490334e-05,-0.0459810919132314,-0.00268498273523599,-0.988824722564077,-9.96637367305023e-05,0
0.34,0.000798422602816943,0.00046032737354219,-0.0398869661084474,-0.0230322094106519,0.000920015800208019,5.43219190459125e-05,-0.0459809572462769,-0.00268408390118717,-0.988824870067983,-9.56025892644844e-05,0
0.35,0.000798357235714759,0.000460329200406196,-0.0398848804466868,-0.0230323027906585,0.000919962204474689,5.42843522830414e-05,-0.0459792665745318,-0.00268285395711631,-0.988824989828861,-9.21341744030032e-05,0
0.36,0.000798298795235904,0.000460329431122353,-0.0398829233736916,-0.0230323146693635,0.000919913516492883,5.42519474878438e-05,-0.0459776384623241,-0.0026817638389955,-0.988825086549874,-8.93037686849457e-05,0
0.37,0.000798250715711214,0.000460329444567968,-0.0398812972643587,-0.0230323177899638,0.000919873363405687,5.42254365259363e-05,-0.0459762819663906,-0.00268086381843084,-0.988825164575521,-8.70154320165228e-05,0
0.38,0.000798211716578459,0.000460329431430713,-0.0398799723409415,-0.023032317975737,0.000919840780469491,5.42039528976533e-05,-0.0459751754216022,-0.00268013249721306,-0.98882522750411,-8.51689931123297e-05,0
0.39,0.00079818016802629,0.000460329417504252,-0.0398788963240998,-0.0230323181413422,0.000919814420509232,5.41865765069769e-05,-0.0459742767647904,-0.00267953856974494,-0.988825278254272,-8.36797433025707e-05,0
0.4,0.000798154789486169,0.000460329405810029,-0.0398780290683158,-0.0230323182902328,0.000919793215552163,5.41725987685371e-05,-0.0459735524674113,-0.00267905985790052,-0.98882531918231,-8.24786928645908e-05,0
0.41,0.000798134300389558,0.000460329396314801,-0.0398773258439151,-0.023032318425875,0.000919776095921319,5.41613140683859e-05,-0.0459729651701752,-0.00267867168472312,-0.988825352189129,-8.15100880311545e-05,0
0.42,0.000798117885827627,0.000460329388648104,-0.0398767614648196,-0.0230323170952794,0.000919762380737363,5.41522733727461e-05,-0.0459724930385717,-0.00267836134942511,-0.988825378808048,-8.07289455688997e-05,0
0.43,0.000798104498065637,0.000460329382463853,-0.0398762960996265,-0.0230323172116725,0.000919751194619733,5.41448999235202e-05,-0.045972104402847,-0.00267810446732888,-0.988825400275021,-8.0098984833889e-05,0
0.44,0.000798093787856045,0.000460329377476339,-0.0398759224177597,-0.0230323173208067,0.000919742245710865,5.41390010703848e-05,-0.0459717923424973,-0.00267789817801774,-0.988825417587345,-7.95909463224907e-05,0
0.45,0.00079808505670692,0.000460329373454182,-0.0398756136590284,-0.0230323174245795,0.00091973495042041,5.41341923258604e-05,-0.0459715345057706,-0.00267772773362459,-0.988825431549022,-7.9181233295598e-05,0
0.46,0.000798078071787621,0.000460329370210274,-0.0398753647770111,-0.0230323175236227,0.00091972911417844,5.41303452693236e-05,-0.0459713266790696,-0.00267759032993114,-0.988825442808539,-7.88508158985218e-05,0
0.47,0.000798072483852182,0.000460329367594189,-0.0398751635970795,-0.0230323176188817,0.000919724445177222,5.41272675747444e-05,-0.0459711586938641,-0.00267747925005348,-0.988825451888949,-7.85843472990287e-05,0
0.48,0.000798067943654637,0.000460329365484399,-0.039874996954605,-0.0230323177113035,0.000919720651619391,5.4124766985295e-05,-0.0459710195543251,-0.00267738723759649,-0.988825459211857,-7.83694508844877e-05,0
0.49,0.000798064218364344,0.00046032936378292,-0.0398748566702034,-0.023032317801517,0.000919717538967244,5.41227152895616e-05,-0.0459709024288082,-0.00267730978042088,-0.988825465117452,-7.81961454019353e-05,0
0.5,0.000798061307981303,0.000460329362410868,-0.0398747455237814,-0.0230323178895214,0.000919715107192284,5.41211123011131e-05,-0.0459708096403292,-0.0026772483939506,-0.988825469880063,-7.80563813652629e-05,0
0.51,1.79761759148684,-0.0675024533539975,2.87934238270686,3.37946024442366,-0.168556240482681,1.79097023432164,3.212070137945,3.06495832425402,0.0563046489493564,17.0544969773675,278.676015266769
0.52,1.75278150344688,0.0106258743369925,-0.511333463442693,-0.528069841712277,-0.418905596238458,1.70202056670037,-0.38678141182394,-0.625075841822262,0.247388175128231,34.8986201637899,278.676015266769
0.53,1.64129765647866,0.0117424309137804,-0.28265191911461,-0.581717035956081,-0.869883115679899,1.39186897619752,-0.3395705320447,-0.550434983506299,0.565735471335464,51.833176736233,278.676015266769
0.54,1.47926357075005,0.0040568187664779,2.61760461523764,-0.195041306739526,-1.24744316905008,0.795061450151485,-2.31560984986532,1.2360607008779,1.00610579391022,68.2426633630122,278.676015266769
0.55,1.3597105222413,0.0300026342280514,3.40245817631274,-1.4974796834774,-1.35956228013401,0.0361008142724115,-3.40914034827071,-1.48220414578345,1.56631117928328,84.5718177352874,278.676015266769
0.56,1.31817654207784,-0.00688273846973875,0.69918641524805,0.347877841342278,-1.02789562829807,-0.82526804463692,-0.763859314118046,-0.1624794879346,2.24206433581668,99.3556851327444,278.676015266769
0.57,1.18973751826039,0.0285495730526233,3.06633699292613,-1.42140270931113,-0.175269815846314,-1.17710277042027,1.03181164245138,-3.21841155707689,3.01777125406039,112.059768841378,278.676015266769
0.58,1.10699414183214,0.037561932666401,3.42386538457844,-1.86783688488274,0.719891430917406,-0.841785754529026,3.68980941381031,-1.26371487686099,-2.40017157629528,124.000815256623,278.676015266769
0.59,1.0035721181369,-0.0377426992653886,4.70866266532319,1.89022625508619,0.991112722311389,0.162102064521489,4.90698089771899,-1.29073539528696,-1.44626676557593,136.184543384855,278.676015266769
0.6,0.957607417690122,-0.0283150543162654,3.61422734925007,1.42361804170203,0.354354506999048,0.890082351294271,2.74200449956911,2.7514975895082,-0.408439640708132,146.692288472254,278.676015266769
0.61,0.926253589660916,0.00641110523969846,2.10137742644385,-0.307166134307737,-0.593615185942901,0.711061056202702,-1.59225610424794,1.40529663093544,0.702542408680451,156.44782152073,278.676015266769
0.62,0.845976921263752,0.0133251475388076,2.96561397831545,-0.665200864999883,-0.808459121283135,-0.24949621256029,-2.61347411196448,-1.55148687563513,1.88588059724858,166.216236002947,278.676015266769
0.63,0.82925652528315,-0.0328518622085414,1.16154453423862,1.65571382912749,0.027474734682394,-0.829452089351389,-1.66320983704958,-1.15078539568642,3.13510916560066,174.440518777516,278.676015266769
0.64,0.751248148885977,0.0159289208913726,2.41080379720691,-0.797323106350187,0.720193874314557,-0.214355534393584,2.53588906175102,0.130252643116023,-1.83888269296825,182.803160977494,278.676015266769
0.65,0.692463023542805,0.0421709123271382,2.98040039330932,-2.10122841257727,0.35211364132875,0.597745270504715,-0.51812367890497,3.60963920629449,-0.471519009653782,190.101115086545,278.676015266769
0.66,0.60215484284044,-0.00813680065431738,5.24413265510716,0.40569045245098,-0.493744895453015,0.344779118415217,-4.02190428325633,3.38966045259633,0.947704236883759,197.208328496892,278.676015266769
0.67,0.609780317403158,0.012450082642714,2.76545163767939,-0.615162607814297,-0.413226231127561,-0.44858791998695,-1.37087957566527,-2.4792815458153,2.41761766201951,203.643964719933,278.676015266769
0.68,0.570483504078492,0.0120829376023767,2.79031566840853,-0.606763163726118,0.397110897634859,-0.409756465216126,2.41056210440615,-1.53075582867486,-2.35068862767901,209.739484461416,278.676015266769
0.69,0.503122097732126,0.0407918392246344,4.34255641839229,-2.03309008779875,0.386822715079435,0.324290003657648,1.66370404288202,4.49703684771691,-0.792208513303937,215.319970865917,278.676015266769
0.7,0.466451091417834,0.0673128118864484,4.47655119924981,-3.37208638732421,-0.289749015278448,0.37168957945323,-5.56437665252903,0.669469724387899,0.80546277940556,220.619363676179,278.676015266769
0.71,0.456235109430629,0.0436954635956278,3.45004473138186,-2.17579200596177,-0.32773033510394,-0.320394438261144,-0.563425988167168,-4.03973150810802,2.44035909637264,225.358747228054,278.676015266769
0.72,0.385352046282546,-0.0522904864740303,5.47540057133837,2.61276341957622,0.347065106447923,-0.175431771455824,3.0286001002489,-5.25681705369899,-2.1736837096281,230.062222535957,278.676015266769
0.73,0.393534467575545,-0.0240233956387813,3.73914755415982,1.21545576165521,0.157586213146175,0.361404325007648,2.78305541349006,2.77725758721871,-0.472152666986621,234.181262282243,278.676015266769
0.74,0.383560701363498,0.00295784628396235,2.93585084814605,-0.147553820419142,-0.364212669095026,0.120319126309059,-2.83989583050721,0.758936100306167,1.25944092342796,238.166495660111,278.676015266769
0.75,0.287915959326047,0.0095728949913797,6.53183168167721,-0.472165905139949,-0.0448042173068372,-0.284569538188253,-0.332314484800675,-6.54043827605845,3.0186657108094,241.843631625998,278.676015266769
0.76,0.274726747935247,0.0449442601395836,6.06435934396639,-2.24261646160322,0.277690846399158,-0.0195593040952522,5.83312869447338,2.78933549081453,-1.47895598343789,245.255209000773,278.676015266769
0.77,0.262094728878394,0.0278967942597678,5.64286071911243,-1.4024182911514,-0.058727951334285,0.256949227996288,-3.15887808237935,4.88161278875347,0.330737555530499,248.517367470543,278.676015266769
0.78,0.258438860818626,0.0506896285016648,4.87991698734987,-2.52399008556089,-0.242712514818232,-0.102228755100878,-2.63949718185511,-4.81841990515713,2.16311695581058,251.389276468957,278.676015266769
0.79,0.272626095083895,0.0490003016110569,3.25925972556612,-2.45141561750265,0.177769892136972,-0.212423828061442,4.07290128866867,-0.209015743891073,-2.26693850432046,254.151686879009,278.676015266769
0.8,0.208709995245426,0.0280381874745912,5.63508528175434,-1.41080264501095,0.106127968621427,0.181886932869009,0.864223852827885,5.74435961339622,-0.394645361988071,256.662479209559,278.676015266769
0.81,0.240076084863337,0.0398763779353491,3.29697835466521,-1.98521516863249,-0.236397163427454,0.0578189688943408,-3.43694408861947,-1.73163531628432,1.4955177375573,259.005168080762,278.676015266769
0.82,0.193402811607702,0.0220712915741789,4.88000799238994,-1.10841230779141,0.0285684423692263,-0.192550340301213,2.32980438496864,-4.42889008416715,-2.88066923974213,261.267662296024,278.676015266769
0.83,0.148812947831282,0.0432961434835745,6.4446645256448,-2.16369930193139,0.146646136052142,0.0501473854130294,4.02849155764155,5.47599774354352,-0.958172895790609,263.302316828468,278.676015266769
0.84,0.176970107757645,0.00411111651368737,4.39452841567793,-0.198059243959085,-0.144589258397802,0.102123781141884,-3.75786382503166,2.28682463972139,0.979079279494153,265.225680656452,278.676015266769
0.85,0.144821811182834,0.0154181441412912,5.40520629144553,-0.777704134912362,-0.0455304980799144,-0.138340340854116,-0.3764469071335,-5.44787724720847,2.9297027128338,266.993499674014,278.676015266769
0.86,0.156599035560361,-0.0175885382003014,4.29051684562135,0.89013274220152,0.150908173306595,0.0453799277624511,4.38058618014231,-0.106469806264319,-1.39053328415717,268.590419538515,278.676015266769
0.87,0.0946204755411318,0.00178143778324774,6.86001548727779,-0.0831542757524175,-0.0507004345341672,0.0799104114008439,-3.85289624390623,5.67643529452774,0.584202312421968,270.149521731411,278.676015266769
0.88,0.119770357535304,-0.0448304555087147,5.13141126742262,2.23650386654293,-0.0271378104703086,-0.124972987193757,-4.65817346196964,-3.10398955196293,2.56960312188073,271.548026853097,278.676015266769
0.89,0.10265186666262,-0.0167270594050418,5.53244906985859,0.844947619349982,0.10399547986978,0.00146301480318429,5.34825878813999,-1.64865312455584,-1.7182588985604,272.910621089999,278.676015266769
0.9,0.111313386185695,0.0123762622021691,4.68516546442013,-0.612267222907609,-0.019605131605111,0.110270035027512,-1.91211146375342,4.32081894221742,0.286682598757074,274.106845951694,278.676015266769
0.91,0.102542569583688,0.010456356997973,4.73285141657777,-0.529441259010262,-0.0834131732042711,-0.0605520975234452,-3.17537528480935,-3.54925096024028,2.30033326631728,275.240704818121,278.676015266769
0.92,0.07295763377018,-0.0110601007354432,5.85192374690199,0.552417304002769,0.0716719772113175,-0.0175576147651738,5.20058200033171,-2.73936548768925,-1.96148768196536,276.282439227247,278.676015266769
0.93,0.0799065579867337,0.0327053088496725,5.1734246868657,-1.62845896810888,0.0272545271982288,0.0819261007459815,-1.97287180303377,5.05212613166773,0.0673377287811117,277.24508257914,278.676015266769
0.94,0.106553482024725,0.0210412314837875,3.54129184265903,-1.05734133007607,-0.102502755028703,-0.0359104882377479,-2.51568928425928,-2.7074020810056,2.10273389877771,278.099424735948,278.676015266769
0.95,0.0670725690644024,0.0402178982156943,5.23094528788356,-2.02310856314817,0.0349051216882559,-0.0699845792851184,5.49789212515035,-1.10857523124252,-2.13880363085143,278.917745261343,278.676015266769
0.96,0.0762230961224036,-0.00461542225186321,4.50677776873856,0.240779767304342,0.00236863585569868,0.0763259593403926,0.65157135857149,4.46592381460192,-0.0915008568882827,279.685180875629,278.676015266769
