t,iq,id,vq,vd,ia,ib,va,vb,theta_e,omega,r
0,0,0,0,0,0,0,0,0,0,0,0
0.01,0.000617471935272994,0.000340123215311462,-0.0303743031634372,-0.0170168694246834,-0.000227850957897541,0.000667112684206167,0.0110160198784726,-0.0330275558241631,0.832607036610287,-0.00185390969694581,0
0.02,0.0007439414019758,0.000405781900773987,-0.0366789762275965,-0.0203018710132658,-0.000277202501348926,0.000800791192393727,0.0134683043616662,-0.0397003531642402,0.832592738156874,-0.00200808952500799,0
0.03,0.00078884432822088,0.000430970414342591,-0.0389419130298407,-0.0215620875306216,-0.000293453346157357,0.000849644635029214,0.014293478267481,-0.0421555771887767,0.832578586535164,-0.00189778477252384,0
0.04,0.000770225729551473,0.00042307121781123,-0.0380874226277741,-0.0211668840621186,-0.000284987405168028,0.000831275591304695,0.0139268885454855,-0.0412883823704377,0.832566236928293,-0.00161220196612321,0
0.05,0.000784938445239675,0.000433695718546166,-0.0388581211478931,-0.0216984434481404,-0.000288710417610087,0.000849038652750252,0.0141387514544897,-0.0422003759998018,0.832555245264716,-0.0014604856800946,0
0.06,0.000783995183620159,0.000435371671245232,-0.0388566722032497,-0.021782290204905,-0.000286876575382609,0.000849646262016858,0.0140808410486249,-0.0422615553031932,0.832545524098838,-0.00128059742704479,0
0.07,0.000794015496842896,0.0004433482710621,-0.039385226462388,-0.0221813817674002,-0.000288912712052814,0.000862292145096262,0.0142028423578521,-0.0429125742593327,0.832537239385461,-0.00116274385323771,0
0.08,0.000779782284965157,0.000436892450802777,-0.0387229797678866,-0.0218583836600852,-0.000282723671767427,0.000847940299158073,0.01393007954378,-0.0422280828624696,0.832529757674786,-0.000980055944716262,0
0.09,0.000774835261412953,0.000435870806840326,-0.0385101036528396,-0.021807265783712,-0.00027974687874696,0.000843857053306927,0.0138067638387429,-0.0420470949842565,0.832523396079149,-0.000848154690870838,0
0.1,0.000771899252330742,0.000435707927934428,-0.0383916237195294,-0.0217991174317409,-0.000277680315203472,0.000841762137876355,0.0137243860856138,-0.0419614051146738,0.832517911558395,-0.000738791378594001,0
0.11,0.000769603790628183,0.000435680920060136,-0.0383010812351823,-0.0217977715051398,-0.000275996718946716,0.00084019858949201,0.0136581254281017,-0.0418995378991769,0.832513169196539,-0.000645024290583898,0
0.12,0.000767662348817618,0.000435675548133772,-0.0382249260347799,-0.0217974975519296,-0.000274560953108865,0.000838889115474624,0.0136018117939962,-0.041848137184485,0.832509066002323,-0.000564040590710653,0
0.13,0.000797974766387285,0.000453435349229907,-0.0397263537165463,-0.0226860566000023,-0.000285024587716602,0.000872426689251923,0.0141141133808572,-0.0435158838488082,0.832505205421467,-0.000593111296187135,0
0.14,0.000815826268366268,0.000464624794611852,-0.0406666623492353,-0.023245866503425,-0.000290694020719653,0.000892718144904862,0.0144326627141901,-0.044562831856831,0.832501716811882,-0.000588132466666917,0
0.15,0.000772164021234849,0.000440245522877532,-0.0384933408173121,-0.0220261504249124,-0.000274805959865378,0.000845301768911997,0.0136460077916899,-0.042198045703181,0.832498612074542,-0.000388659997261649,0
0.16,0.000763408063295728,0.000436393272497773,-0.0380750784213916,-0.0218334171437167,-0.000270920722877806,0.000836560171955142,0.0134662760957563,-0.0417740243342622,0.832496369717059,-0.000319199643894914,0
0.17,0.000761128162535073,0.000435784157791577,-0.0379720326723911,-0.0218029358901215,-0.000269642878400402,0.000834575718622389,0.0134104993785775,-0.0416821518772611,0.83249451035145,-0.000277916151971302,0
0.18,0.000760122104605221,0.000435687492616631,-0.0379301170761476,-0.0217980905832886,-0.000268962514847882,0.000833827542564253,0.0133826927276619,-0.0416503789880057,0.832492916118425,-0.000245626238689407,0
0.19,0.000759427719667459,0.000435671847212485,-0.0379024564870105,-0.0217973119848791,-0.000268458322229124,0.000833348995966743,0.0133627013397258,-0.0416312050080366,0.83249153922358,-0.00021831057287994,0
0.2,0.000758859063963969,0.000435669052236597,-0.0378800947355694,-0.0217971747460319,-0.000268038627501921,0.000832964522776266,0.0133462051530322,-0.0416160691572131,0.832490348198239,-0.000194786927578064,0
0.21,0.000758372830414883,0.000435668330896141,-0.0378610290012769,-0.0217971362491733,-0.000267678631811378,0.000832637012466356,0.0133320869841214,-0.0416032224995658,0.832489317614946,-0.000174451237455887,0
0.22,0.000757953186450258,0.00043566797474889,-0.03784458416144,-0.0217971165061042,-0.000267367756725375,0.000832354551699899,0.0133199004268228,-0.0415921517951707,0.832488425799354,-0.000156857227520324,0
0.23,0.000757590087058804,0.000435667708839469,-0.0378303543385586,-0.0217971146858363,-0.000267098742133574,0.00083211018169823,0.0133093450633957,-0.0415825835175241,0.832487654055318,-0.000141632660239115,0
0.24,0.000757276090001612,0.000435667485362803,-0.0378180500249279,-0.0217970975850135,-0.000266866102248217,0.000831898862699861,0.0133002284397902,-0.0415742984819702,0.832486986214564,-0.000128457960252575,0
0.25,0.000757004351704373,0.000435667292984902,-0.0378074003801381,-0.0217970789244265,-0.000266664771373901,0.000831715984206301,0.0132923404192304,-0.0415671247420487,0.832486408287665,-0.000117057042528835,0
0.26,0.000762958379306218,0.00043917864281348,-0.0381007862114086,-0.0219727647652767,-0.000268704779236768,0.000838320410387568,0.0133910693572272,-0.0418945290321729,0.832485980874608,-0.00012878512411507,0
0.27,0.000748050532139053,0.00043054826416263,-0.0373740023319997,-0.0215409657133259,-0.000263486897454421,0.000821903924602394,0.0131441267631408,-0.0410860217812517,0.832485348841884,-6.84625350223616e-05,0
0.28,0.000747442250873517,0.000430351798367109,-0.0372972536426503,-0.0215311431404694,-0.000263168934308049,0.000821349317138476,0.0130939587526166,-0.0410271068734361,0.832484979076387,-5.97451855386722e-05,0
0.29,0.000754609149995701,0.000434827026383118,-0.0376976922315617,-0.0217550481084653,-0.000265457432173575,0.00082948288941619,0.0132394197313963,-0.0414622223591922,0.832484764987771,-7.93255304637179e-05,0
0.3,0.000744825555474852,0.000429857757985113,-0.0372174264471946,-0.0215064239196928,-0.000261566192061267,0.000819222758081694,0.0130515587325851,-0.0409550963350809,0.832485067988154,-5.27918325809104e-05,0
0.31,0.00075417328657373,0.000434749002679812,-0.0376758661690347,-0.0217511427458561,-0.000265187665056887,0.000829131801231981,0.0132259098591977,-0.0414446427265817,0.832484869922189,-7.98065747798659e-05,0
0.32,0.000755768802677806,0.000435521691171423,-0.0377551985402852,-0.0217898057972678,-0.000265847443194392,0.000830777204507241,0.0132585515359372,-0.0415266356049692,0.83248459911148,-8.01072239614156e-05,0
0.33,0.000755964503804851,0.000435643698564693,-0.0377659309387316,-0.0217959150059915,-0.000265909859197319,0.000830999223762394,0.0132623670497548,-0.0415383806961108,0.832484346619566,-7.61560452619744e-05,0
0.34,0.00075591768100933,0.000435662914003147,-0.0377646515978663,-0.0217968618851012,-0.000265862111704439,0.000830981980948019,0.0132607743404928,-0.0415382229065824,0.832484124810676,-7.19682938795208e-05,0
0.35,0.000755837587443828,0.000435665897436623,-0.0377616090176099,-0.0217970149741098,-0.000265800706090069,0.000830930332473298,0.0132584129982698,-0.0415362909050353,0.832483932260719,-6.82041042658284e-05,0
0.36,0.000755760986188979,0.000435666323419714,-0.037758618515327,-0.0217970385550721,-0.000265743626143425,0.000830879136079089,0.0132561784102805,-0.0415342978261594,0.832483765524076,-6.49211070167815e-05,0
0.37,0.000755693465307453,0.000435666351455374,-0.0377559693653976,-0.0217970431945998,-0.000265693548574517,0.000830833750845923,0.0132542099688064,-0.0415325201841989,0.832483621215842,-6.20754411775984e-05,0
0.38,0.00075563479198535,0.00043566632190375,-0.0377536638952909,-0.0217970434434494,-0.000265650069615853,0.00083079427261686,0.0132524994770519,-0.0415309703475003,0.832483496332609,-5.96120455915531e-05,0
0.39,0.000755583918489795,0.00043566628782758,-0.0377516627783186,-0.0217970436699115,-0.000265612376470954,0.000830760036168874,0.0132510148001054,-0.0415296251132045,0.832483388262298,-5.74801506099597e-05,0
0.4,0.000755540029913539,0.000435666256994725,-0.0377499367607244,-0.0217970438762946,-0.000265579859318782,0.000830730499385788,0.0132497342060706,-0.0415284648241695,0.832483294741799,-5.56352522325228e-05,0
0.41,0.000755501962103365,0.000435666230099936,-0.0377484376127142,-0.021797044065932,-0.000265551655048384,0.000830704879781375,0.013248621940259,-0.0415274570482861,0.832483213812222,-5.40387342394584e-05,0
0.42,0.000755469224460893,0.000435666206791751,-0.0377471494395053,-0.0217970247736968,-0.000265527399637403,0.000830682847354906,0.0132476792771824,-0.0415265767137433,0.832483143778558,-5.26571604873039e-05,0
0.43,0.000755440702707093,0.000435666186615917,-0.0377460240054611,-0.0217970249365465,-0.000265506268045242,0.000830663652205711,0.0132468442743695,-0.041525820173428,0.832483083173717,-5.14615930012621e-05,0
0.44,0.000755416022658907,0.000435666169155308,-0.0377450490657679,-0.0217970250882512,-0.000265487982749599,0.000830647042522763,0.0132461209243209,-0.0415251648056133,0.832483030728341,-5.04269892037621e-05,0
0.45,0.000755394602239727,0.000435666154045011,-0.0377442011266299,-0.0217970252305019,-0.000265472112576115,0.000830632626567041,0.0132454918041254,-0.0415245948138386,0.832482985343879,-4.95316779777866e-05,0
0.46,0.000755376208618909,0.000435666140968929,-0.0377434733798608,-0.0217970253639748,-0.000265458484744691,0.000830620247653095,0.0132449518384644,-0.0415241056290293,0.832482946069736,-4.87569058477981e-05,0
0.47,0.000755360143304524,0.000435666129652921,-0.0377428351012712,-0.0217970254906851,-0.000265446582148089,0.000830609435683032,0.0132444782680457,-0.0415236765849388,0.832482912083225,-4.80864441849847e-05,0
0.48,0.00075534628988125,0.000435666119860419,-0.0377422840979294,-0.0217970256109767,-0.000265436318252633,0.000830600112318852,0.013244069441165,-0.0415233062153291,0.832482882672524,-4.75062492831063e-05,0
0.49,0.000755334299103122,0.000435666111386277,-0.0377418060438875,-0.0217970257258622,-0.000265427434380309,0.000830592042515657,0.0132437147360027,-0.0415229848871647,0.832482857221368,-4.70041681897047e-05,0
0.5,0.000755324054554819,0.000435666104052753,-0.0377413978406883,-0.02179702583568,-0.000265419844106687,0.000830585147931275,0.0132434118385661,-0.04152271052237,0.832482835196943,-4.65696841514861e-05,0
0.51,2.95185042864068,0.0196242224364528,2.87920740220051,-0.978870601561012,-0.135718752426203,2.94879407273758,-1.12900824263807,2.82371445219624,0.0526407246847318,16.1076171929212,575.682166191616
0.52,2.88486831487839,-0.0087125009060674,2.54882444771503,0.442680978410314,-0.682411097783382,2.80300841873217,-0.165003856046548,2.58171381864952,0.235790758000537,33.7913418081029,575.682166191616
0.53,2.81635678053769,-0.0154400231268581,2.32811346212345,0.783484408932069,-1.47936932054006,2.39657470633394,-0.54306761088126,2.39562886974836,0.547549901002839,51.2777114030647,575.682166191616
0.54,2.66721933718198,0.0354541537399645,6.00325935777611,-1.75943115314726,-2.20847571864458,1.49597827183827,-5.98189681393996,1.83074613389363,0.988704890359365,69.2270665236143,575.682166191616
0.55,2.62972322918759,-0.0256410222943255,3.90632530851212,1.29360564108718,-2.62983556747198,-0.00816163049932928,-3.89764088918186,1.31954100715078,1.56414963716954,87.5940215282854,575.682166191616
0.56,2.52973709745979,0.0688378231654569,5.41866356614307,-3.42909822943202,-1.9849553880326,-1.56979633573364,-1.95770098184334,-6.10639307413384,2.2671360393332,103.898034043235,575.682166191616
0.57,2.45168959706218,0.0306020061169746,6.07904582783995,-1.50831443765294,-0.168339052373694,-2.44609491364649,1.16428706968009,-6.1542055733609,3.08536284081603,119.388366513843,575.682166191616
0.58,2.43691005300155,-0.0262558767279731,3.27213967705213,1.32850492361243,1.89402887803992,-1.533582272535,1.67363802368426,-3.10978442402034,-2.26219369617507,135.917973543562,575.682166191616
0.59,2.33063002280298,0.0301164972410364,5.43709680271857,-1.48260651683072,2.19197861604334,0.792447508296563,4.56686133617772,3.30210860845104,-1.21097309599611,150.640296443446,575.682166191616
0.6,2.28516592440095,0.0322728515102806,4.50315362298528,-1.59856514174362,0.151723482253509,2.28035190791262,-1.36090136772829,4.58058408196144,-0.0523153737213422,165.797847833132,575.682166191616
0.61,2.20051131603316,0.0563739263305704,5.68327504895431,-2.79320721626562,-2.04388389612375,0.817292292099912,-6.29965514579043,-0.644954943527875,1.21601310683725,179.896268235675,575.682166191616
0.62,2.13715674381479,-0.0196827212531461,5.78023554011843,1.00204463041079,-1.10947371182886,-1.82671684721789,-3.89759450369744,-4.38451518703388,2.58656986003974,194.265274132616,575.682166191616
0.63,2.06300110305154,-0.0108552349668297,6.68289951591687,0.577469510318749,1.64463150523956,-1.24550335177852,4.95520287314681,-4.52112612754249,-2.22422414610335,207.369958500725,575.682166191616
0.64,2.03451630977042,-0.0125571045611733,5.18338766759381,0.653274237839233,1.22719604175344,1.6227766854073,3.67056993859139,3.71768627889676,-0.653649778723847,220.82463208622,575.682166191616
0.65,1.98037430869029,-0.0145250514912089,5.14497607447583,0.744657073796971,-1.68607235613512,1.03887120930284,-3.96509146513408,3.36204441338978,1.01125299428408,233.719190516929,575.682166191616
0.66,1.91445270790072,0.0352876945729472,5.81299419495619,-1.72665835638174,-0.729058188045833,-1.77055035246671,-0.505436890778096,-6.04291189243214,2.76941190117028,245.888621508268,575.682166191616
0.67,1.87976868358827,0.0181519916120192,4.89672102979242,-0.873972820468708,1.86965461464226,-0.195579703818054,4.95736979843702,0.407664097111613,-1.66536844484709,258.026090070268,575.682166191616
0.68,1.82867501391916,-0.0110260083921908,4.87759524491246,0.577608857766767,-0.498060844979294,1.75957644735653,-0.74341257290652,4.85509063892815,0.269811986846482,269.885435745131,575.682166191616
0.69,1.7238539153862,-0.0142524948461752,7.63771506487023,0.731843701154766,-1.28809088682316,-1.14573003909507,-6.23045138044839,-4.47791940648046,2.2895007048599,281.354462246007,575.682166191616
0.7,1.65026526781118,0.0153445299963055,8.93937462725059,-0.752078167810445,1.56117485904938,-0.535111173698372,8.7202280572235,-2.10610135720974,-1.8917104521837,292.36646318192,575.682166191616
0.71,1.61489103437117,0.0367410564856046,8.40149850042186,-1.81977147951246,-0.426675040607248,1.5579381784419,-4.14669660465167,7.53004997056514,0.290064346263737,302.994273338989,575.682166191616
0.72,1.54360069273815,0.0224759780641257,9.70728966836743,-1.0871757753301,-0.880591848625536,-1.2679772333705,-4.51865866091112,-8.65997389015871,2.54913698506699,313.345887349209,575.682166191616
0.73,1.51230154436515,0.0681065177875333,9.06148206179565,-3.36576275541465,1.50182342422393,0.19031779030526,8.35629872110798,4.85912417680284,-1.39973914330207,323.424323158081,575.682166191616
0.74,1.51895848173514,0.0122572130714173,6.57335030814218,-0.569865450782874,-1.27783659182741,0.821290906496789,-5.86243873937862,3.02745651208762,1.00762532899327,333.245212464244,575.682166191616
0.75,1.44245151063486,0.0868140275037621,8.30162363981584,-4.3025004776107,0.405181346938474,-1.38709448560555,6.85219194977056,-6.36206970258021,-2.79727934540429,342.790922742792,575.682166191616
0.76,1.43057387793563,0.0170727113423871,6.85488681823545,-0.831208053602421,0.370823393246888,1.38178258373929,0.892301538011222,6.84720220852681,-0.250254582550528,352.059930424992,575.682166191616
0.77,1.30507887815942,-0.0203382331789482,11.1416144027526,1.02873845658622,-0.901708323048666,-0.943698374530472,-8.55426631213296,-7.21237839916838,2.3633617347053,361.062772349639,575.682166191616
0.78,1.30788734895278,0.039569328222556,9.05890878196902,-1.96736412559405,1.25038158828385,0.385591666102211,7.93561405495938,4.79169901949622,-1.24142487689212,369.797310269915,575.682166191616
0.79,1.26624101854485,0.0446104710080348,9.26095442248112,-2.21472255939189,-1.2599106565482,0.134095297029201,-9.39445123560717,-1.55388507044467,1.49997918143582,378.226474930653,575.682166191616
0.8,1.2568116737362,0.0316890610348125,7.92655385531957,-1.55794548518116,1.13991788742218,-0.530251817313078,7.89029678832658,-1.73224327050249,-1.98098252768097,386.332523548826,575.682166191616
0.81,1.23985153434295,0.00605588694229545,7.02329110500143,-0.263726488732717,-0.951863234496647,0.794496622895785,-5.58180203705027,4.27079098360397,0.880150985363312,394.224970394545,575.682166191616
0.82,1.17738464495137,0.0250547544605786,8.42242758862762,-1.20994588979979,0.699420147779897,-0.947456489643662,6.10313396016536,-5.92899750431685,-2.48440431413155,401.990840082113,575.682166191616
0.83,1.08470973870671,0.0139363647414587,11.359576921766,-0.690867976115694,-0.498416781657572,0.963519668335574,-5.95790865034908,9.69642258340861,0.490229156637227,409.572838410902,575.682166191616
0.84,1.06548796208274,0.0385304074233707,10.6878099535372,-1.91151463198092,0.356649734851698,-1.00476373156561,5.71395141459569,-9.23222232308375,-2.76436057116562,416.777874426038,575.682166191616
0.85,1.03821627485272,0.0554958552323045,10.4782371224081,-2.74174973652899,-0.270480145924801,1.0038990556712,-5.86758955571603,9.10395725038404,0.316582393663468,423.764691881179,575.682166191616
0.86,0.992564632925065,0.0441439509451658,11.2336397269924,-2.17044405862532,0.257502622022603,-0.959596602010555,5.45988874353745,-10.0546061004734,-2.83497898041454,430.600662428701,575.682166191616
0.87,1.00633163425528,0.0267805672152505,9.02086891091202,-1.33117622894989,-0.316115891437681,0.955767388052047,-4.31180790179931,8.03470090783479,0.346025610271963,437.293781807512,575.682166191616
0.88,0.945055314990105,0.0166514945654292,10.6384026954745,-0.802377334413838,0.381650940245175,-0.864725031713714,5.19457460215813,-9.31857371063157,-2.70833313356213,443.636709246267,575.682166191616
0.89,0.884685973192233,0.0294688584576188,12.2488296412971,-1.44346527449375,-0.450144250673,0.762173102626908,-7.79439132088516,9.55849797390248,0.566781402170423,449.891233148461,575.682166191616
0.9,0.929543556035308,0.032332200569154,8.60354748212741,-1.60678214904442,0.606717616732299,-0.704975409008775,7.01616931548326,-5.2322219265031,-2.3961951209827,455.978162740402,575.682166191616
0.91,0.895416842572866,0.07919683396987,8.98674964090297,-3.92472392367171,-0.692452337520808,0.573195621699941,-9.62716831758015,1.86621466350786,0.967563927083258,461.754637725883,575.682166191616
0.92,0.799036936935958,-0.0205384970039192,12.4870563724891,1.02612112496147,0.760449486781941,-0.246167492777297,11.4363565346056,-5.11754341712861,-1.90956227291157,467.527360583893,575.682166191616
0.93,0.790692369578559,0.0190799097199395,11.6333568309674,-0.929362950495246,-0.789625941811174,0.0452696176645469,-11.6577636313419,-0.543372585001014,1.53765450906845,472.978082034962,575.682166191616
0.94,0.761483889769299,0.0320630144437371,11.87038832858,-1.60064575313067,0.73454401127967,0.203299893670837,10.8054887780315,5.16813294780036,-1.25870401144397,478.344065099036,575.682166191616
0.95,0.797342053629283,0.0317401192217298,8.86601774198492,-1.56992946719576,-0.632295070292709,-0.486790231760571,-5.79809822393542,-6.88861423791156,2.26668501663038,483.494051957984,575.682166191616
0.96,0.716159021408582,0.0337487078394377,11.7725844786256,-1.65633604284755,0.344406206477752,0.628814029873168,3.67438692964281,11.306461651838,-0.453991723674158,488.493508817702,575.682166191616
0.97,0.709821042515402,-0.0244902791717092,10.9553735414545,1.2382645377875,-0.507078277604341,-0.497310070834459,-8.9174721081871,-6.48322448308313,2.31198090230082,493.310066208218,575.682166191616
