t,iq,id,vq,vd,ia,ib,va,vb,theta_e,omega,r
0,0,0,0,0,0,0,0,0,0,0,0
0.01,0.000584730897715625,0.000321758952208462,-0.0281801730116268,-0.0161014763929067,-0.000667093856128283,2.06114818852502e-05,0.0324200545836384,-0.00152307379678694,2.04295800374775,-0.00252159725450118,0
0.02,0.00067201271568782,0.000368436781952094,-0.0325977088270636,-0.0184373282115349,-0.000766055169017837,2.24995636043487e-05,0.0374166004194829,-0.00159489980959159,2.04293938103328,-0.0025547521199563,0
0.03,0.000702365593670999,0.000386650206248383,-0.0341788464192746,-0.0193487628023085,-0.000801370263718239,2.49300941212039e-05,0.0392392417724119,-0.00168821493257329,2.04292178785799,-0.00233669308749674,0
0.04,0.000682299787890402,0.000378130467912726,-0.0333413113079189,-0.0189224200723105,-0.000779624583312384,2.6479433796361e-05,0.038299412699814,-0.00168997277311305,2.04290701440334,-0.00193555173215523,0
0.05,0.000695806648776462,0.000387598349865234,-0.0340855903620027,-0.0193962029073088,-0.000795959241206195,2.87795003125738e-05,0.0391777131515595,-0.00177396441955963,2.04289401337831,-0.00173170030146607,0
0.06,0.000694218768781761,0.000388528668195169,-0.0340988219910676,-0.0194427711980838,-0.000794967774673025,3.03391194630602e-05,0.0392106542351671,-0.00180986394232501,2.0428827358436,-0.00149119675925365,0
0.07,0.000706334070068191,0.000397147076103374,-0.0347486009798078,-0.0198740543117926,-0.000809676798089072,3.25130932515501e-05,0.0399854675263122,-0.00189886585735155,2.04287333291009,-0.00135499351831625,0
0.08,0.000690469551812066,0.000389465178475704,-0.0340605494207242,-0.0194896373911968,-0.000792053930188514,3.28922315691015e-05,0.0391978467828621,-0.00186970587772482,2.04286493842622,-0.00110569861065194,0
0.09,0.000686698840896107,0.000388705973299,-0.033936089590825,-0.0194516391819171,-0.000788350154276644,3.39362051262616e-05,0.0390697070907388,-0.00189273120750698,2.04285797431949,-0.00094382755223552,0
0.1,0.000684619375304034,0.000388629517661916,-0.0338836364930318,-0.0194478071967308,-0.000786463142677406,3.48183320938431e-05,0.039021236867108,-0.00191340014481673,2.04285207556954,-0.00081205289298815,0
0.11,0.000682982269661824,0.000388620610092224,-0.0338452226658486,-0.019447375577942,-0.000785000849863891,3.55587538285309e-05,0.0389868182147765,-0.00193067854869101,2.04284706480641,-0.000700735270841189,0
0.12,0.000681606353006177,0.000388618565942517,-0.0338133028761827,-0.019447257557126,-0.000783774323089319,3.61859188011057e-05,0.0389583272994434,-0.00194525369016608,2.04284280668142,-0.000606209875092766,0
0.13,0.000711654806161028,0.000405888953148946,-0.0352736715549398,-0.0203115189570455,-0.000818389526740196,3.7907623803084e-05,0.0406519693194383,-0.00205112109823793,2.04283872089909,-0.000665650367281355,0
0.14,0.000732338547385121,0.000418636176827885,-0.0364131040534239,-0.020949405485239,-0.000842607423839026,3.98588236978596e-05,0.041956838612846,-0.00210129260362142,2.04283513570045,-0.000690605828098038,0
0.15,0.000684277334222019,0.000391574646836739,-0.0340253641233728,-0.0195951921208783,-0.000787496956896069,3.76127246386155e-05,0.0392144433137572,-0.00198100822167951,2.0428319815387,-0.000395432416431905,0
0.16,0.000678158978808077,0.000388906245965774,-0.0337508327363659,-0.0194616596049005,-0.000780834275756879,3.80197644973706e-05,0.0389092120479627,-0.00198698836982892,2.04282990861396,-0.000323337847692663,0
0.17,0.000676982141029542,0.000388642719429995,-0.0337081799886604,-0.0194484672302609,-0.000779666240615572,3.8321480702933e-05,0.0388652216461834,-0.00199469851042639,2.04282821733237,-0.000282776273374524,0
0.18,0.000676447862061107,0.000388616346709294,-0.0336940068838309,-0.0194471535627376,-0.000779178340387457,3.85420405241883e-05,0.0388519982448238,-0.00200002849093378,2.04282678815373,-0.000250703945827149,0
0.19,0.000676047811491527,0.000388613412707254,-0.0336845182247919,-0.0194470093467102,-0.00077882065552237,3.87222738248636e-05,0.0388434791934037,-0.00200426163935397,2.04282557451303,-0.000223725219488109,0
0.2,0.000675714117806824,0.000388612839485773,-0.033676749133756,-0.0194469798773939,-0.000778523151366726,3.88742948832725e-05,0.0388365442022303,-0.00200780800822935,2.04282454321171,-0.000200829582505228,0
0.21,0.000675431297634923,0.000388612541577692,-0.0336701798385745,-0.0194469633478575,-0.000778271088532966,3.90033081927877e-05,0.0388306839950363,-0.00201081433565888,2.04282366677472,-0.000181375490099604,0
0.22,0.000675191027262888,0.000388612307011239,-0.0336645976221704,-0.0194469466869977,-0.000778056956345821,3.91129280262864e-05,0.0388257031282803,-0.0020133666094928,2.04282292193754,-0.000164842891836872,0
0.23,0.000674986718371575,0.000388612109466621,-0.0336598444876761,-0.0194469460067356,-0.000777874874270202,3.92061421366947e-05,0.0388214681703602,-0.00201555179073588,2.04282228893914,-0.000150792738887324,0
0.24,0.000674813270395933,0.00038861194173691,-0.0336558109227694,-0.0194469305885303,-0.000777720295617719,3.92852764693584e-05,0.0388178675843121,-0.00201739296894082,2.04282175098643,-0.000138852243993128,0
0.25,0.000674665655766209,0.000388611799189958,-0.033652369190927,-0.0194469297189495,-0.000777588739963876,3.93526240738344e-05,0.0388148008902741,-0.00201897486477519,2.04282129380813,-0.000128704633601748,0
0.26,0.000681071192638512,0.000392250266185703,-0.0339592201578889,-0.0196290108112196,-0.000784948192586724,3.96809238757706e-05,0.0391708874791393,-0.00204163494669084,2.04282098830849,-0.000153054081209201,0
0.27,0.000663737326342705,0.000382324555993727,-0.0331399575493581,-0.0191323022160005,-0.000764996643945338,3.87225935176416e-05,0.038215361788644,-0.00197177529670123,2.04282039395875,-5.78147203064911e-05,0
0.28,0.000663307329608576,0.000382081942417502,-0.0329993316097465,-0.0191201656193468,-0.000764503343021886,3.87022317489753e-05,0.0380845943888329,-0.00202491734136136,2.04282012349775,-5.01713187725821e-05,0
0.29,0.000672993141459263,0.000387967702017385,-0.0335825492059032,-0.0194147016532048,-0.000775806202023412,3.95403991111167e-05,0.0387379594504436,-0.00202206554435108,2.04282005252207,-9.50644021332943e-05,0
0.3,0.000666087026451661,0.000384466733781209,-0.033249619039797,-0.0192394977855421,-0.000768063440542783,3.95619450127191e-05,0.0383617730290205,-0.00201737735721977,2.04282064611982,-7.42684395902199e-05,0
0.31,0.000673428085330717,0.000388202918379545,-0.0335999749678354,-0.0194264659757912,-0.00077630055143649,3.95518114628487e-05,0.038758829650988,-0.00202460421649096,2.04282046294722,-0.00010562190199979,0
0.32,0.000674204251710595,0.000388571177685002,-0.0336388226275604,-0.0194448990640125,-0.00077715927773233,3.95270816873119e-05,0.038801810142484,-0.00202336774826702,2.04282021169446,-0.000104148115544882,0
0.33,0.000674231087949194,0.000388607420251891,-0.0336418433194786,-0.0194467164288212,-0.000777199649667615,3.95473335197237e-05,0.0388053264040748,-0.00202362162188184,2.04281998709521,-9.9638176826639e-05,0
0.34,0.000674180749422492,0.000388610940199666,-0.0336409408929179,-0.0194468795823813,-0.000777156408539304,3.95735063019716e-05,0.0388045964531432,-0.00202418471517363,2.04281979493715,-9.54280604943045e-05,0
0.35,0.000674129293874622,0.000388611242134261,-0.0336397590136113,-0.0194468973018588,-0.00077711071046652,3.95972985347581e-05,0.0388035515381721,-0.00202474422762616,2.0428196314834,-9.18063860993768e-05,0
0.36,0.000674084590393169,0.000388611233586605,-0.0336387051539488,-0.0194468989921443,-0.000777070885914104,3.96177250722221e-05,0.038802613405113,-0.00202523030253669,2.04281949255525,-8.87234478260244e-05,0
0.37,0.000674046522583023,0.000388611200181507,-0.0336378027015095,-0.0194468992043338,-0.000777036960942741,3.96350960847442e-05,0.0388018094929802,-0.00202564540817719,2.04281937448541,-8.61028309005532e-05,0
0.38,0.000674014159123634,0.000388611169214452,-0.0336370319147829,-0.0194468993967271,-0.000777008118360516,3.96498617805115e-05,0.0388011228757738,-0.0020259999411769,2.04281927414383,-8.38756357164681e-05,0
0.39,0.000673986626898067,0.000388611142642162,-0.0336363721501437,-0.0194468981171439,-0.000776983581311229,3.9662422970074e-05,0.038800534501595,-0.00202630209792865,2.04281918886873,-8.19828494726815e-05,0
0.4,0.000673963227418436,0.000388611120034353,-0.0336358080923249,-0.0194468982784005,-0.000776962727402118,3.96730986247733e-05,0.0388000320497628,-0.0020265615242436,2.04281911639777,-8.03742671073568e-05,0
0.41,0.000673943320398452,0.000388611100818213,-0.0336353243773121,-0.0194468984275148,-0.00077694498602602,3.96821808606985e-05,0.0387996011717796,-0.00202678398649788,2.04281905480846,-7.90072157752674e-05,0
0.42,0.000673926440176827,0.0003886110844869,-0.033634911868287,-0.0194468985661158,-0.0007769299421468,3.96898822279119e-05,0.0387992337273772,-0.00202697370397036,2.04281900246693,-7.78454293083844e-05,0
0.43,0.000673912062884616,0.000388611070607603,-0.0336345564074164,-0.0194468986960249,-0.000776917128928863,3.96964416178351e-05,0.038798917104899,-0.00202713716958407,2.04281895798463,-7.68580868820663e-05,0
0.44,0.000673899897483515,0.000388611058812227,-0.033634253691008,-0.0194468988182532,-0.000776906286944897,3.97019919518584e-05,0.0387986474693341,-0.00202727638687991,2.04281892018147,-7.60189954530125e-05,0
0.45,0.000673889536519897,0.000388611048787949,-0.0336339920072352,-0.0194468989342134,-0.000776897053114303,3.97067189954425e-05,0.0387984143881532,-0.00202739672127007,2.04281888805459,-7.53058949052633e-05,0
0.46,0.00067388087443145,0.000388611040268658,-0.0336337734757759,-0.0194468829779705,-0.000776889333263263,3.97106711721979e-05,0.0387982124425267,-0.002027482932913,2.04281886075145,-7.46998675103103e-05,0
0.47,0.000673873423850871,0.000388611033028406,-0.0336335799991397,-0.019446883083567,-0.00077688269318648,3.9714070443896e-05,0.0387980401234334,-0.00202757189882554,2.04281883754809,-7.41848360682676e-05,0
0.48,0.000673867021008186,0.000388611026875354,-0.0336334087263741,-0.0194468831859417,-0.00077687698691054,3.9716991582506e-05,0.0387978875858242,-0.00202765063084121,2.04281881782878,-7.37471373965738e-05,0
0.49,0.000673861607695735,0.0003886110216462,-0.0336332612762738,-0.0194468832848568,-0.000776872162497791,3.97194613154482e-05,0.0387977562703119,-0.00202771841299938,2.0428188010704,-7.33751598610974e-05,0
0.5,0.000673857009290534,0.000388611017202111,-0.0336331327707925,-0.0194468833809215,-0.000776868064339445,3.97215592635378e-05,0.0387976418316389,-0.00202777748108186,2.04281878682846,-7.30590353291777e-05,0
0.51,1.43451477982134,0.0184810845782452,0.88244390597058,-0.923472613780694,-0.0504211780254528,1.43374750525313,-0.964779626068968,0.837083740559918,0.0480353653269685,14.5433517802201,188.969390654974
0.52,1.3441871637002,-0.00177103317309149,-0.156001492942334,0.0916755268955574,-0.283098497043403,1.31403862522631,0.122299035517689,-0.133355967032818,0.210880598707042,29.7077299079706,188.969390654974
0.53,1.22666720490955,0.00232457874511321,0.522961490214156,-0.111618068167765,-0.56547712353698,1.08855567520605,-0.340909840758493,0.411980331887984,0.481000738487648,43.8667667575612,188.969390654974
0.54,1.09089375328223,0.00158536482341337,2.30811175911666,-0.0731800867645551,-0.820488484938344,0.718923042067366,-1.7863426964758,1.46345993741511,0.852732749865137,57.4728703050183,188.969390654974
0.55,1.01668373807022,-0.0210172082321539,1.10561170893273,1.05430399943706,-0.990767708376543,0.229056530875246,-0.813160406521807,1.293330710771,1.32292774365766,70.6768554130214,188.969390654974
0.56,0.92037453599371,0.0037232437773963,1.63306205000499,-0.183109827064744,-0.87670221157135,-0.280172056557693,-1.4970905133109,-0.677599338022619,1.88415898190286,82.1021005394472,188.969390654974
0.57,0.828389725986572,-0.0070064952554123,2.59679697738642,0.356898873928322,-0.474972795123057,-0.678733727605209,-1.79748050940482,-1.90782472105913,2.52254817364089,91.911302118115,188.969390654974
0.58,0.808147141749861,0.0149545595423446,0.16427942943429,-0.739637869273022,0.0569137686753806,-0.806279272029699,0.751309486753944,-0.097907934875154,-3.05261874920178,101.301737670588,188.969390654974
0.59,0.714016860486288,0.0274203047951319,1.4238228361163,-1.37025989989915,0.526123318156323,-0.483493747907802,1.97235237157706,0.121283899394157,-2.27561203227889,110.436602455582,188.969390654974
0.6,0.641612477175297,-0.0280209592387594,2.23637523780691,1.40905393051277,0.632253072566353,0.11272886610841,2.40325463299881,-1.10053366706301,-1.43799835165459,117.9478229564,188.969390654974
0.61,0.574471172731553,-0.0410298205207487,2.88023588455831,2.05791623057712,0.263595920458528,0.512072031250636,3.25530044469825,1.39061028959141,-0.546689245986161,125.323232938162,188.969390654974
0.62,0.523913841470314,0.0198277708338082,2.86836838844264,-0.989202375933041,-0.184432966145684,0.490778294934815,-2.02200268389354,2.26220328412278,0.397296574046012,131.995358804401,188.969390654974
0.63,0.484677314736851,-0.0204894988296971,2.65038961580425,1.03444355874957,-0.480220309603226,0.0687049723629832,-2.41585195032081,1.50276343645054,1.38644161964355,137.861614816062,188.969390654974
0.64,0.495441490136245,0.0260590193572776,-0.0674073020319421,-1.30300171701779,-0.34731935713572,-0.354274761727556,1.02167363002357,-0.811504906105312,2.41865702943607,143.625631945845,188.969390654974
0.65,0.385690664046086,0.0108119287880511,3.59085978495713,-0.532980639694757,0.121304521065633,-0.366277762504723,1.72506440852295,-3.19413449058726,-2.79375444243103,148.482901807343,188.969390654974
0.66,0.390157746522331,0.0225231962957533,1.55357872315234,-1.12768798853225,0.38487990961426,-0.0678072025531194,1.67433653006786,0.939086914290627,-1.68751989577594,153.266230938011,188.969390654974
0.67,0.357794176176402,-0.00481215706810098,1.64875982647416,0.248826525631402,0.182620603460766,0.307716662780916,1.07270784597089,1.27656628595831,-0.549052885025579,157.287255475663,188.969390654974
0.68,0.290433387631485,0.00752805666906337,3.51942100624064,-0.378356586810258,-0.162272010824638,0.240989665320407,-2.3489646414886,2.64798848920967,0.618534167430637,161.235695142088,188.969390654974
0.69,0.290727974111275,0.0238343144211976,2.22695159271691,-1.18481472880934,-0.287967588682316,-0.0465349045692275,-1.8781059111887,-1.68398857604973,1.81280760354964,164.589004741107,188.969390654974
0.7,0.282742485253338,-0.0189748475934291,1.3408659736214,0.948655057719048,-0.0121058884502873,-0.283119771957483,-1.08980291975618,-1.22890096177133,3.03185026924139,167.928567398204,188.969390654974
0.71,0.220640547615832,-0.0320093465081509,3.36195116336006,1.60999860190865,0.213315406026576,-0.0648335335132211,2.35848002095953,-2.88658675838795,-2.00992673017908,170.755613047634,188.969390654974
0.72,0.251929291015795,-0.0220905344406443,0.751446408170566,1.10597356873693,0.155179961884274,0.19968860461526,1.32183116192148,-0.201523245484157,-0.748088557850926,173.466567466311,188.969390654974
0.73,0.197162361190444,-0.0238466328158926,2.54917715073578,1.20120305366334,-0.120615052594473,0.157777272300163,-0.258824936859635,2.80610095577888,0.53232945504317,175.894871910931,188.969390654974
0.74,0.211768308270404,-0.0395027847733547,0.953839291227471,1.97978526795818,-0.194562868690247,-0.0924747344931612,-1.4295281088315,1.66907414058639,1.8300670047443,178.105717604154,188.969390654974
0.75,0.153454915483174,-0.0432294081959173,3.09275198305732,2.15902257960842,0.0434233626928063,-0.153400144691478,-2.15511117207753,-3.09547882628045,-3.14032850972363,180.111957900841,188.969390654974
0.76,0.180401498216695,0.00670705724115751,1.02073631933354,-0.329855592142423,0.173514256781478,-0.0498245709388009,1.07007593169462,0.0751321880561237,-1.81326120021477,181.933862111921,188.969390654974
0.77,0.149994472945074,-0.0480442328399973,1.86737694236146,2.40084314611536,0.0256166776642976,0.155403912591343,2.98814392489115,0.56757408437,-0.473351328331328,183.629941284613,188.969390654974
0.78,0.0905743628072602,-0.0319254267894195,4.25293751066058,1.60465894944454,-0.0900887584430117,0.0332710636413157,-2.24814736251127,3.95072667367029,0.878139447043468,185.073999845631,188.969390654974
0.79,0.0959146418429476,-0.0193817091418158,3.46115899614314,0.9693112612972,-0.0632309044679398,-0.0746801304851908,-3.31647031120603,-1.38571663508422,2.23963594655234,186.387807854609,188.969390654974
0.8,0.0839220738409027,-0.0286177357242371,3.55777075522458,1.42756929998572,0.0634544214049677,-0.0619308136544401,0.334331770987682,-3.8188884665438,-2.67268158105787,187.616527479245,188.969390654974
0.81,0.0832170903689687,-0.0289585000094553,3.1144379125009,1.45330360374544,0.0720793899466474,0.0506778097118835,3.39364928726041,-0.543101639253068,-1.29288482701173,188.803817351092,188.969390654974
0.82,0.0626024436919223,0.00549737931663125,3.72318653111028,-0.280173143351495,-0.000461839115871851,0.062841656886036,-0.631854690453511,3.67986067478761,0.0949385694189828,189.830235298417,188.969390654974
0.83,0.0843717425246932,0.0445333089570685,2.24738445874405,-2.22166429614207,-0.0804938375545696,0.0512108256041377,-2.41969544779206,-2.03263451955611,1.48983499092713,190.761577045155,188.969390654974
0.84,0.0751933577075863,0.0345053853077638,2.34425838074355,-1.72718396108603,-0.0520538365229588,-0.0643044381191481,1.09275558004603,-2.69899926517172,2.89131267857607,191.616193073314,188.969390654974
0.85,0.0290815160118882,0.0365377179832868,4.32474328749086,-1.83501440426119,0.0119415630527148,-0.0451457470957558,4.69758427670157,-0.0581749931629933,-1.98446236971764,192.355351925449,188.969390654974
0.86,0.0870269449891622,-0.00840677244299057,1.13603552773676,0.426025740731582,0.0400378925376665,0.0777259939672511,0.973140520879217,0.724618643611216,-0.571967892610576,193.052601485804,188.969390654974
0.87,0.0804907343224726,-0.00192207879945913,1.19953041904164,0.0924203417578241,-0.0614938399509771,0.0519707643465614,-0.836094074947901,0.865078865545714,0.845256875666248,193.631731906162,188.969390654974
0.88,0.0792441042951704,0.00290636791252336,1.00752156616327,-0.138465867256675,-0.0626806746477154,-0.0485716796672098,-0.6844737940344,-0.752175596492857,2.26670786087052,194.211235756001,188.969390654974
0.89,0.0611215637248959,0.0326613317505386,1.68008022790488,-1.63275446184714,0.00414931859705041,-0.0691765227448982,2.2705078342302,-0.577365464483249,-2.59092128225244,194.723088658927,188.969390654974
0.9,0.0467449580362484,-0.00944956713636732,2.19789553891737,0.466764011673304,0.0391360905229799,0.0272534738969633,2.20231637608276,0.445439134140613,-1.16196956527776,195.140507367715,188.969390654974
0.91,0.0166176115739419,0.0112199464124995,3.50114430815749,-0.555491076444813,0.00637908726670625,0.0190089309948117,-1.46955912800442,3.22598477551465,0.270101592662655,195.600060963823,188.969390654974
0.92,0.0514620484585822,-0.0028681935537185,1.56032147055927,0.142017533110918,-0.0506120514284293,-0.00974624112266256,-1.56526897533335,-0.0685937756508851,1.70535868934692,195.995243659459,188.969390654974
0.93,0.0215199490453544,0.00527778427793577,2.87696241546606,-0.270596004782212,-0.00523892897951863,-0.0215294411666127,0.275788907716639,-2.87646926216653,-3.1397875043101,196.357840137541,188.969390654974
0.94,0.0497151191987394,0.0325653185385863,1.33057720432681,-1.62508641800137,0.0451258845817977,-0.0386748961107167,1.52808763355354,1.44093363720451,-1.69945686554266,196.633327839004,188.969390654974
0.95,0.0132906700391485,-0.0317061929733055,3.05110020215803,1.58204095952448,-0.0272748119086908,0.0209286697688971,2.3070513711574,2.54746540939473,-0.257565217030775,196.778838581257,188.969390654974
0.96,-0.00382085751226738,-0.0325515839591285,3.76697694712633,1.63499994448979,-0.00867899182626474,-0.0316050576847579,-2.87764231186052,2.92959295187111,1.18595099492527,197.040902408813,188.969390654974
