t,iq,id,vq,vd,ia,ib,va,vb,theta_e,omega,r
0,0,0,0,0,0,0,0,0,0,0,0
0.01,0.000444727923495871,0.000248473573653415,-0.0215834508860546,-0.0124305903082585,-0.000374190852452773,-0.00034569241918462,0.0185135344535458,0.0166617516966217,2.82613269881909,-0.00260088469147722,0
0.02,0.000546015079757293,0.000302229906077868,-0.0265691439124526,-0.0151199019773338,-0.000456728031442269,-0.000425293885148928,0.0226173941894504,0.0205665827040813,2.82611201383449,-0.00297739629045669,0
0.03,0.000584214970967653,0.000323064085744341,-0.0284585623360036,-0.0161621959585274,-0.000488396208943113,-0.000455133693424863,0.0241949594925534,0.0220388358038201,2.82609046325755,-0.00295273659676066,0
0.04,0.000573993727197596,0.000318018351521115,-0.0280116265977051,-0.0159097761975444,-0.000480436829476866,-0.000446973068146854,0.0238167490191271,0.0216918111153752,2.82607057316343,-0.00264834789899555,0
0.05,0.000586462749853621,0.000325979572059923,-0.0286546120307662,-0.0163080536622861,-0.000491882794537479,-0.000456346967563324,0.0243953029403203,0.0221790125870323,2.82605204237186,-0.00250094822913959,0
0.06,0.000587459468190179,0.000327449958628248,-0.0287418545859246,-0.0163816134881856,-0.000493597746520344,-0.000456829691243868,0.0244926871003523,0.0222386992452117,2.82603486282322,-0.00229888295199422,0
0.07,0.000595325503319703,0.000332983114375495,-0.0291560374660105,-0.0166584236697587,-0.000501306045222242,-0.00046258238010726,0.0248847182799052,0.0225461392706232,2.82601940043375,-0.00216017122113231,0
0.08,0.000586586963841034,0.000328741627523141,-0.0287682226419784,-0.0164462361557955,-0.000494568517633278,-0.000455584575222678,0.0245629690506236,0.0222429734767801,2.82600488135215,-0.00193006695273254,0
0.09,0.00058365515974763,0.000327955499629679,-0.0286568095471083,-0.0164069017845401,-0.000492917172576412,-0.000453035115875866,0.0244912867388944,0.0221489510690696,2.82599181689768,-0.00175355326841323,0
0.1,0.000582006235972221,0.000327808624224488,-0.0286044451774848,-0.0163995520398021,-0.000492271101084225,-0.000451507381848657,0.0244683088866217,0.022101164024702,2.82597995585124,-0.00159957126669347,0
0.11,0.000580712401961276,0.000327780116623591,-0.0285667382969618,-0.0163981290188333,-0.000491847255470948,-0.000450280996635551,0.0244554900687277,0.0220654974506302,2.82596916569645,-0.00146076867926426,0
0.12,0.000579576777337653,0.000327773621577647,-0.0285344357976813,-0.0163978001366247,-0.00049149298422262,-0.000449198657935628,0.0244453668280933,0.0220346526238251,2.82595934533523,-0.0013347007717667,0
0.13,0.000601359671649594,0.000340595012263536,-0.0296050909942639,-0.0170392312622894,-0.000510447170840701,-0.00046592070446164,0.0253876762543734,0.0228530678288836,2.82594999121855,-0.00135621278576774,0
0.14,0.000613907115191669,0.000348348536501861,-0.0302906551495934,-0.0174271242060252,-0.000521716879816981,-0.000475436795252513,0.0259694287221666,0.0233841232319736,2.82594124008279,-0.00132784038120962,0
0.15,0.000583968320048041,0.00033157471576696,-0.0288057362023635,-0.0165879622373377,-0.000496481366761312,-0.000452180321790424,0.0247109340496761,0.0222328735826041,2.82593314790112,-0.00104435020732501,0
0.16,0.000577305385247278,0.000328471365745388,-0.0285001370685758,-0.0164327067698576,-0.000491465896815444,-0.000446806689987449,0.0244686265460862,0.0219904065369401,2.8259264027032,-0.000921328541388133,0
0.17,0.000575421055888998,0.000327896614295849,-0.0284230647274339,-0.0164039594931246,-0.000490337231436608,-0.000445190948576195,0.0244175044379831,0.0219259201077867,2.82592038897521,-0.000836765799059649,0
0.18,0.000574554690060237,0.000327789625983809,-0.0283937379845552,-0.0163986088831153,-0.000489968982771732,-0.000444397937320207,0.0244034328785345,0.0218995706300334,2.82591494062884,-0.000765360374906509,0
0.19,0.000573938564260009,0.000327769217202602,-0.0283753363526469,-0.0163975862694528,-0.000489760498295857,-0.000443816166446696,0.0243968562187555,0.0218822749098754,2.82590998652289,-0.00070149469126132,0
0.2,0.000573412777750131,0.000327764877774277,-0.0283602676224671,-0.0163973637057043,-0.000489595133377604,-0.00044331550182965,0.0243920649214398,0.0218679099363284,2.82590547815358,-0.000643591127695028,0
0.21,0.000572941142781352,0.000327763561015617,-0.0283468816703991,-0.0163973031058973,-0.000489449270587971,-0.000442865573895898,0.0243879410651853,0.0218551042135087,2.82590137467033,-0.000590931604155097,0
0.22,0.000572513338216956,0.000327762849287356,-0.0283347650700167,-0.016397270047316,-0.000489317424611947,-0.000442457303906739,0.0243842293430567,0.0218435055776965,2.8258976395605,-0.000543008272722979,0
0.23,0.000572124299959916,0.000327762291325486,-0.0283237496402632,-0.0163972412604725,-0.000489197609733439,-0.000442086001645208,0.0243808561675533,0.0218329605682676,2.82589423972342,-0.000499388470216259,0
0.24,0.000571770186300792,0.000327761799934307,-0.0283137188569348,-0.0163972138436911,-0.000489088564325023,-0.000441748027369797,0.0243777832797478,0.0218233585799924,2.82589114505829,-0.000459684379727505,0
0.25,0.000571447970439241,0.000327761355586656,-0.0283045898271037,-0.0163971863476975,-0.000488989342755602,-0.00044144049633736,0.02437498417996,0.0218146205932719,2.82588832817118,-0.000423544215272035,0
0.26,0.000575424234145223,0.000330209388140309,-0.0285017040709503,-0.0165196624911063,-0.00049255205429207,-0.000444458955439392,0.0245526624560788,0.0219639056200383,2.82588587272531,-0.000418405964680081,0
0.27,0.000565288837590492,0.000324416403808543,-0.0280193708972209,-0.0162298450796182,-0.000483899591729803,-0.000436621870831281,0.0241274661282108,0.0215953327137249,2.82588326376988,-0.000324015560625297,0
0.28,0.000564676576681387,0.000324238890817975,-0.0279355787266381,-0.0162209670247793,-0.000483541677427277,-0.000436093958639989,0.0240930558849144,0.0215183872104199,2.82588113859443,-0.000294464780301112,0
0.29,0.000569212366323885,0.000327108623473547,-0.0282172383157975,-0.0163645343118005,-0.000487678693395755,-0.00043951366478712,0.0243170197103644,0.0217415057854409,2.82587934714057,-0.000300839110087574,0
0.3,0.00056150351623841,0.00032311005226862,-0.027848021154207,-0.0161645018763122,-0.000481484604278154,-0.000433426903258483,0.0240122541878684,0.0214526234277223,2.82587840208486,-0.000241645555785108,0
0.31,0.00056835365296846,0.000326899526254053,-0.0281813590285005,-0.0163540799408082,-0.000487214370976262,-0.000438761132989149,0.024295994470514,0.0217105868205432,2.82587691743695,-0.000266070377191909,0
0.32,0.000569607304779118,0.000327600246223365,-0.0282451369137297,-0.0163891335981695,-0.000488270372732362,-0.000439734517743537,0.0243491510900304,0.0217602918309672,2.82587541588482,-0.000255632891464271,0
0.33,0.000569736866416832,0.000327729677108086,-0.028254525696471,-0.0163956060894835,-0.000488434249570145,-0.000439816805111732,0.0243582492874441,0.0217671728303144,2.82587401862056,-0.000239498610829535,0
0.34,0.000569649422069124,0.000327753456228376,-0.0282531881269935,-0.0163967918509612,-0.000488430263916532,-0.000439725675192796,0.0243589889431183,0.0217655020620264,2.82587274058402,-0.000223465573224594,0
0.35,0.000569528001221317,0.000327757708046892,-0.0282499542030433,-0.0163970135503118,-0.000488397116258651,-0.00043960836683295,0.0243582208922447,0.0217623307760857,2.825871576007,-0.000208598159825297,0
0.36,0.000569409239424611,0.000327758361155104,-0.028246610390197,-0.0163970412420415,-0.00048836132730782,-0.000439494754507193,0.0243572320259057,0.021759117814493,2.82587051570747,-0.000195009712988589,0
0.37,0.000569299168749145,0.000327758360586126,-0.0282434673147931,-0.0163970490134368,-0.00048832757358226,-0.00043938965321436,0.0243562844773926,0.0217561041725571,2.82586955052857,-0.000182629691273571,0
0.38,0.000569198800514149,0.000327758249994057,-0.0282405939413935,-0.0163970373579913,-0.000488296689670473,-0.000439293851314551,0.0243554003158805,0.0217533550454922,2.82586867197413,-0.00017135861301475,0
0.39,0.000569107298071458,0.000327758128959632,-0.0282379672478554,-0.0163970377862128,-0.000488268513908035,-0.00043920651878513,0.0243546025162155,0.0217508385753422,2.8258678722767,-0.000161098764011979,0
0.4,0.000569024101091832,0.000327758015014231,-0.0282355767057955,-0.016397023161647,-0.000488242892122381,-0.000439127114081344,0.0243538621691827,0.0217485530074279,2.8258671443599,-0.000151759746653796,0
0.41,0.000568948198302224,0.000327757910592087,-0.0282333879396102,-0.0163970235323261,-0.000488219515483361,-0.000439054672003646,0.024353197304818,0.0217464561779796,2.82586648178084,-0.000143258982148054,0
0.42,0.000568879320409234,0.000327757815407294,-0.0282314019859727,-0.0163970103135599,-0.000488198302703992,-0.000438988933786234,0.0243525812015415,0.02174455780509,2.82586587867511,-0.000135521244030189,0
0.43,0.000568816456135634,0.000327757728737012,-0.0282295816192879,-0.0163970106357702,-0.000488178941454494,-0.000438928935749189,0.0243520282066613,0.0217428139487871,2.82586532970447,-0.000128478046005037,0
0.44,0.000568759179795222,0.000327757649837293,-0.0282279177306292,-0.0163970094812471,-0.000488161301000376,-0.0004388742711003,0.0243515213225703,0.0217412204949879,2.8258648300095,-0.000122067046651053,0
0.45,0.00056870714214652,0.000327757578015101,-0.0282264038478233,-0.0163970097617212,-0.000488145274197261,-0.000438824605911825,0.024351061404021,0.0217397702794669,2.82586437516719,-0.000116231499818863,0
0.46,0.000568659859295533,0.000327757512636233,-0.028225025831197,-0.0163969964665691,-0.000488130711968667,-0.000438779478435886,0.024350629879765,0.0217384544242481,2.82586396115172,-0.000110919752804293,0
0.47,0.000568616727418926,0.000327757453123178,-0.028223762632615,-0.0163969967137507,-0.000488117427891747,-0.000438738313082807,0.0243502460716711,0.0217372444118847,2.82586358429824,-0.00010608478923759,0
0.48,0.000568577437247927,0.000327757398949896,-0.0282226071107835,-0.0163969969460199,-0.000488105326907698,-0.000438700814403337,0.0243498949479337,0.0217361375824231,2.82586324127145,-0.000101683812944817,0
0.49,0.000568541639536573,0.000327757349637432,-0.0282215493960627,-0.0163969971647396,-0.000488094301456409,-0.000438666649078852,0.0243495735114424,0.021735124479647,2.82586292903476,-9.76778691432428e-05,0
0.5,0.000568509159661881,0.000327757304749624,-0.0282205875973758,-0.0163969973705896,-0.000488084298119548,-0.000438635649902449,0.0243492812358925,0.0217342032383913,2.82586264482444,-9.40314996398612e-05,0
0.51,1.70188925454617,-0.0482392095274185,1.79316889094384,2.41477352728226,-0.138061082280311,1.69696587874805,2.31669261705905,1.91820780354372,0.0528418939398462,16.1761907745264,357.032933722157
0.52,1.67421162583515,-0.00709580018456067,0.532812452165985,0.357482918032104,-0.399599748386998,1.62583977056501,0.222533676486557,0.601798893898331,0.236765196415819,33.9163893270367,357.032933722157
0.53,1.58941374442312,-0.0182816416377651,2.17094452395554,0.918482558278624,-0.844593077782814,1.34656333023867,-0.348650204027598,2.33132009196209,0.548693372118737,51.1142176040716,357.032933722157
0.54,1.58583648991217,-0.0043072597544177,-0.280864014181457,0.220844596619643,-1.32438204890845,0.872300472172633,0.356114211332159,0.0289758314028926,0.985650185304569,68.1056041521889,357.032933722157
0.55,1.48365159047669,0.0251917888167023,2.03834139041406,-1.25398957082406,-1.48269721032444,0.0588697769990631,-2.06628626833057,-1.2073883074302,1.54809060771616,85.3904860941201,357.032933722157
0.56,1.44514132887588,0.00868152703034031,1.00577782655531,-0.429864393739202,-1.13997325312532,-0.88823972636648,-0.52340848575677,-0.960424900985444,2.23871738295753,102.911878293314,357.032933722157
0.57,1.37910765643675,0.0316804095208888,1.65461937427458,-1.57973881405141,-0.15470685443778,-1.37076889575882,1.42567158511813,-1.78907812175212,3.05217448586635,118.684862533054,357.032933722157
0.58,1.36175676969502,-0.0226719542396056,0.186153696560859,1.14204035801101,1.02335699400106,-0.898685695974056,-0.629950335616751,-0.97060391134877,-2.30806878068635,132.9615217749,357.032933722157
0.59,1.24143009902015,-0.0416653012438623,3.86530748328799,2.0941257590037,1.17810322749069,0.393646381231871,4.30175365953305,-0.906024330566785,-1.28187353823083,147.065393423144,357.032933722157
0.6,1.22611806712814,-0.0335240484860469,2.03053582675299,1.6828286054895,0.149428199780515,1.21744017901304,1.96642943847328,1.75731133345427,-0.149463623475944,161.911073294766,357.032933722157
0.61,1.19395567895607,0.0235863135481714,1.33148290996037,-1.17233311704988,-1.04582074845939,0.576494093282905,-1.72408034095037,-0.418041451051055,1.08675682779591,175.0581124889,357.032933722157
0.62,1.12500847678461,0.00528903478383602,2.64372693331473,-0.253532942197972,-0.751038776951401,-0.837623305693864,-1.5660605209459,-2.14500011548902,2.41534345542525,187.456411090522,357.032933722157
0.63,1.08155763942704,0.0245066040173417,2.43571092144319,-1.22046776824343,0.674542128591178,-0.845789818926154,2.49814407124949,-1.0869707748784,-2.44570533293673,200.545210678427,357.032933722157
0.64,1.04041954208748,0.0103839042473131,2.39969843374466,-0.509999444701851,0.841781171485499,0.61154321871593,1.62341696252142,1.83933938475489,-0.932533865359647,212.053496323014,357.032933722157
0.65,0.995204055910565,-0.0231889914884191,2.59727035013705,1.17102754542318,-0.630856021463703,0.770058129240954,-0.675804284229169,2.76774409099873,0.663061545058937,223.468532509244,357.032933722157
0.66,0.961655525269516,0.0216585083523003,2.1603499977119,-1.07582187456881,-0.70395752539257,-0.655510673222492,-0.7967949071894,-2.27807433906174,2.34309124386788,234.541443085501,357.032933722157
0.67,0.913929261456539,-0.00992215002840396,2.65458425238392,0.509038550336029,0.753233357054753,-0.517691659028526,1.87838568759963,-1.94360618628203,-2.18379893498263,244.732351613396,357.032933722157
0.68,0.902952069211587,-0.00850197930379099,1.16645365190505,0.432430262887499,0.30215944271026,0.850937362046464,0.806772682326668,0.946957176093519,-0.350617704327625,255.118678634905,357.032933722157
0.69,0.819986380807451,0.0542567709451952,3.52376323417952,-2.7021392905572,-0.818919972935067,0.0684948160894716,-3.57017765464785,-2.64051047912737,1.55342170751748,264.424863662518,357.032933722157
0.7,0.812700915357979,-0.0018528645421536,1.98836037712716,0.0994352879154353,0.30749707898127,-0.752284359367317,0.655996104869798,-1.87966312838438,-2.7558449218231,273.862926484779,357.032933722157
0.71,0.761639261847509,-0.0283371501540048,2.84316427221818,1.43041700787217,0.479241676278511,0.59264219811302,2.94675861039365,1.20261780599605,-0.717183038280222,282.432800399486,357.032933722157
0.72,0.733750031467618,0.00686535693119916,2.45882478273236,-0.335823608174965,-0.719939042748329,0.141859143276502,-2.47861776482426,0.122681636295251,1.38560164694693,290.986558539604,357.032933722157
0.73,0.673571735666972,-0.0031892347669579,3.83222352963122,0.163851657340995,0.26882757184626,-0.617608930410709,1.36225363743413,-3.58567282026261,-2.73578898733365,298.970604116531,357.032933722157
0.74,0.705188835112729,-0.0182242701170265,0.65516843798488,0.922202849576077,0.332113472457602,0.622353644322181,1.12539905739792,0.114807401789544,-0.516034248228926,306.453059367531,357.032933722157
0.75,0.624559810647399,-0.00811686872456607,3.09921097493734,0.409171800836067,-0.612215918344704,-0.12382451275558,-3.12132532531729,-0.172795958588212,1.75736502846533,313.83119389307,357.032933722157
0.76,0.619630640355106,0.00584902157711226,1.90705412790929,-0.280436200211221,0.497216255010883,-0.369800401937641,1.70612986684291,-0.897006570004569,-2.20084074934929,320.462481116191,357.032933722157
0.77,0.555029169953975,-0.0262552896574257,3.62925203756071,1.31940497312674,-0.121829692111718,0.542129362656883,0.671999209351959,3.80272493060969,0.173782995497628,327.161114472909,357.032933722157
0.78,0.532105574788047,-0.00633332716071429,3.36883885680073,0.318428817127064,-0.271300437175324,-0.457790920117383,-2.02387771253987,-2.71189807318634,2.59470838526009,333.464758586263,357.032933722157
0.79,0.520156833932076,0.00727063977456954,2.60595964892022,-0.353140259376533,0.491349564204928,0.170855494042774,2.32855861279717,1.22210822817009,-1.22217104032434,339.282421968896,357.032933722157
0.8,0.535231138883157,0.0311835787168177,0.490454912277293,-1.55561358199499,-0.504994286236049,0.180070981784107,-0.907133424732369,-1.35557684665884,1.28646755489636,345.053187529801,357.032933722157
0.81,0.452181179902178,0.00716485794989766,3.3547492880021,-0.357889105135146,0.283628134852262,-0.352241729168188,2.42028091766057,-2.35046116252388,-2.44783990456632,350.471164528234,357.032933722157
0.82,0.459455631019592,-0.0143661778791109,1.77614714935357,0.729175230965801,-0.078203000322445,0.452979198951821,0.474752464954969,1.86037773331924,0.139698678959716,355.396519530064,357.032933722157
0.83,0.437257117291433,-0.0210473330390665,1.66130078468618,1.05721185015782,-0.141977853281939,-0.414100309137199,-1.59615854535775,-1.15321077492125,2.7631962043731,360.250640561873,357.032933722157
0.84,0.371170410264118,0.0164633656234359,3.81675755236027,-0.824533853837328,0.292682181392154,0.228857284259896,2.36339529006395,3.10835277800422,-0.862844334921648,364.781929986025,357.032933722157
0.85,0.358023738679251,0.0291557048717684,3.38425289929119,-1.44862533623854,-0.353746725405657,-0.0624043816507551,-2.90744705943854,-2.25797135670832,1.82666536473369,368.922965691167,357.032933722157
0.86,0.342497428383872,0.0212700675804771,3.0693041630412,-1.05869531978564,0.334277339747063,-0.0775600693402872,3.20203135093247,0.537083841726458,-1.73676213311092,372.967738283967,357.032933722157
0.87,0.321929907695838,0.00829405556274054,3.03650377500156,-0.415404479920255,-0.268468460377263,0.177854835777357,-2.79418173494947,1.25915229007906,1.01145602279375,376.857638615036,357.032933722157
0.88,0.274388165400742,0.0539728519428604,4.43126703737992,-2.69672923774326,0.121865059327263,-0.251695930388224,4.81927830283271,-1.91912291896977,-2.49646148300612,380.342137339843,357.032933722157
0.89,0.324125305648384,-0.00670205263815779,0.977869662603935,0.344319392479707,-0.103426423134647,0.307254139547046,0.0357886180812577,1.03610042751394,0.304026943751813,383.641032111695,357.032933722157
0.9,0.28436846025265,-0.0245086348790659,2.02200189351605,1.22935984393024,0.0207385862270532,-0.284668237447386,-1.25604355564329,-2.00553530748717,3.12834221295275,386.820004851623,357.032933722157
0.91,0.280969457032329,-0.0250295064256403,1.29761114514983,1.25057285542806,0.0615079616433789,0.275294537961489,1.58566722788667,0.856379935050301,-0.308663926988332,389.742363538048,357.032933722157
0.92,0.25026846841834,0.00179632463714374,1.9737571827752,-0.0834578898327471,-0.139333664275443,-0.207903013605483,-1.01737853243247,-1.6934059045833,2.55833509423296,392.471827776848,357.032933722157
0.93,0.231186092042733,-0.00515646469869301,2.10649892000233,0.265722417180802,0.168471985501292,0.158400720905658,1.74413568430615,1.21075877766519,-0.838500079603817,394.930642240293,357.032933722157
0.94,0.221340137580086,0.00569551509621426,1.79428348745616,-0.282300021373087,-0.197502485036747,-0.100083284321071,-1.44508167018727,-1.10040242725735,2.06555119234714,397.318912677609,357.032933722157
0.95,0.199533555127714,0.0253291447014253,2.12540003155692,-1.26987279954581,0.198956010898603,0.0295247509815925,1.70324442706604,1.79690306996147,-1.29720667420572,399.480970764442,357.032933722157
0.96,0.189193158952083,0.00173784231515096,1.90492068619493,-0.0895063275850738,-0.188875249895379,-0.0111000660871228,-1.89446115602296,-0.218520323291165,1.63868339308745,401.529575127654,357.032933722157
0.97,0.135863766874525,0.028755790748362,3.86164574611415,-1.43153293358605,0.131289532970178,-0.0452649664019698,4.00851881333037,0.945183226469584,-1.69423263448724,403.367639181584,357.032933722157
