t,iq,id,vq,vd,ia,ib,va,vb,theta_e,omega,r
0,0,0,0,0,0,0,0,0,0,0,0
0.01,0.000749568595727192,0.000415436327213695,-0.0369937823269912,-0.0207970425253698,-0.000240268632991108,0.000822624705239165,0.0116513217375637,-0.0408081316703745,0.790258967327729,-0.00148544541382325,0
0.02,0.000829390742618202,0.000461007711293266,-0.0410442440829994,-0.0230783849224037,-0.000264908651160034,0.00091117535104567,0.0129235476281026,-0.0452793964146567,0.79024839667926,-0.00144360795926341,0
0.03,0.000858392652670594,0.000478916082024501,-0.042523899495009,-0.0239748802840648,-0.000272904530542808,0.000944310159317248,0.0133435895345277,-0.0469576993817937,0.79023862271596,-0.00130539542288603,0
0.04,0.000835431215722513,0.000468714019579845,-0.0414448555767359,-0.0234641735674901,-0.000263761461139581,0.00092090609726063,0.0129359082971948,-0.0458356386615084,0.790230559038695,-0.00108721085056942,0
0.05,0.000851620546778326,0.000479227316630255,-0.0422810460273038,-0.0239904774119681,-0.00026785944872021,0.00093977002103225,0.0131593471456564,-0.0467980922935673,0.790223354349067,-0.00097380405931579,0
0.06,0.000849517606288385,0.000479657226709595,-0.0422143274783965,-0.0240119998138926,-0.000266056918461161,0.000938597322959978,0.0130965065564947,-0.046766516820599,0.790217124768374,-0.000839978944803094,0
0.07,0.000869923252792378,0.0004925337345963,-0.0432456297432541,-0.0246566100048608,-0.000271489155817119,0.000962106846321113,0.0133753967121537,-0.0479503041868864,0.790211912270077,-0.000777240706607828,0
0.08,0.000845837229413724,0.000480200624502172,-0.0420914218880468,-0.0240391948453259,-0.000263050371560898,0.000936396155724827,0.0129895840437836,-0.0466994795660355,0.790207265048439,-0.000627388396458378,0
0.09,0.000842893289350893,0.000479692211106745,-0.0419695983196148,-0.0240137373439185,-0.000261312868198372,0.000933964292434773,0.0129207629932878,-0.0465957149103199,0.790203404079407,-0.000540801495504563,0
0.1,0.000841231914228736,0.000479670104026041,-0.04190731569999,-0.0240126349748577,-0.000260144959256772,0.000932780329116448,0.0128771342099896,-0.0465511456588589,0.790200118597871,-0.000468995530349249,0
0.11,0.000839857096014098,0.000479668165804822,-0.0418562461890815,-0.0240125320282992,-0.000259166914228584,0.000931812213689556,0.0128407918424844,-0.0465151706898844,0.790197318981478,-0.000407898935474603,0
0.12,0.000838687405436483,0.000479667208147505,-0.0418128170386466,-0.0240124911214574,-0.00025833431103284,0.000930989032348389,0.0128098536563892,-0.0464846108714196,0.79019493319345,-0.000355837767479911,0
0.13,0.000878887098646884,0.000502495942236137,-0.0437982734410055,-0.0251553206688368,-0.000270828778293598,0.000975498066107626,0.0134161699637093,-0.0486937911634529,0.790192580330888,-0.000396357231205699,0
0.14,0.000918053791218075,0.000526035562591168,-0.0458092811068314,-0.0263337297877054,-0.000282089212193293,0.00101978519946342,0.014015610380884,-0.0509462287682596,0.790190587998757,-0.000442056100554938,0
0.15,0.000839622849397842,0.000481571061915882,-0.041894383242194,-0.0241077980670959,-0.000257653482043201,0.000933001554177031,0.012800452858311,-0.0466098024186957,0.790188825910231,-0.000231297462944849,0
0.16,0.000835320068443262,0.000479742759649258,-0.0416900424393491,-0.024016274836964,-0.000255881946033182,0.000928674949524436,0.0127196241820067,-0.0464009941305984,0.790187677604829,-0.000197932345208255,0
0.17,0.000834668427078462,0.000479667245631052,-0.0416636913928115,-0.0240124933342705,-0.00025547121204322,0.000928162975726829,0.0127035186422462,-0.0463797760959443,0.790186716068094,-0.000176549852565448,0
0.18,0.000834258466589287,0.000479663839173101,-0.041648358171163,-0.0240123185973419,-0.000255181579018681,0.000927872269989636,0.0126927096307499,-0.0463688721558245,0.790185897479584,-0.000158667901952795,0
0.19,0.000833915972707193,0.00047966344158301,-0.0416356259065257,-0.0240123120521074,-0.00025493787527891,0.000927631147857658,0.0126836358266655,-0.0463599164897054,0.790185199928004,-0.000143445511200024,0
0.2,0.00083362469775394,0.000479663205709461,-0.0416248029584026,-0.0240122913553114,-0.000254730543883501,0.000927426157507777,0.0126759333102151,-0.0463522930627297,0.790184605485053,-0.00013047396495911,0
0.21,0.000833376151042023,0.00047966300890099,-0.0416155614178312,-0.0240122919131706,-0.000254553624394511,0.000927251240787084,0.0126693434806642,-0.0463457964740445,0.790184098908015,-0.000119419808926441,0
0.22,0.000833164737000413,0.000479662841331966,-0.0416077035724939,-0.0240122725357666,-0.000254403136038075,0.000927102456425187,0.0126637542475389,-0.0463402584937373,0.790183667209192,-0.000109999593274286,0
0.23,0.000832984293250585,0.000479662698521372,-0.0416009911950601,-0.0240122715117641,-0.00025427469337997,0.000926975467561846,0.0126589688949137,-0.0463355388237123,0.790183299320837,-0.000101971800017861,0
0.24,0.000832830854039008,0.000479662576806894,-0.0415952855894018,-0.0240122520345119,-0.000254165472610014,0.00092686748327973,0.012654914344272,-0.0463315138320771,0.790182985810873,-9.51306121280444e-05,0
0.25,0.000832699770386733,0.000479662473073744,-0.0415904050610549,-0.0240122523727413,-0.000254072165420045,0.00092677523188533,0.0126514342010006,-0.0463280829498976,0.790182718641411,-8.93006349130294e-05,0
0.26,0.000841467491331271,0.00048452927322927,-0.0420215694750355,-0.024255891721223,-0.000256876447492295,0.000936403036254777,0.0127863068174708,-0.0468046038580227,0.790182524368557,-0.000104749613879054,0
0.27,0.000813372357315833,0.000468703303876498,-0.0406454804541784,-0.0234636377735744,-0.00024805204951603,0.000905388071183378,0.0123661271663864,-0.0452733506361664,0.790182192096573,-3.54504987072859e-05,0
0.28,0.000810944333886406,0.000467043654345121,-0.0404539113425788,-0.0233805578662131,-0.000247494752136445,0.000902500324316524,0.0122884778456858,-0.045079515761426,0.790182022126874,-2.65330563207242e-05,0
0.29,0.00083131231211362,0.000479143456916508,-0.0415265303742794,-0.0239862833411023,-0.000253450971464797,0.000925430287834338,0.0126242937230249,-0.046264691952291,0.790181994944044,-7.12151032002882e-05,0
0.3,0.000826331207211182,0.000476590372533014,-0.0412801604380494,-0.0238584684950992,-0.000251708959951703,0.000920110996935847,0.0125392140431698,-0.0460005029961881,0.790182347366263,-6.74561850374878e-05,0
0.31,0.000832148422439136,0.000479535987839592,-0.0415663170365203,-0.0240059300729067,-0.000253768974450783,0.000926297505236538,0.0126387453074946,-0.0463066464743247,0.790182202747223,-7.73804947593473e-05,0
0.32,0.000832358789704095,0.000479657023023774,-0.0415774992045146,-0.0240119931414515,-0.000253833123082025,0.000926531575371353,0.0126424164026552,-0.0463188251386885,0.790182052683512,-7.47365524784847e-05,0
0.33,0.000832309309570638,0.000479661950882778,-0.0415758142195833,-0.0240122222975834,-0.000253794380873254,0.000926500289346844,0.0126410520082422,-0.0463178038319476,0.790181923507878,-7.19481782468562e-05,0
0.34,0.000832255933153748,0.000479662112745825,-0.0415738266253094,-0.0240122326696554,-0.000253756241976663,0.000926462870454767,0.0126396274591855,-0.0463164138912541,0.790181813363639,-6.95461536096361e-05,0
0.35,0.000832209949101663,0.000479662084700644,-0.0415721064292939,-0.0240122328412702,-0.000253723503945906,0.000926430514625124,0.0126384008239934,-0.0463152046697842,0.790181719497173,-6.74979331829555e-05,0
0.36,0.000832170717138238,0.000479662053976698,-0.0415706362312021,-0.0240122329994508,-0.000253695577890976,0.000926402904921006,0.0126373524598636,-0.046314171190814,0.790181639505127,-6.57524046292524e-05,0
0.37,0.0008321373059409,0.000479662027513074,-0.0415693823896038,-0.024012233146013,-0.000253671795339717,0.000926379391408108,0.0126364583688622,-0.0463132898076092,0.790181571336859,-6.42648835078498e-05,0
0.38,0.000832108784187076,0.00047966200494899,-0.0415683093746198,-0.0240122332828139,-0.000253651493238355,0.000926359318888158,0.0126356932253757,-0.0463125355406781,0.790181513244693,-6.29972359376922e-05,0
0.39,0.000832084511592494,0.000479661985719594,-0.0415673945795106,-0.0240122334111368,-0.000253634215693809,0.000926342236760243,0.0126350408978267,-0.0463118925010616,0.790181463739361,-6.19169620708524e-05,0
0.4,0.000832063847872886,0.000479661969331924,-0.0415666140141785,-0.0240122335322517,-0.000253619506966586,0.000926327694418362,0.0126344842820007,-0.0463113438235058,0.79018142155162,-6.09963658045122e-05,0
0.41,0.000832046210951643,0.000479661955366663,-0.0415659454122115,-0.024012233647322,-0.000253606952794657,0.000926315282222724,0.012634007507092,-0.0463108738532893,0.790181385599614,-6.02118448494156e-05,0
0.42,0.00083203119337514,0.000479661943465525,-0.0415653741942673,-0.0240122337571646,-0.000253596263088127,0.000926304713421087,0.0126336001714915,-0.0463104723429276,0.790181354961894,-5.95432856220552e-05,0
0.43,0.000832018387689749,0.000479661933323237,-0.0415648849652771,-0.0240122338625978,-0.000253587147845618,0.000926295701264321,0.0126332513003196,-0.0463101284691781,0.790181328852695,-5.89735475692964e-05,0
0.44,0.000832007502857167,0.0004796619246802,-0.0415644674123312,-0.0240122339641984,-0.000253579399852709,0.000926288040929425,0.0126329535350536,-0.0463098349835467,0.79018130660299,-5.84880237223599e-05,0
0.45,0.000831998189631428,0.000479661917314621,-0.041564107661421,-0.024012234062665,-0.000253572770603947,0.000926281486633599,0.012632696991541,-0.046309582130379,0.790181287641915,-5.80742661979054e-05,0
0.46,0.000831990215181889,0.000479661911037881,-0.041563797143006,-0.0240122341584655,-0.000253567094360225,0.000926275874519374,0.0126324755584555,-0.046309363885622,0.790181271483655,-5.77216670622811e-05,0
0.47,0.000831983463093228,0.000479661905688557,-0.0415635326640631,-0.0240122342518315,-0.000253562288140304,0.000926271122653855,0.0126322869478564,-0.0463091780076961,0.790181257713764,-5.74211863620526e-05,0
0.48,0.000831977758742464,0.000479661901130203,-0.0415633076948431,-0.0240122343431109,-0.000253558227646969,0.000926267108144569,0.0126321265038919,-0.0463090199062164,0.790181245979338,-5.71651203591883e-05,0
0.49,0.00083197281109129,0.00047966189724564,-0.0415631096122572,-0.0240122344328817,-0.000253554705906546,0.000926263626176196,0.0126319852437445,-0.0463088807023231,0.790181235979223,-5.69469040217204e-05,0
0.5,0.000831968678347368,0.000479661893935259,-0.0415629429576962,-0.0240122345210284,-0.000253551764107479,0.000926260717704584,0.0126318663822143,-0.0463087635950201,0.790181227457503,-5.67609427102537e-05,0
0.51,0.948995556857714,0.0179433546386857,0.956389011820571,-0.897907615076835,-0.00100182944971933,0.949164647070847,-0.916817920028127,0.938276573649474,0.0199609653616574,6.08189314494322,159.194240695192
0.52,0.891108681082867,0.0233004105829869,2.44934314132161,-1.16565582704576,-0.0558304883162503,0.889663165028738,-1.37831200586334,2.33629864220264,0.0888141590430293,12.6758837693487,159.194240695192
0.53,0.890070282606965,-0.0667421527098052,1.12141447042416,3.34296495911999,-0.246907058663047,0.857739195391434,3.04390907302225,1.77977602173803,0.205435234864114,19.107824014052,159.194240695192
0.54,0.82908445959727,0.0223853826591774,2.83329853223555,-1.11824177710375,-0.277612572666965,0.781545523945806,-2.0633301525142,2.24069496508427,0.368302007072942,25.3139705070204,159.194240695192
0.55,0.823531856015714,0.0562903464684208,1.78617412058396,-2.81449723771594,-0.401494108573506,0.721232141379589,-3.33324755881095,-0.0356847563450047,0.576202067377754,31.4086909973249,159.194240695192
0.56,0.77224297640026,-0.0210960429701675,3.00469537391269,1.06070426682789,-0.583453440945684,0.50634606730691,-1.49782535420594,2.81243791753295,0.828723084121074,37.5020523258905,159.194240695192
0.57,0.711907944108933,0.0218683116725637,4.608528441948,-1.09277880293841,-0.633330513378662,0.325858258702056,-4.63061613377423,0.995034740109605,1.12631223533142,43.7097987306732,159.194240695192
0.58,0.741818549418108,-0.0405922102867041,1.74758795189879,2.03084567545564,-0.74209252825608,0.0352302044167377,-1.53148928725532,2.19839449830117,1.46869245762404,49.6244436687971,159.194240695192
0.59,0.687515263569759,0.00181107365435496,3.25416980536336,-0.0909973200035797,-0.660944429427965,-0.189296008508682,-3.10073706384101,-0.991630624430824,1.85236618842792,54.9679512792856,159.194240695192
0.6,0.673907084139213,0.0445430913346104,2.82284953709113,-2.22741567960366,-0.542946815250524,-0.401675989882359,-0.713712508911904,-3.52426936731892,2.27374287826634,59.9460684693197,159.194240695192
0.61,0.686174334198938,-0.00481220457916273,1.13718051507097,0.247137687511118,-0.269616708080677,-0.631003331964267,-0.680715706468357,-0.94386582066134,2.73077728340838,64.7454322678443,159.194240695192
0.62,0.581884943825325,-0.00198663556672228,5.24418864501869,0.106868770512604,0.0493692352489796,-0.579790232051565,0.320577359868067,-5.23547186364265,-3.06006151570095,69.6249218199393,159.194240695192
0.63,0.590812572514665,-0.0340640176831556,3.6555376195247,1.70266674549306,0.366364257207669,-0.464754864614441,0.698435373723274,-3.97167689555687,-2.53162179870419,74.4816537126299,159.194240695192
0.64,0.593175235835772,-0.0565600458514071,2.5319381687087,2.83242312982631,0.568630635020965,-0.178087338435923,1.23419718174589,-3.5930612286892,-1.96937025535198,78.8392921293595,159.194240695192
0.65,0.5400193255987,-0.0124991682418666,4.27096918216064,0.632390720480196,0.52744921428091,0.116509345467492,4.31271276982574,0.203971427649433,-1.37653694773138,82.8853326970934,159.194240695192
0.66,0.524960723706179,0.0366326039904913,4.04851132505388,-1.82490092588812,0.38597719949917,0.357697233112052,1.44007743988728,4.20081948023532,-0.753738524734611,87.0925637448451,159.194240695192
0.67,0.512305676480217,0.00740875104572683,3.67401952274737,-0.373861152748978,0.0583407117359789,0.509026872669852,-0.00648221864690185,3.69298654152774,-0.0996537393701225,91.2629491020749,159.194240695192
0.68,0.508916637687215,0.0229242192935159,2.98508859218994,-1.14366095470417,-0.260978201829729,0.437506619509692,-2.59787886753292,1.86272372405659,0.582865981008781,94.9422256495462,159.194240695192
0.69,0.474498646413742,-0.0126560667763218,3.86100969334142,0.643625895348431,-0.459657253670025,0.118424451120746,-3.53476281905217,1.68139881000488,1.29197727401168,98.5418280259565,159.194240695192
0.7,0.510103037081969,0.0400222888286072,1.18828719678158,-2.0077871516695,-0.475390560014182,-0.189237172597594,-0.180073660956949,-2.32611461133662,2.02793381650445,102.232482643628,159.194240695192
0.71,0.424721724033606,0.00805229175241556,4.6626416297401,-0.400136926609846,-0.15397458173172,-0.395910609164602,-1.23176095576917,-4.51476483056037,2.7896375737367,105.52906788844,159.194240695192
0.72,0.425404645425363,0.00576532998511043,3.87719402347349,-0.277927975840744,0.173295725099658,-0.38854979480306,1.87940389203301,-3.40260465908467,-2.7085129536692,108.694869232776,159.194240695192
0.73,0.400043174503717,-0.0396938433159162,4.33873610337582,1.98246947698362,0.391422367054578,-0.0916442755091169,3.46586666725912,-3.27758820578343,-1.89968518345858,111.948861177612,159.194240695192
0.74,0.423657758408381,0.0109363851896774,2.45471252171504,-0.541819456248631,0.37657127926239,0.19442112131998,1.89047085248482,1.65689524211385,-1.06839096099032,114.837940740013,159.194240695192
0.75,0.390868067575189,-0.0107761337260549,3.38963119557804,0.550342284969199,0.0733004564599847,0.384084644825593,1.2644800929347,3.19273650137821,-0.216139697211076,117.732143164515,159.194240695192
0.76,0.326394313502706,-0.0143457235654458,5.90281665898428,0.715396541012584,-0.210802680098346,0.249602239042188,-3.04068507345193,5.1097231827724,0.657400275070836,120.538672680161,159.194240695192
0.77,0.341150454954142,-0.0218266787863611,4.53623268228382,1.10256080103721,-0.341525525315289,-0.0148442709614497,-4.51273207573847,1.19511358472945,1.55034104621975,123.080864067081,159.194240695192
0.78,0.326033653411133,0.0186516440446716,4.61383651468281,-0.940538252053082,-0.219355033051177,-0.241928081167311,-2.16712120925208,-4.18039295428137,2.46223626974627,125.755509549712,159.194240695192
0.79,0.292140991709442,-0.00546209204346874,5.70241395520236,0.277565178888605,0.0779464979633555,-0.281603510172931,1.14935717686746,-5.59227551404626,-2.89025282201475,128.132839807469,159.194240695192
0.8,0.280198242264461,0.0677451740947396,5.70854720033619,-3.38343741223003,0.236436215344102,-0.164919312559135,6.54772950690662,1.07814570690997,-1.9426333878599,130.468243854545,159.194240695192
0.81,0.266739783394403,-0.0195893351446075,5.80300656709534,0.978923760350339,0.210274311520029,0.165283296226445,5.35965951726458,2.43047871937307,-0.977936125836778,132.693149991027,159.194240695192
0.82,0.238905963093024,0.0352665613787154,6.65868009346818,-1.75409582332382,0.0346941334858217,0.238989762656378,-1.77004242351632,6.65445884828391,0.0023956172373515,134.777125298132,159.194240695192
0.83,0.235750600561244,-0.0360166073929595,6.26131370475255,1.79703860338241,-0.217668367144457,0.0974475429025874,-4.28926837099047,4.90260888639808,0.998264638239178,136.893603956929,159.194240695192
0.84,0.238666764281807,0.0265710783629511,5.61428138221637,-1.32060744997005,-0.227408934388443,-0.0771558367100666,-4.52430296343068,-3.57698786281281,2.0087661111281,138.786584329468,159.194240695192
0.85,0.232894863872569,-0.0589122136629694,5.4049593415594,2.94116753559383,0.0333079554652894,-0.237910165061554,-3.50997407772091,-5.05412049026025,3.03293170572329,140.674139326775,159.194240695192
0.86,0.216272725507249,0.0183285162010077,5.76074108942591,-0.910738159737852,0.162276169526404,-0.144139762412398,5.15985067176608,-2.71873554066552,-2.21252939230857,142.434555338757,159.194240695192
0.87,0.24404035341972,0.00195584815900439,3.89527062675404,-0.106414313452793,0.224715242414979,0.0951975801458214,3.53210996356731,1.64579964364713,-1.16206686354058,144.201252304976,159.194240695192
0.88,0.201951680615583,0.0496341835949733,5.55442091774386,-2.48058314884341,0.069363776042629,0.196052799158048,-1.9190922382386,5.77251846865203,-0.0990614761711694,145.814667460689,159.194240695192
0.89,0.217947596080716,0.0249689327770111,4.31536869435353,-1.25756292394991,-0.166473906971951,0.142867212959728,-4.27841196716882,1.37806477173121,0.975629987446151,147.427724743302,159.194240695192
0.9,0.166546499605532,-0.00918827132750931,6.4526067707419,0.462003487067264,-0.142527151657423,-0.0866497080275827,-5.90779590694841,-2.63581654933156,2.06192905460555,148.949570083739,159.194240695192
0.91,0.17978751636364,0.011193249688803,5.37720628882715,-0.559799045503328,-0.00805963931371027,-0.179955222466409,0.653385434314434,-5.36663860513957,-3.12417169808506,150.422550766546,159.194240695192
0.92,0.165775175266031,0.00964171897557503,5.67849989745127,-0.481811029519209,0.14542634335398,-0.0801595293023703,5.3315246317604,-2.01304447403741,-2.01646719795332,151.79972148877,159.194240695192
0.93,0.124644014417714,0.00947313251397085,7.36503840256936,-0.470049335090302,0.103459484290557,0.0701570073486781,5.47237798766374,4.95154685011398,-0.89905688751317,153.105692972826,159.194240695192
0.94,0.163234121570693,-0.0259143891450104,5.0692481381905,1.29787263378915,-0.0621133940124187,0.153162855464283,0.119375116731816,5.23139557303707,0.227829544235385,154.335017390426,159.194240695192
0.95,0.0809337741886309,-0.0263537560983402,8.82805838360921,1.32318034580291,-0.0846237060731936,-0.00914465064093999,-8.36718655206291,3.11056429846894,1.36364744369185,155.542749147637,159.194240695192
0.96,0.160306211650818,0.0182614213685817,4.50639733049555,-0.913434264978614,-0.109601675273093,-0.118402000749858,-1.93101054858935,-4.1729099340833,2.50819955173366,156.717055801878,159.194240695192
