t,iq,id,vq,vd,ia,ib,va,vb,theta_e,omega,r
0,0,0,0,0,0,0,0,0,0,0,0
0.01,0.000576841671875285,0.0003280382336532,-0.0283785527424489,-0.0164157754921455,-0.000247990354971442,-0.000615512941367867,0.0124752155306921,0.0303181288708135,-3.00752524944583,-0.00182293413966199,0
0.02,0.000661586050914175,0.000375394534130013,-0.0325959537838236,-0.0187855951573592,-0.000283604167829999,-0.000705822807089964,0.0142605351058849,0.0348142489074112,-3.00753930705732,-0.00201423100106034,0
0.03,0.000694252341683696,0.000393887140653814,-0.034211683504594,-0.0197109996564543,-0.000297575761480405,-0.000740663256605247,0.0149622250461704,0.036538946582284,-3.00755391455004,-0.00203245254777083,0
0.04,0.000678519434398026,0.00038519796682925,-0.033456381382154,-0.0192761753208131,-0.000291077036599576,-0.000723906247569127,0.0146327313995308,0.0357321082777948,-3.00756772727111,-0.00189771594699118,0
0.05,0.000695102608926247,0.000394840051476946,-0.0342833010795496,-0.0197586856518247,-0.000298426765352103,-0.00074162508648769,0.0150009131918423,0.0366158844630235,-3.00758124385337,-0.00187010491740281,0
0.06,0.000696374735983425,0.000395779358033043,-0.0343599343264699,-0.0198056864529585,-0.000299197395486318,-0.000743007396797122,0.015037733405961,0.0366979137936133,-3.0075943193497,-0.0017952512725925,0
0.07,0.000711267156738618,0.000404587780879618,-0.0351027637459184,-0.020246486029664,-0.000305946645791654,-0.000758939319459051,0.0153758047045076,0.0374927839569161,-3.00760668169534,-0.00176910305290414,0
0.08,0.000697238209008866,0.000396727260313714,-0.0344290205651962,-0.0198531324475277,-0.000300039648219755,-0.000743982424976613,0.0150764241618733,0.0367723504762622,-3.00761878994811,-0.00165021874425706,0
0.09,0.000695439484557139,0.000395958176077664,-0.0343534838713851,-0.0198146433769229,-0.000299526214501457,-0.000742093660335592,0.0150487898118071,0.0366921772515097,-3.00763023979313,-0.00157517747788022,0
0.1,0.00069490516387258,0.000395881447993585,-0.0343392974477785,-0.0198107980033653,-0.000299529645329555,-0.000741550604619149,0.0150472746095089,0.0366774398447217,-3.00764117155668,-0.00150738755705043,0
0.11,0.000694515185711246,0.000395872381506354,-0.0343316479120688,-0.0198103506721883,-0.00029958048571985,-0.000741159779129236,0.0150482360125095,0.0366696418720601,-3.0076516194633,-0.0014429920837374,0
0.12,0.000694154835445693,0.00039586998949164,-0.0343249424234991,-0.0198102336815581,-0.000299633634688053,-0.000740799344705687,0.015049381663332,0.03666283052965,-3.00766160603103,-0.00138148027269819,0
0.13,0.000724735401488002,0.000413485628708833,-0.0358333155363362,-0.0206917440495237,-0.000313015701732797,-0.00077345519442786,0.015721961083273,0.0382752493634422,-3.00767147872363,-0.00142151021588629,0
0.14,0.000746937760233485,0.000426534827011708,-0.0369854206340951,-0.0213447716841407,-0.00032299115751893,-0.000797198023380079,0.0162156869453531,0.0395040771898211,-3.00768099542855,-0.00143638257174442,0
0.15,0.000698586003642703,0.000398859003450865,-0.0345732339980045,-0.0199598058508501,-0.000302025481474917,-0.000745581328668539,0.0151655146635037,0.0369284378721258,-3.00769017269187,-0.00122332827280834,0
0.16,0.000693385615248909,0.000396155977944168,-0.0343276901315017,-0.0198245446963464,-0.000300047086131616,-0.000740064129923167,0.0150645506725212,0.0366669087218554,-3.00769850711601,-0.00115602216353519,0
0.17,0.000692600977628827,0.000395890906708817,-0.0342979382010416,-0.019811265059169,-0.000299894988378618,-0.00073924875392017,0.0150556518324844,0.0366355310591525,-3.00770642895811,-0.00110560147952074,0
0.18,0.000692277850430058,0.000395863886566632,-0.0342903974817525,-0.0198099271966206,-0.000299916935065675,-0.000738922642057011,0.0150556097120373,0.0366277653043534,-3.00771399654384,-0.00105882654268437,0
0.19,0.000692012771669368,0.000395860155779668,-0.0342853320996452,-0.0198097367903206,-0.00029995396289438,-0.000738657267771313,0.0150563620260864,0.0366226109312835,-3.00772122960415,-0.00101426133105195,0
0.2,0.000691763874743529,0.000395858746625051,-0.0342807082671403,-0.019809658432666,-0.000299990892254211,-0.000738408335708813,0.0150571546877077,0.0366179139114466,-3.00772814332473,-0.000971678172776955,0
0.21,0.000691526314008383,0.000395857610079628,-0.034276304135095,-0.0198096082189767,-0.000300026350158536,-0.000738170765903475,0.0150579346820085,0.0366134429692599,-3.00773475184419,-0.000930976293243937,0
0.22,0.000691299230652328,0.000395856544097885,-0.03427209249336,-0.0198095594654672,-0.000300060261366252,-0.000737943676275119,0.0150586796970339,0.0366091673747361,-3.0077410686403,-0.000892071291013333,0
0.23,0.000691082275427877,0.00039585552702858,-0.0342680705607222,-0.0198095107158872,-0.000300092660921375,-0.000737726714001042,0.0150593891394465,0.0366050839843895,-3.00774710659063,-0.000854883707362946,0
0.24,0.00069087486625842,0.000395854554914513,-0.0342642231855332,-0.0198094619696467,-0.000300123632016529,-0.00073751929803861,0.0150600654878638,0.0366011775976698,-3.00775287800452,-0.000819337715344641,0
0.25,0.000690676653896263,0.000395853625606485,-0.0342605463098348,-0.0198094117705844,-0.00030015322812877,-0.000737321078490922,0.0150607082773475,0.0365974438223428,-3.00775839464806,-0.000785360847946521,0
0.26,0.000696987506658187,0.000399566982354232,-0.0345752894494677,-0.0199952323444392,-0.00030299516551601,-0.000744069410404156,0.0152030617951131,0.0369340881717222,-3.00776360424296,-0.00077445586148114,0
0.27,0.000679202968045146,0.000389413265152889,-0.0337100636511852,-0.0194871113199743,-0.000295309016353898,-0.000725087544878867,0.0148151193116968,0.0360087230923872,-3.0077688262762,-0.000684934687566737,0
0.28,0.000678621945691221,0.000389160433180865,-0.0336349539575982,-0.0194744668814122,-0.000295139459142592,-0.000724476561100685,0.0148127825865569,0.0359325264918621,-3.00777364549719,-0.000653924177074374,0
0.29,0.000688792805868616,0.000395197143506095,-0.034189861060255,-0.0197765639535255,-0.000299768508389692,-0.00073536055988172,0.0150383072675971,0.0365227106832552,-3.00777814050643,-0.000659918860208478,0
0.3,0.000682234578195027,0.000391649182304467,-0.0338728869756919,-0.0195990155390574,-0.000297130024989839,-0.000728386470175168,0.0149047739836143,0.0361848254751296,-3.00778197139889,-0.000615396112761985,0
0.31,0.000688904883592178,0.000395438890673639,-0.0342040832001254,-0.019788645988786,-0.000299999021102215,-0.000735501490299009,0.0150486759261286,0.036538297312559,-3.00778613453033,-0.000611985194088212,0
0.32,0.000689455639513046,0.000395808238402899,-0.0342354633637163,-0.0198071314464237,-0.000300294567250576,-0.000736095383305546,0.0150629576006396,0.0365718022004057,-3.00779017604915,-0.000589362195685529,0
0.33,0.000689387625810512,0.00039584370914436,-0.0342363525380901,-0.0198089060777159,-0.000300341642263318,-0.000736031547294267,0.0150647392680611,0.0365728618772649,-3.00779404550531,-0.000565761831853992,0
0.34,0.000689261984326522,0.000395846611807575,-0.0342342327144563,-0.0198090497861331,-0.000300364001860833,-0.000735906304840105,0.0150652997619018,0.0365707244399272,-3.00779774479741,-0.000543001610858215,0
0.35,0.000689135513411069,0.000395846359772724,-0.0342318926549552,-0.0198090513370797,-0.000300383224566018,-0.000735779868431432,0.0150657427616835,0.0365683522277695,-3.00780128085558,-0.000521225525682858,0
0.36,0.000689014120844547,0.000395845823360276,-0.034229629950205,-0.0198090189884566,-0.000300401372321261,-0.000735658473819518,0.0150661361224683,0.0365660545062256,-3.0078046608265,-0.00050040861293721,0
0.37,0.000688898083382205,0.0003958452817411,-0.0342274655952335,-0.0198089866324006,-0.000300418690058791,-0.000735542430474087,0.0150665108866227,0.0365638565003584,-3.00780789159457,-0.000480510417320783,0
0.38,0.000688787037471851,0.000395844761175655,-0.0342253888443167,-0.0198089706904218,-0.00030043525724233,-0.000735431379630483,0.0150668850049104,0.0365617496518899,-3.00781097974485,-0.000461490575912049,0
0.39,0.000688681069933907,0.000395844263278632,-0.0342234111966818,-0.0198089383165531,-0.000300451068615248,-0.000735325405670081,0.0150672246229949,0.0365597408815542,-3.00781393157368,-0.000443310334722894,0
0.4,0.000688579570079467,0.000395843787300938,-0.0342215089113753,-0.0198089223525357,-0.000300466209399013,-0.000735223901464692,0.0150675656773347,0.0365578109505935,-3.00781675309816,-0.000425932632865027,0
0.41,0.000688482799348835,0.000395843332301823,-0.0342197016260931,-0.0198088885065094,-0.00030048064809783,-0.000735127124275609,0.0150678717749697,0.0365559746609939,-3.00781945007085,-0.000409322043648024,0
0.42,0.000688390088850702,0.000395842897360328,-0.034217962142473,-0.0198088725214406,-0.000300494477125478,-0.000735034409422839,0.0150681821694341,0.036554209742014,-3.00782202798947,-0.000393444704055254,0
0.43,0.000688301452888671,0.000395842481593526,-0.0342162971258133,-0.0198088565254194,-0.000300507697626123,-0.000734945769394057,0.0150684784528067,0.0365525203366866,-3.00782449210966,-0.000378268245882347,0
0.44,0.000688216833255081,0.000395842084157151,-0.0342147094105452,-0.0198088405183398,-0.000300520320277726,-0.000734861144887728,0.0150687604316971,0.0365509091785853,-3.00782684745492,-0.000363761729769972,0
0.45,0.000688136011421874,0.000395841704244173,-0.0342131934960852,-0.0198088066397767,-0.00030053237700846,-0.00073478031778497,0.0150690113153812,0.0365493683621146,-3.00782909882698,-0.00034989558212822,0
0.46,0.000688058725953069,0.000395841341082806,-0.0342117415083108,-0.0198087906141815,-0.000300543905341875,-0.000734703027509925,0.0150692677279921,0.036547894778907,-3.00783125081538,-0.000336641534849579,0
0.47,0.000687984758320776,0.000395840993934904,-0.0342103475360413,-0.0198087745793724,-0.000300554936958413,-0.000734629056075918,0.0150695129164354,0.0365464801223661,-3.0078333078077,-0.000323972567680504,0
0.48,0.000687914108524994,0.000395840662095414,-0.0342090163213237,-0.0198087585349847,-0.000300565474280752,-0.000734558402134411,0.0150697464019495,0.0365451290290628,-3.007835273997,-0.000311862853135966,0
0.49,0.00068784654373508,0.000395840344890006,-0.0342077407818814,-0.0198087424818449,-0.00030057555067304,-0.000734490833645004,0.0150699692770452,0.0365438344197945,-3.00783715339176,-0.000300287703845366,0
0.5,0.000687782005741059,0.000395840041673812,-0.0342065223614642,-0.0198087249646638,-0.00030058517610752,-0.00073442629168483,0.0150701800475584,0.0365425974737048,-3.00783894982341,-0.00028922352222442,0
0.51,2.48887701720038,0.0271966996781448,3.53894455443032,-1.35952214969411,-0.111684786679048,2.48651864574672,-1.55482114090402,3.45759457638382,0.0558128204272534,17.1500597706836,523.582917609775
0.52,2.47984151953498,-0.00154644505288912,0.781025569547975,0.08068805576416,-0.616914454232996,2.4018811189691,-0.115661362852916,0.776616991684926,0.250788249959573,35.972673231237,523.582917609775
0.53,2.41335021533968,-0.00498313866878125,0.932529262182513,0.254427827505723,-1.33141096222685,2.01286585325829,-0.300359334314872,0.918764722072997,0.582317836898994,54.416835790898,523.582917609775
0.54,2.31248507172877,-0.0428821618632931,2.79858053187109,2.15291265611131,-2.02528378962595,1.11698328467925,-1.35060572024495,3.26235345826502,1.04824571226124,72.7107862101251,523.582917609775
0.55,2.24510348181398,0.0248445320929651,2.86757457611293,-1.23487247315648,-2.24016716700538,-0.150857411814086,-2.76218796853314,-1.4554077095507,1.64910248351176,91.3211099847837,523.582917609775
0.56,2.162215638498,0.0349789590046101,3.49198407341096,-1.74371618056696,-1.50345599706981,-1.55435519100789,-1.1140617952907,-3.7407706697418,2.38901454057407,110.543925755366,523.582917609775
0.57,2.09403824092783,0.0358015830705158,3.63367402701332,-1.78380505035933,0.223726443060673,-2.08236029219103,2.21994877788456,-3.38487441655484,-3.01746908947213,128.293914452766,523.582917609775
0.58,2.05369449778994,0.00150845420042833,2.7922898912999,-0.0651187244506727,1.85143955098277,-0.88872659167117,2.54631838147382,-1.14777436175331,-2.01759742520185,144.304403693932,523.582917609775
0.59,2.00322484257774,0.00033543912419054,2.5355393042209,-0.00368644198384207,1.57255125093004,1.24096432085632,1.98787610470792,1.57395099842237,-0.902544574195801,159.948079581787,523.582917609775
0.6,1.92457785191465,0.0204786732662835,3.41896605375895,-1.01554672652928,-0.604574123530821,1.82726829264235,-2.06912211628118,2.90506414704331,0.330165149158353,176.567848746286,523.582917609775
0.61,1.84457111304742,-0.0102511337158919,4.53579079579516,0.523919079866841,-1.83195022897871,-0.215652580268125,-4.56592285825323,0.0154206987271663,1.68241713440646,191.976396471015,523.582917609775
0.62,1.83758513576834,0.033343077833429,2.33048445371722,-1.65337644924566,-0.0333640509900063,-1.8375847550896,1.65334985030483,-2.33050332427028,3.14158124015466,206.127639359025,523.582917609775
0.63,1.73539008988248,0.0215246403269969,4.64412639966194,-1.06714874003373,1.73524963567307,-0.0308346574494162,4.64978479111856,1.04221775348296,-1.57616132894295,221.168805653151,523.582917609775
0.64,1.71398356226561,0.00966640584685134,3.08721071980972,-0.470378805910428,-0.156917015171036,1.70681286070516,-0.768119223743374,3.02689925628086,0.0973176462684322,235.054952071631,523.582917609775
0.65,1.66242717284192,0.0330501535146556,3.22714396893029,-1.63653241780966,-1.59904889387797,-0.455849813686652,-2.60544595225141,-2.51084606072173,1.86838344179353,248.308363477958,523.582917609775
0.66,1.62418986778575,-0.0207116932158523,2.50457613035172,1.04843377467238,0.931966382794806,-1.33036098942886,0.544451072989784,-2.66001654162557,-2.54325806091525,261.982322934383,523.582917609775
0.67,1.55003278711282,-0.0312038632172911,3.92807722558759,1.57945460573828,0.820662954804454,1.31532795789341,3.46887297536704,2.42721812421875,-0.577952623828515,274.211389704414,523.582917609775
0.68,1.52605569302221,0.000361684336570689,2.62389129221252,-0.00681772963907938,-1.51975161293579,0.13856819259886,-2.61372586530838,0.230844310746611,1.48010656438772,287.156706991975,523.582917609775
0.69,1.49947044633617,0.00325366186930087,1.76036164102527,-0.144170810179214,0.697354360730331,-1.32744834224219,0.949549123981103,-1.48930010100303,-2.65571362293911,298.672217802169,523.582917609775
0.7,1.40144768604096,0.0425636247029919,4.30185356027719,-2.11906688377873,0.612363390857471,1.26130026416986,-0.173007568286858,4.79233313672085,-0.421619971009004,310.74742277331,523.582917609775
0.71,1.37802937674531,0.0198087147386388,3.38721979495687,-0.972269460166986,-1.31210872162413,-0.421578048515992,-2.8989388656444,-2.00367644488261,1.8960500334381,321.61578971235,523.582917609775
0.72,1.34631869086357,0.0195977364285427,2.74930021738392,-0.968002441423838,1.22315713725266,-0.562889603945212,2.90582575143857,-0.227721571631406,-1.98753968573766,332.806691610719,523.582917609775
0.73,1.34209713876717,-0.00744650854724281,0.941516431222799,0.390227338497033,-0.637721544505028,1.18092819936298,-0.0983840451702617,1.01442158180361,0.489598227820961,343.244654153006,523.582917609775
0.74,1.24228188663429,0.0184555739911524,3.87126726718244,-0.907826673576951,-0.138875837227852,-1.23463289924789,0.528013792406228,-3.94107357940001,3.04443507475662,353.463021537538,523.582917609775
0.75,1.20847732690804,0.0275247850515533,3.54262649328226,-1.36828578416669,0.715926833928907,0.973973219294795,0.911987342538217,3.68655496976623,-0.61109698192508,363.60461042616,523.582917609775
0.76,1.20170837368249,0.00627424227097906,2.01867123295109,-0.294405278603187,-1.04736668816768,-0.589207435468484,-1.60850218192708,-1.25476242593948,2.08845302231651,372.897442259002,523.582917609775
0.77,1.14271099536573,0.000658972063056318,3.03451852511001,-0.0195668752816513,1.13078317553617,0.164676237199698,2.99975955204483,0.458397395018708,-1.42560601374964,382.333362448424,523.582917609775
0.78,1.07033542553237,-0.0100130933930299,4.81833768335799,0.508729678510166,-1.0580702441702,0.161881263864819,-4.67425015032636,1.27537031831492,1.40962208428156,391.418722613961,523.582917609775
0.79,1.07430428634734,0.0451992676787256,2.87829018891312,-2.24304610735352,0.970906136808256,-0.462075693984252,3.52659001497587,0.937535662030936,-1.9729484902789,399.866431348795,523.582917609775
0.8,1.02261991513003,0.024548088334279,3.68689906194824,-1.21516360230221,-0.841615807125868,0.581409436333202,-3.74934800770782,1.006099791498,0.99025498665958,408.369779106439,523.582917609775
0.81,1.00899878941772,0.0350207411978929,2.65542419132141,-1.7449745233653,0.749924813425061,-0.675956939138775,3.15554496296199,-0.372491221069906,-2.26967128645596,416.612119472891,523.582917609775
0.82,0.947653099910746,-0.024088368586506,4.11809483337639,1.22369526050738,-0.704427645754393,0.634356634054165,-2.14742238078841,3.7208483260889,0.812276233290088,424.306304804094,523.582917609775
0.83,0.924533852733171,0.0107359315047983,3.66014005152039,-0.52106541595661,0.661924882099612,-0.645549034181239,3.00926590680234,-2.14766223289576,-2.33205860366832,431.836974485354,523.582917609775
0.84,0.85753777812373,0.00972647432587148,5.4091001409586,-0.477268054321179,-0.644191189655999,0.566112494458287,-4.41431265384468,3.16227654146512,0.861162389704862,439.292952048494,523.582917609775
0.85,0.85389692353551,0.00638268159051242,4.06040455086762,-0.314160861393112,0.698550610719678,-0.49112904506948,3.51774242566502,-2.05208927442597,-2.17610420092101,446.440015234034,523.582917609775
0.86,0.814322545059666,-0.00119190064822411,4.58492749837005,0.0762143539198561,-0.73384931982015,0.352969975804047,-4.0957810131439,2.06202489932183,1.12101303306774,453.180919123923,523.582917609775
0.87,0.832195487253987,0.0233382518516461,2.24347141374428,-1.15117247012905,0.801741353408017,-0.224287327419258,2.45555068537429,0.573265097340346,-1.81553655690208,459.713232251149,523.582917609775
0.88,0.770725253447436,0.0385454782574832,3.89233996090905,-1.9175350763598,-0.770996587753735,0.0326715758391022,-3.8776157001638,-1.94713831614573,1.57841621494873,466.126843275153,523.582917609775
0.89,0.744646208749908,-0.0127119044665778,3.811316788641,0.642432741964326,0.706300129099885,0.23621959350203,3.82796719695314,0.534343176596519,-1.26511368111777,472.349132387038,523.582917609775
0.9,0.706556203095259,0.0241412985546039,4.386614036765,-1.20536904747822,-0.577928911068836,-0.407188708314807,-2.77008733193766,-3.60858884075213,2.21873401295603,478.283499171948,523.582917609775
0.91,0.699716330943415,-0.00802215009497909,3.45199249598216,0.412596349141794,0.351593336616722,0.605020185058136,2.12287873338013,2.75315706471764,-0.537890767346757,483.933937137101,523.582917609775
0.92,0.66514581487405,-0.0350863622239818,3.91707851954416,1.77177028595379,-0.0392183201495751,-0.664914980447291,-2.19704384957251,-3.69535822316574,3.02997741583786,489.387585423933,523.582917609775
0.93,0.650307604624744,0.0118589443384384,3.41537367067752,-0.580151514769455,-0.21458144635602,0.613999526118183,-1.72946732609988,3.00171548591792,0.354446666024879,494.722432719545,523.582917609775
0.94,0.596017106096113,0.06563673839414,4.92195256530152,-3.27616595237961,0.408247047559973,-0.439179826887314,5.8665300242914,-0.736685738084537,-2.28299667715086,499.870574507185,523.582917609775
0.95,0.577087527544703,0.0103932480925275,4.69831496739015,-0.515546373504407,-0.566855153305509,0.108688864307985,-4.71739324195878,0.293517625974153,1.39936332850624,504.816649871687,523.582917609775
0.96,0.560226549052908,0.00220729941525044,4.40586077589205,-0.109087378523472,0.515838625034433,0.218561596253836,4.0069865597417,1.83509344251094,-1.16608604748395,509.566489417025,523.582917609775
0.97,0.543003112393734,-0.0279859163598534,4.16859824616377,1.40030143097959,-0.26275802444153,-0.476018709900533,-3.38915420414183,-2.8020865825436,2.58572857626914,514.130316421814,523.582917609775
