t,iq,id,vq,vd,ia,ib,va,vb,theta_e,omega,r
0,0,0,0,0,0,0,0,0,0,0,0
0.01,0.000845496379760995,0.000481508042708777,-0.0419431830053537,-0.0241057156252818,-0.000606215711561662,-0.000761062832122272,0.0302895584469264,0.0377208003032515,2.98665520169595,-0.00116784708821897,0
0.02,0.000937010361324737,0.00053362959421316,-0.0465276214578473,-0.0267150720628649,-0.000671842531401562,-0.000843431428184863,0.0335754848480863,0.0418473589496963,2.98664649843597,-0.00124292886965459,0
0.03,0.000972413220436308,0.000553881785173193,-0.0482877306954094,-0.0277289553640968,-0.000697323467886702,-0.0008752785181646,0.0348492387305476,0.0434296035118645,2.98663763673278,-0.00123664213921807,0
0.04,0.000951337346596903,0.000542288065687109,-0.0472539347116736,-0.0271485465090198,-0.000682622950992387,-0.000856238868537949,0.0341165824362364,0.0424974908219181,2.98662940197488,-0.00115351083362129,0
0.05,0.000971957765660388,0.000554194731632866,-0.0482821656203714,-0.0277446116397207,-0.000697576669595904,-0.000874768820222031,0.0348645582309768,0.0434211189559957,2.98662129225025,-0.00113089118574202,0
0.06,0.000972274648011285,0.000554631619108355,-0.0483059151089761,-0.0277665055964133,-0.000698064052975666,-0.000875009029681071,0.0348901941844365,0.0434409325098296,2.98661349781499,-0.00108122522029536,0
0.07,0.000998173646068435,0.000569701320424734,-0.049594387210702,-0.0285209250654636,-0.000716957501702327,-0.000898266198268641,0.0358347875907251,0.044597246638357,2.98660614472387,-0.00107102968363371,0
0.08,0.000972392550086024,0.000555198648011522,-0.0483267563422668,-0.0277948874295964,-0.000698655192234005,-0.000875027846746084,0.0349220839679389,0.04345663582383,2.98659897603756,-0.000988015663322001,0
0.09,0.000970975575880875,0.000554659260614016,-0.0482636762304466,-0.0277678780497074,-0.000697909431624467,-0.000873706409265548,0.0348859537354445,0.043398245663036,2.98659221789049,-0.000942530106008461,0
0.1,0.000970522594299109,0.00055463643929201,-0.0482479410371976,-0.0277667274531862,-0.000697822575878104,-0.0008732578877001,0.0348826670966484,0.0433826521090265,2.98658577820804,-0.000900472567769121,0
0.11,0.00097012534429399,0.000554632856530296,-0.0482346491089274,-0.027766551661485,-0.000697763064312732,-0.000872861670177695,0.0348807075542986,0.0433693325558829,2.98657963929568,-0.000860429171209564,0
0.12,0.000969748001329046,0.000554630112694185,-0.0482220434911905,-0.0277664137743919,-0.000697707200331902,-0.000872485192191743,0.0348788788386553,0.0433566952536215,2.98657378700175,-0.000822257281384801,0
0.13,0.00101588176750622,0.000581104114986609,-0.0505096912725243,-0.0290917776978452,-0.000730992060505857,-0.000913973941359016,0.0365418242021985,0.0454120636620071,2.98656796365146,-0.00085087426956277,0
0.14,0.00106454926715153,0.00060950086895136,-0.0529751189931899,-0.0305134172920717,-0.000766568057967383,-0.00095766897409775,0.0383273520354035,0.047628205436873,2.98656242444601,-0.000884947086155911,0
0.15,0.000972374570615191,0.000556651927871552,-0.0483692201954589,-0.027867629976392,-0.000700124916315207,-0.000874756409485988,0.0350023313185137,0.0434858950130601,2.98655708969159,-0.000718650728763045,0
0.16,0.000968505102306863,0.00055469518623835,-0.0481828204764621,-0.0277696658423702,-0.000697598330045223,-0.000871232146301169,0.0348769675848264,0.0433166903416091,2.9865522791038,-0.000682176501236821,0
0.17,0.000968072044974239,0.000554620773860051,-0.0481661306493493,-0.0277659573697278,-0.000697461921772762,-0.000870812583013574,0.034870924466147,0.0433006138208686,2.98654770377606,-0.00065213618789206,0
0.18,0.000967785648414378,0.000554616073891581,-0.0481564716767377,-0.0277657090052988,-0.000697416848172485,-0.000870527306051285,0.0348693763040805,0.043290956989697,2.98654334247466,-0.000623681772904667,0
0.19,0.000967517439008775,0.000554614042916859,-0.0481475002335612,-0.0277656117704024,-0.000697377040553854,-0.00087025972829669,0.0348680747384359,0.0432819632151816,2.98653918481004,-0.000596562946551066,0
0.2,0.000967261918876464,0.000554612197145192,-0.0481389543967639,-0.0277655203682326,-0.000697339204517122,-0.000870004794684618,0.0348668361907775,0.0432733958198099,2.9865352212593,-0.000570710520693937,0
0.21,0.000967018389518819,0.000554610440696101,-0.0481308090559078,-0.0277654289770318,-0.000697303145635755,-0.000869761823537441,0.0348656514332306,0.0432652305759639,2.98653144275917,-0.000546065104796018,0
0.22,0.000966786004048404,0.000554608766190277,-0.0481230311764313,-0.0277653577348119,-0.000697268733603704,-0.000869529973202574,0.0348645356429376,0.0432574314326706,2.98652784066992,-0.00052257033569218,0
0.23,0.000966564710011022,0.000554607169700027,-0.0481156270098271,-0.0277652663559043,-0.00069723596384036,-0.000869309186681568,0.0348634503473797,0.0432500104998704,2.98652440675533,-0.000500172491562587,0
0.24,0.000966353686751272,0.000554605647593608,-0.0481085639395321,-0.0277651980226794,-0.000697204713054907,-0.000869098648218098,0.0348624335202241,0.0432429286081621,2.98652113316354,-0.000478820359131606,0
0.25,0.000966152442376596,0.000554604196412463,-0.0481018254422539,-0.0277651296856156,-0.000697174908560266,-0.000868897867106693,0.0348614601667691,0.0432361727304452,2.98651801240937,-0.000458465116181127,0
0.26,0.000975851439128563,0.000560218779455429,-0.0485845423612495,-0.028046213349031,-0.00070422274976841,-0.000877611207091407,0.0352138569798112,0.0436695788424484,2.98651506601574,-0.000453407894991064,0
0.27,0.000943133005786325,0.000541573786802888,-0.0469694100748587,-0.027112787015486,-0.000680750414880068,-0.000848163254212409,0.0340422881566013,0.0422179028326878,2.98651212726627,-0.000387658827265078,0
0.28,0.000939275263179175,0.000539333176091887,-0.046732042836292,-0.0270006123402501,-0.00067794312033451,-0.000844696052106779,0.0338949100015141,0.0420006186905712,2.98650941336805,-0.000364683410304417,0
0.29,0.000964417205727,0.000554034389796504,-0.0480274183063254,-0.0277365874666414,-0.000696353546910861,-0.00086726373698208,0.0348222468691756,0.0431666806280909,2.9865069186445,-0.000384644530337658,0
0.3,0.000959284831406189,0.000551277691620107,-0.0477757454698203,-0.0275985823886187,-0.000692838963953277,-0.000862617325974933,0.0346471131586483,0.0429392728726308,2.98650483042772,-0.000363867334727268,0
0.31,0.000964918592800102,0.000554474172613691,-0.04805677841283,-0.027758614204604,-0.000696869341930677,-0.000867688088603314,0.0348487356846162,0.0431921316348666,2.98650248884515,-0.000356878021761975,0
0.32,0.000964997711869735,0.000554591387286594,-0.0480629994117653,-0.027764490237806,-0.000696999323279086,-0.00086774658404098,0.034855599320176,0.0431972918902554,2.98650023925716,-0.000342526072438872,0
0.33,0.000964868089482418,0.000554594762987845,-0.0480587881104716,-0.0277646630830213,-0.000696984496749469,-0.000867616500837717,0.0348552122242374,0.0431930296641051,2.98649809402653,-0.000328546162131934,0
0.34,0.000964736752502476,0.000554593973120373,-0.0480543879327174,-0.0277646005023791,-0.000696965202372739,-0.00086748543695672,0.0348545590089187,0.0431886206880772,2.98649604892633,-0.000315207395160294,0
0.35,0.00096461108789342,0.000554593071844449,-0.0480501688587533,-0.0277645550938569,-0.000696946590829386,-0.000867360061194938,0.0348539465948887,0.0431843913199569,2.98649409930709,-0.000302490941594768,0
0.36,0.000964491095665745,0.000554592207115814,-0.0480461354874544,-0.0277645326681387,-0.000696928812234806,-0.00086724034759061,0.0348533816282088,0.0431803450500039,2.9864922407118,-0.000290368177220705,0
0.37,0.000964376839756906,0.000554591382512197,-0.0480422956129578,-0.0277644872331888,-0.000696911883749869,-0.000867126355789348,0.0348528200585867,0.0431764965351348,2.98649046889073,-0.000278811400527776,0
0.38,0.000964268171782637,0.000554590596359183,-0.0480386461843603,-0.0277644417857035,-0.000696895784369755,-0.00086701793661419,0.0348522843122846,0.0431728390670981,2.98648877979259,-0.000267794187299999,0
0.39,0.000964164393251008,0.000554589846872958,-0.0480351564050811,-0.0277643963278848,-0.000696880407829129,-0.000866914397533899,0.0348517698024826,0.0431693420837894,2.98648716955512,-0.000257291346394448,0
0.4,0.000964065355779702,0.00055458913234525,-0.0480318228457561,-0.0277643738436441,-0.000696865732756288,-0.000866815589638386,0.0348512988678891,0.0431659985177779,2.98648563449677,-0.000247278862767653,0
0.41,0.00096397112330314,0.000554588451146563,-0.0480286524297173,-0.0277643283618855,-0.000696851770504713,-0.000866721573893201,0.0348508273118347,0.0431628221885671,2.98648417110714,-0.000237733842592457,0
0.42,0.000963881049805902,0.000554587801724157,-0.0480256164905749,-0.0277643029401352,-0.000696838422678755,-0.000866631709940702,0.0348503933920943,0.0431597780053101,2.98648277604057,-0.000228634460908602,0
0.43,0.000963795225472697,0.000554587182596392,-0.0480227229770087,-0.0277642804145385,-0.000696825704547299,-0.000866546084883159,0.0348499815177161,0.0431568763614617,2.9864814461068,-0.000219959911720773,0
0.44,0.000963713682264395,0.000554586592351905,-0.0480199766867695,-0.0277642348987548,-0.000696813622321568,-0.000866464728391867,0.0348495669866949,0.0431541258902435,2.98648017826529,-0.000211690360424034,0
0.45,0.000963635715964742,0.000554586029643713,-0.048017345618411,-0.027764212348411,-0.000696802068417792,-0.000866386942888422,0.0348491903851191,0.0431514877735092,2.98647896961678,-0.000203806898453951,0
0.46,0.00096356135853984,0.000554585493188491,-0.0480148342831248,-0.0277641897857127,-0.000696791048927244,-0.000866312758223688,0.0348488298281295,0.0431489699216921,2.98647781739782,-0.000196291500049604,0
0.47,0.000963490609989686,0.000554584981762144,-0.0480124455469719,-0.027764167210577,-0.000696780564947573,-0.000866242172747181,0.0348484858729429,0.0431465750745192,2.98647671897383,-0.000189126981036487,0
0.48,0.000963423062860657,0.000554584494197471,-0.0480101617089591,-0.027764144624384,-0.000696770554574474,-0.000866174782324015,0.0348481558953476,0.0431442856556655,2.9864756718331,-0.000182296959536338,0
0.49,0.000963358717152752,0.000554584029382012,-0.0480079853602614,-0.0277641220269417,-0.000696761018802816,-0.000866110585454679,0.0348478403994521,0.0431421041416885,2.98647467358139,-0.000175785818510188,0
0.5,0.000963297281822376,0.000554583586254975,-0.0480059044251247,-0.0277640965089771,-0.000696751913614772,-0.000866049293160592,0.0348475347443513,0.0431400189716606,2.98647372193605,-0.000169578670046605,0
0.51,2.77023419423211,0.00582484820036841,5.36485364868017,-0.289254213741874,-0.100886160355264,2.76840268068035,-0.495688413899493,5.34973042949364,0.0385285441359681,11.80781913288,532.007446121325
0.52,2.79228770672773,-0.0541022692473062,3.35663754198032,2.71388127981221,-0.535312057018756,2.74102876568103,2.09369532338323,3.77473271662909,0.173495271846655,24.9990012808807,532.007446121325
0.53,2.73860815697731,0.00545668110943565,5.05611849172391,-0.264832076688187,-1.07481374649947,2.51888463871753,-2.23699461196141,4.54206179364075,0.405304084729234,38.2575525052445,532.007446121325
0.54,2.73585590951499,0.0859314393713267,4.05384902517165,-4.29044332453053,-1.77141418852942,2.08671597074857,-5.90127481256401,0.128652347399213,0.735254410771908,51.8775659032723,532.007446121325
0.55,2.69926326579335,-0.0228041330657056,4.43397102146818,1.15234040318062,-2.49241133405983,1.03654616317671,-3.62803953889769,2.79737672261301,1.16822687948214,66.3739618652918,532.007446121325
0.56,2.62498234167424,-0.00663670240782466,6.74064350249464,0.345019341763988,-2.59992248112336,-0.361910806787757,-6.72530383519092,-0.570615017573871,1.70657988434545,80.2134085167748,532.007446121325
0.57,2.64962801329003,0.00421579311163289,4.38686380663952,-0.192822969358099,-1.90436078057028,-1.84226936118163,-3.01381031132478,-3.19354069378617,2.34121449004066,92.8447032735382,532.007446121325
0.58,2.60444522312749,-0.0147651166368787,5.39221727260601,0.762023722751685,-0.174398504172693,-2.59864158565263,-1.15157371357179,-5.32264645183554,3.06891258857104,105.902976478785,532.007446121325
0.59,2.56830042443121,0.0133858532965755,5.68835345047968,-0.651838709260728,1.74894898362446,-1.88083058883063,4.37026491676018,-3.69905977753941,-2.38729983921447,119.415518603895,532.007446121325
0.6,2.51103030879074,-0.00559025332602059,7.33262153239279,0.306375996342088,2.49689837399717,0.266088279576986,7.32483526173135,0.456062689706159,-1.4668557664342,131.694758466451,532.007446121325
0.61,2.51057141943917,0.0377164242484659,5.83207169385861,-1.86796868920253,1.13345740163653,2.24046104617738,0.874976579113625,6.06108762947299,-0.453337446858623,144.93224385578,532.007446121325
0.62,2.54235109346445,0.0373445873883016,2.93955902538251,-1.83828107710705,-1.51626324345518,2.04105107167701,-3.24682842419742,1.21589052384717,0.653618935011797,156.966146594935,532.007446121325
0.63,2.46704169172951,0.0146954343158503,5.1518665694805,-0.711860457644306,-2.37472004948681,-0.668741617582364,-4.75354023974913,-2.11005441872339,1.85125270408129,169.806894582834,532.007446121325
0.64,2.3692211608952,-0.0131493294996455,8.69535569211962,0.694023921771819,0.00732726725495753,-2.36924632008883,-0.715389420720863,-8.69362397353309,3.13913529397372,181.629823016249,532.007446121325
0.65,2.39454422286333,0.0773440080803732,5.85384637299976,-3.84088906883945,2.33400245010048,-0.540607707824283,6.48798071388177,2.63173943507161,-1.76611637118509,193.95220142151,532.007446121325
0.66,2.37034667957962,-0.0209805515762546,5.5488250843293,1.07665923896791,0.68319975853113,2.26985057985797,2.67441292332425,4.97957532816738,-0.301214794048958,206.000593581647,532.007446121325
0.67,2.27461567981454,-0.0092272595058206,8.89428408745889,0.503099454822451,-2.16202524218921,0.706829884281112,-8.28440410493014,3.27567506265254,1.25076362860345,217.450453096261,532.007446121325
0.68,2.30912681588542,0.0304634450033821,5.60088691287663,-1.48520320565117,-0.607496836451376,-2.22799063441124,0.0359501941543587,-5.79434813904459,2.88858968745568,229.047486975372,532.007446121325
0.69,2.22893453524441,0.0802735934056392,8.02792695299688,-3.98492025382856,2.20913456283039,-0.307111535946901,8.39238350729562,3.14564773274112,-1.67293115816354,240.586503279568,532.007446121325
0.7,2.20021184150925,-0.033168313189669,7.90176982835351,1.69083567253385,-0.32093582261329,2.17693189656473,0.64177818489755,8.05512336672633,0.131297487612403,251.882048055433,532.007446121325
0.71,2.1659891538492,-0.0298984553445063,8.05806527765318,1.52594225816154,-1.94064995913611,-0.962434760557512,-7.92682064117879,-2.10390834323761,2.01738331330112,262.947113026343,532.007446121325
0.72,2.15964893895034,0.0397939539921178,6.81755757991119,-1.96184374765822,1.58525533190141,-1.46718527492672,6.3937583228281,-3.07372359767378,-2.29910918532512,273.778136740999,532.007446121325
0.73,2.09722577966457,0.0606442565356051,8.35372565249466,-2.99420912812574,0.58376707380219,2.01525425202004,-0.807445161694873,8.83731027467942,-0.2530484669581,284.449348512816,532.007446121325
0.74,2.02645272438781,0.00397419413776245,10.2868529600659,-0.152590603212745,-1.93694690642991,-0.59561994599696,-9.78139276252518,-3.18857073614896,1.87108486644604,295.003244366463,532.007446121325
0.75,2.06445313040309,0.0271272418324482,6.76895194406893,-1.31335045485915,1.63921631441726,-1.25525793740922,6.21254869038,-2.99129380169368,-2.21117285090536,305.40637791945,532.007446121325
0.76,1.98842033814325,-0.061018631508674,8.94367190486097,3.08685930311634,-0.190635537794712,1.98020120347974,2.4966948718668,9.12603321360542,0.0652976590368832,315.662957825984,532.007446121325
0.77,1.93506344521493,0.0196389268694104,9.97478947510407,-0.953328630044107,-1.2988616242348,-1.43450852404082,-5.90644616965658,-8.0943902917056,2.41592869220049,325.72773498218,532.007446121325
0.78,1.95236073989194,-0.0185475598806739,7.4565124135385,0.961352652292305,1.93425841645183,0.265896312562244,7.51822496849995,-0.0083437609694621,-1.44368553185108,335.632988808665,532.007446121325
0.79,1.89719551042477,0.0292049680401597,8.59072453633536,-1.42444112617639,-1.63267622022222,0.966732690486365,-8.16536729026807,3.02594738820048,1.05158705921583,345.247012698485,532.007446121325
0.8,1.85499192674223,-0.0087537919120757,9.07941973360045,0.484603456550523,0.857013458858299,-1.64517464376504,3.72579752374795,-8.29392163099143,-2.66606412097453,354.689223535518,532.007446121325
0.81,1.82412079968316,0.0022767015705536,9.00610575217172,-0.0594054077232398,0.0597101616295495,1.82314469305235,0.224191878651434,9.00351086095386,-0.0314913809615475,363.99308467581,532.007446121325
0.82,1.75909723859473,0.0161938291558558,10.6080177225192,-0.78081212850939,-0.811836663730003,-1.5606429977282,-4.11265256832456,-9.80947482965129,2.67112639899734,373.290520658319,532.007446121325
0.83,1.74554743804705,-0.0208729757836332,9.61562610750944,1.07910337504453,1.28899368150037,1.17722845218879,7.8952819795288,5.59367964734998,-0.842642841866129,382.324933013626,532.007446121325
0.84,1.75240712752651,-0.00337543528959547,7.66030428782723,0.219511740406345,-1.59784571907333,-0.719604886175831,-7.08045642861735,-2.93182263254987,1.99202294610511,391.024234447831,532.007446121325
0.85,1.65705151111617,-0.0106366434882831,10.8063052516352,0.583718149232428,1.6289794269041,0.303906030542793,10.7388866019913,1.33913203935758,-1.39277338386332,399.700083615806,532.007446121325
0.86,1.68242875540094,0.0268170748059199,7.87518052845491,-1.30767136250659,-1.6823640048299,0.0306109090651512,-7.87810932423407,-1.2899093857676,1.5685413096679,408.224999525217,532.007446121325
0.87,1.58091280115903,0.00128677865942417,11.3394896718251,-0.011527547551645,1.56917608388363,-0.192284576696754,11.2578130654728,-1.35860365252349,-1.69191307287221,416.453873387759,532.007446121325
0.88,1.51640751246016,-0.0228723580262811,12.9251262541607,1.17060223661445,-1.49610610705236,0.248357413917782,-12.5081702926641,3.46047311968693,1.39121178693065,424.698998265742,532.007446121325
0.89,1.56621133279384,0.059098853128543,8.80578808388017,-2.9103573273025,1.53070754421042,-0.336816014331677,9.18310191650469,1.29719803494966,-1.74966849479135,432.599661461376,532.007446121325
0.9,1.51737433562584,-0.0107900645931794,9.64060122485359,0.56645089277203,-1.50767520657654,0.171629750871665,-9.50266997752897,1.72084917663936,1.45033603467107,440.450435461437,532.007446121325
0.91,1.4424666428405,0.0107967110887136,11.7531622195123,-0.495564468125752,1.44238989395682,-0.0183841912827119,11.7556063732784,0.433733900883364,-1.57605652784956,448.050803241707,532.007446121325
0.92,1.44876506990266,0.0025223973409817,9.83267480510389,-0.101799119638631,-1.42942998954058,-0.235916288671257,-9.68188001030828,-1.71844591118748,1.73610510489696,455.594662374754,532.007446121325
0.93,1.36741978837992,0.0316570354703894,12.3040009997095,-1.53646601867396,1.27680129403407,0.490527778113206,10.7962674110061,6.0983422679807,-1.18085076427973,462.792125127884,532.007446121325
0.94,1.38742574221151,0.0270365762128981,9.69948385151938,-1.32799844422647,-1.10645523849778,-0.837518938177093,-6.7962593795801,-7.04658962188254,2.23820791624414,470.017681897153,532.007446121325
0.95,1.35336095369265,-0.00593160618674857,9.8286831595105,0.352020727263122,0.730045848177669,1.13958506241982,5.6336522252462,8.06156894453224,-0.574138778286512,476.926309680194,532.007446121325
0.96,1.31741677943393,-0.0107823862075801,10.0210869406025,0.576514949745339,-0.243568248315581,-1.29475006815944,-2.49889312278794,-9.72162980776768,2.94746161927218,483.801033922944,532.007446121325
0.97,1.28508174567022,-0.00289890159504153,10.0775328024714,0.16527083657696,0.491374187599976,-1.18743206308645,3.67944720971314,-9.38326436083115,-2.75149178671471,490.478367255391,532.007446121325
