t,iq,id,vq,vd,ia,ib,va,vb,theta_e,omega,r
0,0,0,0,0,0,0,0,0,0,0,0
0.01,0.000732566295744536,0.000406567375576509,-0.036049314101223,-0.020355468690352,-0.000797518693402285,0.000256737886214623,0.0393131893121838,-0.0129757966567349,1.7660185958122,-0.00148050078553827,0
0.02,0.000807411960052836,0.000449947051932749,-0.0398731269415087,-0.0225273355017973,-0.000879354644385742,0.000284783834120828,0.0434855257366536,-0.0143651017508071,1.76600814258841,-0.00142917331030876,0
0.03,0.000833907224453832,0.000466380677127806,-0.041235794911516,-0.0233501247368156,-0.000908531531658385,0.00029577466249994,0.0449817686788524,-0.0149083732758362,1.7659985284775,-0.00128552080115096,0
0.04,0.000812631409767132,0.000456939024028746,-0.040254588817266,-0.0228774071731485,-0.000885826140600477,0.000290646053558832,0.0439273913967453,-0.0146352985924556,1.76599065850392,-0.00107006637028828,0
0.05,0.000827579185960746,0.000466591226031133,-0.0410350627968626,-0.0233606566267019,-0.000902360080304976,0.000297222083157837,0.0447866685873697,-0.0149583078460846,1.76598361978292,-0.000954758448474416,0
0.06,0.00082547462569083,0.000466887814458965,-0.0409762588137534,-0.0233754988072059,-0.000900351201570504,0.000297926673495736,0.0447317690922024,-0.0149845441952457,1.76597756251083,-0.000821435153489415,0
0.07,0.000846253862161684,0.000479780474390271,-0.0420268886895501,-0.02402100318793,-0.000923234801654111,0.000306549186664088,0.0458875641631187,-0.0154142603537775,1.76597250713424,-0.000761495156910796,0
0.08,0.000821982021715873,0.000467292561313954,-0.0408749230636102,-0.0233957751737102,-0.000897000558557333,0.000299009665113524,0.0446361465764665,-0.0150245149751678,1.7659680205788,-0.000611009274045067,0
0.09,0.000819474907893301,0.000466904092965052,-0.0407794957042786,-0.0233763277239007,-0.000894464594909989,0.000299118112368277,0.0445387036040426,-0.015024108926047,1.76596430523557,-0.000526462572481089,0
0.1,0.000818005531950133,0.000466890756571864,-0.0407306300185056,-0.0233756498196822,-0.000893019584737264,0.000299392802433446,0.0444905867697801,-0.0150330607355078,1.76596115274006,-0.000456222536964972,0
0.11,0.000816781395155497,0.000466889238418105,-0.0406902902349784,-0.0233755732579125,-0.000891817590553458,0.000299631095853257,0.0444509576848936,-0.0150409276787908,1.76595847499053,-0.000396614892474851,0
0.12,0.000815742368624428,0.000466888252114885,-0.0406560610778695,-0.0233755334295907,-0.000890797415385954,0.000299833648334522,0.0444173363749997,-0.0150476275484044,1.76595620038952,-0.000345983472881422,0
0.13,0.000855218365564675,0.000489245521184458,-0.0425988900704792,-0.0244948767120964,-0.000933858912550255,0.00031411329842689,0.0465403151383448,-0.0157690674169758,1.76595393576238,-0.000387846865654885,0
0.14,0.000898040553292149,0.000514833375349842,-0.0448046852649671,-0.0257759758679972,-0.000980829612640722,0.000330913146759736,0.0489526388449458,-0.0165981897734854,1.76595204607288,-0.000445288067023997,0
0.15,0.000816151792815641,0.000468371399732889,-0.0407182195783799,-0.023449778890892,-0.000891484930148212,0.000301214435780505,0.0444926248424458,-0.0151086687134988,1.76595037660985,-0.000223340502712191,0
0.16,0.000812706179796634,0.000466931327119923,-0.0405578044093349,-0.0233776835045732,-0.000887825145822568,0.000300470812843356,0.0443212580334901,-0.0150690965513744,1.7659493080241,-0.000192818014788534,0
0.17,0.000812189633275182,0.000466886335780963,-0.0405390705415588,-0.0233754302426555,-0.000887309410849899,0.000300527636592467,0.0443024293391846,-0.0150705585181601,1.76594841305969,-0.000172651034646721,0
0.18,0.000811838689336376,0.000466884627121521,-0.0405274379229049,-0.0233753418555835,-0.000886964568747074,0.000300594687799242,0.0442909889373859,-0.0150727612071797,1.7659476532996,-0.000155730249355237,0
0.19,0.000811543634701009,0.000466884306896719,-0.0405177031589228,-0.0233753396489037,-0.000886674858614891,0.000300652161393224,0.0442814287989488,-0.0150746753364649,1.76594700794096,-0.000141364599426948,0
0.2,0.000811293331866013,0.000466884069893149,-0.0405094481696931,-0.0233753209156494,-0.000886429096111163,0.000300700952139818,0.0442733186047014,-0.0150762819902405,1.76594645974388,-0.000129162024706008,0
0.21,0.000811080524656664,0.000466883869627199,-0.0405024244003937,-0.0233753199952732,-0.000886220149408233,0.000300742434615147,0.0442664209570069,-0.0150776637065591,1.76594599407974,-0.000118796598167915,0
0.22,0.000810899954599194,0.000466883699523929,-0.0404964658145829,-0.0233753011282647,-0.000886042854852901,0.000300777633168171,0.0442605658500601,-0.0150788181546576,1.76594559852293,-0.000109991721272193,0
0.23,0.000810746460997509,0.000466883555015416,-0.04049139666926,-0.0233753015399684,-0.000885892145659312,0.00030080755346726,0.0442555879364825,-0.0150798164016701,1.76594526251859,-0.000102512447747599,0
0.24,0.000810616240565235,0.000466883432251934,-0.040487096727624,-0.0233752811200481,-0.000885764287298685,0.000300832937235458,0.044251361348936,-0.0150806428125313,1.76594497710078,-9.615920360689e-05,0
0.25,0.000810505413178962,0.000466883327962867,-0.0404834313583745,-0.0233752814421602,-0.00088565547037883,0.000300854540451255,0.0442477619586195,-0.015081364616697,1.76594473465361,-9.07624613986372e-05,0
0.26,0.000819010805466247,0.000471574885437134,-0.0408997700006313,-0.0236101755277415,-0.000894909116994223,0.000303807907017142,0.0447017441470375,-0.0152310749708648,1.76594455729421,-0.000106372281268173,0
0.27,0.000790285317766627,0.000455450759758686,-0.039500157490486,-0.0228029024132745,-0.000863602118981209,0.000293560314302578,0.0431721533586987,-0.0147105395759474,1.76594425106163,-3.44447969369424e-05,0
0.28,0.000786717765727523,0.000453064218503294,-0.0392317014103664,-0.0226833995414549,-0.000859639458257718,0.000291910998089629,0.0428856175249947,-0.0146453685446728,1.76594409264844,-2.29568294415243e-05,0
0.29,0.000809352057751663,0.000466454867511403,-0.0404318018897543,-0.0233538254285019,-0.00088444072777747,0.000300658437201405,0.0441929420959754,-0.0150703561702783,1.76594408458565,-7.43413498381793e-05,0
0.3,0.000805343215953185,0.000464391577245284,-0.0402335295442978,-0.0232505350949807,-0.000880107991321214,0.000299411349335191,0.0439784094492555,-0.0150074576164136,1.76594444970182,-7.29579269140876e-05,0
0.31,0.000810127176419886,0.000466805940675938,-0.0404679995461038,-0.0233714165265124,-0.000885269278377015,0.000300852344159463,0.0442318671759749,-0.0150805843337089,1.76594430833744,-8.08549531288965e-05,0
0.32,0.000810239462270954,0.00046688069172508,-0.0404744865493496,-0.0233751618084668,-0.000885393885613548,0.000300904027631665,0.0442389551770697,-0.0150830068569468,1.76594416736605,-7.81196014576807e-05,0
0.33,0.000810191081912624,0.00046688295794176,-0.0404729849694124,-0.0233752590867383,-0.000885346826744751,0.00030091573903702,0.0442374991442982,-0.0150833987935293,1.7659440468569,-7.5451805848266e-05,0
0.34,0.000810144515787795,0.000466882985711522,-0.0404714402937832,-0.0233752636349091,-0.000885301119061894,0.000300924886634032,0.0442359831255655,-0.015083707315161,1.76594394446303,-7.31731057263027e-05,0
0.35,0.000810104818163091,0.000466882950512374,-0.0404701191073094,-0.0233752638025383,-0.000885262141935246,0.000300932626922397,0.0442346857369746,-0.0150839675201574,1.76594385748395,-7.12370139419659e-05,0
0.36,0.000810070941303186,0.000466882918790129,-0.0404689868605451,-0.0233752625021194,-0.000885228879703657,0.000300939230311419,0.0442335736146573,-0.015084189067983,1.76594378359989,-6.95923905060621e-05,0
0.37,0.000810042303134045,0.000466882891786964,-0.0404680298083157,-0.0233752626453137,-0.000885200760989464,0.000300944812638031,0.0442326338092175,-0.0150843775676625,1.7659437208394,-6.81953699632416e-05,0
0.38,0.000810017972331807,0.000466882868846711,-0.0404672144469661,-0.0233752627789923,-0.000885176871515282,0.000300949555336912,0.0442318331459008,-0.0150845381645206,1.76594366752772,-6.70086754647247e-05,0
0.39,0.000809997250404542,0.000466882849360114,-0.0404665169457622,-0.0233752629046976,-0.000885156525501183,0.000300953594516184,0.044231148225151,-0.0150846755440781,1.76594362224231,-6.60006417492901e-05,0
0.4,0.000809979671690963,0.000466882832807249,-0.0404659234374169,-0.0233752630234617,-0.000885139265660272,0.000300957021033098,0.0442305654248744,-0.0150847924498419,1.7659435837749,-6.5144370845506e-05,0
0.41,0.000809964770529784,0.000466882818745963,-0.0404654186528524,-0.0233752631363145,-0.000885124634775328,0.000300959925660185,0.0442300697505303,-0.0150848918890984,1.76594355109879,-6.44170143618855e-05,0
0.42,0.000809952081259717,0.000466882806801758,-0.0404649860924166,-0.0233752632442792,-0.000885112175688847,0.000300962399098941,0.0442296450026964,-0.0150849771008865,1.76594352334228,-6.37991638036937e-05,0
0.43,0.000809941254634798,0.000466882796655849,-0.0404646140769576,-0.023375263348131,-0.000885101545499182,0.000300964509415207,0.0442292797128803,-0.0150850503834554,1.76594349976467,-6.32743326918451e-05,0
0.44,0.000809932174239704,0.000466882788037288,-0.0404643016862741,-0.0233752634481232,-0.00088509262975884,0.000300966279474472,0.0442289729689073,-0.0150851119433247,1.76594347973682,-6.28285166409793e-05,0
0.45,0.000809924374413149,0.000466882780716163,-0.0404640298195175,-0.0233752635452789,-0.000885084971439787,0.000300967799821209,0.0442287060246167,-0.0150851655090052,1.76594346272428,-6.24498196725739e-05,0
0.46,0.000809917738739812,0.000466882774497451,-0.0404637961881451,-0.0233752636398581,-0.000885078456161916,0.000300969093240298,0.0442284766281061,-0.0150852115446119,1.76594344827301,-6.21281367862701e-05,0
0.47,0.000809912150804369,0.000466882769214841,-0.0404635979690337,-0.0233752637321194,-0.0008850729695713,0.000300970182484109,0.0442282820040724,-0.0150852506148878,1.76594343599747,-6.18548843234109e-05,0
0.48,0.000809907377776179,0.000466882764727696,-0.0404634260900659,-0.0233752638225813,-0.000885068283130818,0.000300971112852929,0.0442281132477564,-0.0150852844940074,1.76594342557023,-6.16227709233449e-05,0
0.49,0.000809903303239919,0.000466882760916143,-0.0404632768931801,-0.0233752639114998,-0.000885064282527759,0.000300971907049869,0.0442279667663787,-0.0150853139038777,1.76594341671281,-6.14256029636261e-05,0
0.5,0.00080989992719559,0.000466882757678158,-0.0404631522212613,-0.0233752639988771,-0.000885060967671203,0.0003009725651841,0.0442278443642796,-0.0150853384976018,1.76594340918883,-6.12581192920553e-05,0
0.51,3.08306752969287,-0.00192895994737707,7.4921229594029,0.10218861462968,-0.229151102676373,3.074540434874,-0.450271675259628,7.47927833218091,0.0737686105010184,22.4768770698704,449.964445103275
0.52,2.92899573615058,-0.00211530323396125,8.05368930641108,0.118598984341103,-0.945746524383164,2.77210822453115,-2.48268410806587,7.66239236680321,0.328060294676686,46.7679364074836,449.964445103275
0.53,2.8222213521122,0.0531052550713597,6.22483657023658,-2.63835191597025,-1.90411286872918,2.08377247116237,-6.19861645187337,2.69937867688538,0.759191867476727,70.9497915853635,449.964445103275
0.54,2.6755112502602,0.0197059626834268,6.10402707512224,-0.973663188994804,-2.61803038348154,0.551965294562691,-6.17567981054745,0.261046771720059,1.37037232104138,95.400884233707,449.964445103275
0.55,2.52223433556944,0.00341240754802563,7.47221893157869,-0.145697872988917,-2.11566827095787,-1.37318078027361,-6.18274803510841,-4.19867959792118,2.14785844023563,116.317740558668,449.964445103275
0.56,2.42335889466056,0.0401296526990062,6.17338294592932,-1.99344411644489,-0.198959210319403,-2.41551111651039,1.58432306327871,-6.29081845816924,3.07596883918556,137.299283587591,449.964445103275
0.57,2.22881555445305,0.0518027871947553,9.99443612148519,-2.56321216735611,1.86445062843653,-1.22234453353203,9.83853671439384,-3.1083766375481,-2.12786411424544,156.563796637169,449.964445103275
0.58,2.06732090328816,0.0267138873684442,12.3289849329129,-1.32208226563529,1.64991449640229,1.24591793610659,8.93175382529077,8.60090370818697,-0.911091880938576,175.564331380555,449.964445103275
0.59,2.01750019791641,-0.00613818519808906,9.65539455064738,0.350671906207088,-0.862828760351005,1.82369713939059,-3.78531220131597,8.88937715776772,0.438871370735298,192.687503162746,449.964445103275
0.6,1.94043314966718,0.00221858139503472,8.35658241463604,-0.073210731755732,-1.82745355338475,-0.65245631321351,-7.84211128849083,-2.88775345256018,1.91486379317568,209.403963550155,449.964445103275
0.61,1.79181329738916,0.0351602937300556,10.9008047325512,-1.73488736869253,0.611043591445791,-1.68477205232899,5.53601995170972,-9.54933825422115,-2.77404086615333,225.36252127059,449.964445103275
0.62,1.67949220786456,0.0608079669682215,11.9584671252104,-3.02782427555829,1.50075560820238,0.756388980335972,9.01740129072838,8.41778651370823,-1.06775915418948,240.29585108989,449.964445103275
0.63,1.57222951797067,0.00688420478147933,12.9960320259219,-0.33260024002019,-1.06071361622056,1.16053421914998,-9.0542024377669,9.32892756721721,0.744868000342987,254.416933333423,449.964445103275
0.64,1.57231817334837,0.00675479159867509,8.89745791007488,-0.326391947054308,-0.73691997945727,-1.38894888650655,-3.84727249913511,-8.02930777103821,2.65809344479746,267.732442774222,449.964445103275
0.65,1.4231044065104,-0.010931737030369,12.4436253355675,0.556674540481635,1.4221199131541,-0.0540426434807069,12.405241974534,-1.1241305926168,-1.61646097893555,280.365815325925,449.964445103275
0.66,1.29989963049209,-0.0512740064698707,14.8593333471857,2.57594918274967,-0.648563852958938,1.12771140001687,-4.61273822693328,14.3582014112034,0.482496624161156,292.379719529663,449.964445103275
0.67,1.27545351055863,0.0384285889597829,12.5340773662225,-1.90999650318933,-0.616877414151855,-1.11701417625521,-4.02719542529813,-12.0221827914528,2.66713953166,303.7202293149,449.964445103275
0.68,1.22740282237966,0.0351170724144677,11.5890955399299,-1.73320758990743,1.20540339412988,0.233994774686696,10.9300961757512,4.22423266075215,-1.35045638476617,314.388983665097,449.964445103275
0.69,1.20568902697996,0.00280746713548702,9.51020272850383,-0.0993057276833807,-1.00753224309828,0.662248209336155,-8.01365908904014,5.12201967679125,0.991636809261823,324.487008648524,449.964445103275
0.7,1.06246584758032,0.0623377868473626,13.6488384651299,-3.07175958960676,0.217770536596009,-1.04177524943448,6.53528354826976,-12.3699865548539,-2.87691652075475,334.089240607461,449.964445103275
0.71,0.990566827618104,-0.0342286772180603,14.3432952528899,1.71251739435424,0.348461963801055,0.927883883956072,7.08482713074059,12.5884097115188,-0.393789107866749,343.288958967001,449.964445103275
0.72,0.953341174409585,0.0506018307350523,13.441235814344,-2.52052311427859,-0.823475261793081,-0.483020116882519,-9.82847443347568,-9.50899296965411,2.15430572951477,351.872937722451,449.964445103275
0.73,0.902032874950549,0.0457637881211487,13.4332453785335,-2.24945769184937,0.903192930325215,0.000402995411869979,13.3007055235239,2.93315084573108,-1.51965954095886,359.926730470896,449.964445103275
0.74,0.7821507431305,-0.0181560169342151,16.9678376874735,0.90286775726135,-0.720576011596165,0.304728793261602,-15.0993869926271,7.79302241896113,1.1475002704131,367.628849385783,449.964445103275
0.75,0.840884983390911,0.0228399547227205,11.6557477293943,-1.13046258013858,0.542273087037217,-0.643077847464205,8.59711197778132,-7.95135626279334,-2.41387735658022,374.897964782175,449.964445103275
0.76,0.751955017610785,0.0299616359757411,13.9017775852664,-1.45421831536406,-0.236480415607587,0.714430585273644,-6.25171028220198,12.5016114755805,0.359477914313169,381.683196137759,449.964445103275
0.77,0.702287369429763,0.0290230069328511,14.2490518690772,-1.45991136596728,-0.000927612448398132,-0.702886209657827,2.0283151417045,-14.1793073896458,-3.10160947727527,388.2281901816,449.964445103275
0.78,0.64214690376762,0.00501122011218369,15.2682610810263,-0.21546126197599,0.153428578279819,0.623568303967085,3.32251996952431,14.9039283763009,-0.233453270852441,394.244241392583,449.964445103275
0.79,0.579797102692441,0.0335161012328782,16.4758210266493,-1.69257228478047,-0.289211860875508,-0.50363132235925,-5.85251340020024,-15.4940493849046,2.6780621944586,400.046485635857,449.964445103275
0.8,0.583163316876976,0.0528454942189226,14.5027229672086,-2.61609328679244,0.39613637976715,0.431216962833299,6.72899802272363,13.1108162659303,-0.652650721196296,405.434998214875,449.964445103275
0.81,0.578030665004023,0.0236408071218701,13.0375614281428,-1.1987352500061,-0.432292771273091,-0.384449343023756,-8.54753166903481,-9.91739262906592,2.33855907641157,410.605269174684,449.964445103275
0.82,0.53206142533361,0.0568265521568014,13.7102424208357,-2.81341652670486,0.456879765737181,0.278530962404543,9.17094163381254,10.5726008786874,-0.916919530861429,415.384063531789,449.964445103275
0.83,0.459466844723566,-0.0442036722035399,15.779804929295,2.19590073510284,-0.361751914690048,-0.286704199924925,-14.4414365129386,-6.72823417307928,2.14506291260991,419.96736449121,449.964445103275
0.84,0.455240411445729,0.0510882944427987,14.5345139443066,-2.5198451259858,0.419167754133346,0.1848032465547,11.2951292214217,9.48798033975532,-1.04379620321248,424.209142055735,449.964445103275
0.85,0.371924666817366,-0.00539054910673065,17.2906548532671,0.259157138417606,-0.321925322786553,-0.186335993183428,-15.2151476349683,-8.21785800092219,2.08100214227995,428.283955775578,449.964445103275
0.86,0.372079679930567,0.0010433261014922,15.9560208152114,-0.0126553536625586,0.322995170318586,0.184711928952774,13.8224799405478,7.97080978988898,-1.04851188592384,432.109863396509,449.964445103275
0.87,0.37239581923414,-0.00861454837206723,14.6766202963471,0.442726662577989,-0.310629027934044,-0.205578363724084,-12.6588195788759,-7.43999173993986,2.13230259687229,435.661007451773,449.964445103275
0.88,0.292221751729836,-0.0379818951327634,17.4982664507175,1.87566962471542,0.214559677186015,0.201990894516964,15.2793290212686,8.73209997544721,-0.944814171443683,439.013059048794,449.964445103275
0.89,0.301856114778599,0.0592863949670112,15.8961685154676,-2.9341292379469,-0.0981971659963352,0.291529256246613,-10.4304166791424,12.3492386711322,0.518836007469297,442.12066379058,449.964445103275
0.9,0.282152703063789,0.027923301554583,15.8206375360687,-1.40534604529235,0.143462713809874,-0.244557372332582,10.4462604240049,-11.9642472687819,-2.51242405754597,445.047565977091,449.964445103275
0.91,0.264991840118012,0.0144028069120691,15.6614875915797,-0.747107410055929,-0.172154225504835,0.201967915315544,-11.332960846718,10.8353293217199,0.760174951250685,447.838472525395,449.964445103275
0.92,0.254773581243023,-0.0015220775112559,15.1993709581003,0.10463060648391,0.202257418347231,-0.154931698315286,11.9465736624484,-9.39740404651472,-2.23044104611851,450.438686398022,449.964445103275
0.93,0.224031166008946,-0.0451356238476102,15.8106769698696,2.24700138227345,-0.218902734611961,0.065641303025202,-12.8914447014893,9.42534747189449,1.08065434639716,452.899011818331,449.964445103275
0.94,0.130696865641201,0.00614941100342557,19.6116747714868,-0.339003572852704,0.122893959794172,-0.0449061308757675,18.8176808585527,-5.53422061998236,-1.87411270795675,455.162773011715,449.964445103275
0.95,0.204001657589961,0.000185112351308095,15.1118912995281,0.0200746286119416,-0.202957987853193,0.020609845526287,-15.0339420710919,1.53305167640204,1.47050328780961,457.327888960857,449.964445103275
0.96,0.228178801297866,0.0502894156822597,13.1212557778717,-2.52490152500229,0.232510485964074,-0.0230968527757367,12.7331091790021,4.05097661495387,-1.45288150025118,459.329629546798,449.964445103275
0.97,0.159670888573492,-0.0432004261116356,15.7989013792152,2.13049876820585,-0.135136071275462,-0.0953903124762079,-15.5701274201285,-3.42278277319175,1.92122703748883,461.217786674879,449.964445103275
