t,iq,id,vq,vd,ia,ib,va,vb,theta_e,omega,r
0,0,0,0,0,0,0,0,0,0,0,0
0.01,0.000493588727800541,0.000276534443024819,-0.0243097694963533,-0.0138393912813375,-0.0005657743253692,7.36982923535222e-07,0.0279721572541787,-0.000228172196573272,2.08017443093777,-0.00112245522299384,0
0.02,0.000560949734013123,0.000313509407790159,-0.0276865657571916,-0.0156898348309836,-0.000642613975860226,1.75759613825065e-07,0.0318226005192436,-0.000197323702270992,2.08016602202868,-0.00117813085395198,0
0.03,0.000586295337744873,0.000328106836134455,-0.0289599697154914,-0.0164203747362058,-0.000671860103075749,5.66457925203691e-07,0.0332905776766959,-0.00021445361149086,2.08015770795133,-0.00113290322396261,0
0.04,0.000571553613682015,0.000320759913144173,-0.0282658874124,-0.0160526929913318,-0.000655407236064251,1.34540248504441e-06,0.0325053142764471,-0.000232136325954469,2.08015028672364,-0.00100171300849811,0
0.05,0.00058447895854283,0.000328704390184941,-0.0289255076464469,-0.0164502760528521,-0.000670565652935216,1.98348424044543e-06,0.0332750671336528,-0.000257841173195229,2.08014335341896,-0.000944039097450179,0
0.06,0.000584421588921171,0.000329361337435335,-0.0289469192754547,-0.0164831558409995,-0.000670835881388868,2.58929248226849e-06,0.0333097914986928,-0.000276319257350239,2.080136976297,-0.00086195649938138,0
0.07,0.000596690276657824,0.000337064489229331,-0.0295696664371526,-0.0168686717479777,-0.000685303308819544,3.33632708299789e-06,0.0340414674423404,-0.000309441622233593,2.08013127647891,-0.000818536744294718,0
0.08,0.000583394165966619,0.000330051629387007,-0.028938510105846,-0.0165176959114053,-0.000670275419841144,3.70033804985599e-06,0.0333192881021736,-0.000310943294124779,2.08012593334052,-0.000717562161445506,0
0.09,0.000581256172737947,0.000329469264633006,-0.0288518639740016,-0.0164885592115519,-0.000668124822088419,4.23754564557644e-06,0.033229431440485,-0.000327911252099043,2.08012116596645,-0.000651107068372662,0
0.1,0.000580224080062237,0.000329419976142476,-0.0288176838679183,-0.0164860942933671,-0.000667199676154697,4.70062813316148e-06,0.0331983863395303,-0.000342568259411632,2.08011685078202,-0.000593150466400655,0
0.11,0.000579371326366249,0.000329414964682004,-0.0287907572393799,-0.0164858395542004,-0.000666452693849611,5.11464880802409e-06,0.0331747517485968,-0.000355604615712917,2.08011293918285,-0.00054081529947743,0
0.12,0.000578605610615719,0.000329413708893285,-0.0287667068494774,-0.0164857819692668,-0.00066578353257563,5.4892616929527e-06,0.0331537245042579,-0.000367398418261652,2.08010939289977,-0.000493386238916512,0
0.13,0.000604525341722291,0.000344367486724482,-0.0300496601522132,-0.0172341467886214,-0.000695704629339251,5.90960348287084e-06,0.0346387294999532,-0.000395359866869623,2.08010596707197,-0.000512365683501549,0
0.14,0.000624089209170563,0.000356150339696146,-0.0310668610458751,-0.0178238280173522,-0.000718530475670844,6.66040547182714e-06,0.0358143408969526,-0.000414350760504702,2.08010282387021,-0.000519528590370671,0
0.15,0.000580850022571878,0.000331627340912066,-0.0289126210987773,-0.016596567018482,-0.000668822340455832,6.33394579564593e-06,0.0333351318535092,-0.000393293668370745,2.08009992541285,-0.000377188416778169,0
0.16,0.000576447068843788,0.000329594268183417,-0.0287058481541028,-0.0164948096478127,-0.000663986911083847,6.70721307913068e-06,0.0331049869187686,-0.000405345127193464,2.0800975672185,-0.000336184652146632,0
0.17,0.000575635380048086,0.000329425261009844,-0.0286741007764175,-0.0164863516639995,-0.000663195820366191,6.95680985242857e-06,0.0330731440363517,-0.000413509462937054,2.08009545386763,-0.000307056191051029,0
0.18,0.000575190172530723,0.000329410798396596,-0.0286595509993627,-0.0164856252932579,-0.000662800050541679,7.16251898105709e-06,0.0330600858661961,-0.000420032516023981,2.08009354010904,-0.00028138305549159,0
0.19,0.000574812969450077,0.000329409187120235,-0.0286476532253986,-0.0164855542183926,-0.000662469920950078,7.34617203904326e-06,0.0330496626777103,-0.000425828721222238,2.08009180525928,-0.000258174432040054,0
0.2,0.000574473583998439,0.000329408679400474,-0.0286369929187916,-0.0164855217705746,-0.000662173348149712,7.51224178097577e-06,0.0330403387913039,-0.000431049921549411,2.08009023242526,-0.000237139125942537,0
0.21,0.000574165997326199,0.000329408297989199,-0.0286273324421084,-0.0164855087972521,-0.000661904600725483,7.66281985748845e-06,0.0330318973888006,-0.000435795767552349,2.08008880646104,-0.000218068616512716,0
0.22,0.000573887107029415,0.000329407958653217,-0.0286185719819589,-0.0164854943227345,-0.000661660928955191,7.79935464152015e-06,0.0330242410952876,-0.000440097070875476,2.08008751365084,-0.000200778924905461,0
0.23,0.000573634351973455,0.00032940765147417,-0.0286106334378617,-0.0164854812607926,-0.000661440091909923,7.92309459283195e-06,0.0330173031404822,-0.000443994870624138,2.08008634156057,-0.000185103715259526,0
0.24,0.000573405171018764,0.00032940737296422,-0.0286034340317022,-0.0164854667048195,-0.000661239851779188,8.03529298064174e-06,0.0330110098321609,-0.000447527365228814,2.08008527891788,-0.000170892226177254,0
0.25,0.000573197410484393,0.000329407120415745,-0.0285969071260088,-0.0164854535681031,-0.000661058326871785,8.13700436792396e-06,0.0330053044077857,-0.000450729929177551,2.08008431550265,-0.000158007777933876,0
0.26,0.000578664863170381,0.000332593581749057,-0.0288679621421158,-0.016644920090122,-0.000667385485918363,8.25394900471054e-06,0.033319708771179,-0.000457832337211467,2.08008347795629,-0.00016053476170737,0
0.27,0.000562816768571763,0.000323581893703323,-0.0280949047368581,-0.016193921007457,-0.000649154936037516,8.11331845290654e-06,0.0324248710655431,-0.000441005840998451,2.0800825734556,-0.000110392011963195,0
0.28,0.000562227324105441,0.000323282424902674,-0.0280242902412814,-0.0161789304612351,-0.000648494283254134,8.13970567186583e-06,0.032355909027919,-0.000462369304874579,2.08008185621644,-9.97429530737256e-05,0
0.29,0.000571588359213744,0.000328898748275418,-0.0285295776661694,-0.0164600109188585,-0.00065940559178779,8.47965357733715e-06,0.0329341134930886,-0.000461443044476368,2.08008127845751,-0.000115072131846436,0
0.3,0.000566405233860437,0.000326204946124686,-0.0282765257844063,-0.0163251863413498,-0.000653566865933935,8.65491617521851e-06,0.0326474413297809,-0.000467112550144751,2.08008104177321,-9.94324057487912e-05,0
0.31,0.000571821125071992,0.000329140790428066,-0.0285438830095285,-0.0164721206025719,-0.000659726819935871,8.5779985727095e-06,0.0329525071505548,-0.00046506655432961,2.0800805125215,-0.000105795768719731,0
0.32,0.000572215592094165,0.000329383996583286,-0.0285651581540231,-0.0164842851154205,-0.00066018979793683,8.59835687685794e-06,0.0329770129436445,-0.000465331543664991,2.08007999770243,-0.000100139134175799,0
0.33,0.00057216035395471,0.000329404041973591,-0.0285642290732939,-0.0164852951445917,-0.000660151338957268,8.64310008303557e-06,0.0329766939912344,-0.000466681866366244,2.08007952775865,-9.39664988439646e-05,0
0.34,0.000572072518670925,0.000329405601722867,-0.0285615372126573,-0.0164853783661934,-0.000660075407233946,8.68756754449258e-06,0.0329743841185577,-0.000468081006212231,2.08007910140494,-8.82748218022471e-05,0
0.35,0.00057198967178269,0.00032940563882299,-0.0285589388414245,-0.0164853722755216,-0.000660003088792619,8.72824716963676e-06,0.0329721123441934,-0.00046935527337722,2.08007871483674,-8.31059009432686e-05,0
0.36,0.000571914060031245,0.000329405558323545,-0.0285565576117429,-0.0164853725314389,-0.000659937030260849,8.76527274877342e-06,0.0329700332652728,-0.000470528022456399,2.08007836436294,-7.84188466638171e-05,0
0.37,0.000571845491406764,0.000329405475876467,-0.0285543971364019,-0.0164853727709985,-0.000659877120360153,8.79884110760524e-06,0.0329681469324917,-0.000471592048038524,2.08007804661561,-7.41693874207703e-05,0
0.38,0.000571783482854284,0.00032940540033959,-0.0285524455008147,-0.0164853593632294,-0.000659822941635853,8.82919752132473e-06,0.0329664362962664,-0.000472541359053827,2.08007775853897,-7.03167276383969e-05,0
0.39,0.000571727137838582,0.000329405331787843,-0.0285506690095225,-0.0164853595756726,-0.000659773711344803,8.85678099879879e-06,0.032964885230408,-0.000473416282519229,2.08007749736219,-6.682382101456e-05,0
0.4,0.000571676031510988,0.000329405269628884,-0.0285490564992611,-0.0164853583206064,-0.000659729058246901,8.88179982247331e-06,0.032963476631248,-0.000474209171101882,2.08007726057365,-6.36570750623254e-05,0
0.41,0.000571629698212952,0.000329405213271474,-0.0285475938364822,-0.0164853585094971,-0.000659688575472907,8.90448201649227e-06,0.0329621995773677,-0.00047492953286089,2.08007704589605,-6.07860335927383e-05,0
0.42,0.000571587829510988,0.000329405162174419,-0.0285462738932207,-0.0164853450605357,-0.000659651993451641,8.92497885227365e-06,0.032961040491361,-0.000475567743398127,2.0800768512646,-5.81830843089228e-05,0
0.43,0.000571549761700794,0.000329405115847127,-0.0285450710049808,-0.0164853452308892,-0.000659618732452371,8.94361472903148e-06,0.0329599902540701,-0.00047616017535947,2.08007667480748,-5.58231932920237e-05,0
0.44,0.000571515244557911,0.000329405073844386,-0.0285439794769625,-0.016485345392803,-0.000659588573774928,8.96051237767704e-06,0.0329590372484401,-0.000476697762954616,2.08007651482761,-5.36836642411699e-05,0
0.45,0.000571483928836375,0.00032940503576268,-0.0285429880158527,-0.0164853455471109,-0.000659561212285267,8.97584273818202e-06,0.0329581716140522,-0.000477186063758543,2.0800763697863,-5.17439201911499e-05,0
0.46,0.000571455523497881,0.000329405001236003,-0.0285420876796248,-0.0164853456945032,-0.000659536393689442,8.98974830866226e-06,0.0329573855433739,-0.000477629484091455,2.08007623828879,-4.99853056118352e-05,0
0.47,0.000571429853919447,0.000329404969932817,-0.0285412748194681,-0.016485345835397,-0.000659513965352947,9.00231477302203e-06,0.032956675850278,-0.000478029845037857,2.08007611907026,-4.83909069916093e-05,0
0.48,0.000571406512647447,0.000329404941551934,-0.0285405336601768,-0.0164853459707538,-0.00065949357137344,9.01374127956674e-06,0.0329560287614469,-0.000478394876456676,2.08007601098406,-4.69453901676594e-05,0
0.49,0.000571385325058899,0.000329404915820703,-0.0285398596460563,-0.0164853461009969,-0.000659475059146739,9.02411341421411e-06,0.0329554402990542,-0.000478726834135648,2.08007591299077,-4.56348528524923e-05,0
0.5,0.000571366390175185,0.000329404892491664,-0.0285392615185137,-0.0164853326037362,-0.000659458514999478,9.03338330580065e-06,0.0329549114531827,-0.000479009593654448,2.08007582414797,-4.44466909253799e-05,0
0.51,4.42214895736743,-0.0364962679903164,6.50291405745701,1.83388893278519,-0.380397441227717,4.40590866512578,1.32245089064845,6.62587077283334,0.0778715740558061,24.0515334669463,725.557261471808
0.52,4.27072561527092,-0.000796912660216642,7.16912343756135,0.0555773433259015,-1.47422693630156,4.00821068012697,-2.42131489523163,6.74808520116722,0.352258398434123,50.7376970867004,725.557261471808
0.53,4.12862685035352,-0.0110856617121788,7.29270519879691,0.579340823336851,-3.03190342111858,2.80236403887237,-4.94777482872345,5.38875766298641,0.822036124677127,77.6008423314752,725.557261471808
0.54,4.00149433877912,0.0172780245708086,6.19420836822388,-0.841055601646209,-3.98839107186591,0.324024892986241,-6.2404598822477,-0.36366508231096,1.49405022164038,105.56042136082,725.557261471808
0.55,3.85308328400773,0.00430000313566414,7.10600118333428,-0.181419101023528,-2.71790407942891,-2.73116581308247,-4.87809635172866,-5.17033284141513,2.35974423608596,130.124090180615,725.557261471808
0.56,3.67511487139335,-0.000433736132595786,9.6824714778917,0.0615858926163528,0.943613154176161,-3.55190986953911,2.42541917528039,-9.37397400073938,-2.88204499053807,154.496510626908,725.557261471808
0.57,3.58529516177124,0.0397194650675565,7.81613234046923,-1.94551558069983,3.56751874379092,-0.358788301963713,7.95831295597077,1.24185769446525,-1.65995213680427,178.129472399355,725.557261471808
0.58,3.45481671456833,-0.00583377554506703,8.31136431249592,0.329197749940949,0.921499411618995,3.3296593517331,2.54752341182156,7.91816092030328,-0.271685548572031,201.167251583731,725.557261471808
0.59,3.33128053229246,-0.00711441961200776,8.81497275134934,0.413158069201258,-3.19548314488583,0.941471226617003,-8.33266673437687,2.90535871984623,1.28214177543668,222.514304868812,725.557261471808
0.6,3.24071378672465,0.0310190086814419,7.60336804279295,-1.49915062024561,-0.506804429193588,-3.20099004948728,0.365804380250395,-7.74111395935608,2.99414003383228,243.953065886007,725.557261471808
0.61,3.12401629034899,0.0499002683745047,7.93497390433058,-2.44972132808986,3.09816597906037,0.404147727127886,7.49528365343519,3.57570530137103,-1.4251096179384,264.656885097763,725.557261471808
0.62,3.00094239497793,-0.00191149432128557,8.84601067321922,0.140508915760364,-1.66157940425748,2.49896234368063,-4.77616215144079,7.44714191413464,0.586146931723788,284.425627045589,725.557261471808
0.63,2.8807935719089,0.0108172952490586,9.80389872205678,-0.49736261559155,-1.1372297766721,-2.64684662435859,-3.37863243235062,-9.21675879096351,2.73954110243843,303.423462089312,725.557261471808
0.64,2.79475292287862,0.0296557934776789,9.20753545029952,-1.4395773210547,2.66421989894716,0.844663066600736,8.29737250698366,4.24319471768255,-1.25317030677716,321.7686219622,725.557261471808
0.65,2.66265964034697,0.0457527841598475,11.0541786890775,-2.24469297305031,-2.43329254034192,1.08209846627163,-11.0528678827815,2.25113851175238,1.16953548421963,339.469568972038,725.557261471808
0.66,2.62860340333376,-0.00737592577664037,8.16202704486155,0.420086806599306,1.44286881548642,-2.19721183266332,4.10925676460252,-7.06464204674933,-2.5633406245703,356.527456004909,725.557261471808
0.67,2.48243837011363,0.00221532959006798,11.0644752963432,-0.0518911199411945,-0.270387206066929,2.46767014163014,-1.26653429993671,10.9918695925125,0.110028885588834,372.887498812255,725.557261471808
0.68,2.40049941088087,0.0625498599657637,10.9143317517737,-3.05918806264406,-0.63026259703093,-2.31712730884709,0.382515954317063,-11.328501698596,2.90206718210454,388.713098690809,725.557261471808
0.69,2.3188574555942,0.0479095383622936,10.8633317758449,-2.33562688139838,1.10188977422233,2.04089052834667,2.88475617416371,10.7305783635747,-0.474402861633872,404.187704404841,725.557261471808
0.7,2.20885866456882,0.0463660113755479,12.280251100561,-2.27502370741433,-1.2823581206041,-1.79910090255448,-5.03643835057708,-11.4286739695803,2.54333060941651,419.127750579185,725.557261471808
0.71,2.14709303891702,0.0699537597998559,11.5407970113929,-3.4322334040204,1.29707108572504,1.71245690306417,3.86286850318135,11.4038795471093,-0.615672012517333,433.224810240826,725.557261471808
0.72,2.06085155157724,0.00540503255408442,12.1276226065455,-0.231852851266546,-1.04719628548802,-1.77496993542858,-5.93506675143702,-10.578656270407,2.61119629062432,447.118655279146,725.557261471808
0.73,2.01701193933341,0.0619146905303435,10.664019080878,-3.03972603315316,0.741839743415362,1.87665777045428,0.754333255262861,11.0631016742125,-0.345760073586588,460.3490024955,725.557261471808
0.74,1.9211199727597,0.0459185092759591,12.0088265913519,-2.25059937211716,-0.172104717168796,-1.91394629641445,1.45632691538242,-12.1307965752653,3.07580985290232,473.174520576704,725.557261471808
0.75,1.83960288806272,0.0566171562623509,12.6753590987897,-2.77549238188817,-0.501317551912409,1.77088254841943,-6.4721494401541,11.2463046317225,0.306638047779078,485.473241640956,725.557261471808
0.76,1.78290188919282,-0.00477395607440412,12.2624669773364,0.27175659064738,1.24159669008675,-1.2795310063885,8.32030920288121,-9.01190339402705,-2.37391754775708,497.482986801763,725.557261471808
0.77,1.71074498568948,0.0217579817544034,12.7146620596249,-1.02007674492497,-1.64941887477587,0.454465830800108,-12.5582779900017,2.23446677796754,1.31465436910613,508.834724500949,725.557261471808
0.78,1.63806229639201,0.0414555810414456,13.2593803902632,-2.03462227473748,1.54024339668315,0.559121570890001,11.6027138477662,6.73259886681282,-1.19727760522633,520.052309070452,725.557261471808
0.79,1.60082224800369,0.0207744387205919,12.2083310729515,-1.01060093113439,-0.768717021245774,-1.40432816259405,-4.82980698348422,-11.2577807018564,2.65373111450864,530.703088077173,725.557261471808
0.8,1.54081886091473,0.0465276759450738,12.3533626760353,-2.26013682665504,-0.408567275612147,1.48639172766747,-5.79242403884286,11.1427829394232,0.298434633693001,540.903287182398,725.557261471808
0.81,1.45679802679371,0.00193805489586318,13.7796653358775,-0.0495201990257566,1.3340811708344,-0.585227884291196,12.6460773020349,-5.47342286780879,-1.98286211156252,550.85286294987,725.557261471808
0.82,1.42296768591204,0.0447417507313865,12.8064523744855,-2.21091581867923,-1.25745241251516,-0.667571935950119,-10.0193702445234,-8.27681044125156,2.09028355800876,560.483391414597,725.557261471808
0.83,1.35658762092475,0.0418597651362554,13.5776766473221,-2.07448981747677,0.110896862319963,1.35269512422834,-1.38028234135001,13.6657100730335,-0.0509523495242724,569.670994759153,725.557261471808
0.84,1.29881548664712,0.0315270535903011,13.9813900474755,-1.51203927129251,1.08717714755109,-0.711309688746862,12.678917889395,-6.08363144606549,-2.12589999831616,578.482497743951,725.557261471808
0.85,1.22983601801323,0.0439420520618653,15.0221072551382,-2.13663695325872,-1.05577089786632,-0.632277902793212,-11.4413816185065,-9.96612816065535,2.14610519214774,587.003764842972,725.557261471808
0.86,1.21107919140005,0.04937294042888,13.630553099242,-2.41503125737723,-0.187968115278019,1.19742159773725,-5.0291359406836,12.8969820289667,0.196451875799579,595.241880901485,725.557261471808
0.87,1.19648425065592,0.037129384259699,12.110937965979,-1.8094443106733,-0.737370213974161,-0.942994337621845,-5.7013478871297,-10.8371370480926,2.50898000579434,603.181294835954,725.557261471808
0.88,1.13660381796152,0.0391614688277735,12.9372437233109,-1.9189110693909,-0.680165801273977,0.911469331586522,-9.58722921819661,8.89604017337688,0.675525154706339,610.816721029305,725.557261471808
0.89,1.10296209969819,0.0359245305486207,12.5152814530784,-1.76155965119193,1.00067978813123,0.465248242222803,10.3766203856693,7.21533863558659,-1.10303496648033,618.194434820584,725.557261471808
0.9,1.04584550917386,0.0160157409796736,13.3443985238948,-0.768490980154013,0.306719142450106,-0.999986350243307,4.8391617047579,-12.4597778610338,-2.82866665718314,625.282599619332,725.557261471808
0.91,0.978266375257804,0.0431242967148415,14.7546716004461,-2.12686026452811,-0.965894204243592,-0.160975750148369,-13.9913014369996,-5.14464310918179,1.77999218362341,632.129685889188,725.557261471808
0.92,0.965414318626503,-0.00124990389913193,13.5075973899876,0.0969977211539776,-0.14991886945258,0.953703675913484,-1.98447046901248,13.3613798975078,0.154625859804258,638.684752359287,725.557261471808
0.93,0.926488852352834,0.00547023500456928,13.6235067831113,-0.235435758912961,0.917269474059613,0.130492256335299,13.4416067099671,2.23127230983197,-1.42357872154159,645.003629066413,725.557261471808
0.94,0.863635268744963,-0.00354514244092977,15.0008087001999,0.220200718583886,0.162643505960901,-0.848189563378292,2.54806542564552,-14.784455099972,-2.95624351805464,651.075004198499,725.557261471808
0.95,0.856648104892356,0.0355677328225587,13.6525181701753,-1.73026205945741,-0.83566609848677,-0.191763424754832,-12.7119155120213,-5.27183679533014,1.83786065774407,656.898984764007,725.557261471808
0.96,0.821826820656707,0.0304373632367567,13.7530991944369,-1.46998082787371,-0.284864670612765,0.77147772208159,-6.59730943973146,12.1566479443458,0.390735407104525,662.513737652061,725.557261471808
0.97,0.763538503811467,-0.0121760727841113,15.0854799206337,0.649828844564333,0.642653326836401,0.412475459945442,13.1660472659458,7.3925084615407,-1.01613011746942,667.909419704076,725.557261471808
