t,iq,id,vq,vd,ia,ib,va,vb,theta_e,omega,r
0,0,0,0,0,0,0,0,0,0,0,0
0.01,0.00109899768241149,0.000626672764663897,-0.053481403104365,-0.0314005418360177,0.0007671141952327,-0.00100600719251395,-0.0369776504898412,0.049788631933989,-1.9718820901393,-0.00269086211152549,0
0.02,0.00123390134945188,0.000704482248055273,-0.0603504393026397,-0.0352993257459934,0.000860911110433807,-0.00113032731451373,-0.0417782845355056,0.0560606177580455,-1.97190176769257,-0.00287889960751928,0
0.03,0.00126241807955039,0.000720880900791557,-0.0617797493770286,-0.036121013703324,0.0008807389651918,-0.00115657578908372,-0.0427721987589511,0.0573759886831501,-1.97192154354432,-0.00279192296653658,0
0.04,0.00124693801688476,0.00071257042239245,-0.061104842889221,-0.0357045751101577,0.000869712101255196,-0.00114289627077497,-0.0423124506957533,0.0567298424502723,-1.97193942604564,-0.00260690728073327,0
0.05,0.00126126640957778,0.000720905812779084,-0.0618501174233838,-0.0361222360396325,0.000879627931708914,-0.00115618028377299,-0.0428344655105003,0.0574061105303177,-1.97195705189983,-0.00250080693653532,0
0.06,0.0012607647389679,0.000720937525213006,-0.0618848950225104,-0.0361238413363496,0.000879134461995169,-0.00115602821765626,-0.042864899316551,0.0574218821654501,-1.97197369887781,-0.0023644251883668,0
0.07,0.00129327983698993,0.000739654290110239,-0.063489885106478,-0.0370616760551131,0.00090174050540821,-0.00118597017945197,-0.0439753117392236,0.058912692183315,-1.97198927518647,-0.00232183375798497,0
0.08,0.00125987443812765,0.000721010969851698,-0.061949688912037,-0.0361275092259942,0.000878250972523578,-0.00115577491223652,-0.0429213668034402,0.0574518681236476,-1.97200415199532,-0.00211500533056831,0
0.09,0.00125924343112719,0.000720924548430369,-0.0619686006147004,-0.0361231821899811,0.000877687764416132,-0.00115546112507549,-0.0429396679957812,0.0574558671163085,-1.9720180509302,-0.00200059027632275,0
0.1,0.00125879368556787,0.000720920199994849,-0.0619932899949527,-0.0361229555732017,0.000877260314301029,-0.00115529295788498,-0.0429617330937124,0.0574658630260299,-1.9720311382009,-0.00189322831065337,0
0.11,0.00125837060385617,0.000720916444428284,-0.062016554021885,-0.0361227765110448,0.000876858065509972,-0.00115513506978473,-0.0429825111191331,0.0574753137747839,-1.97204346168771,-0.00179213381123028,0
0.12,0.00125797220218247,0.000720912909024571,-0.0620384562090579,-0.036122597512632,0.000876479285125164,-0.00115498638373297,-0.0430020765677291,0.0574842022709367,-1.97205506596759,-0.00169693925644836,0
0.13,0.00131438002157031,0.000753167714511198,-0.0647686733419608,-0.0377387792260838,0.000915794609148862,-0.00120672145963311,-0.0448834907387662,0.060038893752765,-1.97206669164822,-0.00174799126558437,0
0.14,0.00143121055081033,0.000820764395575333,-0.0707865021275529,-0.04112584593839,0.000996928204548112,-0.00131459194762916,-0.0490996457414394,0.0655079298685845,-1.97207742105527,-0.00196205937328908,0
0.15,0.00125766818979319,0.000721343319699738,-0.0621386934782851,-0.03614418442268,0.000875993698741887,-0.00115529238734514,-0.0430840471528787,0.0575446276875392,-1.97208762348253,-0.00143195397641052,0
0.16,0.00125654845969197,0.00072090217653743,-0.06211711864915,-0.0361220680790405,0.000875124812381716,-0.0011544568170549,-0.0430723057407176,0.0575162299682234,-1.97209665315932,-0.00135579207162534,0
0.17,0.00125625274567493,0.000720897652165599,-0.0621329593287901,-0.0361218531553935,0.000874844547101251,-0.00115434457781066,-0.0430864829514584,0.0575225859746116,-1.97210515315804,-0.00128605339631454,0
0.18,0.00125597833101266,0.000720895203373371,-0.0621480655868165,-0.0361217014090651,0.000874583652661915,-0.00115424213088789,-0.0430999878472053,0.0575286921148018,-1.9721131570783,-0.0012203939670921,0
0.19,0.0012557192926712,0.000720892905267564,-0.0621622546933326,-0.0361216124649766,0.000874337394756832,-0.00115414541673985,-0.0431126507116298,0.0575344778741036,-1.97212069388411,-0.00115856650730897,0
0.2,0.00125547584922859,0.000720890741124569,-0.0621756359048727,-0.0361214935767307,0.000874105949393585,-0.00115405452985122,-0.0431246067970607,0.0575399016942851,-1.9721277908369,-0.00110034733786858,0
0.21,0.00125524626395759,0.000720888703112645,-0.0621882150842709,-0.0361214046153474,0.000873887691031938,-0.00115396880760174,-0.0431358366491136,0.0575450220552062,-1.9721344736065,-0.00104552587656049,0
0.22,0.00125503052735364,0.000720886783889986,-0.0622000789618193,-0.0361212857195384,0.000873682585681229,-0.0011538882611649,-0.0431464421123643,0.0575498187480506,-1.97214076636522,-0.000993903831064758,0
0.23,0.00125482713552008,0.000720884976540934,-0.0622112345553818,-0.0361211938277683,0.000873489225194212,-0.00115381231702109,-0.0431564061047239,0.0575543478859077,-1.97214669187417,-0.000945294481502539,0
0.24,0.00125463573446603,0.00072088327455162,-0.062221741429336,-0.0361211048333215,0.000873307261356484,-0.0011537408500133,-0.0431657916506307,0.0575586114500106,-1.97215227156621,-0.000899522005066927,0
0.25,0.00125445504837532,0.000720881671786494,-0.0622316087446448,-0.036121045735069,0.000873135498700117,-0.00115367337406292,-0.043174595482214,0.0575626387241645,-1.97215752562347,-0.0008564208400692,0
0.26,0.00126359320343621,0.000726109838300566,-0.0626846029586356,-0.0363829989806138,0.000879499225263922,-0.00116206040884595,-0.0434889669963984,0.0579809607758556,-1.97216245055836,-0.000840008781724435,0
0.27,0.00121661345750384,0.000699476324363872,-0.0604617138080821,-0.0350484916194785,0.00084665274113321,-0.00111919371391045,-0.041963826308852,0.0558842811793404,-1.9721672643951,-0.000679852540724044,0
0.28,0.0011877707142288,0.000682643165345675,-0.0587345518854188,-0.0342050191654332,0.000826673730904747,-0.00109243375241009,-0.0407032127581528,0.0544332563094764,-1.97217174783722,-0.000569125195069244,0
0.29,0.00125352378177636,0.00072070754688781,-0.0622509139117315,-0.0361122990878908,0.000872325371467305,-0.00115316507314191,-0.0431947405638754,0.0575629118085472,-1.9721756445803,-0.000706985495694809,0
0.3,0.00125197329711681,0.000719917671008112,-0.0621876798313491,-0.0360727391267531,0.000871203224142624,-0.00115183485446776,-0.0431518137341553,0.0575019217275904,-1.97217867097677,-0.00067843046509756,0
0.31,0.00125359386205453,0.000720869866571866,-0.0622779660351774,-0.0361204454019943,0.00087231869903445,-0.00115334774583687,-0.0432160722486993,0.0575812706434338,-1.97218237849101,-0.000652521330793136,0
0.32,0.0012534820941552,0.000720873003213319,-0.0622849182195132,-0.0361205985979266,0.000872210555857144,-0.00115331001616255,-0.0432222106529994,0.0575842789913335,-1.97218587545823,-0.000623855345670239,0
0.33,0.00125336881728687,0.000720872016843016,-0.0622910773111893,-0.0361205692416607,0.000872102870120561,-0.00115326772292555,-0.0432277020554109,0.0575868006572581,-1.97218916836727,-0.00059684236077257,0
0.34,0.00125326263699178,0.000720871070627811,-0.062296897713824,-0.0361205099837327,0.000872001923118641,-0.00115322807103585,-0.0432329044228351,0.057589154199533,-1.97219226909988,-0.000571405778023864,0
0.35,0.00125316251028756,0.000720870179525459,-0.0623023675894948,-0.0361204478012357,0.000871906735943752,-0.00115319067665985,-0.0432377956751051,0.0575913603049641,-1.97219518887128,-0.000547453690510606,0
0.36,0.00125306797628457,0.000720869340399274,-0.0623075020721059,-0.0361204183896814,0.000871816873345544,-0.00115315536614439,-0.0432423751907945,0.057593458195959,-1.97219793824285,-0.000524899462560742,0
0.37,0.00125297903021673,0.000720868550219703,-0.0623123367177921,-0.0361203889598381,0.000871732320616978,-0.00115312214359557,-0.0432466879400778,0.0575954320068443,-1.97220052715891,-0.000503661514179282,0
0.38,0.00125289566732121,0.000720867806133071,-0.0623169052223872,-0.036120329641308,0.000871653063657232,-0.00115309101276887,-0.0432507760736381,0.0575972678077768,-1.97220296498408,-0.00048366302643507,0
0.39,0.00125281673297018,0.000720867105452031,-0.0623211816088695,-0.0361203001801501,0.000871578030471052,-0.0011530615278176,-0.0432545918295413,0.0575990108238815,-1.97220526053554,-0.000464831663594178,0
0.4,0.00125274257164704,0.000720866445645173,-0.0623252131310694,-0.0361202707028214,0.000871507529548629,-0.00115303382830427,-0.0432581899005874,0.0576006523748043,-1.97220742211723,-0.000447099311484506,0
0.41,0.0012526726012752,0.000720865824329412,-0.0623289988079701,-0.0361202412113373,0.000871441016976229,-0.00115300769147614,-0.0432615689339008,0.0576021924144079,-1.97220945754712,-0.000430401831119467,0
0.42,0.00125260682185464,0.000720865239260329,-0.0623325653097745,-0.0361202117054483,0.000871378485121617,-0.00115298312173153,-0.0432647530567935,0.0576036416789632,-1.97221137418791,-0.000414678826705446,0
0.43,0.00125254488413446,0.000720864688323867,-0.06233592011888,-0.0361201792760201,0.000871319605311465,-0.00115295998674869,-0.0432677498952164,0.0576050007117804,-1.97221317897185,-0.000399873427189087,0
0.44,0.00125248655529389,0.000720864169529662,-0.0623390752006002,-0.0361201497443647,0.000871264156467217,-0.00115293819945351,-0.0432705678136428,0.0576062798269976,-1.97221487842737,-0.000385932080545019,0
0.45,0.00125243137443154,0.000720863681002728,-0.0623420297310736,-0.036120150060799,0.000871211707957828,-0.00115291758342324,-0.0432731951702146,0.0576075037748141,-1.97221647870101,-0.000372804360077573,0
0.46,0.00125237979767934,0.000720863220978308,-0.062344827353755,-0.036120120504231,0.000871162673659353,-0.00115289832032892,-0.0432756951408128,0.0576086348830548,-1.9722179855814,-0.000360442782032726,0
0.47,0.00125233113130988,0.000720862787793281,-0.062347453084146,-0.0361200909374932,0.000871116409345601,-0.00115288014235731,-0.0432780419505599,0.0576096950203535,-1.9722194045192,-0.000348802633831761,0
0.48,0.00125228537532318,0.00072086237988259,-0.0623499254439167,-0.0361200613603649,0.00087107290970166,-0.00115286305256184,-0.043280252353736,0.057610691644307,-1.9722207406466,-0.000337841812355391,0
0.49,0.00125224195240831,0.000720861995771961,-0.062352232999476,-0.0361200616295042,0.000871031638305705,-0.00115284682824311,-0.0432823038818045,0.057611647978714,-1.97222199879637,-0.000327520671649389,0
0.5,0.00125220155152611,0.000720861634073001,-0.0623544266096533,-0.0361200320321506,0.000870993224637701,-0.001152831741304,-0.0432842664203987,0.0576125291257915,-1.97222318351966,-0.000317801879523678,0
0.51,4.4968793130204,-0.000723391105840465,15.1578690808132,0.0456874914178477,-0.83794781832618,4.41811809857182,-2.77723065808912,14.9013446470349,0.187274554572755,57.4490485574811,672.344401796112
0.52,4.49969664338176,-0.0186007964542511,15.0190579433089,0.953773077332753,-3.38111172288359,2.9691243472561,-10.6119943652673,10.6708650155013,0.846051091867842,122.595244026205,672.344401796112
0.53,4.57262261236763,-0.00706490196432874,11.374978422598,0.388897315001106,-4.1656199964241,-1.88587844607419,-10.5295758752515,-4.32081093355255,1.99436863837838,192.023954782632,672.344401796112
0.54,4.04871101248193,-0.0441885993851752,17.779777214307,2.24807070529607,2.05345715136219,-3.48960273131879,6.89954378545841,-16.5399696263005,-2.62062280505254,260.171221240287,672.344401796112
0.55,3.62671837026831,0.0158472824327318,11.4781948457891,-0.746081808807591,1.7748050325218,3.16281589254535,4.92099988128124,10.3966030582957,-0.506991594987925,315.838377350613,672.344401796112
0.56,3.17912543122122,0.026552983693366,8.16524183164599,-1.29186796240686,-2.89485946275485,-1.31428012968288,-6.86256710479676,-4.60925913067559,2.00532776064073,367.152783460586,672.344401796112
0.57,2.67908105719025,0.0558357197355204,11.8777948952216,-2.76918760983122,2.65988451712587,0.324972759086147,11.3645194789066,4.42697510778497,-1.42838497088859,410.541606638451,672.344401796112
0.58,2.39599710349417,0.073301751348797,7.69147456322195,-3.62510012708809,-2.3803830570093,-0.282757437755959,-7.06897741175386,-4.72543016456894,1.71961271820815,447.153551258857,672.344401796112
0.59,2.0832409805627,0.0127442851159798,7.01230787740525,-0.598489876315002,1.91536435422975,0.81941124622805,6.19134745184094,3.34632165670815,-1.16043088536491,479.780424679095,672.344401796112
0.6,1.74092650279625,-0.0257228162411177,9.93950789807519,1.31776893874126,-1.07132929457592,-1.37249418723622,-7.25766579078293,-6.91784789519902,2.4640371008541,508.278842021737,672.344401796112
0.61,1.51232216032621,0.0251061007617784,9.15614174541565,-1.23754566712306,0.0287641747627385,1.51225700697977,-1.21539430759217,9.15910845101371,-0.00241889665634623,532.80609624636,672.344401796112
0.62,1.34415418837121,-0.0437129857287061,7.08799007663464,2.20532156431723,1.02929446662074,-0.865571607795162,3.80017614120055,-6.37665334045719,-2.30251450958977,553.841487660178,672.344401796112
0.63,1.13346127490619,0.0357792700292445,8.47507614211784,-1.78310929548961,-1.10614079748692,-0.249934299388436,-7.75596209306374,-3.85375743727012,1.82457224726905,572.203854960571,672.344401796112
0.64,0.983968475332574,0.0326365237585924,8.09157298339075,-1.6287636034141,0.233657642501003,0.956380263928647,0.0646067682856895,8.25362042905035,-0.206464456616117,587.86433519644,672.344401796112
0.65,0.843620498371493,-0.0433100928023684,8.33344917635095,2.17441845569863,0.737811637792013,-0.411345714150255,5.90620885668996,-6.26826672505759,-2.13068904229851,601.406485221385,672.344401796112
0.66,0.671007522287354,-0.022110928072824,11.0272267125293,1.10982018140169,-0.475623768964304,-0.473837544420708,-8.82112585196431,-6.70963251664151,2.32137327475524,613.16894988243,672.344401796112
0.67,0.616411837721734,-0.0429188826120167,8.6155486427357,2.1538879682689,-0.369189480602006,0.495484320217069,-2.84300378052275,8.41333710837334,0.570848292918977,623.376432125831,672.344401796112
0.68,0.518713119680006,0.0752716835163698,9.03441465191085,-3.76675852301156,0.498059600516307,0.163296543751207,6.4162082925962,7.39198140009574,-1.10986843385445,632.211613307896,672.344401796112
0.69,0.507599277795892,0.0501904487260176,5.77322158986777,-2.50489893741001,0.156823745804809,-0.485368335096119,4.60316002375436,-4.29133126291398,-2.73052016018659,639.786535409743,672.344401796112
0.7,0.470146985390727,0.0206773414770474,4.32955297303516,-1.02089080182516,-0.438912821348617,-0.169768299686202,-3.55572686811954,-2.67283621176114,1.98381782269159,646.349198029393,672.344401796112
0.71,0.336593378529136,-0.00688769412069522,8.07017348581254,0.363004272073804,-0.155687653012992,0.298502759617503,-3.25959498701865,7.39151626618371,0.460287829268593,652.063786210069,672.344401796112
0.72,0.295890407130264,0.0181964245202244,7.59687857078537,-0.891303622144445,0.262250417089186,0.138227933622629,6.0271776658013,4.70957700340187,-1.02429738610242,656.991006169202,672.344401796112
0.73,0.206099788656654,-0.0506990920682328,9.94333614148854,2.55842772438997,0.16717557879193,-0.130766382057636,4.12981970796237,-9.40000400123771,-2.47579885056938,661.179799345495,672.344401796112
0.74,0.244614314988694,-0.000637033355734975,6.06584773784964,0.0198139776395698,-0.167472614410932,-0.178296080526891,-4.17881138569018,-4.39686669974331,2.38488266243489,664.93182850047,672.344401796112
0.75,0.227377190011329,-0.0564430555152164,5.28034971409127,2.81751361115518,-0.220870543295483,0.078117911887734,-2.85557512607977,5.25986375788033,0.987528073211618,668.105599327036,672.344401796112
0.76,0.146497040209534,-0.0266973349600259,7.89262733699741,1.33152778610167,0.0307538542559822,0.145699454125688,4.22056138802499,6.80098478867526,-0.388283715460886,670.81752582362,672.344401796112
0.77,0.16335489121758,0.0407073939108435,5.82411518748396,-2.03648849724343,0.153796822494518,-0.0684722556537302,6.08937628719927,0.993528836713548,-1.74543991054386,673.128485525354,672.344401796112
0.78,0.0955509063923406,-0.00160542063204975,8.13070451085605,0.0911250535323473,0.00683222250635734,-0.0953198501017877,0.353980011851773,-8.12350649470077,-3.08683836789567,675.131028887655,672.344401796112
0.79,0.12742767793264,-0.0512289297410091,5.59317279296397,2.5840941227245,-0.106777694490173,-0.0863755770173329,-6.10529758202626,0.828532293852228,1.86870852188766,676.919638570723,672.344401796112
0.8,0.12525928593312,-0.0184152816463363,4.83825239582863,0.930028633120912,-0.0814854316283359,0.0968975528222091,-1.7509575369334,4.60519133240111,0.553241524887409,678.495031801877,672.344401796112
0.81,0.102597635764346,0.00963723863998234,5.28041622435589,-0.498913899165397,0.0771106743817358,0.0683600404434586,3.24194094296061,4.19780055547867,-0.751822131417707,679.712540745734,672.344401796112
0.82,0.0973502757245696,-0.0381743223366936,4.9075869359601,1.90155781509136,0.104007647386439,-0.0108057556262201,3.48584428806919,-3.94325008812232,-2.04802550945983,680.839598547072,672.344401796112
0.83,-0.0161752550295621,0.00956764047998216,10.0631760918388,-0.483893902389829,-0.00624117097960071,0.0177264323660729,-1.48132212424013,-9.9653073775154,2.94597671003527,681.689311455586,672.344401796112
0.84,-0.0359081461235303,0.0571176860112209,10.6086163325112,-2.85667029970946,0.0305163800312151,0.0601712187270266,-10.3017856647223,-3.8179206133429,1.66267156232655,682.456196150879,672.344401796112
0.85,0.00928210763010902,0.00630916630667083,7.98449998993981,-0.30234620374123,0.00237120689715601,0.010969980829201,-3.27231483722756,7.28941759829453,0.384101108294843,683.052261089441,672.344401796112
0.86,0.00144356003540055,0.00471770679421615,8.04191512022197,-0.226193299196358,0.00409021485104074,-0.0027587615780137,6.10851584816999,5.23541749453777,-0.890332209997875,683.527730090787,672.344401796112
0.87,0.0343017118039502,-0.0580343482894949,6.10824729033202,2.89026990965607,0.0608031582121853,0.029113037723529,3.46508381894512,-5.80151180626192,-2.16122278879645,684.003195736764,672.344401796112
0.88,-0.0345764400762272,-0.0612614027302843,9.32932224318626,3.05516787777375,0.068553097691357,0.0157785446016508,-5.57606233214956,-8.07946985553962,2.85398017910397,684.31049219025,672.344401796112
0.89,-0.0506732858402336,0.0184179881514362,9.91666481381271,-0.927930684546428,0.0503450827547115,0.0192970678553431,-9.89901418067305,-1.10037022663638,1.5882002410901,684.607843362193,672.344401796112
0.9,0.0207647401909063,-0.0153733616924645,6.20156240953044,0.777767059802423,-0.0211803160342327,0.0147955702023679,-1.23544314444414,6.126824475653,0.323740018994428,684.763649416174,672.344401796112
0.91,0.0435726378131458,0.053412063314338,4.90570815470431,-2.66150037832324,0.0666987443083232,-0.0173982982266472,2.38916881646435,5.04394975484307,-0.939453831430673,684.908666160939,672.344401796112
0.92,0.0332289243562122,0.0619399277912853,5.28271050255594,-3.09838677289338,-0.00969614191910239,-0.0696182512028644,6.09349587529926,-0.613464641170404,-2.20157830774138,685.057511844933,672.344401796112
0.93,0.0344500237228949,-0.0604551158274143,5.05921679874994,3.01171569395436,0.0465170063097115,-0.0517473988544001,-4.45269407971214,-3.85222292585217,2.82096818869089,685.18440782635,672.344401796112
0.94,0.0530489938385838,-0.00754387993257893,4.04167663139593,0.3664660298115,0.0271945000610453,-0.0461688752099624,1.20172093226621,-3.87625001060703,-2.75054282735437,685.301760792502,672.344401796112
0.95,0.0181915067385178,0.0369016753980687,5.69653165414234,-1.85110480375569,-0.0377227470572767,0.016421294682658,-3.15318015088603,-5.0925943110748,2.27300754589077,685.347392684735,672.344401796112
0.96,0.0364993309162829,0.00278018800294337,4.67248008117757,-0.130336924219737,-0.0295126860334993,0.0216548370059931,-4.035127622993,2.35940731730981,1.01380284097906,685.412523539588,672.344401796112
0.97,-0.00142488112737162,0.0415340625611376,6.53730035578439,-2.06700115252387,0.0399425331882735,-0.0114761788746649,-0.416270807711728,6.84364729664824,-0.245488140659167,685.353765129826,672.344401796112
