t,iq,id,vq,vd,ia,ib,va,vb,theta_e,omega,r
0,0,0,0,0,0,0,0,0,0,0,0
0.01,0.00055634827257655,0.000314919624714938,-0.0275703393765203,-0.0157557475369302,-0.000366297137037932,-0.000523950549028554,0.0183011310917495,0.0259506415054924,3.04654704548411,-0.00125024821525105,0
0.02,0.00066880958497644,0.000376602558548413,-0.0331624543871766,-0.0188418034330148,-0.000438380798805226,-0.000630046048555549,0.0219042747131895,0.0312244245243858,3.04653710634967,-0.00143915342584645,0
0.03,0.000711455158528674,0.000400282934628914,-0.0352791580965884,-0.0200265630684645,-0.000466008924243238,-0.000670246635857171,0.0232849371246261,0.0332188790816529,3.04652658040602,-0.00146119807336609,0
0.04,0.000698236233880929,0.00039306693570491,-0.0346326894740212,-0.0196655379286132,-0.000457577309863631,-0.000657767785579861,0.0228645036946531,0.0326093703254586,3.04651657564993,-0.00135699651656105,0
0.05,0.000714898256547241,0.000402933744098729,-0.0354637333366362,-0.0201591774806541,-0.000468987836571051,-0.000673413341489542,0.0234351297930573,0.0333895718818183,3.04650691466564,-0.00132489034159733,0
0.06,0.000716995773894478,0.000404522944705251,-0.0355742014895033,-0.0202386915393985,-0.000470775266280044,-0.00067534613438925,0.0235250834527852,0.0334917735478757,3.04649763897038,-0.00126170102992418,0
0.07,0.000728903838825626,0.000411859488520149,-0.0361694012932285,-0.0206057420082932,-0.000479215317168837,-0.000686499617137245,0.0239472865541457,0.0340492240780399,3.0464889531419,-0.00122568283175703,0
0.08,0.000718016882200734,0.000405958426797485,-0.0356370979125219,-0.0203105145421501,-0.000472312791703715,-0.000676218244508528,0.0236031282117665,0.0335471621335169,3.04648052478551,-0.00113847982421829,0
0.09,0.000715534892260046,0.000405004661617949,-0.0355200777565392,-0.0202627976617574,-0.000471132946309746,-0.000673834330436913,0.023544777739581,0.0334350165859932,3.04647262881572,-0.00107475333961041,0
0.1,0.000714518594798454,0.000404848985844871,-0.0354752236851092,-0.0202550020289745,-0.000470886466930729,-0.000672833901430267,0.0235330062471232,0.0333909302008068,3.04646517202953,-0.00101766257047025,0
0.11,0.000713783949883761,0.000404822137985971,-0.0354440037431696,-0.0202536646045055,-0.000470794700750626,-0.000672101807957934,0.023528944735437,0.033359812512878,3.04645811975015,-0.000964196333731812,0
0.12,0.000713127595022501,0.000404816162722524,-0.0354163778318061,-0.0202533646591922,-0.000470730884177306,-0.000671445848200446,0.0235262443058725,0.0333321830608777,3.04645144828555,-0.000913707108315323,0
0.13,0.000741422509018139,0.000421234956734355,-0.0368204236453014,-0.0210748104378469,-0.000489767924903272,-0.000698049858813602,0.024477582032381,0.0346516840897915,3.04644493283312,-0.000931771102104929,0
0.14,0.000758668498119815,0.000431518825934272,-0.0377017790589031,-0.0215893324279602,-0.000501648193959524,-0.000714237689198922,0.0250737314736167,0.0354800142175885,3.04643866972638,-0.000925961721039754,0
0.15,0.00071927392923471,0.000409117628187062,-0.0357339350209692,-0.0204685663369622,-0.000475609488681409,-0.000677146832855588,0.0237712708633228,0.0336274144340003,3.04643268640748,-0.00079032644969973,0
0.16,0.00071214093598717,0.000405503058985715,-0.0353850476487632,-0.0202877392730623,-0.000471337115320816,-0.000670387027974517,0.0235582903913969,0.0332971607761324,3.04642732548245,-0.000734375637531247,0
0.17,0.000710527015913146,0.000404918799554603,-0.0353088605569116,-0.0202584986551473,-0.000470605500050463,-0.000668833565169568,0.0235221094583072,0.0332239788137942,3.04642230479319,-0.000693771477746021,0
0.18,0.000709874693430147,0.000404823388664029,-0.0352800257277914,-0.0202537287348736,-0.000470451700839925,-0.000668191030738063,0.0235147784290794,0.0331956162535171,3.04641756363726,-0.000657457927670272,0
0.19,0.000709406544315348,0.000404806890796243,-0.0352601115654931,-0.0202529044386815,-0.000470393782764754,-0.000667724458957309,0.0235122141489426,0.0331757651249771,3.0464130797212,-0.000623461080842193,0
0.2,0.000708989094791116,0.000404803180908349,-0.0352425281796407,-0.0202527144700229,-0.000470353247540208,-0.000667307256317974,0.0235104946366421,0.0331581796520477,3.04640883793926,-0.000591359123580178,0
0.21,0.000708598344159582,0.000404801589999551,-0.0352260981143149,-0.0202526446975767,-0.000470317203118348,-0.000666916538303557,0.0235089966593759,0.0331417362501586,3.04640482502042,-0.00056099926821568,0
0.22,0.000708229614583697,0.000404800394174248,-0.0352105993456957,-0.0202525740309785,-0.000470283497628089,-0.000666547806204243,0.0235075790072132,0.0331262251152014,3.04640102858332,-0.000532278923431934,0
0.23,0.000707880773487642,0.000404799312522173,-0.0351959346299539,-0.0202525231551432,-0.000470251656999379,-0.000666198958255884,0.0235062534357669,0.0331115472009252,3.04639743694352,-0.00050510817937738,0
0.24,0.00070755079167418,0.000404798297035078,-0.0351820612658412,-0.0202524737207313,-0.000470221543395597,-0.000665868969248396,0.0235049980034476,0.033097661482048,3.04639403905243,-0.000479403193910327,0
0.25,0.000707238679609185,0.000404797337413636,-0.0351689379576022,-0.0202524228166312,-0.000470193059840059,-0.000665556850156886,0.0235038062487154,0.0330845268793756,3.04639082445849,-0.000455084855116119,0
0.26,0.000712578992026397,0.000408029503026196,-0.0354351944728658,-0.0204141254260054,-0.000473920234529923,-0.000670564319450613,0.0236901861452856,0.0333341357266124,3.04638783395348,-0.000445571930324691,0
0.27,0.000698694543457669,0.000400121516888484,-0.034750693046075,-0.0200184931342537,-0.000464730166590932,-0.000657493091670952,0.023231374352928,0.0326902734803918,3.04638482727697,-0.000391178821532755,0
0.28,0.000698078043295714,0.00039993476112625,-0.0346991132488195,-0.0200091405563907,-0.000464487438138662,-0.000656895872646546,0.0232172496148467,0.032639753160551,3.04638210458277,-0.00036976154092725,0
0.29,0.000704732152446451,0.000404010080565595,-0.0350530351264672,-0.0202130361058606,-0.000469178546898749,-0.000663131241173574,0.0234539505588852,0.0329726296096556,3.04637959796636,-0.000366858934301254,0
0.3,0.000696009480667268,0.00039934944983053,-0.0346231237835536,-0.0199798575538532,-0.000463711107313772,-0.000654890211571758,0.0231810234110771,0.0325667861788454,3.04637755253506,-0.000331538494441582,0
0.31,0.00070403809161666,0.000403914607278668,-0.0350217899945289,-0.0202082573828293,-0.00046902036670284,-0.000662447386618924,0.0234463644792133,0.0329418796303345,3.04637530403107,-0.000333730305066184,0
0.32,0.000705230277204146,0.000404650412725153,-0.0350823155192501,-0.0202450694675776,-0.000469867638219352,-0.00066356318686184,0.0234888364859067,0.0329985796736405,3.04637311315781,-0.000320427553301436,0
0.33,0.000705267285226341,0.000404768579770806,-0.0350856328827412,-0.0202509781285654,-0.000469990171146329,-0.000663587813183796,0.0234951025409445,0.0330012712866736,3.04637102962406,-0.000305222930620906,0
0.34,0.000705116372785027,0.00040478715064174,-0.0350795758402623,-0.0202519208497959,-0.000469995618415722,-0.000663434891428085,0.0234955302002235,0.032995105695383,3.04636905663768,-0.000290392262113773,0
0.35,0.000704942078155556,0.000404789683154663,-0.0350722850825306,-0.0202520422309685,-0.000469982805786198,-0.000663260268226629,0.023495019411993,0.0329877925643002,3.0463671897679,-0.000276285601974386,0
0.36,0.00070477179965057,0.000404789653627894,-0.0350651194822563,-0.0202520326596316,-0.000469967757199296,-0.000663089933915421,0.0234943868181321,0.0329806188418543,3.04636542355146,-0.000262926965138373,0
0.37,0.000704609651651339,0.00040478923442952,-0.0350582864260718,-0.0202520209549544,-0.000469953030040237,-0.000662927775150701,0.0234937805539684,0.0329737786001905,3.04636375260341,-0.000250286744652018,0
0.38,0.000704456118378768,0.000404788774692177,-0.0350518136525099,-0.0202520048579893,-0.000469939021391054,-0.000662774238343716,0.0234932011811526,0.0329672995460682,3.04636217179187,-0.000238328016470203,0
0.39,0.000704310985542918,0.00040478832953067,-0.0350456942017814,-0.0202519704877234,-0.000469925769043575,-0.000662629102643003,0.0234926343834515,0.0329611759566595,3.04636067625592,-0.000227014329781831,0
0.4,0.000704173517584239,0.000404787906700312,-0.0350398948653494,-0.0202519543427869,-0.000469913213895951,-0.000662491632916038,0.023492113491067,0.0329553711949948,3.04635926139578,-0.000216310941383875,0
0.41,0.000704043558413644,0.000404787506377402,-0.0350344112568619,-0.0202519381732209,-0.000469901344229502,-0.000662361671712886,0.0234916200657952,0.0329498825274268,3.04635792285912,-0.000206184938197822,0
0.42,0.0007039205259521,0.000404787127574027,-0.0350292174593764,-0.0202519205258359,-0.000469890106495822,-0.000662238637745985,0.0234911503346845,0.0329446841956985,3.04635665652902,-0.00019660517511125,0
0.43,0.000703804187373796,0.000404786769168383,-0.0350243049362305,-0.0202519043115389,-0.000469879480069997,-0.000662122297515962,0.0234907065142031,0.0329397673333216,3.04635545851023,-0.000187542185834763,0
0.44,0.000703694135222699,0.000404786430068798,-0.0350196561316663,-0.020251888076228,-0.000469869427605677,-0.000662012243781169,0.0234902856107571,0.0329351145156242,3.04635432511794,-0.000178968093399901,0
0.45,0.000703590020250377,0.000404786109238154,-0.0350152563632348,-0.0202518703657896,-0.000469859917208896,-0.000661908127332289,0.0234898848971981,0.0329307111829093,3.04635325286558,-0.000170856524603443,0
0.46,0.000703491493215782,0.00040478580569312,-0.0350110907299619,-0.0202518540917491,-0.000469850916909898,-0.000661809599051364,0.0234895059650219,0.0329265421472453,3.0463522384552,-0.000163182528922385,0
0.47,0.00070339832128582,0.000404785518503719,-0.0350071500352538,-0.0202518377994426,-0.000469842405739758,-0.000661716425779737,0.0234891465957401,0.032922598318625,3.04635127876665,-0.000155922501769713,0
0.48,0.000703310213419679,0.000404785246789402,-0.0350034220444145,-0.0202518200345312,-0.000469834357128339,-0.000661628316489396,0.0234888042765821,0.0329188675866419,3.04635037084771,-0.000149054111893356,0
0.49,0.000703226820376394,0.000404784989717408,-0.0349998914400569,-0.0202518037085874,-0.000469826738908812,-0.000661544922286859,0.0234884805423218,0.0329153343607488,3.04634951190598,-0.000142556232684981,0
0.5,0.00070314777437317,0.000404784746499398,-0.0349965419522491,-0.020251804131218,-0.000469819517092313,-0.00066146587588754,0.0234881891738923,0.0329119809266504,3.04634869929929,-0.000136408877195816,0
0.51,2.16066952463755,0.000565380584494925,0.753378808855866,-0.0271755024748573,-0.0560563531423288,2.15994231395772,-0.0469088779833309,0.752407931068107,0.026208553203941,8.10367899439041,557.411178769639
0.52,2.14769100960513,0.00623814253811052,2.42820690209416,-0.30974613025918,-0.249146937673255,2.13319980091155,-0.596240814041372,2.37415844379846,0.119172746345739,17.2688589477309,557.411178769639
0.53,2.18661590633985,0.00373737342371994,1.43959832596153,-0.183180429996457,-0.600126071637861,2.10265351115182,-0.573528995796517,1.333065227596,0.279730919052907,26.5560194286159,557.411178769639
0.54,2.18205013184635,0.0150772402138711,2.53922279700655,-0.748958112204269,-1.05027973957684,1.91271601909367,-1.89150791063979,1.85223877798233,0.50906448861351,36.0483360961105,557.411178769639
0.55,2.23047302168364,-0.0108966935409289,0.874026263345395,0.552551614830289,-1.62162977885945,1.5314847366869,-0.251154109399986,1.00307368094302,0.809094250187173,45.9041607077279,557.411178769639
0.56,2.20798395063706,-0.0158857819479927,2.57522648124961,0.803049580124662,-2.05067408884992,0.818645995323057,-2.08166501117658,1.71561966621709,1.1837781112913,56.4501906268614,557.411178769639
0.57,2.23272057083112,0.00720422593656189,1.81172095532767,-0.352964888103066,-2.22829589442206,-0.14067855268515,-1.78436754315587,-0.472175288572893,1.63707209368847,67.1054239277022,557.411178769639
0.58,2.25447379962937,0.0289251324866513,1.29334736791227,-1.43764753457318,-1.88348540077957,-1.23934318150981,-0.265630519185994,-1.91546816079697,2.16560793302322,76.9926365520581,557.411178769639
0.59,2.23501302265397,0.0286049529949686,2.86094605914583,-1.41854143647022,-0.848519068223831,-2.06787737683578,0.267035221608389,-3.18213204483183,2.76500793437937,86.5490594622851,557.411178769639
0.6,2.29778169901399,0.016142089235668,0.187484998272799,-0.791873441253317,0.650830208187129,-2.20374257650017,0.812216411101818,0.0501863833784081,-2.84740124440008,96.6235784597637,557.411178769639
0.61,2.23659994265459,0.0111816782364926,3.49785288461458,-0.54747346599032,1.92583760889889,-1.13738904406597,3.29670996151578,-1.29089326747513,-2.09927192433095,107.391731572514,557.411178769639
0.62,2.26231447830448,-0.0165800891827379,2.58964948732811,0.845992165405111,2.15969073196318,0.673852832876522,2.72375218213223,-0.0562250964916082,-1.27568335165063,117.197304005795,557.411178769639
0.63,2.27737628832943,-0.0175239382661088,2.15134702153406,0.897442506865735,0.829304472470428,2.12108555673693,1.63207104935491,1.66434405999796,-0.380402051350888,127.231168711079,557.411178769639
0.64,2.2929131562791,0.00315066674338771,1.49118481497688,-0.141094110051432,-1.27671402147401,1.90458971337933,-0.949095632886776,1.15877399864861,0.591912326464853,137.862867268726,557.411178769639
0.65,2.24297378880714,0.00994459679039666,4.23322287863233,-0.474993883086908,-2.23854300515651,-0.141264030616581,-4.19157883894985,-0.759250924276049,1.63825174146838,147.602998561406,557.411178769639
0.66,2.26302477556749,-0.0331603645598599,3.26351307395612,1.67690206099547,-0.814535090374282,-2.11161391621645,-2.77453064331457,-2.40093686201071,2.75878696171854,158.2523547852,557.411178769639
0.67,2.23947375225162,0.0222453093154832,4.55387424679623,-1.0882526727463,1.61232811204215,-1.55439235713801,4.05715772482827,-2.33699288215425,-2.32796839167557,168.073591616346,557.411178769639
0.68,2.25764423339854,-0.0153981296773342,3.59810140998188,0.790284023663482,1.95968556905777,1.12108298418179,3.52300884664029,1.07670388736439,-1.05798496677543,178.607430457337,557.411178769639
0.69,2.27769405663967,0.0515787049359349,2.60842799776851,-2.55179220822694,-0.59650283906549,2.1988030701819,-3.1867805513242,1.77763039218286,0.287550639616758,188.412733182017,557.411178769639
0.7,2.24939015318654,-0.0179277658976883,3.86396444238515,0.919967231660921,-2.22604669705793,-0.323718347580307,-3.95318621269479,0.385849306214832,1.70723710757959,198.930848606125,557.411178769639
0.71,2.25420864881981,0.0323881475300875,3.54570825546362,-1.5876114007662,0.10181828754235,-2.25214090607946,1.79580443803288,-3.44494461683306,-3.08204699402242,208.778182387472,557.411178769639
0.72,2.20719876040252,0.0464642802434434,5.66701182662273,-2.29570922408916,2.20619865619988,0.0810727244072004,5.52498424995323,2.61913209335053,-1.51301702013702,219.007129713212,557.411178769639
0.73,2.25319865988006,-0.00567019162411214,3.10926654898894,0.308950423846202,-0.296094151197329,2.23366618042739,-0.0944589001063151,3.12315006896035,0.129274847253908,229.288721815489,557.411178769639
0.74,2.22298154371025,0.049931110137132,4.38825395218864,-2.46119489529558,-2.15302615152446,-0.555534382633239,-3.55512634475363,-3.56024293193132,1.8457710191099,239.092728306746,557.411178769639
0.75,2.19898000966845,0.0129987673924257,5.23854970903372,-0.615412477871054,1.03271157751907,-1.94143989052797,3.02905310352882,-4.31809829299184,-2.64681673724417,249.139133860378,557.411178769639
0.76,2.21901750983958,-0.0161571919593309,3.83190283222755,0.839248679812327,1.55417196266707,1.583934744327,3.29833324502464,2.12339715243415,-0.783195244350782,259.318059071411,557.411178769639
0.77,2.1854946444313,0.0331294653361648,5.09955990557492,-1.62966645565678,-1.98437026041531,0.916383692505836,-5.32234652011875,0.57788537532977,1.15332997136592,269.304692158385,557.411178769639
0.78,2.17366889609366,-0.00750915195011748,5.26894713835591,0.415242730194717,0.0535307208741864,-2.17302262278393,-0.30358983588474,-5.27655793897082,-3.12041799733969,279.051626030603,557.411178769639
0.79,2.16097100915471,-0.00237993694594874,5.41189688472269,0.162283255578901,1.86071811535123,1.0988764542526,4.74534289446181,2.607045177954,-1.03844395706708,288.788867368393,557.411178769639
0.8,2.12282573856012,0.0725645116958402,6.77371522355654,-3.58893853307523,-1.87457598140227,0.998809098176774,-7.66186262387988,-0.244046833264314,1.11540944480509,298.580068647319,557.411178769639
0.81,2.12947497148323,0.0482966194868829,5.8624588644561,-2.37569587503448,0.373310258130644,-2.09705404527442,3.48694922615894,-5.27764530091643,-2.94274543999837,308.328018873056,557.411178769639
0.82,2.16798753605511,0.0461954699390715,3.31268766779997,-2.27068246769315,1.3430440530352,1.70250892788848,0.183530420338256,4.01200885321724,-0.646607514786246,318.049747160214,557.411178769639
0.83,2.13557893278135,0.0524678838491783,4.27908700252499,-2.58536857316602,-2.11960188140427,-0.265966391340399,-3.84663188344641,-3.19345258107058,1.72018684463496,327.686904620136,557.411178769639
0.84,2.12710950322604,-0.0112105498796,4.01393882614841,0.601323126702784,1.81350840734214,-1.111713889291,3.09404117935557,-2.6268238584308,-2.12600344753448,337.233885442353,557.411178769639
0.85,2.08131758708967,-0.000806135036049416,5.58460936835627,0.0813613578279033,-0.773996960106221,1.93204871934659,-1.99924917829407,5.21512072638503,0.380644328485946,346.680937984556,557.411178769639
0.86,2.05345684500332,0.0312745607232761,6.2280101240682,-1.52195985664391,-0.408968265576957,-2.01256256305,0.348774745644773,-6.40178319591752,2.95634367496421,356.039014720278,557.411178769639
0.87,2.06556248725231,0.0420743295515923,4.84169716461695,-2.05860782641009,1.33572027787345,1.57612498781944,1.45714747124468,5.05535546365059,-0.68265742437711,365.315253820986,557.411178769639
0.88,2.03175299393137,0.0294040283313016,5.72098036025958,-1.42133785963293,-1.83478274133987,-0.873187904927989,-4.50040361940182,-3.80738556704948,2.02945653767049,374.514220039482,557.411178769639
0.89,1.98744543253303,-0.00864761913003359,7.08945217196523,0.484997394014899,1.97734657629559,0.2002864094868,7.10317896247155,0.20100546730211,-1.47420121775998,383.681965965976,557.411178769639
0.9,1.98482112262799,-0.00685388945980503,6.33731661947694,0.389884496932959,-1.94715555890191,0.384898810167505,-6.13581008110349,1.63261339731001,1.37218675446021,392.815228671584,557.411178769639
0.91,1.98896922336697,0.0225936921125099,5.20362460544154,-1.09504036727535,1.80041607471788,-0.84558323323121,5.18906606497356,-1.16207392779415,-1.99851960291093,401.85175466449,557.411178769639
0.92,1.92181601725824,-0.0302791839075621,7.61593028530477,1.55454642331615,-1.61224011773069,1.04641073959901,-5.45544512443969,5.53688786116304,0.97934101457797,410.700969738401,557.411178769639
0.93,1.90554131693493,-0.0149053889364785,7.47394351564105,0.794763970736955,1.47858073022521,-1.20212682582669,5.2559018334301,-5.37279976934937,-2.26125252243998,419.420421859835,557.411178769639
0.94,1.94306063740394,0.0367413980793114,4.61360785357145,-1.78144964345785,-1.42964125749166,1.31641955539984,-4.63413459603154,1.72734964745875,0.845512191783451,428.125430074654,557.411178769639
0.95,1.87246842702431,0.0575244508503155,7.10906580883278,-2.84343459667566,1.39941644154154,-1.2454239020477,7.27740937210963,-2.37975835130761,-2.26732486670954,436.846209711572,557.411178769639
0.96,1.86002515173675,-0.000410569792269611,6.67815516748847,0.0649362758960477,-1.53014526769417,1.05752030401975,-5.45599868756754,3.85149990032993,0.965831466800571,445.303099372899,557.411178769639
0.97,1.80772251357469,0.0567448800676439,8.24857943072531,-2.78378988593903,1.60167045737423,-0.840078813846251,8.63643756101834,-1.09567103122825,-2.02247262875427,453.610909224352,557.411178769639
