t,iq,id,vq,vd,ia,ib,va,vb,theta_e,omega,r
0,0,0,0,0,0,0,0,0,0,0,0
0.01,0.00042164976143152,0.000235639526253729,-0.0198610770386716,-0.0117863863776579,-0.00044079129376716,-0.000197528587772537,0.0213137877504459,0.00889402814861921,2.50170144097021,-0.00252063513585649,0
0.02,0.000551939793999469,0.000304338828246532,-0.026113909902136,-0.0152226288371087,-0.000573701891126406,-0.000261009192743539,0.0278040726967172,0.0118574137384557,2.50168047833235,-0.00310424752694536,0
0.03,0.000606666829838424,0.000333187587523336,-0.0287679774863333,-0.0166656168063181,-0.000629528366224609,-0.000287667598148277,0.0305466747273408,0.0131240228318625,2.50165748826738,-0.00318994393509386,0
0.04,0.000604627302720354,0.000332038231056011,-0.0287789319351064,-0.0166081146281289,-0.000627394833075459,-0.000286704177695255,0.0305073807385549,0.0131664769509314,2.50163553051827,-0.00293030392588308,0
0.05,0.000618359645859935,0.000340617298485176,-0.029516610794601,-0.0170372306272989,-0.0006424827527397,-0.000292582822611616,0.0312923759230341,0.0135012869512223,2.50161486687537,-0.00278438164360266,0
0.06,0.000620695741420429,0.000342917603262303,-0.0297182380300567,-0.0171522929373156,-0.000645728577139611,-0.00029307045349177,0.0315053384861126,0.0135936923421883,2.50159553683147,-0.0025817917690479,0
0.07,0.000626735966760952,0.000347594112738201,-0.0300835218418823,-0.017386206802626,-0.000653091961644316,-0.00029511104499429,0.0319113468025611,0.0137464329424531,2.50157796083756,-0.00242220967019058,0
0.08,0.000620188533672404,0.00034478578582143,-0.0298588652639807,-0.0172457428287076,-0.000646934087215026,-0.000291525885990402,0.0316647417361138,0.013649601142586,2.50156141924891,-0.00219510495444928,0
0.09,0.000616976424120514,0.00034402986751817,-0.0297819453405182,-0.0172079227750511,-0.000644413795122172,-0.00028939128929763,0.0315886735773747,0.013610017491532,2.50154638682817,-0.0020059350854699,0
0.1,0.000614850457587815,0.00034382506883611,-0.0297492276807045,-0.0171976846957624,-0.000642983787722419,-0.000287799603686718,0.0315611084732962,0.0135894568850299,2.50153265695941,-0.00183823736232836,0
0.11,0.000613142895332468,0.000343768369099661,-0.0297303226336799,-0.0171948432747041,-0.000641922078656354,-0.000286455837126124,0.0315477090847675,0.0135755946701134,2.50152009643425,-0.00168631402560798,0
0.12,0.000611649608304322,0.000343751568427206,-0.0297162521743972,-0.0171940010247001,-0.000641020012139949,-0.000285260807281853,0.0315387858722289,0.0135644498685147,2.50150859968903,-0.00154769481338896,0
0.13,0.000631197251580218,0.000355510139349164,-0.0306771077757658,-0.0177821576077118,-0.00066212920481529,-0.000293908737048009,0.032584549943988,0.0139834607883457,2.50149770598785,-0.00154815809016987,0
0.14,0.000641860367369112,0.000362243575160393,-0.0313215221673516,-0.018118956491889,-0.000673901528047552,-0.000298432353204825,0.0332397132385714,0.0142988041126665,2.50148742379451,-0.00149962910156769,0
0.15,0.000617372803220143,0.00034870680043533,-0.0301301487275513,-0.0174418574368474,-0.00064842140455353,-0.000286871561752938,0.0319852056598767,0.0137473951018751,2.50147785935132,-0.00123814509110697,0
0.16,0.000609516999969492,0.000345071871414135,-0.0298043653346117,-0.0172600515275529,-0.000640816229588549,-0.000282736855731579,0.0316449170995051,0.0135944398008242,2.50146968871234,-0.00109690740935277,0
0.17,0.000606591236676904,0.000344095103607191,-0.0297035492582495,-0.0172111955888079,-0.000638287352527823,-0.00028096908075922,0.0315456156830755,0.0135425338585198,2.50146237987549,-0.000996355479962004,0
0.18,0.000605162455275464,0.000343831981963631,-0.0296690879323441,-0.0171980288273181,-0.000637224772605899,-0.000279976103039932,0.0315145617630132,0.0135225504682977,2.50145573868585,-0.000912720933639442,0
0.19,0.000604220374090285,0.000343760509865377,-0.0296544718292378,-0.0171944556825662,-0.000636606434797887,-0.000279259370089227,0.0315030477379177,0.0135127713261666,2.50144967319614,-0.000838618634449973,0
0.2,0.000603465260170933,0.000343740554979685,-0.0296460567443062,-0.0171934542816908,-0.000636140939847061,-0.0002786621503208,0.031497293134149,0.0135064457147211,2.50144412436332,-0.000771498561758789,0
0.21,0.000602805211162098,0.000343734493989807,-0.0296397953374477,-0.0171931580796453,-0.000635743234610912,-0.000278133177828654,0.0314933841209255,0.0135014409975119,2.50143904549506,-0.000710259787959693,0
0.22,0.000602210286216033,0.000343732221823292,-0.0296344929921189,-0.0171930335551495,-0.000635387343522756,-0.000277654448613864,0.0314901798171796,0.0134971164627906,2.50143439600015,-0.000654255788962995,0
0.23,0.000601668118761693,0.00034373102091566,-0.0296297494879027,-0.0171929870551112,-0.000635063711668282,-0.00027721764373153,0.0314873665590599,0.0134932059114388,2.50143013934892,-0.000603000526045597,0
0.24,0.00060117262324107,0.000343730157230886,-0.0296254432286185,-0.0171929391514636,-0.000634768125527609,-0.00027681829913986,0.0314848084710363,0.013489658212875,2.50142624228135,-0.000556080031135652,0
0.25,0.000600719386486107,0.000343729429571448,-0.0296215158460074,-0.017192894027464,-0.000634497796885182,-0.000276452975751045,0.0314824744607114,0.0134864230945617,2.50142267440158,-0.00051312438934935,0
0.26,0.000603725050949637,0.000345717979854105,-0.0297763216625818,-0.017292362248283,-0.000637888856198981,-0.000277673667955212,0.031654760514025,0.0135510612381137,2.50141952478373,-0.000496620574022764,0
0.27,0.000596216702994035,0.00034146205900793,-0.0294430051336827,-0.0170794889397096,-0.00062999153879831,-0.000274192187550174,0.0312849799975569,0.0134107986449799,2.501416270381,-0.000412828387949926,0
0.28,0.000595275083390435,0.000341165439120156,-0.0293156601296246,-0.0170646521566476,-0.000629191941115625,-0.000273612468631622,0.0311970498079157,0.0133174459017286,2.50141351917891,-0.000375982371219365,0
0.29,0.00059799901464811,0.000343039349617583,-0.0295504783246236,-0.0171583773791424,-0.000632322562183804,-0.000274676162525024,0.0314125145592113,0.013449706783661,2.50141113378269,-0.000366296685078966,0
0.3,0.000588818251404325,0.000338289187997859,-0.0291310408439549,-0.0169207802248299,-0.000623029353128925,-0.000270149834430545,0.0309714374025087,0.0132552031026178,2.5014096272587,-0.000291635495091565,0
0.31,0.000595818631154717,0.000342266772435751,-0.0294655088589411,-0.0171197391948613,-0.000630401465637701,-0.000273386863010103,0.0313308172272996,0.0134045355863585,2.50140772071601,-0.000314222769879512,0
0.32,0.000597695342129791,0.000343334249193028,-0.0295619625199082,-0.0171731377873549,-0.000632379136626003,-0.000274253087918331,0.0314312840360832,0.0134499320940662,2.50140579287381,-0.000304353910266271,0
0.33,0.000598085817241957,0.000343620549811965,-0.0295888180386699,-0.0171874618346371,-0.00063284249262636,-0.000274394071666122,0.031458838194345,0.0134628561867326,2.50140397445627,-0.000286369598300815,0
0.34,0.000598054604406069,0.000343697170291689,-0.0295954125214968,-0.0171912819528638,-0.000632885757057248,-0.00027432220696088,0.0314658636863804,0.013465810037668,2.50140229398902,-0.000267282776995204,0
0.35,0.000597911812477161,0.000343717523265587,-0.0295961588664202,-0.0171923000797281,-0.000632817206399138,-0.000274194556081523,0.0314671468127062,0.01346575185964,2.50140075088379,-0.000249040189024474,0
0.36,0.000597747831426235,0.000343722789724405,-0.0295952995362455,-0.0171925631928963,-0.000632723863573574,-0.000274059005718153,0.0314668635449334,0.0134648610251413,2.50139933677914,-0.000232113537381413,0
0.37,0.000597587702304526,0.000343724022923428,-0.02959404498123,-0.0171926383000607,-0.000632629554118333,-0.00027392902937861,0.0314661918066403,0.01346376928113,2.50139804172824,-0.000216550742300741,0
0.38,0.000597438447265471,0.000343724188643732,-0.0295927701718076,-0.0171926438190711,-0.000632540853972931,-0.000273808480849231,0.0314654506871888,0.0134627063023361,2.50139685595264,-0.000202283201974859,0
0.39,0.000597300950143893,0.000343724081749039,-0.0295915594827174,-0.0171926347344772,-0.000632458931139173,-0.000273697588296485,0.0314647348081142,0.0134617066223938,2.50139577030372,-0.000189215160096778,0
0.4,0.000597174861717685,0.00034372391444206,-0.0295904374424389,-0.0171926226871386,-0.000632383749561512,-0.00027359593951196,0.0314640682713306,0.0134607826932258,2.50139477634804,-0.00017724929631865,0
0.41,0.000597059144885384,0.000343723742611639,-0.0295893922771902,-0.0171926219153354,-0.000632314736715781,-0.000273502664444556,0.0314634555671178,0.0134599163234069,2.501393866347,-0.000166293683115217,0
0.42,0.000596953370929572,0.000343723580275067,-0.029588439653369,-0.017192608315349,-0.000632251649731274,-0.000273417406383304,0.0314628868190492,0.0134591342521638,2.50139303321157,-0.000156263329563982,0
0.43,0.000596856396967022,0.000343723430293005,-0.0295875565719186,-0.0171926089033857,-0.00063219381000805,-0.000273339242920497,0.0314623700426102,0.0134584016919962,2.50139227044934,-0.000147080181112903,0
0.44,0.000596767794267902,0.00034372329260671,-0.0295867528069948,-0.0171925937651562,-0.000632140963051286,-0.000273267826478653,0.0314618871661817,0.0134577441638023,2.50139157211634,-0.000138672705254834,0
0.45,0.000596686478166056,0.000343723166443043,-0.0295860028337504,-0.0171925942731039,-0.00063209246182253,-0.000273202284183307,0.031461448175756,0.0134571222853355,2.50139093277011,-0.000130975390885246,0
0.46,0.000596612194554367,0.000343723050901389,-0.0295853201528035,-0.0171925805206075,-0.000632048155190272,-0.000273142409619067,0.0314610372188869,0.0134565645917994,2.50139034742859,-0.000123928254409339,0
0.47,0.000596544033380742,0.000343722945104946,-0.0295846832838167,-0.0171925795057471,-0.000632007500089721,-0.0002730874705733,0.0314606631774802,0.0134560375853489,2.50138981152987,-0.000117476377157616,0
0.48,0.000596481634768591,0.0003437228482368,-0.0295840962760501,-0.0171925799156251,-0.000631970282046718,-0.000273037176270963,0.0314603194540627,0.0134555511397371,2.5013893208976,-0.000111569478820294,0
0.49,0.00059642469703962,0.000343722759545471,-0.0295835640414356,-0.0171925660776173,-0.000631936321305848,-0.000272991282796334,0.0314599964653548,0.0134551184360014,2.5013888717081,-0.000106161526027707,0
0.5,0.000596372426560415,0.000343722678341165,-0.0295830654381117,-0.0171925664352032,-0.000631905144196668,-0.000272949151867834,0.0314597044402148,0.0134547054177639,2.50138846046114,-0.000101210373723975,0
0.51,4.77834726646099,-0.0194095605850121,1.08318958732161,0.979034282063599,-0.54998041839088,4.7466304753292,0.852676731118827,1.18522158255166,0.111291203694081,34.58658834647,567.248726874867
0.52,4.74122443227755,0.0322734974564003,2.9398944577621,-1.59707423903282,-2.28416514699725,4.15485743162226,-2.82806977909277,1.78763723175165,0.509464108291372,74.1213859299579,567.248726874867
0.53,4.46447740026777,0.0223360221010533,2.96139138595653,-1.09140220088508,-4.15338839297493,1.6375048740343,-3.15562460687438,0.0550549307802797,1.20025310171437,114.418525883024,567.248726874867
0.54,4.13600023836239,0.00568037430756707,1.83912388323594,-0.255842503917654,-3.37631356534507,-2.38894054904112,-1.35179764626115,-1.2729788561726,2.18795074864022,154.30742624946,567.248726874867
0.55,3.76409866547558,-0.00605990191513683,5.82077345775111,0.337485962171234,1.1285087836531,-3.59095299482798,1.41404902137646,-5.6564799819558,-2.83871106429076,187.702355005676,567.248726874867
0.56,3.51806731124591,0.0154256651885329,4.06714891505761,-0.737854669168565,3.43222974492696,0.772550668656849,3.79873947500406,1.6296343795815,-1.34501430435571,220.328281061819,567.248726874867
0.57,3.29841857055866,0.00874934158631135,2.03380930248717,-0.397702517169915,-1.21990821303067,3.06454981512207,-1.12631538462087,1.73952902402144,0.381494865999521,249.670324681452,567.248726874867
0.58,3.02712143702163,0.00672303954210285,3.30801763404477,-0.300423786697048,-2.23283255538106,-2.04400787018228,-2.23170454240722,-2.46022965476061,2.31429356513537,277.885093865613,567.248726874867
0.59,2.82828028711857,0.000349031668061439,2.41910253616071,0.0268876475257748,2.72607532081465,-0.753447310415215,2.32460382483451,-0.670072446540966,-1.84032663190505,302.626078518358,567.248726874867
0.6,2.62698735197829,0.0587039566375434,1.88065223957498,-2.89543132408662,-1.13548811818939,2.36963613988087,-3.43290221597228,0.36818171368633,0.469198102818615,326.521919092125,567.248726874867
0.61,2.41635495507368,0.0387528423225256,2.63265122947059,-1.90227074138513,-0.511170891839365,-2.36198589560424,1.34991964071477,-2.9541840553993,2.9445000654275,348.735651315711,567.248726874867
0.62,2.21705493503943,-0.0195096329136309,3.69880046602211,1.00878678289613,1.42874378673977,1.69540685459615,3.17398425070536,2.15048823225464,-0.70904873748338,369.023824920353,567.248726874867
0.63,2.07128149429756,0.0289910532932242,2.80436986557777,-1.4173855182901,-1.83838143436564,-0.954673353336271,-1.79970094579629,-2.57576174288677,2.0637610172251,387.594828104403,567.248726874867
0.64,1.91329260508075,-0.010539719754685,3.06934509400839,0.56811702226314,1.84809846652728,0.495309737809289,3.11309208431803,0.228678664625511,-1.3144483934031,404.743564713547,567.248726874867
0.65,1.74351127068955,-0.0164802205800705,4.40083505829464,0.863626664557856,-1.72361104025904,-0.26318839372015,-4.47878065237528,0.23178458524974,1.71286979886471,420.759668586136,567.248726874867
0.66,1.64316677364175,0.00844695817970209,2.79355905607237,-0.384211395122661,1.62810942439773,0.222099300516744,2.71205812123853,0.772224930269777,-1.4300771203375,435.585077903561,567.248726874867
0.67,1.51455325301437,0.0141823386166936,3.07157843019161,-0.672780996420318,-1.47312494141647,-0.352101692585783,-2.81809128116407,-1.39484402460982,1.81477526885405,449.310471497986,567.248726874867
0.68,1.35120118810396,0.00132905744346168,5.54455567840655,-0.0325519905292112,1.22088815929725,0.578946042058334,4.99350768651892,2.4099871965872,-1.12701672302823,461.994893473501,567.248726874867
0.69,1.26671435341647,-0.0191323261169928,4.469349410971,0.984006363052956,-0.92876048590104,-0.861588799186025,-3.98035391859961,-2.25834792770384,2.30359056799986,473.790106989327,567.248726874867
0.7,1.18276703929601,-0.0151591284655732,3.72896672350608,0.776583759570779,0.518263637291396,1.06328287425425,2.37030154878438,2.9816012021186,-0.466347725804402,484.672373413414,567.248726874867
0.71,1.07649105015378,-0.0138670297308422,4.45909228456869,0.710357149147333,-0.00609891489402154,-1.07656308631304,-0.792928990766888,-4.44515184186616,3.12304655946528,494.69287177168,567.248726874867
0.72,1.03244853643857,0.0364214725779017,2.43016929838359,-1.80351667157149,-0.462897619073182,0.923581235363337,-2.7476528519707,1.26838440880507,0.499868196327801,503.900525786594,567.248726874867
0.73,0.945885384323158,0.0183488142097643,2.89658871638596,-0.89685815942155,0.82699629150425,-0.459470317972,2.979131593465,-0.565115650848735,-2.05852451475061,512.299694608406,567.248726874867
0.74,0.847598974542235,0.0420087699079593,4.23252810119781,-2.0780432675084,-0.8439195006813,-0.0893791629187293,-3.86087573873473,-2.70669475174347,1.72583412432022,520.083721500456,567.248726874867
0.75,0.774607344512673,0.0415419083127173,4.53956999815162,-2.0543101524033,0.540789615083946,0.556137447522278,1.43852769306553,4.77058948628669,-0.717829107505634,527.325614532744,567.248726874867
0.76,0.738760082329579,-0.0149645866794709,3.20549614014222,0.757030095069272,0.0378402172360012,-0.737942081777172,-0.657377833472335,-3.22740676912076,-3.11061308094471,534.065862523885,567.248726874867
0.77,0.688867941080197,0.0348055124417239,2.78025988624347,-1.73077788796411,-0.483366987769101,0.492043513400417,-3.21788054657931,0.608836530167586,0.826985880883604,540.236695874887,567.248726874867
0.78,0.592549978392751,0.0329704317566074,4.92428435325479,-1.63438142181467,0.592993584284968,0.0236882937404443,4.74597876268689,2.09653633591406,-1.47528630105481,545.862807609999,567.248726874867
0.79,0.555165240485617,-0.0223051221146274,4.31322946161187,1.13481813763737,-0.293144026866518,-0.471987862374112,-3.36014173199608,-2.93278163778447,2.54565857246045,551.096529746133,567.248726874867
0.8,0.5139196024707,0.0106538240171221,4.04584956366367,-0.530397101147461,-0.151694762223231,0.491137008261307,-1.77725133211287,3.67309099794794,0.320296904630386,555.971878275214,567.248726874867
0.81,0.464820377349711,0.0438347475751458,4.34012859888241,-2.18698015570168,0.431048016158856,-0.179379698015186,4.79283982441942,0.80516139607484,-1.8711186595022,560.392255522642,567.248726874867
0.82,0.415569494698512,-0.00872085840638426,4.85200818922009,0.449271717654681,-0.317440352118998,-0.268338743274034,-4.05315618656654,-2.7047649568568,2.25158500725254,564.387147085218,567.248726874867
0.83,0.4134972826887,0.00761937979945784,3.12650642420121,-0.369752621100526,-0.0417074105572979,0.411459049777827,-0.739673901962787,3.06017024692047,0.11944421625895,568.133311274262,567.248726874867
0.84,0.386697718485759,-0.00521947140001408,2.74835266838414,0.262057806104825,0.35586529463424,-0.151400992198441,2.40839985376454,-1.3497136096008,-1.98654028130517,571.561187999282,567.248726874867
0.85,0.325031958139221,0.0219162163099783,4.26713294706125,-1.08805521462684,-0.273125011247384,-0.177563573348473,-2.75990134382625,-3.4315058371389,2.21458069192664,574.629330726028,567.248726874867
0.86,0.339380566217851,0.0118554602726907,2.09986033867074,-0.579423069921671,-0.0404491065046064,0.337169972636363,-0.895291955623955,1.98584915088606,0.154314360417578,577.499147678986,567.248726874867
0.87,0.276164035772748,-0.0241683919844993,3.89845873874852,1.20606882611074,0.270056112015344,-0.0626129554370658,3.33270137752614,-2.35492761656834,-1.88591484859793,580.132430588682,567.248726874867
0.88,0.295089089373712,-0.00531352304444744,1.71174764581077,0.272620587921097,-0.200796031217667,-0.216302468875841,-1.3834113118106,-1.04430605200374,2.37534973802834,582.486040870718,567.248726874867
0.89,0.214181755768423,-0.0153073867381027,4.6111126119497,0.776094267896788,-0.0917078488915646,0.194159241460396,-0.94351999281774,4.5797873155745,0.369922358772807,584.643473183172,567.248726874867
0.9,0.209572150113356,0.0243190698571027,3.76381994520149,-1.22137758857154,0.208110193270835,-0.0346706030900122,3.81970152276855,1.03343314767865,-1.62035271737699,586.623666449608,567.248726874867
0.91,0.178764813758713,-0.0177707201325363,4.3159184036085,0.893253109164134,-0.0626258640873458,-0.168376537200198,-2.69964166209442,-3.48381797456784,2.68642511323501,588.411191510976,567.248726874867
0.92,0.124298944401553,0.0559034701771915,6.12541713983535,-2.78910730579301,-0.0402623261430853,0.130208949964049,-6.14286197413708,2.750472953315,0.722533832931166,590.041337641313,567.248726874867
0.93,0.139901287668421,0.0319657762083071,4.48495551315837,-1.60501534597176,-0.104409916354933,-0.0984517674124629,-1.16217444466138,-4.61955092795723,2.55146438579046,591.528064923709,567.248726874867
0.94,0.120859699748567,-0.0136665071291421,4.65389304195256,0.687972659766803,-0.080370395016189,0.0912931544277357,-2.09903571149012,4.21023466191734,0.609255782646569,592.844675474928,567.248726874867
0.95,0.137217594536851,-0.0199929165237289,3.123672961495,0.997960138493283,0.128167818092672,0.0529282095575519,3.27285641627867,-0.204127623853416,-1.32385169155308,594.013948812348,567.248726874867
0.96,0.0999293447625936,0.0325510707550653,4.32529201489279,-1.63338397278321,-0.0430595995280034,-0.0958713567259301,1.16106214977228,-4.47526858423118,3.03435650533446,595.079198178871,567.248726874867
0.97,0.107027404525589,0.0150806138817995,3.35394946318921,-0.748469352559956,-0.0895735539483532,0.0604885829524667,-3.3424702963255,0.798170214634985,1.11682662791841,596.021869231621,567.248726874867
