t,iq,id,vq,vd,ia,ib,va,vb,theta_e,omega,r
0,0,0,0,0,0,0,0,0,0,0,0
0.01,0.000582204387340673,0.000329380739176946,-0.0284140799762779,-0.016480984159844,0.000524438418192016,0.000415232423473572,-0.0259707444715129,-0.0201122651974045,-0.386243359087742,-0.0019119645498681,0
0.02,0.000682831110824651,0.0003847345487559,-0.0333979859544831,-0.0192506790496976,0.000613628838563523,0.000487584502829627,-0.0304142444021771,-0.0236851820160825,-0.386258271440267,-0.00213870147535708,0
0.03,0.00072077770426809,0.000406006814528902,-0.0352722592034109,-0.0203150650347258,0.000647637287113611,0.000514711547134904,-0.0321066855661421,-0.0250198896607205,-0.386273781656361,-0.00214675261020938,0
0.04,0.00070526162104954,0.000397637291116113,-0.0345521003805083,-0.0198962784744306,0.000634046250672278,0.000503482592966243,-0.0314478003412556,-0.0245101079461787,-0.386288348180322,-0.00197966420553936,0
0.05,0.00072217615138628,0.00040765288390863,-0.0354032899801271,-0.0203974258147989,0.000649703665529208,0.0005153682318382,-0.0322330606695808,-0.0251093154259195,-0.386302386885027,-0.00192743550782823,0
0.06,0.000723698761874115,0.000408932127952315,-0.0355067665585973,-0.0204614337185056,0.000651469235965501,0.000516287921416201,-0.0323316760802177,-0.0251806168134818,-0.386315805859124,-0.00182751036151274,0
0.07,0.000737192882498239,0.000417168525823472,-0.0361886826648158,-0.0208735587813208,0.000664189506746293,0.000525675968703067,-0.0329706810533621,-0.0256565859008844,-0.386328313597042,-0.00177559739741534,0
0.08,0.000724321209195125,0.000410145483093687,-0.0355912859188206,-0.0205221536201315,0.000652840405955369,0.000516391262265417,-0.0324203873276067,-0.0252352314848007,-0.386340419124111,-0.00163681694159582,0
0.09,0.00072192835196492,0.000409244916685345,-0.0355001840982275,-0.020477085934249,0.000651110391641823,0.000514506759041718,-0.0323445981476985,-0.0251674609373008,-0.386351704320979,-0.00154023947390953,0
0.1,0.000720994180733499,0.000409127863303898,-0.0354783422940136,-0.0204712340720499,0.000650655415321735,0.00051367864243677,-0.0323312144802005,-0.0251490907708236,-0.386362324819746,-0.00145384958123631,0
0.11,0.000720292901593305,0.000409111168277886,-0.0354664397265376,-0.0204703961256699,0.000650380828746057,0.000513028839048051,-0.0323262047605153,-0.0251380578048346,-0.386372333494584,-0.00137304778426748,0
0.12,0.000719656233404205,0.000409107412488394,-0.0354563986932714,-0.0204702013773369,0.000650142268047002,0.000512434386560051,-0.0323224776624012,-0.0251285254340265,-0.386381767456054,-0.00129696870829081,0
0.13,0.000749787779193959,0.00042654346976935,-0.0369377912446306,-0.0213426440192457,0.000677652589751535,0.000533767751961959,-0.0336890909942559,-0.0261716263106613,-0.386390987119011,-0.0013276178714486,0
0.14,0.000769493684688014,0.000438275492815665,-0.0379873937210519,-0.0219296738774765,0.00069595062501409,0.000547593522532954,-0.0346286198642043,-0.0269223209324739,-0.386399796792033,-0.00132588353189453,0
0.15,0.000724809209370962,0.000412834595862698,-0.0357645853288309,-0.0206567047666023,0.000655550149282403,0.000515785609828245,-0.0326120381665051,-0.025342848738534,-0.386408186187739,-0.00110759913768069,0
0.16,0.000718323810335936,0.000409578024039836,-0.0354665512243633,-0.020493765195018,0.000650093382479998,0.000511000830065499,-0.0323489812276911,-0.025127954177557,-0.386415634625615,-0.00102710618928469,0
0.17,0.000717045244654808,0.00040916013228369,-0.0354199091913187,-0.0204728394602354,0.000649227998294131,0.000509969511797985,-0.0323121950250654,-0.0250924127047993,-0.38642259325947,-0.000968226798062818,0
0.18,0.000716495590509847,0.000409105533823811,-0.0354077088201763,-0.0204701226511948,0.000648973611129835,0.000509476712993265,-0.0323052448107263,-0.0250819242277858,-0.386429144078909,-0.000915032017476882,0
0.19,0.000716066740326289,0.000409097485154736,-0.0354005322983817,-0.0204697136800604,0.000648807672419435,0.000509078513759048,-0.0323023160937911,-0.0250752316066916,-0.386435317798323,-0.000865202874225574,0
0.2,0.000715674366056914,0.000409095453500277,-0.0353943400527055,-0.020469620031819,0.00064866086937157,0.000508712064778968,-0.0323000414474331,-0.0250693433202328,-0.386441137051163,-0.000818275868216645,0
0.21,0.000715306401445646,0.000409094249008713,-0.0353885928577056,-0.0204695456897266,0.000648523858448945,0.00050836813191192,-0.0322979439844718,-0.0250638708017772,-0.386446622314535,-0.000774047768657829,0
0.22,0.000714959662026465,0.000409093204350376,-0.0353831782456544,-0.0204694942178154,0.00064839483175631,0.000508044004316912,-0.0322959851094704,-0.0250587079097425,-0.386451792774858,-0.000732358709074858,0
0.23,0.000714632771419957,0.000409092231061794,-0.0353780695046039,-0.0204694441883069,0.000648273198369206,0.000507738428502949,-0.0322941353691852,-0.0250538373908577,-0.386456666500852,-0.000693062298475262,0
0.24,0.000714324603069531,0.000409091314922483,-0.0353732497715465,-0.0204694097204741,0.000648158529684684,0.000507450355101303,-0.0322924019207585,-0.025049237750739,-0.386461260523037,-0.000656021130728118,0
0.25,0.000714034325079289,0.000409090451375986,-0.0353687145253057,-0.0204693596562284,0.000648050516548141,0.000507179004691767,-0.0322907546094773,-0.0250449160241978,-0.386465590893129,-0.000621105764615849,0
0.26,0.000720008221933245,0.000412660055499863,-0.0356672144416577,-0.0206479758913311,0.000653610565666116,0.000511364243476451,-0.0325688083305828,-0.0252539465898292,-0.38646960056764,-0.000610090615207201,0
0.27,0.000703847182557996,0.000403452005783081,-0.0348924842268815,-0.0201872287556222,0.000638992241088752,0.000499863274499732,-0.0318501313865124,-0.024709892573965,-0.386473644222963,-0.000523235286956791,0
0.28,0.000703295339452764,0.00040327473977989,-0.0348020978275735,-0.0201783606466691,0.000638621857455503,0.000499416633103665,-0.0318079378235258,-0.0246293999724264,-0.38647727069056,-0.000492941657527913,0
0.29,0.000711678620172432,0.00040834360469108,-0.035287485125891,-0.0204319874957356,0.000646478419580465,0.000505268850137614,-0.0322258964568916,-0.0249832807510458,-0.386480578554282,-0.000495650232047879,0
0.3,0.000703751451004621,0.000404120140073126,-0.0349088864531789,-0.0202206697798808,0.000639579787444515,0.00049951665427317,-0.0318875245427216,-0.0247121755069287,-0.386483202515708,-0.00044802962395504,0
0.31,0.000711418791399615,0.000408450812254682,-0.0352872141639904,-0.0204373562820286,0.000646482610230152,0.00050498415565046,-0.0322309070153308,-0.0249808256113163,-0.38648617884435,-0.000450891220554649,0
0.32,0.00071229256883712,0.000409004447166536,-0.0353359309834608,-0.020465054009667,0.000647326226734835,0.000505582928513047,-0.0322749970972612,-0.0250154155763656,-0.386489066287862,-0.00043125394034657,0
0.33,0.000712253944646616,0.000409074816188241,-0.0353400637161863,-0.0204685846597192,0.000647378227761786,0.000505518859315968,-0.032279893477378,-0.0250178244163103,-0.386491799135157,-0.000409713601979141,0
0.34,0.000712100842155307,0.000409083375467216,-0.0353383022113537,-0.0204690053151129,0.000647329747636591,0.000505372155254616,-0.0322796835992109,-0.0250159510813785,-0.386494376651568,-0.000388998394636693,0
0.35,0.000711940500737176,0.000409084051301015,-0.0353358626964974,-0.0204690457565168,0.000647271161518691,0.000505221813746197,-0.0322788622757942,-0.0250135978393435,-0.386496806448366,-0.000369416268548401,0
0.36,0.000711787339392671,0.000409083742426541,-0.0353334630790867,-0.0204690197376568,0.000647214298701783,0.000505078584374116,-0.032277990935576,-0.0250113111080695,-0.386499096826309,-0.000350950398609123,0
0.37,0.000711642597544082,0.00040908333020487,-0.0353311808103953,-0.0204690033923609,0.000647160446868671,0.000504943277705067,-0.0322771694924165,-0.0250091336693446,-0.386501255762746,-0.000333543262108332,0
0.38,0.000711506062975507,0.000409082926115292,-0.0353290223583243,-0.0204689870229171,0.000647109633190567,0.000504815650234742,-0.0322763915921671,-0.0250070749254769,-0.386503290798084,-0.00031713498530765,0
0.39,0.000711377444648641,0.000409082543200401,-0.0353269894761729,-0.0204689706299189,0.000647061763722042,0.000504695422839418,-0.0322756580755352,-0.0250051362701597,-0.38650520904205,-0.000301668363816803,0
0.4,0.000711256160484647,0.000409082181977196,-0.0353250686362301,-0.0204689527597097,0.000647016622990798,0.000504582051813349,-0.0322749626657062,-0.02500330550469,-0.386507017197875,-0.000287089372185601,0
0.41,0.000711141861242005,0.000409081841424942,-0.0353232569281405,-0.0204689363235208,0.000646974081663591,0.000504475209945858,-0.0322743071211892,-0.0250015786316571,-0.386508721582965,-0.000273347071378705,0
0.42,0.000711034139464872,0.000409081520388889,-0.0353215478021241,-0.0204689198673081,0.000646933988147231,0.000504374516394468,-0.0322736877761583,-0.0249999499399312,-0.386510328153219,-0.000260393443850061,0
0.43,0.000710932587699624,0.000409081217755244,-0.0353199338656539,-0.0204689033921405,0.000646896190706106,0.000504279590528237,-0.0322731019861838,-0.024998412400397,-0.386511842522203,-0.000248183227526474,0
0.44,0.000710836914905672,0.000409080932470569,-0.0353184127955582,-0.0204688854436197,0.000646860581373348,0.000504190159730372,-0.0322725476614993,-0.0249969642384377,-0.386513269980932,-0.000236673757899909,0
0.45,0.000710746713633944,0.000409080663541745,-0.0353169757651912,-0.0204688689332121,0.000646827008197376,0.00050410584373883,-0.0322720242969096,-0.0249955960197751,-0.386514615517773,-0.000225824818983629,0
0.46,0.000710661497618633,0.000409080410031673,-0.035315609323725,-0.0204688693499695,0.000646795289416297,0.000504026189456588,-0.0322715412864834,-0.0249942892950948,-0.386515883833746,-0.000215598502790918,0
0.47,0.000710581424477408,0.000409080171057007,-0.035314331667816,-0.0204688513504826,0.000646765485897774,0.000503951340325421,-0.0322710728649745,-0.0249930740985612,-0.38651707936091,-0.000205959076883712,0
0.48,0.000710505891535863,0.00040907994578578,-0.0353131222284282,-0.020468834791851,0.000646737371821795,0.000503880735730495,-0.0322706297757265,-0.0249919237581663,-0.386518206276422,-0.00019687285951351,0
0.49,0.000710434528943812,0.00040907973343187,-0.0353119717130302,-0.0204688351572678,0.000646710809051667,0.00050381403084476,-0.0322702229555699,-0.0249908237030126,-0.386519268518097,-0.000188308101934356,0
0.5,0.00071036749432058,0.000409079533255825,-0.03531089651968,-0.0204688185696784,0.000646685858214703,0.000503751369527881,-0.0322698273013324,-0.0249898017720057,-0.386520269797264,-0.000180234877468292,0
0.51,4.21339096873829,0.0175345928033289,4.54630094773889,-0.872731809542322,-0.348430516772014,4.19899596241437,-1.26424412139594,4.45333581939588,0.0869514226388804,26.7257075664354,616.235593634449
0.52,4.01774971341953,-0.00164212085699594,6.35762796328397,0.0917884402835178,-1.53013182103429,3.71497134127599,-2.33396948366567,5.91442684345807,0.390299072093326,55.8931697589628,616.235593634449
0.53,3.92246847360224,-0.00841540343770697,3.24173947473266,0.435985909735473,-3.0902172950488,2.41586150571587,-2.28036604940849,2.34497104805858,0.905120587243327,84.5391547614459,616.235593634449
0.54,3.75602206024249,0.0322026481052766,3.42771118842863,-1.5920674038138,-3.75117485187681,-0.19345789779756,-3.32589628259772,-1.7950756326595,1.63089668639089,113.691313324475,616.235593634449
0.55,3.56184593440556,-0.00114961155897797,4.77824826178892,0.0758348208966641,-1.9176700212306,-3.0015478459824,-2.63776327658328,-3.98492311946641,2.57274192920806,142.677113502967,616.235593634449
0.56,3.4515764485471,0.00538658866121522,3.15929317007904,-0.246063675668264,1.86166816944575,-2.90647563595068,1.91516338430067,-2.52464450535624,-2.57034701093355,167.920875830921,616.235593634449
0.57,3.2736343164297,0.00760602508507491,5.28925421883615,-0.351732880213184,3.11003903758804,1.02195727601608,4.91048852906623,1.99675452081822,-1.25098883954167,192.226018005612,616.235593634449
0.58,3.13960280832563,0.0446239060405162,4.70988313162176,-2.20870667094757,-0.73960317207847,3.05157078156283,-3.31329484888063,4.01041911976848,0.251995102255458,217.388346798883,616.235593634449
0.59,3.00994830119814,0.01940331297742,4.97236534767879,-0.93889071701078,-2.82802942431281,-1.03073509674456,-4.33347985306234,-2.61283089624809,1.92675071808676,239.330264096158,616.235593634449
0.6,2.89149809613167,0.0232672083390705,4.30094743320671,-1.13834414266222,1.66835582842581,-2.36175600616884,3.43414166946656,-2.82854153308276,-2.51853448110095,262.21375896033,616.235593634449
0.61,2.73706918530411,0.0581542804593145,6.18141859575136,-2.8752262739891,1.41284463473515,2.34495195762667,0.583145299867809,6.79240778677046,-0.521015454779679,282.504124205348,616.235593634449
0.62,2.66120092929476,0.0465885512519979,3.90287429663133,-2.30296089468937,-2.65961799487874,-0.1029223032402,-3.76739530827818,-2.51848947763089,1.62697998035887,303.336491600723,616.235593634449
0.63,2.49980940198789,0.00479809622455477,6.59067267698771,-0.202444979670858,1.74943190741318,-1.78565340122856,4.765681153844,-4.55699829327184,-2.36452103481102,322.094212676479,616.235593634449
0.64,2.44037574379107,0.0536162613432931,4.06431350574606,-2.64847852254975,-0.109958563390094,2.43848674154719,-2.91475550406555,3.87779358771412,0.0670293849587149,340.633983137093,616.235593634449
0.65,2.35043590885882,-0.00551513300474182,3.27446701682421,0.303839001682204,-1.14675839921874,-2.05171259004918,-1.86915755763728,-2.70567965730245,2.62957480835222,358.670850125741,616.235593634449
0.66,2.18112726256786,-0.00414160414202747,6.88238253578095,0.242566349582789,1.78957030235928,1.24690473626309,5.79259638898278,3.72449390885744,-0.964145600796175,375.316854116982,616.235593634449
0.67,2.15291068610425,0.00175052334714887,3.48092872447436,-0.0490786216139848,-2.07142985573557,-0.586690582369608,-3.33500030004212,-0.998522155332175,1.84761056362015,391.358517572511,616.235593634449
0.68,2.04018166393288,0.0340587399601209,4.41047002790094,-1.67155863111022,2.03829926064269,0.0940071469574495,4.2969095053678,1.94497373425233,-1.50801617710445,407.002798150478,616.235593634449
0.69,1.96829602937723,-0.0425296991082554,3.52260199827854,2.15564666418748,-1.96839439848541,0.0377031375307349,-3.43184574778054,2.29738376039773,1.53004040151407,421.958863909209,616.235593634449
0.7,1.83112644324279,-0.0115007684435842,6.15571007150825,0.598585030101049,1.83021304086916,-0.0589622239256105,6.1281207365364,-0.834989078468519,-1.60928185666938,436.049016091708,616.235593634449
0.71,1.75474177803364,-0.0144285613084791,5.9324880720814,0.744567523170699,-1.7501184691807,-0.128110244675033,-5.96826853890914,0.358561249183505,1.63564447133232,449.462152425405,616.235593634449
0.72,1.69666771797916,0.00528542331003401,4.92070677071018,-0.226788265786718,1.63873498065947,0.439609990895555,4.68922828076291,1.50861730458883,-1.30559012893617,462.213160426461,616.235593634449
0.73,1.57724367939067,0.0393826911141661,7.10485944964711,-1.93422180262765,-1.35895540956572,-0.801554000270268,-5.0036990550046,-5.40215119632412,2.12866917661035,474.476892422606,616.235593634449
0.74,1.53096410028291,-0.00383890857075475,5.77338395828448,0.228096328258723,0.901467220678407,1.23742582146019,3.59520674758375,4.52310498517003,-0.632107350870034,486.223614385419,616.235593634449
0.75,1.47662722077196,0.0623794889319371,4.98404589376863,-3.08637574873656,-0.307189254715455,-1.44566728936899,2.21411893089315,-5.42808493793545,2.97443668912829,497.455348784746,616.235593634449
0.76,1.3822239086629,0.0372871527184955,6.33889466102809,-1.83226800543055,-0.475753203772093,1.29830356794464,-4.04349537109769,5.2143011757326,0.378216568872624,508.179293283148,616.235593634449
0.77,1.37381459681876,0.00814060857419602,3.52217265947022,-0.373142834273273,1.15185570541567,-0.74877316314197,3.165901695942,-1.58808131703656,-2.14128692756393,518.415004399775,616.235593634449
0.78,1.24852491078283,0.0649540444473812,6.67431448283597,-3.21786897005142,-1.24689144474701,-0.0910780201368947,-6.22148558384877,-4.02421068710073,1.69568866755109,528.176724559604,616.235593634449
0.79,1.21458370892332,0.0214171219955483,5.40514702622505,-1.03894004551158,0.781256514074812,0.930220693336895,2.59546552475704,4.85371708107042,-0.680947120150812,537.455603645267,616.235593634449
0.8,1.16886159841962,0.013824687990365,4.83251669436625,-0.659499592231133,0.161414755767479,-1.15774515109269,1.37592044144545,-4.67920936187879,-2.9912370461159,546.306824436163,616.235593634449
0.81,1.11188500598218,0.00950181032444841,4.91443690502666,-0.451638878210679,-0.956937713197828,0.566258566369768,-4.47733239005322,2.07585221987975,1.04501777438222,554.828881564948,616.235593634449
0.82,1.00662791461214,-0.0156306922031759,7.50171841093515,0.791599449226688,0.908671082465652,0.433429280166714,7.14989157366913,2.40446652913999,-1.14125008266335,562.936514707776,616.235593634449
0.83,0.99515459709583,0.0198270440723837,5.52089523705719,-0.982322667002703,-0.147166321643895,-0.98441244281623,0.266870172954268,-5.6012518557422,3.01311600291287,570.587181198992,616.235593634449
0.84,0.925189637600833,0.0475233898158686,6.57368487520837,-2.3666725657007,-0.718503092189869,0.58479709696368,-6.7024033899865,1.97288131160522,0.938951837058068,577.854293425277,616.235593634449
0.85,0.919441990771011,0.010150983613493,4.51543694267698,-0.491204220976553,0.816977771869085,0.421928829464291,3.75866298357702,2.5500793999178,-1.08303492676309,584.759913084653,616.235593634449
0.86,0.856425871475769,0.0447815232690827,5.43573753258604,-2.21924347071418,0.0290266612954498,-0.857104492517318,2.67843181494043,-5.22477627446257,-3.05549836517449,591.2935495379,616.235593634449
0.87,0.76689298861528,0.0641186221191151,7.77208463075929,-3.18416013960177,-0.722347308475255,0.265424979284704,-8.33854213353758,-1.00642455729777,1.30207738551406,597.506955551123,616.235593634449
0.88,0.760633393461451,-0.00725805520923117,6.01577865310768,0.383571726555801,0.410102084038335,0.640649763350863,3.6125717268745,4.82556168655899,-0.578950508343208,603.488755953495,616.235593634449
0.89,0.747828198899138,0.00434254529063099,4.64971101907651,-0.213837454713066,0.492131447531798,-0.563091920665345,3.24030306082908,-3.34155279652161,-2.41753346164929,609.154889703295,616.235593634449
0.9,0.689189968429119,0.0202650749550977,5.66535030121117,-1.00681147200791,-0.615637536241413,-0.310457581348675,-4.50181290401639,-3.58378904971146,2.06726282437264,614.494711762032,616.235593634449
0.91,0.631435457015891,-0.0107178407479809,6.73947375836329,0.551162569386259,-0.200980513085558,0.598692276421729,-1.51065968694241,6.59106926285917,0.306906172216568,619.495143231353,616.235593634449
0.92,0.588623258877219,0.0233023825112151,7.14228247898144,-1.1452995196778,0.585272608007922,0.0669052780992794,6.88343874277423,2.22310167869447,-1.41740840254853,624.253053539279,616.235593634449
0.93,0.58627826910191,-0.027452450099383,5.58726595510543,1.3753764213309,0.0472868642532548,-0.585012647988644,-1.18541473970332,-5.63062989800673,-3.10772827655762,628.81725489051,616.235593634449
0.94,0.525870954523395,-0.00490090000497898,6.96566671576527,0.245053691259071,-0.525387145418199,0.023078714468556,-6.94276990735674,0.615231761388727,1.51757816738731,633.155186253329,616.235593634449
0.95,0.580635215876591,-0.0205902003432325,2.69185836726506,1.04151884100474,0.0430737476042288,0.579401296627439,1.32984017539334,2.5617158455794,-0.109651973122131,637.158519804564,616.235593634449
0.96,0.499749367046115,0.0216035642972247,5.2601889750998,-1.06267406800582,0.492097114909885,-0.0897584166009198,5.35610485535695,0.333174139145351,-1.70801087754761,640.985797564502,616.235593634449
0.97,0.479015801401285,0.0188594884936364,4.87826338135883,-0.946694416247485,-0.0843417369507243,-0.471909196463146,0.269078942938404,-4.96198352054174,3.0040864609148,644.61327842087,616.235593634449
