t,iq,id,vq,vd,ia,ib,va,vb,theta_e,omega,r
0,0,0,0,0,0,0,0,0,0,0,0
0.01,0.000830641898217183,0.000326418320731058,-0.038193317702547,-0.0163347540717008,-0.000850250368955459,0.000271273281533282,0.0391818275536327,-0.0137963073779917,1.63638680971632,-0.0104562510816577,0
0.02,0.000632549971124067,0.000373389367382257,-0.0328048387628019,-0.0186852963244896,-0.000655663680823494,0.00033112569107843,0.0339590299316036,-0.0164949092477608,1.63638874205929,0.00270734613921117,0
0.03,0.000682136565048925,0.000391742173690929,-0.034062874261007,-0.0196037238237818,-0.000706347941693921,0.000346186090549002,0.0352746267344874,-0.0173287650864934,1.63639266086449,-0.00218235075009136,0
0.04,0.000653709951364375,0.000383095218751876,-0.0329535128917754,-0.0191709986061963,-0.000677416642006483,0.000339419121847933,0.0341393353757526,-0.0169695898468134,1.63639554709379,-0.00123825316720671,0
0.05,0.000692594982485621,0.000392682683117616,-0.0346661652047499,-0.0196507764706747,-0.000716844255567434,0.000346441643923878,0.0358796413803078,-0.017336301806439,1.63638902181367,-0.00159624640602345,0
0.06,0.000681906810262898,0.000393612508880426,-0.0343303673392923,-0.0196973077950852,-0.000706240016624303,0.000348070027363126,0.035547615704608,-0.0174047428519521,1.63638903061585,-0.000851421937737099,0
0.07,0.000710887494420017,0.000402393807957808,-0.0352092066702136,-0.0201367573955321,-0.000735734093219907,0.000354932599910795,0.0364533760487463,-0.0177856292382649,1.63638941706169,-0.00301961272539386,0
0.08,0.000682323845291189,0.000394554046780398,-0.0344348262369015,-0.0197444367842685,-0.000706717444569965,0.000348983064380267,0.0356549178763864,-0.0174449669854005,1.63638781560013,-0.000440543462916962,0
0.09,0.000680125649321642,0.000393794214931883,-0.0341961276087185,-0.0197064072048234,-0.00070447495431632,0.000348367365463561,0.0354142789947571,-0.0174225851019756,1.63639005919654,-0.00109930695245536,0
0.1,0.000683675964663197,0.000393720381786961,-0.0343573173187545,-0.0197027193956107,-0.000708012565424342,0.000348061447008807,0.035574868850997,-0.0174083632532794,1.63638939905605,-0.00110868396532407,0
0.11,0.000682598948046864,0.00039371322792532,-0.0343217246899779,-0.0197023606123337,-0.000706937404138498,0.00034812488613712,0.0355393296539522,-0.0174103373643588,1.63638942250379,-0.00104180213392072,0
0.12,0.00068264784245614,0.000393712545672004,-0.034319036281064,-0.0197023256803363,-0.000706986167864141,0.000348120961561251,0.0355366456959652,-0.0174104767641345,1.63638947760148,-0.00106517755253525,0
0.13,0.000731952155741266,0.000411248305756256,-0.0363162437975526,-0.0205798507738066,-0.000757331691246763,0.000362391827605142,0.0375869682492293,-0.0181554300215349,1.63638350583731,-0.00235283799669307,0
0.14,0.000727272536830954,0.000424272038910494,-0.0368946033726585,-0.0212315855597711,-0.000753517134519006,0.000375691407695286,0.038206870206576,-0.0187677130313077,1.63638729361667,-0.00339722419828169,0
0.15,0.000678804238782655,0.00039667578312719,-0.0343405036490732,-0.0198505996120594,-0.000703344398439755,0.000351331081306918,0.0355677526988238,-0.0175570915525782,1.63638759902965,-0.000115766593987398,0
0.16,0.000679824548715475,0.000394000043180634,-0.0341648912306382,-0.0197167043735479,-0.00070418809133135,0.000348592287765594,0.0353837896744892,-0.0174348975456335,1.63639034245389,-0.00118081899292237,0
0.17,0.000684124643355719,0.000393740325281488,-0.0343772172123441,-0.0197037024449165,-0.00070846155795455,0.000348051996546455,0.0355947889594991,-0.0174080427455593,1.63638931712435,-0.00111038923761745,0
0.18,0.000682465186913283,0.000393715162786394,-0.0343169760735901,-0.0197024574524558,-0.000706804058336036,0.000348135582605698,0.0355345976398118,-0.0174107451614762,1.63638942497742,-0.00103332867137718,0
0.19,0.000682653197568482,0.000393712734787989,-0.0343183043997966,-0.0197023364142949,-0.0007069915263011,0.000348120794298691,0.0355359162144173,-0.0174105351974333,1.63638948462419,-0.00106808921171857,0
0.2,0.000682744816418078,0.000393712492431817,-0.0343235468142966,-0.0197023246843236,-0.000707082921086781,0.000348114569861725,0.035541146028531,-0.0174101810116482,1.63638945257803,-0.00106289616737986,0
0.21,0.00068269347726011,0.000393712470243545,-0.0343214391216811,-0.019702323404384,-0.000707031692925699,0.000348117908642164,0.0355390428869778,-0.0174103176763593,1.63638945846265,-0.00106143181625588,0
0.22,0.000682703256147137,0.000393712468277448,-0.0343216191459805,-0.0197023234664386,-0.000707041450985747,0.000348117265040091,0.0355392225447631,-0.017410305904599,1.63638945941342,-0.0010624637918925,0
0.23,0.000682704653130998,0.00039371246789237,-0.0343216784210955,-0.0197023235439992,-0.000707042844622318,0.000348117173734645,0.0355392816815945,-0.0174103021291935,1.63638945850024,-0.0010622302747905,0
0.24,0.000682703197939476,0.000393712467907399,-0.0343215607961163,-0.019702323626837,-0.000707041392644308,0.000348117268962802,0.0355391643191536,-0.0174103099132189,1.63638945873924,-0.00106221560431639,0
0.25,0.000682703605393102,0.000393712467908661,-0.0343215199766103,-0.0197023237062269,-0.000707041799221882,0.000348117242256905,0.0355391235926358,-0.0174103126679899,1.63638945873946,-0.00106224343138956,0
0.26,0.00069911045987747,0.000397411675542714,-0.0349186820646628,-0.019887435449709,-0.000723655455984577,0.00035073388201243,0.0361471156353686,-0.0175559242748035,1.63638836353765,-0.0018138037816915,0
0.27,0.000665208890357284,0.000387285292448987,-0.0338935729151322,-0.0193806920638947,-0.000689162882846562,0.000342851697479074,0.0350909878182469,-0.0171174788963954,1.63638786427022,0.000739637711968967,0
0.28,0.000677231556779431,0.000387031494517997,-0.033224216051249,-0.0193679814237582,-0.000701143416606911,0.000341809696462101,0.0344222550254763,-0.0171486324706136,1.63638890399061,-0.000478337087813972,0
0.29,0.000681892865084146,0.000393064648647159,-0.0342567735348597,-0.0196699008186826,-0.000706190520043064,0.000347523591818003,0.0354724001793343,-0.0173821850396502,1.6363899758189,-0.00119276868822642,0
0.3,0.00068041889424602,0.000389549934050913,-0.0339300174429299,-0.0194940112267025,-0.000704490618161743,0.000344110435308394,0.0351348817316458,-0.0172279610832969,1.63639368643248,-0.00243355437235441,0
0.31,0.00068937297911498,0.000393308481559747,-0.0346328764073311,-0.0196821049002016,-0.000713669881081882,0.000347277938886519,0.0358484616963877,-0.0173697776482784,1.63638810558656,-0.00103888544172115,0
0.32,0.000680502655865689,0.000393673309521099,-0.0342460205427788,-0.0197003639982829,-0.000704843045267947,0.000348222372639895,0.0354636595263033,-0.0174133028941585,1.63638954260302,-0.000938573056818568,0
0.33,0.00068285983461375,0.000393708691099498,-0.034318646068269,-0.0197021334422106,-0.000707197479723545,0.000348103162652487,0.0355362451339925,-0.0174103076340018,1.63638955871147,-0.00110937677853678,0
0.34,0.000682858903418307,0.000393712092053189,-0.0343294815383908,-0.0197023052220831,-0.00070719672321209,0.000348106719390238,0.0355470660497888,-0.0174097739505942,1.63638941439326,-0.00105703880590931,0
0.35,0.000682632068175734,0.000393712432929162,-0.034318469536818,-0.01970232172776,-0.000706970415808918,0.000348121891750354,0.0355360796960035,-0.0174105104075946,1.63638946522964,-0.00105957968257726,0
0.36,0.000682714548433347,0.000393712464908078,-0.034321346691074,-0.0197023245654725,-0.000707052719208704,0.000348116520616475,0.035538950769862,-0.0174103248145876,1.63638946068078,-0.00106370055065047,0
0.37,0.000682706457568485,0.000393712467336792,-0.0343212843957839,-0.0197023246605799,-0.000707044644771328,0.000348117055661341,0.0355388885582159,-0.0174103291081439,1.63638945743252,-0.00106195978511344,0
0.38,0.00068270145170965,0.000393712467920513,-0.0343209514066966,-0.0197023247499898,-0.000707039650278379,0.00034811738321542,0.0355385563192123,-0.0174103509660509,1.63638945904903,-0.00106219462264429,0
0.39,0.000682704071054389,0.00039371246791542,-0.0343210008148565,-0.0197023248252857,-0.000707042263894295,0.000348117211716853,0.0355386056212712,-0.0174103478124419,1.63638945877413,-0.00106227711213877,0
0.4,0.000682703605393102,0.000393712467903555,-0.0343209364569558,-0.0197023249062914,-0.000707041799213778,0.00034811724226759,0.0355385414060869,-0.0174103521137084,1.63638945871714,-0.00106222453863872,0
0.41,0.000682703488977781,0.000393712467912141,-0.0343208747701393,-0.0197023249866509,-0.000707041683065491,0.000348117249873979,0.0355384798579991,-0.0174103562355797,1.63638945876346,-0.00106223567489793,0
0.42,0.000682703605393102,0.000393712467910497,-0.0343208261714428,-0.0197023250665793,-0.000707041799226058,0.000348117242250499,0.035538431368836,-0.0174103595012304,1.63638945875111,-0.00106223669822138,0
0.43,0.000682703605393102,0.000393712467910417,-0.0343207726301178,-0.0197023251467232,-0.000707041799225711,0.000348117242251115,0.0355383779478854,-0.0174103630906624,1.63638945875013,-0.00106223525366619,0
0.44,0.000682703605393102,0.000393712467910279,-0.0343207186478608,-0.0197023252268671,-0.000707041799225956,0.000348117242250461,0.0355383240869808,-0.0174103667089348,1.63638945875086,-0.00106223567944697,0
0.45,0.000682703605393102,0.000393712467910169,-0.0343206647022813,-0.0197023253070111,-0.000707041799225528,0.000348117242251204,0.0355382702626411,-0.017410370324872,1.63638945874965,-0.00106223566408349,0
0.46,0.000682703605393102,0.000393712467910144,-0.0343206107933604,-0.019702325387155,-0.000707041799225273,0.000348117242251696,0.0355382164748895,-0.0174103739383894,1.63638945874892,-0.00106223562863043,0
0.47,0.000682703605393102,0.000393712467910042,-0.03432055685288,-0.0197023254672989,-0.000707041799225089,0.000348117242251953,0.0355381626556502,-0.0174103775539675,1.63638945874841,-0.0010622356429744,0
0.48,0.000682703605393102,0.000393712467909893,-0.0343205029035776,-0.0197023255474428,-0.000707041799224847,0.000348117242252276,0.035538108827605,-0.0174103811701295,1.63638945874775,-0.00106223564119255,0
0.49,0.000682703605393102,0.00039371246790952,-0.034320448945453,-0.0197023256275868,-0.000707041799224569,0.00034811724225242,0.0355380549907555,-0.0174103847868721,1.63638945874702,-0.00106223564045922,0
0.5,0.000682703605393102,0.000393712467909388,-0.0343203949785064,-0.0197023257077307,-0.000707041799224383,0.000348117242252647,0.0355380011451069,-0.0174103884041849,1.63638945874651,-0.00106223564091068,0
0.51,0.772302439600351,-0.0171445276707671,3.41679946550292,0.866960889215689,-0.436508498386282,0.637342391402189,-1.14169381830186,3.33506746500607,0.57831628767829,159.014187748047,336.784368143089
0.52,0.329598543431595,0.0184068618203506,4.94992139806622,-0.927905518796371,-0.292014162745597,-0.1539536980728,-3.76528289132831,-3.34445440200893,2.11176503695852,248.449893994685,336.784368143089
0.53,0.152389982770157,0.0157275313472848,4.90543419796983,-0.77979001935831,0.115046920220026,-0.101164560192073,4.44896980330257,-2.20862510041986,-2.18923348208497,286.64521116554,336.784368143089
0.54,0.0922827645145604,0.02030943279367,4.00495539340955,-1.02653478318006,0.0218946772651847,0.0919195561037139,-0.957454580833037,4.0220295983397,-0.017211567496606,303.890323664916,336.784368143089
0.55,0.0272966337832354,-0.000565302826856353,5.356235325198,0.040962687278245,-0.0209732671714945,-0.0174799269831207,-4.21025057247628,-3.31130260133548,2.24488997051239,312.081190761757,336.784368143089
0.56,0.0152155410322212,0.0354669599414158,5.19318167505312,-1.77586386689455,0.00916621935280081,-0.0374886430691422,5.41474984830965,0.896277001869272,-1.73625352453758,315.842403327113,336.784368143089
0.57,-0.0290412841099456,-0.00967016880372483,7.20891099052434,0.470402210980866,0.00789071974405887,-0.0295743958411297,-3.57080545871836,6.28004970405374,0.582168004572343,316.46409186295,336.784368143089
0.58,0.0054921937802121,0.00909348167619472,5.17247877258257,-0.443995474382157,-0.0101164362006944,-0.00324242503567467,-0.763175952504805,-5.13509796397377,2.90842490050105,318.343764669637,336.784368143089
0.59,0.0240305074098988,-0.0149211875259029,4.31914633523353,0.742062508583776,0.0132857201353948,0.0249719195106089,4.10757396792325,1.52758565384927,-1.044604208981,318.263664369292,336.784368143089
0.6,0.0397451933281347,0.0126514355763354,3.5604109130174,-0.64521991337623,-0.0346805469880814,0.0231732361883368,-3.59973907419317,0.367032973828698,1.28991146538578,318.126529677276,336.784368143089
0.61,0.00732718802780643,0.0413411974054903,5.02169086685281,-2.06010919989356,-0.0331841498618496,-0.0257214790644095,4.1600770702287,-3.48642909686636,-2.65762706968075,319.407139432725,336.784368143089
0.62,-0.00407286576242562,-0.0413209599348012,5.60909609052071,2.05991617319561,-0.0405419808998296,0.00896424844423879,3.70037947575389,4.69173798593943,-0.315858299713901,319.517627355083,336.784368143089
0.63,-0.0401585194114972,0.0325044660858457,7.45931927252404,-1.62258144909172,0.0217420992055075,0.0468671326089762,-5.98267559932034,-4.74149841734469,2.02678329678031,318.978375269247,336.784368143089
0.64,0.0151921387598268,0.01824317436685,4.77429199233612,-0.906697986928558,0.00801034721809713,-0.022348351807743,4.79556188736469,-0.786480420633825,-1.92102851873806,319.442541410771,336.784368143089
0.65,-0.017968895691152,0.0219169158697218,6.45463630822347,-1.1076116837602,0.0273426667550997,-0.00745727754073361,-3.64589464927315,5.4402744158581,0.420478069406076,319.244504890346,336.784368143089
0.66,0.0122606457385009,-0.015607935501993,4.90150186950022,0.793837098969849,0.00998706233898522,-0.0171519582088057,-2.54528511507183,-4.26338147476962,2.76393767174836,319.69020493124,336.784368143089
0.67,0.0160485060099361,0.0279721361944881,4.74096140628735,-1.39676947237543,0.0255155250807568,-0.0197218895719254,3.84804944462203,3.10164399740044,-1.17890053895327,319.72151456971,336.784368143089
0.68,-0.0128509591489996,0.0267282319665998,6.3595938095621,-1.3501786103845,0.0223899101852656,0.0194483278717057,-6.37403352352305,1.28027822896619,1.1633759407131,319.243507812316,336.784368143089
0.69,-0.0143749152021396,0.0269912271559174,6.25691178600297,-1.33840342722481,-0.0303501561830001,0.00374600455399309,3.4920213510286,-5.36153482836682,-2.77502922149599,320.151139453635,336.784368143089
0.7,-0.0158193198088323,-0.0183913536683086,6.4404848209834,0.91989193578248,-0.0233175956157125,-0.00669197307742842,3.5257924509758,5.46761680217966,-0.430876206203929,320.05619216036,336.784368143089
0.71,-0.0103391986731837,0.0559675740537173,6.06517722495926,-2.81442841485324,-0.00934932793618142,0.0561414146758312,-4.74328323538847,-4.7126050355807,1.91848975195599,320.375086521257,336.784368143089
0.72,0.00556856635012973,0.0287572204881943,5.13917464020638,-1.42734474496428,-0.00726657009050934,-0.0283757576202316,5.25586112637307,-0.907938777560402,-2.01276598650793,321.440179043199,336.784368143089
0.73,-0.0304120957736372,-0.00154867974562417,6.93202990923397,0.0738423155284848,0.008731242256871,-0.0291729221531066,-2.25319027720973,6.5560372882378,0.341686959101187,321.540669975477,336.784368143089
0.74,-0.0282563173425948,-0.0452773683254315,6.83466466987111,2.25218035375038,0.0530084350391363,0.00621010200752627,-4.95565647074517,-5.21789482831583,2.70028276002203,321.526640687683,336.784368143089
0.75,0.0275133593300256,-0.00889597504261356,4.08345129104972,0.456094103173092,0.0228987601455152,0.0176570126969449,3.99790281411784,0.948350866606643,-1.22665682262082,321.639928163815,336.784368143089
0.76,0.00967728804793213,-0.0259848906610416,5.07257682695905,1.29481611168575,-0.0198492514443565,-0.0193616028191792,-4.03348237239738,3.33745477572994,1.12946890160203,321.33971480593,336.784368143089
0.77,-0.0240117420530398,-0.0500873035742169,6.66774372220647,2.49364990950962,0.0389084101138591,0.0396413591867034,-0.0724951928366862,-7.11841560062608,-2.79389415421168,321.902193278887,336.784368143089
0.78,0.00668661377192585,0.0385253792977082,5.0880693783845,-1.9192597100002,0.0377496560538553,-0.0101921107520875,0.406663444626457,5.42278827509323,-0.435556384861402,322.637465298382,336.784368143089
0.79,0.0065203922648647,-0.0365670123394086,5.3567847845168,1.82203725882969,0.00647922301465879,-0.0365743294654117,-5.65655648581998,-0.135394693109715,1.92258837223279,321.394736567635,336.784368143089
0.8,-0.046112452453039,0.0204038411451443,7.95035645336405,-1.01966056004043,-0.0504185849245485,0.000800811411105426,7.64576087779968,-2.40628676444793,-2.00326102927328,321.746648210898,336.784368143089
0.81,0.00551117172175546,-0.0249759201925161,5.10043237227689,1.25664927897361,-0.0253180147026498,-0.00362873734596716,-0.618236362240123,5.21645105363014,0.359535979725239,323.181208154336,336.784368143089
0.82,-0.0233413519269391,-0.00393164751338179,6.75093483508924,0.186366006939264,0.0130348807944767,0.0197577439152472,-2.90047049522492,-6.09894452692378,2.72527890598099,322.498639052783,336.784368143089
0.83,0.0202900495765548,0.0110918538715844,4.48318752738189,-0.542717792509502,0.0229555740861048,-0.00278513060824572,3.96306450199647,2.16509416908235,-1.1912542807693,322.941891579126,336.784368143089
0.84,0.0129839154246214,-0.0262526534985176,4.97976787939345,1.31857172967899,-0.0221308143400124,-0.0191836110290751,-4.08164698021977,3.1427499849352,1.17348134524661,322.642941538884,336.784368143089
0.85,0.0068210382331416,-0.0340450487779912,5.26925248039406,1.69243364186384,0.0340339356425726,0.00687627323126445,0.477083491161357,-5.51377771375604,-2.74449946294448,322.662638310429,336.784368143089
0.86,-0.0241917864379924,0.00553909224472071,6.7442314446337,-0.264882099020728,-0.00372610301503715,-0.0245365081109413,2.22881117840364,6.3708100769204,-0.375794024676355,323.187305060865,336.784368143089
0.87,-0.0111735358080282,0.00177463361376409,6.1319220025446,-0.0865120336447004,0.00947963940814216,0.00617524603623111,-5.56406176271167,-2.57859816140201,1.9906614726025,323.156164759417,336.784368143089
0.88,-0.0112836391306743,-0.0144700165127779,6.31870589990809,0.71144057415669,-0.0055652395706291,0.0174851365002637,5.67984600104921,-2.85859079695836,-1.92494924799655,322.470529208507,336.784368143089
0.89,-0.00346234525121321,0.0366006974549342,5.68247777877064,-1.81906612849685,0.0345317657247367,0.0126157062726637,-4.08618786148131,4.34771480743039,0.444588677624881,323.751645701145,336.784368143089
0.9,-0.0193434299707996,0.0634079050808137,6.61029961444772,-3.17336500843082,-0.0538214482472932,0.0387037778302926,0.879454251698336,-7.27961995496128,2.81424870001502,323.411543849856,336.784368143089
0.91,-0.0238298549561557,-0.0340568724838789,6.82735757646028,1.69085325685133,-0.0367568097875418,0.0194079747747434,6.84568048305944,1.61507118632999,-1.09633369700209,323.443930223638,336.784368143089
0.92,-0.0091487571706736,0.00164898495652881,5.98520788281335,-0.0703258603469473,0.00923411440915206,-0.00107239928827854,-5.74887066970051,1.66677687474413,1.27685298056138,324.249355406733,336.784368143089
0.93,-0.00448103653138287,-0.0200497853748161,5.86233047476411,1.00166919057032,0.0152904487306258,0.0137213614334687,1.99597344437949,-5.60235216422689,-2.63010824468141,323.926794857163,336.784368143089
0.94,0.0338048090029544,-0.00162554266293029,4.1134288726302,0.0682683926915641,0.00698651492003,0.0331148925703743,1.10752928099688,3.96211263789446,-0.255977858967138,323.219708965203,336.784368143089
0.95,-0.0327981682118585,-0.0183020187617485,7.22634116436779,0.927144980728368,0.037532913559332,0.00140147370880383,-6.656239514295,-2.96210735245435,2.11709823792716,324.371853728527,336.784368143089
0.96,0.0265266601805325,0.0128063045927559,4.29560170755901,-0.644107422172043,0.0231416540176084,-0.0182244063548089,4.33344456315275,-0.297197946431151,-1.78810842063124,324.662774496932,336.784368143089
