t,iq,id,vq,vd,ia,ib,va,vb,theta_e,omega,r
0,0,0,0,0,0,0,0,0,0,0,0
0.01,0.000940958608563994,0.000536740318991592,-0.0467743993460789,-0.0268712030934188,0.000660683993717335,-0.000858481178307128,-0.0327686858043575,0.0428499617331162,-1.96728294030273,-0.000884212528628744,0
0.02,0.00104245406691123,0.000594631317245519,-0.0518569417887221,-0.0297694329994002,0.000731943167103679,-0.000951081534464391,-0.0363373905739076,0.0474863727722383,-1.96728954419652,-0.000945730399445185,0
0.03,0.00108162497032861,0.000617026685376675,-0.0538074855704543,-0.0308906220560021,0.000759419779386823,-0.000986871879010321,-0.0377032923738143,0.0492741086027549,-1.96729630446973,-0.000945937718145196,0
0.04,0.00105849292086342,0.000604192382698447,-0.0526675403058734,-0.0302480987848338,0.00074303275303106,-0.000966104563053029,-0.036899618470202,0.0482414286554761,-1.96730262684226,-0.000888176485819272,0
0.05,0.00108136181113078,0.000617360925874153,-0.0538089893013097,-0.0309073705271347,0.000759035532578245,-0.000987088111392236,-0.0376975909731458,0.0492906128725486,-1.96730888989121,-0.000875354221422434,0
0.06,0.00108179869534054,0.000617827676441219,-0.0538376548583889,-0.0309307390993843,0.000759252278509949,-0.000987691972527215,-0.0377147087525673,0.0493234674936202,-1.96731494552207,-0.00084193843406706,0
0.07,0.0011108446869894,0.000634675625661881,-0.0552848529994671,-0.0317741994634925,0.000779531953139803,-0.00101445502732054,-0.0387235767118932,0.0506606289869818,-1.96732069678522,-0.000837965935546536,0
0.08,0.00108211733373195,0.000618439439534189,-0.0538665971265385,-0.0309613710719669,0.000759298669320513,-0.000988387978024118,-0.0377290128989622,0.0493633302190885,-1.96732633392771,-0.000778607934292747,0
0.09,0.00108068398249322,0.000617856682911654,-0.0538016897185734,-0.030932175011778,0.00075819632562201,-0.000987300907752688,-0.037680154101093,0.0493115326718892,-1.96733168499032,-0.000747315398958662,0
0.1,0.00108028027730444,0.000617832961494568,-0.0537875943809679,-0.0309309851286251,0.000757828042369993,-0.000987126994889599,-0.0376673590457202,0.0493051844417964,-1.96733681656551,-0.000718248140539326,0
0.11,0.00107992878101209,0.00061782931861669,-0.0537758466223348,-0.0309308192166376,0.000757500369238753,-0.000986991605639975,-0.0376563442526891,0.0493006794566177,-1.96734173961335,-0.000690397101535681,0
0.12,0.00107959329580251,0.000617826505842627,-0.0537646613617027,-0.0309306654524959,0.000757187342798797,-0.00098686301155162,-0.0376458535187994,0.0492963952993917,-1.96734646268072,-0.000663678710703528,0
0.13,0.00113102219920736,0.000647341061227171,-0.0563207767803168,-0.0324082863000311,0.000793220775146773,-0.00103395477005821,-0.0394326540498809,0.0516468073807614,-1.9673511792449,-0.000687193460359439,0
0.14,0.00118610982095037,0.000679414089642621,-0.0591020633228838,-0.0340139857058462,0.000831640564161556,-0.0010848197936067,-0.0413776701703614,0.0542023387308376,-1.96735569366961,-0.000715385635549523,0
0.15,0.00108261274408943,0.000620017685824208,-0.0539301183223086,-0.0310403834388363,0.0007591126926982,-0.000990060707322607,-0.037755420694984,0.049462018503423,-1.96736006592915,-0.000590590442091601,0
0.16,0.00107849185686265,0.00061789464801854,-0.0537303379919981,-0.0309340882158234,0.000756127704963097,-0.000986513748082733,-0.0376120047277843,0.0492869570458132,-1.9673640526016,-0.000564316328912579,0
0.17,0.00107807789618826,0.00061781667464769,-0.0537142105814425,-0.0309301944679361,0.000755772223827293,-0.00098628481657865,-0.0375984448184041,0.0492772797082927,-1.96736786959709,-0.000542585211969975,0
0.18,0.00107781266349666,0.000617811809187759,-0.0537052795872126,-0.030929929942644,0.000755525843935996,-0.00098618064689509,-0.0375901287043078,0.0492737236850546,-1.96737153125584,-0.00052186609955501,0
0.19,0.00107756285201208,0.000617809638418338,-0.0536969409653823,-0.030929824998938,0.000755292794967175,-0.000986084805292972,-0.0375823047020723,0.0492705380200508,-1.96737504416465,-0.000501993419857059,0
0.2,0.00107732340149027,0.000617807644791889,-0.0536889508496079,-0.030929722984272,0.000755069375767672,-0.000985993019823003,-0.0375748080789258,0.0492674842573406,-1.96737841437616,-0.00048292816108095,0
0.21,0.00107709355128126,0.000617805735146436,-0.0536812781525897,-0.030929646666965,0.000754854914914204,-0.000985904915304399,-0.037567601077378,0.0492645716141934,-1.96738164768732,-0.000464637353074528,0
0.22,0.00107687330927733,0.000617803903014751,-0.0536739299043688,-0.0309295417703983,0.000754649416629568,-0.000985820493190734,-0.0375607108709041,0.0492617529568149,-1.96738474965912,-0.000447089530720015,0
0.23,0.001076661852684,0.000617802145152675,-0.0536668713138119,-0.0309294654682161,0.000754452117907853,-0.000985739436851618,-0.0375540830190862,0.0492590677881586,-1.96738772562657,-0.000430254513196746,0
0.24,0.00107645907297487,0.000617800458551577,-0.0536601029710847,-0.0309293635054915,0.000754262914701934,-0.000985661705597716,-0.0375477387694702,0.0492564664894049,-1.96739058070804,-0.000414103345877691,0
0.25,0.00107626438018278,0.000617798840328108,-0.0536536012549761,-0.030929287215067,0.000754081259053868,-0.000985587072715908,-0.0375416362617958,0.0492539874735752,-1.96739331981415,-0.000398608250299277,0
0.26,0.00108706296109635,0.000624046241260929,-0.0541921707308964,-0.0312420574541205,0.000761625811951218,-0.000995522835091745,-0.0379174553450584,0.0497506191182451,-1.96739592609133,-0.000394515449500526,0
0.27,0.00105045554789435,0.000603156322109092,-0.0523795718625669,-0.0301962310012881,0.000735926816182378,-0.000962115444333919,-0.0366494119000008,0.0480858869375729,-1.96739852422887,-0.000344498057827812,0
0.28,0.00104593862044385,0.000600534911411737,-0.05211724514951,-0.0300649878516158,0.000732770788585499,-0.000957954460794496,-0.0364580285875477,0.0478635862425862,-1.96740095117004,-0.000326555896589155,0
0.29,0.00107445406453041,0.000617176739583338,-0.0535751970639397,-0.0308981545908228,0.000752642030615491,-0.000984321410119494,-0.037480857201234,0.0491953558887326,-1.96740320898802,-0.000341591081188122,0
0.3,0.0010689074306276,0.000614175995803344,-0.0533023518383327,-0.0307479073175899,0.000748683195914631,-0.000979412436732851,-0.0372871348735889,0.0489514462383626,-1.9674051558874,-0.000325332703577471,0
0.31,0.00107502961671266,0.000617661479049546,-0.0536084421726303,-0.0309224150744981,0.000752981636740677,-0.000984993925992629,-0.037501949222057,0.0492307285215449,-1.96740728980486,-0.000319345136929217,0
0.32,0.00107511647931403,0.000617784757699885,-0.0536151174084569,-0.0309285972480045,0.000753012105518569,-0.000985142740866212,-0.0375056167288474,0.0492390866714716,-1.96740934968706,-0.000307918682699402,0
0.33,0.00107498500034591,0.00061778803448279,-0.0536108674779452,-0.0309287420939077,0.000752887619622874,-0.000985096461640893,-0.0375015434202396,0.04923765266896,-1.96741132636551,-0.000296745046481912,0
0.34,0.00107485054853984,0.000617787072165275,-0.0536063769281079,-0.0309287001501708,0.000752762108488403,-0.000985045063058047,-0.037497324286006,0.0492359503993541,-1.96741322276737,-0.000286017431229274,0
0.35,0.00107472133540941,0.000617786002274671,-0.0536020569847333,-0.0309286494686546,0.000752641546993852,-0.000984995530512401,-0.0374932696891197,0.0492343030718263,-1.96741504213681,-0.000275725286943477,0
0.36,0.00107459724455216,0.000617784970554956,-0.0535979053871987,-0.0309285987799821,0.000752525768368413,-0.000984947955875949,-0.0374893740170703,0.0492327179850598,-1.96741678760202,-0.000265851205951972,0
0.37,0.00107447839238342,0.000617783980507769,-0.0535939315153314,-0.0309285480827569,0.000752414875659557,-0.000984902389659551,-0.0374856457735853,0.0492311988754562,-1.96741846216522,-0.000256378216699851,0
0.38,0.00107436431324191,0.000617783030624646,-0.0535901155185447,-0.0309284973781259,0.000752308437081276,-0.000984858652798391,-0.0374820665061732,0.0492297381852322,-1.96742006870646,-0.00024729002694885,0
0.39,0.00107425477429234,0.000617782119284168,-0.0535864490269037,-0.0309284437561683,0.0007522062357605,-0.000984816655972137,-0.0374786294821667,0.0492283301019837,-1.96742160998886,-0.000238571005887732,0
0.4,0.00107414959698529,0.000617781244924133,-0.0535829262701679,-0.0309284186458131,0.000752108104985324,-0.000984776330797536,-0.0374753171069708,0.049227001486348,-1.96742308866319,-0.000230206157626379,0
0.41,0.00107404890560329,0.000617780406045498,-0.053579556493158,-0.0309283679162268,0.000752014157449414,-0.000984737725852429,-0.037472158693216,0.0492257060775713,-1.9674245072728,-0.000222181095416171,0
0.42,0.00107395228875657,0.000617779601209663,-0.0535763219851837,-0.0309283171798157,0.000751924011838827,-0.00098470068275413,-0.0374691278902742,0.0492244607505012,-1.96742586825738,-0.000214482016909341,0
0.43,0.00107385945147241,0.000617778829036799,-0.0535732108215946,-0.0309282920383743,0.000751837394295356,-0.00098466508806897,-0.0374662036932744,0.0492232846014979,-1.96742717395778,-0.000207095680418001,0
0.44,0.00107377063445079,0.000617778088202341,-0.0535702376778976,-0.0309282412854384,0.000751754525121674,-0.000984631035277112,-0.0374634193091963,0.049222136153768,-1.9674284266196,-0.000200009382142543,0
0.45,0.00107368501491584,0.000617777377435486,-0.0535673639756881,-0.0309282161247834,0.000751674643774767,-0.000984598207002212,-0.0374607192674564,0.0492210478142225,-1.96742962839742,-0.00019321093431828,0
0.46,0.00107360312067094,0.000617776695516808,-0.0535646185730884,-0.0309281909526139,0.000751598235509174,-0.000984566807594865,-0.037458139974853,0.0492200071932757,-1.96743078135822,-0.00018668864425767,0
0.47,0.00107352466460605,0.00061777604127632,-0.053561989456744,-0.0309281372657771,0.000751525033994504,-0.000984536726573536,-0.0374556812640203,0.0492189834346792,-1.96743188748485,-0.000180431294237333,0
0.48,0.0010734492896184,0.000617775413591791,-0.0535594610331622,-0.0309281120752877,0.000751454708403268,-0.000984507826398204,-0.0374533066338189,0.04921802317137,-1.9674329486798,-0.000174428122205943,0
0.49,0.00107337694142887,0.00061777481138616,-0.0535570327580958,-0.0309280868753237,0.000751387207281825,-0.000984480086496228,-0.0374510265044364,0.0492170999692517,-1.96743396676819,-0.000168668803274129,0
0.5,0.00107330738720681,0.000617774233625034,-0.0535546950792505,-0.0309280616668402,0.000751322314543882,-0.00098445341729923,-0.037448831978384,0.0492162102051157,-1.96743494350113,-0.0001631434319571,0
0.51,2.08555957520921,0.00392981978215691,3.9525834025515,-0.195837653727067,-0.0375535218751286,2.08522514808956,-0.274417280771259,3.94790616615403,0.0198916878040247,6.12133415793565,366.886268898873
0.52,2.07042493903445,0.0102068039271552,4.02235107542804,-0.508832269383369,-0.175173268559368,2.06302640143175,-0.866859921243976,3.9606530180393,0.0896374072338312,12.9082307943345,366.886268898873
0.53,2.06424514988111,-0.0216267231376719,3.62526119579542,1.08632079104952,-0.449541640720475,2.01481712996979,0.310332839644419,3.77177744935259,0.209045816514216,19.6716450022827,366.886268898873
0.54,2.01659633519273,0.0360690318996968,5.27216881752589,-1.800704872863,-0.710936427425326,1.88746686072488,-3.61981226214324,4.2350042817549,0.378110871099981,26.4712227256735,366.886268898873
0.55,1.99862590944055,-0.000564605726111278,5.35668127611148,0.0350259020437986,-1.125111474021,1.65185653605057,-2.98529829854925,4.44783713464603,0.597659192555288,33.4641025802338,366.886268898873
0.56,2.0244222428362,-0.0382939567386651,3.13540134642608,1.92551004420623,-1.5714243155232,1.27686235162413,-1.15323454209176,3.49404931625699,0.869535333619912,40.780108644409,366.886268898873
0.57,1.99687185957276,0.0101386993317186,3.50418952840237,-0.50218446997135,-1.8544552566403,0.74067247680528,-3.4446822751525,0.815902883985221,1.19588312816449,48.188617499024,366.886268898873
0.58,1.9801723436208,0.0297197764214867,3.47094318133497,-1.48091977064941,-1.98026904407211,0.0223671330517843,-3.4654205560931,-1.49379727692998,1.57450936491493,55.0127608808872,366.886268898873
0.59,1.99074907575031,0.0714419849907602,2.17682814887416,-3.56664100748482,-1.83881266589055,-0.766129114171119,-0.4891661181948,-4.14972593972343,2.00143919203361,61.4361945460312,366.886268898873
0.6,1.95412632529086,-0.0317438767446613,3.21515869470373,1.60262820759314,-1.18267536878615,-1.55592298683839,-3.24690112780347,-1.53730142463042,2.47540825460993,67.9246693614486,366.886268898873
0.61,1.90976789607845,-0.040443080523437,4.46345467704401,2.03275654398911,-0.231792816644273,-1.89608047028765,-2.6473600934971,-4.12868155184141,2.99877403494083,74.9386141631569,366.886268898873
0.62,1.85350424897637,-0.00241754655611537,6.38046530992001,0.131215749476618,0.776626450332344,-1.68295430780191,2.54666874054806,-5.85166928917883,-2.71054880056812,81.5004686663117,366.886268898873
0.63,1.84392574652116,0.0339199200543747,6.08134054377352,-1.68268570222525,1.58356170265699,-0.94527512055391,6.11396304961244,-1.55999673390386,-2.09056182899149,87.6653119086784,366.886268898873
0.64,1.83883411629279,-0.0455209050744662,5.38993295078852,2.288538705366,1.81233360368046,0.314372341359247,5.66701218098131,-1.47436751204155,-1.42379288815487,94.3870953392872,366.886268898873
0.65,1.84754256522091,0.00532842823035151,4.04598025199147,-0.253425069379247,1.20566542561757,1.39993314266106,2.43895113211076,3.23816272606403,-0.708093994519732,100.735554989489,366.886268898873
0.66,1.86848938080108,0.0327964993420589,2.17689266470668,-1.62182998755163,-0.0653027274055864,1.86763586663163,-1.73383359449379,2.08878319812761,0.0525018223355067,106.834779416065,366.886268898873
0.67,1.82577829189601,-0.0115654291537214,3.33149250749589,0.590973781146885,-1.39100693936707,1.18266640475785,-2.13874933006352,2.62180160207769,0.859838248423932,113.340272247426,366.886268898873
0.68,1.74344979059148,-0.0330949040687506,6.6318084467853,1.67697050551129,-1.72135720914033,-0.278642788403713,-6.80202878414751,0.724926045080702,1.71229802427616,119.224704648958,366.886268898873
0.69,1.75499459949995,-0.0692878185641187,5.09806344048559,3.48058229381732,-0.831128252808785,-1.54726619347105,-5.58660635092395,-2.62574435676183,2.60920158696938,125.530954957708,366.886268898873
0.7,1.69210230830859,-0.00790663497998456,7.40081944726554,0.416769707207546,0.680645276186855,-1.54919164232979,2.56289642414312,-6.9553854960731,-2.73229882651293,131.324086168149,366.886268898873
0.71,1.69228973073919,0.000323406360118239,6.43554742314997,-0.0041330669134355,1.66595552877516,-0.297383277102932,6.33634344988318,-1.12562844801333,-1.74725079736579,137.502416614977,366.886268898873
0.72,1.69670732571172,-0.0033786099201818,5.36744078575749,0.193005898840266,1.11421341375288,1.27959197900814,3.67810440733069,3.9138497460141,-0.718412982124486,143.163528853395,366.886268898873
0.73,1.64408753730645,-0.020151214421696,7.03622211545618,1.02298264771391,-0.587702588851888,1.53558964857993,-1.47447131240024,6.95563437110283,0.353266464892507,149.175603482302,366.886268898873
0.74,1.6593589794834,0.0875259471226257,5.42960324025847,-4.3557204068165,-1.64135224690131,0.259028600358936,-5.85178648150943,-3.76954726509782,1.46697108924944,154.736235243948,366.886268898873
0.75,1.62501427265337,-0.0307736594322826,6.19744463495255,1.56059327016921,-0.778549824070985,-1.42670199266737,-4.42665375900487,-4.60961038007418,2.62312235748171,160.512571885711,366.886268898873
0.76,1.53958274624342,0.0065624755175584,9.55535208575323,-0.316730719815374,0.961193096105681,-1.20269112020257,6.24388694719824,-7.24009306723269,-2.46307603601565,166.205051568841,366.886268898873
0.77,1.53634034344015,0.0283337725917581,8.85281598202696,-1.3917054376234,1.45494616150493,0.494242977363513,7.85658458239697,4.31083211646948,-1.22488784494595,171.569873741275,366.886268898873
0.78,1.58502052091988,-0.00876441958363161,5.4693970990731,0.458723256161172,-0.0938546982649071,1.58226361975537,0.164398702023148,5.48613750464436,0.0537178304853096,177.149178190573,366.886268898873
0.79,1.58464573077183,0.001483064049945,4.58235615397686,-0.0605186747111062,-1.55308128112756,0.314710701666705,-4.50389178920011,0.846527721373758,1.37180301361225,182.610472309573,366.886268898873
0.8,1.56341357491014,-3.95437662739084e-05,4.76664159884025,0.0323207304649585,-0.626001776744428,-1.43261431770377,-1.93832361919873,-4.35486145688568,2.72960637183313,187.82854552117,366.886268898873
0.81,1.534899662621,0.0232057197831559,5.2670338064701,-1.13611819953953,1.26605538116719,-0.86807790638993,5.01675442535872,-1.96585470405815,-2.15671256435803,193.116950998249,366.886268898873
0.82,1.52549469705548,0.0206931741938915,4.80320549093162,-1.01801992914071,1.02329432919431,1.13156130812315,2.40879694589065,4.27841615994882,-0.72163305177288,198.423115496241,366.886268898873
0.83,1.48714873016634,-0.00561247596064832,5.82884752529689,0.294412390249344,-1.01919485593736,1.08299801068727,-3.76347526567358,4.46076182432498,0.751282749553922,203.550815541654,366.886268898873
0.84,1.45004970584062,0.0290072155571928,6.80641076803929,-1.42090467647665,-1.13612119378217,-0.901506628373756,-4.3408122771381,-5.43171670998788,2.26155989957317,208.521443802588,366.886268898873
0.85,1.48488192190243,0.040772514899145,4.15493216013184,-2.00987245585141,0.886919248628427,-1.19160017051704,4.15009924068976,-2.01983287341164,-2.47429194134197,213.516699365911,366.886268898873
0.86,1.42297739348331,0.0676554342392033,6.33185687992863,-3.36123388606675,1.14869164658956,0.842584963788234,2.80746872817699,6.59609157949245,-0.890418796989666,218.493934913163,366.886268898873
0.87,1.47457854747791,-0.009918164884689,2.82788203214266,0.518504924471779,-0.990109422824433,1.09277792506575,-1.49803049970073,2.4539088749143,0.729420592488205,223.428744277527,366.886268898873
0.88,1.38925041106891,-0.0596495462235299,6.19208157591753,3.00266539466909,-0.910543890413621,-1.05094462111485,-6.43464765017991,-2.43991461596399,2.38474114474631,228.254209338,366.886268898873
0.89,1.38639038766868,-0.0714740748443595,5.4326566101859,3.59234317023595,1.15678349979425,-0.767488622064682,2.22875283031033,-6.11975065818217,-2.20808954496599,233.035959382128,366.886268898873
0.9,1.27648221591494,0.0153812704783686,10.0354162794333,-0.758724787793886,0.6064302552423,1.12333689361447,3.98858241903996,9.23993795929676,-0.482965787929789,237.710199487038,366.886268898873
0.91,1.26447246098755,-0.00222584813528437,9.74343205515144,0.1248797695995,-1.21068069896786,0.364894236926974,-9.28771217222961,2.94762035819164,1.27629905781164,242.320551408795,366.886268898873
0.92,1.26563914824375,0.0351143538945693,8.79401339671115,-1.73065749684114,-0.126489399737452,-1.25979200790077,1.09059483968549,-8.89609183229124,3.06926028939307,246.843934755564,366.886268898873
0.93,1.28489865739503,0.0162027308184697,6.94160562662781,-0.777255257463287,1.26640880598236,0.217797668472059,6.68440508461753,2.02700347203071,-1.38787243781517,251.311425458633,366.886268898873
0.94,1.23116057126721,0.0588787902656743,8.73804840070045,-2.91427372174758,-0.50600704570453,1.12391277859251,-6.56094306444176,6.46533118126255,0.470823550236955,255.736799525344,366.886268898873
0.95,1.26588612016916,0.0459745583686558,6.11660452001681,-2.26688826594841,-0.922865638033669,-0.86769830205598,-2.68950440258372,-5.94291168814306,2.36169632815132,260.090145839067,366.886268898873
0.96,1.22047418086672,-0.0144345501674945,7.50156786578995,0.756986208986359,1.11632645654149,-0.493539081356642,6.51034118520987,-3.80289445262526,-1.9988960310251,264.387732298081,366.886268898873
0.97,1.20530818559418,0.0240883397969466,7.38101023565265,-1.17242492031345,0.0784244891796867,1.20299529087666,-0.838340607484725,7.42637713278981,-0.045116350907489,268.613036235962,366.886268898873
