t,iq,id,vq,vd,ia,ib,va,vb,theta_e,omega,r
0,0,0,0,0,0,0,0,0,0,0,0
0.01,0.000881303290782552,0.000499133493368859,-0.043659212146228,-0.0249829342631927,0.000112872311722771,0.00100652350980646,-0.00582721068431223,-0.0499631606813359,0.403641414883331,-0.00168674711056143,0
0.02,0.000987315979408717,0.000558639308181107,-0.0489675987080991,-0.0279613546559587,0.000125971734982844,0.00112738717476574,-0.00648201070375421,-0.0560146999873261,0.403628769182555,-0.00179179196951225,0
0.03,0.00102888266228005,0.000582407609722488,-0.0510408011137353,-0.029151019757557,0.000131519416285163,0.00117494714763821,-0.00676255529107401,-0.0583884678440232,0.403615995807096,-0.00176666335690861,0
0.04,0.00100466359239333,0.000569430220251666,-0.0498638647031355,-0.0285014703226112,0.000129110231829034,0.00114757581782364,-0.00662810680743972,-0.0570509159771555,0.403604249605375,-0.00161847749827273,0
0.05,0.00102791128082577,0.000583050460198303,-0.0510301856030668,-0.0291831913656665,0.000132519247614425,0.0011743032357096,-0.00679765999751625,-0.0583911835770326,0.403592893280021,-0.00156867929839948,0
0.06,0.00102843302118092,0.00058386897390342,-0.0510733590733749,-0.0292241665998676,0.000133079757232126,0.00117510307460979,-0.00681901744699303,-0.0584469068604345,0.403582120461988,-0.00147831058671898,0
0.07,0.00105324341197007,0.000598598180512696,-0.052314610270253,-0.0299613910489653,0.000136894227220385,0.00120370321804222,-0.00701015327371304,-0.0598778853367128,0.403572132122695,-0.00144325038143656,0
0.08,0.00102829041157709,0.00058480048568183,-0.0510979865279858,-0.0292707902693781,0.000134015487438878,0.00117533511294507,-0.00685337087951965,-0.0584877311732631,0.403562508211138,-0.00131160313635204,0
0.09,0.00102588083542608,0.000583963627060557,-0.050993407602898,-0.0292288933025427,0.000134202545427771,0.00117278927477401,-0.00685642788792152,-0.0583750393512883,0.403553592493303,-0.00123112106552527,0
0.1,0.0010249709034076,0.000583909838767907,-0.0509619796572052,-0.0292262068398803,0.000134520193985569,0.00117193018992269,-0.00686678632307523,-0.0583450236303156,0.403545233758318,-0.00115836952388365,0
0.11,0.00102420404767533,0.000583903548054363,-0.050936782467507,-0.0292258863209525,0.000134824724354323,0.00117122140452085,-0.00687684343163825,-0.0583216706191112,0.403537390753245,-0.00109028073076916,0
0.12,0.00102348999870262,0.000583900312822224,-0.0509134105560918,-0.0292257329267684,0.000135110752257651,0.00117056244488816,-0.00688630896174081,-0.0583000650809534,0.403530031242152,-0.00102640056781469,0
0.13,0.00107089718408223,0.000611157157281497,-0.053266044866587,-0.0305900149064975,0.000141571955810038,0.00122486376021979,-0.00721765150291361,-0.0609993938862632,0.403522795173979,-0.00105995861034183,0
0.14,0.00111203190281814,0.000635420450616935,-0.0553643811212776,-0.0318044498559061,0.000147743189993535,0.00127222091311144,-0.00751104526579541,-0.0634060086000854,0.403515980636951,-0.00108452949051318,0
0.15,0.00102728381690678,0.000587004060861449,-0.0511338905728212,-0.0293810733760801,0.000136499618039476,0.00117526748539278,-0.00694379903310086,-0.0585636909085464,0.403509510650387,-0.000859869734698514,0
0.16,0.00102132259767834,0.000584077421279459,-0.0508486785867964,-0.0292345842561556,0.000136155308576828,0.00116863510751784,-0.00692139284427586,-0.0582438267265192,0.403503842068061,-0.000799827715917272,0
0.17,0.00102046118083391,0.000583898590307197,-0.0508146867655072,-0.0292256485092334,0.000136335250146838,0.00116777193189384,-0.00692682949218299,-0.0582090195334717,0.403498548809655,-0.000753185791047129,0
0.18,0.00101995733132948,0.000583885858976917,-0.0507978209792848,-0.0292249931031792,0.000136527167872657,0.00116730286835878,-0.00693313782095551,-0.058193216426659,0.403493583507624,-0.00071004292709291,0
0.19,0.00101950419362469,0.000583883278968307,-0.0507829640119201,-0.0292248654139339,0.000136708148871109,0.00116688446999236,-0.00693912479805872,-0.0581794700846913,0.40348892438687,-0.000669599639058201,0
0.2,0.00101907999747037,0.000583881423415283,-0.0507690713576276,-0.0292247911096681,0.00013687809404725,0.00116649301121938,-0.00694476542581427,-0.0581666335204302,0.403484552473556,-0.000631651962780696,0
0.21,0.00101868227348959,0.000583879716095044,-0.0507560500162281,-0.0292246924878056,0.000137037464323084,0.00116612599257587,-0.00695002580797983,-0.0581545905799797,0.403480450056849,-0.000596043646366738,0
0.22,0.00101830895082988,0.00058387811579883,-0.0507438244206723,-0.029224621041929,0.000137187054817036,0.00116578149129229,-0.00695498395768056,-0.0581432918747192,0.403476600524008,-0.000562630330195607,0
0.23,0.00101795856198227,0.00058387661402368,-0.0507323473064331,-0.0292245466554655,0.000137327452563571,0.00116545815244013,-0.00695963165672278,-0.0581326820096989,0.403472988286433,-0.000531276698758571,0
0.24,0.00101762994280192,0.000583875204609325,-0.0507215850674492,-0.0292244751488329,0.000137459126456361,0.00116515490111765,-0.00696398831748992,-0.058122732267101,0.403469598716688,-0.000501855787094192,0
0.25,0.00101732169630082,0.00058387388188122,-0.050711490854705,-0.0292244036122863,0.00013758263614172,0.00116487044856487,-0.00696807046821215,-0.0581133983273278,0.403466418088853,-0.000474248457290395,0
0.26,0.00102736864666773,0.000589729371048186,-0.0512123374971385,-0.0295174994361564,0.000139026894488042,0.00117640919319843,-0.00704116781860243,-0.0586890811023191,0.403463482697297,-0.000469465117610042,0
0.27,0.000996328877002328,0.000572075116701229,-0.0496843706242976,-0.028633846126469,0.000134979938532329,0.00114093014093381,-0.00682852359674095,-0.0569368518080832,0.403460521699419,-0.000382163641405513,0
0.28,0.00099444958285794,0.000571035434463817,-0.0495427770537026,-0.0285818129249392,0.000134764550270308,0.00113879320170523,-0.00683640788296846,-0.0567861806738822,0.403457888642028,-0.000356056379367271,0
0.29,0.00101484810529496,0.000583094097786412,-0.0506068760609976,-0.0291853825253725,0.000137849266783186,0.00116228782293434,-0.00697388646184253,-0.0580017876054076,0.403455535354591,-0.000376947397523491,0
0.3,0.0010073811133432,0.000579133713714374,-0.0502410350052731,-0.0289871436261958,0.000137140451459449,0.00115386527049508,-0.00693529560658583,-0.0575874792715921,0.403453752601078,-0.000346862365921039,0
0.31,0.00101532353481317,0.000583581714396407,-0.0506367095303993,-0.0292097730894327,0.000138115667114499,0.00116291597298381,-0.00698483507707192,-0.0580387738925305,0.403451590464588,-0.000344424424273996,0
0.32,0.00101564723731321,0.000583849577436149,-0.0506560203298509,-0.0292232013734052,0.000138237345367379,0.00116331856173625,-0.00698972396105964,-0.0580617916802181,0.403449522595215,-0.000327526096071422,0
0.33,0.00101549249804948,0.000583865000257556,-0.0506515036497196,-0.0292239626992809,0.000138314539472051,0.00116318203231101,-0.0069923101812001,-0.0580579229404257,0.403447579684888,-0.000310729524782647,0
0.34,0.00101531808334683,0.000583865221698441,-0.0506458220725503,-0.0292239645671937,0.000138385337399261,0.00116302145546544,-0.00699464828557116,-0.0580526855002434,0.4034457563794,-0.000294907874573568,0
0.35,0.00101515223740929,0.000583864568663208,-0.0506403816144966,-0.0292239440541634,0.000138451835791371,0.00116286843143296,-0.00699686460273176,-0.058047661812288,0.4034440454568,-0.000280057622680987,0
0.36,0.00101499668190502,0.000583863903840678,-0.0506352787899325,-0.0292238963968885,0.000138514160305803,0.0011627248814234,-0.00699891726584997,-0.058042938725189,0.403442439999387,-0.000266122528958568,0
0.37,0.00101485051014622,0.000583863276815742,-0.0506304790842535,-0.0292238699980301,0.000138572720147564,0.00116258999014655,-0.00700086472176655,-0.0580385034534,0.403440933506429,-0.000253046414785211,0
0.38,0.00101471341878725,0.000583862688213999,-0.050625977577718,-0.0292238464772048,0.000138627642150831,0.0011624634780444,-0.00700269235378238,-0.058034344214621,0.403439519877927,-0.000240776345477116,0
0.39,0.00101458470933121,0.000583862135850237,-0.0506217489526958,-0.0292238229264557,0.000138679205248738,0.00116234470107618,-0.00700440776121228,-0.0580304365430872,0.403438193388991,-0.000229262635289487,0
0.4,0.00101446403253211,0.000583861617505384,-0.0506177847594489,-0.0292237993465907,0.000138727550812213,0.00116223333644452,-0.00700601457570021,-0.0580267726309914,0.403436948668508,-0.000218458660329382,0
0.41,0.00101435080631337,0.00058386113108645,-0.0506140643234601,-0.0292237757398115,0.000138772911341118,0.00116212884730569,-0.00700752120996807,-0.0580233334299401,0.403435780675825,-0.000208320670665536,0
0.42,0.00101424444859321,0.00058386067462873,-0.0506105665121942,-0.0292237491974862,0.000138815519085986,0.00116203069690131,-0.00700893356108726,-0.0580200983296226,0.403434684681315,-0.000198807613223215,0
0.43,0.00101414472655128,0.000583860246287539,-0.0506072871076094,-0.0292237255410785,0.000138855468949524,0.00116193866977975,-0.00701025889794174,-0.0580170657054984,0.403433656246715,-0.000189880965543866,0
0.44,0.00101405117452115,0.00058385984433326,-0.0506042098371747,-0.0292237018618432,0.000138892947027224,0.00116185233641744,-0.00701150117637152,-0.0580142194208321,0.403432691207596,-0.000181504579795592,0
0.45,0.00101396355967219,0.000583859467140419,-0.0506013296014973,-0.0292236781604101,0.000138928047800865,0.00116177148150866,-0.00701266262663586,-0.0580115547589235,0.403431785656178,-0.0001736445363939,0
0.46,0.00101388102120935,0.000583859113184938,-0.0505986095084253,-0.0292236786117152,0.000138961112085716,0.00116169531226803,-0.00701378017956873,-0.0580090472545414,0.403430935925323,-0.000166269006644507,0
0.47,0.00101380376732377,0.000583858781035983,-0.0505960657488208,-0.0292236548696057,0.000138992060856751,0.00116162401914367,-0.00701480321453322,-0.0580066927953853,0.403430138574174,-0.00015934812385803,0
0.48,0.00101373128646615,0.000583858469350969,-0.0505936781609276,-0.0292236311093743,0.000139021097473891,0.00116155713068722,-0.00701576206905381,-0.0580044823066178,0.403429390373833,-0.000152853862405637,0
0.49,0.00101366295066722,0.000583858176869534,-0.050591420441316,-0.0292236285896049,0.000139048470841198,0.00116149406843493,-0.00701668679750999,-0.0580023999210277,0.403428688294541,-0.000146759924232122,0
0.5,0.00101359920095845,0.000583857902409297,-0.0505893194167308,-0.0292236047945555,0.000139074010052695,0.00116143523716015,-0.00701752793128063,-0.0580004536014166,0.40342802949329,-0.000141041632362882,0
0.51,2.59671032897842,0.0113577985241799,3.65043185832373,-0.566504547150303,-0.10052093362394,2.59478883035092,-0.723241885682543,3.62263734439444,0.0430940712971329,13.1928122696751,579.905608121677
0.52,2.60880022065327,-0.0117111241668202,1.14320814315235,0.590854788864498,-0.512476231108099,2.55799606220554,0.36032084422797,1.23539594029963,0.193236151050686,27.7606810805907,579.905608121677
0.53,2.46554135389845,-0.0107997659403361,6.38273378346943,0.547704445082631,-1.08172546373621,2.21559942765664,-2.28194297755193,5.98598420955207,0.449808320063698,42.2444773113452,579.905608121677
0.54,2.51031173193981,-0.00760825077064375,2.1395494994336,0.391195088876611,-1.82892185257351,1.71952543865263,-1.28551783910382,1.75446560052729,0.813186987269361,56.9992381503456,579.905608121677
0.55,2.42071514632033,-0.021373635418712,4.40281108834809,1.08009960244056,-2.33008751385514,0.656514150412665,-3.92501808456264,2.26839010461812,1.28733157696596,72.5084347467524,579.905608121677
0.56,2.40575888742957,-0.0298456986082509,2.9426210420023,1.50385696474696,-2.28628941833178,-0.749297861865302,-3.2580209822742,0.553085568708564,1.87509496050791,87.5568943812991,579.905608121677
0.57,2.2910993392365,0.0275786772075804,6.77686661878832,-1.36675432381235,-1.26765038681648,-1.90865378277216,-2.53356161347628,-6.4323404839317,2.56736457683241,101.17175005105,579.905608121677
0.58,2.30151320970707,0.0858205020648506,4.40525718284452,-4.27674204888202,0.409668967957957,-2.26638468705625,5.12185133680528,-3.38577203652945,-2.92549336929276,114.589981241278,579.905608121677
0.59,2.18618606116496,-0.0281427641314573,8.04078530932779,1.42104362919352,1.96970022742889,-0.948937576066791,6.5652330649465,-4.85502916466073,-2.03262412964787,128.98137274916,579.905608121677
0.6,2.27307661243966,0.0153261049481304,1.85040290242187,-0.747291448322855,1.96710500436954,1.1391268925354,1.21616134701082,1.58220952723228,-1.03915289003363,141.885291693514,579.905608121677
0.61,2.14952229975333,-0.00516260356886666,6.16969034853141,0.280129517031383,-0.108225192490819,2.14680229115836,-0.0160262881450748,6.17602580152983,0.047967896478542,154.978842370123,579.905608121677
0.62,2.19113372276156,0.00312684094519744,2.12203854353906,-0.136265437527403,-2.06646823465913,0.728550480956553,-2.04743174607068,0.574142051161433,1.23327128048289,168.011676015279,579.905608121677
0.63,2.06973741281642,0.0982125802945462,6.41266858604049,-4.88878750435473,-1.30218101372076,-1.61176402629085,0.155054776318769,-8.06216594182148,2.50945547420702,180.45377385032,579.905608121677
0.64,2.06397024186097,-0.0657454958904357,4.78580234071826,3.31363565993053,1.43744097893537,-1.48258526284152,0.769008456241309,-5.76998365035959,-2.40349662087437,193.002494977773,579.905608121677
0.65,1.98109000974045,-0.0429273148809851,7.12519313762622,2.1658412422474,1.5804489331551,1.19529977442699,7.04342339743584,2.41855998055637,-0.944938024479598,205.249558632081,579.905608121677
0.66,1.95091306428473,-0.0173492520098553,6.84188443506732,0.897211599746288,-1.12185984657108,1.59618083737202,-3.14569056521689,6.14174259843582,0.603736853546319,216.997432646823,579.905608121677
0.67,2.00589293575592,-0.00371329095919343,2.25605046963861,0.207051937159366,-1.57292528052183,-1.24479971085335,-1.89986202554199,-1.23416308085338,2.23841491367442,229.00422891263,579.905608121677
0.68,1.84513018753047,-0.0134710297441318,8.60730438344873,0.704677859578147,1.35342419824868,-1.25416498801933,5.78777961292207,-6.40966978770038,-2.32544807667891,240.282484511601,579.905608121677
0.69,1.8470105605951,-0.0209730395195384,6.75888518226578,1.08192278151225,0.902425524532873,1.6116811260321,4.30678968732112,5.32021131172359,-0.521788211813629,251.506634043353,579.905608121677
0.7,1.89815894645469,0.007421131207485,2.44125176231732,-0.345647579100934,-1.85597562996893,0.398016231020537,-2.46011879184383,0.164310516926388,1.3634543899576,262.746123020952,579.905608121677
0.71,1.74444529817155,0.0536172513877639,8.43274897504057,-2.66534167664883,0.271675053559969,-1.72399445278469,4.18682434632891,-7.79010933314267,-2.95456702462208,273.66402140605,579.905608121677
0.72,1.74100498969855,0.00428119784464109,6.97864131453427,-0.183820143173411,1.3778792201734,1.06422063380888,5.3998450442616,4.42457884322614,-0.910677854273454,284.116229260935,579.905608121677
0.73,1.75787350065642,0.0143678405339016,4.49512659531083,-0.680497144150677,-1.63988287678943,0.633332321585183,-4.44633119950547,0.948355595424116,1.21041098304203,294.416965222107,579.905608121677
0.74,1.65752851304824,0.0286624325117091,7.86339169228909,-1.39962385926045,0.407398242558898,-1.60693776437214,3.41447684554671,-7.22033404525009,-2.87600893957621,304.649956811739,579.905608121677
0.75,1.60828796139079,0.0344356801459165,8.69594599732718,-1.69250062127384,0.943423252981374,1.30296912801328,3.55612205907026,8.11406378101854,-0.605281354593298,314.722001817887,579.905608121677
0.76,1.64012894880387,0.0055986318795842,5.49895729483388,-0.251007051438066,-1.61818099519848,-0.267478186329001,-5.38046668189538,-1.16280443553164,1.73802420847125,324.597520961272,579.905608121677
0.77,1.53970517473277,-0.00660823474545591,8.94139747498805,0.356467939224014,1.30824247785221,-0.811934303382011,7.38759488899978,-5.04966335050582,-2.13053872884298,334.226835960793,579.905608121677
0.78,1.55659608564508,0.0479308575482975,6.55710940636567,-2.37375911902008,-0.494004698193091,1.47690490523732,-4.49732028077249,5.32958970412663,0.353570382567529,343.613767790193,579.905608121677
0.79,1.46116746510126,-0.0158731650915194,9.80126286849688,0.818612413467779,-0.32595375031257,-1.42443549208016,-3.08592569400956,-9.33873346401485,2.90577273112152,352.797469069488,579.905608121677
0.8,1.53887170066825,0.0204141841721179,4.41459696804787,-0.994432717900165,1.07330975415181,1.10297281094123,2.31469522347113,3.88841212362677,-0.758503952910813,361.799408081466,579.905608121677
0.81,1.50410131447936,0.00709960769434364,4.66550598889731,-0.325665319645756,-1.41270459449182,-0.51636895467257,-4.26110420185875,-1.92769162828455,1.92594833711851,370.619240978392,579.905608121677
0.82,1.4341821329948,0.0936014520441355,6.69927380483581,-4.65284452478105,1.42959806807118,-0.147949268985798,6.87098656480718,4.39531287966892,-1.60874707025917,379.235190612695,579.905608121677
0.83,1.41468328166276,-0.0372426790089176,6.23546066864487,1.90154846832797,-1.33320337386527,0.474641515746494,-5.13252494255783,4.01920938016911,1.20245254385709,387.674285148266,579.905608121677
0.84,1.29744841027185,0.0251591700065843,10.6752075305316,-1.21996218388603,1.02775139399369,-0.792295672900217,9.30533114084542,-5.37207370660931,-2.20815226391313,395.944864175786,579.905608121677
0.85,1.34352281366408,0.0192672175871538,6.96307029908201,-0.922486124197566,-0.875988660693609,1.0188565369303,-5.3055564387643,4.60286861797964,0.724482212382768,404.091343266229,579.905608121677
0.86,1.27374598509413,0.000121925972229708,9.03781217589866,0.00814479736664727,0.692270341799651,-1.06920092745655,4.90586541013107,-7.59042817252266,-2.56690574159528,412.131589248922,579.905608121677
0.87,1.29231820486934,0.0446802735233041,6.73306868909921,-2.21763889372309,-0.559748371953925,1.16566051214484,-5.08730248614248,4.93674889472515,0.482241226207449,419.861614296493,579.905608121677
0.88,1.2633018541117,-0.00622178601826273,6.85107227616106,0.340912569164738,0.550275188516132,-1.13717522929707,2.64617879481087,-6.3285978303958,-2.69583556518949,427.363025492951,579.905608121677
0.89,1.24545397689816,0.0326123322318663,6.43662365347344,-1.59167984850439,-0.52809681734102,1.1284205440789,-4.30344897906348,5.04419425490199,0.463897698829738,434.68383792007,579.905608121677
0.9,1.14572588211174,0.0799193876292022,10.1079116521306,-3.97905242517908,0.516210578346565,-1.02596371488609,8.58183695322947,-6.65994074131191,-2.60578903923967,442.014183376326,579.905608121677
0.91,1.17573684093143,0.0499472881765126,7.29457585214116,-2.48360229950926,-0.681776541332836,0.959183297606794,-6.43609067477894,4.23743484561028,0.660386150900452,449.139377544194,579.905608121677
0.92,1.0869602472404,0.0214944909070092,10.4684737910489,-1.0452170763558,0.792234792122694,-0.744519057090264,8.46932853088361,-6.24114544667439,-2.30538248288144,455.981714568208,579.905608121677
0.93,1.07372505913064,0.0384451353535316,9.89327479995395,-1.88404316363967,-0.919022769142101,0.556561479834737,-9.55806087322326,3.1733227465261,1.06205841493592,462.727956069571,579.905608121677
0.94,1.09685805161597,-0.00924517200757791,7.47559600228832,0.475945311150384,1.06916548473151,-0.245088198122755,7.16201188140928,-2.1946857039648,-1.80456487186976,469.433482716307,579.905608121677
0.95,1.07303720987848,0.0268472906644596,7.46005007030592,-1.31144206810839,-1.07116901953902,-0.0687499991245562,-7.31374504443066,-1.97011694438216,1.65990531573802,475.80845144136,579.905608121677
0.96,0.991213872715703,0.0763240959266704,10.359762061399,-3.79089289981539,0.922571251450838,0.370395187711073,7.61086420080454,7.98562991025659,-1.11216455173315,482.146080512311,579.905608121677
0.97,1.04745888003911,0.0791150774241777,6.35314516751225,-3.94204857311811,-0.732944570609305,-0.752476947994396,-1.05454250093414,-7.4020362459279,2.44473046071246,488.316133525382,579.905608121677
