t,iq,id,vq,vd,ia,ib,va,vb,theta_e,omega,r
0,0,0,0,0,0,0,0,0,0,0,0
0.01,0.000732746940320414,0.000415037078580306,-0.0360047580034038,-0.0207747530126191,-8.55862716391729e-05,0.000837764194300705,0.00389454409191762,-0.0413855710113453,0.617163790331962,-0.00263846906173477,0
0.02,0.000817803279327964,0.000462934935889884,-0.0402701842394819,-0.023172288140393,-9.57302347884193e-05,0.000934851154299066,0.00440689439386288,-0.0462517238397074,0.617144093194926,-0.00278984314322343,0
0.03,0.00085117163778955,0.000482047508066738,-0.0419262441872402,-0.0241289733239627,-9.94345142594034e-05,0.000973126782276951,0.00458410495669898,-0.0481560306406432,0.617124251319352,-0.00274495762406576,0
0.04,0.000831308901237298,0.000471418343792597,-0.0409807757351763,-0.0235969350693598,-9.65913737062856e-05,0.000950778549750704,0.00447001470146163,-0.047077152559316,0.617106054395631,-0.00251339434006186,0
0.05,0.000850231430702491,0.000482495337230044,-0.0419284102985945,-0.0241513768866467,-9.84903814939472e-05,0.000972622681699494,0.00456536296015234,-0.048170925429456,0.617088454303247,-0.00243330005369506,0
0.06,0.000850513675987228,0.000483085233807878,-0.041964565715777,-0.02418091716724,-9.81563802914791e-05,0.000973195859615419,0.00456138876233858,-0.0482175825122071,0.617071781275923,-0.00229085819483456,0
0.07,0.000871568808657002,0.000495553559027696,-0.043013377150843,-0.0248050211613789,-0.000100155641038775,0.000997584264940518,0.00465851488801225,-0.049434177729333,0.617056334908393,-0.00223734875428144,0
0.08,0.000850281999476598,0.000483778808019717,-0.0419938550021184,-0.0242156316639565,-9.74271512715739e-05,0.000973411199811265,0.00454856172277681,-0.0482616955885042,0.617041468450225,-0.00202907720782326,0
0.09,0.000848410533066353,0.000483146346811003,-0.0419209226733117,-0.0241839784202665,-9.68467385353419e-05,0.000971520218158026,0.00453151448596836,-0.0481839594312999,0.617027709093283,-0.00190358791380418,0
0.1,0.000847687928889368,0.000483110286784277,-0.0419029214907974,-0.0241821719714048,-9.64455258541647e-05,0.000970911239261471,0.00452195122624584,-0.0481682906882316,0.6170148193752,-0.00178991780423206,0
0.11,0.000847069401037772,0.000483106279471346,-0.0418889189048558,-0.0241819617652435,-9.60791858086365e-05,0.000970405604628026,0.00451343880753393,-0.0481568029666,0.617002735373313,-0.00168357501796514,0
0.12,0.000846492668539306,0.000483104116522614,-0.0418759417214497,-0.024181857681956,-9.57362679299739e-05,0.00096993504539981,0.00450546973430178,-0.0481462093885066,0.616991406211725,-0.00158388771496163,0
0.13,0.000886041497344709,0.000505828620975849,-0.0438220748737981,-0.0253193394952615,-0.000100072639123462,0.00101534112283215,0.00470315310289154,-0.0503917011978345,0.616980258144633,-0.00163714940595376,0
0.14,0.000922015075685278,0.000527024354124523,-0.0456834251456409,-0.0263802894645025,-0.000103587115319377,0.00105694663023783,0.00491419153732664,-0.0525237634485838,0.616969785768798,-0.00168273742188513,0
0.15,0.000849258428345711,0.000485448860582452,-0.0420532842912979,-0.0242992333788223,-9.53933422789381e-05,0.000973550504394036,0.00451081689877286,-0.0483589081079064,0.616959848599383,-0.00132270174431157,0
0.16,0.000844694367678726,0.00048322254746392,-0.0418420484408611,-0.0241877939100461,-9.45602252770518e-05,0.000968540638776317,0.00447908118638775,-0.0481221801634961,0.61695116028948,-0.00123070009239378,0
0.17,0.000844046618140717,0.000483102014642835,-0.0418212735108336,-0.0241817550419318,-9.42759314188154e-05,0.000967943334551079,0.00447159731348304,-0.0481017776432638,0.616943050518024,-0.00115845406273726,0
0.18,0.00084364637532708,0.000483094255151648,-0.0418119004604116,-0.0241813756890266,-9.40433472075744e-05,0.000967613101817582,0.00446611843674401,-0.0480939469833179,0.61693544935458,-0.00109152000071112,0
0.19,0.000843283208897266,0.000483092612026466,-0.0418036995264647,-0.0241812788471218,-9.38276884155476e-05,0.000967316601268281,0.00446111019061594,-0.0480872336140101,0.616928323102314,-0.00102881246301795,0
0.2,0.000842943211335168,0.000483091372680811,-0.0417960309817883,-0.0241812181116655,-9.36255387774105e-05,0.000967039187615122,0.00445640199364878,-0.0480809733310959,0.616921641986368,-0.000970024449979769,0
0.21,0.000842624575984511,0.00048309022666783,-0.0417888443857235,-0.0241811588186484,-9.34360786832806e-05,0.000966779210758767,0.0044519915846078,-0.0480751050735981,0.616915378195901,-0.00091490868190595,0
0.22,0.000842325617025698,0.000483089152918338,-0.0417820921023344,-0.024181118139911,-9.32583241934824e-05,0.000966535286336564,0.00444783613089523,-0.0480696000471919,0.616909505662778,-0.000863235638133121,0
0.23,0.000842045515143676,0.000483088146123626,-0.0417757675183877,-0.0241810588136194,-9.3091781468711e-05,0.00096630674566709,0.00444396101262012,-0.0480644314188404,0.616903999947983,-0.000814790266587611,0
0.24,0.000841782877763269,0.000483087202077416,-0.0417698331467933,-0.024181018087618,-9.29356256813149e-05,0.000966092452918259,0.00444031304854146,-0.0480595902697434,0.616898838138623,-0.000769370955591479,0
0.25,0.000841536654944217,0.000483086316874846,-0.0417642667171542,-0.0241809787910453,-9.27892314305477e-05,0.00096589155172666,0.00443689231868078,-0.0480550486033154,0.61689399875352,-0.000726788687235824,0
0.26,0.000849928522857961,0.000487965572681837,-0.0421800051467579,-0.0244252107267511,-9.36597022564408e-05,0.000975559713325363,0.00447796729116471,-0.0485354670541654,0.616889535106385,-0.000720031705129556,0
0.27,0.000823424442612068,0.000472897998501432,-0.0408917744733591,-0.0236709822959817,-9.06131623473345e-05,0.000945224621181162,0.00434772346286481,-0.0470483785387679,0.616885034538537,-0.000581295535450439,0
0.28,0.000821521324366864,0.000471817674371099,-0.0407186748396773,-0.0236169238696102,-9.03896463619389e-05,0.000943047674335185,0.00429149298704812,-0.0468759283823206,0.616881035726923,-0.000539697664312061,0
0.29,0.000839591763296939,0.000482480401601899,-0.0416913091350202,-0.0241506405597939,-9.21424088493123e-05,0.000963956141853684,0.00441863959802993,-0.0479780608293301,0.616877476620005,-0.000577242210630423,0
0.3,0.00083384995589414,0.000479439537070721,-0.0414145073115197,-0.0239984340602778,-9.12986642658261e-05,0.00095751374536062,0.00438253794548182,-0.0476642383171895,0.616874803142327,-0.000532567817426521,0
0.31,0.000840010412692905,0.000482887241904001,-0.0417196905991998,-0.0241710000288611,-9.20469965997785e-05,0.000964533530906582,0.00441816519656231,-0.0480130153435925,0.6168715234013,-0.000527581272994218,0
0.32,0.000840212054204822,0.000483071198228166,-0.0417336946628593,-0.0241802163261112,-9.20105719439125e-05,0.000964804712488096,0.00441859836328044,-0.0480297836794454,0.616868393515054,-0.000501403029772696,0
0.33,0.000840083295105753,0.000483080535182178,-0.0417313063079711,-0.0241806700606514,-9.19256369810396e-05,0.000964705355771009,0.00441670554708731,-0.0480281109649559,0.616865455993837,-0.000475633164488614,0
0.34,0.000839944351245454,0.000483080559359254,-0.0417281739293802,-0.024180676783381,-9.18425841603241e-05,0.000964592286800361,0.00441475576870278,-0.0480255719454298,0.616862701780733,-0.000451402979759034,0
0.35,0.000839812974347014,0.000483080114847431,-0.0417251795663423,-0.0241806587498522,-9.17644575012051e-05,0.00096448510283057,0.00441291429807427,-0.048023130414605,0.616860119595238,-0.000428682300571969,0
0.36,0.000839689804726553,0.000483079673072,-0.0417223691165715,-0.0241806392387748,-9.16912324137736e-05,0.000964384599936929,0.00441118817983832,-0.0480208373264906,0.616857698701033,-0.000407380603506284,0
0.37,0.000839574260307422,0.000483079257526066,-0.041719727563706,-0.0241806182515892,-9.16225432076041e-05,0.000964290317901648,0.00440956824033134,-0.0480186804790885,0.616855429024206,-0.000387409468997085,0
0.38,0.000839466050055399,0.000483078867840857,-0.0417172536003233,-0.0241805986990548,-9.15582126354502e-05,0.000964202020039898,0.00440805089345428,-0.0480166605327686,0.616853301118713,-0.000368685797894271,0
0.39,0.000839364591891842,0.000483078502471721,-0.0417149305912191,-0.0241805791276544,-9.14978966295953e-05,0.000964119231518819,0.00440662727499043,-0.0480147631175901,0.616851306129804,-0.000351131670144757,0
0.4,0.000839269420155463,0.000483078159905954,-0.0417127468338458,-0.0241805595384064,-9.14413189830932e-05,0.000964041572427684,0.00440529021440504,-0.048012978725984,0.616849435754308,-0.000334674032182283,0
0.41,0.000839180243805854,0.000483077838721808,-0.0417106988314063,-0.0241805384769147,-9.13883049380236e-05,0.000963968805293377,0.0044040385002997,-0.0480113036995009,0.616847682209202,-0.000319244393573043,0
0.42,0.000839096424774358,0.000483077537585462,-0.0417087648249424,-0.0241805388600493,-9.13384793956269e-05,0.000963900409570635,0.00440284050086453,-0.0480097335788135,0.616846038196151,-0.000304778542026547,0
0.43,0.000839018075051558,0.000483077255246309,-0.0417069601016858,-0.0241805192204668,-9.1291901520644e-05,0.000963836476543752,0.00440173855498015,-0.0480082568772141,0.616844496873917,-0.000291216276165997,0
0.44,0.000838944614772077,0.000483076990532019,-0.04170526455884,-0.0241804995667529,-9.12482306163281e-05,0.00096377653314756,0.00440070440392329,-0.0480068687998901,0.616843051828106,-0.00027850115499378,0
0.45,0.000838875522276626,0.000483076742342936,-0.0417036606842204,-0.0241804984447503,-9.12071599889771e-05,0.000963720153796884,0.00439971250003858,-0.0480055658170817,0.616841697044436,-0.000266580263008256,0
0.46,0.000838811025976705,0.00048307650964797,-0.0417021677856666,-0.0241804787631419,-9.1168817144071e-05,0.000963667524748193,0.00439880399658402,-0.0480043422477413,0.616840426885179,-0.000255403989985004,0
0.47,0.000838750546005189,0.000483076291480174,-0.0417007642556304,-0.0241804590696716,-9.11328623195463e-05,0.000963618172939722,0.00439795101052381,-0.0480031912192591,0.61683923606472,-0.000244925824522475,0
0.48,0.000838693618912972,0.000483076086933582,-0.0416994339198534,-0.0241804593609656,-9.10990233689585e-05,0.000963571720274947,0.00439712763578993,-0.0480021111275129,0.616838119626787,-0.000235102160477683,0
0.49,0.000838640242488061,0.000483075895157679,-0.0416981831643966,-0.0241804596390791,-9.10672952099146e-05,0.000963528164895026,0.00439635365552577,-0.0480010956344149,0.61683707292541,-0.000225892115493975,0
0.5,0.000838590472725941,0.000483075715355646,-0.041697020920911,-0.0241804399111776,-9.10377066682098e-05,0.000963487552424877,0.00439565033521433,-0.0480001404800808,0.616836091604598,-0.000217257360861961,0
0.51,3.30527961431224,-0.0213808447179354,6.52887401007716,1.07391854509183,-0.380089038731635,3.28342242057658,0.358770047539222,6.60687376403862,0.108778455474567,33.3230705962869,761.134680124138
0.52,3.26640218467086,0.0141550115680797,3.37500788102292,-0.70086265698171,-1.51726071984854,2.89266373855997,-2.19987938159503,2.65375533298594,0.48740433109662,69.7994141034243,761.134680124138
0.53,3.1254791058588,-0.0391388116690456,5.28780751004447,1.97121026991511,-2.8446260125442,1.29547456034291,-3.94507468407299,4.03521547486475,1.13092971679136,105.783999297301,761.134680124138
0.54,3.00860585557302,0.0319190067720727,5.67498573009205,-1.58174854006839,-2.69746814357182,-1.3328141774444,-4.3451797451019,-3.9782916513892,2.04032020271192,142.593284063722,761.134680124138
0.55,2.87137694109875,0.0217760425779245,6.72561590101548,-1.07689331449102,0.215025001647545,-2.86339727990554,1.62771187032041,-6.61393699138461,-3.05905528157294,179.749660184539,761.134680124138
0.56,2.74638004080317,0.0190049242729124,8.03689052971012,-0.933412735631432,2.74214541059771,-0.153632883220179,8.07298901475701,0.538253740531144,-1.61984446159822,212.29082138775,761.134680124138
0.57,2.68776179453942,0.0851597720841321,6.30726029610172,-4.2382854455418,-0.0488886179361168,2.6886661291435,-4.54733693837213,6.08821178422605,0.0498548946929272,243.466662684647,761.134680124138
0.58,2.59287245797088,-0.0144545565048503,5.83997287566561,0.741390615147504,-2.39789408609933,-0.986559916760033,-5.69129889639865,-1.50467940259389,1.95554046984638,276.178236646506,761.134680124138
0.59,2.51313804051336,-0.0279865329762379,5.36331797012828,1.42807170188441,2.05333760048381,-1.449293191574,3.51063014649164,-4.29884221726828,-2.19655538670863,304.857554278226,761.134680124138
0.6,2.41973092011842,-0.0273433886242442,5.26189190209118,1.38803462491675,-0.379647708995134,2.3899190370666,0.606471523570884,5.40798842457694,0.146237771847343,334.675397053032,761.134680124138
0.61,2.33118568580843,0.00293506483770489,5.37836592069775,-0.11658800370535,-1.00005460060297,-2.10578396616,-2.19576502661823,-4.91111277486184,2.69947805905377,361.483967457016,761.134680124138
0.62,2.19765253010637,0.00753282654515708,7.50994766478889,-0.35656910761767,1.63100161482764,1.47294504954812,5.31634698243393,5.31628725886225,-0.832847723592866,389.052489736926,761.134680124138
0.63,2.14937678645078,0.00841098166680326,5.86612765332041,-0.386395137453752,-1.84866378907644,-1.09650969430444,-4.83520923215713,-3.34387597386039,2.11006693995824,413.955507934239,761.134680124138
0.64,2.05449820563427,0.0532762499459688,6.35512427672797,-2.63887222671118,1.8027866721027,0.986793519765716,4.16703611832916,5.47604430132784,-1.04404791751596,438.937666181919,761.134680124138
0.65,1.94853985566565,0.0210097830287412,7.59799637034156,-1.03203152897325,-1.51702783895768,-1.22305989874896,-5.20691277229455,-5.62873851784166,2.26010104971132,462.963603644816,761.134680124138
0.66,1.88263365459242,0.0203428653886092,7.11286721545317,-0.982246273769913,0.99863718552597,1.59607239223696,2.86913820593219,6.58222862883565,-0.548286016161818,485.169839700849,761.134680124138
0.67,1.81777620696863,-0.00958549302496148,6.51553493920286,0.513741164862385,-0.0830311715944726,-1.81590419484108,-0.844999444303882,-6.48090282812306,3.09062690767527,506.947508839821,761.134680124138
0.68,1.74264649138192,0.0276187117735228,6.50084755608386,-1.35579980694186,-0.965076556352051,1.45127765349895,-4.80197427452828,4.58696578695696,0.602684231789546,528.176835289082,761.134680124138
0.69,1.63905177016113,-0.0285316610960423,8.05012717661473,1.44801436268448,1.62162004043514,-0.240110819023989,7.70458580482653,-2.7460245319875,-1.73520238801199,548.442757423555,761.134680124138
0.7,1.56554756700636,0.0136731514216349,8.2637024302817,-0.668153384101961,-1.11885870643278,-1.09511704153889,-5.38341929116247,-6.30507759955976,2.35420491797881,567.671828393755,761.134680124138
0.71,1.53878331930549,-0.0113400060978872,6.26592948073575,0.587312295424115,-0.46327811752032,1.46743179921179,-1.28098227862635,6.16164688957059,0.298434314021598,585.885804468739,761.134680124138
0.72,1.46501979153289,0.0528505946618938,6.68888641843976,-2.60923042727391,1.45993900213019,-0.132869428381033,6.82153770410928,2.23962235495526,-1.62549718638143,603.287478491082,761.134680124138
0.73,1.36602472688615,-0.00881882249166266,8.44798823598071,0.477173325858466,-0.371451115603112,-1.31458183267978,-2.80792104611605,-7.9819658616758,2.85975388105133,620.060684352411,761.134680124138
0.74,1.28751748046254,0.0392053163197149,9.26895675877612,-1.92790228388221,-1.17678555889333,0.523845461662538,-9.30872992335745,1.72566330037158,1.18242433452376,636.127671970021,761.134680124138
0.75,1.23964130221362,0.017805310673781,8.65865360476793,-0.857149699891546,0.476186432600722,1.14467203540974,2.41452024098113,8.35925115433657,-0.379862783446426,651.480677822072,761.134680124138
0.76,1.21074724138075,0.059253852601602,7.18772281970097,-2.93182533276856,1.15432679522316,-0.370066955278443,7.70117042982285,0.97515800029309,-1.83213453193157,666.168083713798,761.134680124138
0.77,1.18549624773858,0.00903296010847246,5.62378800642014,-0.417486870866399,-0.0538276278901254,-1.18430804026921,0.204659922268793,-5.6355479897449,3.1037926258218,680.185590430984,761.134680124138
0.78,1.09563395202201,0.00136295751411886,7.37054147706613,-0.0347998388738665,-1.05153540190866,-0.307715636601963,-7.06148063751165,-2.11224617409664,1.85672623581454,693.592611002958,761.134680124138
0.79,1.05450110429032,-0.00197317468354524,6.76840161217133,0.128978563810276,-0.685132217312138,0.801604838538784,-4.28973155394892,5.23699332142223,0.705345550456748,706.341678743043,761.134680124138
0.8,0.956320282304099,-0.0202843511828156,9.11102516861223,1.02161159153579,0.313733824190575,0.903621062618539,4.12794663236425,8.18624006900594,-0.355382500717039,718.436297649481,761.134680124138
0.81,0.921352665190968,-0.00215522436183158,8.35904468540011,0.11296579999699,0.894253137510737,0.221825843171513,8.1447865137063,1.88383703399014,-1.32998629796,729.969127935115,761.134680124138
0.82,0.931577517290019,0.00267205373622009,5.42814615761336,-0.125500749336483,0.739023067314658,-0.567176089559706,4.39173036320434,-3.19268312918864,-2.22251484503571,740.891714288601,761.134680124138
0.83,0.870315690864559,0.020343048926692,6.16272731828785,-1.00534850577132,0.0706486632055459,-0.867681973877502,1.64337938734536,-6.02405493059919,-3.0369794943733,751.20374554159,761.134680124138
0.84,0.819481200042161,-0.008860805521355,6.47509053239851,0.46358699055532,-0.479615244853382,-0.664527778201376,-4.21893259814699,-4.93379347286261,2.5056133455405,760.934279989912,761.134680124138
0.85,0.778812057683246,0.0263373285387271,6.35588900558583,-1.29176472076327,-0.758720392728742,-0.177722372606578,-5.79890719182567,-2.90493657860684,1.83469200202812,770.186380616867,761.134680124138
0.86,0.721595388822074,-0.00590240604936365,7.1176099706634,0.32302777579965,-0.682142776167765,0.235405982270177,-6.60114695564295,2.68133875301703,1.23031588773402,779.02534966538,761.134680124138
0.87,0.734124938516295,0.00187240593199239,4.44148095042346,-0.0934136736213275,-0.46510379126403,0.567997706515928,-2.89476351861071,3.36984025121584,0.688678957797536,787.457551598582,761.134680124138
0.88,0.62282095519588,0.0159463850861633,8.04388450010838,-0.79541228430498,-0.112079690954917,0.612860809893955,-2.42763023160783,7.70995265949739,0.206478572721609,795.243928076601,761.134680124138
0.89,0.576458122400243,0.0083630155184635,8.50008436766552,-0.405244865847019,0.134211102717829,0.560679308354642,1.46322190284723,8.38299703696448,-0.220444826762133,802.507537873982,761.134680124138
0.9,0.582475871146622,0.0169134198800525,6.39293388509909,-0.822731644924014,0.340554201090666,0.472849913143223,2.90273709195547,5.75505068559725,-0.595136511755648,809.421547844084,761.134680124138
0.91,0.506578256778309,-0.0384038637279929,8.440342789298,1.9247080956845,0.379979681652313,0.337211845167389,7.88341673756793,3.57709773367769,-0.920625601629231,815.983672110456,761.134680124138
0.92,0.488647460475961,-0.00899106675391009,7.6333573247318,0.446970982089753,0.452130925212967,0.185566177890923,7.27592203597177,2.35135825265469,-1.19973249097113,822.142047582251,761.134680124138
0.93,0.485522668300064,-0.00450664563947023,6.16400177366958,0.235835466604057,0.48046650825755,0.0700321763972228,6.13938536937086,0.598734932557916,-1.43533868619667,827.839450590611,761.134680124138
0.94,0.423052529679297,0.0264737922703634,7.73759529775542,-1.30452131586885,0.420718452976119,-0.0516748282107273,7.80165822921538,0.84040807344944,-1.63051287776827,833.135301935015,761.134680124138
0.95,0.408552304366593,-0.0315920942717407,6.95015810423733,1.57329151214121,0.405772319839986,-0.0571127855685885,6.44841307443885,-3.0328060731734,-1.7878019296713,838.184474896308,761.134680124138
0.96,0.358677666101443,-0.033856551686474,7.98058593224402,1.69191043734157,0.349538545148209,-0.0872853922930439,6.96449979351831,-4.24830029258761,-1.90962158410113,842.863344344087,761.134680124138
0.97,0.369669103356675,0.0347726983980437,6.05410554690672,-1.72683540785411,0.321934127861019,-0.184994064360926,6.2249539167358,-0.940267639250102,-1.99856654225702,847.118429628256,761.134680124138
