t,iq,id,vq,vd,ia,ib,va,vb,theta_e,omega,r
0,0,0,0,0,0,0,0,0,0,0,0
0.01,0.00105312338597394,0.00060375924445032,-0.0520656603667686,-0.0302458896735711,-0.0010045849494127,-0.000681471327905962,0.0500222293024421,0.0335175089645313,2.68740974683068,-0.00145831147965103,0
0.02,0.00117530893583055,0.000674094163942172,-0.0582024480888025,-0.0337693790288788,-0.00112140379128962,-0.0007603996142722,0.0558812948533361,0.0374856880561146,2.68739890653196,-0.00159242497288617,0
0.03,0.00120657341534456,0.000691992592773184,-0.0597455539533583,-0.0346660150488474,-0.00115121326219167,-0.000780628708172589,0.0573644763588711,0.038478314264441,2.68738768515115,-0.00159643758169542,0
0.04,0.00118968486666702,0.000682466930335829,-0.0589238141136319,-0.0341888079518917,-0.00113525171177846,-0.00076961986972961,0.0565755170630617,0.037948667011061,2.68737712963087,-0.00153465989093798,0
0.05,0.00120640444611121,0.000692050021942293,-0.0597523536147332,-0.0346688994847754,-0.00115120730957519,-0.000780427223287267,0.0573708690167898,0.0384819404687956,2.68736644600376,-0.00152000827586127,0
0.06,0.00120639585571778,0.000692119204539566,-0.0597593353355006,-0.0346723557538964,-0.00115127385498273,-0.000780377129866527,0.0573774399631854,0.0384860987440481,2.68735600619388,-0.00148254550973168,0
0.07,0.00123927687610624,0.000711007927820347,-0.0613809574235758,-0.0356186163764648,-0.00118268270694906,-0.000801624016455769,0.0589396751319451,0.0395274899550852,2.68734590489226,-0.00149286532097405,0
0.08,0.00120638474801262,0.000692256209902801,-0.0597729629127601,-0.0346792126575803,-0.00115140775720714,-0.000780283920781201,0.0573903537489803,0.0384941837488052,2.68733593236061,-0.00141051935864758,0
0.09,0.00120600504089733,0.000692113351240493,-0.0597611529307179,-0.034672063948928,-0.00115112029558303,-0.000779994304294565,0.0573791190396314,0.038486154865393,2.68732628776926,-0.0013753841678366,0
0.1,0.00120587865595318,0.000692109942910612,-0.0597616012501341,-0.0346718967666392,-0.00115106909976686,-0.000779871421146525,0.0573795270184319,0.0384860921440143,2.68731689529917,-0.0013415119031964,0
0.11,0.0012057573932991,0.000692107640016705,-0.0597621257502271,-0.0346717819876802,-0.00115102095176471,-0.000779752938733548,0.0573800060889414,0.0384860889363966,2.68730774785544,-0.00130852593093713,0
0.12,0.00120563927385435,0.00069210540471683,-0.0597626338446186,-0.0346716672279783,-0.00115097405571232,-0.0007796375266593,0.0573804687982515,0.0384860846658439,2.68729883904251,-0.00127640048867901,0
0.13,0.00126137809113411,0.000724082690170536,-0.0625058767707953,-0.0362735977754781,-0.0012041750367095,-0.00081567941739595,0.0600240923956515,0.0402475695979436,2.6872898052206,-0.00132291348549734,0
0.14,0.00136169029855367,0.000782003184853671,-0.067580388134911,-0.0391751742497069,-0.00130024875938109,-0.000880387763445407,0.0648586107876673,0.0435334784350389,2.68728110359109,-0.00143372899340012,0
0.15,0.00120649251242186,0.000692772216468548,-0.0598231269023655,-0.0347050570035412,-0.00115196815350883,-0.000780081341747258,0.0574380300781355,0.0385242805869074,2.68727256647498,-0.00118336141804533,0
0.16,0.00120519440520806,0.000692101850459598,-0.0597650404589894,-0.0346714902964176,-0.00115080234200472,-0.000779199907206654,0.0573826847125254,0.0384863585653687,2.68726457296011,-0.00115284886187164,0
0.17,0.00120508233917794,0.000692094891119495,-0.0597650403179131,-0.0346711253516602,-0.00115075297084407,-0.000779093308022747,0.0573826562476414,0.038486072017255,2.68725679043994,-0.00112477188938517,0
0.18,0.00120498170058814,0.00069209295145305,-0.0597654556387449,-0.0346710365085299,-0.00115071296554008,-0.000778995008418694,0.057383050393262,0.0384860492626478,2.68724921096203,-0.00109743996668499,0
0.19,0.00120488385596559,0.000692091098560522,-0.0597658668598178,-0.0346709505851374,-0.00115067410898707,-0.000778899409410498,0.057383437756315,0.038486032885316,2.68724182921144,-0.00107082115252553,0
0.2,0.00120478845606235,0.000692089294212838,-0.0597662601551479,-0.0346708646707296,-0.00115063621768349,-0.000778806207974844,0.0573838098517605,0.0384860114437163,2.68723464002989,-0.00104489674784282,0
0.21,0.00120469561729373,0.000692087536877664,-0.0597666451627559,-0.0346707787649388,-0.00115059934535909,-0.000778715503561691,0.0573841711023285,0.0384859933102523,2.68722763839354,-0.00101964863675122,0
0.22,0.00120460533965973,0.000692085825329663,-0.0597670253821504,-0.0346706928674046,-0.00115056349482124,-0.000778627291034487,0.0573845232317684,0.0384859813490463,2.68722081940992,-0.000995059176687993,0
0.23,0.00120451727391439,0.000692084158376965,-0.0597673868051392,-0.0346706069781196,-0.00115052851551791,-0.000778541251581872,0.0573848602751059,0.0384859627000928,2.68721417831456,-0.000971111185341738,0
0.24,0.00120443165288835,0.0006920825348596,-0.0597677444363683,-0.0346705210961124,-0.00115049451229674,-0.000778457589539815,0.0573851889954567,0.0384859505799547,2.68720771046604,-0.000947787928634668,0
0.25,0.00120434836016895,0.000692080953646534,-0.0597680957271356,-0.0346704381317704,-0.00115046143664925,-0.000778376195566692,0.0573855110630733,0.0384859411620251,2.68720141134553,-0.00092507310903348,0
0.26,0.00121421209258333,0.000697749571625156,-0.0602567330766877,-0.0349544026574807,-0.00115988899448425,-0.000784743901507365,0.0578553690145639,0.0388000054433646,2.68719529534706,-0.000917099303986784,0
0.27,0.00116900057755298,0.000671879826962542,-0.0580410409996667,-0.0336584516376898,-0.00111680466971653,-0.000755468187217553,0.0557186369816312,0.0373776310094807,2.68718922652884,-0.00083131466644934,0
0.28,0.00114806247936466,0.000659732244962043,-0.0568875724641367,-0.0330498952775503,-0.00109670385397238,-0.000741980288316149,0.0546657619363916,0.0366080039148982,2.68718336423109,-0.000780638714329374,0
0.29,0.00120360473378806,0.000691832759018028,-0.0597482005997688,-0.0346580144838534,-0.00114993039003416,-0.000777789830046273,0.0573665235569137,0.038472164195263,2.68717781620368,-0.000839378349387504,0
0.3,0.00120154140987283,0.00069070856512914,-0.0596504704986917,-0.0346017012445748,-0.00114801853723362,-0.000776423544046626,0.0572732218966897,0.0384087804194125,2.6871727621723,-0.000818326872636442,0
0.31,0.00120387857776145,0.000692062184284125,-0.0597690149391851,-0.0346694940403038,-0.0011502648517201,-0.00077792317603114,0.0573863759724147,0.0384852285502354,2.68716737977521,-0.000802327825275982,0
0.32,0.0012038275512003,0.000692071016223503,-0.0597701976969067,-0.0346699461504298,-0.00115025447089398,-0.000777867415896794,0.0573875033007334,0.0384857917121283,2.68716213280653,-0.000783433303794538,0
0.33,0.00120375987671287,0.000692069809217895,-0.0597704650712246,-0.034669891924965,-0.00115022765530186,-0.00077780126163015,0.0573877686106444,0.0384857624948547,2.68715702267777,-0.000765006224021064,0
0.34,0.0012036941626864,0.000692068560199509,-0.0597707336185445,-0.0346698060929926,-0.00115020155819973,-0.000777737040918621,0.057388000907523,0.038485755854119,2.68715204585745,-0.000747059658429974,0
0.35,0.00120362986423745,0.000692067343185529,-0.0597709785034392,-0.0346697489620557,-0.00115017600966445,-0.000777674227668947,0.05738824361016,0.0384857228032875,2.68714719886838,-0.000729581265981859,0
0.36,0.00120356731201724,0.000692066157888609,-0.0597712187125615,-0.0346696918321777,-0.00115015115725974,-0.000777613115183365,0.0573884793959618,0.0384856928057986,2.68714247832365,-0.000712558834871831,0
0.37,0.00120350638961045,0.000692065003486904,-0.0597714508334503,-0.0346696347037299,-0.00115012695175437,-0.000777553595408514,0.0573887068942001,0.0384856626061866,2.68713788092431,-0.000695980470384878,0
0.38,0.00120344709701707,0.000692063879175691,-0.0597716772753547,-0.0346695775760956,-0.00115010339496493,-0.000777495664983833,0.0573889272854674,0.0384856341852047,2.68713340345793,-0.000679834588093862,0
0.39,0.00120338931782178,0.000692062784171244,-0.0597718943988633,-0.0346695204494862,-0.00115008043755558,-0.000777439216038397,0.0573891390926579,0.038485604093346,2.68712904279626,-0.000664109905775647,0
0.4,0.00120333305202459,0.00069206171771072,-0.0597721044309062,-0.0346694633237864,-0.00115005808124759,-0.000777384245384894,0.0573893434104517,0.0384855741567638,2.68712479589152,-0.000648795435528332,0
0.41,0.00120327808539395,0.000692060679050062,-0.0597722988411609,-0.0346694348868391,-0.00115003623366945,-0.000777330557436122,0.0573895623840706,0.0384855239472544,2.68712065977695,-0.000633880476092358,0
0.42,0.00120322472997817,0.000692059667465104,-0.0597724953683285,-0.0346693777614434,-0.00115001503343625,-0.00077727842954347,0.0573897523586884,0.0384854944249251,2.6871166315617,-0.000619354605372074,0
0.43,0.00120317277154516,0.000692058682250706,-0.0597726853004209,-0.0346693206367335,-0.00114999438808946,-0.000777227666278675,0.0573899353951776,0.0384854650065857,2.68711270843111,-0.000605207673155751,0
0.44,0.00120312232651024,0.00069205772271994,-0.0597728764582368,-0.0346692635118546,-0.00114997435027916,-0.000777178369374589,0.0573901150315298,0.0384854425622706,2.68710888764386,-0.000591429794021416,0
0.45,0.00120307283139782,0.000692056788204087,-0.0597730426217503,-0.0346692350711185,-0.00114995467414312,-0.000777130029765491,0.0573903056323322,0.0384853907880062,2.68710516653007,-0.000578011340429313,0
0.46,0.00120302483108302,0.000692055878050569,-0.0597732129437505,-0.0346691779467391,-0.00114993560034235,-0.000777083134298998,0.0573904685514298,0.0384853609125464,2.68710154248962,-0.000564942935994372,0
0.47,0.00120297789710687,0.000692054991625416,-0.0597733677739434,-0.0346691495033397,-0.00114991694220584,-0.000777037295365726,0.0573906468009529,0.0384853099518802,2.68709801299044,-0.000552215448934327,0
0.48,0.00120293257434283,0.000692054128310178,-0.0597735362643706,-0.0346690923777997,-0.00114989894032345,-0.000776992999948676,0.0573908017339535,0.0384852891399101,2.68709457556558,-0.00053981998569063,0
0.49,0.0012028879686723,0.000692053287502406,-0.0597736753456459,-0.0346690639319236,-0.00114988120351577,-0.000776949442190788,0.0573909660734676,0.0384852344594205,2.68709122781359,-0.000527747884708055,0
0.5,0.00120284497421307,0.000692052468616303,-0.0597738314957733,-0.0346690068058888,-0.00114986412562547,-0.000776907422996548,0.0573911087772361,0.0384852127175013,2.68708796739486,-0.000515990710390978,0
0.51,1.16342010849333,-0.0304627848555571,-0.33960131245823,1.5264273088991,-0.057722807192072,1.16238651387465,1.53396760244088,-0.303731419905966,0.0234402756467853,7.20094091269476,153.885359454424
0.52,1.09725330578876,-0.0572027035779709,0.709531810225685,2.86634146704905,-0.171140201863019,1.08533312750845,2.77688349265914,1.00412492432177,0.104311257977949,14.8084987744711,153.885359454424
0.53,1.08126815531249,-0.0612265604816666,-0.6778292339123,3.06829206268631,-0.316471630397152,1.03572931915393,3.14147177967108,0.0708781335826284,0.239980368114836,22.1667886692092,153.885359454424
0.54,1.05957927936897,0.0247831545673315,-1.70571712458507,-1.24030744117931,-0.417623716423433,0.974121596875387,-0.419638318926665,-2.06681811948607,0.428401181360163,29.2053671308811,153.885359454424
0.55,0.940504642926103,-0.0174934509413451,2.21236112352957,0.877983062295624,-0.595920763325612,0.727827897259245,-0.679920356711071,2.28103141300441,0.667481439660053,35.9677633528234,153.885359454424
0.56,0.884308673263305,-0.0413253302900942,3.01737045420043,2.07226598151821,-0.746021337216862,0.476614914736685,-1.2681651511985,3.43373963854644,0.955583315434185,42.590769262337,153.885359454424
0.57,0.865250917936714,0.0260655550292402,2.01828723188168,-1.30357060288119,-0.82450100315732,0.263698046905702,-2.2995389366845,-0.696347862597839,1.2913656625099,48.9710273506878,153.885359454424
0.58,0.84695478658069,-0.0315474036858009,1.02888639330739,1.5830852451098,-0.839293432039673,-0.117958399982043,-1.18532079781731,1.46961923976218,1.67319581438989,55.1967003827623,153.885359454424
0.59,0.827855341848432,-0.0109233894679013,0.0341466165949848,0.550070339368997,-0.708755465618967,-0.427936300656644,-0.307542804288157,0.457341003201096,2.10080062445048,61.4266965743404,153.885359454424
0.6,0.702028642401834,0.0169021101219881,4.40827314130981,-0.845697343989533,-0.391939469724145,-0.58267773953661,-1.65877841602893,-4.17091479804383,2.5735290985894,67.5237271782954,153.885359454424
0.61,0.761478152414184,0.0406267282490211,-0.41500022621548,-2.03498633880092,-0.0797867589542885,-0.758375619826949,2.05365752141327,0.30965363167251,3.09007273876724,73.3141791959835,153.885359454424
0.62,0.677531584798483,0.012549662031719,2.09745791877449,-0.628380825427839,0.317201336980099,-0.598823725510849,1.56570474333519,-1.53060799667742,-2.6359420581771,78.5923632363606,153.885359454424
0.63,0.688339175936151,0.0731513839666575,0.0321476502768827,-3.66390291979897,0.580153239737907,-0.3776031839462,1.69160282139365,3.25018429812569,-2.04190659326832,83.4307532744478,153.885359454424
0.64,0.672520968990166,-0.0291496054755872,-0.599618372718844,1.4618631816803,0.659664737134282,0.134076798188249,-0.363362378975294,-1.5377106152979,-1.41359449004829,87.9455443601925,153.885359454424
0.65,0.536720606254894,-0.0624613423589262,4.85558176126719,3.13135999212232,0.321589711819467,0.434224004080581,5.60560876846529,1.39972853636694,-0.753317745963954,92.1903433115502,153.885359454424
0.66,0.58489564507767,-0.0281646986701663,1.11976308435257,1.41414817001571,0.00823700385193258,0.585515429044827,1.48100059212677,1.02971921316334,-0.062183232655575,96.37925664073,153.885359454424
0.67,0.586146907343205,-0.0433989643007358,-0.300920847870672,2.1778722812931,-0.393600281914899,0.436497978422458,1.90515547560002,1.0972983386934,0.659859991975016,100.594200944667,153.885359454424
0.68,0.490971099312686,-0.0871623482336226,3.05892204215534,4.36636260756007,-0.498569441703338,-0.00885477890905467,-2.33408226224793,4.79313952162277,1.41285491195565,104.816584068301,153.885359454424
0.69,0.516949447331634,0.00768277887440331,0.471747214183815,-0.385236427311525,-0.423716182068739,-0.296243739580781,-0.157157035679885,-0.588433687983828,2.19581633538196,108.730158533905,153.885359454424
0.7,0.520951380387039,0.0465563176716472,-0.896679820506571,-2.33179057391613,-0.11656693953035,-0.509872513527482,2.43161808841633,0.573162676030405,3.00596663191096,112.260442816537,153.885359454424
0.71,0.518943878864702,-0.0132009895503642,-1.86512806720657,0.663391086852028,0.344115427041008,-0.388666423052771,-1.70818125386615,1.00045351972828,-2.44234952556065,115.512317572408,153.885359454424
0.72,0.491627325839508,0.0226704552070957,-1.52273231432805,-1.13233536529376,0.491278887264492,-0.0292648591242943,-1.50740204796605,1.15266480226542,-1.58421430073755,118.618889485088,153.885359454424
0.73,0.409308308635283,-0.0509687149357086,1.55372455651526,2.55735646147936,0.225831432824698,0.345153973421164,2.95539247402495,-0.46881488144627,-0.703272733249006,121.717269061869,153.885359454424
0.74,0.351404757333947,0.0215176927875302,3.39141238355672,-1.07891272668372,-0.0489159233676661,0.348648170826863,-1.73288215799465,3.10851251463554,0.20054880415979,124.862181015411,153.885359454424
0.75,0.392353000684431,-0.0657991485436499,0.328746339078146,3.29579726324881,-0.382574569964499,0.109119675181084,1.1188694640352,3.11744845640553,1.12679170579625,127.788651871676,153.885359454424
0.76,0.304165243016777,0.0638277700471708,3.83509357561297,-3.19714097772524,-0.297303193343342,-0.0905609767863682,-1.82109429578258,-4.64900728446686,2.07331981713411,130.401889038846,153.885359454424
0.77,0.362408911163336,0.0584468364269472,0.109363496093067,-2.92550956853286,-0.0956170202104558,-0.354420141957235,2.8985081726617,-0.411359918889011,3.03797820635437,132.777556233198,153.885359454424
0.78,0.28718911954846,-0.0267293738418737,3.0451558503542,1.34274694555984,0.238120309951844,-0.162759847018348,1.48676088536659,-2.97749652938515,-2.26318064693086,135.170144478871,153.885359454424
0.79,0.358019319096254,0.00686216366814152,-1.35005858703305,-0.34330782121107,0.343330273562354,0.101731240983056,-1.3906649638693,-0.0810518771698754,-1.26356615813769,137.60458291622,153.885359454424
0.8,0.258223397079684,-0.00222030129406239,2.82057624276517,0.109859209784208,0.0607978301536638,0.250973855980687,0.794160506441303,2.70869497678026,-0.246267304927105,139.873853215767,153.885359454424
0.81,0.261440426097668,0.0347385921990445,1.94645747550868,-1.73999000926818,-0.160516172432273,0.209266396188673,-2.60685973296667,0.143332721154769,0.786419276835874,141.847325349501,153.885359454424
0.82,0.259428036152751,0.0812052056178048,1.38219147112192,-4.06567917871938,-0.271611101074458,0.01116248783308,-0.280755694052635,-4.28501769977342,1.83307729362865,143.695060961445,153.885359454424
0.83,0.230139001687297,0.00625654074464192,2.1744752583564,-0.309603001708995,-0.0626269563899018,-0.221542250446845,-0.234324249642409,-2.18387014584221,2.89327392449172,145.564941628643,153.885359454424
0.84,0.301056105012734,0.023821953071187,-2.08306899300535,-1.19487316741627,0.20516998336157,-0.221602215108462,-0.721333457922759,2.2905406257722,-2.3157155757428,147.513466894027,153.885359454424
0.85,0.205634205032112,0.0685900420159287,2.02890312737523,-3.43754819348659,0.216724386553677,0.00453435947712415,0.755141668990171,3.91955948322903,-1.22792830290161,149.234470967109,153.885359454424
0.86,0.18314239782446,0.0753934155304374,2.57910870106881,-3.7762461527981,0.0982114335726452,0.171987846378295,-3.41512882753328,3.04117276553018,-0.128328664882583,150.773630622911,153.885359454424
0.87,0.22037422698125,-0.0172041445661201,0.163567160129534,0.86508664081717,-0.192842708050337,0.108039217229892,0.344239508340611,0.810326028762862,0.982211458439038,152.226093102427,153.885359454424
0.88,0.154589081460423,-0.0630974123570608,2.89677333343093,3.16445485893528,-0.101142637034152,-0.132850421627904,-4.10232409953672,1.25539128636289,2.10335862333302,153.655473994587,153.885359454424
0.89,0.14218051073347,-0.0133173718614256,2.95598638842721,0.664660801658886,0.0265483647912207,-0.140313343458982,-0.385461727613942,-3.00517033899472,-3.04798827434174,155.094942359446,153.885359454424
0.9,0.181098378655255,-0.0352483002570635,0.529185427530202,1.76524002666059,0.182598062633418,-0.0264010027290014,-0.0821036171918972,-1.84102378161691,-1.90661938233729,156.312517389331,153.885359454424
0.91,0.113438819143356,-0.0230287297353803,3.46178435457774,1.15538063229345,0.0611227545142187,0.0982990181154358,3.21648424046917,1.72426345257664,-0.756582002468077,157.428829898049,153.885359454424
0.92,0.174060604665242,0.0461790071803481,-0.029159552184243,-2.30995145718359,-0.0255187597550838,0.178264936824813,-2.11484526819053,-0.929599648042268,0.401514715760212,158.555677381076,153.885359454424
0.93,0.155023459205335,0.0394225465316806,0.465006284317458,-1.97769506197045,-0.154910627570855,0.0398636117861215,-0.470633280334419,-1.97636355917597,1.56795014126377,159.676490141106,153.885359454424
0.94,0.109875330745571,-0.0245623075310287,2.28419142309513,1.22878745672577,-0.0200796154512619,-0.11078223820192,-2.02005423466172,-1.62690809825669,2.74235519608916,160.718132857544,153.885359454424
0.95,0.110595151224174,-0.018640941780769,1.85896266318997,0.93492219272003,0.0911698172207226,-0.0653210273396858,0.64690768573837,-1.97770880963488,-2.35947661797738,161.62683028348,153.885359454424
0.96,0.142538974973381,-0.0162802614412149,-0.127078954222133,0.819031707606002,0.12498790009874,0.0704303281829917,0.201434827057266,-0.803981348738019,-1.17137309198367,162.51611952809,153.885359454424
0.97,0.113514717058966,0.00989382877109764,0.939867160009885,-0.498419256226826,0.00726299493557596,0.113713357796236,-0.520046190122655,0.928075424511209,0.0231548526149179,163.395571686364,153.885359454424
