t,iq,id,vq,vd,ia,ib,va,vb,theta_e,omega,r
0,0,0,0,0,0,0,0,0,0,0,0
0.01,0.00112130176745219,0.000641768367465331,-0.0556047691199944,-0.0321566857190491,0.00104409408935027,0.000760954547758512,-0.0520788208897866,-0.0375997234039176,-0.421155492457612,-0.00095556238338625,0
0.02,0.00125938111961856,0.000721286307324549,-0.062536958011787,-0.0361410468226856,0.00117311850556605,0.000854451703423927,-0.0585493004776926,-0.0422968769104816,-0.421162555009225,-0.00104104373907251,0
0.03,0.00128884234346795,0.00073815398580456,-0.0640015046742336,-0.036986234031828,0.00120056290841825,0.000874433871716684,-0.0599196822556433,-0.043287478406646,-0.421169795300145,-0.00103001442551625,0
0.04,0.00127343702826461,0.000729594166587282,-0.0632532691849483,-0.0365573254021014,0.00118645879096954,0.000863866338159265,-0.0592226427289631,-0.042779582645653,-0.421176508462426,-0.000982185319672362,0
0.05,0.00128837986784586,0.000738184200848539,-0.0640012225693674,-0.0369877370884807,0.00120041316896071,0.00087398330764301,-0.0599215210218018,-0.0432858002552111,-0.421183249751021,-0.000960924461080897,0
0.06,0.00128819385434444,0.000738219331795385,-0.0640029345866552,-0.0369895161598978,0.00120037486790161,0.000873791373679901,-0.0599241263344786,-0.0432862452113423,-0.421189759401794,-0.000927530077945475,0
0.07,0.00132164258232308,0.000757423790783046,-0.0656623337834193,-0.0379517654251349,0.00123158190088105,0.000896457436622614,-0.0614809943980052,-0.0444068227258165,-0.421195991715426,-0.000925155891796847,0
0.08,0.00128786572021195,0.000738299209047917,-0.0640072917718812,-0.0369935093290495,0.00120032435978636,0.000873444484029344,-0.0599300848091623,-0.0432878512658669,-0.421202069353283,-0.000864400760138301,0
0.09,0.00128748028482558,0.000738210319858163,-0.0639980061543572,-0.0369890578744833,0.0012000907278422,0.000873122102060666,-0.0599224775620904,-0.0432808488479118,-0.421207883419763,-0.000834381581940494,0
0.1,0.00128725876406494,0.00073820697700765,-0.0639964407825299,-0.0369888843995272,0.00120000199290607,0.000872914591232285,-0.0599219215440092,-0.0432791557268282,-0.421213482332187,-0.000805605013143475,0
0.11,0.00128704632370195,0.000738204126736721,-0.0639949761377079,-0.0369887313363007,0.00119991723727131,0.000872715415118246,-0.0599214163617324,-0.0432775585949432,-0.421218874225971,-0.000777893065285817,0
0.12,0.00128684133039446,0.000738201383316215,-0.0639935440492312,-0.0369886089926171,0.00119983544802202,0.000872523231559565,-0.0599209438822124,-0.0432759905658363,-0.421224066756198,-0.000751205759578023,0
0.13,0.00134455988447128,0.00077126978816688,-0.0668478099921796,-0.0386455346145265,0.00125361793387933,0.0009116690435265,-0.0626003193583293,-0.0452029541360771,-0.421229311997635,-0.000775232166390771,0
0.14,0.00146400928227574,0.000840247692373396,-0.0728709157094312,-0.0421017772752658,0.001365411992351,0.000992466349188942,-0.0682174299005731,-0.0492860250357798,-0.421234288023875,-0.000854967585531533,0
0.15,0.00128707468940249,0.00073865144681608,-0.0640301863012247,-0.0370111633024816,0.00120035471782347,0.000872534106716149,-0.0599571605483915,-0.0432993056035188,-0.421239116348931,-0.000674585151415965,0
0.16,0.00128607654157515,0.00073819313746293,-0.0639883987325694,-0.0369881940121061,0.00119953221350676,0.000871805280866574,-0.0599193049195917,-0.0432702965854001,-0.421243561390402,-0.000651015210011448,0
0.17,0.00128590402803879,0.000738188829197365,-0.0639870377822946,-0.0369879699383884,0.00119946147225277,0.000871644476526622,-0.0599187291274133,-0.0432688897947658,-0.421247841124241,-0.000629015896977169,0
0.18,0.00128574117353795,0.000738186641644313,-0.0639858874139635,-0.0369878783901778,0.00119939647666198,0.000871491810061167,-0.0599183535248619,-0.0432676304739312,-0.421251962612156,-0.000607833256291339,0
0.19,0.0012855849582178,0.000738184543665588,-0.063984809246946,-0.0369877562010858,0.00119933414359928,0.000871345349043428,-0.0599179728810297,-0.0432664587063376,-0.421255931709263,-0.000587433851435763,0
0.2,0.00128543409448901,0.000738182523193061,-0.0639837485740156,-0.0369876646758321,0.00119927394059065,0.00087120391656754,-0.0599176210159487,-0.043265299161612,-0.42125975405032,-0.000567788707470393,0
0.21,0.00128528881869304,0.000738180577329133,-0.0639827264974359,-0.0369875731588912,0.00119921596647959,0.00087106772293763,-0.0599172788185283,-0.0432641833068967,-0.421263435061522,-0.000548869935809335,0
0.22,0.00128514901441458,0.000738178703322609,-0.063981746003695,-0.036987481649475,0.00119916017581618,0.000870936656724421,-0.0599169477362162,-0.0432631135544718,-0.421266979968546,-0.000530650679104515,0
0.23,0.00128501444882299,0.000738176898522844,-0.0639808040989747,-0.0369873901473552,0.00119910647546104,0.000870810500455787,-0.0599166267631269,-0.0432620868705174,-0.421270393803857,-0.000513105073047661,0
0.24,0.00128488488908762,0.000738175160376898,-0.0639798973346279,-0.0369872986517569,0.00119905477219245,0.000870689036847071,-0.0599163146987401,-0.043261099817565,-0.421273681413704,-0.00049620820965297,0
0.25,0.00128476010237783,0.000738173486426131,-0.0639790220800105,-0.0369872071620274,0.00119900497271015,0.000870572048793634,-0.0599160102603892,-0.0432601488027739,-0.421276847465282,-0.000479936101896267,0
0.26,0.00129412322363467,0.000743550290690995,-0.0644456894539258,-0.0372566076687391,0.00120774315918564,0.000876914142990948,-0.0603528213053096,-0.0435756659692489,-0.42127988733219,-0.000472659144000539,0
0.27,0.00124626245770197,0.000716260477309098,-0.0620911363466436,-0.0358892327658204,0.00116327027690959,0.000844394130540409,-0.0581422821387979,-0.0419859651434755,-0.421282878845132,-0.000415261822340103,0
0.28,0.00121682399120024,0.000699170253549394,-0.0605315692133677,-0.0350328872044486,0.00113563837893225,0.000824515094649536,-0.0567231720452025,-0.040912782971129,-0.421285740789819,-0.000374740609873965,0
0.29,0.00128399050562604,0.000737992358250271,-0.06396029477665,-0.0369781318266057,0.00119853500778102,0.000869929982525583,-0.0599005691781879,-0.0432460790526831,-0.421288382651641,-0.000420373293069249,0
0.3,0.00128242863652375,0.00073717248764516,-0.0638871702480872,-0.0369370490994558,0.00119715013175434,0.0008688371805797,-0.0598332753850982,-0.0431960099450712,-0.4212906992302,-0.000407172802945018,0
0.31,0.00128410543137464,0.000738160361738889,-0.0639740544197015,-0.0369865537672401,0.00119873953933795,0.000869960341254812,-0.0599140913934041,-0.0432549008896645,-0.421293233985036,-0.000395709284427307,0
0.32,0.00128401742865823,0.000738163509377994,-0.0639737804924098,-0.0369867169759863,0.00119870854902592,0.000869875817670263,-0.0599142339859755,-0.0432544377957514,-0.42129567707696,-0.000383160151325939,0
0.33,0.00128392465264612,0.000738162284991523,-0.0639731197567324,-0.0369866561164159,0.00119867153799793,0.000869788834516766,-0.0599140100107884,-0.0432537187593204,-0.42129802984566,-0.000371067989252939,0
0.34,0.00128383536909249,0.000738161086739956,-0.0639724854221454,-0.0369865952548237,0.00119863590299092,0.000869705132197754,-0.0599137930646632,-0.0432530290296005,-0.421300295621595,-0.000359422897975239,0
0.35,0.00128374934516672,0.00073815993267323,-0.063971871263475,-0.0369865343916213,0.00119860156810112,0.000869624486986001,-0.0599135807416603,-0.0432523627327543,-0.421302477621277,-0.000348208379784654,0
0.36,0.00128366658086879,0.000738158821245454,-0.0639712826061108,-0.0369864735258948,0.00119856853465082,0.000869546895783562,-0.0599133753530286,-0.0432517245431869,-0.421304578942155,-0.000337408514544003,0
0.37,0.00128358684336807,0.000738157750883066,-0.0639707128835065,-0.0369864126582183,0.00119853670861832,0.000869472143171193,-0.0599131743432026,-0.0432511082894883,-0.421306602567256,-0.000327007970606378,0
0.38,0.00128350966350671,0.000738156720069433,-0.0639701435531927,-0.0369863823897824,0.00119850589928699,0.000869399798178637,-0.0599129981789078,-0.0432504843639176,-0.42130855136948,-0.000316991983207054,0
0.39,0.00128343586318565,0.000738155727344596,-0.0639696203756898,-0.0369863215157531,0.00119847644388126,0.000869330608102841,-0.0599128098412323,-0.0432499193895765,-0.421310428115431,-0.000307346333501861,0
0.4,0.00128336474041583,0.000738154771301739,-0.0639691128258169,-0.0369862606399066,0.00119844805638117,0.000869263929709675,-0.0599126248898728,-0.043249372835344,-0.421312235469255,-0.000298057328383689,0
0.41,0.00128329594245618,0.0007381538505866,-0.0639686076133488,-0.0369862303575853,0.00119842059355116,0.000869199438571377,-0.0599124659206704,-0.0432488199071311,-0.421313975996723,-0.000289111781042952,0
0.42,0.0012832300583741,0.000738152963894331,-0.0639681384017929,-0.0369861694752144,0.00119839429727786,0.000869137669804203,-0.0599122909653224,-0.0432483162022149,-0.421315652168796,-0.000280496992247207,0
0.43,0.00128316614985305,0.000738152109968301,-0.063967662394557,-0.036986136273662,0.00119836878477094,0.000869077764797822,-0.0599121358091026,-0.0432477986892924,-0.421317266364796,-0.000272200732314789,0
0.44,0.0012831048024728,0.000738151287598662,-0.0639672127164802,-0.0369861059766476,0.00119834429641882,0.000869020255663134,-0.0599119914884004,-0.0432473075916302,-0.421318820876325,-0.000264211223751073,0
0.45,0.00128304590330764,0.000738150495619832,-0.0639667874992553,-0.0369860450849744,0.00119832078691404,0.000868965037172398,-0.059911826765098,-0.0432468547720124,-0.421320317910381,-0.000256517124530205,0
0.46,0.00128298897970874,0.000738149732908899,-0.0639663667060283,-0.0369860147794104,0.00119829806380016,0.000868911675914379,-0.0599116893673804,-0.0432463967976451,-0.421321759592052,-0.000249107511994105,0
0.47,0.00128293415158534,0.000738148998385237,-0.0639659598597881,-0.0369859844691511,0.00119827617692494,0.000868860279294246,-0.0599115553627986,-0.0432459547466191,-0.421323147967947,-0.000241971867346013,0
0.48,0.00128288141893745,0.000738148291007702,-0.0639655703059581,-0.0369859541537283,0.00119825512706689,0.000868810845368804,-0.059911426204464,-0.0432455315538522,-0.421324485009116,-0.000235100060717762,0
0.49,0.00128283054893441,0.000738147609772885,-0.0639651896344326,-0.0369859238342253,0.00119823481975356,0.000868763159798422,-0.0599112985360838,-0.0432451194305239,-0.421325772613496,-0.000228482336789435,0
0.5,0.00128278177440687,0.00073814695371583,-0.0639648326047119,-0.0369858935093646,0.00119821535092715,0.000868717433250259,-0.0599111784718557,-0.0432447317363436,-0.421327012609099,-0.000222109300940685,0
0.51,4.58310408755096,-0.0285263696508545,10.8466297178096,1.43491689287167,-0.320262929623231,4.57198955455947,0.741428710025909,10.9159812290361,0.0637105165884041,19.553602781301,658.607875658991
0.52,4.53097886115205,0.0408662707103091,13.4549329314674,-2.03557173422537,-1.24644080701239,4.35635453181933,-5.76963640893981,12.3243688756909,0.28769390903242,41.5734656626794,658.607875658991
0.53,4.60038648527646,0.00414828941927103,9.98662268309837,-0.187597415626116,-2.86947687509053,3.59578579528037,-6.38268427149258,7.68304411645317,0.674428729757756,64.1006751649346,658.607875658991
0.54,4.53286196204061,0.0487955740096708,13.3650279452671,-2.41979609117315,-4.25805212014392,1.55505971496129,-13.4082361029522,2.16762305489595,1.23140547470771,88.2416064571864,658.607875658991
0.55,4.47953307297179,0.0299739194570656,16.033672104805,-1.47567695144284,-4.1412860420764,-1.70788316503177,-14.2096873728942,-7.57238723217678,1.96864111611124,112.400478837218,658.607875658991
0.56,4.5431020449151,-0.0583276189471695,12.8573994411169,2.96231688850034,-1.14532075782692,-4.39675092122974,-6.25738835062128,-11.6160721746138,2.8739252945541,134.49648075978,658.607875658991
0.57,4.34782779269935,0.0126337249372246,16.5488854519377,-0.598767717012521,3.11771856337082,-3.0304450309464,12.3162993273306,-11.0694581330744,-2.33909463913201,157.949831609859,658.607875658991
0.58,4.21824230764254,0.099875690560709,15.2397679643163,-4.95794511708125,3.80294845445699,1.82787482402204,11.3224384641197,11.3416989298964,-1.09907817619069,179.72153078401,658.607875658991
0.59,4.14388381856918,-0.00920547535179428,11.3789517754547,0.501899844077954,-1.21765412903112,3.96095648355664,-2.83938555137753,11.0304277637922,0.296023367276187,201.38677248757,658.607875658991
0.6,3.86359798737678,0.0588992360734597,18.2569128332489,-2.89333290568503,-3.73307536358564,-0.997500304692612,-16.7747748322424,-7.76486772788414,1.84714569893988,221.379481205354,658.607875658991
0.61,3.74779075547853,0.0351773064342111,16.7851473942088,-1.71412583515131,1.43962515909048,-3.46044106885986,8.16888655323266,-14.763085480497,-2.73796372634249,241.640099625386,658.607875658991
0.62,3.68303123718423,0.0274113519104597,13.2945658022296,-1.32855695365384,2.89776695258671,2.27341530846977,9.57055158593541,9.32282606240533,-0.898110830151496,260.77996660835,658.607875658991
0.63,3.50184913847603,-0.00836418586640675,15.8685969372899,0.488741071027889,-3.09308700580853,1.64189832899268,-13.7682602859433,7.90482417838573,1.08040275983422,278.857540146223,658.607875658991
0.64,3.36740159818819,0.0326900662882021,16.1615904092922,-1.56946013977319,0.136518689233786,-3.36479194177057,2.37938501405633,-16.0623390775736,-3.09133469932222,296.622031866755,658.607875658991
0.65,3.20602613285111,0.0466725619584101,17.9869678392918,-2.27448072476273,2.44381655365732,2.07570290374959,12.040788192624,13.55447137735,-0.852111762484426,313.85912445103,658.607875658991
0.66,3.17433289700886,0.0163990106348124,13.5600629001813,-0.758631467826562,-3.16755093305682,0.208036907959508,-13.5811282052153,0.0615161308518678,1.51037907376821,330.47478196061,658.607875658991
0.67,3.09318340857084,0.0640151052382356,11.8211905108752,-3.14458971637834,2.28223130523979,-2.08885179037194,10.9580502386012,-5.43600262573975,-2.29129009169174,346.420286246653,658.607875658991
0.68,2.88487533560385,0.018346286603385,16.6545429204463,-0.856479709912372,-0.848446180431589,2.75735042515793,-5.81614057124423,15.6294550844873,0.304868478105592,361.751905678055,658.607875658991
0.69,2.80660640486633,0.0246040920046235,15.1830393781441,-1.16511612793601,-0.38848555175885,-2.77969851769121,-0.814361719206664,-15.2058868646371,3.01150017770817,376.500601875687,658.607875658991
0.7,2.68828267905787,0.0991875488332484,15.8940135597973,-4.89671878485329,1.27913554877854,2.36654055114573,2.64619446129319,16.4193537257097,-0.458647443654444,390.716179419439,658.607875658991
0.71,2.56963705951993,0.0663803978971655,16.8004507856369,-3.24924455727285,-1.67665149265959,-1.94840466716891,-8.10908837442195,-15.0683583223054,2.45684661667018,404.434668695836,658.607875658991
0.72,2.45470624337152,-0.0114512814287693,17.6445659636623,0.613663869827131,1.77379112503115,1.69687327689907,13.2288633670313,11.6920684828467,-0.812221816875029,417.7863803339,658.607875658991
0.73,2.42538498584798,-0.00158091241810854,14.2931134303724,0.123629705029443,-1.81205835400189,-1.61212262267882,-10.7670016330159,-9.40106651779947,2.29721953295359,430.596101925901,658.607875658991
0.74,2.29405673038062,0.0295714361117794,16.3124141373658,-1.42076045803648,1.64225443810498,1.60205215663,10.5237342271867,12.544498124022,-0.784899428289383,442.737787556615,658.607875658991
0.75,2.16732485231992,-0.0262352726773855,18.2905412854073,1.38954491332355,-1.2687881307695,-1.75731670003857,-12.0021779203538,-13.8716423233698,2.50414730703592,454.470862345123,658.607875658991
0.76,2.16125768119944,0.0373746616378688,14.2693953796121,-1.83687427683486,0.88586902222004,1.97171694351574,3.93372549877203,13.8389145278415,-0.404970486809162,465.975896543357,658.607875658991
0.77,2.06149225845921,-0.0357153734695113,15.1339061620911,1.84786031850492,-0.151596913365419,-2.0562208771062,-3.21424989447849,-14.9036338218412,3.05067653583287,476.804387641916,658.607875658991
0.78,1.94103955209766,0.0607569746296086,17.2309023764946,-2.97168645023775,-0.518161759091786,1.87158605043651,-7.95258257723868,15.5721336822869,0.301382896451955,487.262263728445,658.607875658991
0.79,1.92803050479035,-0.0561660330388767,13.9562431776124,2.85571092904076,1.38171501600296,-1.34585283936298,7.65835045931518,-12.0117224737005,-2.37217026834512,497.465448628296,658.607875658991
0.8,1.78948281596082,0.0312015719795399,17.2099991925397,-1.49247896213867,-1.72095772270951,0.491453765230815,-17.0130710367037,2.99449153609055,1.31006445679296,507.090143375281,658.607875658991
0.81,1.69064260503809,0.052261432383169,18.5184373382673,-2.58829198466622,1.60617800250504,0.53027907704682,16.5100842344753,8.77775002034974,-1.22101150479818,516.539478941693,658.607875658991
0.82,1.69120743833837,0.0365771783165788,15.0514025962178,-1.76294666062457,-0.905735521416906,-1.42869298826175,-6.27321128671346,-13.7949092492082,2.59819994343365,525.42897960815,658.607875658991
0.83,1.65027938923839,-0.0200960066421613,13.6972789980449,1.03994820745832,-0.346067984192781,1.61371089800644,-1.68944537920112,13.6324142592269,0.199078218170027,534.163300027437,658.607875658991
0.84,1.53550863969692,0.0776050691683539,16.2348560231224,-3.82090490318827,1.25322306474701,-0.890640937376347,15.7446013707588,-5.50248962258205,-2.13815703208262,542.385183470199,658.607875658991
0.85,1.51105971297809,0.0655701037520063,14.2598582734134,-3.24394791868639,-1.46412021240662,-0.379411252223588,-12.6867166169863,-7.27419944442478,1.86772437205239,550.450114889335,658.607875658991
0.86,1.46702360433219,-0.0375046947296996,13.4516615593417,1.89704420306736,0.470717235189338,1.38996048227649,6.41963777219093,11.9722272902465,-0.352092085816004,558.171057247388,658.607875658991
0.87,1.29095146041593,0.0785922263641473,19.3021043936263,-3.88231366189298,0.691756349214407,-1.09279712870983,14.4439755656451,-13.3796548255482,-2.51644664303556,565.503040527887,658.607875658991
0.88,1.32298932091182,0.0102502188250846,14.8424294938198,-0.48893287826074,-1.31912420931153,-0.101573277198852,-14.7480380144073,-1.74130507495168,1.65539284196841,572.648898110551,658.607875658991
0.89,1.2055432225104,-0.00433406723038954,18.0038496453549,0.236516398667318,0.471129415287584,1.10968027806675,7.31281226977512,16.4534895619869,-0.405095720006484,579.451748115011,658.607875658991
0.9,1.19624503336583,0.0570872318268091,15.8187953988409,-2.80633486958118,0.750597039590502,-0.933201594537878,12.5911247625775,-9.97864622500591,-2.41653444686526,585.928244278866,658.607875658991
0.91,1.11813383165162,0.0629122856047599,17.1395488612477,-3.1289213432858,-0.859297483763415,-0.718184555362903,-10.3746376508495,-13.9971846295297,2.32318359245792,592.262254828347,658.607875658991
0.92,1.10168235304337,-0.0168186443557329,15.5219419170331,0.847811259161714,-0.448148878448957,1.00655325569494,-5.31649825342169,14.6076798680788,0.403615947404504,598.266310289187,658.607875658991
0.93,1.0417209421104,0.0625738279104713,16.141024164054,-3.07877213142481,1.04284606113612,0.0396244614300873,15.7624614489231,4.64287712232675,-1.47282247702389,603.994243117871,658.607875658991
0.94,1.0404421366705,0.0374760126264039,13.8895417542571,-1.83405845991614,-0.209134009580764,-1.01989570904016,-0.489700497417686,-14.0015475573406,2.97534568847675,609.521769920814,658.607875658991
0.95,1.00055192677428,0.0247429124737517,13.6523193560315,-1.22117412521855,-0.915693000678523,0.404008290011195,-13.0882108737108,4.07134205986835,1.18000461137876,614.856351550052,658.607875658991
0.96,0.871456307232995,0.0417881301394614,17.96236661378,-2.09627695059801,0.51057181007254,0.707459376922782,8.04543455086798,16.1960481077683,-0.577224879837802,619.959981756252,658.607875658991
0.97,0.811898836542111,-0.0311727176561554,18.8816251012923,1.58705156591097,0.627239594412605,-0.516451304873571,13.0501765821114,-13.7378087886796,-2.29800268580046,624.813014273089,658.607875658991
