t,iq,id,vq,vd,ia,ib,va,vb,theta_e,omega,r
0,0,0,0,0,0,0,0,0,0,0,0
0.01,0.000517808234728219,0.00028367358125347,-0.0246485027220924,-0.0141966737605072,0.000336711648541208,-0.000484996221006087,-0.015718489433151,0.0237070310718823,-2.03355231624181,-0.00219216769549095,0
0.02,0.000587796149947088,0.000321599638677589,-0.0282608346270089,-0.0160947138530964,0.000382399089742422,-0.000550183221894618,-0.0181031519169123,0.027018335968401,-2.03356820095236,-0.00215309284972055,0
0.03,0.000611764545759651,0.000336571865773325,-0.0295580559228211,-0.0168440089901976,0.000397154007569198,-0.000574286665830206,-0.0189290084800867,0.0282682144246729,-2.03358281463708,-0.00192408687782129,0
0.04,0.000593241567483171,0.000329034451495633,-0.0288408074928051,-0.0164668002131473,0.000383937788739063,-0.000559277213945893,-0.0184552793248094,0.0276106926957658,-2.03359472961657,-0.00155555921867853,0
0.05,0.00060458083127973,0.000337183125140629,-0.0294961335719813,-0.0168746082268316,0.000390440342171383,-0.000571635181418694,-0.0188593108033443,0.0282683691522535,-2.03360503025469,-0.00136760836223128,0
0.06,0.00060266763147514,0.000337856491300375,-0.0295142964356798,-0.0169083031466593,0.000388422781608853,-0.000571386931482421,-0.0188602721105763,0.0283067932713603,-2.03361376747845,-0.00115310574314268,0
0.07,0.0006138283218576,0.000345758356073658,-0.0301218842237368,-0.0173037617096671,0.000394877252560094,-0.000583443231959946,-0.0192271744288501,0.0289320556126888,-2.03362086552453,-0.00103957725470985,0
0.08,0.000598949191773644,0.000338564184126665,-0.0295047058631425,-0.0169437157097958,0.000384771959697082,-0.000570365128782014,-0.0188355020202823,0.0283344495935403,-2.0336271005744,-0.000821956853374511,0
0.09,0.000595726274972699,0.000337966872536747,-0.0294161874391732,-0.0169138300174441,0.000382151951294102,-0.000568393602838058,-0.0187694977860352,0.0282682804955587,-2.03363212701499,-0.000688419133107631,0
0.1,0.000593961188844611,0.000337916446433664,-0.0293849709210544,-0.0169113017661957,0.000380592724712559,-0.000567561975928558,-0.0187425769215716,0.0282521583918383,-2.03363628493385,-0.000582258356450433,0
0.11,0.000592586632972616,0.000337911498105529,-0.0293632672245239,-0.0169110541604074,0.000379363041722449,-0.000566945130241751,-0.0187231698207994,0.0282423109319429,-2.03363973526959,-0.000494594372151216,0
0.12,0.00059145440907748,0.000337910448484107,-0.0293456589214758,-0.0169110094884229,0.000378348789231999,-0.000566439743396067,-0.0187073532232138,0.0282344625384482,-2.03364259952409,-0.000421864134818333,0
0.13,0.000618385811237635,0.000353250370983689,-0.0306358157103494,-0.0176786997322796,0.000395595727864764,-0.000592191570554065,-0.0195189127398367,0.029497485891466,-2.03364539993218,-0.00048467576768275,0
0.14,0.00063804604094207,0.000365338107442553,-0.0317434427276435,-0.0182836430825124,0.000407788755833666,-0.000611786738763751,-0.0202398197703868,0.0305333826529938,-2.03364779705554,-0.000522237067423121,0
0.15,0.000593431269161325,0.000340181724118082,-0.0295272547582748,-0.0170246685661364,0.000379099392803237,-0.000569357468571888,-0.0188188872358201,0.0284173819440205,-2.03364987898886,-0.000260205442999184,0
0.16,0.000588590203218903,0.000338096689469723,-0.0293162539200696,-0.016920322366397,0.000375697990249735,-0.000565330716375792,-0.0186766445141442,0.0282298246997936,-2.03365107914206,-0.000208873612385347,0
0.17,0.000587782084881789,0.000337923686405933,-0.0292901520816949,-0.0169116613505471,0.000375051614537954,-0.000564815442046897,-0.0186571296320057,0.0282104380061519,-2.03365202280896,-0.000182833378073576,0
0.18,0.000587431324842688,0.000337909174725393,-0.0292833417890993,-0.0169109449036954,0.000374743801251194,-0.000564646132718393,-0.018651333858946,0.028206770626131,-2.03365280097007,-0.000162868158982197,0
0.19,0.000587172229152799,0.000337907827288504,-0.0292791756115698,-0.0169108719362681,0.000374512204664019,-0.000564529481062593,-0.0186476204180454,0.0282048571505423,-2.03365344646062,-0.000146458247383248,0
0.2,0.000586960120431139,0.000337907595377446,-0.0292758517004525,-0.0169108667000198,0.000374322215044464,-0.000564434766217063,-0.0186446334734682,0.0282033783077977,-2.03365398228234,-0.00013285148837521,0
0.21,0.000586784610998175,0.000337907476313896,-0.029273116832942,-0.0169108532075517,0.000374164974804249,-0.000564356459946053,-0.0186421798476901,0.0282021533902788,-2.03365442710617,-0.000121557054634012,0
0.22,0.000586638742598697,0.000337907383544251,-0.0292708348410169,-0.0169108521825907,0.000374034287717721,-0.00056429138375754,-0.0186401280104046,0.0282011404306147,-2.03365479638998,-0.000112180793624824,0
0.23,0.000586517612456476,0.000337907307022839,-0.0292689354714168,-0.0169108525534458,0.00037392576409802,-0.000564237344390447,-0.018638419681787,0.0282002983934554,-2.03365510296219,-0.000104396816027984,0
0.24,0.00058641730732119,0.000337907243530754,-0.0292673681636269,-0.0169108388933695,0.000373835897857113,-0.000564192595688524,-0.0186370162088552,0.0281995910986959,-2.03365535747251,-9.79347072176985e-05,0
0.25,0.000586333837535538,0.00033790719081925,-0.0292660538430683,-0.0169108391758329,0.000373761115133618,-0.00056415535755728,-0.0186358340973814,0.0281990084341832,-2.03365556876221,-9.25699873182256e-05,0
0.26,0.00059219172407943,0.000341176138031098,-0.0295405204211855,-0.0170744380163102,0.000377542957616622,-0.000569695980663438,-0.0188083698145748,0.0284679469798138,-2.03365567772301,-0.000117988387393535,0
0.27,0.000575986321015704,0.00033193166123571,-0.028789446524266,-0.0166117941930719,0.000367170226248019,-0.000554188501039928,-0.0183428883614728,0.0277186288269297,-2.03365605071581,-3.18187385113726e-05,0
0.28,0.000575557082827505,0.00033162454791632,-0.0286171776807962,-0.0165964268151368,0.000366923219949969,-0.000553722084655432,-0.0181956043647327,0.0276279608955596,-2.03365616205613,-2.71512725629964e-05,0
0.29,0.000585068901596631,0.000337386407207865,-0.0292136417358599,-0.016884782174297,0.000372861506095077,-0.000563124768285528,-0.0186005562628583,0.0281523007808754,-2.03365610954882,-7.38175379314796e-05,0
0.3,0.000579581822395488,0.00033462348034449,-0.0289502866831024,-0.0167465023483961,0.000369185793545176,-0.000558202304091942,-0.0184266718310141,0.0279109692624739,-2.03365549894702,-6.19609475605899e-05,0
0.31,0.000585643656097716,0.000337635049644754,-0.0292342205920776,-0.0168972203743814,0.000373265048137069,-0.000563603692780084,-0.0186134302606871,0.0281726094626892,-2.03365560443629,-8.84348416259978e-05,0
0.32,0.000586188666534885,0.00033788458927543,-0.0292615959593059,-0.016909710949364,0.000373641199830491,-0.000564070387658317,-0.0186323434860532,0.0281960121062259,-2.03365576563091,-8.72492607854774e-05,0
0.33,0.000586193615188883,0.000337905237490262,-0.0292635426395548,-0.0169107455754137,0.000373636328552267,-0.000564091125614953,-0.0186336193856319,0.0281978097079333,-2.03365590679339,-8.39550149385877e-05,0
0.34,0.000586153102740151,0.000337906922166236,-0.0292630838909961,-0.0169108316029654,0.000373599260110993,-0.000564074587926352,-0.0186331671697144,0.0281976840456944,-2.03365602471605,-8.09898300425675e-05,0
0.35,0.00058611497672935,0.000337907039772212,-0.0292624910368497,-0.0169108390509311,0.000373565037973824,-0.000564057706159291,-0.0186326306080293,0.0281974278208658,-2.03365612268592,-7.8505216741925e-05,0
0.36,0.000586082904308224,0.000337907031246688,-0.0292619761660442,-0.0169108392087869,0.000373536298164706,-0.000564043408295603,-0.0186321675482732,0.0281971995833036,-2.03365620402617,-7.64402469562355e-05,0
0.37,0.000586056245199557,0.000337907015370645,-0.0292615439683548,-0.0169108393535654,0.000373512413149864,-0.00056403151578353,-0.0186317788580465,0.0281970079909005,-2.0336562715539,-7.47257197713373e-05,0
0.38,0.000586034126288436,0.000337907001461141,-0.0292611825877113,-0.016910839487342,0.000373492596200511,-0.000564021647983933,-0.0186314538617206,0.0281968477953937,-2.03365632761414,-7.33023290660878e-05,0
0.39,0.000586015732667609,0.00033790698985295,-0.0292608777923679,-0.0169108396120899,0.000373476116906204,-0.000564013442061534,-0.018631179769228,0.0281967126802474,-2.03365637415416,-7.21206548505216e-05,0
0.4,0.000586000643547666,0.000337906980211059,-0.0292606305662759,-0.0169108257574952,0.000373462597990516,-0.000564006710435089,-0.0186309636532596,0.0281965906146002,-2.03365641279091,-7.1139651122152e-05,0
0.41,0.000585987954277602,0.000337906972206096,-0.0292604139492988,-0.0169108258687264,0.000373451229380495,-0.000564001049376805,-0.018630768874833,0.0281964945902724,-2.03365644486639,-7.03252404273695e-05,0
0.42,0.00058597747689865,0.000337906965560425,-0.0292602337144096,-0.016910825974543,0.000373441842389976,-0.000563996375129435,-0.0186306068063522,0.0281964147045374,-2.03365647149469,-6.96491321267912e-05,0
0.43,0.000585968745749523,0.000337906960042962,-0.0292600791926134,-0.0169108260760808,0.000373434019936199,-0.000563992479910003,-0.0186304678748264,0.0281963462118503,-2.03365649360102,-6.90878398495111e-05,0
0.44,0.000585961469791918,0.000337906955462702,-0.0292599462988195,-0.0169108261740602,0.000373427501256239,-0.000563989233883324,-0.0186303484030249,0.028196287303136,-2.03365651195336,-6.8621865656349e-05,0
0.45,0.000585955474402851,0.000337906951660247,-0.0292598349667237,-0.016910826268905,0.000373422129812862,-0.000563986559174079,-0.0186302483134642,0.0281962379610412,-2.03365652718885,-6.82350227282488e-05,0
0.46,0.000585950468544018,0.000337906948503344,-0.0292597378554619,-0.016910826361328,0.000373417644951347,-0.000563984325910557,-0.0186301610224381,0.0281961949183106,-2.0336565398372,-6.7913873071873e-05,0
0.47,0.000585946277592438,0.000337906945882652,-0.0292596522397592,-0.0169108264517582,0.000373413890223882,-0.000563982456188171,-0.0186300840788562,0.0281961569666485,-2.03365655033747,-6.7647260723233e-05,0
0.48,0.000585942901548109,0.000337906943707055,-0.0292595830842242,-0.0169108265401961,0.000373410865465245,-0.000563980950061752,-0.0186300219146526,0.0281961263296004,-2.03365655905469,-6.74259242130027e-05,0
0.49,0.000585939991165066,0.000337906941900811,-0.0292595170416212,-0.0169108266274948,0.000373408258040647,-0.000563979651634991,-0.018629962578089,0.0281960970539029,-2.0336565662914,-6.72421748451423e-05,0
0.5,0.000585937662858633,0.000337906940401253,-0.0292594633530076,-0.0169108267133653,0.000373406172002145,-0.000563978612926304,-0.0186299143309041,0.0281960732702027,-2.03365657229922,-6.708962960741e-05,0
0.51,2.0880677973136,-0.0344685886093196,3.58213560908853,1.72828080342177,-0.19653887119168,2.07908337540597,1.4448457755804,3.70554594387436,0.0777455068608626,23.4684084369505,215.694209834121
0.52,1.87839387739371,0.0161431811180915,1.74548814686413,-0.801642689545615,-0.607575345556347,1.77749159221608,-1.33503508908363,1.38095661896403,0.3379594983221,47.0669708879878,215.694209834121
0.53,1.63652170772511,0.0329728799235123,2.66837683143526,-1.64103113189355,-1.10663931329704,1.20608454966118,-3.02983641232226,0.795807391867215,0.762570873257717,68.5161232890214,215.694209834121
0.54,1.4098058825642,0.0237336614384508,3.41858850915513,-1.18320758909778,-1.36686568475162,0.346112861717648,-3.5987432484121,-0.368476085837844,1.33962583677525,88.7415457589263,215.694209834121
0.55,1.24755439761406,0.012230982889373,2.45754987491659,-0.606900951215848,-1.10969154780119,-0.570198422206888,-1.89210230824525,-1.68161499976131,2.05525427845722,105.787451330687,215.694209834121
0.56,1.1163794314277,0.0167338241708359,1.72393395054281,-0.826876588596219,-0.301993111064251,-1.07488753674789,0.357953761627591,-1.8781752482501,2.88268849923564,119.68596031055,215.694209834121
0.57,0.97544570319414,0.00489507422860693,1.90499802351187,-0.240375320101574,0.59933478803936,-0.769620746522226,1.36689344009029,-1.34848065894035,-2.47493170777074,132.864310634167,215.694209834121
0.58,0.819961927598782,-0.0277219504396527,3.69037356527778,1.39298651966805,0.811624668099224,0.119881055135967,3.82376371900195,-0.968555376074253,-1.45794754329501,144.082920865814,215.694209834121
0.59,0.712010860162036,0.00478059807981729,4.11488254893864,-0.22708062535538,0.259669318108776,0.662988811624756,1.26290654836052,3.92286770769544,-0.366586071231819,153.611896814073,215.694209834121
0.6,0.617778304206419,-0.0201809407402272,4.10266633563699,1.0119739042412,-0.45449266080211,0.418919711632596,-2.2144951155019,3.59888505343703,0.793449013615632,162.509664671399,215.694209834121
0.61,0.541343912593212,-0.0121801499128092,4.14008231328844,0.621120688552574,-0.484411473209896,-0.241965105699653,-4.00939902101651,-1.20448825682265,2.01155041607457,169.727535664052,215.694209834121
0.62,0.495281708609809,0.00364522129468889,2.82750471569588,-0.181720236282672,0.0655477542326879,-0.490938642232194,0.574750651865458,-2.77443090556195,-3.00150270720179,176.543845864677,215.694209834121
0.63,0.396644339478055,-0.000672872185195628,4.84408747134455,0.0446020688027071,0.394056530736286,-0.0452397544317257,4.80637000052948,-0.604962967948451,-1.68679754130627,182.082172217868,215.694209834121
0.64,0.396849963111954,0.0203120260613685,2.09063983774623,-1.01521731264468,0.148726345703806,0.368487375249504,-0.277262431164441,2.30750225727514,-0.332478752856301,187.222466302744,215.694209834121
0.65,0.331439217700866,0.00136219439781377,3.09086863091964,-0.0582283479817332,-0.287797779683711,0.164396619834063,-2.71881510920673,1.4713612187566,1.05591534875611,191.564374807726,215.694209834121
0.66,0.27651686876287,-0.00695550985506289,3.77424573886131,0.351821135221901,-0.165529027841423,-0.221607984444693,-2.61044070716722,-2.74851020061158,2.47490075004517,195.402355311176,215.694209834121
0.67,0.261994385052975,0.018724968365502,2.71705210451828,-0.942173993280721,0.170538747235475,-0.199770413051909,2.57807295373975,-1.27420713287807,-2.36362012598528,198.786685235666,215.694209834121
0.68,0.211360653564096,-0.0232284427418683,3.72158098078081,1.1701465979944,0.150494783246346,0.150213869675505,3.63668037745649,1.41207786241774,-0.895792621099018,201.626385044528,215.694209834121
0.69,0.17966982580717,-0.00708979943656118,3.90708752282434,0.350734052512365,-0.106127546019923,0.145149769332984,-1.88882605393299,3.43812207819695,0.591893665207961,204.229797859252,215.694209834121
0.7,0.156505544684927,0.013524429119804,3.90135479455507,-0.667568933706736,-0.14212301895083,-0.0669174355788104,-3.03817048469188,-2.53687556261541,2.0970472239872,206.405654589232,215.694209834121
0.71,0.17488862873026,0.0120950699562021,1.92128791104707,-0.603489690261631,0.069403622531614,-0.160982795217021,1.41692626370284,-1.43103703886965,-2.66549722775401,208.371286507883,215.694209834121
0.72,0.105472609321707,-0.0279753862201799,4.50758079755277,1.39284430861862,0.0835885550904397,0.0701430467629558,4.67223756691746,0.654596083705817,-1.13190557452095,210.031963833812,215.694209834121
0.73,0.0938722069314891,-0.0109735510713001,4.30187091933731,0.556598136767513,-0.0477261682088819,0.0815758722012842,-1.21673400836284,4.16358658435085,0.412985519562214,211.475304460313,215.694209834121
0.74,0.06186131392611,0.0207230315910205,5.20115465900896,-1.04114312112932,-0.0650617312383021,-0.00482051109967649,-4.39348360523463,-2.97208522693076,1.96799495191046,212.751095206746,215.694209834121
0.75,0.0410766969160275,-0.0481870048798094,5.6240143126056,2.41362626363097,0.0601880419545868,-0.0196642333817226,-0.0934031333292444,-6.11934674483855,-2.75146247994546,213.886814570392,215.694209834121
0.76,0.0650643535793747,0.00847181791176503,3.88786454770313,-0.419851787497814,0.0633868322873986,0.0169484895492546,3.43490073131295,1.869016648074,-1.18004802500308,214.855816380172,215.694209834121
0.77,0.0408259421401529,0.0135687026745017,4.6407379941821,-0.68606572417978,-0.00331331921657135,0.0428939291703295,-2.4309215280143,4.01220087148889,0.397961117780228,215.700592573607,215.694209834121
0.78,0.0595409002534849,0.0436374319767042,3.27395686890658,-2.17544427803768,-0.0720196157618147,0.0162024448166778,-2.13157407997961,-3.30268728884019,1.98197386318636,216.469040429096,215.694209834121
0.79,0.0464589923847822,0.0294508339478334,3.56293393211947,-1.47308994702119,-0.00743000451824664,-0.0545030698813465,2.82294196597033,-2.62592666566048,-2.7120990772513,217.113419876503,215.694209834121
0.8,0.0685690998091848,0.00578767366280543,2.09888961507139,-0.297566809394322,0.0641989389443431,0.0247732689302316,1.75756861822061,1.18525785150479,-1.11831199442426,217.752706426144,215.694209834121
0.81,0.0296207411904599,0.00727755961752782,3.7470184569634,-0.356465813185667,-0.00721492565905158,0.0296360596300054,-2.04560884167323,3.15954105206165,0.47972473974706,218.232609904638,215.694209834121
0.82,0.0490382479418854,-0.00224921322181278,2.56338414345879,0.110865472256899,-0.0417008854896148,-0.0259006731709629,-2.29134773204224,-1.15453669960707,2.08075622673624,218.622416813544,215.694209834121
0.83,-0.00399901466977009,-0.0319821090721782,5.00511154996995,1.59166347035459,0.0253155237056983,0.0199492275173743,1.22346245881773,-5.10760940581477,-2.59859074911496,218.950498152898,215.694209834121
0.84,0.0192907788364954,0.0386900888199756,3.66009725231855,-1.92999197457116,0.0373035554664095,-0.0218518161849465,2.00974883294463,3.61691727121545,-0.992425703571001,219.2667985085,215.694209834121
0.85,0.0299461645817248,0.00403706157700282,3.00538365464676,-0.206232481661403,-0.0139935778458633,0.0267815312931136,-1.90358193114586,2.33478876550431,0.615494593423266,219.465599332688,215.694209834121
0.86,0.0126132126277655,-0.0203360221017882,3.72141076045469,1.01324854211788,0.0023675096294403,-0.0238126400441477,-3.56956034784537,-1.46075650921774,2.22506206528469,219.675024497975,215.694209834121
0.87,-0.0204815667205617,0.0202101096882917,5.25242440750202,-1.00715253610795,-0.0286373882095901,0.00280055449417312,4.1357180708574,-3.39089286558794,-2.44700718480642,219.892139193754,215.694209834121
0.88,0.00361552845639646,-0.0073211158215985,3.95667522697204,0.360105711887265,-0.00223619174268154,0.00785303949959729,3.17397322236301,2.38973826164931,-0.834668828705609,220.012750585507,215.694209834121
0.89,0.0194130406382998,-0.0011228562120903,3.05511188045139,0.0633129767592455,-0.0144340549250629,0.0130301577625743,-2.10069323428122,2.21919018350083,0.778695104363547,220.183606183481,215.694209834121
0.9,0.0251865242360672,-0.013630203451705,2.63936410557249,0.685359462720412,-0.00714589629513649,-0.0277322847123714,-2.29796403641523,-1.46810141416289,2.39336524322867,220.374393646193,215.694209834121
0.91,-0.0297844155442425,-0.019868719051393,5.36632877515111,0.986246956128793,-0.00986018154310263,0.0344188062836636,3.45427446362122,-4.22352406308552,-2.27429663422175,220.362402249016,215.694209834121
0.92,0.000783185922895578,-0.0115981584768574,3.77003197551957,0.588197588029293,-0.00869283824612162,0.00771785096195088,2.77255759934651,2.62145796405538,-0.658631807694611,220.45403531995,215.694209834121
0.93,0.00155000525304488,-0.00767058704126216,3.71161384526125,0.384913086014417,-0.00568434436519086,-0.00537853613727458,-2.81278772256782,2.45203194267365,0.957148838635439,220.461692304896,215.694209834121
0.94,0.0180470568212678,0.017901891536621,2.84576393223448,-0.904459735451475,-0.024800716155475,-0.00557659920332934,-0.769176358589764,-2.88527078459652,2.57333415322894,220.480259091279,215.694209834121
0.95,-0.0130608201178591,-0.0276991059932617,4.35728579358875,1.39382398471742,0.0025114302876946,0.0305207832941271,3.07961564289579,-3.38299457277357,-2.09350647225838,220.527656065557,215.694209834121
0.96,0.00489779166322208,0.00333343989264417,3.41741187958801,-0.167662590734123,0.00520962491177872,0.00282134595056576,1.41962310049439,3.11311499171226,-0.476865627379887,220.553390127125,215.694209834121
