t,iq,id,vq,vd,ia,ib,va,vb,theta_e,omega,r
0,0,0,0,0,0,0,0,0,0,0,0
0.01,0.00107383198651608,0.000607764925897312,-0.0527778141781444,-0.0304109282956533,-0.00119486923188765,-0.000307865001427976,0.0591014099589478,0.0147426446097875,2.33799470436377,-0.00319357092568684,0
0.02,0.0012539611443677,0.000707031765688688,-0.0617288463516313,-0.0353779833176771,-0.00139344886942263,-0.000361403815117658,0.0689930532938079,0.0173784571446067,2.33796986797184,-0.00355825725301014,0
0.03,0.00132202001110789,0.000745257262513877,-0.0651035078235838,-0.0372906756444382,-0.00146898504347397,-0.000381088230137267,0.0727504680914412,0.0183420449631531,2.3379440845402,-0.00356920562273919,0
0.04,0.00129309268276232,0.000729631667600141,-0.063730765135577,-0.0365088163720631,-0.00143732397460386,-0.000372224191324765,0.0712199976443018,0.017950376965422,2.33791988519214,-0.00329262003248555,0
0.05,0.00132418936889707,0.000748005990585771,-0.0652929355739611,-0.0374282060721665,-0.00147247269575819,-0.000380545144363772,0.0729831672248674,0.0183710464446921,2.33789653631109,-0.00320814788334395,0
0.06,0.00132685226677997,0.000750244420094192,-0.0654623147386257,-0.0375402194186731,-0.00147595187183148,-0.000380748867074845,0.0731832617025419,0.0184063285724851,2.33787420577719,-0.00304366236628665,0
0.07,0.00135219260236394,0.000765644065490056,-0.0667384214590259,-0.0383107677108144,-0.00150489138875268,-0.000387217738444323,0.0746371615933941,0.018735686022031,2.33785337622984,-0.00296088297643878,0
0.08,0.00132798078936151,0.000752388788538986,-0.0655892860049152,-0.0376475196256193,-0.00147826818782555,-0.000379927665346123,0.0733498987835552,0.0184141934669471,2.3378332016265,-0.00273000224143231,0
0.09,0.00132370789693891,0.0007507661804464,-0.065413205999579,-0.0375663243141689,-0.0014740728508147,-0.000378102743459411,0.0731671218276107,0.0183490742296241,2.33781438090314,-0.002571224625858,0
0.1,0.0013220783702432,0.000750564106060648,-0.0653645248427801,-0.0375562242064947,-0.00147276606607308,-0.000377091247571661,0.0731253876236605,0.0183212654983306,2.33779665326846,-0.00242907317932329,0
0.11,0.00132085199638533,0.000750535695296324,-0.0653338000569511,-0.0375547987503994,-0.00147186965677947,-0.000376236015980567,0.0731025826632726,0.0182997471847032,2.33777993300981,-0.00229595874256841,0
0.12,0.00131973540303997,0.000750528698318141,-0.065306785023043,-0.0375544356241519,-0.00147106676788944,-0.000375442972297402,0.073083167987745,0.0182801083686494,2.3377641600027,-0.00217050972827608,0
0.13,0.00137552859031952,0.000782788580665597,-0.0680632233470981,-0.0391686467778347,-0.00153363182220267,-0.000390909578718911,0.0761883375579514,0.0190295160989289,2.33774872882914,-0.00222361587017187,0
0.14,0.0014126268495531,0.000804842725245054,-0.0700034390317657,-0.0402721810737978,-0.00157565389316886,-0.000400750842045284,0.0783514287238858,0.0195801854342788,2.33773398307889,-0.00222423624581174,0
0.15,0.00132891075359096,0.000757149434704458,-0.0658330593648285,-0.037885729095599,-0.00148228435651704,-0.000376977643777232,0.0736928119581896,0.0184035224925298,2.33771993042452,-0.00185677544648424,0
0.16,0.00131733098211731,0.000751323506538239,-0.0652884184845831,-0.0375942223387379,-0.00146990826770115,-0.000373118764560122,0.0730985883063904,0.0182345696161263,2.33770744113067,-0.00172438304687734,0
0.17,0.00131512456476712,0.000750609569511311,-0.0652009162631019,-0.0375584933015847,-0.00146782845620785,-0.000372084627258841,0.0730110013978023,0.0181987245575978,2.33769575833985,-0.00162720150192786,0
0.18,0.00131417069686687,0.000750519933503504,-0.065173507281047,-0.0375539949102772,-0.00146708349914923,-0.000371471126218036,0.0729883438320567,0.0181821409544444,2.33768474993705,-0.00153910765668171,0
0.19,0.00131341647701431,0.00075050666123345,-0.0651547690809151,-0.0375533425392277,-0.00146653504770592,-0.000370942103971298,0.0729745869341406,0.0181688505868559,2.33767436655229,-0.00145646585183069,0
0.2,0.00131272384145572,0.000750502843933192,-0.0651380122463403,-0.0375531528079227,-0.00146603727427854,-0.00037044987934133,0.0729625668635443,0.0181566451169371,2.33766457134796,-0.00137856366147125,0
0.21,0.00131207311548514,0.00075050030493558,-0.065122333402522,-0.03755302126342,-0.00146557035195246,-0.000369986637009006,0.0729513531251614,0.0181451864418118,2.3376553308302,-0.00130508048469199,0
0.22,0.00131145940958995,0.000750498038943382,-0.0651075478855533,-0.037552895529785,-0.00146513007541263,-0.000369549660507576,0.0729407770091136,0.018134381810454,2.33764661356569,-0.00123575933820681,0
0.23,0.00131088038653639,0.000750495916641691,-0.0650935934883621,-0.0375528010367551,-0.00146471468416839,-0.000369137376437479,0.0729308119346724,0.0181241675528478,2.33763838992216,-0.00117036367110844,0
0.24,0.00131033419260513,0.000750493916036501,-0.0650804285298545,-0.0375527094135608,-0.00146432283958496,-0.000368748472251446,0.0729214087366652,0.0181145331098828,2.33763063194694,-0.00110867108794043,0
0.25,0.00130981884872705,0.000750492028584704,-0.0650680025050255,-0.0375526148399393,-0.00146395312136063,-0.000368381541215503,0.0729125275107943,0.0181054456807476,2.33762331327184,-0.00105047188488721,0
0.26,0.00132097035262746,0.000757137538610875,-0.0656253937820701,-0.0378851319720634,-0.00147659702859865,-0.000371323497813011,0.0735447559567374,0.0182522438307284,2.33761652785882,-0.00103245943052166,0
0.27,0.001290572039613,0.000739815972723174,-0.0641502273895581,-0.037018403585615,-0.00144269050808316,-0.000362695410522309,0.0718812017966648,0.0178523585676132,2.33760968825284,-0.00088559503669537,0
0.28,0.00128956549338181,0.000739478933688732,-0.0640162959952308,-0.0370015548641993,-0.00144173404169027,-0.000362230876820222,0.0717731732072532,0.0177711232925494,2.33760354425352,-0.000834963326820687,0
0.29,0.00130559272769056,0.000749141444718698,-0.0649055664232896,-0.0374850218553792,-0.0014599820155515,-0.00036638475549603,0.0727491129031608,0.0180395672905277,2.33759793445217,-0.000841114416077636,0
0.3,0.00129140062375334,0.000741573233716309,-0.0642190865119044,-0.0371063234069072,-0.00144451232983466,-0.000361981437301152,0.071992080979095,0.0178356548940845,2.33759346603058,-0.000762684557847309,0
0.31,0.0013052508704403,0.000749395008311925,-0.0649054818219659,-0.0374977092315505,-0.00145991525211839,-0.000365951048502497,0.0727580267780001,0.0180296785197983,2.33758840330525,-0.000766338670025802,0
0.32,0.00130674294696745,0.000750348911271916,-0.0649870333370285,-0.0375454392513732,-0.00146165339923105,-0.000366292176564596,0.0728499603469319,0.0180515314579415,2.33758349543546,-0.000732990661638323,0
0.33,0.00130665345127988,0.000750464334246886,-0.0649907555379889,-0.0375512121712352,-0.0014616707343237,-0.000366140168705739,0.072856730140231,0.0180496181178801,2.3375788484257,-0.000696771646344248,0
0.34,0.00130637558695097,0.000750477440873374,-0.0649848052335442,-0.0375518641284371,-0.00146148132991068,-0.000365931531524489,0.072852976536053,0.0180447006237173,2.33757446234999,-0.000661987944197569,0
0.35,0.00130608793374925,0.000750478110773432,-0.0649779405820879,-0.0375519187099168,-0.00146127615468931,-0.00036572542319595,0.072848145476795,0.0180395970486388,2.33757032435308,-0.000629094261953358,0
0.36,0.00130581379350951,0.000750477314785867,-0.0649713266686106,-0.0375518693621566,-0.001461079606534,-0.000365530090004029,0.0728434186142943,0.0180347593899799,2.33756642063578,-0.000598052903944441,0
0.37,0.00130555442908397,0.00075047638944256,-0.0649650476631161,-0.0375518394593997,-0.00146089352729161,-0.000365345426040863,0.0728389424074765,0.0180301562282692,2.33756273796413,-0.000568767948599723,0
0.38,0.00130530997472398,0.000750475495128555,-0.0649591327233536,-0.0375517754728868,-0.00146071812972716,-0.000365171390430251,0.0728347009469533,0.0180258454255063,2.33755926382516,-0.000541141098506395,0
0.39,0.00130507913205131,0.000750474648782757,-0.0649535384632115,-0.0375517454724391,-0.00146055249507579,-0.000365007052684312,0.0728307104332519,0.0180217469937453,2.33755598641134,-0.000515078612530583,0
0.4,0.00130486144430441,0.000750473849978938,-0.0649482624371752,-0.0375517125130896,-0.00146039629835208,-0.000364852079744586,0.0728269436777459,0.0180178850266156,2.33755289458297,-0.00049049192705684,0
0.41,0.00130465633832586,0.000750473096310333,-0.0649432952166088,-0.0375516513136869,-0.00146024912912051,-0.000364706060166619,0.0728233765436829,0.0180142704196786,2.33754997783128,-0.000467297476538733,0
0.42,0.00130446263213955,0.000750472385261753,-0.0649385958374669,-0.03755162118014,-0.00146011013818088,-0.000364568161075994,0.0728200208589261,0.0180108313162993,2.3375472262426,-0.000445416425193081,0
0.43,0.00130427986899317,0.000750471714430213,-0.0649341585240215,-0.037551591005497,-0.00145997899846849,-0.000364438053517489,0.072816851053534,0.0180075854271004,2.33754463046375,-0.000424774401073921,0
0.44,0.0013041074668047,0.000750471081543143,-0.0649299704130651,-0.0375515578810822,-0.00145985529254108,-0.00036431532228018,0.0728138560075264,0.0180045252770792,2.3375421816727,-0.000405301243553424,0
0.45,0.00130394495992363,0.000750470484457212,-0.0649260233911607,-0.0375515276289475,-0.00145973868670048,-0.000364199633582515,0.0728110340695939,0.0180016404356265,2.33753987154593,-0.000386930764883268,0
0.46,0.00130379153343735,0.00075046992114861,-0.064922291060737,-0.0375514973420137,-0.00145962859561698,-0.000364090411943129,0.0728083643556194,0.0179989141078479,2.33753769223157,-0.000369600525235616,0
0.47,0.00130364683809439,0.000750469389708954,-0.0649187695086542,-0.0375514641108284,-0.00145952476922395,-0.000363987405531286,0.0728058421642535,0.0179963451327876,2.337535636322,-0.00035325162047468,0
0.48,0.00130350993367653,0.000750468888336424,-0.0649154245657621,-0.0375514648363902,-0.0014594265317649,-0.000363889953055841,0.0728034686167433,0.0179938827183762,2.33753369682946,-0.000337828481941838,0
0.49,0.0013033813036531,0.000750468415331373,-0.0649122923817113,-0.0375514344496139,-0.00145933423270876,-0.00036379838147905,0.0728012247232042,0.0179915983246054,2.33753186716198,-0.000323278687587028,0
0.5,0.0013032598913793,0.000750467969089952,-0.0649093315747165,-0.0375514040347272,-0.00145924711229131,-0.00036371194973145,0.0727991023606675,0.0179894404008814,2.33753014110046,-0.000309552783791992,0
0.51,4.26387162322561,0.0459492055978517,5.07502313900231,-2.29622520453246,-0.304381587682998,4.25324163408608,-2.70526077906672,4.86929914552211,0.0822188010088757,25.2076924045996,789.403989621556
0.52,4.20874775422872,0.0164113521093385,2.39278613937501,-0.814555157436766,-1.50158672556929,3.93180166040932,-1.62220624631947,1.9383943117163,0.368712573647384,52.8359716095257,789.403989621556
0.53,4.01879377239276,0.0219498352004992,6.53989293744497,-1.0882506234301,-3.0189237318427,2.65278809587293,-5.65007133153293,3.46859957349192,0.855325152931045,79.8552538928501,789.403989621556
0.54,3.90908471320962,0.00187989358565543,6.57494430792558,-0.0801450022600152,-3.90718510556911,0.121866237604777,-6.57430629459546,0.121707101488656,1.5400970486818,107.028858162267,789.403989621556
0.55,3.80826809793985,0.0182584106778296,5.874808689344,-0.896470550004455,-2.5111331928312,-2.86311881751496,-3.17572470365092,-5.02312743119646,2.42639027063402,135.023457200978,789.403989621556
0.56,3.69412105966867,-0.0102478417485581,5.6846506190296,0.526921123521155,1.37411913577436,-3.42905701650568,1.61023820108028,-5.47722844754791,-2.76323294158396,162.883865287914,789.403989621556
0.57,3.62426931910542,-0.0136799061395065,4.0304815977368,0.702638453437259,3.60685088098433,0.355164693604785,4.07876013362045,-0.319684967322794,-1.47641778943742,187.745365921975,789.403989621556
0.58,3.5460601002663,-0.0658322614943476,3.2021613725445,3.31842397098051,-0.0150736418734204,3.54663910014464,3.3639140164644,3.15433948661657,-0.0143126760857658,211.125999574519,789.403989621556
0.59,3.46973714687941,0.0309297346804986,1.94384383934341,-1.5239606104193,-3.46678268126821,-0.146459406598033,-1.86340877883001,-1.62132431574999,1.6219316196003,235.708066648203,789.403989621556
0.6,3.26352192538047,-0.0823149592152836,7.15246358418589,4.14012604524895,1.0367589444619,-3.0955584312088,-1.85795632598224,-8.05272483600406,-2.84363376432128,259.516823235525,789.403989621556
0.61,3.16401988765414,0.0449628619109375,7.6999652559635,-2.22086784458965,2.43229316006099,2.02410313273377,4.40333820520507,6.69569500326581,-0.862530001808551,280.960680106707,789.403989621556
0.62,3.15885542899538,-0.0450939119521783,3.11286697855257,2.27767679513239,-3.03907602338818,0.862796619288596,-2.32882237809379,3.07479084500672,1.2798995085146,303.878214502947,789.403989621556
0.63,3.01879516359289,-0.0270859303305049,5.69322515101613,1.38423861174254,1.31947844605911,-2.71529639592791,1.19189578847083,-5.73657681756525,-2.6982261891311,324.557121196658,789.403989621556
0.64,2.97793810365239,0.0234929904709948,3.38164891084845,-1.14937218847707,0.744006042487731,2.88359537357928,-0.29617022635506,3.55933827851581,-0.244617435651729,345.331992796556,789.403989621556
0.65,2.8926198089089,0.034936598623752,3.28532334631792,-1.71857627941465,-2.05765793075018,-2.03335037925991,-1.08612714499686,-3.54502210753745,2.36233011085906,365.348077491157,789.403989621556
0.66,2.68957233059182,0.0216008189035548,9.29845137022558,-1.05702036743875,2.48770850389662,1.02253230584803,8.16193061712104,4.57835980924746,-1.17278323263107,384.863783106787,789.403989621556
0.67,2.65296128354236,0.106127507562474,7.02425705026251,-5.27897050004515,-2.63955232726464,-0.286757966703579,-6.16779915901908,-6.25827214033658,1.71899288768957,403.525781724779,789.403989621556
0.68,2.60163427633989,-0.0605667860480126,5.56311970104214,3.05290701092243,2.59841681867766,0.142826047385841,5.65689948323338,-2.87541827601767,-1.53916109883935,422.162957714989,789.403989621556
0.69,2.541305205053,-0.0468125144679967,4.83771875240974,2.38028264562026,-2.53607589065432,-0.169536525805386,-4.94706858444801,2.14377718553618,1.61912837749262,439.292339537042,789.403989621556
0.7,2.47252149285382,0.0246851264858703,4.34687124959016,-1.20906929662689,2.43144631182073,0.449489400127594,4.03469440270361,2.01949976512786,-1.37801161062037,456.976577083917,789.403989621556
0.71,2.40957381578924,0.0636009409295101,3.92807699954304,-3.15341864391402,-2.18723560594635,-1.01296172558728,-2.11933729101626,-4.56970978345797,2.03089954751895,473.434406726799,789.403989621556
0.72,2.23618225780403,0.0288225867477636,8.99767025200335,-1.40672112384863,1.49891283419699,1.65969941468445,4.88802550128706,7.68401854388935,-0.721649398758551,489.371514202683,789.403989621556
0.73,2.18541726317262,0.0407169898701162,7.94404918547714,-2.01289232702787,-0.509582522949497,-2.12556631036094,0.258029364610457,-8.19103618771681,2.92492292283851,505.373396102116,789.403989621556
0.74,2.2191747908707,-0.0147355025875322,2.89279156173892,0.758535759437262,-0.879078973205177,2.03768840756899,-0.429764385585732,2.95954761591955,0.400647363000298,520.535462814311,789.403989621556
0.75,2.0424333515923,0.0454893980316453,8.45661017273516,-2.23730342220859,1.82623153882423,-0.915686435213232,8.60010919188442,-1.59934489848162,-2.01330093263915,534.905111894352,789.403989621556
0.76,1.97982763753016,0.113051206412992,8.27840527466303,-5.62594143728872,-1.87331035950766,-0.650543116604092,-5.50716381115789,-8.35789194141943,1.9620759534951,549.28746875399,789.403989621556
0.77,1.97171111241685,0.0322730106772107,5.50411990977598,-1.59248489013345,0.507329973383215,1.90559769000523,-0.216572473403936,5.72576985830372,-0.243829433969332,563.218161748041,789.403989621556
0.78,1.943815297863,-0.010893077601843,3.86034730606202,0.563528118475011,1.38966971220853,-1.35917425752407,2.34834015934793,-3.11530797189074,-2.35070493419455,576.535512609478,789.403989621556
0.79,1.86488837228464,-0.0403484355793343,4.85980246617734,2.05934577639699,-1.73706828841367,-0.679728180027693,-5.27167020609989,0.260918138783415,1.92215447746159,589.221141304398,789.403989621556
0.8,1.82687119845782,-0.0210913313542356,3.82494298468868,1.09425093173209,-0.0306985727647784,1.82673501571608,1.07412038800154,3.83064476684998,0.00525903379002535,601.70807637295,789.403989621556
0.81,1.76126860417477,-0.0102365381008152,4.22199294906482,0.544829124146396,1.70878665891944,-0.426872389670468,3.95498544857828,-1.57485025891519,-1.82140833574545,613.897986584474,789.403989621556
0.82,1.64280773609749,-0.0428600272663271,7.36001996097024,2.1690935460958,-0.630033605074645,-1.51779837139051,-4.97899503882494,-5.83819056223343,2.72205613577351,625.644965754483,789.403989621556
0.83,1.57283778833176,0.0546395763977428,8.15480547362186,-2.71647491675006,-1.35066637728771,0.807777524432166,-8.4522782432244,1.56175567393262,1.0665311349793,637.019063592613,789.403989621556
0.84,1.56440477512534,-0.00461227505163653,5.95547662221902,0.24527012688281,0.756527362328411,1.36932462314987,3.10967416796568,5.08505514247636,-0.50769512039851,647.968973823899,789.403989621556
0.85,1.56151648078763,0.0106506735795679,3.5409437883973,-0.519552992579553,1.41373823226765,-0.663167676567425,3.43337761777819,-1.01001799906117,-2.00258936456106,658.599739866954,789.403989621556
0.86,1.35336460429897,0.0618672321439757,11.4771071339247,-3.08480927895114,-0.432818103924754,-1.28378027539663,-0.201076606394164,-11.8827439865314,2.86209877166916,668.768151422404,789.403989621556
0.87,1.37466951758705,-0.00537631370834901,7.99740848159135,0.300568510728656,-1.37299614222763,0.0680204436925873,-7.96995711135411,0.72709524427473,1.51738421886432,678.578371271114,789.403989621556
0.88,1.40090446556116,0.010152902601739,4.33100715300721,-0.470855683822964,-0.32815413617498,1.36196595624549,-1.50192044815237,4.08944531713163,0.243682288636392,688.063978568959,789.403989621556
0.89,1.27807285060385,0.092285298292552,8.18614940121611,-4.58277854625515,1.10086185239694,0.65581245007149,4.0899024513661,8.44319839642282,-0.96144361354568,697.208324397294,789.403989621556
0.9,1.18937608899734,0.0148950489812865,10.3829177149723,-0.711510364383344,1.01890216902348,-0.613739124972502,9.31988292051665,-4.63152346667622,-2.10042166873684,706.103961720887,789.403989621556
0.91,1.23589834088371,0.074609353389397,5.89070492809134,-3.69855697858453,-0.116565269284556,-1.23264909954492,3.49623946294082,-6.01298909789891,3.10760353435021,714.663390002257,789.403989621556
0.92,1.20695989233168,-0.047334023390454,5.20335023218225,2.40337289085026,-1.02156558344127,-0.644512567911535,-5.70789947578722,-0.520517497816377,2.09443440924632,722.986399877928,789.403989621556
0.93,1.1943740210341,0.0519455111235618,3.7883446204614,-2.56457603818897,-1.06400190419863,0.5450941075711,-4.5125566626483,-0.751955840073254,1.14081722859747,730.932377380406,789.403989621556
0.94,1.08155488184644,-4.17752457621545e-05,7.44422266956672,0.0350546480701526,-0.261651800280159,1.04942808214817,-1.7666277128955,7.23164618233442,0.244307463314252,738.561422359295,789.403989621556
0.95,1.02670277802258,0.0581488647249432,8.22340722930986,-2.87767712799161,0.625175999278814,0.81648934763034,2.24206280991036,8.4189433106803,-0.596889912378076,746.044574187003,789.403989621556
0.96,1.04855095374179,-0.0197211800760906,5.2132995984796,1.01955144364421,1.02667177845321,0.213993193499535,5.311949374,-0.0342300716564121,-1.38411037977986,753.30338449237,789.403989621556
0.97,0.944666942452557,-0.0109842615522197,8.55971751710152,0.575245965844243,0.811740649166446,-0.483315015963033,7.00333340191495,-4.95509769383179,-2.11945795435774,760.230012110344,789.403989621556
0.98,0.92350221059175,0.0796488523192836,7.81719697207199,-3.97994188434608,0.229555896925792,-0.898055879569987,6.33657755737748,-6.06599462267184,-2.80530337013778,766.888046306551,789.403989621556
