t,iq,id,vq,vd,ia,ib,va,vb,theta_e,omega,r
0,0,0,0,0,0,0,0,0,0,0,0
0.01,0.000534991406944339,0.000296034293347587,-0.0262683784118354,-0.014815681603277,0.000558315867526675,0.000249269934829744,-0.0276374751703483,-0.0120707121565152,-0.645476875614038,-0.00211580306523251,0
0.02,0.000605577143041836,0.000334575053146441,-0.0298257176859988,-0.0167445336955542,0.000631570033298967,0.000282459617293159,-0.0313185026175869,-0.013751517660195,-0.645492378193323,-0.00213008400500992,0
0.03,0.000631029854984802,0.000349845909647201,-0.0311196786450225,-0.0175087964879558,0.000659084903960159,0.000293594836042539,-0.0327076452157438,-0.014324883869238,-0.645507062390852,-0.00196294413278812,0
0.04,0.000613456543992295,0.000341994831105899,-0.0303074829141985,-0.0171158753765991,0.00064224487280415,0.000284272614275284,-0.0319053350814977,-0.0139120920008121,-0.645519501216661,-0.00165061172504182,0
0.05,0.000626164612006896,0.000350417850294314,-0.030967198683933,-0.0175374265011619,0.000656621640531459,0.000289348945600999,-0.0326391166202564,-0.0141850903720469,-0.64553063473475,-0.00149513241191244,0
0.06,0.000624993143224892,0.000351070767444494,-0.0309452290497745,-0.0175701034111644,0.000656441212959373,0.000288013969731718,-0.032652139238602,-0.0141475629691113,-0.645540414330856,-0.00130474400917889,0
0.07,0.000637531006749088,0.000359424474982596,-0.0315863722094274,-0.0179881795902959,0.000670659529567754,0.00029299749688859,-0.0333719384464997,-0.0144078880703683,-0.645548703193834,-0.00120241511455709,0
0.08,0.000622285197956958,0.000351767770227764,-0.0308698205695815,-0.0176049849601602,0.00065537328071647,0.000285421258301259,-0.0326348555426478,-0.0140658281361652,-0.64555618432039,-0.000994162157804127,0
0.09,0.000619425224745689,0.00035117096711176,-0.0307530389515251,-0.017575120667857,0.00065317768207293,0.000283491750912244,-0.0325408284626849,-0.0139903092962904,-0.645562495657171,-0.000862113619989311,0
0.1,0.00061788419825575,0.000351123376067572,-0.0306974177579375,-0.0175727306248325,0.000652214046828439,0.000282285927376678,-0.0325055308043522,-0.0139471425656143,-0.645567929464463,-0.000752444486405906,0
0.11,0.000616637427145362,0.000351118655903397,-0.030653463969577,-0.0175725072321615,0.000651461472805068,0.000281289844343003,-0.0324789727002112,-0.0139120162484616,-0.6455726178248,-0.000658183249925401,0
0.12,0.000615569288452025,0.000351117408353801,-0.0306159112957205,-0.0175724348347681,0.000650818959020293,0.000280434780143555,-0.032456377251698,-0.0138819330853113,-0.645576663912383,-0.000576867807528179,0
0.13,0.000643541858318584,0.000367163185400267,-0.0319939387634199,-0.0183754825496241,0.000680466666429661,0.000293121210422432,-0.0339269733591021,-0.0144993432685684,-0.645580563716127,-0.00062503620072755,0
0.14,0.000664783370840178,0.000380118851297619,-0.0331047348461992,-0.0190238744661497,0.000703596264748649,0.000302290534898464,-0.0351132522673844,-0.0149963590297112,-0.645583990491216,-0.000652796601453749,0
0.15,0.000617437048721769,0.000353370398528187,-0.0307442443845339,-0.0176851981456912,0.00065374520725063,0.000280564345003154,-0.0326238044258956,-0.0139162559982639,-0.645587038009697,-0.000388477469805136,0
0.16,0.000612687190773737,0.000351289794591743,-0.0305202347556666,-0.0175810651323883,0.000649226086620468,0.000278020866076622,-0.0324058784991577,-0.0137999137471257,-0.645589159288056,-0.00032756449067609,0
0.17,0.000611838973869738,0.000351127602871248,-0.030485273142173,-0.0175729551745811,0.000648586686005715,0.000277439784782585,-0.0323783899743423,-0.0137768100368025,-0.645590944204707,-0.000290048127981011,0
0.18,0.000611399840605118,0.000351114654062258,-0.0304693659943102,-0.0175722971277987,0.000648312555368081,0.000277095824474732,-0.032368314647201,-0.0137644504918526,-0.645592480516304,-0.000259025659910516,0
0.19,0.000611047036894011,0.000351113357351572,-0.03045691014786,-0.0175722325923356,0.000648099614511142,0.000276813945960374,-0.0323607870003333,-0.01375449740096,-0.645593806027183,-0.000232374367425839,0
0.2,0.000610744990309416,0.000351113006403479,-0.0304462763676437,-0.017572214507236,0.000647917917344041,0.000276572158465559,-0.0323543902225637,-0.0137459776178098,-0.645594949948816,-0.000209384498661057,0
0.21,0.000610484336402703,0.000351112763207558,-0.0304370972324747,-0.01757221379506,0.000647761167314166,0.000276363470089815,-0.0323488803722418,-0.0137386143501012,-0.645595937184129,-0.000189544550772283,0
0.22,0.000610259647803626,0.000351112557923015,-0.0304291858709792,-0.0175721998973555,0.000647626049246479,0.000276183573744067,-0.0323441209068294,-0.0137322760228456,-0.645596789196952,-0.000172422177836576,0
0.23,0.000610065692847836,0.000351112381083506,-0.0304223533757518,-0.0175721844754823,0.000647509413072923,0.000276028284278982,-0.0323400077391384,-0.0137268041288557,-0.645597524509184,-0.00015764507145942,0
0.24,0.000609898229407612,0.000351112228468716,-0.0304164503475951,-0.0175721849894746,0.000647408707553361,0.000275894205446389,-0.0323364651483998,-0.0137220683119696,-0.645598159105427,-0.000144891992211815,0
0.25,0.00060975386738022,0.000351112096741261,-0.0304113614115467,-0.017572170906416,0.000647321894161256,0.000275778622454069,-0.0323333995203958,-0.0137179943403718,-0.645598706780716,-0.000133885707600501,0
0.26,0.000615796584125275,0.000354541297817635,-0.0307074761513508,-0.0177437975914832,0.000653696809175039,0.000278541642403685,-0.0326486555806948,-0.0138512358050272,-0.645599115409594,-0.000152510201251773,0
0.27,0.000598533472107187,0.00034471663973859,-0.0298678859111083,-0.0172520938060721,0.000635462816982707,0.000270663789927195,-0.0317507585616285,-0.0134764490966154,-0.645599738159645,-6.538863409533e-05,0
0.28,0.000597953995435294,0.000344349050877865,-0.0297813135074628,-0.0172337017796121,0.000634820645144755,0.000270421888898651,-0.0316839841149007,-0.0134183554083618,-0.645600085268628,-5.62843395953467e-05,0
0.29,0.00060831860628094,0.000350585808329093,-0.0303468248642307,-0.0175458352122721,0.000646038386159233,0.000274947884803871,-0.0322735550498065,-0.0136822423996803,-0.645600244090973,-9.84988759515316e-05,0
0.3,0.000602899210460309,0.000347818023457897,-0.0300810964594981,-0.0174073102005374,0.000640566807276585,0.000272284778919618,-0.0320030213138658,-0.0135533552822765,-0.645599837616915,-8.2553454067062e-05,0
0.31,0.000608800288922338,0.000350855615089989,-0.0303697199022495,-0.017559337221136,0.000646543664984952,0.000275170390303759,-0.0322981128719178,-0.0136924108724329,-0.645600083709245,-0.00010363888777917,0
0.32,0.000609264158247731,0.000351091778522068,-0.0303933189699244,-0.0175711600376068,0.00064701147424843,0.000275398626833864,-0.0323217590556354,-0.0137041378650467,-0.645600361317031,-0.000100403566918156,0
0.33,0.000609247686448519,0.000351110090476735,-0.0303933791846546,-0.0175720783149298,0.000647016257586714,0.000275374293455175,-0.0323225321127734,-0.0137036255198015,-0.645600606772573,-9.56817912772633e-05,0
0.34,0.000609195998120932,0.000351111468038713,-0.030391603149774,-0.0175721498301311,0.00064698631662546,0.0002753320417501,-0.0323215235429657,-0.0137021570392199,-0.645600819136736,-9.14330362079988e-05,0
0.35,0.000609148144401059,0.000351111535023018,-0.0303899098251179,-0.0175721413340868,0.000646957628044629,0.000275293660240008,-0.0323205004315914,-0.0137008037025359,-0.645601002460801,-8.77505944913194e-05,0
0.36,0.000609106467715904,0.00035111150558408,-0.0303884272985546,-0.0175721415251586,0.000646932572112655,0.000275260286831517,-0.0323196107472446,-0.0136996143232695,-0.645601160679121,-8.4571130233939e-05,0
0.37,0.000609070378966189,0.000351111473391243,-0.0303871391915693,-0.0175721417013882,0.000646910870148514,0.000275231392404062,-0.0323188377319536,-0.01369858094392,-0.645601297226539,-8.18270317459483e-05,0
0.38,0.000609039296075305,0.000351111445079581,-0.0303860280110864,-0.0175721418642844,0.000646892178049205,0.000275206506115918,-0.0323181709024949,-0.0136976894951739,-0.645601415071115,-7.94587821575977e-05,0
0.39,0.000609012404136001,0.000351111420603738,-0.030385063054205,-0.0175721420160254,0.000646876006173607,0.000275184975437924,-0.0323175918225019,-0.0136969153692916,-0.645601516774319,-7.74149116737051e-05,0
0.4,0.00060898923748699,0.000351111399476813,-0.0303842297173625,-0.0175721421578486,0.000646862074564633,0.000275166427289906,-0.0323170917366612,-0.0136962468295997,-0.645601604547198,-7.56509908883722e-05,0
0.41,0.000608969272259325,0.000351111381243147,-0.0303835092835157,-0.0175721422911414,0.000646850068183867,0.000275150442276673,-0.0323166594106138,-0.0136956688635492,-0.645601680297766,-7.41286750587596e-05,0
0.42,0.000608952042791719,0.000351111365506644,-0.0303828849421507,-0.0175721424171504,0.000646839706990409,0.000275136647629337,-0.03231628475341,-0.0136951679899556,-0.645601745672552,-7.28148714616778e-05,0
0.43,0.000608937141630547,0.000351111351925369,-0.0303823418920582,-0.0175721425369691,0.000646830745946733,0.000275124717184833,-0.0323159588798421,-0.0136947323399119,-0.645601802093156,-7.16810200905243e-05,0
0.44,0.000608924277737503,0.00035111134020415,-0.0303818703718993,-0.0175721426513702,0.000646823010043276,0.000275114417864004,-0.0323156759341436,-0.0136943540765679,-0.64560185078555,-7.07024728133676e-05,0
0.45,0.000608913218281945,0.00035111133008837,-0.0303814629198214,-0.0175721427609619,0.000646816359279045,0.000275105563164216,-0.0323154314416742,-0.0136940272052659,-0.645601892808522,-6.98579575649032e-05,0
0.46,0.000608903614017908,0.000351111321358067,-0.0303811056438517,-0.0175721428666809,0.000646810583595969,0.000275097873670661,-0.0323152170571935,-0.0136937405998652,-0.645601929075715,-6.91291159211377e-05,0
0.47,0.00060889534853007,0.000351111313823448,-0.0303807958195177,-0.0175721429688346,0.00064680561301481,0.000275091256002294,-0.0323150311524889,-0.0136934920585679,-0.64560196037521,-6.85001040201846e-05,0
0.48,0.000608888188987788,0.000351111307320923,-0.030380524462786,-0.0175721430680419,0.000646801307502914,0.000275085523846596,-0.0323148683318734,-0.013693274383118,-0.645601987387557,-6.79572481415469e-05,0
0.49,0.000608882077183401,0.000351111301708952,-0.0303802909844721,-0.0175721431644631,0.000646797632086565,0.000275080630416138,-0.0323147282490215,-0.0136930870838346,-0.645602010700004,-6.74887474592434e-05,0
0.5,0.000608876780286265,0.000351111296865576,-0.0303800857218274,-0.0175721432587173,0.000646794446718426,0.000275076389485904,-0.0323146050974924,-0.0136929224259682,-0.645602030819207,-6.7084417509603e-05,0
0.51,1.44524145285336,-0.00504564835989116,1.34817587466945,0.253834365889077,-0.074053082653775,1.44335181316356,0.189166683800635,1.35875900736183,0.0477701805576629,14.5685790512656,343.297005314132
0.52,1.39743925865899,-0.0456675139997672,1.56419597782338,2.28851282835586,-0.339929458067136,1.35623374350238,1.90630548360521,2.01246103707994,0.212915228175956,30.4111661502263,343.297005314132
0.53,1.3152116344309,-0.019185245096737,3.51777070343012,0.964840128065461,-0.63910285550855,1.14965092834853,-0.814143901457184,3.55567109029459,0.49278342592077,45.8942367916569,343.297005314132
0.54,1.3294165824937,0.00200660974574607,0.597352747816217,-0.0936515198287838,-1.02832067906442,0.84256101102555,-0.521875578186161,0.30536337924297,0.885873093772465,61.4226721238195,343.297005314132
0.55,1.27263238452667,0.000813402003368102,1.03748123649716,-0.0362870872672806,-1.25280996033556,0.223743270407985,-1.02779452180859,0.146022223398634,1.39470557498626,77.4899275867241,343.297005314132
0.56,1.18582421963982,0.0434639198076656,3.10953739061148,-2.17177445269059,-1.0875508105129,-0.474659274387612,-1.86139894067643,-3.30469681523419,2.0189598778398,92.4235811042782,343.297005314132
0.57,1.14716351659873,0.0249610072756853,3.10993154174136,-1.24204898896365,-0.465453131238605,-1.04879004968562,-0.0534364562897356,-3.34835846803215,2.74566197089383,105.705538381448,343.297005314132
0.58,1.09753911078386,0.0381861855926958,3.68414636015968,-1.89994685324259,0.419136385518556,-1.01507387652564,3.25348777695455,-2.56856958897975,-2.71522634445063,118.756392464839,343.297005314132
0.59,1.08616978558958,0.00792035340622829,2.13290659293458,-0.392717551037918,1.05742345508111,-0.248360970706201,2.16690862627681,-0.0895802123472341,-1.79419673006253,132.437940053007,343.297005314132
0.6,1.00997179133561,0.00252509890784802,4.1244005210423,-0.117102734628964,0.711209534738479,0.717098593720021,2.81366103930992,3.01789732500975,-0.778774922997898,144.404928973496,343.297005314132
0.61,0.965231135814139,-0.00394761479770067,4.55246669403981,0.209958049102118,-0.309864106411009,0.914150405986756,-1.24468248604659,4.38403933509422,0.32271980300171,156.334388909844,343.297005314132
0.62,0.955156281610861,-0.010071989517024,3.19249031188049,0.511195250067356,-0.954149576726696,0.0449839138557817,-3.15772896867742,0.694307378268197,1.51314118341173,168.051367928746,343.297005314132
0.63,0.907610132884173,0.0200827742783703,3.91690617515491,-0.990045877057758,-0.336526329270764,-0.843154494054492,-0.44373130429092,-4.01565030265809,2.78396195305137,178.798607713038,343.297005314132
0.64,0.89313034660448,-0.00842667451028833,2.86671121237824,0.428500832418393,0.753418578605629,-0.479701230226705,2.16999448059633,-1.92165816230146,-2.14719927039434,189.720538425467,343.297005314132
0.65,0.840078263583901,0.0307065118778616,3.95269249755238,-1.52093958194571,0.577222698324057,0.611136920302924,1.46421131839873,3.97405591395103,-0.720331521113358,199.684260210242,343.297005314132
0.66,0.838034719189865,0.0263313012344015,2.42990218603755,-1.30863671275489,-0.571137106062635,0.613838687336284,-2.63986284987383,0.805033423862631,0.780787889049514,209.58137258384,343.297005314132
0.67,0.778842612177882,-0.0179910157463929,3.85849065024886,0.902509355237707,-0.540935832309652,-0.560631712013437,-3.37739534050982,-2.07260076914297,2.35097687737513,219.04336236628,343.297005314132
0.68,0.775582624990068,0.00861268025169182,2.55149275599971,-0.416255798547459,0.57599677384585,-0.519451925558829,2.18896426187865,-1.37543434374798,-2.29351795058287,227.845117861653,343.297005314132
0.69,0.728411224424395,-0.0350449510263237,3.4175796043416,1.75811416682925,0.376586455716339,0.624494757248521,3.36362840088823,1.85925247246184,-0.590715811867646,236.687783278749,343.297005314132
0.7,0.690610699517519,0.0485600542727972,3.95461430541458,-2.41738144650301,-0.618099647219083,0.311855805247712,-4.58178492771302,-0.69996731257137,1.17372268062962,244.814172938208,343.297005314132
0.71,0.664448018386014,0.00566011711426317,3.89684492039424,-0.269136202380991,-0.100597727997002,-0.65681298950667,-0.290758315833316,-3.89529128959674,2.99813162960545,252.697501516069,343.297005314132
0.72,0.637608708596643,0.0212186889485924,3.8929701641527,-1.05774456225587,0.632293140803344,0.0848556546849907,3.66354109090699,1.68893662794108,-1.40412412117022,260.427421347466,343.297005314132
0.73,0.591726203262501,-0.0385610830036612,4.92584521846601,1.92935520935953,-0.332929934101257,0.490697988307679,-0.831072182720766,5.22452693239062,0.53106307017932,267.696315336284,343.297005314132
0.74,0.543970266644981,0.0353330774742262,6.09076403737703,-1.75153001673269,-0.34597195900585,-0.421254650940813,-2.12969015468896,-5.96906054614475,2.51886747546623,274.570254895036,343.297005314132
0.75,0.586683409075814,-0.0135818261600109,2.74010847157905,0.691798010659505,0.581703703885137,-0.0774770248071797,2.59984263720724,-1.10796984856586,-1.72635291725545,281.283701160668,343.297005314132
0.76,0.523330043982407,0.0121013826109271,4.72278780028221,-0.60275264835845,-0.172674982140448,0.494170141690613,-2.22480653839996,4.20930768990465,0.359281407578636,287.745200372126,343.297005314132
0.77,0.503639515048568,0.000966517699529601,4.59066373069624,-0.0505423173350853,-0.306004792146232,-0.400018452647327,-2.74201756462154,-3.68213086262268,2.49049422763529,293.863394530794,343.297005314132
0.78,0.491563577827235,-0.000132963103805738,4.12870040551923,0.0196396633905272,0.491028641585348,-0.022926880911873,4.12323370956792,-0.213299158918923,-1.61772446533028,299.573554224931,343.297005314132
0.79,0.454012127688171,0.0238183340078824,4.95504094151574,-1.17536006591018,-0.236232068701926,0.388443991895433,-3.7637936037448,3.43041684421053,0.598804173293361,305.081915765818,343.297005314132
0.8,0.430920567849799,0.00837080577286844,5.08983425686857,-0.406433661857545,-0.129847073160724,-0.410977303238115,-1.04899879088196,-4.99711943229416,2.85499344719355,310.348464151652,343.297005314132
0.81,0.431114103983624,0.000410243261674798,4.10416077997726,-0.0135525214463253,0.39092937114744,0.181751934590541,3.71423124936024,1.74608293188411,-1.1346506335671,315.378074217569,343.297005314132
0.82,0.398501310721291,0.0313443444566897,4.78186034542044,-1.56774873789056,-0.359137084553957,0.175517284260241,-5.02345923392325,0.298130497220965,1.19470775638886,320.171753735535,343.297005314132
0.83,0.372407301841074,0.0116823370154114,5.18326037511781,-0.588037915970012,0.139941283485463,-0.345311616716165,2.63423543570877,-4.50253044144523,-2.72519979267724,324.685576552741,343.297005314132
0.84,0.347270569929386,-0.0361989976728291,5.55879629020587,1.80614375187574,0.0781133975106459,0.340302091237979,3.50762277944669,4.67535601698448,-0.329496227106283,329.006717808946,343.297005314132
0.85,0.347503978509827,0.00629480305834201,4.70364568185207,-0.320506184739959,-0.303644649514817,-0.169111106810657,-3.90619571267944,-2.63981854851938,2.09706261592396,333.078860024935,343.297005314132
0.86,0.272888691126048,-0.0152976869169637,7.61727798378537,0.776344969816177,0.271850864817161,-0.028273030747672,7.39703252424285,-1.97725699637492,-1.73042548310684,336.930523498654,343.297005314132
0.87,0.293350544659153,-0.000921438430592308,5.80359856731648,0.062122924135707,-0.201299475674988,0.213386766678672,-3.92385345903488,4.27656282781875,0.753117301677017,340.605520260312,343.297005314132
0.88,0.294045599448066,0.00882590154391408,5.00420722453196,-0.425718546099303,0.0268176065030013,-0.292953114122867,1.02808526300368,-4.91592991391714,-3.02029835888306,344.103179812527,343.297005314132
0.89,0.270080787426706,0.0351534113748169,5.45928211555237,-1.74453345357883,0.15712682378264,0.222464728252134,1.00469782425138,5.64249417100188,-0.485510373398821,347.437018718658,343.297005314132
0.9,0.217051626251666,-0.0079827658309192,7.40036324349027,0.412465262781312,-0.186414808563609,-0.111465923748011,-6.68532379197046,-3.20030459880255,2.07294228553448,350.568230917438,343.297005314132
0.91,0.241889902045269,0.0417051929449326,5.46676687022325,-2.07501556269643,0.23903837967771,-0.0557736575015359,5.57871474176088,1.75190508557477,-1.62928510464951,353.552668815154,343.297005314132
0.92,0.223645270996264,0.0401005010318575,5.73205381942945,-1.99592730763778,-0.162204527095305,0.15910672145383,-5.86048581408828,1.57951664412883,0.972457741069856,356.275313042344,343.297005314132
0.93,0.261824384460013,-0.00950490445219584,3.19263335760908,0.486948216834986,0.122978269104092,-0.231341083326485,0.957345824949862,-3.08439869236259,-2.68928137279878,358.869642716091,343.297005314132
0.94,0.201405691116916,0.0366211058078809,5.59101801447528,-1.82345338317247,0.0465028192506226,0.199356077425842,-1.54568589736494,5.67409197894054,-0.0493046608144716,361.407731435879,343.297005314132
0.95,0.213008626279554,-0.0185461605968327,4.41328506072645,0.93768868450152,-0.0922454146214041,-0.192892245628774,-3.04983869324352,-3.32488030483326,2.60866968844803,363.76171838884,343.297005314132
0.96,0.180287453490603,-0.00152628972455994,5.47620752364071,0.085131502987508,0.150858843739723,0.0987294520999866,4.65338897806964,2.88826370568202,-0.999765383159157,365.982237076834,343.297005314132
