t,iq,id,vq,vd,ia,ib,va,vb,theta_e,omega,r
0,0,0,0,0,0,0,0,0,0,0,0
0.01,0.000595161424957933,0.000328607035120812,-0.0285780939446481,-0.0164419558040026,-0.000240182071344978,0.000636012796957171,0.0111030792068193,-0.0310445968937753,0.865558475480329,-0.00380270458881949,0
0.02,0.000702935128943498,0.000385284590766821,-0.0339571213396858,-0.0192778370579887,-0.000285486246880013,0.000749039127300793,0.0133596573056306,-0.0366911521758123,0.865529546594262,-0.00403691658078649,0
0.03,0.000740963014446268,0.000407032483448962,-0.035905522885781,-0.0203660114598104,-0.000300321985450884,0.00079025839850948,0.0141367525738896,-0.0387831564361012,0.865501233614166,-0.00379582606607691,0
0.04,0.000722116659704899,0.000398783253549653,-0.0351397351903976,-0.019953257199292,-0.000291300649207876,0.000771767118570154,0.0138203042377372,-0.0379727883212275,0.865476649429073,-0.00322484096433438,0
0.05,0.000736550628378103,0.000408823483987472,-0.0359374029802644,-0.0204556231521522,-0.000295764544495108,0.000788775508901889,0.0141011250734893,-0.0388727118062349,0.865454668278184,-0.0029324524915021,0
0.06,0.00073568269763569,0.00041015874932481,-0.0359970990364116,-0.0205224368307763,-0.000294222686955143,0.00078923522585419,0.0141025029223149,-0.0389625584867899,0.865435182059949,-0.00257797901205212,0
0.07,0.00074667821096468,0.000418274977914192,-0.0366042448646621,-0.0209285205691077,-0.000297319233751589,0.000802548179936819,0.0143008417619164,-0.0396655976915051,0.865418526851066,-0.00235684407378203,0
0.08,0.000732223126791921,0.000411412914477495,-0.0359974188239008,-0.0205851756137882,-0.000290750541875467,0.000787956481036184,0.0140608336049504,-0.0390109801897841,0.865403429567601,-0.00198610702491118,0
0.09,0.000727985977652011,0.000410494852261627,-0.0358632300359506,-0.0205392464214524,-0.000288109672549431,0.000784514132425101,0.0139879449548056,-0.0388891926904376,0.865390559519114,-0.00172644100110132,0
0.1,0.000725582046603087,0.000410370051071617,-0.0358069623818052,-0.020533004748165,-0.000286351634610446,0.000782863734327483,0.0139487195650181,-0.0388481152888613,0.865379417705934,-0.00151045860345688,0
0.11,0.000723689804654383,0.000410351372131628,-0.0357673356239074,-0.0205320699339201,-0.000284915543052333,0.000781625431583571,0.0139187806692924,-0.0388218461447257,0.865369745408028,-0.00132431965972346,0
0.12,0.000722076182527419,0.000410347113928306,-0.0357343302524926,-0.020531859065676,-0.000283683239427331,0.000780578366950222,0.0138934632915436,-0.0388004030011741,0.865361344706216,-0.0011628603560879,0
0.13,0.000751894771985996,0.000427697240141357,-0.0371883773928898,-0.0213999752057921,-0.000295129329640142,0.000813123210928434,0.0144372948032746,-0.0404041937264915,0.865353389043894,-0.00122852643680846,0
0.14,0.00077043859511299,0.000439211628339241,-0.0382317424485069,-0.0219761057518998,-0.000301775624999377,0.00083391483705731,0.014857790294144,-0.0415194101865969,0.865346225612763,-0.00122974188195812,0
0.15,0.000725824832138466,0.000414192438609367,-0.0360232101547349,-0.0207242558631407,-0.000284027117573684,0.000785942529471965,0.0139878109692054,-0.0391344808988556,0.865339834653903,-0.000804388658872944,0
0.16,0.000718279568286746,0.000410853985750928,-0.0356896631671358,-0.0205572225997974,-0.000280443771220342,0.000778510004437535,0.0138419978298935,-0.0387911143701551,0.865335197916907,-0.000668871072959972,0
0.17,0.000716514272512135,0.000410407826127523,-0.0356261138457296,-0.0205348962778755,-0.000279386091931727,0.00077702683228794,0.0138079424152506,-0.0387329663097098,0.865331310679194,-0.000587056340335037,0
0.18,0.000715715780128688,0.000410347600552881,-0.0356056211729966,-0.0205318730175829,-0.000278814636088174,0.000776464184562136,0.0137941714842214,-0.0387174237493791,0.86532795566881,-0.000521498664929322,0
0.19,0.000715134734756958,0.000410338950818289,-0.035593133255794,-0.0205314428468433,-0.000278375630911427,0.000776081665502558,0.0137848305727449,-0.0387090393373256,0.865325044733065,-0.000465398993084002,0
0.2,0.000714647462522079,0.000410337261901667,-0.0355831073310934,-0.0205313557053802,-0.000278003801554143,0.00077576513876021,0.0137771564375232,-0.0387025070884687,0.865322516733605,-0.000416799212422371,0
0.21,0.000714226700526037,0.000410336571673351,-0.0355745133275919,-0.0205313319002559,-0.000277682218300137,0.000775492403210285,0.0137705442490091,-0.0386969468973918,0.865320320932491,-0.000374604214395699,0
0.22,0.000713861839092661,0.000410336075620956,-0.0355670757571855,-0.020531296665153,-0.000277403291181216,0.000775255979861228,0.0137648310527472,-0.0386921238336592,0.865318413620504,-0.000337955711742454,0
0.23,0.00071354480315776,0.000410335658447172,-0.0355606070861276,-0.0205312782574255,-0.000277160917608173,0.00077505055606542,0.0137598542820128,-0.0386879383445998,0.865316756886701,-0.00030612243876266,0
0.24,0.000713269502118028,0.000410335297835817,-0.03555498980175,-0.0205312611292753,-0.000276950449457183,0.000774872175166442,0.0137555332757579,-0.0386843028586603,0.865315317809694,-0.000278471389571449,0
0.25,0.000713030348038079,0.000410334984779181,-0.0355501068414653,-0.0205312453034816,-0.000276767616092561,0.000774717215272434,0.0137517777887198,-0.0386811418885354,0.865314067794022,-0.000254453056346491,0
0.26,0.000719080660585251,0.00041386643310604,-0.0358416616743292,-0.0207079534267698,-0.000279083179725197,0.000781328995797616,0.0138591235948712,-0.0390047271479295,0.865313123098402,-0.000279749170726795,0
0.27,0.000703403536985242,0.000404842841460065,-0.0351057773520157,-0.0202564552675538,-0.000272998094311404,0.000764294643856118,0.0135915968267819,-0.0381838719774975,0.865311775239401,-0.000146336705137687,0
0.28,0.00070291302342879,0.000404668538049147,-0.0349640982181199,-0.0202477265775834,-0.00027273706983306,0.000763844116905742,0.0134893658269966,-0.0380853725904364,0.865310968040604,-0.000128482790509766,0
0.29,0.000710884378387454,0.000409578296209248,-0.0354668574352607,-0.0204933947265246,-0.00027562176476973,0.00077275068615059,0.0137128043696638,-0.0385983963406459,0.865310490237019,-0.000175521970312661,0
0.3,0.000702400093763738,0.000405254813114015,-0.035061841933941,-0.0202770599547902,-0.00027196651275955,0.000763957833397101,0.0135447618264966,-0.0381710799856947,0.865311069430398,-0.000126719245932545,0
0.31,0.000710821696000124,0.000409656525433704,-0.0354633519549506,-0.0204973077986211,-0.000275523397483715,0.000772769570942036,0.0137076022411243,-0.0385991010215424,0.865310589526646,-0.000176860181424947,0
0.32,0.000712014039218607,0.000410243574623116,-0.0355229158273995,-0.0205266715005691,-0.000276050018030818,0.000773989773904755,0.0137338854339722,-0.0386600851351793,0.865309993224744,-0.000174511349360528,0
0.33,0.000712110089170078,0.00041032176948504,-0.035530270064849,-0.0205305895741703,-0.000276072016355267,0.00077411173314754,0.0137369225993781,-0.0386678439616541,0.86530944772807,-0.000165427630540016,0
0.34,0.000712049321349733,0.000410332099015231,-0.0355298446265447,-0.0205311137547697,-0.000276018686291553,0.000774080326797385,0.0137362403483669,-0.0386679737287797,0.865308969671935,-0.000156456520314174,0
0.35,0.000711974545830366,0.000410333388704893,-0.0355284341556583,-0.0205311655966948,-0.000275960601854282,0.000774032938588933,0.0137351168668679,-0.0386671043519596,0.865308553772992,-0.000148498165618314,0
0.36,0.000711906151845466,0.000410333484076249,-0.0355270436604705,-0.0205311747275035,-0.00027590819230328,0.000773988763878074,0.0137340383964725,-0.0386662146617493,0.86530819241394,-0.000141559906509466,0
0.37,0.000711846139750057,0.000410333430195411,-0.035525804508283,-0.020531176543844,-0.000275862297380899,0.000773949897278062,0.0137330817211451,-0.0386654168822163,0.865307878513976,-0.000135529268602318,0
0.38,0.000711793985686108,0.000410333365151983,-0.0355247244570764,-0.0205311768682442,-0.000275822423912506,0.000773916105972021,0.0137322487308468,-0.038664720562038,0.865307605850729,-0.000130290317141226,0
0.39,0.000711748837738361,0.000410333306218282,-0.0355237914487045,-0.0205311601912174,-0.000275787907940962,0.000773886852225493,0.0137315400926749,-0.038664106149913,0.865307369008896,-0.000125739550154008,0
0.4,0.000711709431152097,0.000410333254700748,-0.0355229689141918,-0.0205311604568107,-0.000275757782120282,0.000773861318263327,0.0137309057752642,-0.0386635758404827,0.865307163282549,-0.000121786634035342,0
0.41,0.00071167520504489,0.00041033320990665,-0.0355222520017178,-0.020531159242792,-0.000275731616735038,0.000773839141011014,0.0137303538718966,-0.0386631125192854,0.865306984583899,-0.000118353037022797,0
0.42,0.000711645460930295,0.000410333170990573,-0.0355216259522084,-0.0205311594628311,-0.000275708877828479,0.000773819867904948,0.0137298711199778,-0.0386627088834396,0.865306829362243,-0.000115370534492896,0
0.43,0.000711619674936625,0.000410333137185991,-0.035521082063004,-0.0205311596642109,-0.000275689164687494,0.0007738031595333,0.0137294517168565,-0.0386623582265553,0.865306694532865,-0.000112779863399976,0
0.44,0.000711597264987272,0.000410333107821497,-0.0355206064451655,-0.020531159849674,-0.000275672032541309,0.000773788638703333,0.0137290849835887,-0.0386620515818625,0.865306577417288,-0.000110529546247432,0
0.45,0.000711577765420953,0.000410333082314652,-0.0355201890164883,-0.0205311600214187,-0.000275657125459709,0.000773776003677169,0.0137287631531991,-0.0386617824456597,0.865306475687733,-0.000108574868445247,0
0.46,0.000711560826991703,0.000410333060158557,-0.0355198237910427,-0.020531160181097,-0.000275644176327631,0.00077376502817384,0.0137284815894075,-0.0386615469656594,0.865306387323259,-0.000106876989858192,0
0.47,0.000711546158661217,0.000410333040912687,-0.0355195061801148,-0.0205311603300758,-0.000275632962505509,0.000773755523631737,0.0137282367300641,-0.0386613421916753,0.865306310567966,-0.000105402173041778,0
0.48,0.000711533411183534,0.000410333024195137,-0.0355192273758391,-0.0205311604700077,-0.000275623217181232,0.000773747263727808,0.0137280218097359,-0.0386611624348413,0.865306243896475,-0.000104121112863683,0
0.49,0.000711522293520349,0.000410333009673768,-0.0355189803541448,-0.0205311606022592,-0.000275614717979054,0.000773740059863593,0.013727831428932,-0.0386610031599377,0.865306185984126,-0.000103008354208779,0
0.5,0.000711512689256341,0.000410332997060159,-0.0355187658151184,-0.0205311607273794,-0.000275607375568995,0.000773733836652588,0.0137276660757718,-0.0386608648371297,0.865306135680189,-0.000102041786169409,0
0.51,3.06013643850015,0.0171747512653783,1.63203981085376,-0.853243322336203,-0.375780756096647,3.037024665304,-1.05568073027159,1.50901169878041,0.128719836706211,39.1610906834713,536.212657936616
0.52,2.79678145670139,-0.0174841848120549,3.10522076464964,0.887364198564485,-1.52106009588827,2.34705526095225,-0.924789312161959,3.09428116793162,0.568766999352846,80.4698756417316,536.212657936616
0.53,2.57711388561004,-0.0310620574180986,2.73113551469971,1.57236161986415,-2.49541441893777,0.644505786298783,-2.22441756016881,2.23235050592162,1.30599127597441,120.73417412196,536.212657936616
0.54,2.33309369738866,0.0426942892647431,3.88835911892787,-2.1203319703442,-1.71231610340034,-1.58528311829981,-1.3357757746178,-4.22265880484766,2.33598804936748,158.98850397482,536.212657936616
0.55,2.14128674286603,0.0178497286947413,4.37972658049837,-0.870026675415988,0.970675787843597,-1.90872104899655,2.78998780697974,-3.4863905938325,-2.66279446445711,190.936841235791,536.212657936616
0.56,1.96089814558795,-0.0193667703179422,4.31401217793027,0.986765253490811,1.77831166631828,0.82650119576388,4.3369285916848,0.880600435756372,-1.14560612019524,222.846431861352,536.212657936616
0.57,1.80151723006924,-0.021044616101843,4.52661010261476,1.08004715894833,-1.01833558533318,1.48623680540732,-1.61673029974376,4.36381530596069,0.58902727938911,250.005956116038,536.212657936616
0.58,1.65790920041196,0.00149839509318286,4.08959661238214,-0.0539265948524061,-0.964117947847559,-1.34875562821317,-2.33130040234795,-3.36046826553267,2.52189303829274,276.514475018634,536.212657936616
0.59,1.52971200129426,0.00326364775931509,3.75531953487888,-0.146743180309493,1.52487222123229,-0.121631275642778,3.75541406024993,-0.144303867194958,-1.64825919874916,300.355177194169,536.212657936616
0.6,1.41157672907158,0.0348038992246744,3.57421258523578,-1.71290937325561,-0.806250129165362,1.15918976128954,-3.49424981919631,1.87063420435191,0.632370056235682,321.574702413195,536.212657936616
0.61,1.33372490391142,-0.0159086802899595,1.68162444504021,0.822942386237286,-0.0846214992595296,-1.33113275344166,-0.947299675739052,-1.61484310989254,3.0661795967264,341.609902653651,536.212657936616
0.62,1.17716805279444,0.0115782308752317,4.20289800988458,-0.557729970010595,0.715309313195486,0.934981960470819,2.07454991455119,3.69752039250298,-0.643229307178522,360.085763337069,536.212657936616
0.63,1.1031080609486,0.0256973812069249,3.05371211949384,-1.26775313123633,-0.986238161728625,-0.4948151552659,-2.10205991268483,-2.55219510108192,2.05911000370413,377.006022598735,536.212657936616
0.64,0.958047606585483,-0.0251393630709003,5.86176851157115,1.27209453904065,0.940469250775892,0.184403883920093,5.99178020160089,-0.277713188753507,-1.40341041207916,392.48538927263,536.212657936616
0.65,0.892317636476174,-0.0191395222150181,5.09445497140015,0.970194464096944,-0.892264704610979,0.0214658468858722,-5.04505505542136,1.20090309415682,1.52529731791473,406.600440207345,536.212657936616
0.66,0.849864475507901,-0.0280276717867274,3.47853528684902,1.4145764608998,0.843589029517982,-0.10683036269251,3.21081393706938,-1.9472822515256,-1.7297307605996,419.571051734106,536.212657936616
0.67,0.753305942650477,0.0355934278197807,4.88252925258607,-1.76981761297941,-0.734549956593606,0.170801336659926,-5.12157589376563,-0.860701254774045,1.38954550343042,431.465091699195,536.212657936616
0.68,0.699595641813354,0.00165404176651294,4.43016957047128,-0.0703241419472688,0.694368778969234,-0.0853744498733617,4.40674109378707,-0.46041377086124,-1.69077064073817,442.317183745189,536.212657936616
0.69,0.666336600159267,-0.0261798000774348,3.21733607584111,1.32510150056201,-0.6657711211831,-0.0379296828684722,-3.24020983717264,1.26814258772034,1.5884369093052,452.248381552557,536.212657936616
0.7,0.586522214982366,-0.0236408768147391,4.54902575039264,1.2002558436474,0.566373878866226,0.154233034925776,4.70223809078066,-0.152336159714389,-1.34521158323623,461.42406253079,536.212657936616
0.71,0.551244443863272,0.0418241637526995,3.87778763154232,-2.0729293076915,-0.504243808113221,-0.226622769251499,-2.41621937872186,-3.67371157603831,2.06890409798827,469.830347867231,536.212657936616
0.72,0.473389220096164,0.0537569904954731,5.5329040737108,-2.67118943846293,0.359267189524772,0.312912534522598,1.76511186197992,5.88495204906032,-0.741177532357319,477.55385119047,536.212657936616
0.73,0.494550647185859,0.0234785652729147,2.42618707808026,-1.17442142835153,-0.194381145791616,-0.455354318986836,0.25513036673538,-2.68338553420569,2.78557057045772,484.615222205772,536.212657936616
0.74,0.393425667309049,0.028156641909296,5.58281904033028,-1.40836874765177,-0.00279219286237867,0.3944220529334,-1.84197014193014,5.45513675013509,0.0785251496851373,491.052466816847,536.212657936616
0.75,0.409712200985822,-0.00493919535403034,3.06078345954354,0.255352829033261,0.221115152428086,-0.344958798487727,1.40392849628605,-2.73177327588264,-2.58363212239255,496.86763489434,536.212657936616
0.76,0.34219442726064,0.0486414171932237,4.83918875724012,-2.41982936607896,-0.278653446521777,0.204487824225155,-5.40833234908337,0.152522755664953,1.07891590481636,502.274007244108,536.212657936616
0.77,0.329417071513697,0.0106413768393226,4.00863045200631,-0.516444496002557,0.329387088151988,0.0115322185398559,3.96483368451295,0.784810086807703,-1.50350704858175,507.302171565209,536.212657936616
0.78,0.302087974723377,0.016253311023852,4.02127020415662,-0.817564264955882,-0.248378955771645,-0.172711345665236,-2.67129900080718,-3.11499390536438,2.2321488936736,511.862341315745,536.212657936616
0.79,0.240532963939066,0.0338412323076095,5.86600548184568,-1.6920308826648,0.0997835337829536,0.221460114086478,0.01666302710571,6.10513809544573,-0.283553514986485,516.01313943701,536.212657936616
0.8,0.265113836159106,0.0214618452487454,3.51453039821924,-1.06190098271281,0.0761939207866188,-0.254834148731368,2.26473788726897,-2.88972661666497,-2.77028173727699,519.779671892648,536.212657936616
0.81,0.225610390265174,-0.0263650115053109,4.43422628748622,1.33178727823105,-0.209100427209767,0.0887252690498724,-3.1943306941819,3.35145812137035,1.05316954255923,523.286371740998,536.212657936616
0.82,0.190795375060307,0.0162399110754381,5.22896591682958,-0.818997783047772,0.190463236016727,0.0197576714766151,4.98327089411722,1.78321426750875,-1.3825189702534,526.416121541952,536.212657936616
0.83,0.202334776583025,-0.00772091501171803,3.78260338477577,0.390544129477266,-0.1170374839247,-0.165230752888488,-2.61236341455627,-2.76336216842349,2.48715900457594,529.318444689011,536.212657936616
0.84,0.158080027493017,0.0449286630787556,5.21009303546639,-2.23604483303219,0.0299649949212893,0.161585825299141,-2.71297298686995,4.97842781468801,0.0935523945995551,531.884025588031,536.212657936616
0.85,0.140607126185427,0.00598109120729182,5.34342220413109,-0.308523438279769,0.102670737583125,-0.0962541273415929,4.2512704596689,-3.25177598280013,-2.2814372371098,534.306201334052,536.212657936616
0.86,0.136626803994545,-0.0156823933659126,4.87265947512406,0.782624578541633,-0.135126509417397,-0.0255665305451693,-4.91664000069521,0.42657085579953,1.64350772764828,536.476171475027,536.212657936616
0.87,0.0868537629966954,0.0376372858737363,6.74019995715696,-1.87486200329991,0.0847239440547138,0.0422136795179147,2.90586461254525,6.36406739809013,-0.699635759242914,538.525848791757,536.212657936616
0.88,0.0978643592239872,-0.0214198715682005,5.60567264041598,1.06333459929718,0.0323388887518813,-0.0948179306809279,-0.423230594853429,-5.68991406658754,-3.02837673210943,540.359572923056,536.212657936616
0.89,0.107528560612064,0.027415600607267,4.59851452909011,-1.3772537250809,-0.0705746067804207,0.0856342885866899,-4.5241414120364,1.60477667648783,0.938930325405942,542.015983122812,536.212657936616
0.9,0.114425636394325,0.00521334853661339,3.79074372051338,-0.253175345877868,0.113086582976421,0.0182162020719876,3.65958679212564,1.0204215899674,-1.36555681226684,543.497435081347,536.212657936616
0.91,0.0707827806799351,0.00691906017814796,5.5508516594998,-0.346219657053436,-0.0410788864809397,-0.0580568731505469,-2.44937968244905,-4.99323155560682,2.62325000999551,544.781004443275,536.212657936616
0.92,0.115393434778157,0.010325989464209,2.89718176359847,-0.523021445392693,-0.0285653868919834,0.112277733856838,-1.45510708084783,2.55927274571014,0.338379046478555,546.097470704566,536.212657936616
0.93,0.0843565632698278,0.0398176152674147,4.07793453118735,-1.98624508360494,-0.00954426856225427,-0.0927921289220798,3.22774984240043,-3.18690296803637,-2.80307812987372,547.246595902999,536.212657936616
0.94,0.0263274336545976,-0.00737524442129645,6.61695723840128,0.370196460910152,-0.0272415690969341,0.00232914281401285,-6.06658445408724,2.66790584090378,1.21236997934353,548.328913430851,536.212657936616
0.95,0.0792874803982875,-0.0179761920246328,3.66269632176275,0.892184302759489,0.0597280976197545,0.0551561635933861,3.61906132818856,1.05533514977701,-1.04812574634021,549.253056485976,536.212657936616
0.96,0.0766082473217812,0.00378223280357795,3.47386536689623,-0.182955707760823,-0.0159484943037509,-0.0750251582613385,-0.37326825755088,-3.45859569568752,2.98146626684592,550.206932450748,536.212657936616
0.97,0.0159686327914398,-0.00882185457158715,6.23033889646037,0.439301776769853,-0.0172476310129923,0.00594487811058766,-3.84791303740185,4.91972296703921,0.734149133552734,550.970872435625,536.212657936616
