t,iq,id,vq,vd,ia,ib,va,vb,theta_e,omega,r
0,0,0,0,0,0,0,0,0,0,0,0
0.01,0.000710055085579195,0.000392906938633608,-0.0349724538830466,-0.0196645191251912,2.37783910848176e-05,0.000811165011018553,-0.00144900674162425,-0.040095713268248,0.476103861882328,-0.00196246425369539,0
0.02,0.000800614124855401,0.000442614244444731,-0.0395356422954463,-0.0221522921414086,2.64657043100914e-05,0.000914434203646567,-0.00156935663799798,-0.0452915905944422,0.476089544783439,-0.00196419098771693,0
0.03,0.000833389375568412,0.00046237909895929,-0.0411986853111473,-0.0231415023611635,2.90243246337885e-05,0.00095262262782503,-0.00168701412791473,-0.0472230323701358,0.476076036569292,-0.00180488793688015,0
0.04,0.000810130436781836,0.000451998694812992,-0.0401088852506379,-0.0226219717887248,3.04682471744673e-05,0.000927192445303073,-0.00172522987313241,-0.0460162999984087,0.476064637437806,-0.00151487368969782,0
0.05,0.000826848835580267,0.00046304845958876,-0.0409714207819338,-0.0231750079789003,3.26372035799805e-05,0.000947115455354016,-0.00182196393323491,-0.0470363557595437,0.476054440721341,-0.00137011079623044,0
0.06,0.000825209619432627,0.00046384304655338,-0.0409296260741459,-0.0232147762991216,3.41031081090316e-05,0.000946022338984321,-0.00187688410759458,-0.0470174162968822,0.476045503891467,-0.00119345218754251,0
0.07,0.000842217917142864,0.000475088141531075,-0.0417949463365877,-0.023777589917016,3.63108530825513e-05,0.000966292545830885,-0.00198093538794256,-0.0480444296097771,0.476037945125313,-0.00110024236701181,0
0.08,0.000821612242131332,0.000464706986626671,-0.0408152807501296,-0.0232580188180226,3.65331072246556e-05,0.000943220330525285,-0.00196839393907514,-0.0469355729415547,0.476031133694701,-0.000906451090105489,0
0.09,0.000817944115100123,0.000463954914993039,-0.0406603357940034,-0.0232203669605123,3.75509749322761e-05,0.000939615167424812,-0.00200620068645361,-0.0467805890030004,0.476025401246127,-0.00078513916979563,0
0.1,0.000815964296567764,0.000463898646564751,-0.0405845895939339,-0.0232175607982301,3.84128345121301e-05,0.000937829484342797,-0.00203864733519291,-0.0467119680485662,0.476020474708902,-0.000684465614780004,0
0.11,0.000814357824363613,0.00046389290288129,-0.0405241792787706,-0.0232172699578926,3.91478612229434e-05,0.000936398812690157,-0.00206626955251916,-0.0466581317741284,0.476016232020986,-0.000598067444348785,0
0.12,0.000812982448146439,0.000463891039860689,-0.0404725515039731,-0.0232171786760559,3.97798779810048e-05,0.000935175341401293,-0.00209001677456814,-0.0466121941212778,0.47601257752165,-0.000523672382239537,0
0.13,0.00085025944846835,0.00048524016168231,-0.0423130303081188,-0.0242856754681245,4.16772906865868e-05,0.000978091073295428,-0.0021965214194975,-0.0487376841925479,0.476009045974119,-0.00056974745278554,0
0.14,0.000879390207557595,0.00050297539899336,-0.0438235345677423,-0.0251733128427155,4.40952931835428e-05,0.00101211016903289,-0.00229347007802501,-0.0504870068085694,0.476005956487683,-0.000599421120198464,0
0.15,0.000815232693880183,0.000466710180515492,-0.0406230130986408,-0.023358282752501,4.12632523598013e-05,0.000938466878356735,-0.0021469252928105,-0.0468105680177587,0.476003211637381,-0.000350657785886533,0
0.16,0.000809231294294929,0.000464090056748921,-0.0403372780970951,-0.0232271327380642,4.16861861307024e-05,0.000931931934384341,-0.00216137523234816,-0.0464964961757231,0.476001318864555,-0.000295964700920536,0
0.17,0.000808189470657881,0.000463900177234148,-0.0402930942589178,-0.0232176441450336,4.19962891566762e-05,0.000930918850715361,-0.00217326164823831,-0.0464528726604905,0.47599972797986,-0.000262225668883416,0
0.18,0.000807638336885009,0.000463885918723101,-0.0402719739697301,-0.0232169220626992,4.22374321492574e-05,0.000930422392315122,-0.00218236120583543,-0.046433766345746,0.475998360930488,-0.000234284009218759,0
0.19,0.000807192338323968,0.000463884420342993,-0.0402551840566512,-0.0232168533600274,4.24415633920863e-05,0.000930025236314964,-0.00219004836378636,-0.0464188088121632,0.475997183655228,-0.000210309440958125,0
0.2,0.000806810542868718,0.000463883908443775,-0.0402408348908668,-0.0232168295830089,4.26169993814653e-05,0.000929685604901414,-0.00219664943510004,-0.0464060416310178,0.475996169593639,-0.000189666027556849,0
0.21,0.000806482007428388,0.000463883523668979,-0.0402284883290175,-0.0232168100197405,4.27680120568173e-05,0.00092939337687654,-0.0022023300645834,-0.0463950566657403,0.47599529610054,-0.000171884804916558,0
0.22,0.000806199048588137,0.000463883196225239,-0.0402178519757881,-0.0232167917809853,4.28980784520355e-05,0.000929141690244111,-0.00220722257957184,-0.0463855926622939,0.475994543688612,-0.000156568420203502,0
0.23,0.00080595526350155,0.000463882914412852,-0.0402086845254557,-0.0232167719738111,4.30101378675211e-05,0.000928924847924003,-0.00221143576559283,-0.0463774337798699,0.47599389557406,-0.000143375153955375,0
0.24,0.000805745355273347,0.000463882671647894,-0.0402007890062957,-0.0232167520679566,4.31066251659292e-05,0.00092873813826426,-0.00221506186119709,-0.0463704055865888,0.475993337299345,-0.000132010701268973,0
0.25,0.000805564445863612,0.000463882462507563,-0.040193980023115,-0.0232167527375127,4.31897824131109e-05,0.000928577222505881,-0.00221820477548813,-0.0463643527437553,0.475992856411123,-0.000122221556836882,0
0.26,0.000813652340243497,0.000468456693099202,-0.0405915284229741,-0.0234456756660047,4.35498235021066e-05,0.000937862045807428,-0.0022395318325299,-0.0468226054841001,0.475992499742013,-0.000140084453306724,0
0.27,0.000790245409082928,0.000455153730693217,-0.0394477449995461,-0.0227798916056397,4.24516888453881e-05,0.000910961348935712,-0.00217188804363062,-0.0455008895455885,0.475991945304775,-5.79122721447703e-05,0
0.28,0.000789376214797836,0.000454582951623252,-0.0393393139179471,-0.0227513313031528,4.23429170796051e-05,0.000909927220039195,-0.00219620165048176,-0.0453914242331195,0.475991641753671,-4.94263149296673e-05,0
0.29,0.000803741140045146,0.000463210223059766,-0.0401103969565047,-0.0231830981226169,4.34289920929618e-05,0.000926648505957862,-0.0022266529439503,-0.0462746366732194,0.475991513422373,-9.08551345074651e-05,0
0.3,0.000796882604014833,0.000459708120001026,-0.039772872562813,-0.0230078331983603,4.34585442627532e-05,0.000918947656347684,-0.00222551307118119,-0.0458943228727839,0.475991906060458,-7.74396813449086e-05,0
0.31,0.000804426454882524,0.000463580474831705,-0.040143193695025,-0.0232016456487025,4.34439014738321e-05,0.000927427304636211,-0.00222810260363869,-0.0463122869186127,0.47599168575625,-9.62597309299889e-05,0
0.32,0.000804972915366286,0.000463860070443582,-0.0401709929803729,-0.023215624075874,4.34422466870297e-05,0.000928041125504687,-0.00222780041440511,-0.0463434006475037,0.475991439012321,-9.31897288167234e-05,0
0.33,0.00080494462778027,0.000463880178546717,-0.0401705219555658,-0.0232166355305533,4.34732831596374e-05,0.000928025186884587,-0.00222892533871884,-0.0463434449666354,0.475991221696856,-8.89296055622861e-05,0
0.34,0.000804878503973813,0.000463881556138924,-0.0401680702460219,-0.0232167085832951,4.35049809276839e-05,0.000927967036547891,-0.00223012238572678,-0.0463412988475256,0.475991034104963,-8.51246227615704e-05,0
0.35,0.000804818084429613,0.000463881591207736,-0.0401657860426553,-0.0232167146835022,4.35328474852447e-05,0.000927913342331168,-0.00223118196389278,-0.0463392709930088,0.475990872483009,-8.18357312287932e-05,0
0.36,0.000804765697534905,0.000463881538236818,-0.0401637986306285,-0.0232167149367617,4.35569342725738e-05,0.000927866748473386,-0.00223209931089881,-0.0463375043087434,0.475990733261956,-7.90017858920956e-05,0
0.37,0.000804720808026388,0.000463881486598879,-0.0401620954872257,-0.0232166959798695,4.3577568880472e-05,0.000927826820031786,-0.00223286843115058,-0.0463359815339645,0.47599061333904,-7.65605943693132e-05,0
0.38,0.000804681925308984,0.000463881441683729,-0.0401606146273204,-0.023216696189427,4.35954416049172e-05,0.000927792234462447,-0.00223355196215008,-0.0463346651528709,0.475990510039642,-7.44577872218972e-05,0
0.39,0.000804648455902096,0.000463881402962108,-0.0401593371813282,-0.0232166949257755,4.36108260609993e-05,0.000927762463915197,-0.00223414031186541,-0.0463335289308621,0.475990421059237,-7.26464646832145e-05,0
0.4,0.000804619584902346,0.00046388136960507,-0.040158231724298,-0.0232166951020068,4.36240967599471e-05,0.000927736783606739,-0.00223465056112935,-0.0463325462666537,0.475990344413092,-7.10862224951526e-05,0
0.41,0.000804594672023531,0.000463881340871513,-0.0401572742836761,-0.0232166952650478,4.36355480222272e-05,0.000927714624012258,-0.00223509248235284,-0.0463316951828855,0.475990278391548,-6.97422566531296e-05,0
0.42,0.000804573251604362,0.000463881316120349,-0.0401564484878916,-0.0232166954164618,4.3645394020694e-05,0.00092769557087632,-0.00223547364698666,-0.046330961125311,0.475990221521592,-6.85845875468546e-05,0
0.43,0.000804554857983554,0.000463881294799719,-0.0401557370070314,-0.0232166955577901,4.36538488172277e-05,0.000927679209993111,-0.00223580205609427,-0.0463303286883111,0.475990172534901,-6.75873912516463e-05,0
0.44,0.000804539025499821,0.000463881276434254,-0.0401551216887648,-0.0232166956905856,4.36611263785266e-05,0.000927665127199375,-0.00223608607945126,-0.0463297817356617,0.475990130338715,-6.67284234815972e-05,0
0.45,0.000804525288491876,0.000463881260614563,-0.0401545836906962,-0.0232166958163993,4.36674405893517e-05,0.000927652908368571,-0.00223633439601387,-0.0463293035181141,0.475990093991566,-6.59885233886205e-05,0
0.46,0.000804513530544397,0.000463881246987764,-0.0401541209814808,-0.0232166959356262,4.36728452319885e-05,0.000927642449829284,-0.00223654797449852,-0.0463288922285056,0.47599006268296,-6.53511861499361e-05,0
0.47,0.000804503402411421,0.000463881235249493,-0.0401537193864854,-0.0232166960494277,4.36775007154231e-05,0.000927633440988089,-0.00223673334340312,-0.0463285352668378,0.475990035714154,-6.48021947923445e-05,0
0.48,0.000804494671262303,0.000463881225138533,-0.0401533700720779,-0.0232166961585839,4.36815140529445e-05,0.000927625674750063,-0.00223689457902774,-0.0463282247804463,0.475990012483726,-6.43293030615416e-05,0
0.49,0.000804487104266401,0.000463881216428888,-0.0401530638454007,-0.0232166962638678,4.36849922118903e-05,0.000927618944040025,-0.00223703591841237,-0.0463279525975544,0.475989992473464,-6.39219622420008e-05,0
0.5,0.000804480585008393,0.000463881208926773,-0.040152796980395,-0.0232166963656613,4.36879887777634e-05,0.000927613145275208,-0.00223715908992488,-0.0463277154054729,0.475989975237111,-6.35710858523113e-05,0
0.51,2.70576562379258,0.0109022194115658,4.57774203485771,-0.541308213027928,-0.163860068756518,2.70082142081865,-0.8358108215563,4.53322809813979,0.0646254129453229,19.7436411328727,547.147490514568
0.52,2.67516902599936,-0.0311026990840271,3.0355469207665,1.56664433521422,-0.79296090978533,2.5551339869191,0.635588638853181,3.35632934370192,0.28929013641143,41.5194644820674,547.147490514568
0.53,2.571934450498,0.0499586100519096,4.97475515123779,-2.48467770950532,-1.5659583785215,2.04086183685106,-5.04596098200682,2.33668352648455,0.67390513740823,63.5324642705945,547.147490514568
0.54,2.53071176198741,0.0286289324309956,3.39366676638747,-1.4201418824454,-2.37087430821675,0.885593954739602,-3.67420199041009,-0.184436496455707,1.22462669284358,86.6678389990801,547.147490514568
0.55,2.46355533959243,0.0324237914107328,3.59075736239555,-1.60258108413783,-2.31174299188415,-0.852056660650181,-2.77858796409475,-2.78231081883783,1.93708515839382,107.252907665615,547.147490514568
0.56,2.34030722910819,-0.038996450828457,6.72174462618192,1.98099926584655,-0.756369554947635,-2.2150538923786,-4.14158443143352,-5.65274157451034,2.79587762100166,127.385029583204,547.147490514568
0.57,2.31826756833103,0.00316126261130534,4.53706216068289,-0.133402908493975,1.4280227493278,-1.82623260822904,2.90461687907334,-3.48796934787239,-2.4765914353486,147.657420893631,547.147490514568
0.58,2.2259720230569,-0.0016810427878432,6.16383841205291,0.106312123557564,2.15879943169013,0.542714738210833,6.00480743514332,1.39516805595661,-1.3252588870855,166.899225814574,547.147490514568
0.59,2.11796617351254,0.0348747484950031,8.56986495044066,-1.70907171739732,0.103698081076841,2.11571351279112,-1.42961625767455,8.62088793337388,-0.0325094367871669,185.295871707027,547.147490514568
0.6,2.11081119367333,0.0310794096034029,5.88191054658834,-1.52570426036687,-2.07259024275617,0.401072949312038,-6.05838751477839,-0.469665720428944,1.39436892620408,203.768005496767,547.147490514568
0.61,2.02955867378622,0.0465426974713284,7.02639608271391,-2.3052140623128,-0.428321506009451,-1.98439293501025,0.939260383254091,-7.33498764257387,2.95193726975813,221.528754633834,547.147490514568
0.62,1.91514014248266,0.00326869885171643,9.94844649762948,-0.140620152271812,1.90943537398489,-0.147746412192914,9.93070239044998,-0.610337427766158,-1.64631270579618,238.48452773513,547.147490514568
0.63,1.9206640294776,0.0199380702503735,6.90845543751923,-0.96291317052387,-0.289644733448596,1.89880324656346,-2.06294886880284,6.66319745098871,0.161754235326606,254.872569795465,547.147490514568
0.64,1.80013316522072,-0.00110788500603709,10.1797953719451,0.0944642629195479,-1.56307496498992,-0.892903854711418,-8.88913571492263,-4.96189717278893,2.08919105768864,270.885873144895,547.147490514568
0.65,1.77095854435591,-0.0466780268989467,8.94691756866574,2.36278195033459,1.50664445944248,-0.931931047263507,6.18685652272355,-6.88134281173084,-2.15109351622938,286.421200825533,547.147490514568
0.66,1.72042456936354,-0.00197503004628297,8.79594234491906,0.122773534078891,-0.00831364980176352,1.7204056157896,0.0903654375948699,8.7963349847251,0.00368435072010327,301.540403599834,547.147490514568
0.67,1.67262216526367,0.0227399125866073,8.56901059033693,-1.11021326624687,-1.2979816737721,-1.05518983406188,-5.86301003831875,-6.34709613007638,2.26697638451223,316.076671554126,547.147490514568
0.68,1.60306708875457,0.0408653449778459,9.52709367085176,-2.00580280953579,1.59510410191389,-0.164733031070509,9.65369371495386,1.262915825297,-1.64821920224855,330.003250512027,547.147490514568
0.69,1.5603833919402,0.0450676458818036,9.19951777337679,-2.20124255345419,-1.11131506984684,1.09626923612745,-8.23299573444797,4.65772232731563,0.82108796846218,343.554126574281,547.147490514568
0.7,1.49985632732801,-0.0164905683170224,9.77958015606342,0.847366358279994,0.382693408781333,-1.45030572512992,1.56938211523708,-9.68995652985028,-2.89459659580738,356.88323788468,547.147490514568
0.71,1.38740528252427,0.0215532155180069,12.977475721226,-1.04555721552108,0.339924554663322,1.34529151346924,1.96581916561815,12.8702611082304,-0.231963172433178,369.55968577703,547.147490514568
0.72,1.37802265641282,0.0440640877758008,11.1422466212301,-2.14863841681185,-0.835915583708332,-1.09641836099735,-4.71940612490513,-10.3195694020013,2.52216449748505,381.779986172449,547.147490514568
0.73,1.37793034400603,0.0399632183144438,8.82135086765204,-1.97460473833588,1.11894053052399,0.805146682848112,5.80865344486075,6.92638723725373,-0.918067810068716,393.779437465295,547.147490514568
0.74,1.31015318393105,0.0199826440707599,9.99518865992226,-0.943176236921514,-1.19417853176956,-0.539294266323516,-8.64430400998793,-5.10581883190527,2.01023323254049,405.093054560132,547.147490514568
0.75,1.30811992727223,0.027801531007778,7.88571402127999,-1.36459808193719,1.25478836265498,0.370751715031402,7.0989309867247,3.69483320277902,-1.26225125586441,416.232968879983,547.147490514568
0.76,1.19797887289796,0.0621093628994227,11.2732299720792,-3.05161018839431,-1.1744041188064,-0.244511591954645,-10.1269337864874,-5.81749523673174,1.82786320635997,426.82501468495,547.147490514568
0.77,1.16751233300799,0.0453721034637259,10.6761892275065,-2.23158204394934,1.13386124200252,0.28196162750097,9.63055893907809,5.11989349121113,-1.28822354608968,437.113978174902,547.147490514568
0.78,1.08942891720608,-0.0221346412026086,12.5428084039166,1.1212193083383,-1.00282375419305,-0.426250895614458,-12.0581572555774,-3.63042958815041,1.95239502019659,447.048957243174,547.147490514568
0.79,1.08199115278397,0.00986907893982665,10.9323945879242,-0.436947770495401,0.926608321375189,0.558747950493029,9.08110671836778,6.10259580423206,-1.01905041741724,456.466156860656,547.147490514568
0.8,1.00685762698409,-0.00216922938584439,12.7110171657248,0.151152387375039,-0.706777953975523,-0.717099651614987,-9.04956503106613,-8.92738355735121,2.36128891785248,465.67653138562,547.147490514568
0.81,1.01407479001766,0.0369286782851114,10.4322821678953,-1.82609676363141,0.497110235575819,0.884642764462018,3.15279982359121,10.1107365653099,-0.475558828255045,474.55801524973,547.147490514568
0.82,0.933511494423249,-0.0349493154178283,12.5997510106192,1.75678478749116,-0.0651950835861187,-0.931887743209825,-3.09564081184195,-12.3392473953324,3.03432515381129,483.080701015574,547.147490514568
0.83,0.869428818353705,-0.000693084551931178,13.9933874772777,0.0648317647612554,-0.27588696123088,0.824495806643616,-4.36829963708846,13.2942489267941,0.322104580782608,491.180692643179,547.147490514568
0.84,0.877565717127087,0.00457336336591654,11.8097983301036,-0.175203979057677,0.632401274520837,-0.608449777314181,8.67376377478924,-8.01672345856768,-2.33168303865105,498.983466077197,547.147490514568
0.85,0.80190346823355,0.0581119921101314,13.8498814119917,-2.86170194842546,-0.770646986772358,0.229192926964793,-14.141247380282,0.183509393554297,1.35406466908867,506.500107378731,547.147490514568
0.86,0.783321013463845,0.0369733824912252,13.0852106982967,-1.81030802964772,0.740800940826503,0.25724075730225,11.4712254012458,6.55064439386229,-1.18941054913655,513.733307431454,547.147490514568
0.87,0.816017279022373,-0.0162433179371323,9.81009368619011,0.849443386811349,-0.684977839998119,-0.443794325957639,-8.78524855158861,-4.4473475337593,2.12578798323303,520.611390077552,547.147490514568
0.88,0.700356052984365,0.047373177377396,13.9823701940474,-2.34272057636104,0.262997633348724,0.650826446711901,2.12548195674736,14.0170375755304,-0.316495411265139,527.242185257529,547.147490514568
0.89,0.703064537056685,0.0318809432563818,12.2839335647792,-1.56816285062097,0.264298157721343,-0.65227495861389,6.54927733470316,-10.5100487602637,-2.71130174206109,533.579674670647,547.147490514568
0.9,0.660411327253628,-0.0118746637431787,12.8886939402769,0.62158309181745,-0.624812881796625,0.214226495898404,-11.9027202430827,4.98297580177474,1.22251313098782,539.666583081435,547.147490514568
0.91,0.589556132443167,0.0435273820454281,14.9518949955024,-2.15077443401234,0.541276550566657,0.237677853608061,12.2030385990967,8.90341752202411,-1.08334152619561,545.43412051998,547.147490514568
0.92,0.593567967990696,0.0589876308072907,13.3039756942836,-2.9188582092658,-0.179260513076747,-0.56891839631385,0.133281667811725,-13.6197554499672,2.93540275888614,550.978094823318,547.147490514568
0.93,0.605714667342569,0.0105013501661358,11.3012944824762,-0.484885804410337,-0.387125974665993,0.465976411772244,-7.73896776640814,8.25001509898385,0.710567539819728,556.233954124909,547.147490514568
0.94,0.555901736435554,-0.000526574639264477,12.4298964726207,0.0706378343925246,0.553393682753352,0.0527489311891494,12.3815589588111,1.09741230775014,-1.47671168960316,561.244356289906,547.147490514568
0.95,0.456973141013435,0.0693842685001394,16.0504234177398,-3.43156207439603,-0.274911572842708,-0.371567295977637,-4.46760568944841,-15.7934229843556,2.65528974814877,566.039356287432,547.147490514568
0.96,0.472724270834228,-0.023089769956982,13.976155734145,1.14363318637841,-0.26215795975265,0.394048953622195,-6.1826692236247,12.5863190505129,0.538245644526649,570.60091963783,547.147490514568
0.97,0.448422642164467,0.030885802594324,13.9228869984856,-1.55918115552623,0.449049578770897,-0.0197806626111764,13.8800440819532,1.90320900885442,-1.54604999369712,574.97050123055,547.147490514568
