t,iq,id,vq,vd,ia,ib,va,vb,theta_e,omega,r
0,0,0,0,0,0,0,0,0,0,0,0
0.01,0.000789309559663538,0.000437664790671654,-0.0387422465055875,-0.0219003977423756,0.000546558851218878,0.000718215477502547,-0.0272409816569475,-0.0351925845021335,-0.144216853862217,-0.00220276581362425,0
0.02,0.000916713191112536,0.000505717012657077,-0.0451193036249017,-0.0253056735386605,0.000632228589976378,0.000834505710985256,-0.0315280819461364,-0.0410135187668534,-0.144233458947282,-0.00231306109092613,0
0.03,0.000962314957526853,0.000532044993521706,-0.0474245981503178,-0.0266230934908213,0.000664851911855755,0.00087583896231737,-0.0331638701951324,-0.0431049803435815,-0.144249673711819,-0.00218179900155804,0
0.04,0.000937304680360094,0.000520613602420075,-0.0462749661062036,-0.0260510740982957,0.000649956078650823,0.000852722512119031,-0.0324331268225868,-0.0420490574723761,-0.144263813911641,-0.00187090800963749,0
0.05,0.000957039247685319,0.000533708228580165,-0.0473013781683004,-0.0267063395352826,0.000665762934619412,0.00087036102265164,-0.0332296962746571,-0.042970178420486,-0.144276610472431,-0.00171803142819123,0
0.06,0.000956193149877705,0.000535173882340685,-0.0473171205489738,-0.0267796771086966,0.000667101666031906,0.000869305349914576,-0.033305027383263,-0.042974831635415,-0.144288061639212,-0.00152511259982949,0
0.07,0.000972658453996823,0.00054652157834156,-0.0481696028592302,-0.0273474982243133,0.000680707706542038,0.00088396115411183,-0.0339899576871887,-0.0437364730535957,-0.144297962355092,-0.00141045947658999,0
0.08,0.000952623899576932,0.00053660574152993,-0.0472373649043114,-0.0268513179288599,0.000668021839701039,0.000865554641585663,-0.0333652688405484,-0.0428849711765988,-0.144307018948463,-0.00119916096816636,0
0.09,0.000947786821217966,0.000535490975354396,-0.0470402857961243,-0.0267955384246944,0.000666229780554944,0.00086092294815632,-0.0332820613115831,-0.0426977020705137,-0.144314829304811,-0.00105466161447674,0
0.1,0.000945165954995168,0.000535363867257248,-0.0469465012963702,-0.0267891831033614,0.000665732949270486,0.000858343050943027,-0.0332625760520334,-0.042605578856509,-0.144321672502128,-0.000932959923157081,0
0.11,0.000943071406847367,0.000535347808981054,-0.0468742412020557,-0.0267883739024548,0.000665420963544798,0.000856268588860411,-0.0332516383521415,-0.0425339865461094,-0.144327682291063,-0.00082670739930355,0
0.12,0.000941257630305124,0.000535344425774971,-0.0468120412517446,-0.0267882039190603,0.00066516125656204,0.000854470645244621,-0.033242748335477,-0.0424722822375763,-0.144332961959205,-0.000733443458995655,0
0.13,0.000981539264237196,0.000558685473091739,-0.0488021021261323,-0.0279561685928611,0.000694057891643078,0.000890972742641997,-0.0346850265550995,-0.0442734849226257,-0.144337994583992,-0.000771930836146551,0
0.14,0.00100827474024495,0.000575122354123569,-0.0502117854213886,-0.0287786717059215,0.000714173565104463,0.00091506272622954,-0.0357019486220721,-0.0455500406690016,-0.144342534326218,-0.000777536307043106,0
0.15,0.000945548366979964,0.000539802563429614,-0.0470893218588012,-0.0270112771978215,0.000670201903693068,0.000858066390246026,-0.0335039673593032,-0.0427141370059851,-0.144346618300443,-0.000519443298867523,0
0.16,0.000936674272919727,0.000535839178492913,-0.0466716377146441,-0.0268129604473212,0.00066500583429428,0.000849852669062248,-0.0332477603700929,-0.0423292221200613,-0.144349675955092,-0.000441707371678423,0
0.17,0.000934778180057926,0.000535393745428627,-0.0465921692215299,-0.0267906731586471,0.000664294503736233,0.000848038631703965,-0.0332143840694748,-0.0422536991510394,-0.144352294611916,-0.000392427828839822,0
0.18,0.00093386535193282,0.000535343083202205,-0.046559039768463,-0.0267881313929055,0.000664114998408368,0.000847141063319508,-0.0332071997904276,-0.0422212037933965,-0.144354586627451,-0.000351559426542619,0
0.19,0.000933159257149497,0.00053533679345845,-0.0465346032000443,-0.0267878288910529,0.000664008903224961,0.000846441881095306,-0.0332034700673862,-0.0421969980824002,-0.14435659920287,-0.000315963682779463,0
0.2,0.000932551381625959,0.000535335555215806,-0.0465137403439108,-0.0267877541844435,0.000663921726943722,0.000845839332582001,-0.0332004694650921,-0.0421763042753204,-0.14435836723477,-0.0002847301327475,0
0.21,0.000932018804183364,0.000535334948217512,-0.0464954811485725,-0.0267877277305105,0.000663845824028838,0.000845311350955319,-0.0331978820487946,-0.042158187243708,-0.144359920542471,-0.000257294564076636,0
0.22,0.000931551186496644,0.000535334468758541,-0.0464794514595301,-0.0267877069356673,0.000663779231469819,0.000844847760471453,-0.0331956129651601,-0.0421422819827938,-0.144361285217379,-0.000233191358057129,0
0.23,0.000931140321275656,0.000535334053468802,-0.0464653648175831,-0.0267876830879931,0.000663720725713055,0.000844440433048777,-0.0331936133655756,-0.0421283055034323,-0.144362484168558,-0.000212015277967486,0
0.24,0.000930779456438467,0.000535333689205063,-0.0464529922834244,-0.0267876620241012,0.00066366933977208,0.000844082675318172,-0.0331918569516103,-0.0421160297381555,-0.14436353752153,-0.000193410788004243,0
0.25,0.000930462050060645,0.000535333369187124,-0.0464421021937734,-0.0267876601220668,0.000663624141024517,0.000843768002603659,-0.0331903273582704,-0.0421052224889396,-0.144364462957617,-0.000177065590405484,0
0.26,0.000938814343787691,0.000540190682307854,-0.0468531944574265,-0.0270307071024489,0.000669633142968305,0.000851334128995265,-0.0334900184888474,-0.0424770481429732,-0.144365198700074,-0.000190161517278366,0
0.27,0.000916288983372571,0.000527298861864552,-0.0457590497012535,-0.0263856050133679,0.000653635621310864,0.000830897144854375,-0.0326942579905817,-0.0414870615484941,-0.144366143530731,-0.00010615167727457,0
0.28,0.000915650138517445,0.000527033427383993,-0.0456516423572815,-0.0263723339487316,0.000653281556343709,0.000830302726653524,-0.0326656985108789,-0.0413826604825853,-0.144366764770243,-9.38881786700112e-05,0
0.29,0.000927742716706999,0.000534401355340758,-0.0463229045880753,-0.0267410052465162,0.000662312892611279,0.000841209242266039,-0.0331271235938267,-0.041993886858321,-0.144367177019494,-0.000123702927031916,0
0.3,0.000917659714275795,0.000529233745347962,-0.0458299903775017,-0.0264824411390922,0.000655748262980579,0.000831974713568699,-0.0328003268941794,-0.0415433058665575,-0.144366967761286,-9.66074213353221e-05,0
0.31,0.000927940637556171,0.000534648147050156,-0.0463335209178927,-0.026753358259655,0.000662585756285201,0.000841369469103965,-0.0331408836775937,-0.0420026090604673,-0.144367373340481,-0.000121039999100785,0
0.32,0.000929117400052552,0.000535255446238989,-0.0463931343702671,-0.026783753895905,0.000663356410512987,0.000842446323773948,-0.0331795582611945,-0.0420572146372779,-0.1443678197803,-0.000117186978399528,0
0.33,0.000929148603445539,0.000535323456345891,-0.0463966520394306,-0.0267871645395932,0.000663428542373149,0.000842467150317177,-0.0331834564808739,-0.0420601916367625,-0.144368223504894,-0.000110570874760795,0
0.34,0.00092904845117663,0.00053533097876332,-0.0463935254885319,-0.0267875239954216,0.00066342187792419,0.000842366721415875,-0.0331833773682197,-0.0420570340787207,-0.144368579669555,-0.000104345900222494,0
0.35,0.000928943852062881,0.000535331728155586,-0.0463899671441971,-0.0267875680432141,0.000663407834808751,0.000842262894926421,-0.0331829221942426,-0.042053496025424,-0.144368892769423,-9.88242566568606e-05,0
0.36,0.000928849788486531,0.000535331729161098,-0.0463867333960506,-0.0267875713172637,0.000663394534755387,0.000842169627257341,-0.0331824717697308,-0.0420502863187016,-0.144369167871151,-9.39664354920448e-05,0
0.37,0.000928767017192863,0.000535331656288929,-0.0463838843414546,-0.0267875716472281,0.000663382758015107,0.000842087567191588,-0.0331820723706756,-0.0420474588357497,-0.144369409567965,-8.96976812693872e-05,0
0.38,0.000928694199409193,0.000535331583988891,-0.0463813745614779,-0.0267875719471794,0.000663372389085882,0.000842015376481229,-0.0331817205174941,-0.042044968076291,-0.144369621914112,-8.5947206439835e-05,0
0.39,0.000928630484679397,0.000535331519537768,-0.0463791807544136,-0.026787550080036,0.000663363315827803,0.000841952210104855,-0.0331813911012755,-0.0420427940475559,-0.144369808473327,-8.26521676132337e-05,0
0.4,0.000928574256079059,0.000535331462807216,-0.0463772389679902,-0.0267875503311924,0.000663355308135102,0.000841896465898911,-0.033181118877959,-0.0420408669873373,-0.144369972377329,-7.97572697514885e-05,0
0.41,0.000928524895982696,0.000535331412952694,-0.0463755331618063,-0.0267875505614493,0.000663348278638087,0.000841847530958837,-0.0331808797468461,-0.0420391741159283,-0.144370116377057,-7.72139221104897e-05,0
0.42,0.000928481531275396,0.000535331369150211,-0.046374032741254,-0.0267875507734704,0.000663342102947565,0.000841804539767306,-0.0331806694107623,-0.0420376850763913,-0.144370242889645,-7.49794333525566e-05,0
0.43,0.000928443405257568,0.000535331330665452,-0.0463727113243088,-0.0267875509695527,0.000663336673263159,0.000841766742193155,-0.0331804841658445,-0.0420363736903435,-0.144370354038814,-7.30162963153902e-05,0
0.44,0.000928409935852605,0.000535331296853693,-0.0463715498852729,-0.0267875511514734,0.000663331906777763,0.000841733561069934,-0.0331803213551824,-0.0420352210678376,-0.144370451690342,-7.12915586058335e-05,0
0.45,0.000928380482776237,0.000535331267147284,-0.0463705252506256,-0.0267875513211665,0.000663327712194386,0.000841704361768619,-0.0331801777157088,-0.0420342042217647,-0.144370537483122,-6.97762695000897e-05,0
0.46,0.0009283546967825,0.000535331241048117,-0.0463696277377228,-0.0267875514796967,0.000663324039988601,0.00084167879779251,-0.0331800519160531,-0.0420333135222578,-0.144370612857516,-6.84449939904416e-05,0
0.47,0.000928331995794786,0.000535331218117884,-0.0463688350586668,-0.0267875516288194,0.00066332080704991,0.000841656292344188,-0.0331799408046326,-0.0420325268710506,-0.144370679078655,-6.7275385842841e-05,0
0.48,0.000928312030567129,0.000535331197972071,-0.0463681357568612,-0.0267875517696262,0.0006633179636883,0.0008416364991291,-0.033179842781017,-0.0420318328937022,-0.144370737257713,-6.62478125055298e-05,0
0.49,0.000928294451853566,0.000535331180272598,-0.0463675176461069,-0.026787551903172,0.000663315460146603,0.000841619071934961,-0.033179756134128,-0.042031219498213,-0.144370788371842,-6.53450255639011e-05,0
0.5,0.000928279085031114,0.000535331164722281,-0.04636697663194,-0.0267875520299911,0.000663313271730326,0.000841603837429183,-0.0331796803114996,-0.0420306826041766,-0.144370833278745,-6.45518712139213e-05,0
0.51,4.15089810268474,-0.0161780179557987,5.19736591889614,0.815467027514261,-0.353781671154479,4.13582583244168,0.389981720756439,5.24647626749058,0.0814355733072578,24.9325484003006,678.27136423979
0.52,3.97984233567949,0.0172342833638717,6.7097493300519,-0.850000925568064,-1.40294619106272,3.72440384791613,-3.18655283722104,5.96566162811779,0.364581975564947,52.2161974825712,678.27136423979
0.53,3.88442927785418,0.0340726526164021,4.46499497977831,-1.6851805324472,-2.88626642759315,2.59988804936977,-4.46044257233828,1.69719346429829,0.846322404328016,79.3049364553407,678.27136423979
0.54,3.66057171425498,-0.0128968966969083,8.24568656011394,0.662590040958076,-3.65804927690242,0.136481108222864,-8.2117826271634,0.998498119296114,1.52998064119742,107.457105426882,678.27136423979
0.55,3.59264485766241,0.0196334496117143,4.66965267385781,-0.959942603212161,-2.39928538283408,-2.6741189572176,-2.38146143777054,-4.1298652903383,2.41577787197363,133.48459832661,678.27136423979
0.56,3.38616443562651,0.0383637805623572,8.88954455718779,-1.88613780864633,1.08980115953515,-3.20623062137406,4.73479583491028,-7.7564957725218,-2.8026137614271,156.94602802311,678.27136423979
0.57,3.31296573523216,-0.00405553101436318,6.00006282687314,0.227402557104395,3.31279750168685,0.0336321716747573,6.00185387094187,-0.173827389276285,-1.56186861744141,181.713895498615,678.27136423979
0.58,3.16099256642098,0.00462706259739254,7.76246803048929,-0.192045000184881,0.469567709393364,3.12592411631697,0.951925310887054,7.70627208246354,-0.147638606073019,203.763234136405,678.27136423979
0.59,3.02800829862443,0.0476210897358669,8.40038753829998,-2.35566452215048,-2.99071967670743,0.476127966077471,-8.64939126041759,-1.14179549778226,1.42864500672426,226.423125297223,678.27136423979
0.6,2.92125166968324,0.0349829549797003,8.36290314836207,-1.70234788712358,0.0292226292114969,-2.92131497149968,1.88571909828842,-8.32347288576281,-3.11961498393106,246.831963223833,678.27136423979
0.61,2.82645789717401,0.0348479515014879,7.55973155825117,-1.70452253450152,2.67760710165017,0.905813906613128,6.56457417743158,4.11841039388264,-1.23226077705781,267.465915666707,678.27136423979
0.62,2.66436581108246,-0.0321123576646583,10.4290786952523,1.63561695311041,-1.93304193229804,1.83390983059619,-6.33891774502852,8.44150739328174,0.799656406323575,287.246236611389,678.27136423979
0.63,2.59608624941566,0.0177500658950609,8.97237700202868,-0.839174004774387,-0.454771086145604,-2.55600511315026,-0.684087750203484,-8.98553203916406,2.97234977609672,305.674370506266,678.27136423979
0.64,2.4992806170457,0.00783395388817432,8.98938307870749,-0.337511448290527,2.11112697029738,1.33776226918569,7.39657227514464,5.11992584829521,-1.00285070971469,323.557707297746,678.27136423979
0.65,2.45617252429686,0.0351351636617928,6.44402690868596,-1.70712243013098,-2.42876628062677,0.367576254574163,-6.61589538855616,-0.818338560136556,1.43489726872107,341.009879016082,678.27136423979
0.66,2.28193258298831,0.0188408338387493,10.6420304529041,-0.898147931444325,1.71050230213359,-1.5105473063493,8.62366086145817,-6.3001551737914,-2.28594012040867,357.790072652996,678.27136423979
0.67,2.21753142113921,0.0306187309801778,9.5421809642717,-1.49039397860712,-0.827269680791386,2.05767052408053,-5.05636218487254,8.228468461492,0.396072056726879,373.837557404977,678.27136423979
0.68,2.10457012926431,0.0644557948149608,11.0287404584261,-3.18547276565,0.044289978082028,-2.10509106128887,3.75064250108614,-10.8495637547815,-3.08993928366275,389.258404271209,678.27136423979
0.69,2.00589184286569,0.0656571974242435,11.948605061504,-3.24463389491857,0.427313226193206,1.96094782173547,-1.03039595765637,12.3383587319505,-0.181836931455044,404.094489687653,678.27136423979
0.7,1.92896044533855,0.0361144193804417,11.9367379102529,-1.76219869095245,-0.620251109148492,-1.82687744869982,-1.94633320506572,-11.9080998996197,2.8330095693683,418.317137279881,678.27136423979
0.71,1.86393199748811,0.0588219903128229,11.4831341027364,-2.89227797769298,0.664765807562771,1.74235155433678,1.01948961645709,11.7978083406882,-0.332938948364966,431.978514993366,678.27136423979
0.72,1.80215279892408,0.0423883952870051,10.9892100229466,-2.06361167288857,-0.501881031161049,-1.7313771736065,-0.815519823352558,-11.1515092020153,2.88296820651856,445.146952934777,678.27136423979
0.73,1.69536682525418,0.0611135949052595,12.8708959581536,-3.00281050007406,0.212609336091289,1.68309263377317,-1.83877040819832,13.0880004985828,-0.0896232878219153,457.872572157703,678.27136423979
0.74,1.60376685304193,0.0270365276522919,14.1005963711906,-1.33606541360103,0.24475295842872,-1.5852113682673,3.70298750718181,-13.6711291535963,-2.97154805106075,470.061219113896,678.27136423979
0.75,1.57444322680175,0.0816213862429102,12.3339545325229,-4.05665443352776,-0.707090673282772,1.40909769174129,-9.62182734617095,8.71798819246044,0.516884724114534,481.715840600599,678.27136423979
0.76,1.55398755974273,0.048499714750456,10.3097687361439,-2.37841742832108,1.23326364773735,-0.946726113158181,9.75856010932452,-4.08885136056715,-2.19430410334527,492.781401100197,678.27136423979
0.77,1.46985401953494,0.0532865948048705,11.5489249785371,-2.61012284184462,-1.45455817948522,0.218107318587818,-11.7690703436805,-1.29591383004286,1.45819486864017,503.58832436439,678.27136423979
0.78,1.39942226948146,0.0458977781779513,12.1429687240143,-2.28157092353441,1.26489224013162,0.600447262644382,9.74768215099166,7.59209773348221,-1.09480500107382,514.081915929419,678.27136423979
0.79,1.35194078136648,0.000665495450570597,11.7640124604348,0.00766964623158603,-0.566420742241337,-1.22756338409256,-4.93045820990275,-10.6809470475769,2.70977583685025,523.8965411064,678.27136423979
0.8,1.28162481033703,0.0285298907496974,12.6437180271444,-1.37407941211352,-0.354233919525601,1.2320285870852,-5.07515535675372,11.6616678860935,0.302226134147436,533.439104912143,678.27136423979
0.81,1.22880448132734,0.0229950660378996,12.6820626432603,-1.133709240842,1.08755970074435,-0.572453599612327,11.8401139520529,-4.68313048427553,-2.0366017815591,542.64292346828,678.27136423979
0.82,1.23791685450161,-0.0169956559010669,9.79064717494947,0.902197115087172,-1.13238604624954,-0.500428649497609,-9.3619643332955,-3.0040565175976,1.97318566963815,551.306683922571,678.27136423979
0.83,1.08849753524839,-0.0192906862739525,14.8492727430192,0.969812513527424,0.236805752242673,1.0626015483348,4.42901420133952,14.2065221117732,-0.236992032691743,559.861816471369,678.27136423979
0.84,1.11740581091804,0.0456371154518929,11.1180166496851,-2.24203651635031,0.73240714801225,-0.845138013652643,9.25106892694251,-6.56161151488581,-2.38671356326076,567.870978387011,678.27136423979
0.85,1.01616561861775,-0.061532453623517,13.955272372279,3.08028268375794,-0.974137679720331,-0.29569340246075,-14.2891171047096,-0.24269479649973,1.80502136813991,575.761881011778,678.27136423979
0.86,1.03611152842452,0.0155639153919983,10.8111509104399,-0.741075828610583,0.251673020445108,1.00520148506484,1.74642442114913,10.6948669525745,-0.230307208883062,583.160767822641,678.27136423979
0.87,0.94797623028325,0.0194552069608716,13.1708074794724,-0.974912143749886,0.747947584167739,-0.58276225821305,11.1366995256987,-7.09891167881802,-2.21217300626285,590.36318863189,678.27136423979
0.88,0.901721472552438,-0.0576532373945591,13.4931685466953,2.92356911069495,-0.728144380645587,-0.535005860508523,-12.938425471495,-4.81767579784142,2.14061741933855,597.173229420458,678.27136423979
0.89,0.902956097083308,0.00804742778318809,11.5196888440385,-0.403386603567323,-0.223808668873256,0.874816640268706,-3.34442165576931,11.0309018490704,0.259374871166173,603.807984440065,678.27136423979
0.9,0.834872602489305,0.0425980183778451,13.1082094767206,-2.08701806465997,0.834698661663395,-0.0458802547325191,13.1163139266839,2.03546286246719,-1.57472815312269,610.008531585215,678.27136423979
0.91,0.804172353246513,0.0484794245021067,12.8546881654142,-2.41949504227045,-0.224459273232617,-0.773732164890394,-0.472032412709356,-13.0718839304426,2.91945549850211,616.10257284606,678.27136423979
0.92,0.770030681855278,0.0215431133802938,12.8925177241245,-1.03762179084586,-0.740123118036162,0.213609753712346,-12.7418028722049,2.22264072975678,1.31778769128883,621.829361458338,678.27136423979
0.93,0.714110020576904,0.00114656941814223,14.0216841735689,-0.0319885118177278,0.270106978863803,0.661057226024227,5.25311564214727,13.0005163889143,-0.38629122304131,627.408643895861,678.27136423979
0.94,0.664565719728974,-0.0297523055645183,14.9234352706379,1.47927955293074,0.603229371434658,-0.280440940242043,12.5546115033887,-8.20237272206155,-2.05071090828508,632.748770858345,678.27136423979
0.95,0.640669232271389,0.0594933821142749,14.6083334110668,-2.93539420059874,-0.378025507286782,-0.520666153629345,-4.92825665394265,-14.0617292860682,2.60619754399793,637.771854250892,678.27136423979
0.96,0.64885836426632,-0.0409805569533162,12.714649828663,2.06577880305852,-0.573261313720537,0.306705150132782,-9.72319817303398,8.44921177486957,1.01645412573378,642.687140142326,678.27136423979
0.97,0.596827387403725,0.0343161094804703,13.8995089930268,-1.73113204203996,0.335417612072346,0.494849018627618,5.63898651454766,12.8216613386472,-0.538248822736082,647.392717669897,678.27136423979
