t,iq,id,vq,vd,ia,ib,va,vb,theta_e,omega,r
0,0,0,0,0,0,0,0,0,0,0,0
0.01,0.000839197318396379,0.000479257109939838,-0.0413386227119771,-0.0239970069471419,-0.000892183720163301,-0.00037141314746133,0.0442565871353648,0.0180580332615218,2.48416294420369,-0.00127125337128079,0
0.02,0.000927917888690236,0.000530085978683549,-0.0458029622220548,-0.0265420681365303,-0.000986637730041186,-0.00041057123938169,0.0489994470675328,0.0200361402559288,2.48415349108849,-0.00135978686423801,0
0.03,0.000960185678990111,0.000548546812470802,-0.0474015603461713,-0.02746642449315,-0.00102097327732664,-0.000424821975178394,0.0507082212837948,0.0207361686895947,2.4841438106388,-0.00135894151079577,0
0.04,0.000941163111367259,0.000537962403710483,-0.0464891377758945,-0.0269364602874702,-0.0010009742322006,-0.000416223661599013,0.0497313291096625,0.0203373481297585,2.48413476532633,-0.00128134665577273,0
0.05,0.000959906168981401,0.000548736541427957,-0.0474245614494262,-0.0274759459744292,-0.001020960310059,-0.00042446635959885,0.0507301884494292,0.0207476412091967,2.48412576373706,-0.00126297051379148,0
0.06,0.000960089907167637,0.000549001141042076,-0.0474512500940842,-0.0274891785427887,-0.00102128573462308,-0.000424441198478723,0.0507571532536373,0.0207602376199169,2.4841170518656,-0.00121713923065035,0
0.07,0.000986677633031552,0.000564367446049007,-0.0487690733492749,-0.0282585871895862,-0.00104970066804137,-0.000436087001867881,0.0521716950633899,0.0213327096148392,2.48410875284209,-0.00121473491345532,0
0.08,0.000960214774811553,0.000549383810116477,-0.0474907228095203,-0.0275083354477089,-0.00102167191525234,-0.000424289384935699,0.0507967808199913,0.0207789395879611,2.48410061405762,-0.00113031734089781,0
0.09,0.000959265720223791,0.000549009522954936,-0.047460020917026,-0.0274896085201047,-0.00102079894098935,-0.000423759012136264,0.0507633558860582,0.0207656895194587,2.48409286565012,-0.001087817537271,0
0.1,0.0009589851604687,0.000548997868944205,-0.047461420038228,-0.0274890090652365,-0.00102062141007862,-0.000423536462885528,0.0507638911450419,0.0207667851929012,2.48408541716627,-0.00104794907352775,0
0.11,0.000958731638170118,0.000548995304567657,-0.0474635592785436,-0.0274888865000113,-0.00102046747320123,-0.0004233300539815,0.0507652502637954,0.0207681897634952,2.48407825512844,-0.00100963926820762,0
0.12,0.000958488244004249,0.00054899305298481,-0.0474656338544104,-0.0274887727084743,-0.00102031985435537,-0.000423131753627839,0.0507665711100387,0.0207695517512655,2.48407136847255,-0.000972803138977015,0
0.13,0.00100435943526011,0.000575305966096684,-0.0497242035335643,-0.0288062927982054,-0.00106918432633058,-0.000443350545450736,0.0531898911660355,0.0217516528008463,2.48406446788741,-0.0010079213167627,0
0.14,0.00106048037725686,0.000607897736511143,-0.0525955174412954,-0.0304382222254484,-0.00112928297616478,-0.000467844256507051,0.0562365626947366,0.023026568208145,2.48405786790616,-0.00106064067057802,0
0.15,0.000960426796761863,0.000550448421988756,-0.0476009097781734,-0.0275616528805399,-0.00102266498822722,-0.000423756320380465,0.0509073459468129,0.0208310693404994,2.48405146198109,-0.000870452065552867,0
0.16,0.000957645228164528,0.000549020923100179,-0.0474767060015453,-0.0274901794831213,-0.00101983758540646,-0.000422421183678542,0.050774986837744,0.0207761471981288,2.48404559770708,-0.00083506381851991,0
0.17,0.000957379800635157,0.000548983708952044,-0.0474751479738238,-0.0274883194132673,-0.00101964828504135,-0.000422228102062357,0.0507726793657755,0.0207757649515591,2.48403996653064,-0.000804839469780046,0
0.18,0.000957186668486365,0.000548981064190088,-0.047476686565914,-0.027488182079029,-0.00101953043821427,-0.000422071336058172,0.0507736235221897,0.0207767917570263,2.48403455206969,-0.000775875320759534,0
0.19,0.000957002733186121,0.000548979343327031,-0.0474782517957871,-0.0274880913233508,-0.00101941885415406,-0.000421921498054683,0.0507746165123771,0.0207778217387211,2.48402934580001,-0.000748027373266211,0
0.2,0.000956825899217051,0.00054897770890226,-0.0474797572065353,-0.0274880005847448,-0.00101931159283581,-0.000421777433007752,0.050775568807542,0.0207788145188565,2.48402433971188,-0.000721250245590371,0
0.21,0.000956655555173765,0.000548976137701306,-0.0474811882234564,-0.0274879326709169,-0.00101920826561167,-0.000421638663216651,0.0507764897100877,0.0207797442321485,2.48401952610825,-0.000695502701164491,0
0.22,0.000956491963217204,0.000548974626809557,-0.0474825733140856,-0.0274878647633889,-0.00101910903368142,-0.000421505390296168,0.0507773787113753,0.0207806469817337,2.48401489758774,-0.000670745150858321,0
0.23,0.000956334803428887,0.000548973173904351,-0.0474839111601924,-0.0274877740617719,-0.00101901370281727,-0.000421377355094727,0.0507782171066988,0.0207815352995158,2.48401044703413,-0.000646939529338175,0
0.24,0.000956183551491907,0.00054897177676346,-0.0474851898373486,-0.0274877061697543,-0.00101892195381185,-0.000421254136913508,0.050779033843104,0.0207823715279243,2.48400616760478,-0.000624049234922409,0
0.25,0.000956038120319077,0.000548970433250799,-0.0474864185328906,-0.0274876382827205,-0.0010188337346398,-0.000421135661333397,0.0507798166224394,0.0207831765433961,2.48400205271957,-0.000602039073262898,0
0.26,0.000965440200755969,0.000554395588918467,-0.0479544497160498,-0.0277593015462597,-0.00102887589973938,-0.000425257137721949,0.0512809777758288,0.020987362584667,2.48399812293172,-0.000595921919717128,0
0.27,0.000931309813242127,0.000534915711782424,-0.0462923047351706,-0.0267839153483887,-0.000992598868966984,-0.000410146647283929,0.0494931455979761,0.0202678103874368,2.48399421437317,-0.000521921372356994,0
0.28,0.000925062401926519,0.000531271549565502,-0.0458902322910865,-0.0266014377329785,-0.000985897619856894,-0.000407425809192668,0.0491030413078005,0.020060938251135,2.48399053845381,-0.000492703923782313,0
0.29,0.000954721670467799,0.000548526439783904,-0.047452285354484,-0.0274654251422553,-0.00101768397807756,-0.000420349906586239,0.0507416833018167,0.0207689802182569,2.48398711494915,-0.000520906994112976,0
0.3,0.000950859633531947,0.000546437125611179,-0.0472693580227935,-0.0273608130518569,-0.0010136710530414,-0.000418567283901468,0.0505471393813953,0.0206879916643326,2.48398413531862,-0.000499101615906927,0
0.31,0.000955172426097559,0.000548900798837225,-0.047486985998196,-0.0274841566474554,-0.00101825840120153,-0.000420471495970591,0.0507778479221137,0.020784678641091,2.48398088102229,-0.00048861045979447,0
0.32,0.000955175399113842,0.000548960936436728,-0.0474934974402016,-0.0274871727306354,-0.00101830913567259,-0.000420433891368799,0.0507842803135469,0.0207878290559961,2.48397773875446,-0.000471981076384003,0
0.33,0.00095507161539133,0.000548961467194859,-0.0474945401249445,-0.0274872032803179,-0.00101824739013019,-0.000420348350162089,0.050785004631871,0.0207884821570582,2.48397471696916,-0.000455822407007052,0
0.34,0.000954968937517433,0.000548960555700461,-0.0474954004045282,-0.0274871610805108,-0.00101818512971947,-0.000420264684402915,0.0507855574693242,0.0207890412569308,2.48397181136307,-0.000440280689334016,0
0.35,0.000954870159552049,0.000548959643927922,-0.0474962242660815,-0.0274871159668792,-0.00101812520543973,-0.000420184219495129,0.050786083421616,0.0207895789857138,2.48396901747746,-0.000425336439246414,0
0.36,0.000954775223291421,0.000548958766298063,-0.0474970175694613,-0.027487070849114,-0.00101806761081409,-0.000420106883921187,0.050786588462281,0.0207900979848781,2.48396633101692,-0.000410966793369792,0
0.37,0.000954683954112565,0.000548957922355308,-0.0474977801720569,-0.0274870257275301,-0.00101801224052928,-0.000420032535512694,0.0507870725899121,0.0207905979319004,2.48396374785097,-0.000397149660967112,0
0.38,0.00095459623560016,0.000548957110827897,-0.0474985145008392,-0.0274869806018656,-0.00101795902413399,-0.000419961078833121,0.0507875373700083,0.020791080546325,2.48396126400779,-0.000383863797946271,0
0.39,0.000954511893131223,0.000548956330472835,-0.0474992196634337,-0.0274869354723232,-0.00101790785555238,-0.000419892372519317,0.0507879823363534,0.0207915449280961,2.48395887566882,-0.000371088776980813,0
0.4,0.000954430548140743,0.000548955580093769,-0.0474998844567402,-0.027486913094119,-0.0010178585040212,-0.000419826113923421,0.0507884187265164,0.020791968115293,2.48395657916138,-0.000358804956172105,0
0.41,0.000954352608508887,0.00054895485854046,-0.0475005364771174,-0.0274868650443812,-0.00101781121946303,-0.00041976262294073,0.0507888251580253,0.0207924013680364,2.48395437095508,-0.000346993448853282,0
0.42,0.000954277433529783,0.000548954164706015,-0.047501150846519,-0.0274868426527761,-0.00101776561082935,-0.000419701389687276,0.0507892271188574,0.0207927934494464,2.48395224765432,-0.000335636094550908,0
0.43,0.000954205431082305,0.000548953497527539,-0.0475017546616421,-0.0274867975036834,-0.00101772192799537,-0.000419642734277699,0.0507896029215916,0.0207931952333061,2.4839502059946,-0.000324715431062335,0
0.44,0.000954135844037995,0.000548952855980752,-0.0475023165414747,-0.027486775099694,-0.00101767970869916,-0.000419586054903543,0.0507899694619666,0.0207935539107705,2.48394824283698,-0.000314214667607074,0
0.45,0.000954069313109343,0.00054895223908223,-0.0475028747926381,-0.0274867299416169,-0.00101763934509258,-0.000419531856156215,0.0507903142079683,0.020793927457416,2.48394635516267,-0.000304117659008641,0
0.46,0.000954005081169183,0.000548951645885525,-0.0475033975798125,-0.0274867075251523,-0.00101760037487034,-0.00041947953642673,0.0507906537671043,0.0207942627209799,2.48394454006975,-0.000294408880877451,0
0.47,0.000953943293950561,0.000548951075480699,-0.0475038979721457,-0.0274866851021141,-0.00101756288758467,-0.000419429208752822,0.0507909781821175,0.0207945838081571,2.48394279476735,-0.000285073405732939,0
0.48,0.000953883951453478,0.000548950526992655,-0.0475043815476634,-0.0274866626724414,-0.00101752688368904,-0.000419380870922951,0.0507912909182295,0.020794894997435,2.48394111657183,-0.000276096880059537,0
0.49,0.000953827082994369,0.000548949999579905,-0.0475048551001743,-0.0274866174959436,-0.00101749238153877,-0.000419334544013342,0.050791578184509,0.0207952154348971,2.48393950290315,-0.000267465502233187,0
0.5,0.000953772280694184,0.000548949492433009,-0.0475053033821669,-0.0274865950551082,-0.00101745913223081,-0.000419289903173421,0.0507918667084014,0.0207955051256563,2.48393795128027,-0.000259166001303539,0
0.51,4.65884440300725,-0.035519197936369,7.05908782895423,1.78430054884779,-0.396896665927621,4.64204328086561,1.23119945213254,7.17625231820738,0.0776690988794213,23.9176734390354,683.450416912283
0.52,4.62054902099503,0.0436124704852447,8.97538238827694,-2.1714274532181,-1.55150486287429,4.35249445300938,-5.13170480105886,7.6771213377913,0.351859719941605,50.9086460969866,683.450416912283
0.53,4.59483688093235,-0.0306820432052588,10.2624164290119,1.55626904525286,-3.39869139068823,3.09230725850668,-6.48940730380649,8.10103432587275,0.825887136563234,78.6173240824125,683.450416912283
0.54,4.63668105367206,0.0547202228166634,8.17190789809199,-2.71472714055902,-4.62446564336068,0.340768263844012,-8.32386989399507,-2.20522382773915,1.50904217493322,108.257173736813,683.450416912283
0.55,4.62623694898131,-0.0204525628875549,8.69580644327292,1.05315098259855,-3.06489167152536,-3.46538968332034,-6.57546139887031,-5.7870099432247,2.41302617162019,137.742129096072,683.450416912283
0.56,4.64098040895658,0.0141333183441139,7.96034959219741,-0.667291596136509,1.71032622265934,-4.31435778756121,3.57568586624785,-7.14331255722352,-2.76112525679143,164.771002766823,683.450416912283
0.57,4.4548631595935,0.00489243728364036,10.3030027876495,-0.207256236791899,4.42250376067927,0.535994583390239,10.2016274146682,1.45657807284489,-1.44908924897849,193.719597849839,683.450416912283
0.58,4.19271889001913,0.00441740393916223,12.451255301915,-0.173813518345442,-0.287142214432078,4.18287706643069,-1.03921522228978,12.4090290294764,0.0695931219369403,219.882789369437,683.450416912283
0.59,4.02823984651377,0.0185826802938127,9.96360869215797,-0.888032964832222,-3.94790871983904,-0.800673664402058,-9.57504996306428,-2.89491259313598,1.77550499855509,245.957665154657,683.450416912283
0.6,3.8535050115308,0.0525849007113051,8.95352015975099,-2.57598262931108,1.8833813524077,-3.3623118128869,6.71179491831334,-6.46165758393952,-2.61734898984496,269.392139751218,683.450416912283
0.61,3.59939370261758,-0.0399866487638294,11.8340799693789,2.05205290725233,1.86034070385956,3.08161750126225,7.97307760632653,8.98256106794226,-0.554236905937698,292.919697181288,683.450416912283
0.62,3.46686615087653,-0.0138915117652642,9.39769026643821,0.740928490181573,-3.44764299645873,-0.364844694577901,-9.42441440691565,-0.214407225136969,1.67222139337292,314.958151476099,683.450416912283
0.63,3.26707831881431,0.0153335857977572,10.9496547010224,-0.706148730206879,2.57794115445264,-2.00705138556524,9.10256328072969,-6.12673859578702,-2.22762600534633,335.322525027727,683.450416912283
0.64,3.1822763078479,-0.0288409217787053,6.96438910322896,1.50732565137915,-0.982026984331852,3.02710047740461,-0.651024967454392,7.09583770193702,0.304637024731511,354.955493441034,683.450416912283
0.65,2.92521296425792,0.0334990967183725,11.9235634303342,-1.6190810608353,-0.509510018605118,-2.88069307922322,-0.344648609966704,-12.028050785327,2.97798386312165,373.833224297505,683.450416912283
0.66,2.85118354697361,0.0522255121795796,8.13335567248568,-2.55846530097469,1.4070873367889,2.48033875696522,1.63491945154179,8.36804980735755,-0.49771048915235,391.765420071092,683.450416912283
0.67,2.69457207184652,0.0689453089669139,8.86557176734013,-3.39815802660601,-1.79726821329608,-2.00880538516783,-3.15080304160351,-8.95646587269037,2.43729736871135,408.778298499734,683.450416912283
0.68,2.55735807476889,0.0303029263347221,8.99334434313255,-1.46407301187439,1.83727123634113,1.77916637615587,5.35513212441915,7.37199512942509,-0.789614904022149,424.896568933769,683.450416912283
0.69,2.37062298345596,0.0761529822784419,11.9287823570448,-3.76049841868424,-1.68792798610569,-1.66629880877373,-5.48925819927669,-11.2385604638825,2.38185881782276,440.184390196243,683.450416912283
0.7,2.26436327700186,0.0431343718692557,11.1645217679911,-2.10475873595613,1.35158616231943,1.8172552022481,4.77852950821368,10.3073862537339,-0.620443093238432,454.702767120959,683.450416912283
0.71,2.16854336487484,0.07745944816825,10.1657924410193,-3.82060011779013,-0.870291360660539,-1.98775582982741,-0.189849810734016,-10.8583736472506,2.76461293951981,468.550580072799,683.450416912283
0.72,2.07673783752569,0.102298919583414,9.2475038921068,-5.06357711724117,0.174093309850322,2.07195478575768,-4.74057928495335,9.41716780671609,-0.0346071551845741,481.726923949243,683.450416912283
0.73,2.00760673604059,-0.0136282958226658,7.40833937109603,0.715556795601167,0.797503356395564,-1.84246002224754,2.23801405182608,-7.09836649299623,-2.7398825416213,494.346627360366,683.450416912283
0.74,1.87522542185058,-0.00543609907756026,8.97311701734404,0.305411438791951,-1.50345689116495,1.12076639418591,-6.99532154433183,5.62810639960734,0.927308507216272,506.224382015118,683.450416912283
0.75,1.7895042141267,-0.0132855167714079,8.51455764085618,0.707733639837342,1.78896090928325,-0.046051084564446,8.4864125630699,-0.989636566517767,-1.60395644545571,517.410536722893,683.450416912283
0.76,1.66906359310176,0.0672995689020726,10.0713314984922,-3.31833935731989,-1.3622866961211,-0.966683747336031,-5.94422278558033,-8.78119067770692,2.22823864367312,528.010171166904,683.450416912283
0.77,1.58944041693868,-0.0553368563789144,9.74333786853076,2.79578063751514,0.177035871906332,1.58051931551958,4.18672324485692,9.23148799839034,-0.146347500330211,538.288615075914,683.450416912283
0.78,1.46833315535091,0.00565901519322287,11.6525736728081,-0.256100879164658,0.934017350917442,-1.13298096530387,7.64380778363164,-8.79887853237114,-2.44830209114133,547.931769527194,683.450416912283
0.79,1.43393963209888,0.0292663173917512,9.50419808147525,-1.42111751022792,-1.43415887793706,-0.015089687599936,-9.45570731796169,-1.71433814250279,1.60172446197139,557.016827347355,683.450416912283
0.8,1.30898521963153,0.017188413271401,12.0497380259617,-0.837581879597714,0.716374092548939,1.09569425766921,5.75395436520261,10.6202513653163,-0.565917467401422,565.798063799716,683.450416912283
0.81,1.24585149428845,0.0155489779403203,11.6218601054324,-0.754279923132477,0.550979388810473,-1.11750142265761,5.94137071180124,-10.0168200831218,-2.67104390605759,574.083317711051,683.450416912283
0.82,1.21486293763067,0.0466841276596364,9.86575902968247,-2.29400124576361,-1.21461683073305,0.0527002799230293,-9.87699929468335,-2.24511199723994,1.56584371097606,581.820793177072,683.450416912283
0.83,1.12605676970726,0.00126490927625839,11.1015835960884,-0.0505781494079472,0.465053065258398,1.02553941664511,4.5274216034758,10.1365758574835,-0.424613902376077,589.344274767811,683.450416912283
0.84,1.10991880860318,0.0771460051067434,8.87667101525414,-3.8289473206052,0.72537661401797,-0.843623159728831,8.96327574345746,-3.62157615462794,-2.36202219199953,596.322210906417,683.450416912283
0.85,0.971206038893683,-0.0202877793796862,12.9330419501928,1.02389931412828,-0.85976630284481,-0.452166637942566,-12.027353781751,-4.86361027422207,2.0340765351101,603.067750948307,683.450416912283
0.86,1.00269679988277,0.0517025045039461,8.57995931833826,-2.56383595919434,-0.143597851927002,0.993707038512397,-4.17800447007069,7.92043151463775,0.19503158765756,609.427200653727,683.450416912283
0.87,0.897417374132894,-0.0237861284450182,11.2497700068812,1.21801442484506,0.897731809153661,-0.00114984158771805,11.2115977497095,-1.53001968796597,-1.59857604184863,615.456883915583,683.450416912283
0.88,0.860687577819969,-0.0167412808887847,10.5806235735673,0.856556475358766,-0.161035667015793,-0.845654120221844,-3.01919237080337,-10.1768247321593,2.93396968432451,621.164662684913,683.450416912283
0.89,0.842885266887082,0.0556247232412546,9.14911836255599,-2.75401112935062,-0.773762323634461,0.338882796103275,-9.54043352913783,0.52064593415204,1.22389118901364,626.540608459978,683.450416912283
0.9,0.799069415286712,0.0161001040022696,9.05731934552597,-0.789090156450436,0.360244820808207,0.71343872398153,3.20738097851343,8.50707965523517,-0.447447150004269,631.703987581741,683.450416912283
0.91,0.726001912000874,-0.0500541702868373,10.6057860426661,2.52129923623804,0.657619407031882,-0.311642281609965,8.01509613611491,-7.38903791777396,-2.08217839038061,636.548336402655,683.450416912283
0.92,0.746912410009717,-0.0091040368476591,7.52109703280547,0.475298030650828,-0.0959939855627629,0.740774045474882,-0.403502620377137,7.52529032198523,0.116679624792192,641.12895015498,683.450416912283
0.93,0.732853946664375,0.0241412729221145,6.29301035664544,-1.20907398024899,0.730460855101426,0.0639112459927394,6.10261989080022,1.95496028270944,-1.45059461118693,645.527908614201,683.450416912283
0.94,0.660612415033637,-0.0340814298003684,8.06216818208779,1.72973848965627,0.135639672734942,-0.647435082409171,-0.464599545347332,-8.23253899482597,-2.9866213563514,649.644624040813,683.450416912283
0.95,0.579012579445564,0.0708352461869536,10.3887466659887,-3.55131081525859,-0.580557609652578,-0.0567984254452232,-9.36760704222225,-5.72588893528089,1.7900533321984,653.592937984791,683.450416912283
0.96,0.537026084539095,-0.0219212841105236,10.8554588869457,1.12349987791805,-0.185346597188363,0.504503911861088,-2.25527141081581,10.6778738747659,0.311279723985205,657.244063207073,683.450416912283
0.97,0.514983423767591,-0.0128949243618784,10.361189837154,0.646322810147921,0.462767116355021,0.226320131340866,9.68806468697051,3.73006576852685,-1.14097453726802,660.771274697621,683.450416912283
