t,iq,id,vq,vd,ia,ib,va,vb,theta_e,omega,r
0,0,0,0,0,0,0,0,0,0,0,0
0.01,0.000572298998130702,0.000323168751417364,-0.0280320800605136,-0.0161651546730503,-0.000656666936174196,-2.74357447440029e-05,0.0323417566512958,0.00105854373128733,2.12660020047902,-0.00144101697596864,0
0.02,0.000734475808555559,0.000411106896285374,-0.0360223060956812,-0.0205638988312546,-0.000840831276329288,-3.82930577676465e-05,0.0414501781259661,0.00153727190786302,2.12658824726649,-0.00177277268348743,0
0.03,0.00080100656146341,0.000447110671942221,-0.0393041645770147,-0.0223648286207154,-0.000916344751655718,-4.27990722455563e-05,0.0451882833732194,0.00173837801201328,2.12657504603854,-0.00184566072109458,0
0.04,0.000795695853055155,0.000443945412112912,-0.0390813942518992,-0.0222065044807435,-0.000910163899752108,-4.26742907768752e-05,0.0449155321661508,0.00175476156703168,2.12656221167876,-0.00173404504130323,0
0.05,0.000814726650357868,0.000455223570854987,-0.0400444432950861,-0.0227706457614794,-0.000932281321371366,-4.31225241303922e-05,0.0460312987456566,0.00178305440081229,2.1265498282614,-0.0016893254055547,0
0.06,0.00081862304699786,0.000458009174884622,-0.0402680232065397,-0.0229099749560669,-0.000937061470494079,-4.28006760463811e-05,0.0462947595711764,0.00178210036109204,2.1265379363228,-0.00160889234202583,0
0.07,0.000828671287228095,0.000464562443416877,-0.0407894766749704,-0.0232377932458393,-0.000949055349354468,-4.25242280517362e-05,0.0469107072371443,0.00177819820753174,2.12652679955999,-0.00155025138887519,0
0.08,0.000820278426022527,0.000460313112178862,-0.0404105323991456,-0.0230252301468823,-0.000939684139955395,-4.16962175511477e-05,0.0464766665649333,0.00175835636641312,2.12651603950543,-0.00144640154683297,0
0.09,0.000817165799881334,0.000459260321856089,-0.0402871762005015,-0.02297256941562,-0.000936484906831865,-4.09390645126584e-05,0.0463441089793685,0.0017375484667057,2.12650595980315,-0.0013615008716604,0
0.1,0.000815488250805258,0.000458997929015808,-0.0402321435952116,-0.0229594372785324,-0.000934921742632841,-4.02681163526701e-05,0.0462904458429241,0.00171923299058024,2.12649646917445,-0.00128482854536589,0
0.11,0.000814235056464149,0.000458931062266648,-0.0401962757341646,-0.0229560958835721,-0.000933822194955998,-3.96554573284951e-05,0.0462582274980114,0.00170273599097806,2.1264875204613,-0.0012133915775452,0
0.12,0.000813139373980562,0.000458912646564508,-0.0401666565224321,-0.0229551697938716,-0.000932881988330588,-3.90852215384418e-05,0.0462325906161998,0.00168750744335628,2.12647907937892,-0.00114623169525106,0
0.13,0.000840789412717782,0.000475170692163104,-0.0415381707206151,-0.0237684208677332,-0.000964948641433748,-3.98515071765123e-05,0.0478267705085807,0.00171973256066751,2.12647090230069,-0.00115602712431082,0
0.14,0.000856244428043268,0.000484534899157947,-0.0423628317826767,-0.0242368124602569,-0.00098301845831247,-4.00412246830615e-05,0.0487744551469876,0.00175645096587322,2.12646302359377,-0.00113630088699199,0
0.15,0.000821984131741277,0.000465237325561605,-0.0406644938461967,-0.0232715331732168,-0.000943733288743455,-3.83557250959765e-05,0.0468224522863961,0.0016802612557768,2.12645551042813,-0.00098974579545342,0
0.16,0.000812407814065781,0.000460464942901766,-0.0402165109938319,-0.0230328221987112,-0.000933080504187858,-3.73522783936955e-05,0.0463159574103814,0.00164643375639119,2.12644876088878,-0.000913362264302534,0
0.17,0.000809331457616554,0.000459283677159635,-0.0400841927157964,-0.0229737355222657,-0.00092984408135639,-3.67272209608014e-05,0.046172387690477,0.00162654372348494,2.12644248192935,-0.000857509621534474,0
0.18,0.000807989974537026,0.000458990315008194,-0.0400354130143098,-0.0229590558354737,-0.000928549878985494,-3.62633487103753e-05,0.046123212513924,0.00161301192747366,2.12643658147925,-0.000809063116933028,0
0.19,0.000807132981136562,0.000458916541771664,-0.0400093010745845,-0.0229553748339347,-0.000927783094211274,-3.58688116029951e-05,0.046099096006508,0.00160210911799181,2.12643102097868,-0.000764470033182359,0
0.2,0.000806431638486479,0.000458897127100211,-0.0399898872350362,-0.0229544070025006,-0.000927177202804615,-3.55104972117378e-05,0.046082100509585,0.00159244922426682,2.12642577670195,-0.000722691488315011,0
0.21,0.000805798108643242,0.000458891217484059,-0.0399729416346178,-0.0229541112672554,-0.000926636032592132,-3.51767604952563e-05,0.0460675559003889,0.00158353413561217,2.1264208295798,-0.000683353211769315,0
0.22,0.00080520776910401,0.000458888709091367,-0.0399573117438582,-0.0229539799084298,-0.000926133336730993,-3.48631804704595e-05,0.0460542152590649,0.00157518643473827,2.12641616249015,-0.000646260803701108,0
0.23,0.000804652878086119,0.000458887100482237,-0.0399426650862921,-0.022953890724651,-0.000925661219655984,-3.45677830684205e-05,0.0460417317042304,0.00156733380955768,2.12641175950732,-0.000611272432830243,0
0.24,0.000804129665942014,0.000458885769936741,-0.0399288596554591,-0.0229538308813221,-0.000925216151806859,-3.42890935161232e-05,0.0460299778564698,0.00155991155088617,2.12640760566623,-0.000578265181837121,0
0.25,0.000803636197913022,0.000458884560635473,-0.0399158412150974,-0.0229537724526326,-0.000924796407628495,-3.40262108254707e-05,0.046018892940663,0.00155291410963356,2.12640368686406,-0.00054712594067133,0
0.26,0.000808079196884134,0.000461724455933612,-0.0401427551941974,-0.0230958246370944,-0.000930069144526222,-3.39536160719182e-05,0.0462866069683149,0.00155174920957738,2.12640005552953,-0.000531046297307545,0
0.27,0.000797062916827983,0.000455499034630339,-0.0396157610960784,-0.0227844229772739,-0.000917426393411188,-3.34286793643161e-05,0.0456746370108221,0.00153817799962206,2.12639641808736,-0.0004746158017128,0
0.28,0.000795950449680851,0.000455135501265277,-0.0395234291552323,-0.0227662503025515,-0.000916289621494434,-3.31477359819745e-05,0.045586612990287,0.00150476612830379,2.12639312092337,-0.000446598580777923,0
0.29,0.000800259225505117,0.000457954333559732,-0.0397894832897728,-0.0229072406076778,-0.000921437190802227,-3.30227654609305e-05,0.045887018832768,0.00152517388069246,2.12639008629097,-0.000434714373723199,0
0.3,0.000788560392610517,0.000451753665938951,-0.0392259371517562,-0.022597078192682,-0.000908227560487364,-3.21179989181373e-05,0.0452446463275176,0.00149133060639206,2.12638760726423,-0.00038532921500946,0
0.31,0.000797858904417626,0.000457117096161769,-0.039686889325736,-0.0228653627665351,-0.000918956475826258,-3.24633100414289e-05,0.0457777756492183,0.0015064047956325,2.12638495264964,-0.000389349233506896,0
0.32,0.000800054581579006,0.000458442497964794,-0.0398012995110663,-0.0229316626365367,-0.000921521060552098,-3.24929593096073e-05,0.0459099507770739,0.00151030251678087,2.12638235036275,-0.000375249670928545,0
0.33,0.000800403245669757,0.000458769615259114,-0.0398252903034597,-0.0229480250858827,-0.00092198989812776,-3.23966559082789e-05,0.0459389671246327,0.00150894089316247,2.12637986968241,-0.000357261167460528,0
0.34,0.000800280872366717,0.00045884995920998,-0.039825931941167,-0.0229520411213539,-0.000921928382918398,-3.22616879983234e-05,0.0459416340039926,0.00150575949672536,2.12637752265074,-0.000339062844475691,0
0.35,0.000800047317183465,0.000458869323445604,-0.0398207815149263,-0.0229530065609016,-0.000921740240424288,-3.2120008008434e-05,0.0459377707700562,0.00150212094122323,2.12637530666204,-0.00032157265853961,0
0.36,0.000799795788416887,0.000458873639879395,-0.0398144015896087,-0.0229532345791114,-0.000921528886306795,-3.19817486656513e-05,0.0459324738144134,0.00149846617264911,2.12637321559989,-0.000304987884668898,0
0.37,0.000799550648264297,0.000458874262634083,-0.0398079998307154,-0.0229532572812395,-0.000921321007436853,-3.18501068031605e-05,0.0459270498270172,0.0014949797750096,2.12637124273571,-0.000289319462670089,0
0.38,0.00079931726597874,0.000458873997284574,-0.0398018564173157,-0.0229532348489246,-0.00092112264556254,-3.17255245428437e-05,0.0459218213442243,0.00149167312895572,2.1263693814704,-0.000274531827841227,0
0.39,0.000799096354011504,0.000458873536038091,-0.0397960235963924,-0.0229532197926936,-0.000920934771351332,-3.16077836402715e-05,0.0459168604620409,0.0014885288864476,2.12636762551317,-0.000260579408398903,0
0.4,0.000798887723855215,0.00045887304869665,-0.0397905091405146,-0.022953201780489,-0.000920757314465794,-3.14966348117263e-05,0.0459121683452999,0.00148555964877188,2.12636596891092,-0.000247416062727121,0
0.41,0.000798690909851191,0.000458872575981424,-0.0397853063717231,-0.0229531822685976,-0.000920589901001122,-3.13917925817614e-05,0.0459077400985493,0.00148276039581028,2.1263644060439,-0.000234997435330706,0
0.42,0.000798505490650178,0.000458872126772152,-0.0397804099493794,-0.0229531451316497,-0.000920432177886265,-3.12930222002522e-05,0.0459035626888679,0.00148014176497952,2.12636293160844,-0.00022328146445601,0
0.43,0.000798330388103022,0.000458871702143122,-0.0397757808821959,-0.0229531255412199,-0.000920283229898458,-3.11997494238401e-05,0.0458996215483489,0.00147765307762181,2.12636154060105,-0.000212228411742881,0
0.44,0.000798165122653065,0.000458871301302409,-0.0397714092643153,-0.0229531073678656,-0.000920142649379996,-3.11117175789298e-05,0.0458958997620275,0.00147530259416559,2.12636022830123,-0.00020180077252633,0
0.45,0.000798009286841211,0.000458870923055107,-0.0397672879502296,-0.0229530877024919,-0.000920010089701191,-3.10287086142945e-05,0.0458923897323797,0.00147308881135269,2.12635899025509,-0.000191963160386081,0
0.46,0.000797862240388691,0.000458870566163196,-0.03976339746833,-0.0229530694579255,-0.000919885006392328,-3.09503819617717e-05,0.0458890764596927,0.00147099879035361,2.1263578222615,-0.000182682190154838,0
0.47,0.000797723575836351,0.000458870229431373,-0.0397597292350778,-0.0229530497250611,-0.000919767052798673,-3.08765200367285e-05,0.0458859511237148,0.00146903029236424,2.12635672035667,-0.000173926365435355,0
0.48,0.000797592492184574,0.000458869911724416,-0.0397562543619838,-0.0229530504325744,-0.000919655547932177,-3.0806697855178e-05,0.0458830007524857,0.00146714927749443,2.1263556808007,-0.000165665971921614,0
0.49,0.000797469078039133,0.000458869611969516,-0.0397529877564324,-0.0229530306360857,-0.000919550566640938,-3.07409597763196e-05,0.0458802164224006,0.0014653982318254,2.12635470006628,-0.000157872976614217,0
0.5,0.000797352648815583,0.000458869329153924,-0.0397499051294048,-0.0229530122669424,-0.000919451526888959,-3.06789425006914e-05,0.0458775890698709,0.00146374555820001,2.12635377482456,-0.000150520932702171,0
0.51,2.87494864984982,-0.0365835528982633,2.46980727558357,1.83177144833861,-0.124844154347052,2.87246967481666,1.7550700742132,2.52488883954825,0.0307107154737077,9.45788879040323,364.703906657501
0.52,2.82554231486458,-0.0644237065168047,1.44939839950063,3.2262393574275,-0.453214468766814,2.78970185366682,2.99570342399808,1.8801960289649,0.138256235646374,19.8498047525736,364.703906657501
0.53,2.74915529785651,0.00500183118294922,1.83843834434134,-0.245323281317533,-0.86325372207198,2.61010974508287,-0.813230592749266,1.66694182901432,0.32122931967439,30.0408239265109,364.703906657501
0.54,2.63011886903586,-0.00956925997004687,4.38513627416408,0.485274072254827,-1.44598428455473,2.19698572703957,-1.99117370967436,3.93702150439822,0.578457038938213,40.1230825142445,364.703906657501
0.55,2.59781580354307,0.0239089730939042,2.55485849189588,-1.1877336714113,-2.03583804380161,1.61387175684519,-2.74585185408137,0.631118676046395,0.909706726965557,50.2898259721176,364.703906657501
0.56,2.55366760048607,-0.012376231780149,1.16996087285104,0.628387353816778,-2.47467388726391,0.630365399256257,-0.97428058679551,0.902472408792987,1.31652760360339,60.7836915691543,364.703906657501
0.57,2.45791500527489,0.0259340290114465,2.36302506245633,-1.28936226554068,-2.39931001615349,-0.534163077535102,-2.0075516717962,-1.79334290716116,1.8004065286903,71.082425370893,364.703906657501
0.58,2.3668609648593,-0.0278219657496608,3.72269628986667,1.4015151551771,-1.65426652999889,-1.69298763624497,-3.62367111293981,-1.64064623305079,2.35600774138369,80.3474120076785,364.703906657501
0.59,2.3513460132685,0.0318852620324567,1.56005410001218,-1.58288784039291,-0.416869832366692,-2.31431723990276,1.30576609119284,-1.79840974900591,2.97693679988919,89.0080620570545,364.703906657501
0.6,2.28798296872372,0.0464976426060634,1.78065009280483,-2.31170962008744,1.09536183804594,-2.00928110021727,2.89069008722909,-0.398279977159473,-2.62216006307925,97.7088976504114,364.703906657501
0.61,2.24286195958076,-0.0202679940657671,0.827831038023456,1.02463551041438,2.14789765157041,-0.6460466234694,0.486576508196237,-1.22410189869499,-1.87200582392331,106.978850940742,364.703906657501
0.62,2.193599198232,0.0262877475261766,0.389819971670803,-1.30222684965318,1.92284273635712,1.05605127687662,-0.301104061827247,1.32555298733103,-1.05657385116016,115.319917222307,364.703906657501
0.63,2.08217033374581,0.0262015670450662,3.30280707347821,-1.2946315199896,0.403843211621885,2.04279966743528,-0.673391667945437,3.48297990213982,-0.18259132043669,123.131052347826,364.703906657501
0.64,2.03522935995481,0.0275738038834951,2.77758784688652,-1.36781233161117,-1.3674172948925,1.50767662444953,-2.89434450197879,1.09939743748312,0.750199973681265,131.495447797928,364.703906657501
0.65,1.97656722121606,0.0356059958027821,2.98854525875258,-1.76731589042816,-1.95333935867765,-0.304222150350175,-2.64080419318645,-2.25409880737764,1.74331183158293,139.260491933858,364.703906657501
0.66,1.96208544449374,0.0413988131199373,1.22925870462781,-2.05237204570655,-0.713481963853303,-1.8282332018859,1.50460379587257,-1.85996650355505,2.79060924141297,146.545295344419,364.703906657501
0.67,1.86107082646195,5.24371196820583e-05,3.56862249529629,0.00956645141913599,1.27118513410146,-1.3592913516597,2.43059706287984,-2.61292096107926,-2.38964819199615,154.313811570577,364.703906657501
0.68,1.84305064307259,-0.0284693995086238,2.08887931089588,1.4420328470292,1.72944163064603,0.637712965076809,2.44875241854065,-0.668196902186234,-1.23297148279162,161.181470273115,364.703906657501
0.69,1.77676355010019,-0.00589246771107657,2.93313562785483,0.30686530791226,0.0396248102276216,1.77633141855758,0.381902726955972,2.92431209615783,-0.0256197982976667,168.370815856256,364.703906657501
0.7,1.69351807238195,0.015145759912872,4.73604650452962,-0.74159626903959,-1.59324620722208,0.574281619678063,-4.7148549047953,0.866166696455327,1.23378777295409,175.055143448171,364.703906657501
0.71,1.66451828397562,-0.00120453494431316,3.91845793080116,0.0755462840103882,-0.940050428799471,-1.3736548911235,-2.27763454754245,-3.18942011411595,2.54072889734767,181.687914252961,364.703906657501
0.72,1.5783164869152,0.00770672835892482,5.95795332264186,-0.370003455750346,1.07618187926979,-1.15454531711045,4.35306041638291,-4.08472463739805,-2.38642630992588,188.093501404968,364.703906657501
0.73,1.61256560194263,0.0321914446819876,2.10312329339086,-1.59527648144422,1.36175556815786,0.864306590435571,0.871231366135551,2.4917846106985,-0.985291722607885,194.338853239388,364.703906657501
0.74,1.5914470007307,0.0385119327691815,1.00742220747116,-1.90936748453052,-0.675146913041859,1.44165299948025,-2.1582512486556,0.0503511942757228,0.462173997683567,200.400020529772,364.703906657501
0.75,1.48574274643527,0.0248843979465688,4.21379577103141,-1.23374931062128,-1.38796587721821,-0.530661347305481,-3.45034900404879,-2.7153828296725,1.95272521081011,206.409361534709,364.703906657501
0.76,1.46712744792839,-0.034204225029823,3.15237173865602,1.72974263017712,0.528704214458484,-1.36897944874589,-0.560820256476429,-3.55175136872712,-2.79634589033425,212.031198891631,364.703906657501
0.77,1.42017988763674,-0.0336489037420011,3.47971291001368,1.69468674399015,1.32271921548928,0.518128400057701,3.84971370580995,-0.400086840162056,-1.22114187446258,217.798348596334,364.703906657501
0.78,1.39922870199051,-0.0168608228813905,2.67720236099462,0.86424091356061,-0.553770474661659,1.28509280179109,-0.232023463005238,2.80365653228107,0.394823609557666,223.067675805197,364.703906657501
0.79,1.39063631625199,0.0313858003175171,1.17466148173648,-1.55589240656833,-1.24823081218617,-0.613819413223091,-0.324223188369651,-1.92237095837816,2.05038896320152,228.51254067089,364.703906657501
0.8,1.28549646151459,0.0257352409712273,4.64260084265347,-1.27546252588925,0.707089495206151,-1.07386586730536,3.68127580324069,-3.10302363826463,-2.5392814540779,233.654568992073,364.703906657501
0.81,1.26433466377201,-0.0166830797786275,3.93417387336951,0.852921854117056,0.902438732981159,0.885677593925544,3.4332917193939,2.10183437137065,-0.807965897587023,238.594789971417,364.703906657501
0.82,1.2367147717613,0.0398290213624165,3.53889295059485,-1.98145139022508,-0.989802367224547,0.742523434964833,-4.03517990416002,0.408945068020098,0.959378608780217,243.592904606648,364.703906657501
0.83,1.22126189905818,0.0756823184769885,2.67564922768523,-3.76581874666809,-0.522971805969917,-1.10621378113898,2.50579183009969,-3.8809144446348,2.76186632872084,248.27273763024,364.703906657501
0.84,1.14145069436914,-0.0432057390470165,5.00275089416541,2.17844047734412,1.13902836222327,-0.0859698413013024,4.72474833395964,-2.72944547539417,-1.68396350537017,252.882213039059,364.703906657501
0.85,1.13066722347994,-0.0270458531531488,3.91326383784076,1.36317778452995,-0.236207751870323,1.10604961298352,0.614006598143792,4.09815610173942,0.186483501920882,257.461733875563,364.703906657501
0.86,1.12355268579772,0.00463067433446579,2.7495021848847,-0.217727537461036,-0.978188551108842,-0.552756039666368,-2.28026355273553,-1.55163322835021,2.08926591261104,261.771075476405,364.703906657501
0.87,1.12228095487317,0.00578367878686234,1.29696453740405,-0.2703303921204,0.862959781815911,-0.717529377502816,1.17328635642347,-0.615300461578093,-2.25928334766685,265.959242557678,364.703906657501
0.88,1.08762592447478,0.0114588659479381,1.51909222701169,-0.560879507494625,0.326262109058069,1.03760035340752,-0.0964203703375242,1.6164560396988,-0.294115184826602,270.162159724309,364.703906657501
0.89,1.05833823646835,-0.00790017756157804,1.54228542917446,0.402955504926317,-1.04838600138458,-0.145013887877326,-1.5815051298512,0.199647209468611,1.70078068651522,274.218062915042,364.703906657501
0.9,0.977771771143655,-0.0289653659283457,4.20199387388142,1.46824734120747,0.562668234189113,-0.800175660154237,1.0886589109902,-4.31593843174592,-2.55835024184283,278.012832663236,364.703906657501
0.91,0.96639540811963,-0.0418363088099878,3.38742884151141,2.10911183021881,0.431814329183394,0.865567297603974,3.48667642434844,1.94064792802946,-0.506015389057425,281.817085738416,364.703906657501
0.92,0.902973684941678,0.0166942629359326,5.2056238204621,-0.825831777400404,-0.903017098970785,0.0141524937206683,-5.20327863492914,-0.840481369226386,1.57361114463302,285.560397919382,364.703906657501
0.93,0.897919579153872,0.0339466720401301,4.17115708347113,-1.69275986587675,0.43102420822442,-0.788435209192853,3.59123484286213,-2.71422542946002,-2.60351164992652,289.134072224155,364.703906657501
0.94,0.875658884408052,0.0190790295095276,4.05179753227255,-0.936276246883076,0.414813340460635,0.77140934903958,1.00667713259955,4.03488260098216,-0.471592744146159,292.550806783917,364.703906657501
0.95,0.840555624236848,0.0324310944715857,4.56631234242598,-1.60585250158015,-0.838733486699584,-0.0641223175936445,-4.35216699488308,-2.11863472879906,1.68566305779818,295.921895529283,364.703906657501
0.96,0.850717603983053,-0.0326631349229054,2.83934716656505,1.64621349679191,0.589040605722844,-0.614669412708428,0.653042651546473,-3.21643381784267,-2.41585873937782,299.250089649837,364.703906657501
0.97,0.825539532789439,-0.00414202905124006,2.92155573571893,0.213987145531312,0.168413879657046,0.808188988876815,0.819611355930479,2.81238611157761,-0.210461532977796,302.478731609191,364.703906657501
