t,iq,id,vq,vd,ia,ib,va,vb,theta_e,omega,r
0,0,0,0,0,0,0,0,0,0,0,0
0.01,0.000734269591793504,0.000355888121704097,-0.0342919646993063,-0.0178034646129179,0.000540937778721479,-0.000610896479081801,-0.0248081142796407,0.0296219455986634,-1.96553750455604,-0.00856959006334613,0
0.02,0.000915085884092214,0.000438978110948995,-0.043805582290733,-0.0219600816440495,0.000675850100379725,-0.000757172766925681,-0.0319894021876935,0.037119433903516,-1.96559646280722,-0.00714100943142198,0
0.03,0.000937575531854214,0.000471604637405654,-0.0456387217848949,-0.0235922337155189,0.000684027865330405,-0.000795967770331035,-0.0330521346515805,0.0393324651251418,-1.96563779229009,-0.00446274635305198,0
0.04,0.00087143578370373,0.000465334917018051,-0.0430801200512372,-0.0232785905489958,0.000625373307807208,-0.000764751682572717,-0.0308102738849367,0.0380593818225151,-1.96565804136733,-0.00190962465729863,0
0.05,0.00085903753139565,0.000476987610577458,-0.0427066552431103,-0.023861519579878,0.000609439516986725,-0.00077074388490971,-0.0302409554610192,0.0384540652144794,-1.96566715252894,-0.00104006050930609,0
0.06,0.000845689237558499,0.000479368721638296,-0.0421893171932252,-0.0239806483356938,0.000596199335461516,-0.000767809227739974,-0.0297174460104612,0.0383651323788425,-1.96567119212596,-0.00052825392142408,0
0.07,0.000849563842013706,0.000487036375101193,-0.0423748977080847,-0.0243642144690625,0.00059682560881321,-0.000776377707687141,-0.0297411665745873,0.0387905905246074,-1.96567179696173,-0.000546079603373438,0
0.08,0.000837967806391109,0.000481422339118342,-0.0418811903369156,-0.024083366311722,0.000588280642761556,-0.000766735546653573,-0.0293934435385934,0.0383414672891513,-1.96567308962786,-0.00026449979955735,0
0.09,0.000833212700500332,0.000480274884602383,-0.0416695132356277,-0.0240259649910051,0.000584332837739822,-0.000763847173061349,-0.0292201356060927,0.0382070543513199,-1.96567315839225,-0.000182966277740793,0
0.1,0.000831756098940158,0.000480040402557752,-0.0416000731494933,-0.0240142330249824,0.000583078693542347,-0.000763070267635234,-0.029160560536213,0.0381695059312431,-1.96567294987667,-0.000174876700818985,0
0.11,0.000831555167232902,0.000479992512396475,-0.0415874230301777,-0.0240118541801946,0.000582911786414229,-0.000762948659719507,-0.0291498059804783,0.0381624384278882,-1.96567276819612,-0.000185011709903386,0
0.12,0.000831691023374076,0.000479982742915159,-0.0415914235890892,-0.0240113650030819,0.00058304102487056,-0.000762991844763274,-0.0291536908070067,0.0381635228694591,-1.96567266467727,-0.000194811204117841,0
0.13,0.000868363209014686,0.000498199200740264,-0.0432630417598036,-0.0249226502173217,0.000609882166478643,-0.000793914888007423,-0.0303460451568814,0.0396477845472101,-1.96567410275349,-0.000678828506861553,0
0.14,0.000886257436366061,0.000508984922225077,-0.0443409486034787,-0.0254622128414283,0.000622248736985514,-0.000810755452578978,-0.0311333646664462,0.0405605425306986,-1.9656757853792,-0.000842855563183061,0
0.15,0.000844376193698839,0.000485907694771525,-0.0422466302307356,-0.0243077598070453,0.000592467337063649,-0.000773343325332433,-0.0296442857335767,0.0386892914904831,-1.96567701757862,-7.86494101247587e-05,0
0.16,0.000830876758443177,0.000481191231535513,-0.0416115618372476,-0.0240718170047083,0.00058182235647112,-0.000763795741372062,-0.029148915290557,0.038227152520521,-1.96567550254196,2.70234181534791e-05,0
0.17,0.000828570054834715,0.000480227512823453,-0.041478845250967,-0.024023606876253,0.000580065028939955,-0.000762017953884481,-0.0290450144800529,0.0381315541848472,-1.96567403298157,-4.39715498142954e-05,0
0.18,0.000829470516384792,0.000480030696378618,-0.0415017430916577,-0.024013749682106,0.000580972573479729,-0.000762182180244156,-0.0290699754659241,0.0381312388974103,-1.96567316063082,-0.000122617217151611,0
0.19,0.000830664997363574,0.000479990537034686,-0.0415472182878697,-0.0240117554233046,0.000582090887166798,-0.000762604387979274,-0.0291127335660794,0.0381468804789981,-1.96567275915917,-0.000171360355247544,0
0.2,0.000831441778146353,0.000479982350818492,-0.0415791092273845,-0.0240113445048471,0.000582811149716399,-0.000762895570383433,-0.0291423339116228,0.0381587652218556,-1.96567261439997,-0.000194500371791513,0
0.21,0.000831822456156678,0.000479980681348852,-0.0415954575130352,-0.024011260600148,0.000583163200857791,-0.000763040453842346,-0.0291574576939,0.0381649758568686,-1.96567257994428,-0.000203157742863116,0
0.22,0.000831970070766878,0.000479980338622537,-0.0416020897458997,-0.0240112442681807,0.000583299586105116,-0.000763096925013887,-0.0291635857504225,0.038167512215363,-1.96567258178372,-0.000205395983247046,0
0.23,0.000832011048955285,0.000479980266605445,-0.0416040777618013,-0.0240112398700367,0.000583337431993207,-0.000763112627565472,-0.0291654221440241,0.0381682731816271,-1.96567259029436,-0.000205428774942217,0
0.24,0.000832013842923005,0.000479980250610332,-0.0416043140694681,-0.0240112399423847,0.000583340012166487,-0.000763113691396679,-0.0291656399917467,0.0381683643431774,-1.96567259676203,-0.000204998367464669,0
0.25,0.000832007789326279,0.000479980246717145,-0.0416040943126998,-0.0240112400390718,0.000583334423283991,-0.000763111361041223,-0.0291654369771531,0.0381682799943311,-1.96567260022551,-0.000204645625517154,0
0.26,0.000838261108816837,0.000483367574210349,-0.041877823540379,-0.0241806876813741,0.000587803675370013,-0.000768643439817406,-0.0293529279804669,0.0384299802263389,-1.96567227951081,-0.000328807572158408,0
0.27,0.000826270010063976,0.000475554129748963,-0.0413621754518253,-0.0237898117199235,0.00057974032530749,-0.000756819010771256,-0.0290272885599951,0.0378708491934333,-1.96567335981473,-5.64921486595646e-05,0
0.28,0.000824629818038887,0.00047525672045274,-0.0410500692529233,-0.0237749316264767,0.000578340900919966,-0.000755913413994899,-0.0287449317790189,0.0377370435584585,-1.96567318381512,-4.30592075746949e-05,0
0.29,0.000829232278367234,0.000479014817790801,-0.0414781320278791,-0.0239629431935655,0.00058114395766548,-0.000761152460166931,-0.0290677506763162,0.038075240690503,-1.96567252286419,-0.000165697266772391,0
0.3,0.000814523346647259,0.000472929207341425,-0.0407644421767209,-0.0236585127295097,0.000569910115567781,-0.000749875174654794,-0.0285261987517372,0.037519607611594,-1.96566978284364,-0.000130677151552586,0
0.31,0.000829929176937225,0.000478539520007164,-0.0414641418965621,-0.0239391572844893,0.000581971792363763,-0.000760980514752708,-0.029064073576141,0.0380478375452589,-1.96567025953445,-0.000343381516326827,0
0.32,0.000833900340915643,0.000479686006967498,-0.0416626994755679,-0.0239965233044143,0.000585195521634732,-0.000763567053583575,-0.0292252434378271,0.0381772026776522,-1.96567129401389,-0.000331161476408556,0
0.33,0.000833949477160697,0.000479920200327538,-0.0416795547398563,-0.024008229279003,0.000585150223117321,-0.000763802556636709,-0.0292362703439841,0.0381945133860785,-1.96567202845991,-0.00027792854020367,0
0.34,0.000833178402917537,0.000479968000883489,-0.0416525704076756,-0.0240106249730916,0.000584419809122829,-0.000763550273174692,-0.0292104265123837,0.0381863551040088,-1.96567240784587,-0.000237622793492962,0
0.35,0.00083254848015128,0.000479977745953329,-0.0416274305407259,-0.0240111156725373,0.000583834495247198,-0.00076331703149615,-0.0291870266108978,0.0381771414183628,-1.96567256299126,-0.000216080344634256,0
0.36,0.000832199408918434,0.000479979731342092,-0.0416127192452825,-0.0240112156554277,0.000583511487199959,-0.000763184606113822,-0.029173407166353,0.0381715757409141,-1.96567261030536,-0.000206985553601817,0
0.37,0.000832047254113899,0.000479980137086949,-0.041606011952121,-0.0240112350698168,0.00058337088063947,-0.000763126451316173,-0.0291672083264381,0.0381690135919203,-1.96567261668499,-0.000204069599243543,0
0.38,0.000831996147792509,0.000479980221290808,-0.0416036137775406,-0.0240112396557325,0.000583323678309045,-0.00076310686610458,-0.0291649931139704,0.038168095129543,-1.96567261215889,-0.000203581188970663,0
0.39,0.000831986136076452,0.000479980239536385,-0.0416030485989127,-0.0240112412183783,0.000583314433804352,-0.000763103028616935,-0.0291644710165762,0.0381678790070123,-1.96567260721808,-0.000203783582124693,0
0.4,0.000831988464382885,0.000479980243838214,-0.0416030738252828,-0.0240112412919003,0.000583316583605437,-0.000763103926494985,-0.0291644943897004,0.0381678886904021,-1.96567260416961,-0.000204045980351367,0
0.41,0.000831992422503821,0.000479980244966309,-0.0416032044102349,-0.0240112413609455,0.000583320237792811,-0.000763105449360069,-0.0291646149538809,0.0381679389473054,-1.96567260272694,-0.000204215646263937,0
0.42,0.000831995100056219,0.000479980245280488,-0.0416032955822978,-0.0240112414335302,0.000583322709581059,-0.000763106479374987,-0.029164699102305,0.0381679740719798,-1.96567260218968,-0.000204298509273789,0
0.43,0.000831996497040079,0.000479980245360624,-0.0416033376573916,-0.0240112415096546,0.000583323999132912,-0.00076310701678008,-0.029164737915436,0.0381679903242734,-1.96567260205225,-0.000204330506760604,0
0.44,0.000831997079116687,0.000479980245373216,-0.0416033459397422,-0.0240112415880265,0.000583324536411019,-0.000763107240712667,-0.0291647455302888,0.0381679935827643,-1.96567260205155,-0.00020433932252214,0
0.45,0.000831997195532009,0.000479980245368976,-0.0416033335041054,-0.024011241667684,0.000583324643847839,-0.000763107285509306,-0.0291647340199379,0.0381679888731908,-1.96567260207946,-0.000204339880506345,0
0.46,0.000831997195532009,0.0004799802453635,-0.0416033158836542,-0.0240112417476624,0.000583324643832672,-0.000763107285517456,-0.0291647177238521,0.0381679821691929,-1.96567260210209,-0.000204338530042237,0
0.47,0.000831997195532009,0.000479980245360139,-0.0416032982503189,-0.0240112418276408,0.000583324643824032,-0.000763107285521946,-0.0291647014162407,0.0381679754599581,-1.96567260211511,-0.000204337330388836,0
0.48,0.000831997195532009,0.00047998024535797,-0.0416032804731692,-0.0240112419076192,0.000583324643820409,-0.000763107285523352,-0.0291646849761562,0.0381679686951894,-1.96567260212095,-0.000204336641458266,0
0.49,0.000831997195532009,0.00047998024535737,-0.041603262580651,-0.0240112419875976,0.000583324643818895,-0.000763107285524131,-0.0291646684297172,0.0381679618859355,-1.96567260212324,-0.000204336332374076,0
0.5,0.000831997195532009,0.000479980245357085,-0.0416032446297149,-0.024011242067576,0.000583324643818327,-0.000763107285524387,-0.0291646518294092,0.0381679550541678,-1.96567260212413,-0.000204336224464954,0
0.51,1.27823870533728,0.0557191973339798,-0.810838957172245,-2.78593911383041,-0.0726885168250229,1.27738607957643,-2.69063168054328,-1.08600999999778,0.100405834266405,30.0351102302644,253.416187788068
0.52,1.07651145425948,-0.0296229482363514,1.4414424408763,1.4859370032427,-0.476785568909848,0.965624125368348,0.747586237235635,1.93051286083807,0.43113172886418,59.5402694356482,253.416187788068
0.53,0.950051065571159,0.0766948612846826,0.799151089946082,-3.83075723747598,-0.737603822441613,0.603671872841441,-2.83695959907694,-2.6953670826516,0.965474825266482,85.7744038488978,253.416187788068
0.54,0.760655919094094,0.0219928721470055,3.90372282009346,-1.09632056961709,-0.758321241840972,-0.0634823428279223,-3.75608478917571,-1.52734989573667,1.68322088383008,109.902361069148,253.416187788068
0.55,0.661570358648256,0.0764092133791583,3.255749124881,-3.82303448488627,-0.423045970196716,-0.514340173845601,1.44572935653057,-4.80888361935062,2.5682678581896,130.63329811533,253.416187788068
0.56,0.63921688426068,-0.0440380047971569,0.0373670075394367,2.20852479173614,0.315206038108453,-0.557837543134575,-1.97682187430841,-0.985471118917946,-2.69605329510676,146.922176898934,253.416187788068
0.57,0.486998916951481,0.00904469482482287,3.81464744159107,-0.44336888995664,0.487040988078653,-0.00638964378970603,3.81217369213025,0.464158181279475,-1.56534471347658,161.484962752609,253.416187788068
0.58,0.407700077609312,0.062430839646212,4.2567639255362,-3.12580713970169,0.191824820103309,0.365130389606101,-1.56879760479733,5.04277537349608,-0.331779996693382,174.559697151198,253.416187788068
0.59,0.357650880080141,0.0179280102089207,3.97129893935568,-0.890681592022895,-0.288611953571394,0.211987513377213,-3.80503126780073,1.44439122648774,0.987369869075487,185.047407261638,253.416187788068
0.6,0.321094427539346,0.0427888256143381,3.25968578559683,-2.14495561191952,-0.252713066791406,-0.202653943625967,-0.700183956329643,-3.8387665239274,2.37918157779347,194.653380309217,253.416187788068
0.61,0.285953779755607,-0.0402661744342456,2.85147813323677,2.01640745467495,0.214026333543704,-0.193865049738024,0.276960748858273,-3.48139617268532,-2.44670040361699,202.682691503904,253.416187788068
0.62,0.225305270117632,0.0172515599257359,4.10354189901503,-0.853960746517533,0.191632320426454,0.119737775286762,2.79741280529363,3.12134372832341,-0.935898098858916,209.419520074578,253.416187788068
0.63,0.214233233037146,0.00643271100386703,3.026864850421,-0.323543332910779,-0.119712238602244,0.177781432768573,-2.02805140055514,2.27015387753595,0.622644957663737,215.515027065883,253.416187788068
0.64,0.154417058808948,0.0121311678572636,4.67582029475688,-0.59793513067818,-0.1302239364985,-0.0838660816279257,-3.35864442006975,-3.30761689270293,2.22135221582337,220.639605141437,253.416187788068
0.65,0.134227634025656,0.0264932484262669,4.45281884859279,-1.32940602214263,0.0679552919243192,-0.11874775049567,3.92229380589297,-2.49209296984402,-2.4269447792865,225.226475604478,253.416187788068
0.66,0.182962998279804,-0.0284258331897728,1.00038444561905,1.43159140700207,0.105698848255161,0.152023814613372,1.72641374638229,-0.264042746427488,-0.761681534541557,229.054433969714,253.416187788068
0.67,0.104090472799448,-0.0499141581616978,4.03841576738131,2.4926173897846,-0.113284624645008,0.0222000795413704,-1.74774814543901,4.41217857551177,0.930146163284704,232.385569724375,253.416187788068
0.68,0.0854391158351614,-0.013423397971853,4.24866362640416,0.680216230941746,-0.0289987222392659,-0.0814806985506063,-2.62621943781042,-3.40834390806343,2.64383741983773,235.076113703365,253.416187788068
0.69,0.0477656099455426,0.00767534849567462,5.50996211182929,-0.389040241236554,0.0425553747069291,-0.0230109658978634,5.32958246435912,-1.45140812271788,-1.90716879888112,237.515526331238,253.416187788068
0.7,0.0661374112551723,-0.0214223933059624,4.0264359112824,1.08054709838816,-0.0107084399014614,0.068690650145183,1.70288312290131,3.80525390075846,-0.15859439444802,239.575618428955,253.416187788068
0.71,0.0538097171037703,-0.0178474340102791,4.22647103210497,0.888931816595966,-0.0531905685801442,-0.0196158091767848,-4.25353728054419,0.748784189736823,1.60384697108578,241.188116023574,253.416187788068
0.72,0.0490331292778155,0.0204568558875454,4.02585735203369,-1.01482362288032,-0.00840905550357372,-0.0524596845693585,1.92912652609593,-3.67639296740606,-2.90528656095829,242.868797757109,253.416187788068
0.73,0.0227934061520873,-0.0461864771764801,4.95268587565631,2.3079698265527,0.000351882203838087,0.0515034583004108,5.46338958161222,0.0848314961215104,-1.11918771450927,244.262649859123,253.416187788068
0.74,-0.0122161362756493,0.0256931890766288,6.54391939762963,-1.27791414478414,0.0277004844983029,0.00648514525603826,-5.0817778908356,4.31641970993638,0.673799955019609,244.867571729775,253.416187788068
0.75,0.00381436600204293,-0.0184125024591868,5.55782473160258,0.920202196065568,0.0120637603907264,-0.0144234295520255,-4.17252437872733,-3.7850004145024,2.47161413766495,245.59749583183,253.416187788068
0.76,0.0117021867763173,-0.0308746360099956,4.91470974561692,1.5411812288521,0.0236565672380353,0.0230336959824048,3.80251637598077,-3.47425973039237,-2.00724147814493,246.577396726885,253.416187788068
0.77,-0.00139169742708091,0.036605390678687,5.38869767059393,-1.83013260448284,0.0356216259545614,-0.00854348949909606,-0.737796338751073,5.64296947515943,-0.197393037520806,247.253329295628,253.416187788068
0.78,0.0107501612677951,-0.0767529575117468,4.63430536419716,3.83090025685755,-0.00713389367448264,-0.0771731171790073,-4.80909589201575,3.60904138075681,1.617774754491,247.943422408089,253.416187788068
0.79,0.0576935203546685,0.00403483567958539,2.09747442313975,-0.19756937238512,0.0129866382894811,-0.0563575142799431,0.801391113374443,-1.94838520216988,-2.84529094130492,248.531275789607,253.416187788068
0.8,0.0360678596641832,-0.0200558914804221,3.09172280718728,0.994468967621653,0.0202938227798359,0.0359345243576466,3.15616420803448,0.765732287399822,-1.02157663833619,248.919064421171,253.416187788068
0.81,0.0407142853680312,-0.00932837762328892,2.76177078674895,0.472952982067659,-0.0358077090743459,0.0215053396383122,-1.66233072218391,2.25559725391527,0.804720992280125,249.317823939493,253.416187788068
0.82,-0.0360026945963412,-0.0444743636916138,6.54742763406114,2.21623106506875,0.0563776903424811,0.00978361260571265,-5.12443858904522,-4.63903200076778,2.63290208455905,249.460304001578,253.416187788068
0.83,0.0105943552415325,0.0359754255997463,4.07912256739716,-1.79244274219004,0.00142616418257378,-0.0374758277532467,4.39456771672928,0.734756073101394,-1.81915199705757,250.056310921991,253.416187788068
0.84,-0.00983085768030828,-0.024648095096979,5.02697520507301,1.22639829312914,-0.0244995706192105,-0.0101953614018589,1.15170235167755,5.04461239134874,0.0148327304398235,250.325226247644,253.416187788068
0.85,-0.0397333381370008,0.00321999530111702,6.47606739187802,-0.15323235757104,0.0373010414109255,0.0140619642621106,-6.1821963016184,-1.93478110074716,1.85044344014167,250.49842191552,253.416187788068
0.86,0.0148238532869898,-0.00273647101064658,3.69729508626224,0.132871080817011,0.0100343191644945,-0.0112493261474351,1.80580198111989,-3.22904395820185,-2.59576318549938,250.774946652637,253.416187788068
0.87,-0.0148496246433921,-0.0360428662916488,5.11949961020379,1.8112238608672,-0.0364000414803323,0.0139512201185918,4.83189884977319,2.4784191813759,-0.756812866852267,250.910960266627,253.416187788068
0.88,-0.0296036540690788,0.0127197160039713,5.83669447774012,-0.638053432584575,0.0321116046622723,-0.00264808524736353,-5.45434021170226,2.17354260697202,1.08270037977852,251.018085204137,253.416187788068
0.89,-0.0260142610928261,0.0135644264163542,5.58122158521461,-0.684320376375068,-0.00763350180035059,0.02832781485527,-0.535724943941526,-5.59743937396614,2.92417208792832,251.322814516311,253.416187788068
0.9,-0.0189920655405585,0.0475052199664846,5.17916714644624,-2.37533226997506,-0.0163641788134322,-0.0484732723191139,5.04143217486806,2.65517181173236,-1.51605009596211,251.543864597546,253.416187788068
0.91,0.00950171752011973,-0.074271739770467,3.73248633278673,3.70638812349645,-0.0733684098147377,-0.014954945858171,2.30486250013127,4.72825295451966,0.3283196080776,251.599225109704,253.416187788068
0.92,0.0534979256436522,-0.0450383265474338,1.49511742378505,2.25848497775488,-0.0185435814321736,-0.0674285881064951,-2.51191873877765,1.01311142300728,2.17346101069781,251.773076412511,253.416187788068
0.93,-0.0189306056814697,0.0387654455999385,5.10214939557318,-1.94890507148709,-0.0393208509359236,-0.0177481910544133,5.17113045725215,-1.75771704961151,-2.26332747613631,251.824604925806,253.416187788068
0.94,0.0240130928103426,0.0773896532592455,2.87714010965396,-3.86492648918976,0.0804945505360203,-0.00929593416007538,-2.37328319088414,4.19322296966034,-0.4158444680944,252.11049026355,253.416187788068
0.95,-0.0416008465329746,0.00930133791736787,6.15987000182821,-0.473402522312456,0.0424855608241552,0.00348172956591669,-6.16635556890613,0.379693804762746,1.43259698721518,252.086596405534,253.416187788068
0.96,-0.0408728108436055,-0.0215746636839886,6.11596353336429,1.08700364111941,0.0156833963403439,0.0434750946930085,-0.22625995355949,-6.20768824045344,-3.00212942800775,252.148862387362,253.416187788068
