t,iq,id,vq,vd,ia,ib,va,vb,theta_e,omega,r
0,0,0,0,0,0,0,0,0,0,0,0
0.01,0.000383641727535846,0.000215071034693299,-0.0187309694063379,-0.010756856840467,0.000362064599379027,-0.000249691311317073,-0.0176537472533334,0.0124460592921169,-1.66358200962815,-0.00180666389147503,0
0.02,0.000515269669494971,0.000284946145636609,-0.0251880982620289,-0.0142516861069181,0.000486647151116454,-0.000331468985766173,-0.0237590424058384,0.0165244895505222,-1.66359733857664,-0.00230304950451444,0
0.03,0.000573842661446536,0.000315720154533695,-0.0280645547790019,-0.0157908668950742,0.0005421099938887,-0.000367547780024336,-0.0264801724559253,0.0183240601108489,-1.66361462148605,-0.00242080494511642,0
0.04,0.000576678634670809,0.000316846606328223,-0.0282315582963824,-0.0158471970338248,0.00054482312430211,-0.00036894143553305,-0.0266409254991604,0.0183960763810952,-1.66363150789604,-0.00226828885664823,0
0.05,0.000591024623809307,0.000325427078033201,-0.0289565948351128,-0.016276361384365,0.000558305806709136,-0.000378823857829758,-0.0273227511437054,0.0188910453468958,-1.66364762544934,-0.00217997273792557,0
0.06,0.000594365481457585,0.000328037114898589,-0.0291453126440543,-0.0164069021555824,0.000561384449277766,-0.000381740978162414,-0.0274982619569907,0.0190389410631801,-1.66366288940216,-0.00204593474731247,0
0.07,0.000599937953651384,0.000332224323505598,-0.0294403861599893,-0.0166163280049218,0.000566539180810322,-0.000386434866396566,-0.0277723721451,0.0192752182620719,-1.66367695629975,-0.00193467523571546,0
0.08,0.00059484288343405,0.000330102555134083,-0.0292158185866913,-0.0165101991942044,0.000561657734199633,-0.000383857190230845,-0.0275583599722291,0.0191490868911238,-1.66369030946438,-0.00177797567804019,0
0.09,0.000592077717866043,0.000329454867891702,-0.0291026488852798,-0.0164778133744062,0.000558959862800518,-0.000382962668871296,-0.0274484474535121,0.0191066804582434,-1.66370260246337,-0.00164318932016236,0
0.1,0.000590159608097801,0.000329256074712031,-0.0290290269510997,-0.0164678690814505,0.000557064122724973,-0.000382593111461224,-0.0273758487793196,0.0190902598574061,-1.66371395949339,-0.00152179602249861,0
0.11,0.000588594900649681,0.000329194059917823,-0.0289711074082097,-0.0164647710749739,0.000555507901785994,-0.000382392020326405,-0.0273182660651827,0.0190820882033705,-1.66372446504672,-0.00141053507542675,0
0.12,0.000587215819459164,0.000329173794957521,-0.0289208544030452,-0.0164637522287298,0.000554132935106034,-0.000382249259176006,-0.0272681389632599,0.0190766756624809,-1.66373418731816,-0.00130790876146226,0
0.13,0.000604735242856336,0.000339766002549755,-0.0297882316289017,-0.0169935298105516,0.000570590100543357,-0.000394426910343441,-0.0280824251992859,0.0196849230104087,-1.66374344203814,-0.001302856940598,0
0.14,0.000614330568092769,0.000345827545265688,-0.0303041640026879,-0.0172966981408919,0.000579577880701708,-0.000401357967603724,-0.0285678160354619,0.0200349197513478,-1.66375224985834,-0.00126323014857459,0
0.15,0.000593302404991821,0.000334233883309756,-0.0292620647196356,-0.0167168292740026,0.000559713442223915,-0.000387867110123113,-0.0275838803051146,0.0193610526559225,-1.66376052150123,-0.00107824657611935,0
0.16,0.00058576616080062,0.000330703305073522,-0.0289082901098029,-0.0165402557282319,0.000552534705820119,-0.000383656187217048,-0.0272478859691348,0.0191525979136217,-1.66376776492435,-0.000969769107235678,0
0.17,0.000582711258183958,0.000329627524564576,-0.0287711396938641,-0.0164864516574874,0.000549590357944406,-0.000382305053353263,-0.0271161975266766,0.0190864716286894,-1.66377433406091,-0.000889982927091643,0
0.18,0.000581172368387245,0.000329299151343214,-0.028706744856337,-0.0164700244208037,0.000548086297816631,-0.000381838530006939,-0.0270534909293055,0.0190642999663425,-1.66378037024757,-0.000822907789309076,0
0.19,0.000580171566731135,0.000329198382445308,-0.0286676994239417,-0.0164649760071682,0.000547097049075034,-0.000381648320763052,-0.0270149767207483,0.0190557985389099,-1.66378594308152,-0.0007630471335773,0
0.2,0.00057938429355697,0.000329166964330516,-0.0286383063742342,-0.0164634049995324,0.000546314128201122,-0.000381546751204782,-0.0269857583507129,0.0190516440865365,-1.66379109685982,-0.000708368536289613,0
0.21,0.000578701231328939,0.000329156713944329,-0.0286133124916303,-0.0164629023412626,0.00054563314998084,-0.000381475717599752,-0.0269608282951315,0.019048951227878,-1.66379586597039,-0.000657995019569551,0
0.22,0.000578084159506393,0.000329152958428062,-0.0285909119431974,-0.0164627072641193,0.000545017409886496,-0.000381417079369518,-0.0269384585888615,0.0190467956639416,-1.66380028007019,-0.000611444931962467,0
0.23,0.000577517804309252,0.00032915122706749,-0.0285704082829433,-0.0164626233350074,0.00054445210493996,-0.000381364982661834,-0.0269179735207925,0.0190449179063161,-1.66380436589762,-0.000568380941176029,0
0.24,0.000576995221322843,0.000329150155360573,-0.0285515065932734,-0.0164625698490371,0.000543930437993586,-0.000381317438399283,-0.0268990864715738,0.0190432109103206,-1.66380814796826,-0.000528526458966749,0
0.25,0.000576512044936374,0.000329149324712029,-0.0285340338486327,-0.0164625249919321,0.000543448092468193,-0.000381273637572527,-0.0268816267555129,0.0190416375283797,-1.66381164889797,-0.000491637180778511,0
0.26,0.000578959677721983,0.000330840452607882,-0.0286583962838443,-0.0165471135556706,0.00054572686195045,-0.00038318651549271,-0.026997534543915,0.0191374965221744,-1.6638148029276,-0.000472585775542563,0
0.27,0.000572734872808571,0.000327358133729081,-0.0283613398782371,-0.0163729377179815,0.000539851212531444,-0.000379142783892779,-0.026717880223611,0.0189365668895542,-1.66381798917769,-0.000410554012517082,0
0.28,0.000571743239382637,0.000327043468303006,-0.0282843310207936,-0.0163572016422361,0.000538892037809055,-0.00037873887247735,-0.0266426132049627,0.018913820039044,-1.66382078009375,-0.000378163351597464,0
0.29,0.000573755519391329,0.000328506291690983,-0.0284199829320436,-0.0164303649035456,0.000540758788457003,-0.000380383638474488,-0.0267708351536057,0.0189993343541237,-1.66382326912503,-0.000363525078885148,0
0.3,0.000564749231861796,0.000323831439683943,-0.0279853932818551,-0.0161965559336961,0.000532225022758316,-0.000374893346654985,-0.0263598098017772,0.0187262139384227,-1.66382508441593,-0.000301326695794765,0
0.31,0.000571120486842532,0.000327527870461738,-0.0282985079071918,-0.0163814299257807,0.00053822457750398,-0.000379166745101827,-0.0266543581392235,0.0189394294627021,-1.66382712046752,-0.000312596332654615,0
0.32,0.000573027866091042,0.000328652914812536,-0.0283946582007948,-0.0164377064781947,0.000540018426243209,-0.000380465206095692,-0.026744826306122,0.0190044488070191,-1.66382914345237,-0.00030203699004799,0
0.33,0.000573482057763784,0.000328995144539574,-0.0284200032623687,-0.0164548177811429,0.000540438130614196,-0.000380849186274347,-0.0267684356583137,0.019023891979571,-1.66383106151898,-0.000285362641534725,0
0.34,0.000573471223548994,0.000329099073671001,-0.0284225274053026,-0.0164600202258438,0.000540417006105832,-0.000380952627030581,-0.0267704315043692,0.0190293543508508,-1.66383285195497,-0.000267659695442675,0
0.35,0.000573319735073663,0.000329130473412208,-0.0284179945313531,-0.0164615825038486,0.00054026262240128,-0.000380970715396304,-0.0267657414610492,0.0190305332493681,-1.66383451421802,-0.000250527115483946,0
0.36,0.000573132755405521,0.000329139810009429,-0.0284115255860096,-0.016462051419894,0.000540074997194571,-0.000380963472339609,-0.0267592276163109,0.0190304403641685,-1.66383605453882,-0.000234422957571299,0
0.37,0.000572944378103046,0.000329142446179081,-0.0284047916573867,-0.0164621857142492,0.000539886646353063,-0.000380949365882498,-0.0267524831921705,0.0190299866169846,-1.66383748089788,-0.000219435278205406,0
0.38,0.000572764964578413,0.000329143057754124,-0.0283983102796879,-0.016462216671783,0.000539707448982034,-0.000380934018734938,-0.0267460018430088,0.0190294505938539,-1.66383880140965,-0.000205535160534085,0
0.39,0.000572597250733483,0.000329143067122775,-0.028392227889279,-0.0164622170258396,0.000539539994043466,-0.000380919105598692,-0.0267399224668313,0.0190289185291873,-1.66384002382466,-0.000192659539168925,0
0.4,0.000572441469438751,0.000329142906271452,-0.0283865682868559,-0.0164622071434038,0.000539384470495426,-0.000380905082232285,-0.026734266730873,0.0190284131103779,-1.66384115539626,-0.00018073810518567,0
0.41,0.000572297096839594,0.000329142705743926,-0.0283813176871745,-0.0164621943012687,0.000539240342046179,-0.000380892033659646,-0.0267290201049434,0.0190279404850493,-1.66384220286406,-0.000169701853930322,0
0.42,0.000572163277427829,0.000329142504383443,-0.0283764451498866,-0.016462195053482,0.000539106750893303,-0.000380879922508428,-0.0267241501253567,0.0190275144304454,-1.66384317247523,-0.000159485620773919,0
0.43,0.000572039510337484,0.00032914231318229,-0.0283719366883229,-0.0164621806623746,0.000538983195106818,-0.000380868716366392,-0.0267196454257364,0.0190271051904852,-1.66384407001562,-0.000150028661058762,0
0.44,0.000571924940060321,0.000329142134715755,-0.0283677597827035,-0.0164621676856997,0.000538868820594918,-0.000380858341248932,-0.0267154719864664,0.0190267263748022,-1.66384490084197,-0.000141274606009322,0
0.45,0.000571818769287361,0.000329141969052698,-0.0283638841131913,-0.0164621683041206,0.000538762831598673,-0.00038084872585973,-0.0267115983926056,0.0190263874283031,-1.66384566991281,-0.000133171230972447,0
0.46,0.000571720671775072,0.000329141815552362,-0.0283603021582706,-0.0164621537963282,0.000538664901593682,-0.000380839841759123,-0.0267080197363487,0.0190260591790622,-1.66384638181836,-0.0001256701781176,0
0.47,0.000571629634993876,0.000329141673407236,-0.0283569714864229,-0.0164621543401683,0.000538574020884337,-0.000380831596384839,-0.0267046908847949,0.0190257678464989,-1.66384704080774,-0.000118726679116182,0
0.48,0.00057154556552765,0.000329141541803562,-0.0283538950492725,-0.0164621397674303,0.000538490095033692,-0.000380823982393117,-0.0267016175049847,0.0190254837732201,-1.66384765081439,-0.000112299291654591,0
0.49,0.000571467625470095,0.000329141419968171,-0.0283510378881029,-0.0164621402463856,0.000538412288443482,-0.000380816923143058,-0.0266987619169525,0.0190252338468204,-1.66384821547899,-0.000106349653301227,0
0.5,0.000571395604992462,0.000329141307179006,-0.0283483960125601,-0.0164621270726932,0.000538340390974393,-0.000380810400254173,-0.0266961227505468,0.0190249892070974,-1.66384873817195,-0.000100842252937952,0
0.51,2.59783065423495,0.00293703002109217,0.139523792216009,-0.144911294898392,-0.110057698349055,2.59549995901796,-0.150842709009535,0.133088876778375,0.0435084578415941,13.4272786252207,518.689119328582
0.52,2.57251834905332,-0.00616688447854405,0.388602797811905,0.312657627348523,-0.510041763860784,2.52145713542744,0.230465576395508,0.442326287375207,0.197190229834691,28.4838324222522,518.689119328582
0.53,2.51771435279856,-0.0124552415978131,2.03590260818467,0.629481778037404,-1.13122917521651,2.24930239151389,-0.341968683685324,2.10337922360016,0.461037430871079,43.5165483793653,518.689119328582
0.54,2.50497618926882,-0.0219988260496491,1.43223250023196,1.10938857262222,-1.87318952301956,1.66329512354274,-0.318713600612948,1.78338290352066,0.835897937999716,58.8484160554925,518.689119328582
0.55,2.47231639038862,-0.0128744026928469,1.53591144041819,0.654851741855432,-2.40169389518813,0.586839431399227,-1.33135202261898,1.00764902048626,1.32594064722319,75.0372321866462,518.689119328582
0.56,2.44938959068513,0.00476599412289791,0.999638237922389,-0.227572762654117,-2.28924086322448,-0.871153460533727,-0.852231039620436,-0.569884395404961,1.93636309229709,91.2290742839803,518.689119328582
0.57,2.40969533899045,-0.000320138075974308,1.6220370639013,0.0295425756271886,-1.11727875194371,-2.13502222932123,-0.778437522259389,-1.42334536370584,2.65933846101219,105.823882498459,518.689119328582
0.58,2.40145690672999,0.0360733730029117,0.734145395804195,-1.7873454912541,0.778646668796041,-2.27200482576376,1.93032880804798,-0.086046848326394,-2.79640353678624,120.014898472644,518.689119328582
0.59,2.34799176347473,-0.00885383688411787,1.73749427056152,0.457977188041176,2.2523752988763,-0.6632866837082,1.53383517964394,-0.935937544223358,-1.86095497754815,135.419936565096,518.689119328582
0.6,2.28736225588753,-0.000855158725566629,3.20638549851507,0.0608059264308339,1.66315248766442,1.57033455789872,2.37392984786591,2.15616845426979,-0.814469356981342,149.751240267622,518.689119328582
0.61,2.25865796635829,0.0334795817996147,3.19996023678653,-1.65233258896795,-0.707472244516141,2.14525982450391,-2.60849515133442,2.48308307292472,0.333374400075476,163.591872945326,518.689119328582
0.62,2.23895230456647,0.0690785273292828,2.42216875608499,-3.43608575970468,-2.23978433233936,0.0323327955586393,-2.3654638487342,-3.47536582410128,1.58720493050937,178.210420307921,518.689119328582
0.63,2.19513847389993,0.0522450400894948,3.13898347231776,-2.58829322363646,-0.48631434534472,-2.14122881106191,1.91474994978112,-3.58973699326562,2.94205781479118,191.459239527086,518.689119328582
0.64,2.17320135434637,0.0100797940573907,2.46351942985279,-0.482656297946424,2.06349736247001,-0.681824291046043,2.49199522962786,-0.30305916703102,-1.88528592906479,205.561963002803,518.689119328582
0.65,2.14355374183837,-0.00281931613890268,2.41067620025766,0.169300107302045,0.694932837718095,2.02778177912562,0.944614929267482,2.22434819761345,-0.331477292549444,218.493459115129,518.689119328582
0.66,2.08768883723985,0.0567932517988743,3.41937349430525,-2.81609699925253,-2.00886190657332,0.571090181061076,-4.00937455902054,-1.88346304668693,1.3210153581787,231.962238053541,518.689119328582
0.67,2.03333390177378,0.0142745133779308,4.46892615476018,-0.691709925606001,-0.164248952982602,-2.02673945026954,0.360120741422345,-4.50777956975259,3.06774852808215,244.946069184396,518.689119328582
0.68,2.03735225296578,0.0483160718128097,2.59934079410692,-2.38618319311575,2.00732088953327,0.351854361779867,2.08135636368419,2.8492803446428,-1.37356291653983,257.36900598902,518.689119328582
0.69,2.00650323065857,0.0300249446033642,2.32960310790597,-1.47479505392376,-1.04165316537907,1.71520126953005,-2.48785781319192,1.18854305466107,0.560737434054892,270.165473827668,518.689119328582
0.7,1.93483793787123,-0.0169735198694972,4.17396119271877,0.873220339315003,-1.0069636357678,-1.65224398393332,-2.94502555429335,-3.08403798353309,2.58547966655406,282.542499788093,518.689119328582
0.71,1.94559713407104,0.018684106797952,1.95003198243783,-0.900239333406257,1.94520501642589,-0.0432983605213102,1.96126575482038,0.875495419126222,-1.5834486922514,294.318250359528,518.689119328582
0.72,1.90081830901938,-0.00811396785707397,2.39461969995671,0.439316301349955,-1.10933687685043,1.54355037949443,-1.03136585846189,2.20533144584929,0.618892255721388,306.178649491604,518.689119328582
0.73,1.85185694348037,0.0249280242668698,3.03159112887947,-1.21643400267852,-0.454563210727267,-1.79537400921469,0.478683531325135,-3.23127196819012,2.90707812538083,317.904526295812,518.689119328582
0.74,1.82826057487531,0.00108942188102878,2.41597866656838,-0.0263373551846792,1.54287385626082,0.980855840656663,2.02393445793494,1.31959686403661,-1.00392021627316,329.37918547322,518.689119328582
0.75,1.79161181133584,0.0161150041553588,2.46867963642215,-0.779572487494556,-1.77678888800662,0.230551129542301,-2.5442707855609,-0.47832894569025,1.45075456071365,340.556255705696,518.689119328582
0.76,1.73492358081634,-0.00897196384725607,3.53316930522725,0.474511048983816,1.30331660688871,-1.14516642878491,2.32702708979136,-2.70062788965546,-2.29686434734861,351.461210222237,518.689119328582
0.77,1.71009902069431,0.0360700122158948,2.99780868418011,-1.77829553130023,-0.50055653444319,1.63559862502605,-2.62662993992849,2.29128938858872,0.318076895403337,362.111201547121,518.689119328582
0.78,1.66959688962623,0.0603734460739338,3.23576854734452,-2.99181993306397,-0.277940889133182,-1.64740632176409,2.54352719651314,-3.59884064727253,3.01059716034967,372.551160630868,518.689119328582
0.79,1.62136189917985,-0.0208313680918197,3.84795512812035,1.07164383326597,0.764692799650659,1.42985778179898,2.79654721456957,2.85210498581098,-0.50394850239976,382.798576244432,518.689119328582
0.8,1.58674103323378,0.0597575693341436,3.78524770860826,-2.96176159787258,-1.18274895905492,-1.05944465334204,-0.664711449656202,-4.76007254848629,2.33889989365568,392.802355460462,518.689119328582
0.81,1.55345038084181,-0.0101112807560374,3.65100513070188,0.530904500818719,1.32567459682161,0.809874797161852,3.40175137455649,1.42821064241381,-1.0288983838937,402.636010124958,518.689119328582
0.82,1.51168762865446,0.0100083293249288,3.9382667453219,-0.476075885735687,-1.40384010695068,-0.560832067021432,-3.46792582369944,-1.92615775252339,1.95749086880437,412.215471830681,518.689119328582
0.83,1.48816968349544,0.00393348377751213,3.31976946954359,-0.171565005194147,1.4225760732415,0.436968871900879,3.12003683678641,1.14702834272605,-1.27013389173749,421.553560632643,518.689119328582
0.84,1.44624508293824,0.0349263032583774,3.64693934310111,-1.72045141405622,-1.39881456623899,-0.369002026904949,-3.02395084365709,-2.66755336132801,1.85286190263705,430.581277036531,518.689119328582
0.85,1.39876349088549,0.0484884184709121,4.25259875476436,-2.39608028143856,1.33933342011677,0.406295975759391,3.24967500141582,3.64217095552847,-1.24161137392741,439.425762150119,518.689119328582
0.86,1.38641825509954,0.0293022493957495,3.11991556344051,-1.43184979059376,-1.26647151329955,-0.564857597889647,-2.21112948407289,-2.62582812660792,2.01145838913749,448.035807562095,518.689119328582
0.87,1.34274982718724,0.0458666231957506,3.56609778860639,-2.25773364591891,1.12341757613298,0.73689469747736,1.6113034537014,3.90104035276586,-0.956111129782756,456.43657449243,518.689119328582
0.88,1.29582170451912,-0.01321891637575,4.16440780686101,0.686593467557895,-0.84555910377659,-0.982017531245505,-3.26499785483299,-2.67460127485838,2.42052168843209,464.724233995289,518.689119328582
0.89,1.25991333127421,0.0348756182214875,4.20177626489137,-1.72227493814476,0.553096426754721,1.13255562944165,0.170769908357997,4.53784005680736,-0.426619535002996,472.764532555464,518.689119328582
0.9,1.22641693340697,0.0217173789591019,4.14603822956242,-1.05834882192369,-0.112608288127528,-1.2214292908479,0.747965582555016,-4.21310843881017,3.06736481028727,480.506419659436,518.689119328582
0.91,1.22309279063435,0.00847356511946717,2.62573629178684,-0.388797881081281,-0.393262299893142,1.15817638522391,-1.2287184273358,2.35285058868285,0.334265668490994,487.985523933314,518.689119328582
0.92,1.16259372194303,0.0171308560082575,3.9574558630426,-0.837144890731544,0.819709670468588,-0.824617295882886,3.41598388318579,-2.16640776074661,-2.34444509537454,495.384067917474,518.689119328582
0.93,1.1266947103666,-0.00439503897108257,4.04351721171274,0.241979268314542,-1.09061799863964,0.282865105269108,-3.84836108594372,1.26439802273861,1.31312495174511,502.522919643065,518.689119328582
0.94,1.11250567815104,0.0226587902051005,3.10395804018606,-1.10193745225842,1.06651010014001,0.317393306468818,2.62061039118192,1.99530018833127,-1.26117837226379,509.343727677796,518.689119328582
0.95,1.02870389401866,-0.0115190376938164,5.63815020624144,0.597333188173114,-0.608365819627574,-0.829611607505233,-3.86255135226691,-4.15045078719584,2.49765922619373,516.111888935057,518.689119328582
0.96,1.00703653093688,0.00227549553888406,5.06298671056152,-0.0937395978406775,-0.0196665461096035,1.00684704870474,-0.204030652264088,5.05974238834969,0.0217899124750315,522.619114599793,518.689119328582
0.97,0.963060764088232,0.0590728068840952,5.65458746462397,-2.92513597830673,0.601450417410789,-0.754475332423641,5.9602381221137,-2.23748551154407,-2.40731354207196,528.832314035185,518.689119328582
