t,iq,id,vq,vd,ia,ib,va,vb,theta_e,omega,r
0,0,0,0,0,0,0,0,0,0,0,0
0.01,0.000516752286461124,0.000288413279418549,-0.0249120345557286,-0.014427457911038,-0.000194804867350329,0.000558807846190784,0.00904373466164786,-0.0273307861367048,0.84449531120296,-0.00317586817018539,0
0.02,0.000652621211630532,0.000360054882356414,-0.0315588885257095,-0.0180112281922826,-0.000248789472185354,0.000702607829951053,0.0116322629615071,-0.0344246749348049,0.844469565415814,-0.00374818447152431,0
0.03,0.000705903186010156,0.000388595957883284,-0.0341847854413693,-0.0194389497696956,-0.000269648379059754,0.000759339106179158,0.0126462244024469,-0.0372363442376418,0.844442198431362,-0.00376436287850253,0
0.04,0.000697201699990185,0.00038429995445566,-0.0338432283103225,-0.01922404881663,-0.000265977145523967,0.000750355131602862,0.0125326602572287,-0.036849159858071,0.844416637454105,-0.00339959675360487,0
0.05,0.000712234207200298,0.000393950068833629,-0.0346308895731165,-0.0197067858535805,-0.000270787617136119,0.000767559957948563,0.0127999854218617,-0.0377334903567692,0.844392802514236,-0.0032098507431777,0
0.06,0.000713875552977153,0.000396080875478915,-0.0347736018784879,-0.0198133854808212,-0.00027058234391419,0.000770249024809823,0.0128350320156854,-0.0379082522014867,0.844370679418974,-0.00295374126321293,0
0.07,0.00072200137893354,0.000402134107737322,-0.0352198181918656,-0.0201161818167776,-0.000272620706695086,0.000780176763348344,0.0129667182643108,-0.0384312448641429,0.84435073927207,-0.00276608557973144,0
0.08,0.000712751989712334,0.000397885857052244,-0.034832100290141,-0.0199036705711048,-0.000268513763106374,0.000770862447589415,0.0128173263063025,-0.0380150951489441,0.844332040235783,-0.00248050510955226,0
0.09,0.000708992542385154,0.00039694499468537,-0.0347013742564998,-0.0198566093012348,-0.000266315486981084,0.000767666474035151,0.0127502260274094,-0.0378932981473179,0.844315190155656,-0.00225289041567683,0
0.1,0.000706702398171715,0.000396735391026632,-0.0346363433427716,-0.0198461175028323,-0.000264731079409125,0.000765992627686185,0.0127080047000382,-0.0378424533644212,0.844299896191109,-0.00205358575972467,0
0.11,0.000704892691477997,0.00039668757678716,-0.0345902443006395,-0.019843724673489,-0.000263399436541293,0.000764758443501014,0.0126746089428036,-0.0378102194894735,0.844285987656207,-0.0018741101340309,0
0.12,0.00070331236801716,0.000396675657683144,-0.034551463576733,-0.0198431367619521,-0.000262216402151768,0.000763703098623308,0.0126455328324731,-0.0377841793774946,0.844273332482147,-0.00171123907114118,0
0.13,0.000727978334315953,0.000411336585233804,-0.0357650894663884,-0.0205765307795105,-0.000270905553180333,0.000791050202478511,0.0130650595086631,-0.0391387207697697,0.84426132894558,-0.00172675424966369,0
0.14,0.000741679817942537,0.000419899986801817,-0.0365337511304905,-0.0210049003553919,-0.000275449537774259,0.000806555951809537,0.0133546102720237,-0.0399696784461286,0.844250069031131,-0.00167999687277073,0
0.15,0.000709176014500362,0.000401803162361796,-0.0349294571663726,-0.0200996240665951,-0.000263167358791806,0.000771439785137571,0.0127564132774504,-0.0382274219095507,0.844239653722816,-0.00134321550787489,0
0.16,0.000700521653997964,0.00039780192264782,-0.0345411853687751,-0.0198994638021648,-0.000259349882670758,0.000762702167127516,0.0125988295623462,-0.0378199899517795,0.844230925962254,-0.00118174082368688,0
0.17,0.000697726631907491,0.000396916616150659,-0.0344301226418875,-0.0198551827836044,-0.000257842929569328,0.000760185685685128,0.0125449380575277,-0.0377132093256268,0.844223165490237,-0.00107000039994975,0
0.18,0.000696416700954791,0.000396720166064422,-0.0343878752421339,-0.0198453564146689,-0.000256988990927154,0.000759170448630069,0.0125196233605609,-0.0376778869604375,0.844216147276091,-0.000976859618225096,0
0.19,0.000695524244202336,0.000396676056148539,-0.0343637129246617,-0.0198431458609186,-0.000256346389901373,0.000758546238656104,0.0125027916004867,-0.0376602629547518,0.844209771044781,-0.000894172010139438,0
0.2,0.000694784686343228,0.000396665682501132,-0.0343451825955877,-0.0198426349490562,-0.000255796104726353,0.000758048663911474,0.0124890622222482,-0.0376476434063884,0.84420397091696,-0.00081942556418771,0
0.21,0.000694129180802207,0.000396662822054493,-0.034329150267341,-0.0198424963194977,-0.000255304053744103,0.000757612403662457,0.0124769724328608,-0.037636954940279,0.844198693100832,-0.000751524382226181,0
0.22,0.000693537121714081,0.000396661673185888,-0.0343147699246864,-0.0198424404822786,-0.000254858652014473,0.000757219446173595,0.0124660803750692,-0.0376274197807828,0.84419389013842,-0.00068976011693062,0
0.23,0.000692999312187228,0.00039666094891203,-0.0343017260147822,-0.0198424019834703,-0.00025445384686948,0.000756862731872224,0.0124561920364083,-0.037618779937937,0.844189519203559,-0.00063355829852195,0
0.24,0.000692510164269764,0.000396660360619475,-0.0342898647668515,-0.0198423677389516,-0.000254085623084626,0.000756538343671624,0.0124471996907182,-0.0376109239859397,0.844185541410757,-0.000582413163487102,0
0.25,0.000692065137760458,0.000396659840751267,-0.0342790720378623,-0.0198423348470434,-0.000253750604552129,0.000756243224668923,0.0124390186034069,-0.0376037743869315,0.844181921392921,-0.000535868574641328,0
0.26,0.000696275260888439,0.000399322011972224,-0.0344893989781297,-0.0199755121487226,-0.000255126372306407,0.000761030776200661,0.0125076280302762,-0.0378430834966263,0.844178766549001,-0.000525180386541011,0
0.27,0.000685739859917291,0.000393305282131312,-0.0339955486463429,-0.0196745404980584,-0.000251246629436443,0.000749535410523481,0.0123383363462043,-0.0372900835046469,0.844175432668291,-0.000416527231192173,0
0.28,0.000684836833349675,0.000393031755036154,-0.0338815556632791,-0.0196608442138758,-0.000250751355117091,0.000748731732121828,0.012262132631034,-0.0372041491329274,0.844172697231079,-0.000377673617484064,0
0.29,0.000689166238692328,0.000395856490032113,-0.0341738914086406,-0.0198021484920568,-0.000252108887243881,0.000753719824753553,0.0123866683052581,-0.0375040049488923,0.844170378985245,-0.000377847842880795,0
0.3,0.000679167081249626,0.000390684375676848,-0.033699679172746,-0.0195434294756287,-0.000248070477082403,0.000743211439666569,0.0122040660848516,-0.036995604914793,0.844169113948678,-0.000297626552034607,0
0.31,0.000687510965141973,0.000395337261940313,-0.0341038262828653,-0.0197761808720092,-0.000251214293903446,0.000752232847200588,0.0123514344658278,-0.037438087072534,0.844167243726522,-0.000329286879279682,0
0.32,0.000689358214002611,0.000396365580905531,-0.0341976057395402,-0.01982761695318,-0.000251910354243849,0.000754229139164079,0.0123872835385006,-0.0375388577196464,0.844165335557198,-0.000318278525750545,0
0.33,0.000689644044344542,0.000396592698882353,-0.0342164104642644,-0.0198389747584879,-0.000251971753466466,0.000754589234061632,0.012393725783535,-0.0375598618971034,0.844163548956397,-0.000298591469294746,0
0.34,0.000689565176552534,0.00039664272670564,-0.0342173536284644,-0.0198414893578187,-0.000251878334082761,0.000754574641889128,0.0123926985987893,-0.037562388245576,0.844161910892959,-0.000278327461468381,0
0.35,0.000689411465544202,0.000396653624175996,-0.0342143010291189,-0.0198420293598192,-0.000251755081457473,0.000754481043735426,0.0123900021830248,-0.0375607823391864,0.844160417209852,-0.000259316022926416,0
0.36,0.00068925133644504,0.000396655886259122,-0.0342105524980379,-0.0198421522349058,-0.000251632869964204,0.000754376693468761,0.0123870677653306,-0.0375584006543315,0.844159057155804,-0.000241876114419171,0
0.37,0.000689101000726681,0.000396656252653817,-0.0342069174329772,-0.0198421626162876,-0.000251519330001982,0.000754277401628364,0.0123842974839794,-0.0375560087520762,0.844157819254336,-0.000225971188813172,0
0.38,0.000688962815746347,0.000396656212006683,-0.0342035390498381,-0.0198421675609716,-0.000251415226244045,0.000754185849785901,0.0123817268470593,-0.0375537819312021,0.844156692650646,-0.000211488632106003,0
0.39,0.000688836927209897,0.000396656092310422,-0.0342004540672383,-0.0198421531290327,-0.000251320442104876,0.000754102382462194,0.0123793921836025,-0.0375517342923842,0.844155667366383,-0.000198306691397467,0
0.4,0.000688722141702879,0.00039665596508835,-0.0341976312472628,-0.0198421536270072,-0.000251234031181352,0.000754026262598551,0.0123772470110003,-0.0375498708374636,0.844154734296215,-0.000186309886223979,0
0.41,0.000688617848206322,0.000396655845257137,-0.0341950662844899,-0.0198421376696356,-0.000251155520588642,0.000753957097534606,0.012375308650191,-0.0375481653521705,0.844153885148147,-0.000175391986796467,0
0.42,0.000688522795094173,0.000396655735301621,-0.0341927205198859,-0.019842136642876,-0.00025108396747434,0.000753894059526474,0.0123735270711355,-0.0375466157053531,0.844153112374529,-0.000165456042087577,0
0.43,0.000688436240302627,0.00039665563503059,-0.0341905787216607,-0.0198421370401624,-0.000251018812133541,0.000753836657186823,0.0123718996041158,-0.0375452017683797,0.844152409105679,-0.000156413754118198,0
0.44,0.000688357674591967,0.000396655543728405,-0.0341886353172606,-0.0198421209971379,-0.00025095966969642,0.000753784553255107,0.0123704337173683,-0.0375439065650592,0.844151769090989,-0.000148184750388442,0
0.45,0.000688286079169238,0.000396655460623333,-0.0341868574111372,-0.0198421213413345,-0.000250905774913461,0.000753737071753504,0.0123690828009319,-0.0375427328472151,0.844151186640568,-0.000140695883354218,0
0.46,0.000688220770171725,0.000396655384986551,-0.0341852272822905,-0.0198421202071506,-0.000250856613226715,0.000753693759119056,0.0123678452845334,-0.0375416555531947,0.844150656577251,-0.000133880583583592,0
0.47,0.000688161456565415,0.000396655316148507,-0.0341837453700778,-0.019842120506026,-0.000250811963995888,0.000753654422694932,0.0123667193850903,-0.0375406772095604,0.844150174189507,-0.000127678268832142,0
0.48,0.000688107439856234,0.000396655253499068,-0.0341823903740212,-0.0198421207853708,-0.000250771302323845,0.000753618599057052,0.012365689986257,-0.0375397826326552,0.844149735188586,-0.000122033805719219,0
0.49,0.00068805844363708,0.000396655196482232,-0.0341811609130151,-0.0198421046423249,-0.00025073441904188,0.00075358610514285,0.0123647668066108,-0.0375389586938228,0.844149335672611,-0.000116897019681757,0
0.5,0.000688013740153622,0.000396655144591222,-0.0341800318089086,-0.0198421048884016,-0.000250700767874784,0.000753556457976343,0.0123639090954532,-0.0375382132331802,0.844148972090292,-0.000112222248980875,0
0.51,2.1521068696947,0.0037184606087423,1.93949169416317,-0.184769971517129,-0.130798045096277,2.14813167122861,-0.305629260492774,1.92415143095158,0.0625419519583324,19.1633802379342,387.290397588486
0.52,2.09576842974051,-0.0237989962811441,0.294897850064222,1.1932829349989,-0.600940659230062,2.00790488504937,1.0656528862008,0.612595160823188,0.279447667594787,39.8738859746528,387.290397588486
0.53,1.97717635602727,-0.025980273812448,1.88309080515936,1.30379923600231,-1.21034810470647,1.56363639727851,-0.0915800265127653,2.28856647861054,0.645583083349672,59.8981158358583,387.290397588486
0.54,1.91379984951995,0.00142247980583782,0.786586563962348,-0.065674187496199,-1.75111982285188,0.772147170872612,-0.74641171628715,0.256712039644912,1.15624145237922,79.3681145051125,387.290397588486
0.55,1.82258372813568,0.0354242024404922,1.05333150288051,-1.76545002401045,-1.77952495502375,-0.395420351817195,-0.607247386826081,-1.96407017528191,1.80888320954732,98.682380347184,387.290397588486
0.56,1.75219563841504,0.0063694823181738,0.137473831033735,-0.312846027350796,-0.903374165279469,-1.50138111187377,0.198199254414167,-0.27836800570097,2.60356256770144,118.197632149875,387.290397588486
0.57,1.64721844025595,0.0158099788124558,1.13263166030454,-0.786149011394001,0.622672209556173,-1.52507634720224,1.16311213927922,-0.740307299370542,-2.74436320687084,136.568647729791,387.290397588486
0.58,1.59024464966296,-0.025272357009768,0.292288815332097,1.27074009760713,1.5830945962468,-0.152735841061192,0.148338203140609,-1.29545703314461,-1.68286870657555,152.765512109764,387.290397588486
0.59,1.52609731014037,-0.00924215353746527,0.106081420312284,0.471192219839454,0.733544648411522,1.3382715218544,0.46336441235288,-0.136267373709095,-0.507461155005022,167.830256892453,387.290397588486
0.6,1.37459363729031,0.0551026214912501,4.26411388145794,-2.74674497134653,-0.924964723391204,1.01832422491859,-4.94875042637021,1.11226990841271,0.7774580955352,182.854494861555,387.290397588486
0.61,1.30797604144037,-0.0278496647702646,3.98438322371812,1.39812806914721,-1.06076835962249,-0.765733253838211,-4.07352184845561,-1.11197640322916,2.17475864940879,198.180658631923,387.290397588486
0.62,1.26338524465208,-0.0264731217166878,3.08656410052164,1.33172113261499,0.66784179952682,-1.07276765116348,0.430946463972037,-3.33386326457345,-2.60571464448588,211.542251251894,387.290397588486
0.63,1.21256454745585,0.0278410238546051,2.73557925936164,-1.38208724790498,1.0411468841355,0.622174469108962,1.57939046614909,2.62661089628984,-1.0091975392206,224.052203151969,387.290397588486
0.64,1.1703087745768,0.0438923764824724,1.72859096453901,-2.19128100838802,-0.702726839540318,0.93686933857097,-2.79076966874947,-0.0366583741576638,0.681039612501541,237.191340677044,387.290397588486
0.65,1.11670277948047,0.0286232383046237,1.59659526617214,-1.42468889704451,-0.722648303985977,-0.85183555702767,0.108349312584777,-2.13708102883059,2.46368795295367,248.851703898276,387.290397588486
0.66,1.04121878120378,0.0410832370272042,2.81498416388438,-2.04394037169036,0.949585141518108,-0.42908325731046,3.37651531333487,0.837240959796326,-1.95576278662074,259.685318243566,387.290397588486
0.67,1.0003499007403,-0.035508059063071,2.11783288772647,1.78065079304847,-0.0247634173084204,1.00067353284314,1.80329117703348,2.09858864905755,-0.010739043143431,270.91787108076,387.290397588486
0.68,0.932057299714946,-0.0285534382112603,3.16435333461722,1.43750110175972,-0.830881383001935,-0.423299227694066,-3.47521538622009,-0.0491880396306719,2.01135645843302,280.62894695818,387.290397588486
0.69,0.927645061923585,0.0110314210700531,1.02929478999077,-0.543600506707126,0.754630754295788,-0.539610487141426,1.1552319292741,-0.142788182914511,-2.17967073288162,290.361484222815,387.290397588486
0.7,0.827341724845599,0.0191987411387731,3.69724277732992,-0.954756713359621,0.0323621945978473,0.826931441954299,-0.895799822455181,3.71196810523916,-0.0159141499810381,299.657999455421,387.290397588486
0.71,0.799481180922216,0.00349005631517063,3.01420868956901,-0.163128145429153,-0.643098560908733,-0.474980610234756,-2.31926329943767,-1.93211867233511,2.21131473735894,308.087125432445,387.290397588486
0.72,0.743433614577397,0.00208655371602415,3.62229251325732,-0.100944756981172,0.726612329259076,-0.15726543154401,3.56353220559193,-0.657594947723235,-1.7811384782517,316.664819162079,387.290397588486
0.73,0.720179267577146,-0.0588206518089193,2.89227718874109,2.95357780210656,-0.436834821330186,0.575580911254539,0.935086780662273,4.02672346731674,0.567707872052085,324.165091649371,387.290397588486
0.74,0.703973839616745,0.00646983533861584,1.70482371766895,-0.32129373067605,-0.124814305139018,-0.692850932644761,0.0298941585203771,-1.73457773218287,2.9725485172146,331.903716097107,387.290397588486
0.75,0.685995965818866,0.0213521827014011,0.851267435768768,-1.05793566636835,0.530632306423809,0.435288107125869,-0.0550543099805251,1.35678043335211,-0.852671807430229,338.667314341374,387.290397588486
0.76,0.610876295173223,-0.0554044438626442,2.78351500341901,2.77317962122941,-0.604018029404046,-0.106778839472737,-3.007698767074,2.52828580512614,1.65532023113026,345.587435027415,387.290397588486
0.77,0.611450832653742,-0.00186952955187447,1.15261938492851,0.103339756226518,0.537076361428621,-0.292274867014413,0.961051590639246,-0.644663006430265,-2.07223017986178,351.615804103539,387.290397588486
0.78,0.534953107675951,0.0271926859967438,3.33209750324552,-1.35990148011519,-0.245934367480344,0.475847198663519,-2.85302752536384,2.19372736370561,0.527812718412535,357.761830784037,387.290397588486
0.79,0.509068963355889,0.0493008801207419,3.16084560186405,-2.45718466406769,-0.034690325540076,-0.510272836379562,2.54676746917753,-3.08912234301133,-3.11292797181791,363.138168366091,387.290397588486
0.8,0.487654501895251,0.0179818061744058,2.74419880717264,-0.899180069048801,0.220090852632632,0.435534470690255,0.329662679194778,2.8688803404479,-0.431049198546096,368.557133787621,387.290397588486
0.81,0.488644371010052,0.0307867662604605,1.35003957329956,-1.53030903467078,-0.388380250439056,-0.298130721941704,-0.0107868294307853,-2.04067053572611,2.28840415314156,373.402574784317,387.290397588486
0.82,0.420193953893442,-0.00854897728493414,3.40137545814461,0.428456447276347,0.394570250179669,0.144742397293868,3.35580903531624,0.701053245460702,-1.23954517241809,378.246522835494,387.290397588486
0.83,0.418885021665172,-0.0101719419530748,2.23858451641293,0.51868150712812,-0.419007398873316,-0.000964089179498888,-2.22664537866332,0.567751266522302,1.54881860766683,382.560732158864,387.290397588486
0.84,0.426464996633476,-0.0146240324258208,0.617430501434139,0.734489221223,0.406503003049614,-0.129775052262089,0.334178219147939,-0.899455256275204,-1.914094339552,386.814725536071,387.290397588486
0.85,0.357555472534288,-0.0427604296121933,2.91141464612349,2.144492541753,-0.313183936060161,0.177736300382624,-1.07108687108588,3.45368736539428,0.935580346990315,390.752138084702,387.290397588486
0.86,0.379093962525988,0.0308658261330336,0.703603621419425,-1.53920295937754,0.21198870080565,-0.315793797243174,1.64239872731918,0.408326127906891,-2.46915645234489,394.493646589516,387.290397588486
0.87,0.337932674391457,-0.00108025605138263,1.70262254013586,0.0515824893088116,-0.143467113789164,0.305968702052197,-0.671129073076953,1.56562129349752,0.43525856629269,397.988606082621,387.290397588486
0.88,0.331277262739936,0.0229093019614365,1.057997346059,-1.13879560681635,0.0508252001134994,-0.328155847057839,1.3443497680285,-0.780344487757703,-2.91888774237563,401.116031088403,387.290397588486
0.89,0.296752906456366,-0.0249063050439504,1.80707948140996,1.24430188874365,-0.0346482401879411,0.295773749634956,1.18422378076332,1.84700770965866,0.0328797274517832,404.230790911245,387.290397588486
0.9,0.237804711756601,-0.0320773162609095,3.85185602386731,1.61294220180217,-0.000328257334101224,-0.239958178437963,-2.11830155816704,-3.59877421959539,3.00614464812682,407.013737368976,387.290397588486
0.91,0.270930130677157,-0.00615858330538641,1.30924896334511,0.309369074356653,0.0698368504846236,0.261847051103233,0.663086301009944,1.17053775231792,-0.283368851602847,409.706182786571,387.290397588486
0.92,0.208065881430283,0.0147818886290247,3.63355196590503,-0.741764399459781,-0.0970192607556541,-0.184654212757868,-0.778393967247865,-3.62588156797631,2.72874901326798,412.156080723243,387.290397588486
0.93,0.205653941177954,0.0253639192969686,2.95453395026887,-1.2643257588341,0.124938375047292,0.165309631796428,0.385138204338304,3.19052645362828,-0.524479290496707,414.461093375938,387.290397588486
0.94,0.182556176532423,0.0376962036335249,3.35718325664926,-1.88993723576009,-0.136749825057663,-0.126677727739393,-0.412406059442012,-3.83046516965944,2.5216073391308,416.594201025504,387.290397588486
0.95,0.193262669999871,-0.0281417963671289,2.11250614572148,1.41539403340633,0.10306241802007,0.16589321357459,2.44381964895103,0.702686280579138,-0.700501574769321,418.564332585675,387.290397588486
0.96,0.16775841821381,0.015101499504378,2.69888284303526,-0.756104017908483,-0.127292546527814,-0.110306617060558,-1.32854807113116,-2.46791853776034,2.37460339787219,420.41112796282,387.290397588486
0.97,0.151232024188415,-0.0259353485850755,2.87921585620507,1.29499267424018,0.0929607980232742,0.122073983621535,2.98927888052499,1.01543180342437,-0.820669743007744,422.088424757093,387.290397588486
