t,iq,id,vq,vd,ia,ib,va,vb,theta_e,omega,r
0,0,0,0,0,0,0,0,0,0,0,0
0.01,0.000376172013872445,0.000194953582398891,-0.0174333798149231,-0.00974970083276079,-0.000406210292013716,0.00012043870629139,0.018960399928586,-0.00628352072072509,1.76070550416073,-0.00282197864606398,0
0.02,0.000543505019158963,0.000269024556433121,-0.0255178154694994,-0.013454028927866,-0.000584513445866952,0.000161604298877733,0.0275985565605436,-0.00839580112328485,1.76068204133636,-0.00341166416715807,0
0.03,0.00062001964378259,0.000304514063300651,-0.0294139454416038,-0.0152288650540028,-0.000666346902245991,0.000182030160389246,0.0317594235311136,-0.00940412325770035,1.76065783494019,-0.00317812726578148,0
0.04,0.000622949219151648,0.000309781141549089,-0.0299131053847032,-0.0154922760303339,-0.000670214084994023,0.000186663241096711,0.0322991323006369,-0.00956924986518644,1.76063765071749,-0.00245023799756539,0
0.05,0.000625270369937805,0.000319307331881791,-0.0303007538182989,-0.0159686777186322,-0.000674288112232288,0.000195590770277753,0.0327695597219291,-0.009964452100824,1.76062208936825,-0.00188960686252555,0
0.06,0.000615464416800913,0.000322764772114988,-0.0300676564645029,-0.0161415898251196,-0.000665308359834792,0.000200844050946168,0.0325731583387678,-0.0101786169584739,1.76061054230911,-0.00137262606656796,0
0.07,0.000606989721671906,0.000326682425529138,-0.029827388074171,-0.0163375180010856,-0.000657723426684551,0.000206295475847802,0.0323740906507926,-0.0104166130914639,1.76060269727643,-0.00100551513141496,0
0.08,0.000593585160572177,0.000325441047071665,-0.0293259961621763,-0.0162754296230531,-0.00064432420234165,0.000207609104442447,0.0318699293407211,-0.0104504193282556,1.76059696859604,-0.000674234731048229,0
0.09,0.000583470044539121,0.000324989972200035,-0.0289363465582568,-0.0162528721377362,-0.000634304859847685,0.000209076827215912,0.0314829824793199,-0.0105018959751074,1.76059326718277,-0.00044745150183002,0
0.1,0.000576271048461071,0.000324825966771561,-0.0286535959443985,-0.01624466798921,-0.000627203706996634,0.000210275390650407,0.0312037369176745,-0.0105472556144748,1.76059093166093,-0.000297203789146115,0
0.11,0.000571356087376753,0.000324766276622016,-0.0284577813550727,-0.0162416853737917,-0.000622365438353676,0.000211144912693242,0.0310108606176825,-0.0105813131125125,1.76058948945522,-0.00020031224515634,0
0.12,0.000568106760051212,0.000324744517589601,-0.0283268498577577,-0.0162406066676197,-0.000619170168594254,0.000211737088964949,0.030882067464164,-0.0106049817036666,1.76058861697178,-0.000139280212229578,0
0.13,0.000583712102050667,0.000334158169075969,-0.0290482780132505,-0.0167113831065821,-0.000636271025453388,0.000218038258590336,0.0316793455888984,-0.0109312324981768,1.76058770627429,-0.00024196453157987,0
0.14,0.000592874598202782,0.000339640838342692,-0.029582591761959,-0.0169855723644171,-0.000646303092903671,0.000221694610596166,0.0322557803346744,-0.0110997314788605,1.76058666428378,-0.000283314825595865,0
0.15,0.000575951447490746,0.000330144623288847,-0.0287340335839485,-0.0165106594863402,-0.000627892121809375,0.000215562115231181,0.0313328549629934,-0.0107934592483307,1.76058570763163,-9.93730732030169e-05,0
0.16,0.000567562907880811,0.000326696873177572,-0.0283560541927451,-0.0163382369125545,-0.000619003770559755,0.000213758820587435,0.0309291341404201,-0.0106954409033266,1.76058565538528,-2.39490507114878e-05,0
0.17,0.000563699485330973,0.000325445154321005,-0.0281763522120559,-0.0162756350100449,-0.000614973641075896,0.000213258244894028,0.0307408519516184,-0.0106678554661519,1.76058594016452,-7.41630736604921e-07,0
0.18,0.000562135674785006,0.000324990745379596,-0.0280991838129715,-0.0162529195885533,-0.000613352261518401,0.000213106791864178,0.030660787698361,-0.0106600949256175,1.76058629871963,-4.3131381430072e-07,0
0.19,0.000561672624526654,0.000324825805760407,-0.0280723611655293,-0.0162446671627961,-0.0006128664786287,0.000213031970849011,0.0306328932953197,-0.0106570409117869,1.76058662297706,-8.48114334366214e-06,0
0.2,0.000561687813707728,0.00032476595286431,-0.0280683708591492,-0.0162416715567477,-0.000612870158290054,0.000212970169942071,0.0306284122435847,-0.0106548440195545,1.76058687956708,-1.8193170646954e-05,0
0.21,0.000561873844295236,0.000324744244421219,-0.0280733375800443,-0.0162405828996917,-0.000613048793202231,0.000212913640570782,0.0306330864086053,-0.0106528321533668,1.76058706790772,-2.68542283945226e-05,0
0.22,0.000562090259980963,0.000324736377861924,-0.0280807100719407,-0.0162401881556761,-0.000613259866809639,0.000212865007065446,0.030640253448924,-0.0106510496225423,1.76058719941092,-3.36589404737187e-05,0
0.23,0.000562280618603453,0.000324733531674253,-0.0280876863516458,-0.0162400585810258,-0.00061344628918611,0.000212826245877962,0.030647080958146,-0.0106496035629699,1.76058728789672,-3.86312580605335e-05,0
0.24,0.000562429339126079,0.000324732504654639,-0.0280933402473127,-0.0162400073685513,-0.000613592157787937,0.000212797145164628,0.0306526242848841,-0.0106484848702345,1.76058734570575,-4.20919414777606e-05,0
0.25,0.000562537547148706,0.000324732135740906,-0.0280975453173025,-0.016239988264888,-0.000613698361033277,0.000212776346429771,0.0306567506355157,-0.0106476716785115,1.76058738253949,-4.44148084642353e-05,0
0.26,0.000564790076890774,0.000326092236832569,-0.0281963556940959,-0.0163080053178106,-0.0006161670661144,0.000213686977873541,0.0307666201312107,-0.0106958215007307,1.76058754344533,-7.01516715950746e-05,0
0.27,0.000561167138356619,0.000323455642531014,-0.028038062643479,-0.0161761387220474,-0.000612111716072551,0.000211781389416597,0.030586289173092,-0.0105961943816906,1.7605872479709,-2.73866814885206e-05,0
0.28,0.000560365718498439,0.000323122604694351,-0.0279026308933,-0.0161594836214995,-0.000611261854973532,0.000211605531088038,0.0304501470815408,-0.0106053884602961,1.76058723380374,-1.98379253111337e-05,0
0.29,0.00056151789437713,0.000324147633996549,-0.028051485655906,-0.0162107577371534,-0.000612586748449465,0.000212394703218792,0.0306060035585311,-0.0106276554371771,1.76058737967462,-3.53768276749937e-05,0
0.3,0.000551226486827046,0.000319442059633911,-0.0275702203572622,-0.0159754207216619,-0.000601592601920295,0.000209714593096456,0.0300889922775321,-0.0104873095455752,1.76058828183673,2.10837899158397e-05,0
0.31,0.000558080162056172,0.000322811495516029,-0.0278757625143277,-0.0161439385669523,-0.000608958915642185,0.000211730413445571,0.0304208419819499,-0.0105951527274487,1.76058850350204,-4.7222984289715e-05,0
0.32,0.000561361892203297,0.000324034807418065,-0.0280258213893505,-0.0162051046076868,-0.000612412479530467,0.000212312706524772,0.0305797445146596,-0.0106269141951929,1.76058840260323,-7.21988046267044e-05,0
0.33,0.000562788525934644,0.00032447892279005,-0.0280938981705231,-0.0162273160616514,-0.000613897237689737,0.000212479829197011,0.0306507870341774,-0.0106358899564614,1.76058820185874,-7.72001525818855e-05,0
0.34,0.000563299189793528,0.000324640139868066,-0.0281206369706731,-0.0162353808569976,-0.000614429103052892,0.000212541936937681,0.0306785650022833,-0.0106387717622302,1.76058799907763,-7.41027952192116e-05,0
0.35,0.000563390578744084,0.000324698651533935,-0.0281278227516349,-0.0162383094314281,-0.000614529853537929,0.000212582260869061,0.0306861724423315,-0.0106402973068281,1.76058783009246,-6.8594649957133e-05,0
0.36,0.000563314327769852,0.000324719879950604,-0.0281266904920822,-0.0162393732367885,-0.000614458949383111,0.000212617571778388,0.0306852598438634,-0.0106415595415191,1.76058770214842,-6.31499254058711e-05,0
0.37,0.000563190171214079,0.000324727576742682,-0.0281227274089962,-0.0162397591761254,-0.000614338454853939,0.000212648609064328,0.0306814397611387,-0.0106426890024502,1.7605876108844,-5.86554881375113e-05,0
0.38,0.000563069797910859,0.000324730364157547,-0.0281184109023039,-0.0162398992271609,-0.000614220755601149,0.000212674093659811,0.0306772265201029,-0.0106436427793045,1.76058754847096,-5.52712611172604e-05,0
0.39,0.000562971310599539,0.000324731371615123,-0.0281146996643102,-0.0162399504746146,-0.000614124218036148,0.000212693688412917,0.0306735911506646,-0.0106443945132719,1.76058750715455,-5.28661888218661e-05,0
0.4,0.000562897561510678,0.000324731734505176,-0.0281118390343879,-0.016239968197393,-0.00061405185600867,0.000212707974184597,0.0306707849472476,-0.0106449524032455,1.76058748052846,-5.12259655697079e-05,0
0.41,0.000562845291038504,0.000324731864474469,-0.0281097690928268,-0.0162399756825463,-0.000614000545076831,0.000212717973134941,0.0306687534079412,-0.0106453507703894,1.76058746376713,-5.01425795654562e-05,0
0.42,0.000562809726159182,0.000324731910580829,-0.0281083368143839,-0.0162399773060858,-0.000613965625313729,0.000212724734203549,0.0306673470443175,-0.0106456228862581,1.76058745343919,-4.94457284737457e-05,0
0.43,0.000562786326680976,0.000324731926678763,-0.0281073799035289,-0.0162399788995807,-0.000613942647715041,0.000212729168240306,0.0306664075503198,-0.0106458051671922,1.76058744720415,-4.90077950989469e-05,0
0.44,0.000562771250896818,0.000324731932150492,-0.0281067523929948,-0.0162399790172107,-0.000613927842884457,0.000212732019981476,0.0306657912905057,-0.0106459237780339,1.76058744351614,-4.87383830102713e-05,0
0.45,0.000562761821255762,0.000324731933925106,-0.0281063519290378,-0.0162399791208066,-0.000613918582445588,0.000212733801972892,0.0306653980142177,-0.0106459994943065,1.76058744138008,-4.85759950346859e-05,0
0.46,0.000562756058697339,0.000324731934452062,-0.0281061004004388,-0.0162399792152644,-0.000613912923203804,0.000212734890360987,0.0306651510070989,-0.0106460470759615,1.76058744017102,-4.84800923714875e-05,0
0.47,0.000562752566237688,0.000324731934579905,-0.0281059413746692,-0.0162399793040667,-0.00061390949333815,0.000212735549761685,0.0306649948465011,-0.0106460771844335,1.76058743950399,-4.8424644190015e-05,0
0.48,0.000562750470761898,0.000324731934593891,-0.0281058396488851,-0.016239979389388,-0.000613907435416198,0.000212735945313753,0.0306648949596388,-0.0106460964701108,1.76058743914736,-4.83933165409708e-05,0
0.49,0.000562749306608681,0.000324731934582851,-0.0281057771397463,-0.0162399794723839,-0.000613906292125814,0.000212736165037369,0.0306648335866404,-0.0106461083498237,1.76058743896398,-4.8376075397544e-05,0
0.5,0.000562748666324412,0.0003247319345718,-0.0281057366121587,-0.0162399795540704,-0.000613905663317608,0.000212736285873417,0.0306647938012388,-0.0106461160784658,1.76058743887461,-4.83668812751857e-05,0
0.51,4.73001300527354,-0.0244686620722855,3.49980700861679,1.23402166872685,-0.589130431453806,4.69324483488934,0.807260267147268,3.62212498922054,0.119701146796143,37.151093591974,676.220595638243
0.52,4.75444257405246,0.00619926099402979,2.27888543606193,-0.286980220984337,-2.47011465741593,4.06242491623149,-1.43151990692921,1.79622583045584,0.547613795581061,79.7457794411014,676.220595638243
0.53,4.69334184368508,0.0469261815649578,5.33460198882891,-2.31203572230895,-4.50449833968309,1.31877004666995,-5.7618339982863,-0.777660939383039,1.29598625214574,125.28016169659,676.220595638243
0.54,4.69254987901103,0.0487476018167516,5.37506133424172,-2.39654999624733,-3.2536441317928,-3.3817451943249,-1.94205712343175,-5.5554613094415,2.38588574975385,170.878277001375,676.220595638243
0.55,4.51488257552265,0.00513538631552302,7.37487562583116,-0.196238315138745,2.73421124398695,-3.59280947396407,4.62891672771313,-5.74460006446964,-2.48993652994274,213.523512375734,676.220595638243
0.56,4.1514599143969,0.00726149508843754,5.83509273083107,-0.304039680371241,2.88233374041249,2.98777916838493,3.82472808004359,4.41726186889163,-0.765687853874967,255.063406247814,676.220595638243
0.57,3.80818744596556,0.0504995608226149,5.29771947901119,-2.47275824125637,-3.58820474267149,1.27656905568119,-5.81223443056923,-0.631106902276813,1.2422521005854,292.942973141482,676.220595638243
0.58,3.42437728966359,0.0185795713553742,8.6950988435822,-0.878723219924606,1.22447355904027,-3.19802587945231,3.97203095700452,-7.78459173454183,-2.77050216794406,326.828190134804,676.220595638243
0.59,3.14790163579377,0.0131298177956134,7.97497892294322,-0.595200897863692,0.823870464332519,3.03820581244078,1.47997611602295,7.8590217983034,-0.260631124529545,357.742894891227,676.220595638243
0.6,2.88731453651969,0.00838010123595501,7.60490272833076,-0.357806252526065,-1.80808030490207,-2.25111107454072,-4.46544338543484,-6.16622949566391,2.46780918325799,386.219089067339,676.220595638243
0.61,2.61812324708962,0.0609596834621775,8.73954005470087,-3.0042552776217,2.06816941742972,1.6065368594487,4.87750065510393,7.84952848904311,-0.887088320286816,412.433660103898,676.220595638243
0.62,2.41803044616,0.0305818798590233,7.44167566899458,-1.48655322470964,-1.9389299308094,-1.44511494814216,-5.00665551201976,-5.70278684823155,2.22393950589519,436.29045931277,676.220595638243
0.63,2.20474631512798,0.0138774595620834,7.84470622353647,-0.645872601116252,1.56250110206788,1.55553502178221,5.06592605509006,6.02436389628184,-0.781338010488719,457.958555640769,676.220595638243
0.64,2.03345084746586,0.0166148525244675,7.12829305914463,-0.770093207097229,-0.976363425952498,-1.7837917094903,-2.69281904876876,-6.64487253867634,2.64895468150112,477.672642522502,676.220595638243
0.65,1.83345846487076,0.00698892546067265,8.61696698297228,-0.288459824134588,0.125223398642299,1.82919050071823,0.267892592462611,8.61763091659638,-0.0645398619128889,495.917505363194,676.220595638243
0.66,1.68111975436876,0.00977663389073813,8.303626176425,-0.455555506177738,0.78431069935501,-1.48698215792133,4.31825806920999,-7.10706590265787,-2.65041044741408,512.6422860475,676.220595638243
0.67,1.51628002784819,0.00208452004403192,9.47632243831176,-0.0497552028204821,-1.39111182959146,0.603255622141908,-8.71895558763101,3.71254306318143,1.16299669653259,527.604136864364,676.220595638243
0.68,1.42289950563097,0.0255646566205887,7.59207231697271,-1.25735095946564,1.3357277605069,0.491047762039706,6.62262182158756,3.91935883910172,-1.20054181743562,541.645034107703,676.220595638243
0.69,1.2943477544095,0.0189094075627634,8.0406615584181,-0.901562930268088,-0.43149794273947,-1.22045204758356,-1.71491296983177,-7.90721996153888,2.81636174940201,554.169655954952,676.220595638243
0.7,1.15845512274211,-0.000612936939999087,9.37468084945832,0.0442898146884064,-0.691252332367906,0.929617588094728,-5.55435274206841,7.5522028729082,0.638855579985331,565.87193567167,676.220595638243
0.71,1.0624066771848,0.0026657496862903,9.1888408862014,-0.0927677271051591,1.05589418098701,0.117484179811591,9.11941685172088,1.13121128338964,-1.45747783356694,576.32210685507,676.220595638243
0.72,0.927546458125623,-0.00050582698022611,11.3577624135617,0.0330112737408012,-0.307326044407199,-0.875153352431073,-3.80017632522855,-10.7032012353446,2.80333214497683,586.063185005301,676.220595638243
0.73,0.878284167044991,0.0318924988830566,9.67243820510243,-1.55234048992824,-0.637972017173586,0.604476562713878,-8.28416613070673,5.22861485931477,0.848647193289355,594.794523897733,676.220595638243
0.74,0.767852165941827,0.0237777498017512,11.3186229822519,-1.17653247127047,0.675696946606649,0.365507819989726,9.19243449996392,6.70780163944849,-1.04398311043812,602.969290855571,676.220595638243
0.75,0.683946660873924,-0.0113801198392007,12.0592884231284,0.579640767990423,0.187866031183858,-0.657737710926909,2.55868702007805,-11.7989635742043,-2.88001333329088,610.326124943174,676.220595638243
0.76,0.685447658137763,0.0111604468073321,8.77074938678531,-0.527002247369671,-0.685189127806637,-0.021883938289612,-8.73516359915504,-0.949048507993289,1.6190045545332,617.028190471298,676.220595638243
0.77,0.603499803990178,0.0316506933937001,9.93812584394421,-1.58053938435826,0.102512718877965,0.595571089188127,-0.398990181914654,10.0551109824962,-0.118057577630869,623.234553676871,676.220595638243
0.78,0.501963143958716,-0.00773721697642335,12.3877113028046,0.398003848376128,0.489259212477053,-0.112482378290081,11.9334080571704,-3.34777097872838,-1.81218570262204,628.803481073925,676.220595638243
0.79,0.512917864273948,0.0137125961083209,9.39205353813104,-0.65793025394074,-0.176990932686911,-0.481608742165251,-2.37958149161306,-9.10939810343926,2.81614211653895,633.903288170587,676.220595638243
0.8,0.487198896569806,-0.0282894666522151,8.45338754123112,1.41901087485059,-0.463897248595266,0.151533499557178,-7.35181412427625,4.40728735928098,1.19706952058641,638.575174831494,676.220595638243
0.81,0.406569429936401,-0.0193663382000996,10.4457590333086,0.956417806711651,0.136385828919696,0.38350053726687,4.84928537041531,9.30123906795323,-0.389282682257308,642.874926667477,676.220595638243
0.82,0.373492206228891,-0.00279761573457277,10.2510447702165,0.169428786529215,0.348576090714897,-0.13416021671659,9.47702797808387,-3.91133809549922,-1.94569156853468,646.73177446775,676.220595638243
0.83,0.332442182223423,0.00417836844005504,10.5844641117024,-0.195126346611827,-0.112640331779845,-0.312805720761016,-3.27617605232548,-10.0665597548133,2.80851944762365,650.317006888153,676.220595638243
0.84,0.292871809595166,0.0248501612160096,11.0136643769198,-1.25131045595525,-0.276002560386583,0.101064405346587,-10.9546414493596,1.69186630103761,1.3044348675057,653.558403027899,676.220595638243
0.85,0.2336367281371,-0.0411647172292605,12.5550090597697,2.04021274041643,0.232854056455777,-0.0453832906614743,10.9875993799106,-6.40807150269442,-1.93768457059986,656.52904844639,676.220595638243
0.86,0.255491435127895,0.00198153777305229,10.1564467440555,-0.0734377080204982,-0.066780402888916,-0.246617472425721,-2.50747208753362,-9.84232631505554,2.88490459350552,659.238843240221,676.220595638243
0.87,0.248228075152713,0.00290238535281782,9.32660914432158,-0.131232167155222,-0.245843554816106,0.0344463015451203,-9.26757324250747,1.05591013225496,1.4432797505238,661.699785215474,676.220595638243
0.88,0.207371776593114,0.0250688474273565,10.2899265992782,-1.26056509172573,0.0211622114011819,0.207806789223384,-1.4539715370568,10.2643840798384,0.018818508743028,663.933164444511,676.220595638243
0.89,0.173175335433804,0.0197937666637753,11.0089256231938,-1.01082644540776,0.173911863544353,0.011668492613915,10.6477214533408,2.97392692106156,-1.38999733034118,665.986339178925,676.220595638243
0.9,0.128709850014102,-0.00582241504606957,12.3183522285429,0.305492355813606,0.050461223779357,-0.11854868578905,4.02118877376959,-11.6475391414503,-2.78437054027993,667.863571658779,676.220595638243
0.91,0.131461858253193,0.0377662924124816,11.3410910390961,-1.87046534538744,-0.131930720025836,-0.0360942949984081,-8.71494314648494,-7.49458154394869,2.11759286562594,669.571273946398,676.220595638243
0.92,0.139307548183242,0.0171009787049402,10.180943221936,-0.850805557571969,-0.0822517582850713,0.113726358916952,-7.55057048487109,6.8821770057209,0.748301281034148,671.152267923583,676.220595638243
0.93,0.135236423261353,0.00606664758876795,9.68597954338575,-0.316145316789029,0.0824339665461302,0.107379400021427,5.28881550139105,8.12074985259739,-0.609896666661401,672.565615104732,676.220595638243
0.94,0.06391408810756,-0.0152405096751998,12.6316311902128,0.736684505143761,0.0649338310896118,-0.0100439720134301,11.4164558053362,-5.45576277256279,-1.95834200088936,673.817696080122,676.220595638243
0.95,0.0616882462564454,0.0370772557626215,12.1750840726933,-1.8440856124242,-0.0462358872208395,-0.0551580035351581,-0.0753932691820607,-12.3137175450009,2.98514870642368,674.956505396356,676.220595638243
0.96,0.0681083935892228,0.0113255084423211,11.3337975764647,-0.549302700974545,-0.0688106818327773,0.00566661137628692,-11.2498149046169,-1.48268862996769,1.65340977117588,676.002793772814,676.220595638243
0.97,0.0745256305136417,-0.0217207740865845,10.5355073688992,1.09178715080908,-0.044633365524164,0.0635116076978268,-2.37052651858844,10.3232513641522,0.328977496449894,676.960983614283,676.220595638243
